! Created with skrf (http://scikit-rf.org).
# Hz S RI R 50.0 
!freq ReS11 ImS11
400000000.0 0.1761278501100319 0.8558313025293692
420000000.0 0.6148674895393572 0.6018838214978054
440000000.0 0.7892324527256638 -0.2502839608258054
460000000.0 0.18638941790690583 -0.7668418418134008
480000000.0 0.5005420023840003 -0.502812509936424
500000000.0 0.2290745991177511 -0.5142174222064262
520000000.0 0.022421880401429464 -0.48650500754505505
540000000.0 0.400317578058048 -0.13927987144307388
560000000.0 -0.31223622356957403 -0.1597550286300304
580000000.0 -0.2646435053085652 0.19932917546986254
600000000.0 0.27854634441477777 0.16845826272232553
620000000.0 0.060884083634118076 -0.3421866347964606
640000000.0 -0.19632443796771396 -0.3278132733915046
660000000.0 -0.400404426517168 0.02626347992869269
680000000.0 0.004438858046566364 -0.430675740467225
700000000.0 0.32384219212313575 0.3124051372399214
720000000.0 0.010518061291808453 -0.4488761442803661
740000000.0 0.39626254833542257 -0.18761447173056212
760000000.0 -0.3591177171571355 -0.20666501112195418
780000000.0 0.31652590502442035 -0.21509159575839004
800000000.0 -0.20664167624842897 0.2804413212335598
820000000.0 -0.17551632988420196 0.23293124276336602
840000000.0 0.06632706633060399 0.22815138918378394
860000000.0 -0.10889801758584776 0.1732579130843038
880000000.0 -0.14475466316965407 0.007920447968685143
900000000.0 0.06808542756633898 -0.041197467198237046
920000000.0 0.0375158602582506 -0.030165800896128157
940000000.0 0.007067856943170067 -0.04087195978436305
960000000.0 -0.03159219687135224 0.04444642233999397
980000000.0 0.05657565270873622 -0.026208514272544076
1000000000.0 -0.05486850957891674 -0.04113792510611311
1020000000.0 0.061135382479962246 0.04923021690607618
1040000000.0 -0.05154051815589948 0.062226611495223
1060000000.0 -0.10985359257499923 0.03936342790826406
1080000000.0 -0.09109704497974237 0.09693132315788203
1100000000.0 -0.1218034137886631 -0.10190107679435642
1120000000.0 -0.14727906302774293 -0.11978503927896139
1140000000.0 0.079971342328779 0.22433737667239997
1160000000.0 0.28496043869381826 -0.0009379719337832246
1180000000.0 -0.027081959959336665 -0.3296525234768164
1200000000.0 -0.2461921849260142 -0.27143117406745987
1220000000.0 0.1989107926456081 -0.34344648358774416
1240000000.0 0.3035223262655615 0.2885829967352987
1260000000.0 -0.41701739503559754 -0.14090164534926547
1280000000.0 0.43786841729728254 0.1080133414881596
1300000000.0 -0.37548672906090996 -0.25104631707167363
1320000000.0 -0.10509643792866667 0.4265309643438727
1340000000.0 -0.23838902666902675 0.3491177031217148
1360000000.0 -0.30976778427781526 -0.2691743821749621
1380000000.0 -0.07940347814437713 -0.4004141113163815
1400000000.0 -0.11295890535070134 -0.37880766653173514
1420000000.0 -0.08737240539076457 -0.37287836764284066
1440000000.0 -0.2350469682452132 -0.2831363659321019
1460000000.0 -0.3418744905945337 -0.06523750981102826
1480000000.0 -0.1493515424058544 0.2939191752125971
1500000000.0 0.22398100602932697 -0.21085825145242068
1520000000.0 -0.23467093030007877 -0.1587736064244637
1540000000.0 -0.13831020136890174 -0.2163568765437641
1560000000.0 -0.21988158626624563 0.014356289162209424
1580000000.0 -0.014894277197459616 0.1872410962441456
1600000000.0 -0.14745608079100317 -0.04405998226887282
1620000000.0 -0.10585827547057507 -0.03654715465546304
1640000000.0 0.08109050558063487 -0.018679258114305517
1660000000.0 0.021386092876148573 -0.05385623696790213
1680000000.0 -0.01487559262868695 0.02567189277395968
1700000000.0 0.003704483099652568 -0.019484446593910784
1720000000.0 -0.013804575033985458 0.03183881068393058
1740000000.0 0.042812843588831605 0.03509175843085803
1760000000.0 -0.07182918058522482 -0.011598037486818457
1780000000.0 0.08883241642550616 -0.024220982643055698
1800000000.0 0.06725315911237971 0.09713091921158819
1820000000.0 0.03386576994376394 -0.12710795387343335
1840000000.0 0.13996059731332586 -0.06715783981953388
1860000000.0 0.1762132235750915 -0.008046030153870584
1880000000.0 -0.15582602081847577 0.13703879895562698
1900000000.0 -0.21604196828183062 -0.11774611373303077
1920000000.0 -0.25810722363375377 0.13315176840819
1940000000.0 0.039106505480914516 0.33395542049780375
1960000000.0 0.2414243418752776 -0.28984241626527435
1980000000.0 -0.27476710937556803 0.3026120149511953
2000000000.0 0.4342078065813267 -0.02936507180139122
2020000000.0 -0.44773100240068536 -0.07217297609284026
2040000000.0 0.25304410054589044 0.38317181204311657
2060000000.0 0.02272603406471149 -0.45680043395248526
2080000000.0 -0.4240803703964062 0.1324437506596631
2100000000.0 -0.15705015620219856 0.3971017489740666
2120000000.0 -0.06021777486568602 0.40048447487024036
2140000000.0 -0.23082585096285596 -0.3073500434214052
2160000000.0 0.03705720596938217 -0.3641506176970682
2180000000.0 0.3523419385919686 -0.03481374212505231
2200000000.0 0.24251707173108525 0.2466919293554271
2220000000.0 0.1936196981792269 0.29029279387206053
2240000000.0 0.26473712391828996 -0.2304236181527748
2260000000.0 -0.1864350256467861 -0.30320344974402824
2280000000.0 -0.2407743851152877 0.27027681665661046
2300000000.0 0.3637873288074543 0.08479310109951566
2320000000.0 -0.22116315745366164 -0.3242359789464498
2340000000.0 -0.3048475486279422 0.28535671435166393
2360000000.0 0.43346055935352373 0.1314221847373142
2380000000.0 -0.29896963986798697 -0.39864084770056
2400000000.0 0.1413289756764104 0.5304064676684217
2420000000.0 -0.24539818900778676 -0.5499403494271435
2440000000.0 0.5466555389723309 0.3586245333359688
2460000000.0 -0.692864490745155 0.0732775966917071
2480000000.0 0.5841176691986241 -0.4384588840325213
2500000000.0 -0.5441826587447772 0.5203275510660541
2520000000.0 0.6214072888483158 -0.4464673035073701
2540000000.0 -0.7627498679845585 0.09375908650654274
2560000000.0 0.6713252651810587 0.3640893534521655
2580000000.0 -0.04131835929794894 -0.7484293664565715
2600000000.0 -0.5215759735829971 0.5042721137862214
2620000000.0 0.6745522494288849 0.1671271249786789
2640000000.0 0.6455431938093187 -0.1273891366790419
2660000000.0 -0.4255650518747056 -0.4444258771284443
2680000000.0 -0.10892569023792918 0.5609743811061705
2700000000.0 0.39382609491850334 -0.3524810752414375
2720000000.0 -0.4048437615337979 0.26354866042413283
2740000000.0 0.3580572398230366 -0.2557971356440006
2760000000.0 -0.13892102802148118 0.3729906311771619
2780000000.0 -0.21545168271387413 -0.29174462481989116
2800000000.0 0.33033567503234673 -0.0023473638001034747
2820000000.0 -0.2067710630333293 0.22524275467953786
2840000000.0 0.1868219092789239 -0.22045530613558248
2860000000.0 -0.21651429191866875 0.18256585639896777
2880000000.0 0.27328513360695794 -0.07470582570424526
2900000000.0 -0.262218885291503 -0.11909094314295864
2920000000.0 -0.05895102131209671 0.2937338879821429
2940000000.0 0.2956243457415235 -0.0966979028595071
2960000000.0 -0.14644107544726653 -0.28331587977319084
2980000000.0 -0.300268595546548 -0.1294842474337558
3000000000.0 -0.3287735799432722 -0.022774915949856946
3020000000.0 -0.30720523087393214 -0.1169576714708468
3040000000.0 0.040905123450793994 -0.31998896670796906
3060000000.0 0.24974024469086234 0.19112408622259916
3080000000.0 -0.2870018761646606 -0.1023862922043432
3100000000.0 0.28455166858255904 0.07629865126467691
3120000000.0 -0.1882923606319821 -0.2098010685353872
3140000000.0 0.03966813150879454 0.2679235067222922
3160000000.0 0.18119713298604495 -0.18303319313458224
3180000000.0 -0.0976120041460648 -0.22393352066077019
3200000000.0 0.19051758466759752 0.12642986574576287
3220000000.0 -0.13274937879650292 0.15947648666609923
3240000000.0 -0.18472278714955415 0.001245607335456604
3260000000.0 -0.14429914834601965 -0.057901905614367415
3280000000.0 -0.03886886457649302 0.11571637621300045
3300000000.0 0.08784528389079498 -0.0022519374006723576
3320000000.0 0.031004170143897874 -0.04311232617649883
3340000000.0 -0.023625640100164425 0.0021963718532769256
3360000000.0 0.012989308949084956 0.007080353674982179
3380000000.0 -0.012479451434029183 -0.023171330811573403
3400000000.0 0.02374439386574785 0.02555981562872715
3420000000.0 0.03363378217049069 0.020108448156904445
3440000000.0 0.036353541298911995 0.0008659282562337013
3460000000.0 0.021318637596222316 0.032692009446502336
3480000000.0 0.05377263835879917 0.013879026696626452
3500000000.0 0.07649457275820766 0.024217438055290186
3520000000.0 0.10135538034577415 -0.03553309838596868
3540000000.0 -0.1045590349009677 -0.07158696242588458
3560000000.0 -0.07027824407242747 0.12032034353254885
3580000000.0 -0.12815487386101976 0.07772071035699928
3600000000.0 -0.15109716613703292 0.050792640504143526
3620000000.0 -0.10362888930586987 -0.1285120987366824
3640000000.0 0.1659427272716129 0.032534977664129834
3660000000.0 -0.17622199670489758 0.01759778632376161
3680000000.0 0.17197522205038557 -0.06137882584060238
3700000000.0 0.028792083270318226 0.18453807841920697
3720000000.0 -0.18849858341160547 0.04211576588982412
3740000000.0 -0.17441455799056152 0.08523338446158868
3760000000.0 -0.13328080032840667 -0.1366673396962066
3780000000.0 0.07775212076022729 -0.1643113662160405
3800000000.0 0.07115457905538283 0.1521381602278906
3820000000.0 0.15247300036789227 0.006850426360190406
3840000000.0 -0.03003542893600989 0.13534295809160954
3860000000.0 0.09903363035923436 0.09169745266051658
3880000000.0 -0.07822165761685573 -0.11917236340161454
3900000000.0 -0.08317606184401914 -0.12925391708857442
3920000000.0 -0.009631165678445299 0.1664397780817132
3940000000.0 -0.12934217721040017 0.1214591105967285
3960000000.0 0.061955565595957926 0.1751326377842375
3980000000.0 -0.09397437331815942 -0.15787091998164737
4000000000.0 -0.1289540336813113 0.11360839850299585
