! Created with skrf (http://scikit-rf.org).
# Hz S RI R 50.0 
!freq ReS11 ImS11
400000000.0 -0.7114033321377006 0.4936318305655508
420000000.0 0.29097703328169705 0.8142014385465745
440000000.0 0.8035831875212324 -0.23869373268700952
460000000.0 0.18787978862964655 -0.7655269942022028
480000000.0 0.5268030733914553 -0.4920975685576488
500000000.0 -0.34558902658307333 -0.4440422938223624
520000000.0 -0.44301910547218143 -0.21136469123879303
540000000.0 -0.1210742541149957 -0.3924784921227026
560000000.0 -0.3435315648439722 -0.12249058571563713
580000000.0 0.24425398646909713 -0.2076198725404184
600000000.0 -0.1255347389505933 -0.3043972241091871
620000000.0 0.2792160208447122 -0.17806825922668482
640000000.0 -0.3471262930581503 -0.0031477792843469655
660000000.0 -0.2278604345149291 0.3069434131225768
680000000.0 0.11727182880195246 -0.3856958007482861
700000000.0 -0.39934083562060996 0.17782362484098868
720000000.0 0.07575019542926463 0.43285372940454786
740000000.0 -0.4272061068981975 0.14816388709880887
760000000.0 0.07805211914836553 -0.42443654282428905
780000000.0 0.2510498933169264 0.31257050573826567
800000000.0 -0.13645769723369322 0.3377872344014011
820000000.0 -0.23445254122968787 0.19271698750552
840000000.0 0.20076167748142157 -0.15625994782550848
860000000.0 -0.038163719498057 -0.2002713815792104
880000000.0 -0.10906674249819921 -0.10732166679601905
900000000.0 0.015947710084817723 -0.07532540367617574
920000000.0 0.015038720770630511 0.04153991239770939
940000000.0 0.018077001009331253 0.04779549274803371
960000000.0 -0.06002743803549828 0.005845857135817218
980000000.0 -0.0625403441223622 0.0091129952889802
1000000000.0 0.00925530968184046 -0.06716665451049761
1020000000.0 0.05128742261557816 0.04974008653053354
1040000000.0 -0.019848437260699528 -0.07588577596007902
1060000000.0 0.09998818857448928 0.05433464639395977
1080000000.0 0.10834471218276617 -0.08360770797036719
1100000000.0 -0.030877657761599477 -0.15995507833651845
1120000000.0 -0.17609579620225554 -0.08874925870313612
1140000000.0 0.2240873008124779 -0.08899081143799417
1160000000.0 -0.04274571385068992 -0.28049423310006866
1180000000.0 -0.28906194365731 0.15150004540852752
1200000000.0 -0.34953426087346695 -0.06877107187388641
1220000000.0 -0.03991439552751138 -0.38831551784469465
1240000000.0 0.2204901253426566 0.3467482919717631
1260000000.0 -0.3278503538790679 -0.2892953698019755
1280000000.0 0.3371387412523052 0.2911594836096078
1300000000.0 -0.01437330866658283 -0.4515751481660208
1320000000.0 -0.392100377129132 0.1999763836196235
1340000000.0 -0.4210007388326307 -0.09165974241315505
1360000000.0 -0.2569963985326337 -0.33693593661218985
1380000000.0 -0.2977224039554791 -0.2986252952184096
1400000000.0 -0.33351376231437024 0.2279360766348433
1420000000.0 -0.3113269886967921 0.22981460092590045
1440000000.0 0.024423300117026897 0.36489797838873167
1460000000.0 0.032207152455805535 0.3373940343503508
1480000000.0 0.17346923327062272 0.26763973119183637
1500000000.0 0.2880951762574645 -0.06995213582679648
1520000000.0 -0.27080863424525947 0.031982159776118506
1540000000.0 0.20608534176204182 0.1437812717872514
1560000000.0 0.19306664224140163 0.10694397728014664
1580000000.0 0.160948238605259 -0.10147361730767882
1600000000.0 0.12628522411016674 0.09251645475718606
1620000000.0 -0.11211433630369722 0.04161405023691721
1640000000.0 0.06728638229481904 0.058497545365133144
1660000000.0 -0.016098899783074862 -0.06255306356379688
1680000000.0 0.036412562544649425 -0.006302814041585737
1700000000.0 0.016045982408760175 -0.007111236153822219
1720000000.0 0.020300614136371267 -0.010309701080092212
1740000000.0 0.04094859576426283 0.0021905529479821296
1760000000.0 0.04169164218546143 -0.048224883096374786
1780000000.0 -0.07398609566632544 -0.04795255550591683
1800000000.0 0.016074015106045572 -0.11968362043900806
1820000000.0 0.14711579884215895 -0.030712980585549624
1840000000.0 -0.12926904675931722 0.12116972096104256
1860000000.0 0.13897358856914876 -0.14711410377407616
1880000000.0 0.07616356487259965 -0.2123174391743627
1900000000.0 0.13695014341917996 -0.21644654845529898
1920000000.0 -2.0280140358239234e-05 -0.28737542087431955
1940000000.0 0.11136878851980637 -0.30152799815766707
1960000000.0 -0.2106488885594509 -0.2888996659381119
1980000000.0 -0.31908355148023604 0.2226230564031637
2000000000.0 0.19131348222403777 0.37248418666900535
2020000000.0 0.3079058468626871 -0.3166628065428898
2040000000.0 -0.45472489906919106 0.05627236080568725
2060000000.0 0.4239865771288158 0.17870928858018598
2080000000.0 -0.10129999291173224 -0.44592540152931215
2100000000.0 -0.3460001986250299 0.2783875614910364
2120000000.0 0.18252659701997268 0.38304950392996384
2140000000.0 -0.22429859385946627 0.3307602118985155
2160000000.0 -0.22735135247178734 0.30375864219855725
2180000000.0 -0.3581129354198139 0.011790535329939055
2200000000.0 -0.23038997812708054 -0.25670731552400594
2220000000.0 0.1945227470240724 -0.27630374271623015
2240000000.0 0.19912349031756998 -0.27877312994443815
2260000000.0 0.023613999536272738 -0.3513472371617367
2280000000.0 -0.3409362244586393 -0.12766515615139803
2300000000.0 0.14696062770974228 0.3533162047832643
2320000000.0 0.038678805406354384 -0.4060195443697431
2340000000.0 -0.24245495777216708 0.36150806552596026
2360000000.0 0.35640598983138594 -0.30775036295194724
2380000000.0 -0.4831278615022572 0.17181146617749776
2400000000.0 0.5419808397312996 -0.14150366994701882
2420000000.0 -0.4863859833729074 0.3669205752592116
2440000000.0 0.23289448717962088 -0.6133049570505577
2460000000.0 0.20271131119348745 0.6647170332001954
2480000000.0 -0.5008465131451844 -0.5246737421151473
2500000000.0 0.5230296528085563 0.5308878454548944
2520000000.0 -0.40140621098357704 -0.6412808173173337
2540000000.0 0.17583134326812297 0.737229499753972
2560000000.0 0.3694022331413296 -0.6551227331877661
2580000000.0 -0.7235898015746021 0.1398434271779769
2600000000.0 0.5389421564679692 0.4671881437154505
2620000000.0 0.05462398672466659 -0.6797789156977841
2640000000.0 -0.20050370822852506 -0.6125075515393872
2660000000.0 -0.4505679510079839 0.395920905730226
2680000000.0 0.46104177242121525 0.31055878875066456
2700000000.0 0.1718617715759311 -0.4840837528767126
2720000000.0 -0.38138360485276807 0.2763816715839612
2740000000.0 0.4322162368813969 -0.0020261967971312877
2760000000.0 -0.38581081645077714 0.09484180918540051
2780000000.0 0.05974896644187485 -0.3594467076643418
2800000000.0 0.2642163169030124 0.20686855679694743
2820000000.0 -0.19412254548634128 0.245135377847495
2840000000.0 -0.07820061461057427 -0.28323679077179564
2860000000.0 0.14985777044291637 0.23954125295048445
2880000000.0 -0.13906661933313294 -0.23996613628334468
2900000000.0 -0.1135298306667722 0.24934742475670482
2920000000.0 0.09499297314235149 0.26441361785149387
2940000000.0 0.2823758280142959 -0.0677221280567018
2960000000.0 0.23875572111004528 -0.17867839042372943
2980000000.0 0.08789188314051806 -0.2987028716249134
3000000000.0 -0.00977190013860313 -0.3197057045214156
3020000000.0 0.031956005842952766 -0.320848997960458
3040000000.0 0.25053835766548044 -0.197790701259622
3060000000.0 0.22702332286983712 0.21850170498306037
3080000000.0 -0.29310665280157516 0.08693813999206941
3100000000.0 0.10543503914762571 -0.277162619748942
3120000000.0 -0.03012029738291765 0.2806769509569551
3140000000.0 -0.05694370136898574 -0.2625100817324282
3160000000.0 -0.22807814170537963 -0.10403458763058168
3180000000.0 0.1485150374687456 0.17963030306230973
3200000000.0 -0.054251686952215224 -0.2066388645485545
3220000000.0 -0.04099458652080706 0.18946444606700838
3240000000.0 0.0650876634305703 -0.16095154542350404
3260000000.0 0.028677529393865375 0.1487973123722646
3280000000.0 7.869034374886646e-05 0.1261168144679413
3300000000.0 0.08905196589039471 0.04154431071535231
3320000000.0 0.025981818545543652 0.0644617571889623
3340000000.0 -0.03442854018665537 -0.0195445220002536
3360000000.0 -0.02192765853405067 0.009044579645357896
3380000000.0 0.027442043746027205 0.008431506488830948
3400000000.0 0.041146397320966456 0.005149490980651269
3420000000.0 0.05019124444918912 0.011303453621268245
3440000000.0 -0.0485234069677025 -0.010790635516095715
3460000000.0 0.03354245563595285 -0.026499449706330638
3480000000.0 0.029553603994752924 -0.029871495081931487
3500000000.0 -0.027076247369433662 -0.05173636825828542
3520000000.0 0.008286189081993372 -0.086615896350139
3540000000.0 -0.07955349424525449 -0.08218431330015599
3560000000.0 -0.10466487386274878 0.08739855302752447
3580000000.0 0.10678605810590126 0.1098742513383537
3600000000.0 0.03243861936983708 -0.16770570643038146
3620000000.0 -0.17541057437692917 -0.015871499308143213
3640000000.0 -0.17382022200288005 -0.04354172615162995
3660000000.0 -0.001335172169550196 -0.1790998059925842
3680000000.0 0.10046581551350518 0.1463075972542555
3700000000.0 -0.11588059637399124 -0.13028509285121162
3720000000.0 -0.13012512189353406 0.1182770882459853
3740000000.0 0.019690177790617307 -0.17765423972434957
3760000000.0 -0.11019586839642756 0.1440474916285316
3780000000.0 -0.13230204101857812 -0.1257115720990286
3800000000.0 0.15858332817213355 -0.08185043325349911
3820000000.0 -0.006812693846204358 0.16950368925822248
3840000000.0 0.15170317779452364 -0.03020611211230839
3860000000.0 0.1284839353842943 0.06485897429922911
3880000000.0 -0.07337921430425426 -0.11909838857128408
3900000000.0 0.08155484444245222 0.11452495021536861
3920000000.0 -0.1494110735244218 0.019966285309789365
3940000000.0 0.16376600618506457 0.033533372223724066
3960000000.0 0.18144787742286017 0.029375500964669912
3980000000.0 -0.11337383066627015 0.15409596283585417
4000000000.0 0.06576771171496121 -0.17229516935156103
