! Created with skrf (http://scikit-rf.org).
# Hz S RI R 50.0 
!freq ReS11 ImS11
400000000.0 -0.7033877534601105 0.5061063143030841
420000000.0 0.27426489905786855 0.8213060207072121
440000000.0 0.7860745966568154 -0.2894287008806286
460000000.0 0.23558351896460322 -0.751794378391129
480000000.0 0.5847233385111571 -0.4246357844171385
500000000.0 -0.42994869466168534 -0.36287228153712725
520000000.0 -0.41291191944871203 -0.2621722560781815
540000000.0 -0.0001717650640443811 -0.4115221903231522
560000000.0 -0.36142010204005465 -0.06119936744221789
580000000.0 0.11164533632454073 -0.2985995989400401
600000000.0 -0.0006023020355442611 -0.32890046962821573
620000000.0 0.2790681522136612 -0.18290586647829812
640000000.0 -0.3296903255169645 0.1112775391688329
660000000.0 -0.27874290407056707 0.2626817032068171
680000000.0 0.16441617069569117 -0.3679331298992045
700000000.0 -0.4185485481941745 0.12958978087735148
720000000.0 0.05811339480489236 0.4354779905054609
740000000.0 -0.429504543417816 0.14097212351620642
760000000.0 0.08443319872623731 -0.42355493989418447
780000000.0 0.25694793752999096 0.30775116080444226
800000000.0 -0.13391617478782608 0.33857945589005944
820000000.0 -0.22754966118690859 0.19992081031837886
840000000.0 0.19234656289678506 -0.16679359345701184
860000000.0 -0.04017819441840877 -0.19989369857389483
880000000.0 -0.11198340024178177 -0.10386164501680105
900000000.0 0.023059205851413946 -0.07314272791489841
920000000.0 -0.001257164639401383 0.04424258231151242
940000000.0 0.007449856697474505 0.05015489430840141
960000000.0 -0.05738419856689945 -0.017042245569991902
980000000.0 -0.06294217332798956 0.00405933742380724
1000000000.0 0.026353884330946337 -0.06248303402111785
1020000000.0 0.04573177559591119 0.054948065443652695
1040000000.0 -0.03272225088102212 -0.07129807618745544
1060000000.0 0.09493338311172472 0.06252014246152911
1080000000.0 0.10943439673683025 -0.08238141502444397
1100000000.0 -0.046909645134688004 -0.15594069270602096
1120000000.0 -0.1818619142665392 -0.07616354677950432
1140000000.0 0.23055087568175023 -0.07003612717990881
1160000000.0 -0.03068078669464029 -0.2824451170950114
1180000000.0 -0.28421136316575424 0.16056511486540964
1200000000.0 -0.34720277625141155 -0.07851615319165453
1220000000.0 -0.02506113153139751 -0.3894450573792429
1240000000.0 0.21928227838610864 0.34765531417701223
1260000000.0 -0.32565423752220685 -0.29177524170762165
1280000000.0 0.3209760105514986 0.30826686344485815
1300000000.0 -0.023752042486022765 -0.45074398467764865
1320000000.0 -0.3969541431121898 0.1898742644741005
1340000000.0 -0.4216013879337919 -0.08809077183315814
1360000000.0 -0.2509697574102032 -0.34135005137066854
1380000000.0 -0.2707143969674889 -0.3231466120564006
1400000000.0 -0.34429244580670765 0.21199974825225898
1420000000.0 -0.3075716201113402 0.23459148251726436
1440000000.0 0.023606531247510446 0.3648667405595785
1460000000.0 0.026676497311710814 0.33825181876012383
1480000000.0 0.1896368458690312 0.2566905338382189
1500000000.0 0.29013209932487355 -0.06242652346584148
1520000000.0 -0.27303369293834145 0.007444746029045863
1540000000.0 0.21852027936562954 0.12511673976889875
1560000000.0 0.20139374213567257 0.09060033199264707
1580000000.0 0.15959533425991387 -0.10381123590215387
1600000000.0 0.11924364226262502 0.10278636908675512
1620000000.0 -0.11159272480702376 0.04377271267468029
1640000000.0 0.04549038078475163 0.07707628189485621
1660000000.0 0.03198515025136846 -0.05596750626060506
1680000000.0 0.03535393901003263 -0.010901749474658884
1700000000.0 -0.013374871630892661 -0.009056661835698976
1720000000.0 -0.018814083619495808 -0.014066254133196149
1740000000.0 0.041183128756080115 0.008777707418635573
1760000000.0 0.04854893712718982 -0.042781342848915195
1780000000.0 -0.04304955751156672 -0.07715962132755959
1800000000.0 0.041399443309119224 -0.11403778807070607
1820000000.0 0.14811803161141174 0.021212202038340913
1840000000.0 -0.16075923538694173 0.07139264268275863
1860000000.0 0.16669927355771819 -0.11270801784112162
1880000000.0 0.1316043861397857 -0.18168781977306028
1900000000.0 0.14647646930145422 -0.20890052520501937
1920000000.0 0.020904819103864724 -0.28582274533834084
1940000000.0 0.11440488912704744 -0.2996579676474095
1960000000.0 -0.2268654737559471 -0.2764064165432511
1980000000.0 -0.3026446991281113 0.24496389476634886
2000000000.0 0.22408875915157672 0.35419891896529204
2020000000.0 0.2598944689991858 -0.35764840578187485
2040000000.0 -0.4509248342352928 0.0844059100835321
2060000000.0 0.43894663931129724 0.14200898407795728
2080000000.0 -0.13380685383150157 -0.43828002724320697
2100000000.0 -0.34659054566878955 0.2798008789193651
2120000000.0 0.16417729903798559 0.3918665375916156
2140000000.0 -0.25257743378308994 0.31032181207062864
2160000000.0 -0.2512033714102396 0.28522012040555544
2180000000.0 -0.351250257523858 -0.07171522647302374
2200000000.0 -0.19431071976605183 -0.28574752956766575
2220000000.0 0.25506570125850114 -0.2229251471354653
2240000000.0 0.21702045969602524 -0.26533774888065537
2260000000.0 0.03893952201184909 -0.3500858145381377
2280000000.0 -0.3451735924553077 -0.11568999894673468
2300000000.0 0.141078377995704 0.3553564815964878
2320000000.0 0.03287484798935274 -0.40625215670972886
2340000000.0 -0.24957261117653862 0.3558746354940964
2360000000.0 0.3496760916296697 -0.3136724530141718
2380000000.0 -0.49213917342541236 0.14103608407733526
2400000000.0 0.5440267221495726 -0.13172308431823646
2420000000.0 -0.5106806281817746 0.3326706998451415
2440000000.0 0.22459532498626678 -0.6165307308242982
2460000000.0 0.17891725124962712 0.6716904795876575
2480000000.0 -0.5000729937836218 -0.5255949031094452
2500000000.0 0.5059142746703486 0.548401350446208
2520000000.0 -0.46859562622084383 -0.5942425088950628
2540000000.0 0.1841483363980381 0.7356678280736693
2560000000.0 0.37326219794881565 -0.653541136331028
2580000000.0 -0.7289205462485082 0.11645984947266763
2600000000.0 0.49965883147114803 0.5099943965933865
2620000000.0 0.1488245861344721 -0.666615894416368
2640000000.0 -0.12415832003579107 -0.6335868225358878
2660000000.0 -0.4828439521967922 0.3565356486487882
2680000000.0 0.42148929201369 0.36296220027165843
2700000000.0 0.16172170867045907 -0.48807568399817186
2720000000.0 -0.3794414137858213 0.28061654622058774
2740000000.0 0.43249185492849473 -0.010510886972077823
2760000000.0 -0.3884604703174356 0.08493118796527838
2780000000.0 0.06894424064793186 -0.35796690765467654
2800000000.0 0.2652627441084555 0.20547642933792035
2820000000.0 -0.19701813622848485 0.24253840132446478
2840000000.0 -0.08922980589584438 -0.27954491755468963
2860000000.0 0.16348672324029792 0.23020239385938535
2880000000.0 -0.1587280817939462 -0.22799055444733057
2900000000.0 -0.05183197513928367 0.26912013182111305
2920000000.0 0.13833299529985987 0.2444582357937585
2940000000.0 0.281833454628048 -0.07043284958953071
2960000000.0 0.23174543555188398 -0.18916344266488638
2980000000.0 0.07602268363128949 -0.3024948683268772
3000000000.0 0.011715823736909515 -0.31880223982589095
3020000000.0 0.004511081984355248 -0.3224619943233051
3040000000.0 0.24795854092115505 -0.20221687924467407
3060000000.0 0.232968497172811 0.21393419065487804
3080000000.0 -0.29684950403267807 0.07906142939815239
3100000000.0 0.1606661316023761 -0.24982494482265358
3120000000.0 -0.023612744451585274 0.28274911363415467
3140000000.0 -0.03353038545398127 -0.2668662395256062
3160000000.0 -0.20678556750538124 -0.1414076898031932
3180000000.0 0.0848711806286107 0.21727497746019309
3200000000.0 0.03817285368451998 -0.21055972651860863
3220000000.0 -0.10590074152767959 0.16254610655798854
3240000000.0 0.10916485640458076 -0.13343870027642551
3260000000.0 -0.028771060577074795 0.14768990256403278
3280000000.0 -0.04045709106432217 0.11817998432570398
3300000000.0 0.09434113210634762 0.022968612585793483
3320000000.0 0.05577662320706467 0.04046762130692216
3340000000.0 -0.03645521026372351 0.012347100661306825
3360000000.0 0.014333164307817111 -0.01790442498321817
3380000000.0 0.030721848918298343 -0.0008763428537711124
3400000000.0 0.0438115360781231 -0.0019921217029271326
3420000000.0 5.73398700125114e-05 0.053043536195423555
3440000000.0 0.00958884390049695 -0.04995986819313477
3460000000.0 0.005580489760053825 0.04297301981195464
3480000000.0 0.024515269810298067 0.035185658901622355
3500000000.0 0.005370663606253619 -0.05941225901322689
3520000000.0 0.07613842837565964 -0.04539675362203476
3540000000.0 -0.016556189725782336 -0.11439002908793332
3560000000.0 -0.13191271627551518 0.037729516417261445
3580000000.0 0.05181692323085125 0.14538224120261176
3600000000.0 0.10389856228238575 -0.13557284847704218
3620000000.0 -0.1366571776313968 -0.11003697891729197
3640000000.0 -0.13847545245531293 -0.11291547640681023
3660000000.0 0.0812611076785245 -0.1587496963532788
3680000000.0 0.046552795013018115 0.17056657995128946
3700000000.0 -0.04452193255565005 -0.16803330846709544
3720000000.0 -0.15337104898323192 0.08586535163704224
3740000000.0 0.07705506497819238 -0.16018456766893122
3760000000.0 -0.13684196212845984 0.11937116891929223
3780000000.0 -0.07664589555365418 -0.1643082050623339
3800000000.0 0.17146698100003066 -0.04229976761247683
3820000000.0 -0.013094684642253877 0.1675737254722634
3840000000.0 0.1531568437193939 -0.006216510036998724
3860000000.0 0.10036923203093104 0.10043723485846347
3880000000.0 -0.048270505993774006 -0.12981615157158338
3900000000.0 0.04640693429408981 0.13178598536344124
3920000000.0 -0.14503189415984155 -0.03846780244554186
3940000000.0 0.13585316548030316 0.09762179113551725
3960000000.0 0.15513538096206855 0.09725837404491976
3980000000.0 -0.18560652795455856 0.0442181948227994
4000000000.0 0.1831446451962954 -0.02787479029708657
