! Created with skrf (http://scikit-rf.org).
# Hz S RI R 50.0 
!freq ReS11 ImS11
400000000.0 -0.7100528094556605 0.49552074074189983
420000000.0 0.2654089719022827 0.8240306731037916
440000000.0 0.7837885586617038 -0.2967652579571115
460000000.0 0.22615451733712147 -0.7536519675979575
480000000.0 0.5752996332916566 -0.43610990417119594
500000000.0 -0.44329167610044756 -0.34904916658338114
520000000.0 -0.4447693835350337 -0.20337121834276733
540000000.0 0.010630219807503814 -0.41057185925237666
560000000.0 -0.33631032456800514 -0.14737411890774985
580000000.0 0.12807301900084206 -0.29314166347685183
600000000.0 -0.010822952816288322 -0.3272696651136112
620000000.0 0.3001613748279608 -0.14281799034339282
640000000.0 -0.3361078647990866 0.08630804440333835
660000000.0 -0.2590405570239872 0.2818337220513925
680000000.0 0.06418623519428457 -0.3968305353566105
700000000.0 -0.4116483006999615 0.15008562761342395
720000000.0 0.06225460279204677 0.4344155352473887
740000000.0 -0.42162422652390563 0.16264125585090305
760000000.0 0.10095659909246389 -0.41972116985736074
780000000.0 0.26469192388792073 0.30205467548239406
800000000.0 -0.14780989379914478 0.3330731293881215
820000000.0 -0.23339964445917005 0.19370944181826885
840000000.0 0.21825151222140948 -0.1307645948980193
860000000.0 -0.05391426486712445 -0.1961799462040871
880000000.0 -0.09703097561848706 -0.11802872912147812
900000000.0 -0.0025507701101856795 -0.07685280607813634
920000000.0 0.01695544160501879 0.041392222030313126
940000000.0 0.01857303442849196 0.04760669411777219
960000000.0 -0.05919584192719761 0.007815090786187508
980000000.0 -0.0634924778809847 -2.3740561891303057e-05
1000000000.0 -0.00106753351581157 -0.06830034980440634
1020000000.0 0.060901654613015374 0.03655234165120021
1040000000.0 -0.0191636133970952 -0.0760283741573573
1060000000.0 0.09867022212173121 0.05673269886753834
1080000000.0 0.12214482861704913 -0.062332421164478125
1100000000.0 -0.04714574924319367 -0.1561335173118686
1120000000.0 -0.1773260498839763 -0.08575516339003555
1140000000.0 0.2360998203414098 -0.048603831294910485
1160000000.0 -0.032222185248807045 -0.28239214031346566
1180000000.0 -0.273657169433741 0.17772721700976393
1200000000.0 -0.35400193764240645 -0.039845285252307246
1220000000.0 -0.051881155390428875 -0.3871372447058548
1240000000.0 0.2508405562924328 0.3251835332845626
1260000000.0 -0.32350098970535907 -0.29410211011253123
1280000000.0 0.34312127910871026 0.284078199996439
1300000000.0 -0.029261828089754704 -0.45092128264423254
1320000000.0 -0.38091338707549727 0.22112056979921133
1340000000.0 -0.42320002616918345 -0.08041742481336231
1360000000.0 -0.25773010159314225 -0.3364751631229873
1380000000.0 -0.28839896068330667 -0.307332767389955
1400000000.0 -0.32745892847677277 0.23751361896573928
1420000000.0 -0.3131682067787432 0.22776794193498723
1440000000.0 0.018432861355821253 0.3650771539705022
1460000000.0 0.05356995423840235 0.3343844394422427
1480000000.0 0.1545665116779489 0.278792887627189
1500000000.0 0.2899526170767499 -0.05956039032069003
1520000000.0 -0.26895342330613664 0.04169074105591425
1540000000.0 0.19004483198084796 0.16477316422805252
1560000000.0 0.18777886536035948 0.11555772790910789
1580000000.0 0.15915964358730342 -0.1040117701463191
1600000000.0 0.10357504884361324 0.11806100718887497
1620000000.0 -0.11567856131374633 0.029814936005398196
1640000000.0 0.051673507671721026 0.07297610922929454
1660000000.0 0.008119272495710905 -0.06389087434836566
1680000000.0 0.036709675472258285 -0.0031401091474170958
1700000000.0 0.014340100901179447 -0.008959872279177642
1720000000.0 0.022336900314571036 -0.005109778371789782
1740000000.0 0.04128816572160885 0.0021656055316799745
1760000000.0 0.04918763381866056 -0.04054879067116704
1780000000.0 -0.0692835718294112 -0.05503109927046077
1800000000.0 0.04822684261919681 -0.11150732815451471
1820000000.0 0.1502095428683958 0.006226799981825631
1840000000.0 -0.13677622786623803 0.11252687227038871
1860000000.0 0.155643006742794 -0.12953356336360744
1880000000.0 0.07889623971574458 -0.21115420123638579
1900000000.0 0.10371432001571704 -0.23424741921139783
1920000000.0 -0.0453625814102038 -0.2837995773958006
1940000000.0 0.09268827970911789 -0.30734831247083966
1960000000.0 -0.23805742777738562 -0.26642355024185055
1980000000.0 -0.31302840327817383 0.2305942635345482
2000000000.0 0.19871165164685417 0.3682002933641924
2020000000.0 0.3195837691400022 -0.3048421144433038
2040000000.0 -0.4529040936957697 0.0679447326935514
2060000000.0 0.4050146431615205 0.2194909101886503
2080000000.0 -0.1385867010695615 -0.4360029003265846
2100000000.0 -0.3458995777960465 0.27995332353365054
2120000000.0 0.20747151933162986 0.37050909912823715
2140000000.0 -0.2280086838064951 0.32931216158140086
2160000000.0 -0.22317448013016689 0.3071178934355999
2180000000.0 -0.3584976919671822 -0.0012155932494659506
2200000000.0 -0.22983105028608874 -0.2572237682251147
2220000000.0 0.17943379178862096 -0.2859311502464611
2240000000.0 0.18695019468562038 -0.28666105880728093
2260000000.0 0.042603322329577295 -0.3492538306021862
2280000000.0 -0.3463619179915944 -0.11297484335497737
2300000000.0 0.15255198093148747 0.3511698217947747
2320000000.0 0.028922424558159545 -0.4069724267723061
2340000000.0 -0.24165434928133728 0.3620820539238522
2360000000.0 0.3287629038921055 -0.3371385402687622
2380000000.0 -0.4710126156996407 0.20330455158619656
2400000000.0 0.524001822651998 -0.1991961694405305
2420000000.0 -0.4666260612264586 0.3925709938415193
2440000000.0 0.17252013055796162 -0.6332321542759989
2460000000.0 0.24615515057309953 0.6501027351177189
2480000000.0 -0.5359852029336917 -0.48857469106589035
2500000000.0 0.5643275853085518 0.48621285933376496
2520000000.0 -0.4804154505928683 -0.583734951932977
2540000000.0 0.2248217747069319 0.7234266428885825
2560000000.0 0.3340861738100821 -0.6730141344178805
2580000000.0 -0.7215271159007127 0.14696751099439276
2600000000.0 0.5568356566548759 0.444300652057265
2620000000.0 0.017879324860766852 -0.6807780206480465
2640000000.0 -0.24677317184303973 -0.5945510345869719
2660000000.0 -0.43443144885260154 0.4120145992143616
2680000000.0 0.44687572564248107 0.32893046042033924
2700000000.0 0.14735047984884472 -0.49123430876794666
2720000000.0 -0.372288241512557 0.2877813267357074
2740000000.0 0.4321989563637956 -0.00353225819185654
2760000000.0 -0.38713564309165477 0.08802351407436095
2780000000.0 0.07011907400638988 -0.357518198512122
2800000000.0 0.2628040919566659 0.20817462397040076
2820000000.0 -0.21108791359704393 0.23031385855423842
2840000000.0 -0.05709126395172243 -0.2876396056836484
2860000000.0 0.13690450249214148 0.24710793932701985
2880000000.0 -0.139953064823263 -0.238528340530469
2900000000.0 -0.11141627569148253 0.25022961595961035
2920000000.0 0.07444019428353232 0.27079924802016525
2940000000.0 0.28581982072991324 -0.05103981987500471
2960000000.0 0.2328952453051264 -0.18579231153333076
2980000000.0 0.09212706709142432 -0.29659543152583073
3000000000.0 -0.019358422966775955 -0.3187683807090995
3020000000.0 0.011129303813676529 -0.32222990804153123
3040000000.0 0.2672534434250505 -0.1739345218662617
3060000000.0 0.21933118496543513 0.22605486681068007
3080000000.0 -0.2957853871122324 0.07912851772589433
3100000000.0 0.11367587923597894 -0.2740173180459939
3120000000.0 -0.05249756911618176 0.27727579185272827
3140000000.0 -0.0494590801124064 -0.2645828747490327
3160000000.0 -0.22678933158943326 -0.10837244067832107
3180000000.0 0.1510611775626637 0.17844744415232114
3200000000.0 -0.04900163624147959 -0.20817950997561593
3220000000.0 -0.07317336263602968 0.17988161232840255
3240000000.0 0.07309210775806234 -0.15705353748996442
3260000000.0 0.004315121408029345 0.1510537872149519
3280000000.0 -0.06797658218365212 0.10597696316320591
3300000000.0 0.07136778027680177 0.06738936510781314
3320000000.0 -0.009004988323146996 0.06879444377395279
3340000000.0 -0.028841792267997157 -0.02663429918886169
3360000000.0 -0.010660365485571236 0.02030464241463585
3380000000.0 0.008182755852595733 0.027573677103560842
3400000000.0 0.03734186720765492 -0.018792648884934905
3420000000.0 0.0468730328445864 0.0219696494790288
3440000000.0 -0.03906482557574382 -0.030848131066342172
3460000000.0 0.038987478940645276 -0.01890819375936483
3480000000.0 0.025474752332054946 -0.033719014134124675
3500000000.0 -0.023186451751948986 -0.05340595313385942
3520000000.0 0.02368869551880192 -0.08365297879882627
3540000000.0 -0.05305375768183082 -0.10060836702932018
3560000000.0 -0.12047006696474176 0.06281119593173033
3580000000.0 0.061033045936353475 0.13985178055277495
3600000000.0 0.05678716850814972 -0.1611278772688269
3620000000.0 -0.1739486177822099 -0.017999691835255516
3640000000.0 -0.16098059219128102 -0.07774358599109285
3660000000.0 0.000976855839169814 -0.17808111269099952
3680000000.0 0.10602878525328442 0.14189676757170938
3700000000.0 -0.10615693335726054 -0.13745528083687045
3720000000.0 -0.13511329517965237 0.11119277948307867
3740000000.0 0.03143056713990512 -0.1752084241771854
3760000000.0 -0.1122510883562479 0.14216019018035803
3780000000.0 -0.12417043919088835 -0.13264473647465191
3800000000.0 0.1501867374092681 -0.0956058889520388
3820000000.0 -0.00042529402596704714 0.16916094252225491
3840000000.0 0.13709823922829134 -0.07101771082334217
3860000000.0 0.13826732674712555 0.04049134687813037
3880000000.0 -0.1104423324036912 -0.08681766756632936
3900000000.0 0.10701853927321102 0.0911301790416072
3920000000.0 -0.13966092645971104 0.05586165905331344
3940000000.0 0.16742424783757484 0.009517362910002904
3960000000.0 0.18008206091634824 0.03573181779241368
3980000000.0 -0.14545429761610812 0.12530673550624546
4000000000.0 0.11718825785237386 -0.14285922679137575
