! Created with skrf (http://scikit-rf.org).
# Hz S RI R 50.0 
!freq ReS11 ImS11
400000000.0 -0.7036042000411613 0.5032067960141076
420000000.0 0.24411114438606113 0.8298928699633641
440000000.0 0.7984342307239688 -0.256884560783265
460000000.0 0.18101018346662326 -0.7678923615753
480000000.0 0.5503794089419233 -0.46510827856017095
500000000.0 -0.319420188271558 -0.46345816549966407
520000000.0 -0.4549622062389273 -0.18770784867446738
540000000.0 -0.1233496854101832 -0.3894191357153054
560000000.0 -0.3005303566133647 -0.20786254924780256
580000000.0 0.16562754978104433 -0.27528711237210873
600000000.0 -0.16401921127663321 -0.2854622164053595
620000000.0 0.27233616973627317 -0.1881562594134627
640000000.0 -0.3459793425881249 0.03701555106153577
660000000.0 -0.23249216493531258 0.30489480701754945
680000000.0 0.11003944449505192 -0.38823827216867834
700000000.0 -0.41486673948652747 0.13789260079237786
720000000.0 0.02046434827971877 0.43914607131635025
740000000.0 -0.4299994275199586 0.1398298359806938
760000000.0 0.0725877875191245 -0.425294278944122
780000000.0 0.2534684176736222 0.3106006151997447
800000000.0 -0.14672216991035045 0.33340035848963606
820000000.0 -0.21924025643039016 0.20933998582990512
840000000.0 0.2178042734229176 -0.1306889689773937
860000000.0 -0.0012295775742012169 -0.2038997042638112
880000000.0 -0.10333797085140636 -0.11187162021778634
900000000.0 0.007123798898125908 -0.0760353537131554
920000000.0 0.017522888483438578 0.0405035677051457
940000000.0 0.005478662170327687 0.05056750831595915
960000000.0 -0.05106014665399656 -0.031406341881130465
980000000.0 -0.06177947681578323 0.012531566012854737
1000000000.0 0.02363916157728242 -0.06363626345959589
1020000000.0 0.049889700957720926 0.051197832827277315
1040000000.0 -0.04549241176820822 -0.0639110562095288
1060000000.0 0.09093946852287829 0.06854989088305846
1080000000.0 0.11923646903994149 -0.06734246811808527
1100000000.0 -0.024798890661113838 -0.16081900279906122
1120000000.0 -0.18275863370101017 -0.07369145560237454
1140000000.0 0.2378063818325971 -0.03764796459867716
1160000000.0 -0.030127289897754837 -0.28209762882416645
1180000000.0 -0.2728529022593617 0.17978882939582466
1200000000.0 -0.3516224814542615 -0.05828252079230559
1220000000.0 -0.05189496919244653 -0.38674340582578
1240000000.0 0.22293693042910603 0.34541278941845327
1260000000.0 -0.3258901611361114 -0.2919803851154723
1280000000.0 0.32375922983006356 0.30540428060068087
1300000000.0 -0.043869607003139646 -0.44965367075888996
1320000000.0 -0.3941763275982092 0.19611621372058446
1340000000.0 -0.4227432361773007 -0.08284894825445202
1360000000.0 -0.24943176393894176 -0.3428482579018381
1380000000.0 -0.2755091303381417 -0.31915748272594535
1400000000.0 -0.3429158014612395 0.21372130488416027
1420000000.0 -0.3075249449164215 0.23495203654138652
1440000000.0 0.029768581115235858 0.36432294771267554
1460000000.0 0.02797112841835297 0.33784079084503904
1480000000.0 0.18989157006083024 0.25638221010047957
1500000000.0 0.2896642705163549 -0.06404781336149469
1520000000.0 -0.2703244419657644 0.03394651430475785
1540000000.0 0.20924215536548044 0.13942489199337432
1560000000.0 0.20395283418423607 0.08436252614295708
1580000000.0 0.1263227686586471 -0.14216582503396827
1600000000.0 0.10016347639153542 0.12129620940116893
1620000000.0 -0.11475156611324089 0.035516342697008145
1640000000.0 0.04833428494376429 0.07519364666751296
1660000000.0 0.0250155224373942 -0.05936998358777137
1680000000.0 0.0365010000292092 -0.003151868516736565
1700000000.0 -0.00678619709332427 -0.014913606589244592
1720000000.0 -0.022399189632098596 -0.005190071712978032
1740000000.0 0.041804593647058595 0.0013700158086896244
1760000000.0 0.0576174260341533 -0.028776666320995646
1780000000.0 -0.051429857964465926 -0.07213326582541849
1800000000.0 0.047813008255522524 -0.11172740972301227
1820000000.0 0.14830896483085215 0.02213415301175927
1840000000.0 -0.16291213124990606 0.06707572616635082
1860000000.0 0.16908930585819623 -0.10977560980844452
1880000000.0 0.11934965957493356 -0.1904654989668776
1900000000.0 0.14344157032638385 -0.21101586355459753
1920000000.0 0.009768518862118514 -0.28658791973135006
1940000000.0 0.11268171910898354 -0.3001593077245108
1960000000.0 -0.23198339246833377 -0.2722469714169606
1980000000.0 -0.31404408989341326 0.230088069297279
2000000000.0 0.21229642184896388 0.3611302679959213
2020000000.0 0.28368483395320776 -0.3388418661473557
2040000000.0 -0.43761419631925425 0.13540527795907184
2060000000.0 0.42799166979674325 0.172219673881241
2080000000.0 -0.12240527021984772 -0.4415300690907104
2100000000.0 -0.34924612648232956 0.27682953092451884
2120000000.0 0.2053637312037172 0.37199837205602765
2140000000.0 -0.237788947591008 0.3222731548633074
2160000000.0 -0.23854240677458802 0.2962051614062018
2180000000.0 -0.3566200444305715 -0.037050426344529756
2200000000.0 -0.20244258995448142 -0.2801549492314345
2220000000.0 0.2349477309625284 -0.24408477456188016
2240000000.0 0.1981663446836643 -0.27968164881701285
2260000000.0 0.02095365338338731 -0.35195941553099125
2280000000.0 -0.3494992939008304 -0.103684053283367
2300000000.0 0.13456285265417423 0.358124330079113
2320000000.0 0.023334608383388727 -0.40750553142979723
2340000000.0 -0.2569508959750704 0.350956101254058
2360000000.0 0.35132891307562214 -0.31254121447180555
2380000000.0 -0.48427262728494075 0.16743871096816038
2400000000.0 0.5369563704229937 -0.1588188962343758
2420000000.0 -0.49103462310990553 0.3609071419912056
2440000000.0 0.2313569338966222 -0.6140364847877471
2460000000.0 0.19711906177805033 0.6663617757925906
2480000000.0 -0.5042738605039709 -0.5214362359300272
2500000000.0 0.5684896094091577 0.48195527384673637
2520000000.0 -0.5055650057086449 -0.5624279476034182
2540000000.0 0.18458608172545052 0.7350283276719575
2560000000.0 0.31465416080187275 -0.6832143717800764
2580000000.0 -0.7316256799503723 0.09619068718160631
2600000000.0 0.5439861315881038 0.46176420859796546
2620000000.0 0.10371719630213656 -0.6750833661886793
2640000000.0 -0.23003668135255326 -0.6033432669912553
2660000000.0 -0.4787167351985333 0.3617732981179054
2680000000.0 0.4285398591753879 0.3544197772253774
2700000000.0 0.18261713181834768 -0.480566000898264
2720000000.0 -0.37997177054055026 0.27970733358436956
2740000000.0 0.43167399785138966 -0.03025362520632835
2760000000.0 -0.3860979218160562 0.09657928548987472
2780000000.0 0.07808299205037236 -0.3561773834241816
2800000000.0 0.2626100852225919 0.2090508491959676
2820000000.0 -0.21840353589537886 0.2234037124439757
2840000000.0 -0.08124851571748949 -0.28165934077434196
2860000000.0 0.14631737331256936 0.24077276837719433
2880000000.0 -0.1530995083673493 -0.23117322170959737
2900000000.0 -0.059384705958777755 0.26707154282641726
2920000000.0 0.1360270687597766 0.24527344203897455
2940000000.0 0.2766872193142821 -0.08702683133884948
2960000000.0 0.22954604578772395 -0.1907756135601718
2980000000.0 0.07449487706086742 -0.3023374734053785
3000000000.0 0.0014479366406695527 -0.31834830768568595
3020000000.0 0.0362286325750082 -0.3199755821155395
3040000000.0 0.2214336960826878 -0.23008635536320063
3060000000.0 0.24273664785072474 0.20243529192888593
3080000000.0 -0.2942550836257546 0.08806435994693258
3100000000.0 0.10950658850706468 -0.2761911734166208
3120000000.0 -0.040939845193866106 0.28032007589911656
3140000000.0 -0.057141275997384104 -0.2630237697149496
3160000000.0 -0.21447929272440394 -0.13021516399262786
3180000000.0 0.10365365621635289 0.20929021650866894
3200000000.0 0.020594649823370382 -0.2131047201861622
3220000000.0 -0.11593463949609065 0.15513601453160433
3240000000.0 0.1068180310409378 -0.1364212925403774
3260000000.0 -0.0288008624837262 0.14802534772989082
3280000000.0 -0.045348480521870654 0.11630438971284808
3300000000.0 0.08352441848071235 0.04987822594344174
3320000000.0 0.02815425531352797 0.06269084413973339
3340000000.0 -0.03784081738259333 0.009224241970155627
3360000000.0 0.018238884626056804 0.015132840354070679
3380000000.0 0.02907473412633889 0.008351584994973748
3400000000.0 0.04020459477144179 0.016003273123605746
3420000000.0 0.010677652582577152 0.05178242384685962
3440000000.0 -0.006227117900114508 -0.05053395434805549
3460000000.0 0.01867611645427622 0.038907061548882606
3480000000.0 0.03205885032956545 0.028247497988262572
3500000000.0 -0.01699142037487505 -0.05662200508359509
3520000000.0 0.06687627811638946 -0.05708387234591478
3540000000.0 -0.016735007806797667 -0.11376800968902522
3560000000.0 -0.11763312429061605 0.07058704282395387
3580000000.0 0.05111915078584475 0.14497797115958405
3600000000.0 0.09610756304817242 -0.14102305908016607
3620000000.0 -0.14524433696638475 -0.09827180385420214
3640000000.0 -0.15338666701215695 -0.09169032891500951
3660000000.0 0.0664992378793886 -0.16513349250845774
3680000000.0 0.07229684784447318 0.16129711312614828
3700000000.0 -0.07925036383527793 -0.15502077411250406
3720000000.0 -0.1397806477525314 0.10674886875752937
3740000000.0 0.05981256673353717 -0.16749039194516543
3760000000.0 -0.14454163431800088 0.11019161725595883
3780000000.0 -0.07326279335093007 -0.1662489594059867
3800000000.0 0.1748254948698563 -0.02674555851900432
3820000000.0 -0.039137890565992484 0.16389600391215375
3840000000.0 0.15377482149379068 -0.000104855599119196
3860000000.0 0.10985916787419729 0.09078682316376556
3880000000.0 -0.052487776497300326 -0.128816016676681
3900000000.0 0.07395182285257845 0.11941494015814406
3920000000.0 -0.14849282540242714 -0.02357504898925475
3940000000.0 0.13940031462451996 0.0934265473751155
3960000000.0 0.14037908760700388 0.118605130605145
3980000000.0 -0.1898104588125103 0.023877843740709986
4000000000.0 0.18565119423132823 0.0043629445427155545
