! Created with skrf (http://scikit-rf.org).
# Hz S RI R 50.0 
!freq ReS11 ImS11
400000000.0 0.25895555646759527 0.8323353016823387
420000000.0 0.6275960670754543 0.5861135739664444
440000000.0 0.7803527294465745 -0.2634897203728281
460000000.0 0.22888009496066722 -0.7509588389667478
480000000.0 0.6986085331044283 -0.0011975502044002358
500000000.0 0.5297842904872008 0.21152689070830347
520000000.0 0.4067600855702224 -0.2902025281848628
540000000.0 0.4011048319660576 0.18070779971911113
560000000.0 -0.34754183753373896 -0.11485139934970626
580000000.0 -0.059372037940785265 0.34077010163676735
600000000.0 0.2684324877299184 -0.21575974386816085
620000000.0 -0.27192034837820184 0.23295589274636727
640000000.0 -0.019581119585449124 0.3834443231077102
660000000.0 0.12187085206368341 0.379886358279173
680000000.0 -0.4238695077657079 -0.04606863804069703
700000000.0 0.42829019640736954 0.11585795682845476
720000000.0 -0.3095944262617448 -0.31960075209616645
740000000.0 0.20589325685876825 -0.3818305950451777
760000000.0 -0.36077593389771406 0.19598232929130247
780000000.0 -0.013420012401342394 -0.36988988038409615
800000000.0 -0.17870414799882292 0.2799929575510786
820000000.0 -0.007449040707117054 -0.27515645520487464
840000000.0 0.18115502567556202 -0.14378670009157796
860000000.0 0.07267788601196924 0.18859307926868132
880000000.0 0.13303827249868858 0.06181172868541688
900000000.0 -0.036044132848160014 -0.08501972642137219
920000000.0 0.06240435140673753 0.010417086856201494
940000000.0 -0.041133094765122134 -0.012327302817375376
960000000.0 -0.048367882923060344 0.013752682001876362
980000000.0 -0.009316608326220699 0.07111339237384985
1000000000.0 0.08361897057992301 -0.013360900886375676
1020000000.0 0.05408644319051252 -0.08867046147455428
1040000000.0 -0.003459648615989868 0.1102638650959678
1060000000.0 0.015802493551791624 -0.13613832224165767
1080000000.0 -0.06371937902132183 0.1304975454264703
1100000000.0 -0.011925939399904313 -0.16451657164638675
1120000000.0 0.19120120568249876 -0.012941530494889697
1140000000.0 0.0560601699581846 -0.2297045007035054
1160000000.0 -0.14528515585094637 -0.24292374243243584
1180000000.0 -0.29822877046797514 0.1350686028177055
1200000000.0 -0.1427086440454958 0.3294247561419596
1220000000.0 -0.31520017139615325 -0.21658078399595898
1240000000.0 0.38899095607195516 0.10292658591141308
1260000000.0 -0.24622197169633764 -0.34438904229428213
1280000000.0 -0.01626997349625371 0.43685573599937355
1300000000.0 0.4167792794627899 -0.15584164142191304
1320000000.0 -0.21175002791858327 -0.3861363339876455
1340000000.0 -0.1307130178217098 -0.41333682178593895
1360000000.0 0.07209709078959438 -0.421024474006045
1380000000.0 -0.10055206293378632 -0.4137003895250279
1400000000.0 -0.3710214839042762 -0.17741106993016006
1420000000.0 -0.3079048442516944 0.24552107927298544
1440000000.0 -0.08569781901812683 0.3614819518601255
1460000000.0 0.2627294144502835 0.22803441623803597
1480000000.0 0.25054840047719 -0.203980310010802
1500000000.0 -0.2775441967850257 -0.1030260720969786
1520000000.0 -0.05653323997675987 0.2628661105384743
1540000000.0 -0.23185677056021847 0.05148638381154988
1560000000.0 -0.16467071312587442 -0.11307042895928049
1580000000.0 -0.006755893605847311 -0.1681601538450828
1600000000.0 -0.13281097854564516 -0.024878362918373684
1620000000.0 -0.08184878410203802 -0.0625844243309816
1640000000.0 0.06858779806135376 0.04434748380935981
1660000000.0 0.05732979553998133 -0.017968520912062347
1680000000.0 -0.008139076891103074 0.037691308892160984
1700000000.0 0.020060220985573744 0.005800128363219408
1720000000.0 0.0003435195554619416 -0.004618848831458367
1740000000.0 0.011450678128317411 -0.017910481733790812
1760000000.0 0.0009045389010904871 0.04316691580018141
1780000000.0 -0.0719812197796811 -0.022785291964216345
1800000000.0 0.029781557529799114 0.10666498918021886
1820000000.0 -0.13466226851227378 0.03597052287840581
1840000000.0 0.14297014442661485 -0.09445597294526216
1860000000.0 -0.19725891820509667 0.028066413057595576
1880000000.0 -0.14467489930435015 0.17901300988788624
1900000000.0 -0.001574280210318225 0.26703994493962413
1920000000.0 0.3020606583537741 -0.03473125643481648
1940000000.0 0.03569373088249021 -0.34050245213299174
1960000000.0 -0.3243040984083466 0.1905582303963146
1980000000.0 0.3922817068469761 0.08722589976446819
2000000000.0 -0.01970066058425832 -0.42237814900218457
2020000000.0 -0.35096212949247824 0.25676137652412623
2040000000.0 0.24308500164277738 0.36570421567335787
2060000000.0 0.3938858181219377 -0.19026140650795298
2080000000.0 0.09246916187120736 -0.42014283569621746
2100000000.0 -0.02505258766445096 -0.4210386249700823
2120000000.0 -0.1867090011330325 -0.3665745387203047
2140000000.0 -0.3550488295066602 -0.18559016354776076
2160000000.0 -0.009059460499705853 -0.3859494408929443
2180000000.0 -0.18764097364411295 -0.319483219053729
2200000000.0 -0.279151648403834 -0.22208138558520837
2220000000.0 -0.34540242722566833 -0.037544279295777326
2240000000.0 -0.27714441024965203 0.20237488654471217
2260000000.0 -0.13420325027767782 0.31585172488957935
2280000000.0 0.03524658282836099 0.3467641761502779
2300000000.0 0.3636329963473374 -0.010756699280057987
2320000000.0 -0.05151743166364288 -0.38516594131305515
2340000000.0 -0.35408444314905757 0.22462761861979724
2360000000.0 0.4489105891694768 0.09323495450560985
2380000000.0 -0.44437226474506153 -0.23885729319648952
2400000000.0 0.44078282767323684 0.33713883675405976
2420000000.0 -0.5655303613237994 -0.2207140888615266
2440000000.0 0.6320747792153486 -0.17796579956381414
2460000000.0 -0.41912649334434415 0.5583944822740592
2480000000.0 0.09085394076961965 -0.7236815809171298
2500000000.0 -0.06260002960690089 0.7477237458877221
2520000000.0 0.1958535114003803 -0.7355728789949203
2540000000.0 -0.5323512983288835 0.5468659792752832
2560000000.0 0.7528888638446287 -0.08723523156476783
2580000000.0 -0.475337585725923 -0.5705680630194526
2600000000.0 -0.12711258491485158 0.7074321202120998
2620000000.0 0.6127940431272155 -0.31279322989650776
2640000000.0 0.4086333024041268 -0.5051110478350856
2660000000.0 -0.6057247362298007 -0.0005172768193425722
2680000000.0 0.3895884883365587 0.40083339164274423
2700000000.0 0.0063967080675652755 -0.5122847655537375
2720000000.0 -0.25274039347125415 0.3899780081701485
2740000000.0 0.36619083048416895 -0.2077422789172343
2760000000.0 -0.36260775821766017 0.11963526191095981
2780000000.0 0.24893157378712513 -0.24765766932933242
2800000000.0 -0.06816822094717688 0.3181396674896653
2820000000.0 -0.2413373863755977 -0.19093697870328763
2840000000.0 0.28477383479347546 -0.07990615215419819
2860000000.0 -0.13087594831591043 0.26080859860749867
2880000000.0 -0.07688979903769706 -0.2815543644493433
2900000000.0 0.09731469158019297 0.278261090846999
2920000000.0 0.180971535332484 -0.23892396124902188
2940000000.0 -0.29081618158999906 -0.09925043258765856
2960000000.0 -0.25340562875388933 0.1787064315831536
2980000000.0 -0.2639470331655404 0.1715275217204414
3000000000.0 -0.3147648210147405 -0.04268451543641232
3020000000.0 -0.0829666565619587 -0.3073373563682357
3040000000.0 0.30894027072224084 0.06685240018203596
3060000000.0 -0.2591298695817711 0.17508570216315864
3080000000.0 0.20826717172587442 -0.22386433025827868
3100000000.0 -0.16422191995830285 0.24958088827619457
3120000000.0 0.1563465937684653 -0.24428956633365878
3140000000.0 -0.054697278766768956 0.2750512220830302
3160000000.0 -0.0270006996800882 -0.264032358693402
3180000000.0 -0.22142980114083236 0.1155840330908424
3200000000.0 -0.05434167580712981 -0.22256981947226204
3220000000.0 0.1530212219343431 -0.13208808754787751
3240000000.0 0.13162007726285155 0.11045756186854325
3260000000.0 -0.13572046701248705 -0.02424950389184606
3280000000.0 0.0795906172157664 -0.06823892545080502
3300000000.0 -0.07471647770031041 0.0060501208987160755
3320000000.0 -0.021919268790820665 0.04117249645815191
3340000000.0 -0.02263178039971356 0.00023963785383722551
3360000000.0 0.0044499171108509815 -0.0011120548860997818
3380000000.0 -0.009662983674645619 0.0027917936584005367
3400000000.0 -0.02197717712421744 0.002517211979705431
3420000000.0 0.010464692258187419 -0.03358423808504067
3440000000.0 0.008268756215667908 -0.04636137992733461
3460000000.0 -0.028289352316522343 -0.04864679040305672
3480000000.0 0.05663368749685553 -0.038620871366151985
3500000000.0 -0.02532016886616184 -0.07845744593862437
3520000000.0 -0.020223330127504584 0.09507714941212105
3540000000.0 0.034345407787063485 -0.10555745383602722
3560000000.0 -0.01891938384688141 0.12296507492272532
3580000000.0 0.03911692105217984 -0.13245752778802858
3600000000.0 0.11696881175208297 0.10400412349618511
3620000000.0 0.0811596318465275 0.14800231522656374
3640000000.0 -0.11977984315550157 0.13381468393334045
3660000000.0 -0.18522091509980412 0.03394476701086174
3680000000.0 -0.15540747626172186 -0.11474080098257401
3700000000.0 -0.05256844226999088 -0.18638214561936586
3720000000.0 0.15564198319534206 -0.1160588501898195
3740000000.0 0.18793583921777957 -0.02930360378808176
3760000000.0 -0.1666930138296467 0.0754020609110863
3780000000.0 0.12717139843629657 -0.11651165162303463
3800000000.0 -0.10044479393706593 -0.12741989579499569
3820000000.0 -0.13714570286072492 -0.06944966186605737
3840000000.0 0.0645613256263761 -0.13165849232285487
3860000000.0 -0.012386415967793992 0.14722289856349738
3880000000.0 -0.051992970952471476 0.14548157857593272
3900000000.0 0.15321426438269084 0.048991917232301126
3920000000.0 -0.16108810530638917 -0.043934266440066434
3940000000.0 0.10879691922869514 -0.1326254144343084
3960000000.0 0.17116655617679485 -0.0318296829492054
3980000000.0 0.04599661771173181 -0.1669966880300033
4000000000.0 -0.030290779641178885 -0.16248624346786475
