!Created with skrf (http://scikit-rf.org).
# Hz S RI R 50.0 
!freq ReS11 ImS11
400000000.0 -0.7709576956307157 0.4074295816520916
420000000.0 0.3547025504054239 0.7952453567979944
440000000.0 0.7484909151106202 -0.3767664345136381
460000000.0 -0.08390122116110216 -0.782569968801443
480000000.0 0.6204095220914685 0.3472109669952641
500000000.0 0.34611487665409735 -0.4725438453237954
520000000.0 -0.4581169533628642 -0.19150411136427428
540000000.0 0.15928208366080854 0.3951107784130904
560000000.0 -0.34583907109967266 -0.1637075644106581
580000000.0 0.3162653019491315 -0.15643633712376673
600000000.0 0.014850778537571501 -0.35738276270787955
620000000.0 0.33104213778210984 0.165074339688248
640000000.0 0.2907915535499762 -0.272076279253137
660000000.0 -0.3698302871269237 -0.17223941681850144
680000000.0 0.3545590661766357 -0.23210893229035895
700000000.0 -0.2302903809097509 -0.35983844349702077
720000000.0 -0.42263751001190786 -0.049922361770165825
740000000.0 0.39113361620208814 -0.14071746961232345
760000000.0 -0.29024633668439453 -0.2691836498013775
780000000.0 0.17309866319786743 0.3171678087907439
800000000.0 0.22657585116995954 -0.23260791161748334
820000000.0 -0.2783224010780168 -0.016308766113993588
840000000.0 -0.16401866796575712 0.17121260581778558
860000000.0 0.07405912000978343 -0.18827459482752984
880000000.0 -0.0052153679929643594 0.16013638376032913
900000000.0 0.10110438884243055 0.04881358664857544
920000000.0 -0.04737943770419542 0.0548177029408438
940000000.0 0.003706499712182039 0.043740932073600615
960000000.0 -0.048797247305325704 0.012426484410379638
980000000.0 0.06942787786095497 -0.00064389005882274
1000000000.0 0.007237073697699465 -0.08683380194529566
1020000000.0 0.0190829159197792 -0.10497050930291846
1040000000.0 0.1179906088282137 0.03373588303327054
1060000000.0 0.04645706976615083 0.15436263842190773
1080000000.0 0.12952083705572978 0.1232512538613649
1100000000.0 -0.034091916145862926 -0.19933467358561424
1120000000.0 0.18389637940608983 0.12618972797829525
1140000000.0 0.08372893352074144 -0.24054078742057727
1160000000.0 -0.19517559544403024 -0.20208102039765846
1180000000.0 0.06358907419754227 -0.3075487203991284
1200000000.0 0.33799965110680047 0.007140638769115214
1220000000.0 -0.36444020065125643 0.03294683761989621
1240000000.0 0.2803080703780052 0.2649625937661898
1260000000.0 0.007889813974557404 -0.4103340031741711
1280000000.0 -0.4256373000537623 -0.012468792803055058
1300000000.0 0.2257551256547427 0.37482433711021446
1320000000.0 0.40023009613224636 0.1800672604118795
1340000000.0 0.4374610966911041 0.038430400889490256
1360000000.0 0.4404734115424243 0.03056436028693462
1380000000.0 0.24896409886691084 -0.35998350755025393
1400000000.0 -0.3913004803789081 -0.17361442271000646
1420000000.0 -0.01420100077417926 0.40985843331386174
1440000000.0 0.3816295829373734 -0.039844839727382335
1460000000.0 0.010945083110345744 -0.3518886233017124
1480000000.0 -0.3202420134518387 -0.019319202347017023
1500000000.0 -0.07713639856298178 0.2764112278041122
1520000000.0 0.08743255774215343 0.2420240087202778
1540000000.0 -0.12536507565239546 -0.19124788255170797
1560000000.0 0.12128892444907893 -0.15113661716938673
1580000000.0 0.0505201228054296 0.1579620283265158
1600000000.0 0.11739895119821402 -0.06068515235299041
1620000000.0 0.08877144196555742 0.05010500980046014
1640000000.0 -0.07446504347869051 0.016418892494693357
1660000000.0 0.05264466560452903 -0.001823572284457331
1680000000.0 -0.025924564376802527 0.022330420024050977
1700000000.0 0.007900808802520051 -0.018900598858583736
1720000000.0 -0.0020640692228276335 0.0028158657837386923
1740000000.0 -0.0006299510566075732 -0.0150122583073696
1760000000.0 -0.029190037526644067 0.01449203329680065
1780000000.0 -0.05851352802660188 0.016972595669267815
1800000000.0 -0.037680462234319534 -0.08567297146552157
1820000000.0 -0.11357945714463011 -0.04878580720863662
1840000000.0 0.16055226736601227 -0.0065352807435917195
1860000000.0 -0.19025595588938451 -0.0519252749299298
1880000000.0 0.22978931308613798 0.05828022728357556
1900000000.0 -0.28184685330437936 -0.005367287956748671
1920000000.0 0.2925012171528009 -0.12208960066487189
1940000000.0 -0.3510933255699955 0.01865940845342707
1960000000.0 0.3409524256168956 0.1645347666731572
1980000000.0 -0.09200693587267436 -0.38570044652349367
2000000000.0 -0.39041248412094826 -0.13724648570656062
2020000000.0 -0.20942258546147247 0.3704757583042204
2040000000.0 0.13732434667105714 0.41105764389603533
2060000000.0 0.43553867125453505 0.013389609051527996
2080000000.0 0.2900111772995068 -0.32178709500692726
2100000000.0 0.08727873600194841 -0.4161567238086879
2120000000.0 -0.037503633487609635 -0.41544066415672903
2140000000.0 -0.11470547198343424 -0.39194073476708413
2160000000.0 0.28225774635633083 -0.2778737032335805
2180000000.0 0.08152214305510941 -0.37446035497987584
2200000000.0 -0.1991359302233279 -0.3112302473117
2220000000.0 -0.22963573901565176 -0.274685153354009
2240000000.0 -0.3523238628593308 -0.014539766976699389
2260000000.0 -0.33444795203750877 0.10768277659476336
2280000000.0 -0.21581359921357823 0.2808801968045123
2300000000.0 0.12897584699207498 0.3411031193817418
2320000000.0 0.36862134063545254 0.11445621115119216
2340000000.0 0.2052040331090241 -0.36405696995377035
2360000000.0 -0.4455367735758219 0.10682674281391566
2380000000.0 0.5041496893988694 0.02722317568148339
2400000000.0 -0.5544942096741885 0.028828777326066507
2420000000.0 0.522787012693707 -0.3098351710738781
2440000000.0 -0.17128742921940304 0.6343755302612818
2460000000.0 -0.4035146475992526 -0.5701798193532553
2480000000.0 0.6974197374710132 0.22134346989092687
2500000000.0 -0.7464557348520783 -0.10746917524954404
2520000000.0 0.7639082564260059 0.07421739774034222
2540000000.0 -0.6919168295549895 -0.34325248672401765
2560000000.0 0.3614847533353232 0.6795259295026173
2580000000.0 0.19423140828594535 -0.7319735339105694
2600000000.0 -0.6567161602661431 0.3357110036781144
2620000000.0 0.6760675819729469 0.22009894938262908
2640000000.0 0.6323539025468218 -0.24273749721327237
2660000000.0 -0.604179214928281 -0.19410049032983903
2680000000.0 0.31171597059599304 0.5002909325786552
2700000000.0 0.04060136601795305 -0.5406385731479492
2720000000.0 -0.2706835465814615 0.41323840594552225
2740000000.0 0.43890651252856594 -0.08881611835476295
2760000000.0 -0.40296461759986296 -0.05353186286344419
2780000000.0 0.3592414878619057 0.10375896822471574
2800000000.0 -0.34385490933247825 -0.03602826366997084
2820000000.0 0.2586512098854598 -0.19943870182474113
2840000000.0 -0.08521989553248221 0.3011488422832159
2860000000.0 -0.17594791354127198 -0.25121489604097297
2880000000.0 0.29531545843679863 -0.07214849742268978
2900000000.0 -0.2087841943240413 0.21842088989285907
2920000000.0 0.27725130045555735 -0.12353107598158806
2940000000.0 -0.2314264463522812 -0.20058629108552195
2960000000.0 -0.28012416475682866 0.1311229515170117
2980000000.0 -0.2556394859102455 0.18068892166493547
3000000000.0 -0.2970085408500723 0.10776399703372813
3020000000.0 -0.3014764296760598 -0.09718517993455815
3040000000.0 0.058996055368312074 -0.3078147822897037
3060000000.0 0.05352422663724429 0.3058425656308159
3080000000.0 -0.17925819917131905 -0.24785200018238898
3100000000.0 0.2130488870260898 0.2130200516191008
3120000000.0 -0.275135576487074 -0.1085112096497486
3140000000.0 0.2656917274567278 -0.11031146809100105
3160000000.0 -0.24551862705321073 -0.11956864994693692
3180000000.0 0.1961486812378389 -0.16751889267925132
3200000000.0 0.16181551075185613 0.17108942682866277
3220000000.0 -0.10257645364754789 0.18295888909836802
3240000000.0 -0.17412705811237783 -0.04857957435585146
3260000000.0 0.04970195604679682 -0.13960301269400344
3280000000.0 0.01966342744650445 0.11501202735782247
3300000000.0 -0.0799196538033308 -0.03434937341816213
3320000000.0 0.0299491711749686 -0.0517114323713282
3340000000.0 0.03549320719027713 -0.0039618420360823525
3360000000.0 -0.01764212784523006 -0.0023075294172230803
3380000000.0 0.0012192305253782322 -0.009096360446085021
3400000000.0 -0.011941463108027295 0.012187803714221615
3420000000.0 -0.02408110752562176 0.01633758951963976
3440000000.0 -0.0404535203164521 0.006163846803410561
3460000000.0 -0.03539477285818259 0.03639169630312111
3480000000.0 -0.004020295738708417 0.06310011205240466
3500000000.0 -0.008107730725372617 -0.07824912073388422
3520000000.0 -0.04470558937853622 0.08161041089701211
3540000000.0 -0.0946788594549551 -0.054686367201050044
3560000000.0 0.06869130738955515 -0.10162158842874376
3580000000.0 0.04613179226094827 0.12817766073545872
3600000000.0 -0.07342478027400005 0.13371884765733272
3620000000.0 -0.06727583276174383 0.14990788491177148
3640000000.0 -0.17375652066059535 0.003708562180877155
3660000000.0 -0.16071136186763896 -0.08931435881909193
3680000000.0 -0.09794892742286755 -0.1628359936489615
3700000000.0 -0.09719001503997864 -0.1635893580479748
3720000000.0 0.06119930880670235 -0.179428801891555
3740000000.0 0.16738277041378405 -0.07575869767837602
3760000000.0 -0.17672623535661974 0.01754674858017849
3780000000.0 0.16885420520588765 0.0025259333438227213
3800000000.0 -0.0031407947061590645 -0.16115699722194315
3820000000.0 -0.1340371730541435 -0.07427175216183435
3840000000.0 -0.06538572471879703 -0.13061089522106897
3860000000.0 0.12517639678266387 0.07727551862258064
3880000000.0 0.09187114683581309 0.12182286400813898
3900000000.0 0.14535693242482275 -0.0644181690047862
3920000000.0 -0.1565734809912208 -0.045852921753458786
3940000000.0 0.15857387609818624 -0.05214539680421481
3960000000.0 0.1136705733634845 0.1286881066573228
3980000000.0 0.1678619580972002 -0.03400056046929009
4000000000.0 0.16085485703993863 -0.02884599098333159
