!Created with skrf (http://scikit-rf.org).
# Hz S RI R 50.0 
!freq ReS11 ImS11
400000000.0 -0.8075475846232509 0.3261126364665138
420000000.0 0.3562590276510513 0.7956329990502207
440000000.0 0.7602147847260969 -0.3530745882218332
460000000.0 -0.06872911482916542 -0.7829476307543923
480000000.0 0.5952858457492343 0.3887967660647166
500000000.0 0.2954766147841283 -0.5079272868473718
520000000.0 -0.4666288901312356 -0.16410714091067116
540000000.0 0.06329800108798365 0.4206053047861354
560000000.0 -0.35198185675926513 -0.15479844052863626
580000000.0 0.2798117476102648 -0.2139333358425078
600000000.0 -0.027447145284501047 -0.35488511985786925
620000000.0 0.276573346440385 0.24720285274433942
640000000.0 0.2544722355308595 -0.305206194641135
660000000.0 -0.37617334658881724 -0.15860509671318831
680000000.0 0.36587925560655404 -0.21419260999828826
700000000.0 -0.19161436433682016 -0.38186051605139665
720000000.0 -0.41329699670566133 -0.10127275054940445
740000000.0 0.37900416615623905 -0.170262902749434
760000000.0 -0.28380995928151914 -0.275442513110393
780000000.0 0.1784404931608303 0.3145649809271917
800000000.0 0.23227979167045182 -0.22700441567964405
820000000.0 -0.27851639677397394 -0.013614535043724346
840000000.0 -0.1550832421082127 0.1801074612188133
860000000.0 0.051879848029419286 -0.19584650803093837
880000000.0 -0.0005304246802483195 0.16086582744973246
900000000.0 0.10129208057610564 0.049836984218121015
920000000.0 -0.05858609173781912 0.04369486445563282
940000000.0 -0.026683899099860395 0.034394551261660945
960000000.0 -0.04723252383528212 0.01716996626200491
980000000.0 0.06656106652043693 -0.021128929536631674
1000000000.0 -0.005332004848904232 -0.08730645137223768
1020000000.0 0.014216022936778447 -0.10582291375690976
1040000000.0 0.11926027582903428 0.029923867548652498
1060000000.0 0.07267114463165064 0.14425068628662405
1080000000.0 0.12254609873916357 0.12987755582733165
1100000000.0 0.006273526561302093 -0.20238547866546
1120000000.0 0.17043553295245303 0.14373455257753923
1140000000.0 0.08611481575046896 -0.23908946525606245
1160000000.0 -0.2203680997983384 -0.17435972898134808
1180000000.0 0.03314627145961609 -0.31231175334989514
1200000000.0 0.33588611533682133 -0.0411513563992576
1220000000.0 -0.36095558514006204 0.058369308842409505
1240000000.0 0.28850881041522514 0.25686169485323684
1260000000.0 0.0023517545022891545 -0.4104324333344476
1280000000.0 -0.4248977375074315 -0.024894263871130223
1300000000.0 0.23187431576926518 0.3707200732733638
1320000000.0 0.40356629444238523 0.1723356815071039
1340000000.0 0.4358298441316964 0.05040486536573001
1360000000.0 0.43957389902926647 0.03876773070339178
1380000000.0 0.2639725771873083 -0.3488095609281964
1400000000.0 -0.39008766275223583 -0.17597567420788468
1420000000.0 -0.025093834858730426 0.4093188687139966
1440000000.0 0.3792035450612841 -0.05617790027983995
1460000000.0 0.017653095412137207 -0.351617474358513
1480000000.0 -0.32054831100259695 0.01081403352104968
1500000000.0 -0.06503647453610936 0.27936557877181745
1520000000.0 0.08466447161929637 0.24310190585022812
1540000000.0 -0.14881562468630863 -0.17310302767679736
1560000000.0 0.09903015767284046 -0.1672236123599634
1580000000.0 0.044218198193651234 0.16039557706019067
1600000000.0 0.11819819199125392 -0.05950221724844176
1620000000.0 0.09838243451324699 0.028484938432378735
1640000000.0 -0.06610502885568753 0.03880361155074813
1660000000.0 0.05328314206702561 -0.00011560138784530799
1680000000.0 -0.029990206605908204 0.01603793631504315
1700000000.0 0.01080583586743567 -0.01765662965451558
1720000000.0 0.002916614956074187 -0.002537486501701542
1740000000.0 -0.014864957331243517 0.0023559060733631776
1760000000.0 -0.010261773921620443 0.031217668290065146
1780000000.0 -0.04335479106257905 0.0435071240201983
1800000000.0 -0.04213926694570657 -0.08365659105142478
1820000000.0 -0.1051401862301745 -0.0646322939570609
1840000000.0 0.16083517366031244 -0.0044391869277909685
1860000000.0 -0.19273810794497426 -0.04297268209929471
1880000000.0 0.229030982445572 0.06178722276004046
1900000000.0 -0.2811568598127865 -0.0217713282417654
1920000000.0 0.2929620015301361 -0.12101179777875465
1940000000.0 -0.35114750382938476 0.010492249062707983
1960000000.0 0.3404485044536282 0.16459127478421928
1980000000.0 -0.10525075885211096 -0.38210751407975385
2000000000.0 -0.3914764325218909 -0.13385664281077328
2020000000.0 -0.19353315788723408 0.3791649902258686
2040000000.0 0.1740369006125478 0.396534258975131
2060000000.0 0.43526184400095125 0.019911334517154825
2080000000.0 0.2712339764879625 -0.3381246649626269
2100000000.0 0.09732891402339976 -0.41435595048631985
2120000000.0 -0.07268724234671056 -0.4109763267309707
2140000000.0 -0.18000840368094703 -0.3666935912317247
2160000000.0 0.3038486630720236 -0.25433715745986
2180000000.0 0.07785436608810493 -0.3756905080933309
2200000000.0 -0.18958605747044316 -0.31778735109454864
2220000000.0 -0.2581525253109811 -0.24880630454894292
2240000000.0 -0.35010614201976104 -0.048568929113059565
2260000000.0 -0.34335867500841777 0.07722330131037446
2280000000.0 -0.2110573150805917 0.2852695015309452
2300000000.0 0.11739173982581126 0.3457875465950416
2320000000.0 0.36446135399174695 0.12728674760214234
2340000000.0 0.21109765767551786 -0.36060766593226096
2360000000.0 -0.4472393310186824 0.09792458044995755
2380000000.0 0.5050745865033267 -4.969082105444592e-05
2400000000.0 -0.5546668489033639 -0.023164520921038597
2420000000.0 0.5396178366380788 -0.279565394231303
2440000000.0 -0.1767003732751099 0.632792204536135
2460000000.0 -0.40900800550672023 -0.5665512733901107
2480000000.0 0.6821824797389067 0.2650650665076217
2500000000.0 -0.7521814344967194 -0.051986297169960644
2520000000.0 0.7589507947970989 0.11512856584769134
2540000000.0 -0.6939126658580159 -0.33942209487622954
2560000000.0 0.35219320122434733 0.684656504890621
2580000000.0 0.2297203030310173 -0.7224110776701358
2600000000.0 -0.6786612331144618 0.2885850474684184
2620000000.0 0.6836175539288151 0.19468142600266392
2640000000.0 0.6460253231392913 -0.20164119504939723
2660000000.0 -0.5852151395828267 -0.24403604361816328
2680000000.0 0.3365659442490191 0.48316538700593975
2700000000.0 0.05567749102519642 -0.5389549695644282
2720000000.0 -0.2768975103160893 0.4088011501259079
2740000000.0 0.4299172857716253 -0.12489254756538098
2760000000.0 -0.40586765693046145 -0.021181479966882133
2780000000.0 0.3645456342813304 0.08416548974203464
2800000000.0 -0.3443911551099565 -0.034855309763278865
2820000000.0 0.2681915528989763 -0.18647678288484396
2840000000.0 -0.09067618047279166 0.2989080688467216
2860000000.0 -0.169749351617111 -0.25581340417088716
2880000000.0 0.30066838481342173 -0.04346489016326362
2900000000.0 -0.22661887727799832 0.1994185652024996
2920000000.0 0.29571846436644533 -0.06651768969709265
2940000000.0 -0.20726759609056325 -0.22509645482037885
2960000000.0 -0.2913569877509497 0.10293863823204737
2980000000.0 -0.24287771613275827 0.19748739933058537
3000000000.0 -0.29170625103444414 0.12165284515664229
3020000000.0 -0.30424914171709144 -0.08802511881546742
3040000000.0 0.05703801743321509 -0.30761907567172253
3060000000.0 0.14428253480896297 0.27427943463113164
3080000000.0 -0.21251821585456288 -0.22059446774069688
3100000000.0 0.2614796327788428 0.14971908247091495
3120000000.0 -0.29529570197004545 -0.028276054610584658
3140000000.0 0.24581908712695116 -0.1507029918968142
3160000000.0 -0.2720227988586018 -0.03798146658031746
3180000000.0 0.1407240121603568 -0.2182779040486328
3200000000.0 0.201230240227671 0.12386332058897796
3220000000.0 -0.09045883292993427 0.19018274149280479
3240000000.0 -0.1703981131221607 -0.06292187688998717
3260000000.0 0.07611692893979333 -0.12832094792866375
3280000000.0 0.0011642167715523138 0.11726365205620294
3300000000.0 -0.06377757268173258 -0.05947535001800462
3320000000.0 0.0596236872652007 0.0028614384639597578
3340000000.0 0.021955728425841318 0.027887741625948616
3360000000.0 0.016214016476689148 -0.005876682288463188
3380000000.0 -0.007035197351109267 0.002519166206977163
3400000000.0 0.01474170860447036 0.0073203870607779775
3420000000.0 0.02660882990184255 -0.011052383326528022
3440000000.0 0.016194616665893297 0.03717234897063241
3460000000.0 0.04979606725771583 0.009057242811954653
3480000000.0 0.062396972438126745 -0.006624208393304486
3500000000.0 -0.07231011951555334 -0.029548913243544857
3520000000.0 0.02191645406807324 0.09037032370649097
3540000000.0 -0.10724841625422114 0.024228317759332905
3560000000.0 0.07493233728274964 -0.0979661927933043
3580000000.0 0.08754552567929502 0.10581750995247682
3600000000.0 -0.007193390348721168 0.1540866281111658
3620000000.0 -0.10099120937022348 0.13157536508723358
3640000000.0 -0.16817513535357534 -0.04928579699235466
3660000000.0 -0.12399780404147227 -0.1375134343488471
3680000000.0 -0.03224377986045081 -0.18735970419971107
3700000000.0 -0.02204236706345327 -0.1896495623016651
3720000000.0 0.14380590518664157 -0.12335982310752996
3740000000.0 0.18195481207974235 -0.017211229256841994
3760000000.0 -0.16734050042024473 -0.05737576190399076
3780000000.0 0.16182932922126467 0.04302856105856516
3800000000.0 0.01431948953189513 -0.1590352770800721
3820000000.0 -0.0998766850752998 -0.11461913441799906
3840000000.0 -0.034593919791120996 -0.14046123055301654
3860000000.0 0.10215248362729885 0.103253404242185
3880000000.0 0.07706173389974771 0.12971398533062528
3900000000.0 0.15607326745846722 -0.013481621970817243
3920000000.0 -0.1608198923019505 -0.008358310543698401
3940000000.0 0.14932040369270477 -0.07087330567344237
3960000000.0 0.13887449263934032 0.09790995851081169
3980000000.0 0.12976588046245413 -0.10901060145171164
4000000000.0 0.11452611171664863 -0.11589858978168854
