!Created with skrf (http://scikit-rf.org).
# Hz S RI R 50.0 
!freq ReS11 ImS11
400000000.0 -0.7789569923594354 0.3931657689691865
420000000.0 0.36010469561801367 0.7930209322797228
440000000.0 0.7381659493019668 -0.3965021218840679
460000000.0 -0.10573793435788338 -0.7790106278265482
480000000.0 0.6091979610678868 0.3667137070394297
500000000.0 0.31829786475473487 -0.49307291396221486
520000000.0 -0.47103096907027214 -0.1550907616094745
540000000.0 0.08839909287774167 0.41606638881146035
560000000.0 -0.3418233515772378 -0.1749339862433871
580000000.0 0.29412153370200167 -0.1941314087344773
600000000.0 -0.018596827490378703 -0.35635130440812135
620000000.0 0.28253248540834364 0.23706830692536807
640000000.0 0.28864194804897536 -0.2748214069520963
660000000.0 -0.38234420498243366 -0.14222649416252484
680000000.0 0.32781312023333686 -0.267824690654181
700000000.0 -0.16978876656653608 -0.3919264507216276
720000000.0 -0.4240949342814526 -0.0392037432024075
740000000.0 0.37603122824940877 -0.17637854850540508
760000000.0 -0.29326754462500243 -0.26618951134331714
780000000.0 0.1472815163303556 0.3305876069921521
800000000.0 0.23063311929743394 -0.22813903532950222
820000000.0 -0.2776104996317529 -0.026384495917697665
840000000.0 -0.15982245634002984 0.17525964971972627
860000000.0 0.06376166629468981 -0.1920697389420291
880000000.0 -0.014685948620707084 0.15955483010229043
900000000.0 0.10139368309305621 0.04763192241531914
920000000.0 -0.04736617489993006 0.05538617470099876
940000000.0 0.012917881561381395 0.041769704440436616
960000000.0 -0.046614722818888475 0.01821569151549239
980000000.0 0.0692795699349651 -0.008301214070684097
1000000000.0 0.022929713368887914 -0.08430315128485857
1020000000.0 0.024824132188382607 -0.1038887878374689
1040000000.0 0.11475846702979405 0.043919005906257094
1060000000.0 0.043522608964140126 0.15509902654320482
1080000000.0 0.12113548902787713 0.1309586009105905
1100000000.0 -0.024003562157970924 -0.20072407091823494
1120000000.0 0.17831347918004256 0.13364222436674963
1140000000.0 0.07092038152289784 -0.24418518997104802
1160000000.0 -0.203406769163738 -0.19334665666644318
1180000000.0 0.050024417955423166 -0.30990027745603244
1200000000.0 0.33736049711412663 -0.022585296351624127
1220000000.0 -0.36148858640895914 0.056887988953943626
1240000000.0 0.28941914837844357 0.25542660108852216
1260000000.0 -0.007187889587482273 -0.4104733132498197
1280000000.0 -0.4259923969946156 -0.002431454751500415
1300000000.0 0.21269259541870353 0.38262611264521706
1320000000.0 0.3986828437322601 0.18411904015419187
1340000000.0 0.43611858137014636 0.05232112200432807
1360000000.0 0.4392133784312001 0.04572746017146699
1380000000.0 0.273760513812918 -0.3414857210805864
1400000000.0 -0.3737344534572798 -0.20889804057391156
1420000000.0 -0.06289963754408855 0.40543479581757275
1440000000.0 0.38325739969336853 -0.015459981856065405
1460000000.0 0.05754331333259919 -0.34745903555405244
1480000000.0 -0.31987317687509614 -0.022517110350517705
1500000000.0 -0.09388884095965834 0.27081898954251354
1520000000.0 0.06848694848655025 0.247698927880142
1540000000.0 -0.13416481633541372 -0.1844368847155427
1560000000.0 0.14694050881168205 -0.1261478623474709
1580000000.0 0.04450042901761285 0.159486886511909
1600000000.0 0.1261629537004026 -0.038835135143948575
1620000000.0 0.09946824204819792 0.022419700779492676
1640000000.0 -0.06267469389672518 0.04381971587806192
1660000000.0 0.0482706322774497 -0.02128642752685824
1680000000.0 -0.004769516122033283 0.034094367407187076
1700000000.0 -0.01809117652140948 -0.010701522500794975
1720000000.0 -0.003536885836893181 -0.001887238243399563
1740000000.0 -0.006435548492917734 -0.013299416245186973
1760000000.0 -0.02116617555142807 0.02472996143594602
1780000000.0 -0.04938782521805284 0.03588262303763336
1800000000.0 -0.05013508882189398 -0.07908755178015166
1820000000.0 -0.11950332681341032 -0.03228224630659869
1840000000.0 0.15984065454813942 -0.017661228514340675
1860000000.0 -0.19207986598792984 -0.04639524393976104
1880000000.0 0.23235013942787333 0.04856186205308954
1900000000.0 -0.2816640217610554 -0.013936740201681367
1920000000.0 0.2930062281386428 -0.12144220416673299
1940000000.0 -0.35166803122049667 0.003419171408928189
1960000000.0 0.3366404536202621 0.1731873572930686
1980000000.0 -0.07956067931579938 -0.38844527810223567
2000000000.0 -0.38571632155178326 -0.1494846930291251
2020000000.0 -0.22338412023923962 0.3619517363772286
2040000000.0 0.14215908601347685 0.4089401081387138
2060000000.0 0.43542241971145035 0.005399092370176463
2080000000.0 0.3046953476391433 -0.30730085651432326
2100000000.0 0.07209182036412881 -0.41840036957599513
2120000000.0 -0.012383742188734717 -0.4166638645138544
2140000000.0 -0.12865886566106155 -0.3869558592494697
2160000000.0 0.27460820974030586 -0.28505653651156004
2180000000.0 0.07418912243218267 -0.37560393314059964
2200000000.0 -0.2152194450310282 -0.30003494829433414
2220000000.0 -0.2561639747159372 -0.24987045709216682
2240000000.0 -0.3525751126436552 0.00046231191275843543
2260000000.0 -0.32319449601761163 0.13828386875161727
2280000000.0 -0.2052046891610861 0.2887785864088825
2300000000.0 0.1342155319903877 0.3389603712910689
2320000000.0 0.37499842036169445 0.09354109955353641
2340000000.0 0.20249071531052665 -0.36578353113176104
2360000000.0 -0.44752016535906497 0.0994786469076501
2380000000.0 0.5034186969569532 0.04166189314501463
2400000000.0 -0.5552595700457648 0.015596565344449894
2420000000.0 0.5305581478897708 -0.2965869674297308
2440000000.0 -0.17602460503741932 0.6330279679844715
2460000000.0 -0.3911306543088725 -0.5785168890488046
2480000000.0 0.6990442562856969 0.21492044880469438
2500000000.0 -0.7453174869398357 -0.11227345276537484
2520000000.0 0.7621160723738316 0.08531374032331353
2540000000.0 -0.7117542106665361 -0.297896923252068
2560000000.0 0.3757330155333983 0.6710498358464936
2580000000.0 0.1532985829448551 -0.7410389734955574
2600000000.0 -0.6185915379486085 0.40033181398165457
2620000000.0 0.697984963655276 0.13321143147628414
2640000000.0 0.6133627194725783 -0.28655348924546725
2660000000.0 -0.6088178054183364 -0.17806060350601646
2680000000.0 0.33330783008905823 0.4859909311791969
2700000000.0 -0.00529630964274817 -0.5423086216920591
2720000000.0 -0.24897220903949774 0.4270481513137226
2740000000.0 0.43719234514431465 -0.09833038881074162
2760000000.0 -0.40344833771862576 -0.053685436023755646
2780000000.0 0.3564608880431538 0.1145231020417632
2800000000.0 -0.3422835893082576 -0.051805018139141394
2820000000.0 0.2737103565655784 -0.1783651338638477
2840000000.0 -0.10263297082467766 0.29524332701374906
2860000000.0 -0.1418788302108269 -0.27225629852474886
2880000000.0 0.29744196369661163 -0.0604280880106406
2900000000.0 -0.22451754388629191 0.20147123258879576
2920000000.0 0.2979124414393454 -0.05666662691745292
2940000000.0 -0.18351111880945983 -0.2447332063740265
2960000000.0 -0.27727062009984677 0.13524912837010575
2980000000.0 -0.25318141581319886 0.1836989665082889
3000000000.0 -0.29065387646390906 0.121581776532655
3020000000.0 -0.31246944422136597 -0.04866764691068719
3040000000.0 0.034379938702416526 -0.3107942786811339
3060000000.0 0.10080392358137222 0.29291682829595367
3080000000.0 -0.20213034042594966 -0.22922570769019812
3100000000.0 0.21127003165090064 0.21427941364823305
3120000000.0 -0.2947656226981556 -0.023691328814491815
3140000000.0 0.24339194615574994 -0.15344146780264717
3160000000.0 -0.25707883735435444 -0.0930223760531391
3180000000.0 0.17158745906823347 -0.19299885138457987
3200000000.0 0.1727168486455556 0.15966438042195402
3220000000.0 -0.08405599003950386 0.19209777024260896
3240000000.0 -0.17540654292783778 -0.044343225153589565
3260000000.0 0.03349279998776145 -0.14429116019368873
3280000000.0 0.02623992800856424 0.11330600846298175
3300000000.0 -0.08260980257612778 -0.02574258110693335
3320000000.0 0.022081101905392888 -0.05494500174440315
3340000000.0 0.03293358995296316 -0.012677545037473602
3360000000.0 -0.0019938370916686085 0.017180346010089154
3380000000.0 -0.0012061734432078398 0.009245293968406666
3400000000.0 -0.00018790922140778636 0.017547770775274512
3420000000.0 -0.026694194733571572 0.012845278999909088
3440000000.0 -0.019126526075708476 0.03694374632774229
3460000000.0 -0.012928066905550466 0.04967427220183381
3480000000.0 0.028713018729798048 0.05679076527847404
3500000000.0 -0.02303528435123705 -0.0757131491589815
3520000000.0 -0.0342677786204461 0.08703494622616775
3540000000.0 -0.10416923788880887 -0.034644835975769915
3560000000.0 0.0335904770584002 -0.1187466347170065
3580000000.0 0.05788683942963199 0.12351201026934171
3600000000.0 -0.019547371049443256 0.1524734253215498
3620000000.0 -0.06533562311568324 0.15133682898153336
3640000000.0 -0.17348923068172292 0.020356965365819577
3660000000.0 -0.15602629100439455 -0.09815259423771801
3680000000.0 -0.09842213709380447 -0.1632073688422937
3700000000.0 -0.09498196169171344 -0.16563596403768718
3720000000.0 0.053609641328798655 -0.18164166973113588
3740000000.0 0.16800933585878955 -0.0758841192702647
3760000000.0 -0.17698978524134842 0.01842162056113062
3780000000.0 0.16856351798204347 0.017897446663989253
3800000000.0 0.010694113888857052 -0.16127874504011713
3820000000.0 -0.13003181450338686 -0.08208832813259154
3840000000.0 -0.06725584910593448 -0.13006439522405785
3860000000.0 0.12088157515219411 0.08398613495671046
3880000000.0 0.08347765928636317 0.12825273429309
3900000000.0 0.1434419294801876 -0.0691396631579159
3920000000.0 -0.15903628715311965 -0.03607304230303664
3940000000.0 0.15539491491891708 -0.060939354874195634
3960000000.0 0.1072962179782506 0.1340353899560765
3980000000.0 0.1689708281189147 -0.027507826704048745
4000000000.0 0.16139216201996245 -0.024109868971497715
