!Created with skrf (http://scikit-rf.org).
# Hz S RI R 50.0 
!freq ReS11 ImS11
400000000.0 -0.7799410397154312 0.39008693977137615
420000000.0 0.32496474372548 0.8080971206469283
440000000.0 0.7420625635004523 -0.390278964997407
460000000.0 -0.1137296379829621 -0.7776735313124535
480000000.0 0.5925713894059024 0.39328261603740317
500000000.0 0.34000716256590857 -0.47683278353102815
520000000.0 -0.4811291850824199 -0.1241226840535896
540000000.0 0.14166354799544592 0.40021519734519473
560000000.0 -0.31583944664984276 -0.21811619445692015
580000000.0 0.3046318515893845 -0.1763076551554044
600000000.0 -0.1230473071601338 -0.3361577440696196
620000000.0 0.26151908302031623 0.26169876988405943
640000000.0 0.28401275998993614 -0.2782594567721836
660000000.0 -0.398676043495382 -0.08849403083709377
680000000.0 0.3889322826757188 -0.1679007233138731
700000000.0 -0.2626695454163377 -0.3364963995940238
720000000.0 -0.40561875993841023 -0.13062472101688455
740000000.0 0.3599372288597605 -0.2068286685836055
760000000.0 -0.2663053544087804 -0.2924919943078569
780000000.0 0.18449516575640423 0.31158288111415333
800000000.0 0.24031899165285228 -0.21796844058570114
820000000.0 -0.27841056194483105 -0.014753376026316923
840000000.0 -0.15354926389551712 0.18081749098968194
860000000.0 0.0760834761003097 -0.18784164976422751
880000000.0 -0.002127189661421973 0.1604219621003319
900000000.0 0.1055105087887723 0.03792230308570541
920000000.0 -0.054047383462541725 0.04867623510165808
940000000.0 0.025583806282960708 0.035595772117581935
960000000.0 -0.04179207568219063 0.02822830173049434
980000000.0 0.06134183037826164 -0.03263185399368331
1000000000.0 0.02194637989314738 -0.08510009511703664
1020000000.0 -0.001959330449118964 -0.10658713684111351
1040000000.0 0.10247144323657495 0.06768030053898542
1060000000.0 0.06829593389509198 0.14594533826970338
1080000000.0 0.12892266716704254 0.12366983777040298
1100000000.0 -0.024505566917929406 -0.20073317016812664
1120000000.0 0.18910490747863265 0.11860215377169377
1140000000.0 0.0850351198717624 -0.23973452166945994
1160000000.0 -0.19794423742415554 -0.19916498800205792
1180000000.0 0.052681398388725105 -0.30973126079240576
1200000000.0 0.33809702272469194 -0.0014323883848997075
1220000000.0 -0.36390489922460717 0.0372105838725947
1240000000.0 0.28258899900253454 0.26284010320352974
1260000000.0 0.015889835797403735 -0.4099045334489677
1280000000.0 -0.42568467888663136 -0.012956129025324076
1300000000.0 0.23084173640191036 0.3718115765124843
1320000000.0 0.39773419966621065 0.18556612008776513
1340000000.0 0.43574236685805146 0.05399066887034163
1360000000.0 0.43961447318546587 0.04426580498910605
1380000000.0 0.2581950303517029 -0.35314592005601075
1400000000.0 -0.38256052266432 -0.19246480220394843
1420000000.0 -0.034611104733981816 0.408799541135466
1440000000.0 0.38280601916852947 -0.02692391338309058
1460000000.0 0.03102460478515925 -0.35068286129263454
1480000000.0 -0.32045292040048956 -0.019671481936286133
1500000000.0 -0.08516345893526629 0.274166817716684
1520000000.0 0.08095533140963419 0.24392916477215548
1540000000.0 -0.12738526695691044 -0.1893523306966172
1560000000.0 0.13754621783847484 -0.13647596673753248
1580000000.0 0.06247417455180329 0.15369299397495237
1600000000.0 0.12265609622357808 -0.04897001745002753
1620000000.0 0.08819359501480255 0.05093049638591397
1640000000.0 -0.06173316621401306 0.045438299668821354
1660000000.0 0.051170732040984906 -0.011895973241576268
1680000000.0 -0.03217488864395102 0.01230270960742991
1700000000.0 -0.01732792947097877 -0.011375957390245627
1720000000.0 -0.00016287837749103223 0.003732815597464624
1740000000.0 -0.013757903047415887 0.006799967998515581
1760000000.0 -0.029253256290590827 0.014378617725798229
1780000000.0 -0.0575347487764536 0.020084388219382462
1800000000.0 -0.039167279536082206 -0.0850126962885697
1820000000.0 -0.11428824883310208 -0.04722344568055989
1840000000.0 0.16054650065169251 -0.0098430941087255
1860000000.0 -0.19020572223731547 -0.052774141751677786
1880000000.0 0.22996387093415677 0.05739541819655769
1900000000.0 -0.28173462509884384 -0.00736204896629833
1920000000.0 0.2925319833109255 -0.12244861692558436
1940000000.0 -0.3511016164661577 0.015471622674864825
1960000000.0 0.3412076273522071 0.164017916949387
1980000000.0 -0.08577191807004154 -0.387027922961763
2000000000.0 -0.3917076668725482 -0.13315109667243044
2020000000.0 -0.21049909621821142 0.3698076833204149
2040000000.0 0.14824667846435707 0.40710393385548527
2060000000.0 0.4357097201196932 0.011217211403468251
2080000000.0 0.29398252236843875 -0.31788843648816656
2100000000.0 0.08056371741677434 -0.41725276581823895
2120000000.0 -0.06005546692693371 -0.4126554383931805
2140000000.0 -0.12662093294766452 -0.38805323896076727
2160000000.0 0.28136883121004413 -0.2787777326946158
2180000000.0 0.06390764473951276 -0.37799410644285386
2200000000.0 -0.21054049291401022 -0.3037703724338522
2220000000.0 -0.24878601258020783 -0.25738068962951965
2240000000.0 -0.35240206445277794 -0.013218121040049775
2260000000.0 -0.3296883354465891 0.12168813885150725
2280000000.0 -0.21295414382536218 0.28307594430443445
2300000000.0 0.12426807654543366 0.3426224959952342
2320000000.0 0.37056053349288665 0.10810835427747126
2340000000.0 0.1963662719789097 -0.3690557883046374
2360000000.0 -0.44532395439284855 0.10769052291297669
2380000000.0 0.5047284851872261 0.01670615039084889
2400000000.0 -0.5551402066463182 0.012706252399004893
2420000000.0 0.5204263079458012 -0.3136305783280882
2440000000.0 -0.1866663466890569 0.6300221908614649
2460000000.0 -0.4017364287149049 -0.571374590652778
2480000000.0 0.6984727424193724 0.217981074115448
2500000000.0 -0.7464953228302994 -0.10749901113744577
2520000000.0 0.7586999118676547 0.11635760222201416
2540000000.0 -0.6929489499316914 -0.3408113797080719
2560000000.0 0.3719696691496272 0.6737286061189653
2580000000.0 0.21194506305376787 -0.7270433592358605
2600000000.0 -0.6350853790954097 0.37497571933106133
2620000000.0 0.6842328843539341 0.19337507078284158
2640000000.0 0.6257425435117294 -0.2592156454175474
2660000000.0 -0.607035592148675 -0.1855558922118618
2680000000.0 0.3365120729810284 0.484116554341462
2700000000.0 0.03723049509116086 -0.541003201266969
2720000000.0 -0.2717288994467537 0.41269322455467294
2740000000.0 0.4397100723409566 -0.08526243479042639
2760000000.0 -0.40209381325832855 -0.060195871661988275
2780000000.0 0.35628664071034893 0.11329178445155809
2800000000.0 -0.343256023180276 -0.04250793486586268
2820000000.0 0.2613800332179387 -0.19608237555707664
2840000000.0 -0.07357813414981997 0.30361151427506505
2860000000.0 -0.1889975211015062 -0.241191488651873
2880000000.0 0.2977546149413032 -0.06070831869791426
2900000000.0 -0.21327316316879574 0.21414794719109156
2920000000.0 0.2869248252416208 -0.09873826709408019
2940000000.0 -0.21844379269232972 -0.21444383993982027
2960000000.0 -0.27983193846453336 0.13103251246742142
2980000000.0 -0.25780846686178516 0.178707310841097
3000000000.0 -0.29343284011135623 0.11601906512902226
3020000000.0 -0.29852967226845945 -0.10617196254757241
3040000000.0 0.08994283944841136 -0.3002364411835711
3060000000.0 0.05999451994537003 0.30448614523888656
3080000000.0 -0.1908702666473386 -0.23898460368942717
3100000000.0 0.2070628059016714 0.2187966421181337
3120000000.0 -0.27457672876564215 -0.11020804632879583
3140000000.0 0.26610809252446016 -0.10924853977466172
3160000000.0 -0.24322728106002478 -0.12398371236779256
3180000000.0 0.18231108389280845 -0.18323744000285191
3200000000.0 0.1610505429240438 0.17134246396280306
3220000000.0 -0.0966956576140046 0.18631220401307666
3240000000.0 -0.1728617799980311 -0.052655177714557674
3260000000.0 0.04361802034492446 -0.14137703858001305
3280000000.0 -0.010815995764074944 0.1160161735267486
3300000000.0 -0.08691302141713995 5.652307094644147e-05
3320000000.0 0.018354185295659672 -0.056523145103824286
3340000000.0 0.03360360885443814 0.011016228758497974
3360000000.0 -0.009191275482804377 0.01506131774187027
3380000000.0 -0.002767335796185032 0.00874929153458095
3400000000.0 0.0016331092677450575 0.017396919295294973
3420000000.0 -0.02688244289208766 0.012026835019750503
3440000000.0 -0.04104551570393752 -0.0026322703213629427
3460000000.0 -0.031013804402295415 0.04061712504412547
3480000000.0 0.008301810259226073 0.06283217077785516
3500000000.0 0.04868681005670804 -0.061336834876147446
3520000000.0 -0.06413734387992935 0.0671092593283687
3540000000.0 -0.0730143404281924 -0.08093750476283634
3560000000.0 0.05521177340502266 -0.10988093339578946
3580000000.0 0.05746058068534435 0.1236131467787325
3600000000.0 -0.05406411779636905 0.14313495408565294
3620000000.0 -0.07167386369715965 0.1478469141213578
3640000000.0 -0.17390526563776404 -0.0017301073360447747
3660000000.0 -0.1531370079864743 -0.10263846730960483
3680000000.0 -0.09360182664652573 -0.16547219655095574
3700000000.0 -0.09950149384488136 -0.1624800338162145
3720000000.0 0.0597210846473932 -0.17940581830254773
3740000000.0 0.16706321197943413 -0.07660745995227598
3760000000.0 -0.17729959080041283 0.01271632275592671
3780000000.0 0.16891453528285194 0.008695574008631524
3800000000.0 0.00782507281216031 -0.1613261225544699
3820000000.0 -0.13285208430735454 -0.07683623948127193
3840000000.0 -0.05347223649543559 -0.1359753000345013
3860000000.0 0.12015151180922369 0.08481464969414013
3880000000.0 0.08496136316859869 0.12693849389042228
3900000000.0 0.14508029768211284 -0.06402834161050287
3920000000.0 -0.15210975895080184 -0.058027702286481374
3940000000.0 0.16018830484063487 -0.047258359353638514
3960000000.0 0.1073827390854775 0.13386772148020396
3980000000.0 0.16581860046050448 -0.0407588190101343
4000000000.0 0.16035139319597136 -0.029988517250409318
