!Created with skrf (http://scikit-rf.org).
# Hz S RI R 50.0 
!freq ReS11 ImS11
400000000.0 -0.789740045481026 0.37047984282589697
420000000.0 0.3345556652231543 0.8042337387026851
440000000.0 0.7211409637762688 -0.4266688434636605
460000000.0 -0.08577195260520669 -0.7806309552350219
480000000.0 0.6044677134214057 0.3747470395004928
500000000.0 0.3161532047478049 -0.4957518079848537
520000000.0 -0.4722605015218218 -0.14743951365486332
540000000.0 0.06923503729634996 0.41970814568002357
560000000.0 -0.31948074108843905 -0.21289754076026252
580000000.0 0.28097758564333347 -0.21485236709973676
600000000.0 -0.007091599462278643 -0.354889869671193
620000000.0 0.2661656272693138 0.25588168703289726
640000000.0 0.26965433874315864 -0.2932068839596823
660000000.0 -0.3845964857462152 -0.13616480299037967
680000000.0 0.3403835946167657 -0.2518189346333786
700000000.0 -0.198571721440824 -0.3784648438862964
720000000.0 -0.4241806519981694 -0.03783716111122695
740000000.0 0.38437370874181187 -0.1601283701053377
760000000.0 -0.27936050914422766 -0.28087190997749945
780000000.0 0.1624523687606172 0.3233027403453521
800000000.0 0.22813311330341857 -0.23097030192724527
820000000.0 -0.27670085004359296 -0.03574084649383661
840000000.0 -0.17652110208720279 0.15867312994611174
860000000.0 0.08240045835277335 -0.1843290284880943
880000000.0 -0.01953683879139039 0.15878663955674766
900000000.0 0.09938559135739289 0.0517127430774267
920000000.0 -0.03178435153697146 0.0649087785384047
940000000.0 0.017071555518321534 0.03996086049377875
960000000.0 -0.049683105182957515 0.007394654396474168
980000000.0 0.06964770440506678 -0.003819677502757622
1000000000.0 0.009252650218254737 -0.08670483614864277
1020000000.0 0.03494014188221749 -0.10077255514433599
1040000000.0 0.11373938064463578 0.04654529576136721
1060000000.0 0.04616916484303992 0.15432711467469426
1080000000.0 0.1187074306015057 0.13309017997617836
1100000000.0 -0.018372322838654455 -0.20127620822985628
1120000000.0 0.18545405918246338 0.12339875414892824
1140000000.0 0.07247952963544799 -0.2437026311201741
1160000000.0 -0.20678362590598126 -0.18980880757601684
1180000000.0 0.05438685850167865 -0.30925936179992625
1200000000.0 0.3371157830913646 -0.025244263403050686
1220000000.0 -0.3628472165528618 0.04724021304474624
1240000000.0 0.2915946678760389 0.25286436646989535
1260000000.0 -0.00599946108942671 -0.4104592409118405
1280000000.0 -0.42597228373794 -0.0010383062458955014
1300000000.0 0.23005516432821266 0.3724543223288566
1320000000.0 0.4017163592491176 0.17728960238872316
1340000000.0 0.43700582409137695 0.044595559136634405
1360000000.0 0.43938404446403573 0.04439239754079812
1380000000.0 0.27181789377707405 -0.3429658747632093
1400000000.0 -0.3786777916548356 -0.19976540095224488
1420000000.0 -0.05690878977120976 0.4063101671281708
1440000000.0 0.3831944010138273 -0.01602385755442513
1460000000.0 0.05510827383152291 -0.34771307932427714
1480000000.0 -0.3171540853653259 -0.04936074813424983
1500000000.0 -0.09014850233466645 0.2719497002550572
1520000000.0 0.05983343093896526 0.2498349689865617
1540000000.0 -0.1018501428497222 -0.2041848875642137
1560000000.0 0.1444586364973088 -0.1289415181800658
1580000000.0 0.065027028494076 0.15213427572544172
1600000000.0 0.12081311063445375 -0.05310244260294921
1620000000.0 0.09455519753526476 0.03775782652348663
1640000000.0 -0.054618494676815746 0.05351435205981047
1660000000.0 0.047520845833333714 -0.022667009648220434
1680000000.0 -0.011987336916991623 0.03211565145153142
1700000000.0 -0.0046878659717667776 -0.020321140340977824
1720000000.0 -0.0036198851851139075 -0.0014160603589972432
1740000000.0 -0.0068442509701965104 0.013263938320573541
1760000000.0 -0.019283310627353483 0.026039041923102163
1780000000.0 -0.04749145472808246 0.03825658398473262
1800000000.0 -0.05892852687501671 -0.07287540889147487
1820000000.0 -0.12140279896250833 -0.023962462513123364
1840000000.0 0.15924878849887783 -0.023946371136745637
1860000000.0 -0.19478008841976518 -0.03361377431826692
1880000000.0 0.23211860261533063 0.049636847633776605
1900000000.0 -0.28209135603987445 -0.0083970001541923
1920000000.0 0.29635822243406756 -0.11305313531111386
1940000000.0 -0.3517524417621035 0.00010261671889599943
1960000000.0 0.33391600582549097 0.1785102893690065
1980000000.0 -0.07701505558009263 -0.388946170241144
2000000000.0 -0.3799649259142874 -0.1634174027062734
2020000000.0 -0.22838759600220793 0.3589082995754561
2040000000.0 0.1343874607093392 0.4115060028643867
2060000000.0 0.43390508489806295 0.035223652921731706
2080000000.0 0.2844502746591954 -0.3260216916097862
2100000000.0 0.07661849643548341 -0.41751601561314367
2120000000.0 -0.05428572295774528 -0.4130451893364698
2140000000.0 -0.15038833512748645 -0.37892462283227124
2160000000.0 0.2607641001322968 -0.29741273903617105
2180000000.0 0.05084283284467431 -0.3794738313313119
2200000000.0 -0.23622647709229458 -0.28374974332013037
2220000000.0 -0.2809828036571609 -0.22135312040358118
2240000000.0 -0.3522685881623611 0.020355064981998836
2260000000.0 -0.32563195318181865 0.13266935872585298
2280000000.0 -0.18991584354423485 0.29954055433468896
2300000000.0 0.12517199155906494 0.34272232000416064
2320000000.0 0.37389492145043357 0.09815003192243925
2340000000.0 0.2172356422850534 -0.35725194926562764
2360000000.0 -0.448152693557728 0.09701963708597869
2380000000.0 0.5033984561133023 0.04336217225775687
2400000000.0 -0.5552750652536702 -0.006981084701992277
2420000000.0 0.5338788544476393 -0.2903031123278378
2440000000.0 -0.18750201713484296 0.6295965947627118
2460000000.0 -0.391440792725923 -0.5781468611570472
2480000000.0 0.6838376499415106 0.2601653511457294
2500000000.0 -0.7498736267357546 -0.07332748190412133
2520000000.0 0.7634991540380888 0.07218752521486137
2540000000.0 -0.6887512390894522 -0.34794388961550776
2560000000.0 0.4003894423948207 0.6564870832548508
2580000000.0 0.20089352151664244 -0.7296219909353073
2600000000.0 -0.6179913813897453 0.4010753529225836
2620000000.0 0.684900208446966 0.18985587303581608
2640000000.0 0.6215272476815004 -0.268624715158469
2660000000.0 -0.6092313256820127 -0.17699474570722865
2680000000.0 0.3143239022308452 0.498576720460736
2700000000.0 0.04483175576088274 -0.5402779781591375
2720000000.0 -0.27096750643326184 0.4133578837026019
2740000000.0 0.42998893296188506 -0.12649440756552938
2760000000.0 -0.4042065598825511 -0.04756056056530667
2780000000.0 0.35280668614570837 0.12478420774522521
2800000000.0 -0.34213145146124396 -0.05312385548338836
2820000000.0 0.27251881615185347 -0.1804039712005197
2840000000.0 -0.09634218093955435 0.2973049669943841
2860000000.0 -0.14120135368628692 -0.27251461554862455
2880000000.0 0.2998012143900879 -0.0488635571358063
2900000000.0 -0.2284445033354671 0.19754959149626067
2920000000.0 0.29725952896645436 -0.05964136988920969
2940000000.0 -0.18129120833639542 -0.24615398018820803
2960000000.0 -0.29068278344167975 0.10430195470982814
2980000000.0 -0.25426902242649757 0.18148115171412738
3000000000.0 -0.2996748433312681 0.09642448818062907
3020000000.0 -0.3013102561870599 -0.09503442636335237
3040000000.0 0.1219354514786586 -0.2879277347697315
3060000000.0 0.11188081743229734 0.2886803719366022
3080000000.0 -0.20408513312741525 -0.22709171401928396
3100000000.0 0.21583369238816974 0.2094057828441821
3120000000.0 -0.2944677001936431 -0.025538380032856082
3140000000.0 0.2298051931885054 -0.1727248867323954
3160000000.0 -0.26034260104655327 -0.08174016572280723
3180000000.0 0.16025412954551968 -0.20245929316128397
3200000000.0 0.1873364480572723 0.14211721731584562
3220000000.0 -0.0665709118844872 0.1989011262238922
3240000000.0 -0.1798203914327055 -0.01958516611797022
3260000000.0 0.028671251676742858 -0.14552640010619125
3280000000.0 0.038478060374258424 0.11014841665686126
3300000000.0 -0.08430329509748019 -0.02039915604104997
3320000000.0 0.028823816660611762 -0.05213539173558051
3340000000.0 0.03286779409425972 -0.014085342826715495
3360000000.0 -0.012423555545626321 0.012116240770887854
3380000000.0 0.005167176548792483 0.007131176109341186
3400000000.0 0.013157338340835743 0.011068901408305055
3420000000.0 0.002685047115391987 0.02909769836946492
3440000000.0 -0.00453430343762453 0.04099254552996809
3460000000.0 0.027240610787693312 0.04351634092649639
3480000000.0 0.05335672614136814 0.03442892088131938
3500000000.0 -0.024669047338043135 -0.07479586936267012
3520000000.0 -0.009075221250848945 0.09288009930915836
3540000000.0 -0.10686674394628388 -0.02389096593887753
3560000000.0 0.016931133380354707 -0.12192802458861922
3580000000.0 0.09110978366727296 0.10208062612201231
3600000000.0 -0.014280518477716005 0.15283491227128257
3620000000.0 -0.035851460547299444 0.16079195483931016
3640000000.0 -0.16911581403128517 0.044490008348013296
3660000000.0 -0.17205711931628934 -0.06791626413961788
3680000000.0 -0.11881331827351758 -0.14948341991873682
3700000000.0 -0.106539322929294 -0.15902390679968748
3720000000.0 0.05154500905257484 -0.18349305908558677
3740000000.0 0.16992903743681864 -0.07210525770945275
3760000000.0 -0.17875283530563876 -0.0008703537778712292
3780000000.0 0.1684892096566426 0.02144168565475166
3800000000.0 0.023927713377461045 -0.16039753227368514
3820000000.0 -0.12091902993645899 -0.09580844237410027
3840000000.0 -0.045715749515795295 -0.13952692141803474
3860000000.0 0.11987453423432637 0.08589278624771948
3880000000.0 0.08678724514303887 0.12614490800772452
3900000000.0 0.14579615770989984 -0.06392263588995654
3920000000.0 -0.1575666668668929 -0.042521618726976504
3940000000.0 0.15620069614028453 -0.059315522104739206
3960000000.0 0.11855370790606501 0.12398275174642698
3980000000.0 0.1605144224585376 -0.058637403165168904
4000000000.0 0.15492775440129664 -0.05092640146470947
