!Created with skrf (http://scikit-rf.org).
# Hz S RI R 50.0 
!freq ReS11 ImS11
400000000.0 -0.7813359062650331 0.38883370292432934
420000000.0 0.3506732747217334 0.7975388448880465
440000000.0 0.7393219168225269 -0.3945145881554423
460000000.0 -0.09164101727823357 -0.7809209651785786
480000000.0 0.5996592209583015 0.38214436865706813
500000000.0 0.30784651232427646 -0.4994645832308092
520000000.0 -0.464147334447969 -0.1757483908313985
540000000.0 0.12136190290519006 0.4077753009730473
560000000.0 -0.32296766757656653 -0.20721855572936657
580000000.0 0.2942738914637325 -0.19432333615674208
600000000.0 -0.00724965420673049 -0.356601699822662
620000000.0 0.32277104531906026 0.17876227658166327
640000000.0 0.2562064342577975 -0.3051058765766002
660000000.0 -0.3823178502387073 -0.14304392090773896
680000000.0 0.34037875075782253 -0.2524644601928262
700000000.0 -0.1758026310537907 -0.3891704166977442
720000000.0 -0.42496973755234735 -0.021311218225721462
740000000.0 0.3817233347094269 -0.16525241848325606
760000000.0 -0.2822939519840756 -0.277845898137479
780000000.0 0.1479311752343845 0.33035839389045857
800000000.0 0.2294905631474412 -0.22953053363910803
820000000.0 -0.2764991968507508 -0.03479072801885426
840000000.0 -0.16902489603808438 0.16676285766438492
860000000.0 0.050961128089728296 -0.19566800995128192
880000000.0 -0.003025649989462012 0.16032741721179752
900000000.0 0.10042399734831133 0.050273509661254406
920000000.0 -0.03497633137209874 0.06367149739589387
940000000.0 -0.0019885573169693446 0.043612376304422884
960000000.0 -0.04960109663340188 0.0074571720120271325
980000000.0 0.0694137333294286 -0.009321889381560634
1000000000.0 0.010172650224905128 -0.08690164809472017
1020000000.0 0.03240215700445327 -0.10163507640206232
1040000000.0 0.11116787358049333 0.05229974789959373
1060000000.0 0.054158356128682826 0.15184592975421984
1080000000.0 0.126538944479366 0.12576026300296425
1100000000.0 -0.019219865508917657 -0.20118128377719052
1120000000.0 0.1781397551138357 0.13402572375683738
1140000000.0 0.07356768802865413 -0.24347195206788774
1160000000.0 -0.2073238339657766 -0.18930647923475066
1180000000.0 0.060355832321799224 -0.3082863889620404
1200000000.0 0.3369938396451545 -0.028785079020533684
1220000000.0 -0.3619018057961229 0.05386072883767587
1240000000.0 0.2881517958088908 0.2569294194888266
1260000000.0 0.005775338315071593 -0.4104533212539343
1280000000.0 -0.42577541722892903 -0.008813372644220425
1300000000.0 0.22414765693076374 0.37587335176756437
1320000000.0 0.39475735391715105 0.19177678094111225
1340000000.0 0.4365692914261844 0.04764120982224629
1360000000.0 0.43869646389929057 0.050166065278224904
1380000000.0 0.2666634387533038 -0.3468652738422078
1400000000.0 -0.378390762393244 -0.20019075948074433
1420000000.0 -0.05405044099963398 0.4067747740628661
1440000000.0 0.3825826692218909 -0.02893448022917725
1460000000.0 0.035096045376427396 -0.35024430432453346
1480000000.0 -0.31794344096956145 -0.041844783746493926
1500000000.0 -0.09331618329928278 0.2710045375620564
1520000000.0 0.05648152159007255 0.25126531971602994
1540000000.0 -0.1296717009774222 -0.18771199364827496
1560000000.0 0.1401524837929362 -0.1338460140373906
1580000000.0 0.03296026992068098 0.16257406355838036
1600000000.0 0.11039929557755325 -0.07249619299455289
1620000000.0 0.083719822546279 0.058095966962827636
1640000000.0 -0.06550988566972656 0.03945447113584921
1660000000.0 0.052310654085283737 -0.005665377777868175
1680000000.0 -0.01796297585657698 0.0295885045012755
1700000000.0 -0.019539873814195516 0.007424738224214627
1720000000.0 0.0035375224075178467 -0.00014366871254571875
1740000000.0 -0.011668682250080846 0.00963167675946319
1760000000.0 -0.02730854788694752 0.01773828731719253
1780000000.0 -0.056608910950157486 0.02266869066076365
1800000000.0 -0.041916555449199325 -0.08373678382502014
1820000000.0 -0.11814571083431828 -0.03677071306276479
1840000000.0 0.1600311989956904 -0.014804106993088782
1860000000.0 -0.192460242821888 -0.04425819245810119
1880000000.0 0.23323906919427914 0.04410369292230676
1900000000.0 -0.2818694188708803 -0.0076158763730422895
1920000000.0 0.2914110565301761 -0.12484966865117182
1940000000.0 -0.35138320798655365 0.01353066964408342
1960000000.0 0.3354980962007946 0.17541100997361242
1980000000.0 -0.08226642754240748 -0.3879801256163368
2000000000.0 -0.3874321199475959 -0.14512055615044236
2020000000.0 -0.22220970817329116 0.36308949163112253
2040000000.0 0.15534560836480243 0.4041954422034027
2060000000.0 0.4345039239720952 0.03378908313858385
2080000000.0 0.31215184121586337 -0.2999970536938913
2100000000.0 0.08293822884307209 -0.4165427771624303
2120000000.0 -0.053984731985644 -0.4133234634868587
2140000000.0 -0.17328644738131543 -0.36904486384452817
2160000000.0 0.27214147950197515 -0.2875483484382969
2180000000.0 0.07755058135833547 -0.37513261928308816
2200000000.0 -0.21594070685940564 -0.2996775766570187
2220000000.0 -0.25206397718826484 -0.2536195063078224
2240000000.0 -0.3525931417713774 0.007630388173641212
2260000000.0 -0.32946988460843896 0.12217227294614172
2280000000.0 -0.19922067135318214 0.2930450297913314
2300000000.0 0.12350329474456595 0.3428133894616775
2320000000.0 0.3751458250842614 0.0917450906896204
2340000000.0 0.21370217340506056 -0.359043698807931
2360000000.0 -0.44580842138156557 0.1056644743725645
2380000000.0 0.5050863182264531 0.011697449898904498
2400000000.0 -0.555309388885409 0.009287586685749739
2420000000.0 0.5301490893375804 -0.29711278046482764
2440000000.0 -0.187787569315156 0.6296293585405206
2460000000.0 -0.39869728890993894 -0.5735792233518153
2480000000.0 0.694183461006415 0.2307154556046912
2500000000.0 -0.7525665549031555 -0.039788381763903695
2520000000.0 0.7631392286029435 0.07590960547941086
2540000000.0 -0.6879554030818876 -0.34986596954678
2560000000.0 0.3933901084781001 0.660926501840717
2580000000.0 0.23563473588011094 -0.7194474855419032
2600000000.0 -0.6295700081397352 0.38349958600152856
2620000000.0 0.6952222547306941 0.14795352982884355
2640000000.0 0.6091830768965539 -0.29589578356481266
2660000000.0 -0.6091473368533376 -0.17733560793789363
2680000000.0 0.33569411357568774 0.4843438392032028
2700000000.0 0.03558327985473552 -0.5411992759922934
2720000000.0 -0.28148938984012856 0.4062686908354407
2740000000.0 0.43247508949635344 -0.11790496527097459
2760000000.0 -0.404943629591873 -0.041382365327368914
2780000000.0 0.35635210382464805 0.1139751810100204
2800000000.0 -0.34151022451153284 -0.05591884694370115
2820000000.0 0.2744819169397266 -0.17711018896091477
2840000000.0 -0.09250266648922045 0.2984955589155117
2860000000.0 -0.17161472442363376 -0.253782305111076
2880000000.0 0.2972996669105667 -0.061160795591870196
2900000000.0 -0.21000010665334082 0.2167816750513137
2920000000.0 0.28336000665901595 -0.10744006111211395
2940000000.0 -0.2087563811108521 -0.22354374546552763
2960000000.0 -0.2823394313768433 0.12550707924213864
2980000000.0 -0.251388850727744 0.1863149393372915
3000000000.0 -0.2917233453629503 0.12005688594131553
3020000000.0 -0.30368201110892507 -0.08980086386355741
3040000000.0 0.12643233692395872 -0.28651355127003914
3060000000.0 0.09630915075363114 0.29498004299898595
3080000000.0 -0.18607082514905424 -0.24250620864696928
3100000000.0 0.22946435850735641 0.19496688883572474
3120000000.0 -0.29580858563522716 -0.01700552492129998
3140000000.0 0.2560141816918898 -0.13075072525748024
3160000000.0 -0.24805462933123062 -0.11418173004795208
3180000000.0 0.19666171419678685 -0.16648082527149383
3200000000.0 0.17109695314615297 0.16134775282232464
3220000000.0 -0.08836109518342741 0.19036355023613397
3240000000.0 -0.17640051291757308 -0.041129659597196784
3260000000.0 0.035028801019232496 -0.1437936564980787
3280000000.0 -0.0071600434158320325 0.11615476908769559
3300000000.0 -0.07585506877852786 -0.041876919821203604
3320000000.0 0.007189395170380019 -0.058924003895852
3340000000.0 0.03266210229240948 -0.01317252300115044
3360000000.0 -0.007877989283129331 0.015203258277844148
3380000000.0 -0.008285042647870245 0.004639219524596164
3400000000.0 0.005317285982262825 0.016661319044105682
3420000000.0 -0.01350612006687557 0.02629052819045456
3440000000.0 -0.040262278517875484 0.008508964638545386
3460000000.0 -0.015511390515694607 0.048696951380853774
3480000000.0 -0.0050432639938694955 0.06299218205885669
3500000000.0 -0.006682737781013798 -0.0784038454126812
3520000000.0 -0.041557035118573046 0.08336242890164539
3540000000.0 -0.1014853307136394 -0.040640915186548644
3560000000.0 0.04246774157342293 -0.11553119308522201
3580000000.0 0.08801863350262708 0.1048119440589477
3600000000.0 -0.04287037280601046 0.14662904460752446
3620000000.0 -0.05060898624061662 0.1565055125628421
3640000000.0 -0.16913624105487754 0.04402101212839876
3660000000.0 -0.1657540780583475 -0.08071594366598321
3680000000.0 -0.10712426548633297 -0.1573328331754484
3700000000.0 -0.10952297005643029 -0.15618843566249965
3720000000.0 0.04317015792619167 -0.18495372344016198
3740000000.0 0.15885167300536418 -0.09285522610203283
3760000000.0 -0.17671739839363898 0.02318381994740316
3780000000.0 0.169280266355119 0.008119269951262623
3800000000.0 0.0059861671391182114 -0.16167433316751065
3820000000.0 -0.1309588702710663 -0.08090065206824709
3840000000.0 -0.05507009388459138 -0.13598459662994236
3860000000.0 0.11568599431416576 0.09178219191933608
3880000000.0 0.0843198133185345 0.12784616294160803
3900000000.0 0.1491747985802638 -0.056384283809150094
3920000000.0 -0.1551022175216373 -0.051030957180438714
3940000000.0 0.15969321618135865 -0.04981081222918278
3960000000.0 0.09851108789926252 0.14070793320929356
3980000000.0 0.16867213710096982 -0.030194992032383534
4000000000.0 0.16049076496847614 -0.030104449134048642
