!Created with skrf (http://scikit-rf.org).
# Hz S RI R 50.0 
!freq ReS11 ImS11
400000000.0 -0.8047053007820621 0.3371752635548973
420000000.0 0.3430048470954642 0.7999836824195543
440000000.0 0.7389552781287414 -0.39368520432648785
460000000.0 -0.09342195927216262 -0.779898953612625
480000000.0 0.6160612587369477 0.35403556305379613
500000000.0 0.27831941628069046 -0.5173719382040601
520000000.0 -0.46526232032034165 -0.17042147908916583
540000000.0 0.07732379699910011 0.418558259692116
560000000.0 -0.3667603236084408 -0.114119028081658
580000000.0 0.33256794219195934 -0.11661991482857803
600000000.0 -0.021588525348994452 -0.3555452934496446
620000000.0 0.28555468902898334 0.23488733140387888
640000000.0 0.282818908670925 -0.27934061751746453
660000000.0 -0.3932378866300719 -0.10891534533578759
680000000.0 0.3317888239436142 -0.2627703420575455
700000000.0 -0.21635680713825278 -0.3678934207168638
720000000.0 -0.4249549521395005 -0.0292774947844002
740000000.0 0.37406928207448004 -0.1837747126766547
760000000.0 -0.3073719819968339 -0.24888716925737958
780000000.0 0.19951409343997678 0.3022119740569331
800000000.0 0.23832212877533332 -0.22130519699196968
820000000.0 -0.2792476792919689 0.0008543493549190982
840000000.0 -0.15605129339940446 0.17931711600542005
860000000.0 0.06754771751947326 -0.19115677576933696
880000000.0 -0.017106369796374057 0.15994278041219703
900000000.0 0.07971550101695438 0.07912868055645338
920000000.0 -0.04804359867543206 0.05396551379813294
940000000.0 0.029378290200990437 0.03161465660226157
960000000.0 -0.006587274406162426 0.0500243929344781
980000000.0 0.06527094945486502 -0.02594832088896247
1000000000.0 0.01889820677438022 -0.085740849052761
1020000000.0 0.03444245061764845 -0.10133539801965542
1040000000.0 0.11218301155613956 0.0502153308138083
1060000000.0 0.047269755743741114 0.15394677364208548
1080000000.0 0.1078988386277368 0.14148411752547999
1100000000.0 -0.005972222942992644 -0.20187171984783095
1120000000.0 0.20429452141781707 0.08776580080779807
1140000000.0 0.06720151145899614 -0.24449788929431954
1160000000.0 -0.2263599210335997 -0.16542664035416663
1180000000.0 0.01887642145054855 -0.3136208086811525
1200000000.0 0.3324863492579468 -0.06236254941066854
1220000000.0 -0.3625815991621272 0.048956983626083014
1240000000.0 0.2967806745187797 0.2473445156601989
1260000000.0 -0.007153645196584242 -0.4105695027293798
1280000000.0 -0.4260137973967986 -0.008211693876136718
1300000000.0 0.21306864467171052 0.38269715942740284
1320000000.0 0.4020650398951562 0.17765326894641556
1340000000.0 0.43546990462846497 0.05972004119557348
1360000000.0 0.43900055698743373 0.047018359824652405
1380000000.0 0.2754007842639371 -0.3403801592168248
1400000000.0 -0.37898794986547657 -0.1993144354875008
1420000000.0 -0.02395623182621559 0.4091550983860425
1440000000.0 0.37825411846424495 -0.06117519096377574
1460000000.0 0.007813135830872875 -0.3516987305833075
1480000000.0 -0.3174081870165808 0.044906977293221656
1500000000.0 -0.07254271446138401 0.27745420929396936
1520000000.0 0.0855252039532326 0.2422550667559286
1540000000.0 -0.15051845299084918 -0.17079887912081082
1560000000.0 0.08864388373416408 -0.17211564354578057
1580000000.0 0.10572155162143894 0.12767340052067197
1600000000.0 0.118693552408665 -0.05852276790228559
1620000000.0 0.0963428120679477 0.03468089558650997
1640000000.0 -0.06167688832738716 0.04552205181312497
1660000000.0 0.05271330049157692 -0.005392280462677648
1680000000.0 -0.03404838311048748 -0.005030878811670681
1700000000.0 0.0071013343498302905 -0.02004208846478066
1720000000.0 -0.00044426259380799703 -0.004433062139279191
1740000000.0 0.012925165701354827 0.008031722120198313
1760000000.0 -0.012600579211353585 0.030557144076003087
1780000000.0 -0.04321176088758989 0.043153282052938724
1800000000.0 -0.0268945272773448 -0.0898364666503413
1820000000.0 -0.1087745129989451 -0.05904709824311494
1840000000.0 0.1610153697210712 -0.004527881012676974
1860000000.0 -0.18688224764632608 -0.06246397769549096
1880000000.0 0.2304670992172824 0.05599847513696703
1900000000.0 -0.2805792357064949 -0.026161097995570395
1920000000.0 0.29087817410996536 -0.12578722931039077
1940000000.0 -0.35102297669863736 0.009675745584451632
1960000000.0 0.3418643830394835 0.16207474495562244
1980000000.0 -0.10263307382676522 -0.3831394470058305
2000000000.0 -0.38832533582148476 -0.1425259639201212
2020000000.0 -0.17643937385018713 0.387311753866276
2040000000.0 0.1497692819577408 0.4067462808223456
2060000000.0 0.4357147834629334 0.006413411858371016
2080000000.0 0.2849532199523163 -0.3261634009404477
2100000000.0 0.07959902732401972 -0.41761255010201664
2120000000.0 -0.01975227052662474 -0.4167081905572074
2140000000.0 -0.15630742508458273 -0.3772065445343769
2160000000.0 0.292358263489728 -0.26748375074670405
2180000000.0 0.06672540065905744 -0.37755076412449606
2200000000.0 -0.20571826843572635 -0.3071610861869124
2220000000.0 -0.2534719211290353 -0.25168676039162774
2240000000.0 -0.3529033582367907 -0.0025199312679104993
2260000000.0 -0.3268978325013607 0.1301194724827469
2280000000.0 -0.2223295580372429 0.27583373268163824
2300000000.0 0.10531419703252326 0.3490573492045488
2320000000.0 0.37230863390718383 0.10191049620010724
2340000000.0 0.20236046698791255 -0.3651381135405135
2360000000.0 -0.4415215233871601 0.12085166706056007
2380000000.0 0.5048124056589539 0.0017173375867883755
2400000000.0 -0.5542443499283435 0.03604802535646154
2420000000.0 0.522498095107634 -0.31104682213287865
2440000000.0 -0.16507848966232422 0.636022658918735
2460000000.0 -0.3997361845074133 -0.573303296319217
2480000000.0 0.6932226566684194 0.23384138073862445
2500000000.0 -0.7531086541545993 -0.033465518931313276
2520000000.0 0.755373512486538 0.13410371941079355
2540000000.0 -0.6984935886202113 -0.32794173724895365
2560000000.0 0.3727414254958106 0.6726859357520267
2580000000.0 0.29568176913222166 -0.6968590122558617
2600000000.0 -0.6528956422225244 0.34016568395920455
2620000000.0 0.6985118945037062 0.12376276511237896
2640000000.0 0.6347400051773777 -0.23301847704772566
2660000000.0 -0.5908090146060964 -0.23059403319835986
2680000000.0 0.3223557101841091 0.4929339380454176
2700000000.0 0.008755291614259614 -0.5421855003654872
2720000000.0 -0.24163835843463016 0.43096287303730335
2740000000.0 0.4324190073884243 -0.1166329804577078
2760000000.0 -0.40618782045921187 -0.020111427356913056
2780000000.0 0.36499200810657717 0.08274919075655003
2800000000.0 -0.34520821090626663 -0.026642625128808918
2820000000.0 0.25505772177488917 -0.20429731191202694
2840000000.0 -0.08844656156065776 0.30011094719619674
2860000000.0 -0.154423100003376 -0.26593289722045205
2880000000.0 0.30314583415323304 -0.023812510130051215
2900000000.0 -0.2348193878884639 0.1905904776341229
2920000000.0 0.2997849156059099 -0.04623512844347912
2940000000.0 -0.18719334213312855 -0.2418536368968861
2960000000.0 -0.2944692082147379 0.09250642280943522
2980000000.0 -0.26883356180169204 0.1592093071625064
3000000000.0 -0.308721887429726 0.0625724330327785
3020000000.0 -0.27699705110383116 -0.1510663994115777
3040000000.0 0.0467425268483978 -0.3085174334408351
3060000000.0 0.15808264963257618 0.2649235131603016
3080000000.0 -0.22436611195851092 -0.2068910846825086
3100000000.0 0.2764053540854318 0.11840744318682152
3120000000.0 -0.2950395272000098 0.004870695833940926
3140000000.0 0.216155875121059 -0.1895194575840421
3160000000.0 -0.2734530739433024 -0.007402250778693125
3180000000.0 0.09481423305743877 -0.24092159574061625
3200000000.0 0.22210620767602046 0.08102923304941739
3220000000.0 -0.012462640392433257 0.21109769188081604
3240000000.0 -0.18183710235004788 -0.013983496326579579
3260000000.0 0.04220558288132841 -0.14396371002691064
3280000000.0 -0.03680946180807895 0.11298003593299003
3300000000.0 -0.04617036147301103 -0.07631323833776385
3320000000.0 0.061315673759187984 0.0007930244785354781
3340000000.0 -0.02586637460781181 0.026578917871381735
3360000000.0 0.0022461713953428487 -0.017563157457018565
3380000000.0 0.0021148205053945065 -0.006907665730725444
3400000000.0 -0.009345370733108205 -0.012065047155469615
3420000000.0 0.022714863896741953 -0.01632909849500493
3440000000.0 0.007604298433699181 0.038744506755547505
3460000000.0 0.02644827483347175 0.04169959342108787
3480000000.0 0.05794800967796637 0.021121053703068656
3500000000.0 -0.05558036463519281 -0.05297692554493144
3520000000.0 0.0573379200892493 0.07149968333247347
3540000000.0 -0.10327145492242341 0.03020457329909698
3560000000.0 -0.0023393462506214797 -0.12156636144981171
3580000000.0 0.11573993693799567 0.07131825911139657
3600000000.0 0.023871274817644422 0.15171258526483514
3620000000.0 -0.03473471869606583 0.16093444701407855
3640000000.0 -0.16483806680811933 0.05944095007166261
3660000000.0 -0.1807758844625119 -0.039226571169851045
3680000000.0 -0.12699572305211984 -0.14114321542165045
3700000000.0 -0.10273105410519603 -0.1614248495474084
3720000000.0 0.08786046446258097 -0.16923260204669915
3740000000.0 0.16805648280756183 -0.07443910200477909
3760000000.0 -0.17689215422329435 -0.01930004749447167
3780000000.0 0.16857906994362015 0.00024667246203546986
3800000000.0 -0.04709152196545159 -0.15437365846339568
3820000000.0 -0.1446581722342858 -0.05028509489954401
3840000000.0 -0.07314528397824635 -0.12614056855629988
3860000000.0 0.12753153472349452 0.07198029508487706
3880000000.0 0.09866209364595326 0.11579093073696532
3900000000.0 0.13204416461264118 -0.08608208527443038
3920000000.0 -0.16207701441749153 0.0024479062367678225
3940000000.0 0.12404347249662019 -0.11013051913398422
3960000000.0 0.15091511628585721 0.08091189809026807
3980000000.0 0.14549189655637731 -0.09105322648632264
4000000000.0 0.15699238119300352 -0.050077829781032215
