! Created with skrf (http://scikit-rf.org).
# Hz S RI R 50.0 
!freq ReS11 ImS11
400000000.0 0.17476050393696815 0.8567762012346919
420000000.0 0.6215380623044998 0.5949788133005761
440000000.0 0.7939324522996021 -0.2343132609973861
460000000.0 0.18879341573533007 -0.7660854107433803
480000000.0 0.5079688084624967 -0.4957475922722199
500000000.0 0.1489070034259671 -0.5431238593674884
520000000.0 0.010273352725783056 -0.4867932907911549
540000000.0 0.4138295013927526 -0.09262150932043085
560000000.0 -0.3246156407029924 -0.13359158784039712
580000000.0 -0.2389359127757445 0.2280228204856351
600000000.0 0.26699413132617805 0.18684253900981201
620000000.0 0.06710966459015313 -0.34109224634626945
640000000.0 -0.23239850081351948 -0.303200405604604
660000000.0 -0.4008742373183334 -0.005575655122271429
680000000.0 0.0025370537116479477 -0.43088641354693924
700000000.0 0.31273322019403393 0.32399903415348424
720000000.0 -0.0006990003317134527 -0.448620046318786
740000000.0 0.39534095952813314 -0.19053397659886345
760000000.0 -0.37890524709944423 -0.16810106754506884
780000000.0 0.32897525310111286 -0.1963780418072397
800000000.0 -0.19782132454707793 0.2867648601394335
820000000.0 -0.18020553968354447 0.22924458167488382
840000000.0 0.0964399970722981 0.21691304183443055
860000000.0 -0.09607810165085352 0.1810243209121106
880000000.0 -0.14435229605891464 0.014555455571140597
900000000.0 0.07187245097541896 -0.034903845025004474
920000000.0 0.042693268037745945 -0.02140147154525144
940000000.0 0.0019120845974989129 -0.04204232729223116
960000000.0 -0.026249188869712326 0.04805204049278345
980000000.0 0.06233895824331747 -0.009152674816409394
1000000000.0 -0.04446891047815626 -0.05260803402989846
1020000000.0 0.05111638692803501 0.05946641593686184
1040000000.0 -0.05708378317057706 0.05705971376818808
1060000000.0 -0.11091619501596806 0.03578606329480151
1080000000.0 -0.09379645447868085 0.09382781161442552
1100000000.0 -0.11850151815382363 -0.1053182808067182
1120000000.0 -0.1522513960748025 -0.11303668255331725
1140000000.0 0.0831121907662212 0.2229223650894791
1160000000.0 0.2842112736502639 -0.019032023659704966
1180000000.0 -0.04777662135131092 -0.327140956903504
1200000000.0 -0.2642923371815459 -0.2539632459733208
1220000000.0 0.17419866905381814 -0.3570694318675502
1240000000.0 0.31492169333825765 0.2762935020140674
1260000000.0 -0.4177953516245092 -0.1385268238601315
1280000000.0 0.4374639050680785 0.11055535670714882
1300000000.0 -0.382506450171862 -0.2409997613925668
1320000000.0 -0.12087556638558225 0.4225740824689315
1340000000.0 -0.24379632415176325 0.34566337262865215
1360000000.0 -0.3044777825780814 -0.27563672161905406
1380000000.0 -0.08833991357217273 -0.39872401289014214
1400000000.0 -0.10206226237925976 -0.3819108398111401
1420000000.0 -0.07049577108545574 -0.3765962452455669
1440000000.0 -0.2253879791333172 -0.2908508823775865
1460000000.0 -0.3414522817508691 -0.06573795194027805
1480000000.0 -0.14436613771928486 0.29596148094651314
1500000000.0 0.22746817890236815 -0.20648510746606516
1520000000.0 -0.216081122174713 -0.18361525887671593
1540000000.0 -0.1555213195880023 -0.2042435115553157
1560000000.0 -0.21931099574361068 0.019662294636331953
1580000000.0 -0.028615961102565795 0.18564505424447683
1600000000.0 -0.15423129255577625 0.0015201192149410685
1620000000.0 -0.1090718705981565 -0.02652756298657472
1640000000.0 0.08252447688699541 -0.013750430627713436
1660000000.0 0.03615238674331931 -0.045840820837195324
1680000000.0 -0.02994770285188003 -0.004872598890408878
1700000000.0 0.019149829180530487 -0.004594155484502767
1720000000.0 -0.02306785204480636 0.02593647210544232
1740000000.0 0.049649549161862545 0.02498705959288125
1760000000.0 -0.07038912400829282 -0.017744086455266813
1780000000.0 0.09018712083874798 -0.020068579642256532
1800000000.0 0.05710586790919799 0.10309718867522452
1820000000.0 0.0429336526981925 -0.12473954658538157
1840000000.0 0.13645058678906044 -0.07490982839370203
1860000000.0 0.17644216018671596 0.0069593874029363345
1880000000.0 -0.16195243031358975 0.12980497318030457
1900000000.0 -0.2145185235287479 -0.12047918843395808
1920000000.0 -0.2625700814587883 0.12373826663013235
1940000000.0 0.02538043784844511 0.33502040407036077
1960000000.0 0.2508710793307807 -0.2813167533374176
1980000000.0 -0.28076945667712927 0.29681208299130374
2000000000.0 0.4344156085404996 -0.020782884831605036
2020000000.0 -0.4505252731684652 -0.050608363336623295
2040000000.0 0.23616679756436046 0.39362689114324306
2060000000.0 0.006939723107397978 -0.45703387752029745
2080000000.0 -0.4276987658256167 0.12026140573533362
2100000000.0 -0.15002621217559448 0.3997289470161907
2120000000.0 -0.0736385613495087 0.3981369918381323
2140000000.0 -0.27117601810902264 -0.2717437965280426
2160000000.0 0.0009953307125758096 -0.3656743123628137
2180000000.0 0.3502252368411462 -0.04939272187506007
2200000000.0 0.24888892640985716 0.23988586522690783
2220000000.0 0.18656442859061664 0.2950893738038991
2240000000.0 0.25915754870210683 -0.23609838121553686
2260000000.0 -0.1852800973541808 -0.30337674069672954
2280000000.0 -0.24291559811852723 0.26743326404819706
2300000000.0 0.3653740515863672 0.07563271209040044
2320000000.0 -0.2211722758778384 -0.3240278237743679
2340000000.0 -0.2923878433754119 0.2981542963680381
2360000000.0 0.43259690683726926 0.13351908979629853
2380000000.0 -0.271278841939612 -0.41780248691538313
2400000000.0 0.12726559472122354 0.5338809807782089
2420000000.0 -0.21269319732581088 -0.5632674282542464
2440000000.0 0.5072505490972127 0.412438458327451
2460000000.0 -0.6963354625599225 0.01755182412998689
2480000000.0 0.6162191584318398 -0.3918450955441421
2500000000.0 -0.6139015460920004 0.4360321105940093
2520000000.0 0.644082441559109 -0.4129983714760414
2540000000.0 -0.7576933155684725 0.1278175859368908
2560000000.0 0.6451866588500463 0.4089182325557271
2580000000.0 -0.07715514904061599 -0.7457176115418765
2600000000.0 -0.5003008088150314 0.5257357095484826
2620000000.0 0.6873411661224683 0.10536802835793947
2640000000.0 0.6455690165277616 -0.12950819399618507
2660000000.0 -0.4355269810366934 -0.4352103638193075
2680000000.0 -0.11661575835797826 0.5597071577967344
2700000000.0 0.37705851347566294 -0.37114013336575913
2720000000.0 -0.4084136983243438 0.25931883106678866
2740000000.0 0.3616490288821565 -0.2514017600590133
2760000000.0 -0.14598612587564422 0.37095610042151395
2780000000.0 -0.2146640403883494 -0.2929225159608308
2800000000.0 0.3306158715408657 0.0010705723995202425
2820000000.0 -0.2174292214937548 0.21542168521166943
2840000000.0 0.19231782777873652 -0.21617036968758757
2860000000.0 -0.23318254954657888 0.1617060119182078
2880000000.0 0.2745724571133923 -0.06873576820997512
2900000000.0 -0.24657912320490483 -0.14939789428096606
2920000000.0 -0.08525413263309546 0.28728853329643933
2940000000.0 0.29721279924721167 -0.09010878906714322
2960000000.0 -0.1347021432519129 -0.2888577682699457
2980000000.0 -0.31798117308022755 -0.07667475665538494
3000000000.0 -0.3301354247201026 0.0026160375377151106
3020000000.0 -0.3171653364162935 -0.08627845413096309
3040000000.0 0.021378117220664048 -0.32213293436114987
3060000000.0 0.273143065698632 0.15757470965821443
3080000000.0 -0.3004830801504993 -0.05301068970070658
3100000000.0 0.26592183083023413 0.1262280190594961
3120000000.0 -0.2093422316501968 -0.1900073042233999
3140000000.0 0.08724945704635297 0.25727521351874943
3160000000.0 0.16870282051110091 -0.19493236736991298
3180000000.0 -0.0902857879114459 -0.22769155033322994
3200000000.0 0.18849803209553873 0.129999319912571
3220000000.0 -0.13654994628582923 0.1564219817912693
3240000000.0 -0.18406733092502717 -0.016799508739780044
3260000000.0 -0.13021685188936288 -0.08509929373528156
3280000000.0 -0.06878413203391483 0.10123104852332
3300000000.0 0.08788934498243055 -0.000775703467802019
3320000000.0 0.04871376609145555 -0.020445760546780135
3340000000.0 0.00037181354227008645 -0.023667118065254008
3360000000.0 0.010507342052353631 0.010428603808716751
3380000000.0 -0.02480041381209167 -0.010336688189180758
3400000000.0 0.03524616506856556 0.0013955323643187968
3420000000.0 0.0360844644317343 0.015439445087068264
3440000000.0 0.033559495497782206 -0.015064203961391989
3460000000.0 0.03645855323360222 0.014052350930617482
3480000000.0 0.035229296568405066 -0.0430700529955659
3500000000.0 0.07959891010521497 0.008705698100110739
3520000000.0 0.09539854613398929 -0.04897816836672542
3540000000.0 -0.12452256277150117 -0.025319691918426108
3560000000.0 -0.06181701616586909 0.12470000393460898
3580000000.0 -0.12443284280062486 0.08345205443729688
3600000000.0 -0.13591657489519665 0.08466302545079543
3620000000.0 -0.12219573292012548 -0.11147361925983078
3640000000.0 0.16696613888074155 0.027014116899133474
3660000000.0 -0.17355658836929025 0.035425842690372994
3680000000.0 0.16374864076816212 -0.08036217131304424
3700000000.0 0.049795467589706086 0.18037605641685941
3720000000.0 -0.1860632551189712 0.04960423578566384
3740000000.0 -0.15969660365027755 0.11004163771395575
3760000000.0 -0.14493417333563463 -0.12431633045376723
3780000000.0 0.05661424937025837 -0.1727599886343697
3800000000.0 0.09027476420927849 0.1417429361313462
3820000000.0 0.15135643758303183 -0.019128111534504784
3840000000.0 -0.006623239339359348 0.13853847251561785
3860000000.0 0.11988400996352028 0.061375313444451046
3880000000.0 -0.10512232542419479 -0.09559954180253614
3900000000.0 -0.0937086169784505 -0.12121046630885375
3920000000.0 0.01702576209001654 0.16605129682391792
3940000000.0 -0.12035018758948761 0.13046829118033765
3960000000.0 0.07364564115880676 0.17084928463609927
3980000000.0 -0.1021098034084782 -0.1534184302631927
4000000000.0 -0.1389903127681024 0.10290848657494853
