! Created with skrf (http://scikit-rf.org).
# Hz S RI R 50.0 
!freq ReS11 ImS11
400000000.0 0.21758373021465727 0.8442878971847448
420000000.0 0.6375011023332315 0.5753920909098577
440000000.0 0.7660949927455759 -0.3060561153484599
460000000.0 0.013002919236612412 -0.7863709125788009
480000000.0 0.5106199275739841 -0.471403288962524
500000000.0 0.4754798225440698 0.28831593933636873
520000000.0 0.3462378961231972 0.3513595217028688
540000000.0 -0.33843295414599844 0.2843175438453525
560000000.0 0.2591130955283165 -0.2776222583253992
580000000.0 -0.262564626944062 0.2499743456995866
600000000.0 0.2620947913613917 -0.249030140840743
620000000.0 0.13610456459561207 0.3501434576071739
640000000.0 0.1675685811252392 -0.3599377780237034
660000000.0 -0.2225675177967028 -0.33524063812075233
680000000.0 0.4079971342575833 -0.05379381481929666
700000000.0 0.2315771321365041 -0.35297061653838097
720000000.0 0.08622538564536013 -0.4139222560997355
740000000.0 0.18112381014474213 0.3841597458284018
760000000.0 0.12174027635789901 -0.3919423189894163
780000000.0 0.346754540355245 0.1506508420579131
800000000.0 -0.31622656315000214 -0.1383226031949437
820000000.0 -0.19273923032265217 -0.21721678876268252
840000000.0 -0.2278047677328558 0.06131402347261296
860000000.0 0.18490028912035855 -0.07779977299703682
880000000.0 -0.13231916303884528 -0.04848467267217462
900000000.0 0.0805142595624288 -0.007409467644738242
920000000.0 -0.05117604995896912 -0.02827443856387917
940000000.0 0.02618607074144808 -0.02713907381849562
960000000.0 -0.03818853080441755 0.019730939109149307
980000000.0 0.0542915828330167 0.033230928373083224
1000000000.0 0.06207158602874884 0.057125821266170614
1020000000.0 -0.10148669841196381 -0.04667954850684753
1040000000.0 -0.0971661862023921 0.0830982374930233
1060000000.0 0.11883986970119281 0.10703889179191536
1080000000.0 0.14979754091948108 0.0792812616351255
1100000000.0 -0.011934238169041482 -0.18351796524008496
1120000000.0 -0.02889158932359462 -0.1952692678100593
1140000000.0 0.052857769459047674 -0.2204936978505835
1160000000.0 0.15362460288252258 0.21256675994927587
1180000000.0 -0.2022326341196885 0.23014264714566185
1200000000.0 -0.34319547372393594 0.00707680690811686
1220000000.0 0.22023693184605592 -0.3037675827555975
1240000000.0 -0.011875966574582323 0.4012757318397039
1260000000.0 0.15485497853225136 -0.3973766387578924
1280000000.0 -0.2862603339044769 0.33470320844209384
1300000000.0 0.44538940493457313 0.05599813680805646
1320000000.0 -0.018666612285089704 -0.44440640470332565
1340000000.0 0.01794398241410282 -0.43816272703474624
1360000000.0 0.1615571447685773 -0.4009294978090862
1380000000.0 -0.09179771733313863 -0.42217824690817807
1400000000.0 -0.41728027478145563 0.014796235671631113
1420000000.0 0.018255573224524216 0.398210283493915
1440000000.0 0.34587732880585803 0.140451742360915
1460000000.0 0.16152877530832235 -0.3043133646439484
1480000000.0 -0.20550099195344013 -0.23736164569155868
1500000000.0 -0.27171840515131096 0.08110785907648815
1520000000.0 -0.19955870157898745 0.16028000466203074
1540000000.0 0.019493299858010824 -0.22668723244758565
1560000000.0 0.18648220159091386 0.05517725775982296
1580000000.0 -0.08654672841590949 0.1448776542806916
1600000000.0 0.11928311855201865 0.07363493331221103
1620000000.0 0.06962311930136712 0.0862358879112201
1640000000.0 -0.07510116360015504 0.04752577225185063
1660000000.0 -0.050075371770780384 0.0440908665641522
1680000000.0 -0.015199369062615348 -0.04362009144827617
1700000000.0 -0.021962843190847046 -0.021565550944548113
1720000000.0 0.0002674494507157033 0.01031087306901855
1740000000.0 0.011900644355649057 0.007195891050670151
1760000000.0 0.03376345262377986 0.01406458573643186
1780000000.0 -0.004902867844562603 -0.07256306294115365
1800000000.0 0.06359757305397068 0.09111258470925972
1820000000.0 0.13100329208546194 0.06511882189694142
1840000000.0 -0.010249438137092951 0.18176712368160017
1860000000.0 -0.20255245453883747 -0.0636665342110204
1880000000.0 0.12089956964007686 0.20862991827797991
1900000000.0 0.24613472359634347 -0.11900074095984356
1920000000.0 -0.09625624873366678 -0.2883175868244862
1940000000.0 -0.31224954917281583 -0.12573206186594746
1960000000.0 -0.14828955032681826 0.33642845126127685
1980000000.0 0.37809349372577916 0.10772184702355073
2000000000.0 0.257066023830649 -0.3280849823230586
2020000000.0 -0.43183997996620543 -0.01897606893936949
2040000000.0 -0.11088305011708403 0.42564042728408286
2060000000.0 0.4391584656763666 -0.029217315631496887
2080000000.0 0.07976191646122417 -0.4257210092848242
2100000000.0 -0.16129974289063356 -0.391937607815271
2120000000.0 -0.3376819857192339 -0.23654940954934817
2140000000.0 -0.3988136133025158 0.010383518538727569
2160000000.0 -0.06350958094786648 -0.37874160328861317
2180000000.0 -0.1856769755360302 -0.3168408964389995
2200000000.0 -0.26653047374566236 -0.2356231217411115
2220000000.0 -0.30108088141439104 -0.17324846949534278
2240000000.0 -0.2925272318407911 0.184797355520571
2260000000.0 -0.02639343426532053 0.34624681319503153
2280000000.0 0.23557907533883654 0.2614088473018193
2300000000.0 0.21643633349438574 -0.29344333204463785
2320000000.0 -0.342465603176731 -0.17783058569089205
2340000000.0 -0.18555938127445318 0.3702067877360505
2360000000.0 0.4475783058734999 0.07126975393489393
2380000000.0 -0.35490378241896453 -0.3533692311530032
2400000000.0 0.2994584923931561 0.4663316435539133
2420000000.0 -0.5259366411117319 -0.30625935756937817
2440000000.0 0.6477449004045224 -0.11861486609072698
2460000000.0 -0.3940500752524624 0.5776283554301821
2480000000.0 0.050591218057597205 -0.728411097551482
2500000000.0 -0.09607814122726069 0.7445657689535461
2520000000.0 0.20295605890387314 -0.7336429785887774
2540000000.0 -0.5244348268330811 0.5541210564975344
2560000000.0 0.7515616631185544 -0.08984425026749858
2580000000.0 -0.5098514112963198 -0.5390865126979799
2600000000.0 -0.07421710459199497 0.7140237332819234
2620000000.0 0.5954673068373749 -0.3428050529497462
2640000000.0 0.2828371548702557 -0.5846546701889455
2660000000.0 -0.5816944001166207 0.16196049014070307
2680000000.0 0.47051836321023843 0.2964540488413878
2700000000.0 -0.12103578289158745 -0.4938332914109808
2720000000.0 -0.21320217623683227 0.4082942965767238
2740000000.0 0.38531696798537624 -0.1619525618273129
2760000000.0 -0.3795012070587664 0.017971055665403014
2780000000.0 0.32198976976184424 -0.13932655913276282
2800000000.0 -0.18134951711680972 0.27143947620361675
2820000000.0 -0.1508847981228207 -0.26950797069693083
2840000000.0 0.29454030689457644 -0.041193818571198144
2860000000.0 -0.14006985045336032 0.2579198411340344
2880000000.0 -0.10324123535658822 -0.2745155680175182
2900000000.0 0.14449767076173095 0.25669270497767277
2920000000.0 0.13247443704370354 -0.2681121945018709
2940000000.0 -0.30395759613953394 -0.033733031892908966
2960000000.0 -0.20828323317815903 0.2283671873815839
2980000000.0 -0.22213291343650207 0.22177730793191225
3000000000.0 -0.3135510660895735 0.022723456281043244
3020000000.0 -0.1385092308317976 -0.2829824351422307
3040000000.0 0.3114693952649201 -0.024304190902571292
3060000000.0 -0.27007272468530596 0.15199803009498702
3080000000.0 0.24802429097984793 -0.17833846400364725
3100000000.0 -0.19005186674110033 0.23242473328532431
3120000000.0 0.13723528410409525 -0.25789394998669174
3140000000.0 -0.0002723074008465104 0.28263475127594256
3160000000.0 -0.14116487906053463 -0.22844325480472055
3180000000.0 -0.08068395934696354 0.2389471416512423
3200000000.0 -0.18217709211992844 -0.14016796706781476
3220000000.0 0.11113282898062866 -0.1702917091999398
3240000000.0 0.11325450899395842 0.1310852006422516
3260000000.0 -0.11926699582482259 -0.07203604896464132
3280000000.0 0.1049122847777628 0.01543529593607763
3300000000.0 -0.0003451919632882992 -0.0763042657121995
3320000000.0 0.016758218186570962 -0.0445356135775303
3340000000.0 0.00021907582259967365 0.023192519209701612
3360000000.0 0.0010010808438153554 -0.005658344786534302
3380000000.0 0.005891094538209967 0.009102565059467944
3400000000.0 0.012749282527366599 0.018155674270246426
3420000000.0 0.028660573540471943 0.019235807362737452
3440000000.0 -0.045187751542050826 0.010226244958382586
3460000000.0 0.02512432610630125 -0.04906952582526097
3480000000.0 0.06318472708571056 0.025083999349259166
3500000000.0 0.0266627244079266 -0.07911400220709221
3520000000.0 -0.053209660728336106 0.08378412824050445
3540000000.0 -0.09095751230735855 -0.06900146210190465
3560000000.0 0.12298004460893157 -0.02852702291544938
3580000000.0 -0.13587955511002126 -0.02223043656086855
3600000000.0 0.15398777830873128 0.002371566446706527
3620000000.0 0.057860956555297924 0.15597703784730305
3640000000.0 -0.17514956207718685 0.031360542973447765
3660000000.0 -0.15536986447721343 -0.10719392426006685
3680000000.0 -0.08210131607179631 -0.1772932625017231
3700000000.0 -0.0435911800466104 -0.1916872693980175
3720000000.0 0.12347463214939022 -0.15223946647153738
3740000000.0 0.13620954777970376 -0.1357194828816504
3760000000.0 -0.05760008179665749 0.17465594639930473
3780000000.0 0.02086080124288591 -0.17043162946752757
3800000000.0 -0.14944523152835862 -0.059362966905775645
3820000000.0 -0.1387519183055845 -0.062073353658033244
3840000000.0 0.10017894307738824 -0.10716381578725206
3860000000.0 -0.007005493458450283 0.14880471773333262
3880000000.0 0.09348582398562033 0.12577097832493475
3900000000.0 0.09502434868793387 -0.12935704148353255
3920000000.0 -0.15482939883559216 0.058899692350651844
3940000000.0 0.04687734253566272 -0.16302016058860466
3960000000.0 0.17145017015887942 -0.023469807601029995
3980000000.0 0.07428062625083172 -0.15691942988125313
4000000000.0 0.04147499615848566 -0.1616790330988259
