! Created with skrf (http://scikit-rf.org).
# Hz S RI R 50.0 
!freq ReS11 ImS11
400000000.0 0.25701255870501616 0.8339529456344781
420000000.0 0.6500815978759814 0.5605718486427652
440000000.0 0.7889617465112821 -0.2390459831049338
460000000.0 0.23104291775387462 -0.7509216180352396
480000000.0 0.6980851090133658 -0.0091261999217304
500000000.0 0.5031050676578552 0.2678250631505828
520000000.0 0.3994408862292099 -0.3022495319572154
540000000.0 0.4239352531930187 0.11587514831544872
560000000.0 -0.3477032913263363 -0.11259869526106418
580000000.0 -0.10404183400297772 0.33016836358201335
600000000.0 0.2388642881536302 -0.24846952396976507
620000000.0 -0.2816308826137293 0.22054600045731984
640000000.0 -0.04133459525771645 0.3813210885957495
660000000.0 0.07831476565633495 0.39156855612637176
680000000.0 -0.4220493053877571 -0.05972341344652225
700000000.0 0.4288689454544886 0.11337179874617473
720000000.0 -0.2782534639332019 -0.3467564345911033
740000000.0 0.21519738218275916 -0.37675416171227716
760000000.0 -0.3503284915774675 0.21395043289797774
780000000.0 -0.012562755543748517 -0.37023986985066
800000000.0 -0.18151957075596417 0.2785306370311777
820000000.0 0.003265816291181054 -0.2753978002880874
840000000.0 0.17864610404893871 -0.14708858903878727
860000000.0 0.07326571879600552 0.18862361611175063
880000000.0 0.14104072972818577 0.0421427186715533
900000000.0 -0.04243384888223697 -0.08251591937295936
920000000.0 0.061618029759431876 0.015833068680484733
940000000.0 -0.015712951492707152 -0.040120757547795295
960000000.0 -0.050261841861430366 -0.0044233861699120814
980000000.0 0.020356150928613793 0.06836075046075298
1000000000.0 0.08251310549637801 -0.019252601251261936
1020000000.0 0.06359290400130813 -0.08201591837619
1040000000.0 -0.014567539122812343 0.10947565030522724
1060000000.0 0.015117381031054018 -0.13629808871318005
1080000000.0 -0.07142221975836786 0.12660358599275975
1100000000.0 0.007484822531914101 -0.1649925688690143
1120000000.0 0.19105984101484655 -0.01944379592954911
1140000000.0 0.05729226939467076 -0.22929145211635604
1160000000.0 -0.14710366378989798 -0.2416616194427114
1180000000.0 -0.30027636151585524 0.13060416372425038
1200000000.0 -0.14537511218818824 0.3281891406300746
1220000000.0 -0.3136334211015286 -0.21849891995423382
1240000000.0 0.38505451103148014 0.11606254029528633
1260000000.0 -0.23617645771129336 -0.35120914046710133
1280000000.0 -0.009849413319045168 0.4366733960820599
1300000000.0 0.40926194284049033 -0.17454159572259906
1320000000.0 -0.20468343775059444 -0.38972777686719345
1340000000.0 -0.13662690871635816 -0.4114382230271976
1360000000.0 0.060113804292077896 -0.42317049786280625
1380000000.0 -0.10912093705494486 -0.4116385068675144
1400000000.0 -0.373247821054827 -0.1728165503606602
1420000000.0 -0.3074586947319918 0.24622963112025803
1440000000.0 -0.08204957982832918 0.36235893919472034
1460000000.0 0.25463938940832964 0.23698851629625478
1480000000.0 0.25016580670770966 -0.2045966755162405
1500000000.0 -0.27720156797775336 -0.10510250841126013
1520000000.0 -0.04961065918298408 0.2641921926133495
1540000000.0 -0.23383750199591588 0.040695171769322205
1560000000.0 -0.16507228159943138 -0.11332790421505276
1580000000.0 -0.030071922588856242 -0.16564224891715376
1600000000.0 -0.1305227058360906 -0.03422453222150565
1620000000.0 -0.06504280509281413 -0.07979366527172639
1640000000.0 0.05806626286256183 0.057193739654361204
1660000000.0 0.05874041772789728 -0.012871356087263116
1680000000.0 -0.004125115454526401 0.038487540579403866
1700000000.0 0.011160564022916574 0.017625275835106848
1720000000.0 0.004119125039486192 0.0015094821716206087
1740000000.0 0.017186778979569405 -0.012262895558793913
1760000000.0 -0.022209666238331472 0.03695176664609084
1780000000.0 -0.07305205768028868 -0.020333084537578573
1800000000.0 0.04293405519217203 0.10231331748516431
1820000000.0 -0.13237746126700004 0.04335693059748511
1840000000.0 0.14032769781102336 -0.09819284022903843
1860000000.0 -0.19488610815596502 0.04029122428511099
1880000000.0 -0.14923111863579375 0.1744770967047046
1900000000.0 -0.0017565511066699475 0.26687218413252106
1920000000.0 0.30359582403792346 -0.01873362609060242
1940000000.0 0.040964344512987784 -0.3400900728393481
1960000000.0 -0.3180600679364391 0.20105776915532192
1980000000.0 0.39433517661991013 0.07678618270874665
2000000000.0 -0.022947669617365295 -0.4221439756803017
2020000000.0 -0.3489451763984038 0.2590573365417612
2040000000.0 0.19207601815947406 0.3951541639750959
2060000000.0 0.4015412690270841 -0.17370210494291755
2080000000.0 0.08364159296090351 -0.4218656039978422
2100000000.0 -0.04454049131393426 -0.4194872168705343
2120000000.0 -0.1750159213291592 -0.3725039267719354
2140000000.0 -0.3544576109292115 -0.1863662316678655
2160000000.0 -0.008649478121782668 -0.3855968488877886
2180000000.0 -0.1817160624438883 -0.3224635885893769
2200000000.0 -0.2757464683492058 -0.2259950772264932
2220000000.0 -0.34515571392342903 -0.038011043562592654
2240000000.0 -0.2903635931477478 0.18315055465121494
2260000000.0 -0.13410040131890938 0.31576241146361494
2280000000.0 0.020560083664606564 0.34766868820446906
2300000000.0 0.36295496210353234 0.007450676763458633
2320000000.0 -0.06414774547985659 -0.3829522372133701
2340000000.0 -0.3462764612420568 0.23606305483867893
2360000000.0 0.4501334506076474 0.0862869812048032
2380000000.0 -0.4369448677735247 -0.2513478033384354
2400000000.0 0.42936683467551934 0.3512132504677203
2420000000.0 -0.5647949337094803 -0.222615730718807
2440000000.0 0.6333694096351291 -0.17332334579327596
2460000000.0 -0.42296175100222083 0.5553147138100595
2480000000.0 0.11281785278355667 -0.7207406341520088
2500000000.0 -0.1893468771369878 0.7267863984982033
2520000000.0 0.3178429932017273 -0.6923449322808942
2540000000.0 -0.5366825276760018 0.5431864874644913
2560000000.0 0.757483418536058 -0.034417299868833795
2580000000.0 -0.4778731771205456 -0.5687941460071404
2600000000.0 -0.16826349455315787 0.6993347473322137
2620000000.0 0.6399588508471146 -0.25368994987102395
2640000000.0 0.4117385192478226 -0.5030861522551254
2660000000.0 -0.6058216889973334 -0.017481818994718564
2680000000.0 0.37528402890934753 0.41429695135626343
2700000000.0 -0.00022315967577477615 -0.5125373360461539
2720000000.0 -0.2548976799288684 0.3887192295714727
2740000000.0 0.36886829633549767 -0.2033619194949939
2760000000.0 -0.36290991106491644 0.11913596458123052
2780000000.0 0.2428875841779902 -0.25373611885708214
2800000000.0 -0.055146764200557336 0.320650443565208
2820000000.0 -0.24826043411506737 -0.18159954104962972
2840000000.0 0.278834963234692 -0.09863295609099529
2860000000.0 -0.13342014385810974 0.26000613049481597
2880000000.0 -0.09130692054735909 -0.27764355891450376
2900000000.0 0.09980912227808014 0.2778954313180339
2920000000.0 0.19383340496663498 -0.22949773672472412
2940000000.0 -0.27618509345074793 -0.1361963560981288
2960000000.0 -0.26252678189501816 0.16535611021452848
2980000000.0 -0.28774642995746635 0.12760257891971577
3000000000.0 -0.3138317148136484 -0.05314471361048996
3020000000.0 -0.057711883492920474 -0.313304103965867
3040000000.0 0.29730440349479376 0.10913969768390745
3060000000.0 -0.27000100238665303 0.15819787087536874
3080000000.0 0.23036232707962212 -0.20090822910418013
3100000000.0 -0.1752916517629054 0.24221140657634413
3120000000.0 0.1640408617973012 -0.23913585648039384
3140000000.0 -0.07747821355014368 0.26923571409158026
3160000000.0 -0.012897502743949516 -0.2649420844670594
3180000000.0 -0.22755467217584946 0.10249883914617652
3200000000.0 -0.05869383382174826 -0.22114379054808364
3220000000.0 0.15595117788975257 -0.12872930504848826
3240000000.0 0.1286512437868663 0.11395748204708181
3260000000.0 -0.13479370356889672 -0.02901324223735664
3280000000.0 0.07573531119377785 -0.07263363825960036
3300000000.0 -0.07416615712317197 0.01132159812420233
3320000000.0 -0.014803910700512709 0.044056385922625986
3340000000.0 -0.02149908897549459 0.006864102744617279
3360000000.0 9.041362720534047e-06 -0.004553539605259739
3380000000.0 0.0019349194192855236 -0.009759280010200629
3400000000.0 -0.022110878139726273 0.0012770295196789607
3420000000.0 0.00951322885650499 -0.03404798281389872
3440000000.0 -0.006273964824112762 -0.046954093811598395
3460000000.0 -0.009010438150257977 -0.05555523994866996
3480000000.0 0.06125240471280814 -0.031136610130351548
3500000000.0 -0.021194593315789163 -0.07970553722876803
3520000000.0 -0.0772566941162168 0.05803118589377384
3540000000.0 0.030553088859516762 -0.10685496105627193
3560000000.0 -0.027116617904243783 0.12128362656352469
3580000000.0 0.03184772200884042 -0.13457390024413837
3600000000.0 0.11098790026565851 0.11033912629994648
3620000000.0 0.06650675318566994 0.15487781478950666
3640000000.0 -0.11930382487147606 0.13382414240086946
3660000000.0 -0.18683288886136734 0.02267928886375989
3680000000.0 -0.15526926022212734 -0.11473674110789385
3700000000.0 -0.0449368957987907 -0.18797616724751937
3720000000.0 0.1631505690321258 -0.10342416439027742
3740000000.0 0.18836358651789897 -0.025765440070812412
3760000000.0 -0.1622009820121902 0.08322596260925974
3780000000.0 0.12185326521719474 -0.12183410200402399
3800000000.0 -0.10677220998006733 -0.12202801694444643
3820000000.0 -0.14144636442033323 -0.059370596357723036
3840000000.0 0.058904776784211875 -0.13399524523826034
3860000000.0 0.00395993092476728 0.1476236457105617
3880000000.0 -0.037442603853498596 0.14979350115115297
3900000000.0 0.15668603507430776 0.03555950674804997
3920000000.0 -0.16101290503160207 -0.04423856383523573
3940000000.0 0.11819973917286973 -0.12416872484130016
3960000000.0 0.1732757592434739 -0.018491991936127335
3980000000.0 0.06587908429158285 -0.1601740124734841
4000000000.0 0.023698345010587398 -0.16334513898427944
