!Created with skrf (http://scikit-rf.org).
# Hz S RI R 50.0 
!freq ReS11 ImS11
400000000.0 -0.6153644091466335 0.6167721956823708
420000000.0 0.5163214934082188 0.7011154918916501
440000000.0 0.4162581243710927 -0.7263801323162886
460000000.0 -0.583698127714467 -0.5282174607000398
480000000.0 0.5691392327437088 -0.411900379560287
500000000.0 -0.11292794367326675 -0.5647019818788429
520000000.0 -0.3926969395283025 0.3038244388303556
540000000.0 0.24488745873642725 -0.32636579680827954
560000000.0 -0.14832287536983876 -0.3302674266469412
580000000.0 -0.03632296857423932 0.33813408043475657
600000000.0 0.3421492607537419 0.08526648936152183
620000000.0 -0.058068515535746705 0.36125812091511583
640000000.0 0.370611630895213 0.12016198465572982
660000000.0 0.2744684841081685 -0.29673292124170875
680000000.0 0.42782242523840386 -0.010088763564688703
700000000.0 -0.11169214958915874 -0.41737991128551927
720000000.0 -0.3247994825777895 0.28212795191853574
740000000.0 0.08183161959777016 -0.4049555240845972
760000000.0 -0.3924896907151746 0.027092611016251995
780000000.0 0.32853605348711923 0.14610828650634736
800000000.0 -0.08440855390656805 -0.3117966794260226
820000000.0 -0.23069589314715253 0.15483496206351977
840000000.0 -0.007161406777310063 0.23970250082104738
860000000.0 -0.2020345762522761 -0.012479943957151308
880000000.0 0.15879794010260884 0.007960177517838573
900000000.0 0.06873943435818025 0.08636171475368261
920000000.0 -0.06693500949751116 -0.026829084236609724
940000000.0 -0.0013829709678410598 -0.0416596392681579
960000000.0 0.045941248350945346 0.005197122036596452
980000000.0 0.057432088526390326 -0.032622390133516206
1000000000.0 -0.005883147174302608 -0.0841726486236152
1020000000.0 -0.036686566898434754 -0.09700183461441196
1040000000.0 0.03592812180428502 -0.11224363704273509
1060000000.0 0.1527245608732507 0.005448118572680458
1080000000.0 0.00017164091114935936 0.17308113701948433
1100000000.0 -0.0332719646250872 -0.19622694798104776
1120000000.0 0.10897974638157898 0.19318270153995903
1140000000.0 0.11908014948986083 -0.22382758272157283
1160000000.0 -0.1973169580536012 -0.1999609318163018
1180000000.0 -0.025619137512233475 -0.3148483368738125
1200000000.0 0.27508178292911917 -0.20300037609818458
1220000000.0 -0.16210217022891138 0.32887731802321324
1240000000.0 0.38576639223592823 -0.016311916743927738
1260000000.0 -0.2630371326082753 -0.31371913842054905
1280000000.0 -0.3843584769820904 0.1818467268399485
1300000000.0 0.3839040095624953 0.20949439683102347
1320000000.0 0.43932938655881054 -0.017419628877523352
1340000000.0 0.4071263308194452 -0.16477937084318636
1360000000.0 0.4330376794045253 -0.08509506293692742
1380000000.0 0.14063977803009056 -0.41413015956145033
1400000000.0 -0.40813726168627423 -0.1348778895999202
1420000000.0 0.0722052734297503 0.4045421112815341
1440000000.0 0.3817192019379203 -0.04162259434483754
1460000000.0 0.037077234227307666 -0.3518581153791789
1480000000.0 -0.3202855688952453 -0.024881125775863218
1500000000.0 -0.1177601890392071 0.2630196615407088
1520000000.0 0.05037823451015196 0.25358542188550176
1540000000.0 -0.16748226375183178 -0.15611702830133609
1560000000.0 0.1274648300006572 -0.14721187785781087
1580000000.0 0.13410434701328605 0.09860854521061203
1600000000.0 0.10082728503736652 -0.0853278378277562
1620000000.0 0.07895727406582448 -0.06743198975216046
1640000000.0 0.049928473410615196 0.06043909980473403
1660000000.0 -0.05504052583412591 -0.002091477553444123
1680000000.0 0.03577547120931163 0.004011482711806854
1700000000.0 -0.004992283573267522 0.021686349247961416
1720000000.0 -0.006867210344666765 -0.004059992340609981
1740000000.0 0.00618036045873678 -0.015141551780877192
1760000000.0 -0.026477755245226206 0.019868793457386257
1780000000.0 -0.015669345411483817 0.0592468260307007
1800000000.0 0.09319413595416377 0.007598463552599941
1820000000.0 0.11554683895697551 0.05017718601740163
1840000000.0 -0.14635047363537668 -0.07653457221891222
1860000000.0 0.09131001630731533 0.18144088322113153
1880000000.0 -0.04062385090778136 -0.2398950891151967
1900000000.0 -0.022838681639296504 0.2854781870476483
1920000000.0 0.02616796394214015 -0.32012151302173986
1940000000.0 -0.26319659458470385 0.23865268718638752
1960000000.0 0.38181488794003476 -0.03183600135567922
1980000000.0 -0.29194337028829936 -0.277388896045498
2000000000.0 -0.3604354665482506 0.2137354909719129
2020000000.0 0.18600131450507693 0.3857226432113196
2040000000.0 0.407376032277855 0.1493126918971804
2060000000.0 0.32313073371362167 -0.2915805521300998
2080000000.0 0.028057378407039046 -0.43258958770549677
2100000000.0 -0.2117497879062908 -0.37106219695362275
2120000000.0 -0.39472982282309543 -0.1382867503286058
2140000000.0 -0.40324617889160935 0.05222515505370569
2160000000.0 -0.2223379436784702 -0.32483927407150665
2180000000.0 -0.35499662080989547 -0.13842715590515545
2200000000.0 -0.281640997263109 0.2400494370539121
2220000000.0 0.03679345755241304 0.35798304375717727
2240000000.0 0.33839330155682634 0.1132257283116147
2260000000.0 0.2885308614007362 -0.2094574761990419
2280000000.0 -0.02365301407990252 -0.36130147238037097
2300000000.0 -0.3568294275694209 0.12205947986701877
2320000000.0 0.24837525483946357 0.3146308413919125
2340000000.0 0.18232885385870076 -0.39284228489314055
2360000000.0 -0.38163470492279483 0.2805167461925024
2380000000.0 0.46569520963108074 -0.23356964065421798
2400000000.0 -0.43304071560047896 0.3691521335308661
2420000000.0 0.17375465276340007 -0.5906793098101155
2440000000.0 0.1942021253210022 0.6279055190459198
2460000000.0 -0.5091316925502081 -0.46694245708202053
2480000000.0 0.6405068671042045 0.31905812067589945
2500000000.0 -0.5638562645112174 -0.46364380625943974
2520000000.0 0.28576141907750335 0.6781816661500639
2540000000.0 0.19354299795866814 -0.7070010780450925
2560000000.0 -0.6912167366791432 0.21182939932468173
2580000000.0 0.43292606929558175 0.5561546911433617
2600000000.0 0.30693306921004904 -0.6046969505410057
2620000000.0 -0.6406423055230763 -0.0800568381760386
2640000000.0 -0.6074217878674915 0.024441838105199096
2660000000.0 0.17846190196515646 0.533192760946042
2680000000.0 0.44180042347843623 -0.26860863721348016
2700000000.0 -0.36127005311741445 -0.30370592263655577
2720000000.0 0.0039977589193561985 0.42738718822092997
2740000000.0 0.34773512422265584 -0.16922257222279227
2760000000.0 -0.3466385127356586 -0.05359666217756002
2780000000.0 0.2934170547825859 0.13576641776393739
2800000000.0 -0.29937801060119 -0.03714992656850518
2820000000.0 0.08768429218895958 -0.27397087458292513
2840000000.0 0.1832231829370816 0.2097569169431486
2860000000.0 -0.23731553062051727 0.14039537394998436
2880000000.0 -0.0011570717484041518 -0.27708896145984285
2900000000.0 0.15453215288295236 0.23251317320019246
2920000000.0 0.011178089950998142 -0.28361531604998735
2940000000.0 -0.28684116592757947 0.04142711288887288
2960000000.0 -0.15160576288077948 0.2524918014937898
2980000000.0 -0.18758476749287822 0.23394535029289718
3000000000.0 -0.2926683717132431 0.07361141824366443
3020000000.0 -0.15365027453516295 -0.2604798784946926
3040000000.0 0.2996605042334155 -0.0011794644072281254
3060000000.0 -0.2842460190222493 0.09203857451059047
3080000000.0 0.24305711487918896 -0.16563837382656746
3100000000.0 -0.24049997228676434 0.16028836704044327
3120000000.0 0.1896458901057181 -0.20997357088519097
3140000000.0 -0.002960216857310853 0.2742012422073038
3160000000.0 -0.16501218160089987 -0.20163644552641607
3180000000.0 -0.049828220656632 0.24021828947580334
3200000000.0 -0.16661291928236746 -0.14719874282141696
3220000000.0 0.16948603804408666 -0.09876393431031628
3240000000.0 -0.062488976593377654 0.1555235510397777
3260000000.0 -0.027290077899999574 -0.1329505624194078
3280000000.0 -0.09221333899299415 0.04844821990645648
3300000000.0 0.05260736366791772 0.05221698530379182
3320000000.0 -0.004690281532915096 0.04761171353699614
3340000000.0 -0.018688981629950294 0.015773995433918706
3360000000.0 0.0014137259851194977 -0.007448525084908967
3380000000.0 -0.003881434914620856 0.009559696406471694
3400000000.0 -0.02248631327197831 0.005392761879118131
3420000000.0 0.033747777650317515 -0.006212676243588719
3440000000.0 0.003504879078163799 0.0430105346034282
3460000000.0 0.05066027160572437 -0.0037793613831242296
3480000000.0 -0.06281488408674027 0.0022396876301234146
3500000000.0 -0.0742470844628225 0.017249558075532204
3520000000.0 -0.0525923823905783 0.07370394382008487
3540000000.0 0.08980858424146729 -0.05670199118866968
3560000000.0 -0.0729155232809521 0.0977327336547962
3580000000.0 0.08682823685631227 -0.10457771739405738
3600000000.0 0.1361599828535577 0.06980164405292293
3620000000.0 0.0010852710168522512 0.16469361426623375
3640000000.0 -0.16791819428674948 0.0499078500407227
3660000000.0 -0.13132906876117215 -0.1298854754730082
3680000000.0 0.06856928028529369 -0.1774692523592759
3700000000.0 0.11883877263296763 -0.15024087740908487
3720000000.0 0.18014314473052856 0.06569131888695953
3740000000.0 0.09551887012912788 0.16044112237547134
3760000000.0 -0.08110215127999007 -0.16232696641514008
3780000000.0 0.10176884857484801 0.13788266510845162
3800000000.0 0.10113254475690506 -0.12937251462629396
3820000000.0 -0.08022034932622427 -0.134914856661859
3840000000.0 -0.1136184481712883 -0.09673045198710442
3860000000.0 0.14769286763627815 -0.02273201589262674
3880000000.0 0.152125144799212 0.023004840625912907
3900000000.0 0.03939409944345064 -0.15678893791376625
3920000000.0 -0.08471136159226483 0.14262104250316673
3940000000.0 -0.02902778448419591 -0.16765167677513132
3960000000.0 0.15194173888313406 -0.0876496623551941
3980000000.0 0.04377079244269391 -0.17146805795357847
4000000000.0 0.046315794941252215 -0.1650944868339895
