!Created with skrf (http://scikit-rf.org).
# Hz S RI R 50.0 
!freq ReS11 ImS11
400000000.0 -0.5998910254729203 0.630191273777914
420000000.0 0.5446833141963009 0.6792600119898103
440000000.0 0.4326982129734144 -0.7182107460947277
460000000.0 -0.585668489395107 -0.5278931665643843
480000000.0 0.5331963289943528 -0.45776759845731674
500000000.0 -0.0682906965599478 -0.5720080370531884
520000000.0 -0.3869313634075837 0.31264539505832223
540000000.0 0.17753854563911456 -0.367440851497081
560000000.0 -0.19166680059843716 -0.3058329170298721
580000000.0 -0.16680011494302693 0.2964280854872731
600000000.0 0.3511845215839755 -0.02812797428736903
620000000.0 0.005341207847274439 0.3651673416996466
640000000.0 0.3624932111646705 0.13864550412880197
660000000.0 0.294306896634326 -0.2796516100173438
680000000.0 0.4222541165520444 -0.07507020827159312
700000000.0 -0.15488441218884755 -0.40214995107823553
720000000.0 -0.34194488885650076 0.262477977337063
740000000.0 0.08155043930939006 -0.40613424498675904
760000000.0 -0.3877486168817688 0.06658081091539805
780000000.0 0.31244279532540997 0.17912785426809294
800000000.0 -0.030970464627926245 -0.3216657120231131
820000000.0 -0.23333937367337815 0.1506078671117228
840000000.0 -7.472108411564124e-05 0.23918191037831235
860000000.0 -0.20154329453032604 -0.009447814014068485
880000000.0 0.15653981887050172 0.02708694062330242
900000000.0 0.09791584328149179 0.048970895469532816
920000000.0 -0.069496763262876 0.016703597947660596
940000000.0 -0.04150481407853892 0.007024388368493019
960000000.0 0.046603134878754046 0.003342970308749702
980000000.0 0.06462531677311546 -0.01466322332672193
1000000000.0 0.006635815207738568 -0.08397547219707244
1020000000.0 -0.017984963449418606 -0.1018245236820728
1040000000.0 0.045371251800670316 -0.10840742904567506
1060000000.0 0.15222891965258883 -0.0027245125080549485
1080000000.0 0.007711080526637852 0.1724085604234334
1100000000.0 -0.04252916970779803 -0.19431267901153204
1120000000.0 0.12062678242806002 0.1856262774587745
1140000000.0 0.11603564412318122 -0.22526605178872475
1160000000.0 -0.2038705323318267 -0.1930857208649753
1180000000.0 -0.044781995320313926 -0.3126061544210252
1200000000.0 0.2593838285917386 -0.22221642220644333
1220000000.0 -0.14160257542941393 0.33864779304078807
1240000000.0 0.38646118320790124 -0.02045264950861569
1260000000.0 -0.2718707162238159 -0.30680083108645906
1280000000.0 -0.3927039354267263 0.1639850042790589
1300000000.0 0.37874246364570213 0.21945811560593986
1320000000.0 0.4398162113005463 0.003013824683959567
1340000000.0 0.4081785206700107 -0.16222546672994925
1360000000.0 0.43473359372980314 -0.07651754652231492
1380000000.0 0.1773320772497144 -0.3998910028630564
1400000000.0 -0.39942571048142766 -0.15837985868625654
1420000000.0 0.04406375535890154 0.408445156975306
1440000000.0 0.38102932030335473 -0.045152422062062554
1460000000.0 0.013733033066636438 -0.35292752268380223
1480000000.0 -0.3205307634135379 -0.016439607812963747
1500000000.0 -0.0910944765318136 0.2729831722944529
1520000000.0 0.060356452762218724 0.25126640638717596
1540000000.0 -0.17962639466182692 -0.14105490156075787
1560000000.0 0.08070022701333299 -0.17702005014478664
1580000000.0 0.1546746071394705 0.061941838805620056
1600000000.0 0.06571011455512163 -0.11458845580980204
1620000000.0 0.07199267426257659 -0.07522292597302159
1640000000.0 0.058189138858147 0.05350947919794476
1660000000.0 -0.05309844299772182 -0.0148496280721057
1680000000.0 0.030245447765145185 0.01969871397917032
1700000000.0 -0.0021637791000272038 0.021982453920798686
1720000000.0 0.007277620767851902 0.00348312932720162
1740000000.0 -0.016083478327627028 0.0026500266399452637
1760000000.0 -0.001749378712814604 0.032991635235884026
1780000000.0 -0.005675604274705943 0.06080303692404034
1800000000.0 0.09310699711206429 -0.007844039268386423
1820000000.0 0.11649270138875556 0.047663941389901536
1840000000.0 -0.15099687410883256 -0.0664185246257151
1860000000.0 0.09775567622896526 0.17784168397579034
1880000000.0 -0.06469128350134506 -0.23461820309206852
1900000000.0 0.009104169859385119 0.2863624959980415
1920000000.0 0.012977814898149592 -0.3209071070347105
1940000000.0 -0.25666923690051113 0.24638009384154252
1960000000.0 0.38247113702917723 -0.02986930429928368
1980000000.0 -0.28327496474762026 -0.2865312424944689
2000000000.0 -0.37656976278647086 0.1848951142570696
2020000000.0 0.15070915545313718 0.4012000997658949
2040000000.0 0.3734870960089159 0.22092975458720904
2060000000.0 0.35500459667863965 -0.2507932656760555
2080000000.0 0.060288054110468024 -0.42797925856855035
2100000000.0 -0.20276900660708708 -0.37438872642458015
2120000000.0 -0.40190730104880756 -0.11182564925961301
2140000000.0 -0.40463788009729085 0.02980996025414121
2160000000.0 -0.23912436741021065 -0.3106533226168448
2180000000.0 -0.3703655258216862 -0.08149233613281094
2200000000.0 -0.25550450773638855 0.26612201412532077
2220000000.0 0.0991815408671312 0.34544354097831886
2240000000.0 0.35383335120376036 0.04309817423556356
2260000000.0 0.2662045318794467 -0.23654076667540103
2280000000.0 -0.07733955098074385 -0.35425249236241657
2300000000.0 -0.3327237058520822 0.177887650160265
2320000000.0 0.2751550735682183 0.29180472488442233
2340000000.0 0.1438476128287087 -0.40919694867394346
2360000000.0 -0.36168527185215776 0.3068005306458873
2380000000.0 0.45224904843772645 -0.25926205778167605
2400000000.0 -0.4155812443915066 0.3885344361722389
2420000000.0 0.16232156600874642 -0.5932773861786804
2440000000.0 0.21209467653654482 0.6212621259526852
2460000000.0 -0.5426342225037487 -0.4260450968425919
2480000000.0 0.6450940757574307 0.3055885387685257
2500000000.0 -0.573403922844702 -0.4495205926988872
2520000000.0 0.38813853863149683 0.6231047272274476
2540000000.0 0.08124453342471352 -0.7265627884574162
2560000000.0 -0.6575841179297165 0.29706283918807386
2580000000.0 0.4982573066766259 0.4957378414115947
2600000000.0 0.2444351111214921 -0.6311965082651793
2620000000.0 -0.6449149907445302 0.0020882633153735787
2640000000.0 -0.6035948039427922 0.06710763863800358
2660000000.0 0.19738156322022204 0.5258504281869922
2680000000.0 0.43054414542189173 -0.2859152300748982
2700000000.0 -0.37626615184304346 -0.284820684754495
2720000000.0 -0.020895188053636108 0.42698259237913394
2740000000.0 0.3708676959491961 -0.10791127745039085
2760000000.0 -0.33519692235207815 -0.09962055029643337
2780000000.0 0.27202263517948383 0.17386492406668053
2800000000.0 -0.28200085874559827 -0.10439192241483675
2820000000.0 0.14733504660853455 -0.24596469061395765
2840000000.0 0.16433023081726925 0.2234523587699547
2860000000.0 -0.2444750916462826 0.12450796622188183
2880000000.0 0.023133758943904566 -0.2752674243160617
2900000000.0 0.13062561088659183 0.2459716328860064
2920000000.0 0.04241358653219802 -0.2796877409227612
2940000000.0 -0.28794267786387895 0.014064714445876743
2960000000.0 -0.1630176255269879 0.2441927262192754
2980000000.0 -0.1712221747832982 0.24438434493359906
3000000000.0 -0.2918348935655434 0.07307147161051548
3020000000.0 -0.17310555859085439 -0.2473021079262442
3040000000.0 0.29940004795118785 0.018443303819625504
3060000000.0 -0.26646826407485713 0.13399674566100866
3080000000.0 0.21892712640163267 -0.1955404261944231
3100000000.0 -0.2282602715918445 0.17778431981567278
3120000000.0 0.18633719523763626 -0.21437460501264202
3140000000.0 0.044440295480215775 0.2715940687992587
3160000000.0 -0.16504246380105886 -0.2014249963439746
3180000000.0 -0.07494280179204954 0.23354942561694986
3200000000.0 -0.17651942584493668 -0.13475579759258294
3220000000.0 0.1616454014512747 -0.11168747263594826
3240000000.0 -0.029123355348948984 0.16435457191550867
3260000000.0 -0.034999134761725705 -0.1318328733507208
3280000000.0 -0.09225133141094201 0.050694364684013504
3300000000.0 0.06348971182555924 0.04080599482971028
3320000000.0 -0.012605011225800376 0.04719333343840862
3340000000.0 -0.026142013336334986 0.002808173728405835
3360000000.0 -0.006442810422213143 -0.006904624175401177
3380000000.0 -0.004277623658326985 -0.008202020247271269
3400000000.0 -0.021067472226965218 -0.003718336499238332
3420000000.0 -0.01839755554061982 0.026783063563382534
3440000000.0 0.033697432579744016 -0.023072106339576924
3460000000.0 0.019202083994508356 -0.04533577212494121
3480000000.0 -0.033965630942662146 0.050319225799125476
3500000000.0 -0.03919056665308231 0.06327227617292117
3520000000.0 -0.03520331892294463 0.08135670743372819
3540000000.0 0.044446183195579296 -0.09422096427984335
3560000000.0 -0.052165673545771125 0.10746763531383567
3580000000.0 -0.019054169991224505 -0.1333860552990951
3600000000.0 0.14154535089006295 -0.05487495314052294
3620000000.0 0.1280494353388993 0.10157787886320543
3640000000.0 -0.08718893549236115 0.1510049686674938
3660000000.0 -0.18410118627203237 -0.002499468053437822
3680000000.0 -0.07283802610221084 -0.17546315162343723
3700000000.0 -0.028412931688267206 -0.18876258131735454
3720000000.0 0.16935206854264354 -0.08914988529723245
3740000000.0 0.17440823462440605 0.06866912054445132
3760000000.0 -0.15593795641475336 -0.09416318410263744
3780000000.0 0.15194400802538802 0.08294061441261652
3800000000.0 0.06327459945750828 -0.1534185934762463
3820000000.0 -0.13035910119864288 -0.09078591655674609
3840000000.0 -0.12563365565309273 -0.0844197506513279
3860000000.0 0.146530220141653 -0.037637299879788526
3880000000.0 0.155145714534981 -0.016760059932840177
3900000000.0 0.0143772094638475 -0.16278213153752497
3920000000.0 -0.05193282967178397 0.15905045664218886
3940000000.0 -0.06340338043641304 -0.15946062464953153
3960000000.0 0.13469199181144426 -0.11414053775217797
3980000000.0 -0.018752692476982684 -0.17624708006247453
4000000000.0 -0.0393047185747879 -0.16763465464496627
