!Created with skrf (http://scikit-rf.org).
# Hz S RI R 50.0 
!freq ReS11 ImS11
400000000.0 -0.595190143933154 0.6346389925073069
420000000.0 0.5453860309742029 0.6776486762046121
440000000.0 0.4038960317140872 -0.7337923196645096
460000000.0 -0.6128086285839387 -0.4941773182701516
480000000.0 0.5616295708378763 -0.4221668617614094
500000000.0 -0.11179406539306351 -0.565069632618219
520000000.0 -0.3827630982762324 0.31607720316851684
540000000.0 0.22395157772336471 -0.3406346493909534
560000000.0 -0.1653714121828264 -0.32248978096610387
580000000.0 0.0287633879983175 0.33965628051592867
600000000.0 0.3501090352638584 0.043898069177285844
620000000.0 -0.06282191402744168 0.36190569317522775
640000000.0 0.3565006885222323 0.1608910921660724
660000000.0 0.3054777673529697 -0.26693372346925165
680000000.0 0.42586482699525724 0.04517614525568264
700000000.0 -0.049315087943104456 -0.429646235077583
720000000.0 -0.3402626355051359 0.26320274806800437
740000000.0 0.08983303982811872 -0.4024510922661374
760000000.0 -0.39269174915031135 0.01471623260122192
780000000.0 0.32692145680981205 0.14856206535561808
800000000.0 -0.11720704154214706 -0.30012986862588364
820000000.0 -0.18404715957095313 0.20697834641325602
840000000.0 0.07599548356247676 0.22676032183549327
860000000.0 -0.18880596033513003 0.07308085539012261
880000000.0 0.14526588451140382 -0.0663628698128648
900000000.0 0.10978439513482076 0.016574035069158107
920000000.0 -0.07383800979671266 0.0060473466830608695
940000000.0 0.04253854017812005 0.007731519843358692
960000000.0 -0.045047006764469724 0.007829234392304802
980000000.0 0.04958050876058268 0.040194461257375524
1000000000.0 -0.03090239225301354 -0.07592806407587534
1020000000.0 -0.0935633567348693 -0.04082631314428594
1040000000.0 -0.0869513075457161 -0.07798319263529681
1060000000.0 0.10297307295890136 -0.11326342896050517
1080000000.0 0.1203011272877356 0.12632194401443372
1100000000.0 -0.09252107786399379 -0.17885908702541758
1120000000.0 0.13778113274227075 0.17780153706383253
1140000000.0 0.1412621961368832 -0.21430634527905232
1160000000.0 -0.1153663407489053 -0.2592099745018259
1180000000.0 0.10751471720276763 -0.2997477697356185
1200000000.0 0.33862936977014474 -0.05666169008233654
1220000000.0 -0.28461831056224485 0.2331217063474034
1240000000.0 0.3622898351875315 0.13620617204926577
1260000000.0 -0.1284695085825282 -0.3892891898860929
1280000000.0 -0.41991599088578296 0.06512912610340775
1300000000.0 0.3298245000842658 0.2859392185368457
1320000000.0 0.4359046039217744 0.04411509694813043
1340000000.0 0.4092137545341611 -0.1552841102917164
1360000000.0 0.4257114028107221 -0.11087921427272407
1380000000.0 0.09832174615467901 -0.42481002094734205
1400000000.0 -0.42397082272575004 -0.06365413285235083
1420000000.0 0.16728075214142923 0.3744200659817521
1440000000.0 0.34134931217704695 -0.17586277772465853
1460000000.0 -0.1137032669744258 -0.335354019868328
1480000000.0 -0.3093621289985494 0.08967717447391768
1500000000.0 0.005331638951550006 0.2893871790544177
1520000000.0 0.14822743108817799 0.21458680684751702
1540000000.0 -0.21332130206160627 -0.08900275803896976
1560000000.0 0.07290641990133245 -0.18299321439801067
1580000000.0 0.14446888772850183 0.08769308300420785
1600000000.0 0.10721111419983974 -0.08117390603689063
1620000000.0 0.10468731491117358 0.015632187409214814
1640000000.0 -0.054514316761270824 0.05799592034756098
1660000000.0 0.02678470831717496 -0.048429750722830164
1680000000.0 -0.03543337442216046 -0.004499769897500667
1700000000.0 0.020297324874506147 -0.007436216890341226
1720000000.0 0.005531712400414509 0.0061583046488535775
1740000000.0 0.013818162715750688 0.01178454366239289
1760000000.0 -0.020434559148096217 -0.02737263178410334
1780000000.0 -0.05639895156317714 0.025770639064843302
1800000000.0 0.08066548781240257 0.048363151971404235
1820000000.0 0.08099796507473152 0.09660605767446644
1840000000.0 -0.11667054615814022 -0.11697046167738963
1860000000.0 0.05304327505397511 0.1958578628664842
1880000000.0 -0.019969605124875528 -0.24212059064075617
1900000000.0 -0.022182291944382673 0.2853850464596544
1920000000.0 0.013337856187208362 -0.3206205704188238
1940000000.0 -0.23828459833578208 0.26340427331071375
1960000000.0 0.3764116744278469 -0.07112537957977005
1980000000.0 -0.32222883314521167 -0.24177056062090202
2000000000.0 -0.3589327323455297 0.21845225694436657
2020000000.0 0.24365855994276578 0.35326072983019013
2040000000.0 0.3983096990489047 0.17411311518266326
2060000000.0 0.3066423444019613 -0.3096792721962802
2080000000.0 -0.007501336930519146 -0.43318055109047965
2100000000.0 -0.26110530822110195 -0.3376586459807696
2120000000.0 -0.40883547885085786 -0.08701109912918668
2140000000.0 -0.3908454512350236 0.11004034883873857
2160000000.0 -0.24117170345887856 -0.3099924006141491
2180000000.0 -0.3637692619138632 -0.10778364541243493
2200000000.0 -0.25455882270176 0.26518842302585466
2220000000.0 0.1406434994596627 0.3285987637639339
2240000000.0 0.353363039086093 -0.018903475834545817
2260000000.0 0.22202585747833145 -0.27578932491840225
2280000000.0 -0.1912159503407534 -0.30573397541106756
2300000000.0 -0.2543743645957004 0.27633007368180845
2320000000.0 0.36213614756597484 0.16755718674268552
2340000000.0 -0.027042191181842423 -0.43101596867694864
2360000000.0 -0.21876153083313843 0.41928363826965637
2380000000.0 0.34352002227524714 -0.39055984627910706
2400000000.0 -0.27934908277655374 0.495692354873228
2420000000.0 0.021491272568183336 -0.6159171171179413
2440000000.0 0.2958218336904287 0.5881314582412199
2460000000.0 -0.5580086827314851 -0.40947357611044416
2480000000.0 0.6651642631051113 0.2677896330253015
2500000000.0 -0.5144959351512826 -0.5204031509785485
2520000000.0 0.23019651693543824 0.7004306357308108
2540000000.0 0.24157808619449098 -0.6929386086016517
2560000000.0 -0.7105162266417747 0.13606863848911308
2580000000.0 0.41776880718884923 0.5660913899721175
2600000000.0 0.3765823272882462 -0.5614345075723696
2620000000.0 -0.6125186739097264 -0.19078872945007197
2640000000.0 -0.598981285894526 -0.06635861622990251
2660000000.0 0.10050614841347424 0.5469800062372385
2680000000.0 0.4533308601165968 -0.2338352926856282
2700000000.0 -0.3458013301197777 -0.30993077868202823
2720000000.0 -0.00566853107490728 0.4194065460555591
2740000000.0 0.3154819796236086 -0.20953445607622184
2760000000.0 -0.33549296196215306 0.06981252810487525
2780000000.0 0.3110726461243016 -0.05781810311188937
2800000000.0 -0.23316887812961534 0.18212214828979592
2820000000.0 -0.17158438499166023 -0.225484718095612
2840000000.0 0.26677279751220295 -0.06866167297835717
2860000000.0 0.003066587636601983 0.27421147879470364
2880000000.0 -0.24289892823499584 -0.13292242884020763
2900000000.0 0.2768891470935843 0.04768344052357142
2920000000.0 -0.1528188323458419 -0.2421746915237597
2940000000.0 -0.26589045750104784 0.12279868397136398
2960000000.0 -0.09778147929738563 0.2814942365426815
2980000000.0 -0.22532635562544104 0.20319289449309036
3000000000.0 -0.3052755766766493 -0.022509162632461468
3020000000.0 0.004752366963778249 -0.30626419176238906
3040000000.0 0.24922104663429123 0.17181471200726608
3060000000.0 -0.28134938561895756 -0.10674059671487586
3080000000.0 0.27433398305828155 0.11136726159845715
3100000000.0 -0.27894215510166814 -0.08285616569313344
3120000000.0 0.28512769968402435 -0.001980854388821879
3140000000.0 -0.26204964214983617 0.08320753650914318
3160000000.0 0.15391144430564296 -0.20947529885593338
3180000000.0 -0.24282588410924824 -0.013525200115747548
3200000000.0 0.10748313086793881 -0.19130069091235202
3220000000.0 0.12840211336956434 0.14640111032621728
3240000000.0 -0.16402311448844462 -0.018325318001857348
3260000000.0 0.12881392416108634 -0.03464104154311794
3280000000.0 -0.04537520207176583 -0.09118498804547659
3300000000.0 -0.07212322569255679 0.006703725067031916
3320000000.0 -0.009227451692452175 -0.045146602866035626
3340000000.0 -0.010822332713807186 0.02064829765801516
3360000000.0 0.0029322899730439994 -0.0074654193830987325
3380000000.0 0.012305782691819868 -0.0009840290891591542
3400000000.0 0.012114342703615064 -0.021454648102016517
3420000000.0 -0.031671190086729854 0.0151488417776235
3440000000.0 0.04228650609905942 -0.009413313934829803
3460000000.0 -0.02538809875662895 -0.044607323515788756
3480000000.0 -0.026268838655719412 0.05652761512251978
3500000000.0 -0.0087260485263753 0.07593188542928517
3520000000.0 0.047165866212157674 0.07804396432431733
3540000000.0 0.04859078120420538 -0.093730063363386
3560000000.0 -0.00651007530686397 0.12143699449296211
3580000000.0 -0.04579263697498699 -0.12819990861908026
3600000000.0 0.15291479103062056 0.0031091553392417195
3620000000.0 0.09092950192557447 0.13761762687570933
3640000000.0 -0.1325340838094407 0.11522129935883925
3660000000.0 -0.17739292789566202 -0.05345506718986888
3680000000.0 -0.029506927989601785 -0.18856193948099317
3700000000.0 0.05568495472248439 -0.183724744695431
3720000000.0 0.19218333266720253 -0.006171159972241315
3740000000.0 0.14631875962982346 0.1164926427747887
3760000000.0 -0.14475650980155386 -0.11131738306923589
3780000000.0 0.14877047334715904 0.08883226627100271
3800000000.0 0.05246246177381351 -0.15807981518504685
3820000000.0 -0.1303361149360613 -0.09143410968941605
3840000000.0 -0.12485233112744556 -0.08509718300494964
3860000000.0 0.13600328978525705 -0.06492532951806569
3880000000.0 0.14913983159763627 -0.043656274668672876
3900000000.0 -0.03697417817519329 -0.15871172580651702
3920000000.0 -0.004123786647671941 0.1662352067662622
3940000000.0 -0.12697436586398186 -0.11413166233318399
3960000000.0 0.08140482021462998 -0.1561447222585663
3980000000.0 -0.11070847429683207 -0.13861977888671073
4000000000.0 -0.12890410632887128 -0.11369679956387475
