!Created with skrf (http://scikit-rf.org).
# Hz S RI R 50.0 
!freq ReS11 ImS11
400000000.0 -0.5725973041319711 0.6534518296982296
420000000.0 0.5240099880722815 0.6940966622836681
440000000.0 0.35188474919039725 -0.7592157527731392
460000000.0 -0.6080745096616369 -0.49790115213521186
480000000.0 0.5867082439164152 -0.3870286751841994
500000000.0 -0.11312807568261742 -0.5660613076919307
520000000.0 -0.3689328855220494 0.33075573287499693
540000000.0 0.256964623257435 -0.3150630886014589
560000000.0 -0.15954157846208353 -0.32600031688896475
580000000.0 0.09694176138560215 0.32714390964831935
600000000.0 0.3513236655358854 0.014662392367695688
620000000.0 -0.04050321536635813 0.36393914807966266
640000000.0 0.3662873409720749 0.13795296362924936
660000000.0 0.2887789507967125 -0.28467403698606975
680000000.0 0.42740532284028654 0.02422255071716992
700000000.0 -0.031166199366879515 -0.43079394954412503
720000000.0 -0.3386301137017031 0.26526082103125476
740000000.0 0.12360748681253994 -0.39442169819815
760000000.0 -0.39132356598955836 0.037126109084573804
780000000.0 0.3253275482399972 0.15324661176412194
800000000.0 -0.10519568510864691 -0.3046738112757938
820000000.0 -0.20430146070943647 0.18713434411383326
840000000.0 0.07077565321573588 0.22852227986034546
860000000.0 -0.19044527113533696 0.06884225555832754
880000000.0 0.14763136393093204 -0.059684882411290885
900000000.0 0.10938484620679023 0.017641180242415816
920000000.0 -0.06248503923631411 0.03838182791197036
940000000.0 0.03933247892755358 -0.016458909775632663
960000000.0 -0.026130248037567458 0.03844719136874196
980000000.0 0.05577566710183169 0.03232340853241265
1000000000.0 -0.01893622746274123 -0.07971820794590308
1020000000.0 -0.08599654316325589 -0.05503456871623552
1040000000.0 -0.06936584633738678 -0.09430574784545233
1060000000.0 0.10221685888666127 -0.1140468692297885
1080000000.0 0.11163397650567058 0.13315026181743111
1100000000.0 -0.10115684649671207 -0.17342002525506517
1120000000.0 0.14346170429395996 0.1724359129363667
1140000000.0 0.09795677729136429 -0.23694068690868045
1160000000.0 -0.1544012265807718 -0.2377305175543398
1180000000.0 0.07361460075211598 -0.3096489146645162
1200000000.0 0.33384184500800007 -0.0794864206035736
1220000000.0 -0.2780409282534023 0.24031761016735795
1240000000.0 0.3674852022086188 0.12100770575973227
1260000000.0 -0.13068898960275288 -0.388737192604448
1280000000.0 -0.4216200900971745 0.05553551491363942
1300000000.0 0.3078876921117867 0.30972284364745073
1320000000.0 0.43328599903615966 0.06737068340223584
1340000000.0 0.4164267727621952 -0.1346446000718128
1360000000.0 0.43572442805547046 -0.061129619523065185
1380000000.0 0.1359156505764217 -0.4143452324850225
1400000000.0 -0.4208009263923143 -0.08154763883612558
1420000000.0 0.15680640852986855 0.3786716463398547
1440000000.0 0.3496601480241325 -0.15788780267750718
1460000000.0 -0.10713582342409364 -0.33719951423599753
1480000000.0 -0.28852761883701034 0.14170183207344633
1500000000.0 0.005957838154078173 0.28893585442440983
1520000000.0 0.16046634260268264 0.20484489147850884
1540000000.0 -0.21934511593349595 -0.07266129719091147
1560000000.0 0.049354327473473146 -0.19081263376488405
1580000000.0 0.1380423098385128 0.09791083538237133
1600000000.0 0.12955306593752222 -0.03679342055941175
1620000000.0 0.10589163222910042 0.0004861232789281421
1640000000.0 -0.05410637792529565 0.05866500522873487
1660000000.0 0.03819748849035133 -0.039996823751250854
1680000000.0 -0.03323949607871609 0.012707346569519027
1700000000.0 -0.015513045864003927 -0.015217215285432316
1720000000.0 -0.0015215264304101668 -0.008058673891050666
1740000000.0 -0.007654529456570588 0.0159160528612356
1760000000.0 -0.028211509162292165 -0.019616914029084394
1780000000.0 -0.05633532400324047 0.026695855208843516
1800000000.0 0.061449451376290404 0.07121896069681027
1820000000.0 0.060905441450612094 0.11025311939623603
1840000000.0 -0.09287453628574412 -0.13670846023476335
1860000000.0 0.04904654808977881 0.1965182579985205
1880000000.0 -0.017969603001267886 -0.24223772667975588
1900000000.0 -0.032521090407734356 0.2838734608290591
1920000000.0 0.017248201483321266 -0.3199720176579465
1940000000.0 -0.2450200854612971 0.2570746908544891
1960000000.0 0.37452366832085743 -0.07995427816512306
1980000000.0 -0.31818705571125133 -0.2468239945507749
2000000000.0 -0.33629810695606827 0.25138602584857267
2020000000.0 0.22718708204427032 0.36405215868813434
2040000000.0 0.4002117207522267 0.17054049126161425
2060000000.0 0.3127760921158513 -0.30386186582687763
2080000000.0 0.02222519217054497 -0.4336747023233654
2100000000.0 -0.2308226838785208 -0.36054740059016505
2120000000.0 -0.39917208696349615 -0.12774460025188022
2140000000.0 -0.4060714109694494 0.03385698704497732
2160000000.0 -0.21543936569712155 -0.3297512370746127
2180000000.0 -0.33914433746726697 -0.17245369117685727
2200000000.0 -0.3045819483908472 0.20863750311792767
2220000000.0 0.047455058501471525 0.35564528600680073
2240000000.0 0.3422789172464829 0.09519932258802848
2260000000.0 0.273074902690714 -0.227623423188513
2280000000.0 -0.06744568614793103 -0.3548843603114442
2300000000.0 -0.32961830626792743 0.18072945045608294
2320000000.0 0.309859194133902 0.252690573541848
2340000000.0 0.07553105361769666 -0.4256100917069013
2360000000.0 -0.30103102479434934 0.36447760507544447
2380000000.0 0.3821709511402418 -0.3533531513994741
2400000000.0 -0.31480486831986965 0.47378364411391605
2420000000.0 0.05271325613020499 -0.6133670915741122
2440000000.0 0.28969436267339344 0.5903254165347321
2460000000.0 -0.5671498035252028 -0.39566079235824453
2480000000.0 0.6776955082351097 0.23160450534686763
2500000000.0 -0.6113745677256498 -0.3996551501035193
2520000000.0 0.33760695825550624 0.6543767665405792
2540000000.0 0.17886731311087495 -0.711045567466448
2560000000.0 -0.680155878140056 0.24513571268440584
2580000000.0 0.4308959207567623 0.556309213950108
2600000000.0 0.31658590514516033 -0.5973506421263522
2620000000.0 -0.6166882930840183 -0.1838656035692847
2640000000.0 -0.6049624824147236 -0.0048954063643426105
2660000000.0 0.0973114781390893 0.5506592271331664
2680000000.0 0.4787498666971334 -0.18568025777259647
2700000000.0 -0.3016270391990213 -0.35803245385685
2720000000.0 -0.08733072711725853 0.4142955292863279
2740000000.0 0.36111134451109 -0.12750635748460246
2760000000.0 -0.33966602905531557 -0.06884922497445023
2780000000.0 0.29978770061050447 0.11108810869429937
2800000000.0 -0.2984601931668384 0.004609865147413397
2820000000.0 0.02422889719579609 -0.28440373426630344
2840000000.0 0.23409567897072164 0.14726281441248143
2860000000.0 -0.1923396168760754 0.19695259305176227
2880000000.0 -0.09460203571076214 -0.2601476017605286
2900000000.0 0.2161099865282137 0.1780622528816955
2920000000.0 0.011755229736922586 -0.28503521623770994
2940000000.0 -0.28927120505666054 0.029463893406184792
2960000000.0 -0.1464067624090667 0.256896702080315
2980000000.0 -0.1950207600185451 0.22826502292247605
3000000000.0 -0.3021990723895364 0.03077443679736416
3020000000.0 -0.08135869632095731 -0.2929154775143051
3040000000.0 0.2869285001644776 0.0908850595419736
3060000000.0 -0.29900776055542855 0.013539867315513696
3080000000.0 0.2890813585443164 -0.05429082640132495
3100000000.0 -0.2875844685371509 0.03806822322798155
3120000000.0 0.24031602889738143 -0.15150848017562063
3140000000.0 -0.13255236967828327 0.240005486895499
3160000000.0 0.004791145989910058 -0.2592273234587215
3180000000.0 -0.20366856431894287 0.13408868372310886
3200000000.0 -0.07585694561059725 -0.20722602200121518
3220000000.0 0.1931489966631642 -0.02754630442148764
3240000000.0 -0.09869029526413123 0.13290827995372867
3260000000.0 0.004251405413586179 -0.13429367628337416
3280000000.0 -0.08864631436994831 0.05456881146566103
3300000000.0 0.06376708958840858 0.037960593504196526
3320000000.0 0.013673248986713836 0.04556018905496752
3340000000.0 0.013900654458263972 0.02044853003071672
3360000000.0 0.006475060145781831 0.004133745543583305
3380000000.0 -0.0038165107091904424 -0.00912705065305286
3400000000.0 -0.021248400818296598 -0.006632693141786235
3420000000.0 0.03246609445953777 -0.007548343505959562
3440000000.0 -0.038568198539454125 0.01687329483629876
3460000000.0 0.016384131278654825 0.04718082503944403
3480000000.0 -0.05753825000298415 -0.020847640110515153
3500000000.0 -0.07411292378444635 -0.01538017116395668
3520000000.0 -0.08955242517003138 0.009595626326421105
3540000000.0 0.09867066440471238 -0.036172920872672855
3560000000.0 -0.11519302619153445 0.03204940425786809
3580000000.0 0.09365819420844033 -0.09626040097125
3600000000.0 0.13965401716763154 0.058160806638464034
3620000000.0 0.039088160751640344 0.15842563379290536
3640000000.0 -0.15234090095465844 0.08433493628722916
3660000000.0 -0.13721830495846082 -0.1223217375309626
3680000000.0 0.004708578815831643 -0.18928662750529893
3700000000.0 0.05491862830558908 -0.18228716257536953
3720000000.0 0.19020310837860932 -0.003953950686523184
3740000000.0 0.13388237232701108 0.12888007764468687
3760000000.0 -0.13572485381250532 -0.1186323458126726
3780000000.0 0.1491486283846903 0.08393080383825657
3800000000.0 0.0786298770503192 -0.1441368058539574
3820000000.0 -0.10706239404294027 -0.11485035057694502
3840000000.0 -0.1091214057385553 -0.10247729355551786
3860000000.0 0.14980230879459638 -0.004224211446341616
3880000000.0 0.15437320476406535 0.005525138487965889
3900000000.0 0.010957878141835463 -0.16146927791313354
3920000000.0 -0.04982597372305129 0.15794083849439472
3940000000.0 -0.08131187201201368 -0.14958177642306814
3960000000.0 0.10516370223051665 -0.13999735466422517
3980000000.0 0.010896480492110722 -0.17648651068574056
4000000000.0 0.013406742048294484 -0.17058198628251117
