!Created with skrf (http://scikit-rf.org).
# Hz S RI R 50.0 
!freq ReS11 ImS11
400000000.0 -0.6079422460802192 0.6223072590992906
420000000.0 0.5312051394750248 0.6895991254882698
440000000.0 0.4522554226538046 -0.7058324853274773
460000000.0 -0.5718849288362455 -0.5416525386306076
480000000.0 0.5697580333460365 -0.4109987276815437
500000000.0 -0.08709821025430248 -0.5696367519999544
520000000.0 -0.3880474344508643 0.3101579281846222
540000000.0 0.24967678827054585 -0.3217188577199043
560000000.0 -0.12946001489870296 -0.3385388556283244
580000000.0 0.002685036341348371 0.3399789733372003
600000000.0 0.3390210824527757 0.09532118129172419
620000000.0 -0.05136888567643844 0.3615229559159027
640000000.0 0.3747728650584016 0.10582467997237134
660000000.0 0.29293085818871595 -0.2794790413423328
680000000.0 0.4246432236866842 -0.051862321825009314
700000000.0 -0.11552961929208816 -0.41609373885682865
720000000.0 -0.31450577551093734 0.29345624873861925
740000000.0 0.06251761827506797 -0.40883711796718825
760000000.0 -0.3906549189657545 0.04980236754154963
780000000.0 0.3200565734024867 0.16533269821942662
800000000.0 -0.0636617165121049 -0.3170470760420971
820000000.0 -0.23952460852658106 0.1404634038749698
840000000.0 -0.040297177804231026 0.23611787552706662
860000000.0 -0.19590801479866407 -0.05084550849495457
880000000.0 0.1513631069316383 0.048139883529213695
900000000.0 0.07700067203759757 0.07762637249369561
920000000.0 -0.07147679834822722 -0.0029250821070679308
940000000.0 -0.028855152636189953 -0.029880104633374458
960000000.0 0.04633670685893438 -0.0016771356463744795
980000000.0 0.06357151498624054 -0.016580100439988293
1000000000.0 -0.018396351860084977 -0.08212663029889372
1020000000.0 -0.044378795619846895 -0.09406123304896553
1040000000.0 0.038243067253273304 -0.1117679566603419
1060000000.0 0.15146309892774384 0.020836387269735888
1080000000.0 -0.03817525610052871 0.1683968120002551
1100000000.0 -0.0016818934192402589 -0.19869125040699534
1120000000.0 0.07764498499258629 0.20742843919002693
1140000000.0 0.13700207137217776 -0.21280995917152556
1160000000.0 -0.1739056122141209 -0.2196234229054306
1180000000.0 -0.009142071507605501 -0.3151563743860013
1200000000.0 0.27410410511969796 -0.20254422348110213
1220000000.0 -0.16235200919907888 0.3280177551692085
1240000000.0 0.38442083889776457 -0.0375059776923886
1260000000.0 -0.2798318806702644 -0.29954932022284736
1280000000.0 -0.3787568628814341 0.19354214764624186
1300000000.0 0.39522250629528943 0.18776182471812444
1320000000.0 0.4395092123277108 -0.01741793008533813
1340000000.0 0.3999095849097548 -0.18156217651842657
1360000000.0 0.43473374210996496 -0.07827780280584032
1380000000.0 0.1606859362416731 -0.4070261987872943
1400000000.0 -0.39902465832626677 -0.16020725361289948
1420000000.0 0.0295925666322357 0.4101100747565497
1440000000.0 0.3824375623515842 -0.033223837882281816
1460000000.0 0.04148726909119368 -0.351489421293847
1480000000.0 -0.31737495966433743 -0.053454767179712814
1500000000.0 -0.1451368261330768 0.24882554412090802
1520000000.0 0.027929058312450395 0.2572585954797043
1540000000.0 -0.13999056408175117 -0.18101508255695628
1560000000.0 0.12770363897358392 -0.14708270047204777
1580000000.0 0.14532624498864688 0.08173284698150979
1600000000.0 0.11620061904372063 -0.06354161161697963
1620000000.0 0.0957297097107116 -0.04080288502041403
1640000000.0 0.029007790104983007 0.0727842505230424
1660000000.0 -0.04326156147186816 -0.03343144555363094
1680000000.0 0.019402487639923416 0.02969276794074318
1700000000.0 0.016257737587125252 0.014245143423795341
1720000000.0 -0.0048117001393001395 0.0059692657768678865
1740000000.0 0.015742262863060113 0.004167146777039103
1760000000.0 -0.033197544505697084 -0.002237861246968295
1780000000.0 -0.04285072866774988 0.04307289059327369
1800000000.0 0.08932836048547182 0.026079825671600648
1820000000.0 0.0943519930231442 0.08263288271713666
1840000000.0 -0.12829854825425577 -0.10294118232357823
1860000000.0 0.08993566179252678 0.18097833260480628
1880000000.0 -0.04448975805313168 -0.23847224146679977
1900000000.0 -0.008188737518591688 0.28575470488405164
1920000000.0 0.006284402212425441 -0.32065919012957783
1940000000.0 -0.24566439337937596 0.25693219510917786
1960000000.0 0.37999716791128163 -0.05121700496453117
1980000000.0 -0.30349388892147006 -0.2651259169288847
2000000000.0 -0.3785420287638299 0.18222019002680867
2020000000.0 0.17195905332568212 0.39310624375499215
2040000000.0 0.3854820962734295 0.2004873225871673
2060000000.0 0.34552427586458345 -0.265619140681175
2080000000.0 0.06818742769702307 -0.4286184962254264
2100000000.0 -0.19882503929356224 -0.3787932058364815
2120000000.0 -0.39696530856676765 -0.13362793979979787
2140000000.0 -0.40779861262254713 -0.003737040153637532
2160000000.0 -0.18407892318271246 -0.3483441862573372
2180000000.0 -0.3287231375424027 -0.19345293959449836
2200000000.0 -0.32797446005002845 0.17302664845556268
2220000000.0 -0.024580044082211355 0.35946959522534905
2240000000.0 0.32816660805253345 0.1415900735438386
2260000000.0 0.30859352901157133 -0.17974677712236636
2280000000.0 0.0206854270994614 -0.36249030776973495
2300000000.0 -0.3731654748440879 0.05991081901260615
2320000000.0 0.19733182468068844 0.34987854379664124
2340000000.0 0.2212101023533427 -0.37371769008869293
2360000000.0 -0.41824622030098974 0.22415722315966696
2380000000.0 0.4906234545622291 -0.17601855910360845
2400000000.0 -0.4492043140619999 0.34996664540723105
2420000000.0 0.19871908054695953 -0.5825841181270905
2440000000.0 0.20446501965978683 0.6244039852185856
2460000000.0 -0.5198223276009126 -0.4546008697422798
2480000000.0 0.6260972031013792 0.3455766302637195
2500000000.0 -0.5693072017410101 -0.45644667306783054
2520000000.0 0.3325259933347959 0.6558164964234567
2540000000.0 0.15700746689739276 -0.7156129773117913
2560000000.0 -0.6815043376242385 0.24287215844176238
2580000000.0 0.4838168910741428 0.5137281150200382
2600000000.0 0.3066215272417661 -0.6062669458076475
2620000000.0 -0.6358778801355023 -0.11974119540833011
2640000000.0 -0.6083477051579282 0.04146338880105992
2660000000.0 0.14651488088794118 0.5450865287408068
2680000000.0 0.45619110853091643 -0.24811816912803053
2700000000.0 -0.35378113715361703 -0.3165098256076177
2720000000.0 -0.06029158704447813 0.4255688747730177
2740000000.0 0.3743346884875117 -0.10507543747785987
2760000000.0 -0.3305236262465254 -0.12113447974982276
2780000000.0 0.2640404109789257 0.1894295570224517
2800000000.0 -0.27737276161677615 -0.12082961574783482
2820000000.0 0.17180691085478839 -0.23175291602531492
2840000000.0 0.1086563753646715 0.2571181336207553
2860000000.0 -0.27058831624711344 0.05704213588550339
2880000000.0 0.054043153185130324 -0.27133347142444425
2900000000.0 0.06614731219907453 0.2714691873834027
2920000000.0 0.09895642740422501 -0.265860385999424
2940000000.0 -0.28609130726636567 -0.04101897591321425
2960000000.0 -0.14615228588905657 0.2548409105564535
2980000000.0 -0.2007938650053006 0.22115262451114628
3000000000.0 -0.2961347894308841 0.05264800344759313
3020000000.0 -0.1545057422429354 -0.2595499277495884
3040000000.0 0.29762574020355576 0.030660506452577483
3060000000.0 -0.2810119490128514 0.09855432559667572
3080000000.0 0.2374143498256083 -0.172916174201805
3100000000.0 -0.22555864196187622 0.1807447727086806
3120000000.0 0.1377574864502719 -0.2473137412950511
3140000000.0 0.005633086503335173 0.2737551713824082
3160000000.0 -0.17872990319085363 -0.18883000664481253
3180000000.0 0.012126536553570553 0.2439403989861392
3200000000.0 -0.2101569291620566 -0.06839600325270749
3220000000.0 0.09530000062434821 -0.17165206094534824
3240000000.0 0.07420772262529146 0.14925044135121865
3260000000.0 -0.1283941025725243 -0.043782636491322385
3280000000.0 0.062050813849427115 0.08402413734909658
3300000000.0 0.03274113433730895 -0.06727987287202432
3320000000.0 0.03683161400580394 -0.030785284205697042
3340000000.0 -0.024949272114899244 0.0011680679828466043
3360000000.0 0.006527509429617216 -0.002352418294603775
3380000000.0 0.0013178051621841427 0.008379883052805997
3400000000.0 0.019142007941115365 -0.009378365001145014
3420000000.0 0.0052406922555831206 0.03177981232208121
3440000000.0 -0.03332610661753763 0.023756702604814363
3460000000.0 -0.022140925018509252 0.043319249746120704
3480000000.0 -0.009784570968804538 -0.05951654968725207
3500000000.0 -0.04828041487893709 -0.05731492474319725
3520000000.0 -0.08876217664896897 0.008146129496892376
3540000000.0 0.10436245631391837 -0.0011297757709554553
3560000000.0 -0.10445584561278277 0.05971369368327676
3580000000.0 0.07872037752845822 -0.10940233485459984
3600000000.0 0.10930863343858084 0.10511546603822872
3620000000.0 -0.01009878416676941 0.16288609394018308
3640000000.0 -0.16205207397372876 0.06339038811478223
3660000000.0 -0.13147454345810833 -0.12775722737316486
3680000000.0 0.018472627857685213 -0.1881598129802543
3700000000.0 0.09524569196338242 -0.1639294524629693
3720000000.0 0.18995072178585143 0.013773549467267035
3740000000.0 0.10497402729262116 0.15280136837366662
3760000000.0 -0.08696715044864879 -0.15835516260348914
3780000000.0 0.10320261098308743 0.13628292281908208
3800000000.0 0.12846695900864366 -0.10242576518271172
3820000000.0 -0.05226618535158567 -0.1481894023624115
3840000000.0 -0.04754532625687706 -0.14188635258465918
3860000000.0 0.14593365078552412 0.03204177005368545
3880000000.0 0.1483830332380594 0.04183553546150794
3900000000.0 0.04069795863267751 -0.1562158828492507
3920000000.0 -0.0806134239831598 0.14426768283381924
3940000000.0 -0.05270583958268588 -0.16104100605765342
3960000000.0 0.1523287500719294 -0.08450075933228383
3980000000.0 -0.0006795577767925471 -0.17536194466248187
4000000000.0 -0.02649557308972887 -0.16793908323927284
