!Created with skrf (http://scikit-rf.org).
# Hz S RI R 50.0 
!freq ReS11 ImS11
400000000.0 -0.5949071168531506 0.6337256744162197
420000000.0 0.5667112205745689 0.6596435667739033
440000000.0 0.3701057267075172 -0.7511108841985352
460000000.0 -0.5997279763296152 -0.5105534817092744
480000000.0 0.5560700178957546 -0.4289900824013544
500000000.0 -0.05634551185099985 -0.5735282464542903
520000000.0 -0.37785022390297646 0.32350693698187416
540000000.0 0.20815653520923322 -0.3491781075169901
560000000.0 -0.10036485395944816 -0.34760771807128477
580000000.0 -0.0014496095785081575 0.34147892624440895
600000000.0 0.35006837729228585 0.03213925704337593
620000000.0 -0.01662843964364823 0.3655492576662478
640000000.0 0.36309921340562157 0.1441922544340562
660000000.0 0.29258020776726773 -0.28139348821773613
680000000.0 0.4276360917559813 0.031660224223145066
700000000.0 -0.04020134191077785 -0.42972410395294947
720000000.0 -0.342955911686429 0.26014279600105267
740000000.0 0.13488807231809957 -0.39108583831455185
760000000.0 -0.39331466016010896 -0.003285347708809861
780000000.0 0.3219005884715939 0.159234206600842
800000000.0 -0.06475534719076234 -0.3159199579971488
820000000.0 -0.21718260096290432 0.17218726155834155
840000000.0 0.03583932368564991 0.23604099542302348
860000000.0 -0.2015427348276944 0.019007621145397353
880000000.0 0.1522565182117521 -0.04626457896482856
900000000.0 0.10793671299550335 0.024447820071890995
920000000.0 -0.07069134552149194 0.01943372118381798
940000000.0 0.03893002591603114 -0.01844103485298398
960000000.0 -0.019855938257573015 0.04165481774410349
980000000.0 0.06089100213086481 0.01933653337196862
1000000000.0 -0.01530649759312616 -0.08090930189936167
1020000000.0 -0.08407041746037903 -0.05832165885390926
1040000000.0 -0.052017683865135236 -0.10515794618198288
1060000000.0 0.12605600736934994 -0.08645150394474127
1080000000.0 0.07994419903862181 0.15456140114068032
1100000000.0 -0.07598263894977783 -0.18613243131687957
1120000000.0 0.12369294662196789 0.1869361953132107
1140000000.0 0.15839005014100138 -0.2012383237175748
1160000000.0 -0.12114035697140486 -0.2559424928065776
1180000000.0 0.09333048013135899 -0.30373707507234515
1200000000.0 0.33604769733887035 -0.06930793233227316
1220000000.0 -0.26597849749732605 0.25426764205439434
1240000000.0 0.359246495219461 0.14420162404191775
1260000000.0 -0.15567470148696952 -0.37938362071417203
1280000000.0 -0.41950250694872904 0.06905630510052571
1300000000.0 0.3271683072115874 0.2891898044796027
1320000000.0 0.43394004912059025 0.06302416913134781
1340000000.0 0.41431675770024007 -0.14175255680422694
1360000000.0 0.4307588041530632 -0.09099497970452097
1380000000.0 0.12369771560395885 -0.4184011792699059
1400000000.0 -0.416855976503648 -0.10232486674466013
1420000000.0 0.1137549597902483 0.3947076996274402
1440000000.0 0.3506051757018421 -0.15700488630736356
1460000000.0 -0.0798055694908905 -0.3452933196880256
1480000000.0 -0.3171522093810559 0.05971102302839204
1500000000.0 -0.029796585178849495 0.28852182873743076
1520000000.0 0.11354100358868098 0.23498054425927567
1540000000.0 -0.1813452588140801 -0.14384110830380026
1560000000.0 0.11993333350270503 -0.1566378254720328
1580000000.0 0.097726104683646 0.1383031868406726
1600000000.0 0.1327933855754647 -0.018433683960535973
1620000000.0 0.08339444877182711 0.06434721807869682
1640000000.0 -0.07426481712492844 0.026466163344165673
1660000000.0 0.04733832937242703 -0.02640972800963968
1680000000.0 -0.03449964396308892 0.0021620925018326653
1700000000.0 -0.004735122824491359 -0.0194380483744508
1720000000.0 0.003848670133661431 -0.005640802949892419
1740000000.0 0.00542844558878305 -0.016170319290219774
1760000000.0 0.02816469965961983 -0.018348060942578594
1780000000.0 -0.02665474989562675 -0.05464390661986833
1800000000.0 0.005860741287945257 0.09243157469888424
1820000000.0 0.021810555872040154 0.12280985710226745
1840000000.0 -0.07448759492621784 -0.14551144239434124
1860000000.0 0.027517584403185476 0.1990189273489102
1880000000.0 -0.016619099559579777 -0.24059004589466015
1900000000.0 0.0037398163255374737 0.28457084221396656
1920000000.0 -0.021252104831501778 -0.3191105191872117
1940000000.0 -0.19712094695031013 0.29487772458774547
1960000000.0 0.36774750519900956 -0.10840620662156172
1980000000.0 -0.3335485364643489 -0.2270216958313049
2000000000.0 -0.34291010458918575 0.2438185956613908
2020000000.0 0.23503182516296167 0.3603440907663941
2040000000.0 0.4119398872602754 0.14225739468924398
2060000000.0 0.33294160141539225 -0.28350216394259625
2080000000.0 0.08472396537377168 -0.4270609145554144
2100000000.0 -0.17239797025727052 -0.3927229168885276
2120000000.0 -0.36219103548255727 -0.21377990025116195
2140000000.0 -0.4043660842919702 -0.059437697836377944
2160000000.0 -0.14239601280593522 -0.3683545979801348
2180000000.0 -0.2952945521396327 -0.24198570869618508
2200000000.0 -0.3509988403239604 0.11928261880898482
2220000000.0 -0.10409404042469773 0.3452570941430125
2240000000.0 0.30960063923549636 0.17701010252165233
2260000000.0 0.3340801443770783 -0.12419231057968573
2280000000.0 0.06693633416822335 -0.3559162335651019
2300000000.0 -0.3712115939876115 0.06467169169373475
2320000000.0 0.21105542218031342 0.3404132599694823
2340000000.0 0.21389126541472672 -0.37663095385310147
2360000000.0 -0.39444564281253963 0.26212301169180574
2380000000.0 0.46144556683011945 -0.24184190395414795
2400000000.0 -0.41289551878786784 0.3915528491586372
2420000000.0 0.13149757420632321 -0.6014450364676417
2440000000.0 0.2461608438116552 0.6095631141000408
2460000000.0 -0.5534813695107123 -0.41417566854152543
2480000000.0 0.6566700537728473 0.2853740115086599
2500000000.0 -0.5839344628698121 -0.43910400701369906
2520000000.0 0.34970529853761995 0.6484687341728785
2540000000.0 0.18954269816437175 -0.708835829473177
2560000000.0 -0.6862964427809977 0.23104493489375033
2580000000.0 0.40085460847313864 0.580975575399651
2600000000.0 0.39321081371438865 -0.5538225740710091
2620000000.0 -0.6233092806247107 -0.1737336908014573
2640000000.0 -0.6030830429665003 -0.08580010080186608
2660000000.0 0.09157624131175045 0.5557050348075778
2680000000.0 0.4772932094314844 -0.20166675343086404
2700000000.0 -0.3219133296462868 -0.34656309582489137
2720000000.0 -0.07733846275025569 0.4211640581137481
2740000000.0 0.3804556505249845 -0.07003800026648582
2760000000.0 -0.33108369466251913 -0.11421198819450892
2780000000.0 0.2756542944972502 0.16921804606360552
2800000000.0 -0.2903622336113763 -0.08104138934720684
2820000000.0 0.1266111570239528 -0.25839561556251317
2840000000.0 0.1840063490557121 0.20925641904513814
2860000000.0 -0.24355613728228004 0.1301833209398668
2880000000.0 0.008051143784395224 -0.27765744193872155
2900000000.0 0.12137302313915356 0.2524568376525059
2920000000.0 0.07325545543101715 -0.2749075150595955
2940000000.0 -0.2893867509372722 -0.022846548027157732
2960000000.0 -0.1960803540979675 0.22064246828103024
2980000000.0 -0.20886045753832272 0.21519944044209513
3000000000.0 -0.30028472932412836 -0.03509438003003895
3020000000.0 -0.08653687887824263 -0.2901358088027397
3040000000.0 0.2659588879614708 0.13916141740754387
3060000000.0 -0.29625751426338587 0.03412423542283025
3080000000.0 0.27238377781876993 -0.10881479460631209
3100000000.0 -0.27565280497167244 0.08560038345139648
3120000000.0 0.23028097695022665 -0.16420615376296016
3140000000.0 -0.0535073356429508 0.26800491028398093
3160000000.0 -0.11721238480239328 -0.23104583470182977
3180000000.0 -0.050611940281869994 0.23842854301051392
3200000000.0 -0.18797992970216812 -0.11397947002684879
3220000000.0 0.12362008730906852 -0.15054934504161627
3240000000.0 0.0618647986800289 0.15334336844616678
3260000000.0 -0.12688237170085648 -0.04518677117117063
3280000000.0 0.02804712804823816 0.09983920539304825
3300000000.0 0.024851787885977666 -0.0700833581908963
3320000000.0 0.0005262954111828736 -0.04809943610540257
3340000000.0 -0.02426863864959882 0.00787392751489518
3360000000.0 0.0005209218846202591 0.007776775094480412
3380000000.0 -0.00013317586121041757 -0.007500555739752468
3400000000.0 0.00793641942303428 -0.01847228334143982
3420000000.0 -0.007536580158230199 0.030456867726855925
3440000000.0 -0.031145396790785485 -0.025062652518408328
3460000000.0 -0.03603065564438783 0.03243986324054657
3480000000.0 0.03169938128618107 -0.05103794246759805
3500000000.0 -0.01509872927143572 -0.07241787704244143
3520000000.0 -0.0803771422867248 -0.03738993903982777
3540000000.0 0.0956166407253322 0.04029034228702157
3560000000.0 -0.11674751559924504 -0.02199882191792973
3580000000.0 0.11108286957091044 -0.07502591661097538
3600000000.0 0.11250193038852196 0.099559228880224
3620000000.0 0.01691219739790484 0.16130142352595847
3640000000.0 -0.1681443053851066 0.03772634359755001
3660000000.0 -0.14335420153970332 -0.1126388561984996
3680000000.0 0.021586542198044706 -0.1869425818957282
3700000000.0 0.06039935349444006 -0.17937343669792724
3720000000.0 0.18750526198227235 -0.027904014510448206
3740000000.0 0.1511071193834842 0.10755573641692975
3760000000.0 -0.12326932376231442 -0.13141561038438918
3780000000.0 0.12314169684788077 0.1186346187124536
3800000000.0 0.09199486270490347 -0.13554694650717844
3820000000.0 -0.11954695876608731 -0.10092902141520498
3840000000.0 -0.10985023875874936 -0.10073261496176945
3860000000.0 0.14848748241912846 -0.011895054523459715
3880000000.0 0.1535041943173477 0.008734593410612454
3900000000.0 0.027926231327864103 -0.1587751656914842
3920000000.0 -0.069776317051003 0.14980900106800482
3940000000.0 -0.06273602875951977 -0.1574934658258253
3960000000.0 0.12773493600033003 -0.11886978153185469
3980000000.0 -0.05250176208984219 -0.1670841301000601
4000000000.0 -0.08990628873194986 -0.14437743502639103
