!Created with skrf (http://scikit-rf.org).
# Hz S RI R 50.0 
!freq ReS11 ImS11
400000000.0 -0.6048907018180608 0.62385878620757
420000000.0 0.5110253622614719 0.7047671221575904
440000000.0 0.42650105110459735 -0.7207240287315595
460000000.0 -0.6000515828053733 -0.5097342375381857
480000000.0 0.5680498530271001 -0.41309512208995997
500000000.0 -0.10185596164495121 -0.5672496015870921
520000000.0 -0.38997671692386254 0.30761935390698847
540000000.0 0.2495064735035424 -0.3218072758122364
560000000.0 -0.11866023134365358 -0.34218654800893783
580000000.0 0.00015738301196556098 0.33998277406613514
600000000.0 0.3430534968342169 0.07710291636235768
620000000.0 -0.030566088453011737 0.3640178993494174
640000000.0 0.3805640363074871 0.08349652480644211
660000000.0 0.2825723950303538 -0.2906880191590765
680000000.0 0.4280652075573222 -0.016882050192752848
700000000.0 -0.07965164799592286 -0.4247378158452836
720000000.0 -0.3384890768856927 0.2654403677852338
740000000.0 0.09568394186532723 -0.4029104372711358
760000000.0 -0.3922385932838155 0.04092673989180255
780000000.0 0.3122842686164683 0.17984118958699413
800000000.0 -0.04617634213701615 -0.31990747465309266
820000000.0 -0.2524656410746953 0.11525124260979946
840000000.0 -0.011002517673245771 0.23892074618468126
860000000.0 -0.20238619356478219 0.002536453085227332
880000000.0 0.15898796749623464 -0.005327057348424265
900000000.0 0.09278133315658904 0.05934513947260998
920000000.0 -0.07083651673112583 0.013553915434294732
940000000.0 -0.03335745814761128 -0.02546773973525831
960000000.0 0.04550605154807245 -0.010461729161813385
980000000.0 0.06464952622847497 -0.013315167547018879
1000000000.0 0.0004595779648938874 -0.08426473725142777
1020000000.0 -0.028839929209009203 -0.09962830608380951
1040000000.0 0.029042362649571725 -0.11411018387585946
1060000000.0 0.15300598698744047 9.603666550031149e-05
1080000000.0 -0.006065488294387366 0.17285716779217933
1100000000.0 -0.01942748563925075 -0.19810694796041384
1120000000.0 0.09510292575800718 0.20016293222587028
1140000000.0 0.13459735020543073 -0.21454591227436312
1160000000.0 -0.17168099570906734 -0.2220778207035402
1180000000.0 0.0022614006219122368 -0.31579125312676126
1200000000.0 0.28523932759045517 -0.18730737616808735
1220000000.0 -0.1788275344515216 0.3192480809478339
1240000000.0 0.3856493115371269 -0.021215916764544276
1260000000.0 -0.27346178681739347 -0.30460153748815083
1280000000.0 -0.37717851599520885 0.19618094566879002
1300000000.0 0.38446312322430454 0.2081016795881744
1320000000.0 0.4389186208980755 -0.02277253778670517
1340000000.0 0.39388293101763616 -0.1942010933948392
1360000000.0 0.43083160141109644 -0.0976093213661218
1380000000.0 0.14543921739619883 -0.41270891883440686
1400000000.0 -0.4008643402735936 -0.1561780971852391
1420000000.0 0.026719885917286 0.4105319485377588
1440000000.0 0.3825807851544877 -0.03233803128669805
1460000000.0 0.0487327891094615 -0.35058847869765886
1480000000.0 -0.31768208315693747 -0.04778859695361158
1500000000.0 -0.14534202567056284 0.24869407249832284
1520000000.0 0.011610157401070301 0.2586891443021837
1540000000.0 -0.1412180543901989 -0.1802903029559318
1560000000.0 0.13410558538291345 -0.14085986289878777
1580000000.0 0.12156246696968967 0.11325527420382564
1600000000.0 0.09010623290546668 -0.0963604832133635
1620000000.0 0.09140250000203917 -0.049172239472814225
1640000000.0 0.04624454846997203 0.06297294319209353
1660000000.0 -0.05453074906904691 -0.005735384844161135
1680000000.0 0.035668114256824986 -0.004170906640632313
1700000000.0 0.016127185651517762 0.014936247283943079
1720000000.0 -0.001417743332823339 0.007578197866415658
1740000000.0 -0.012977212588053287 -0.01024273790002001
1760000000.0 -0.02739254380104773 0.017825701230067395
1780000000.0 -0.023491734876026755 0.056632554985491274
1800000000.0 0.09267058750571561 0.007866037728423777
1820000000.0 0.11331000614362849 0.0545200813719761
1840000000.0 -0.14508268561884197 -0.07871301458240197
1860000000.0 0.09865497177932832 0.17699555017072763
1880000000.0 -0.04831904843036327 -0.238371720327071
1900000000.0 -0.026627694828563583 0.2851796773809959
1920000000.0 0.02403563872525648 -0.32024002663179274
1940000000.0 -0.2567426918742326 0.2460054009417179
1960000000.0 0.3816499269513135 -0.03512642752772061
1980000000.0 -0.2884404085518052 -0.28073216395575057
2000000000.0 -0.368925268677751 0.19981502846081775
2020000000.0 0.1730585980376528 0.3922081199251587
2040000000.0 0.38138613531859744 0.2077436723442506
2060000000.0 0.34833310099815495 -0.26205308337255867
2080000000.0 0.11692154492328954 -0.417735528085839
2100000000.0 -0.19206106467756118 -0.3814284649932119
2120000000.0 -0.39753134279660335 -0.13024157479666515
2140000000.0 -0.40645957000543537 0.014954423734076388
2160000000.0 -0.22758444999386618 -0.3209042896063912
2180000000.0 -0.3532523863379704 -0.14197237269944302
2200000000.0 -0.30341351877907907 0.21215511289564906
2220000000.0 0.020480523777010772 0.3592415505055054
2240000000.0 0.3381739660898749 0.11422800053059068
2260000000.0 0.3036905074002106 -0.18748825635905214
2280000000.0 -0.0013934313217347017 -0.3628400923840516
2300000000.0 -0.36471038716997856 0.09893192181491552
2320000000.0 0.20259589207578024 0.3468495749950834
2340000000.0 0.21360245363302657 -0.37796773046013643
2360000000.0 -0.40571604998344735 0.24563089409950697
2380000000.0 0.48108302079757015 -0.2004883219063931
2400000000.0 -0.4401451958779568 0.36103089858596893
2420000000.0 0.18674874139153685 -0.5866442623341787
2440000000.0 0.19242233799359526 0.6284264611120031
2460000000.0 -0.5356648698183776 -0.4356698893534499
2480000000.0 0.6524273097025352 0.292242857886055
2500000000.0 -0.5654206290942311 -0.46075729063461185
2520000000.0 0.3376307464572604 0.6531047336408089
2540000000.0 0.16530901030391446 -0.713685435477038
2560000000.0 -0.671016111811876 0.26803695766560615
2580000000.0 0.5036036526658332 0.4929968437512257
2600000000.0 0.32040658194315685 -0.597652876932176
2620000000.0 -0.6459871312191777 -0.010730073270467464
2640000000.0 -0.6072572372692355 0.037922907778670446
2660000000.0 0.22917715212847128 0.5148508987162886
2680000000.0 0.40668297413183924 -0.32199137154716967
2700000000.0 -0.3887527456998363 -0.271690559181472
2720000000.0 -0.044037618643461465 0.42680856891334706
2740000000.0 0.35556964822115245 -0.1557772829543906
2760000000.0 -0.3377318412675358 -0.09778205981022474
2780000000.0 0.27325618026620613 0.17506861626528328
2800000000.0 -0.2834671961907821 -0.10562062020525011
2820000000.0 0.16576796122858867 -0.23587534226958728
2840000000.0 0.12886898792688287 0.2473158882141504
2860000000.0 -0.2674411130318749 0.06784295332057017
2880000000.0 0.051127968908520185 -0.27191474526353077
2900000000.0 0.09811355705166963 0.26121332357841814
2920000000.0 0.08820754723616744 -0.2689895532989537
2940000000.0 -0.28853756355885624 -0.0015944889750368653
2960000000.0 -0.14842864395377572 0.25248424497219674
2980000000.0 -0.18097143620812714 0.23705780887043007
3000000000.0 -0.29493831196701165 0.061671239355134376
3020000000.0 -0.1969883231719293 -0.2297240964043481
3040000000.0 0.30007527983254756 -0.009789340010339584
3060000000.0 -0.28196903664736706 0.09695748150828083
3080000000.0 0.23957270990457452 -0.16948327306550978
3100000000.0 -0.21839252748279311 0.1887030588359212
3120000000.0 0.15029820976204228 -0.23960329663401558
3140000000.0 0.008470221440883446 0.2735010008348159
3160000000.0 -0.1853550942985227 -0.18263984415791765
3180000000.0 -0.051298810896641484 0.23903560440976782
3200000000.0 -0.1941700101793917 -0.10670117092507105
3220000000.0 0.14332777809401043 -0.13323191391713524
3240000000.0 0.01733806063007168 0.16600437594185344
3260000000.0 -0.11884803671588592 -0.0647181897113428
3280000000.0 0.01101147367313926 0.10380876727108142
3300000000.0 0.07266730167166914 -0.014713151500365928
3320000000.0 0.04778572042143779 -0.008184023969014461
3340000000.0 0.010346556124863035 -0.022819356337237293
3360000000.0 0.006644103980160195 0.0031771327095226573
3380000000.0 -0.005104897167825574 -0.007438108106035949
3400000000.0 0.00610948384093286 -0.021597532266034784
3420000000.0 -0.006936286046178397 0.0321920516483061
3440000000.0 -0.04159832685159687 0.0015183730524926141
3460000000.0 0.00847460985766372 0.049331872471321744
3480000000.0 -0.05496547335126145 -0.028008551683474492
3500000000.0 -0.07087209879986235 -0.027016155348664524
3520000000.0 -0.08990181115146705 0.0035255158393073323
3540000000.0 0.10376980913904194 0.016896432639981727
3560000000.0 -0.11907193516040396 0.015249084149923594
3580000000.0 0.11443423176311525 -0.0715165376554556
3600000000.0 0.12655844392984672 0.08376335912020445
3620000000.0 -0.005472334277071562 0.16344677487216003
3640000000.0 -0.16688364959105803 0.05027786293243672
3660000000.0 -0.14004541629126532 -0.12003244292805125
3680000000.0 0.01922731474505896 -0.18914058705756664
3700000000.0 0.10285165720057875 -0.16120006736052822
3720000000.0 0.18850942728502634 0.029943609372271477
3740000000.0 0.12816570953425777 0.13437038627214765
3760000000.0 -0.1026326478579888 -0.1490292263817285
3780000000.0 0.11425014265121425 0.12769948642182843
3800000000.0 0.09253293302465845 -0.1357382177692649
3820000000.0 -0.10545784091836712 -0.11610800085016904
3840000000.0 -0.10213172474966135 -0.10900896516616689
3860000000.0 0.14705310876602926 0.02472843508281241
3880000000.0 0.15068815788691545 0.03308804031591898
3900000000.0 0.054648533632199035 -0.15222186642756563
3920000000.0 -0.07503215402167027 0.14718539366162406
3940000000.0 -0.08060004780732967 -0.14920153779954998
3960000000.0 0.14269260727968963 -0.10085964419774608
3980000000.0 -0.014330659200847352 -0.17573482682454575
4000000000.0 0.017631766458264937 -0.17062892979243785
