!Created with skrf (http://scikit-rf.org).
# Hz S RI R 50.0 
!freq ReS11 ImS11
400000000.0 -0.5966169962641863 0.6332774628596654
420000000.0 0.5204998989518953 0.6971580695662581
440000000.0 0.4060318125675719 -0.731568672999496
460000000.0 -0.6132715825465396 -0.49313872739772996
480000000.0 0.5507688387716382 -0.43555573224272665
500000000.0 -0.10950541370399386 -0.5651792249596306
520000000.0 -0.38952099506030047 0.3079644782157485
540000000.0 0.24657096061869732 -0.324689671360873
560000000.0 -0.1557109657901372 -0.3269351654820866
580000000.0 -0.03698674018476144 0.33835835498437344
600000000.0 0.3431155225155221 0.08410063571320515
620000000.0 -0.05441824432061721 0.36249630217681045
640000000.0 0.36154022140544795 0.14746335797174803
660000000.0 0.3172284802944383 -0.2521042339552571
680000000.0 0.4272955951607596 0.023331552864261036
700000000.0 -0.05789455552343011 -0.4281698643050837
720000000.0 -0.35048854319335493 0.24900285150159013
740000000.0 0.12837148101961915 -0.39240579615254306
760000000.0 -0.3928953359350087 0.008517218556685701
780000000.0 0.32545398664852315 0.1520153894933895
800000000.0 -0.09335564971443962 -0.3089219747898827
820000000.0 -0.221558203261177 0.167382824522061
840000000.0 0.009385963392757005 0.23940674546368684
860000000.0 -0.20032118059295062 0.030903949230987975
880000000.0 0.15361820967663534 -0.043481023664158173
900000000.0 0.09533275403021974 0.05744557803063781
920000000.0 -0.06041320679697143 -0.04233296133009982
940000000.0 0.03630931005639012 0.022379875327105964
960000000.0 -0.016119044143131638 0.04273190000035727
980000000.0 0.06451798706359295 -0.0006023774522821003
1000000000.0 -0.026949137892054803 -0.0784259968474907
1020000000.0 -0.08119927113173392 -0.06300568423676456
1040000000.0 -0.036319269052966625 -0.11172995258445188
1060000000.0 0.13560721279515214 -0.07136316544712032
1080000000.0 0.05723167628483147 0.16463876491759644
1100000000.0 -0.06372197864608982 -0.19042284932610096
1120000000.0 0.10157873891348303 0.1996460833686883
1140000000.0 0.16545983750203003 -0.19525217014643073
1160000000.0 -0.12584705690207 -0.2536995546817179
1180000000.0 0.11708314730200847 -0.2954668531882068
1200000000.0 0.3389028839329799 -0.05292986497180239
1220000000.0 -0.29562051343272805 0.21820373536612664
1240000000.0 0.36555171630596084 0.12566801352469764
1260000000.0 -0.13628594811662817 -0.3860057909266302
1280000000.0 -0.418053337974128 0.07517776078632357
1300000000.0 0.32341733461262107 0.2929424745800302
1320000000.0 0.4364405968909686 0.04106227327354954
1340000000.0 0.41114263892843694 -0.15049727459833337
1360000000.0 0.429138653202002 -0.09751742467233396
1380000000.0 0.10087612214708722 -0.4244984922149411
1400000000.0 -0.4239345591085585 -0.0671702755621939
1420000000.0 0.14582430389494236 0.3843243746144648
1440000000.0 0.35903221743760594 -0.1379302484844268
1460000000.0 -0.05015482983152706 -0.351462471529762
1480000000.0 -0.322057676322862 0.024866873200817822
1500000000.0 -0.045142406057217824 0.2867263030696661
1520000000.0 0.08742353125627378 0.24612297361391433
1540000000.0 -0.1683617083211763 -0.1592417630721576
1560000000.0 0.14916524695691263 -0.12903105156256098
1580000000.0 0.09305554706587411 0.1410049392083552
1600000000.0 0.13157084270954184 0.025091384637665283
1620000000.0 0.0779033637402468 0.07004966401148481
1640000000.0 -0.07522843703212231 0.021571327058982605
1660000000.0 0.04496567010257991 -0.029964802777582972
1680000000.0 -0.03397285822883399 -0.002417283110450671
1700000000.0 0.00847908230493687 -0.018355894689081994
1720000000.0 -0.006538257534879535 0.0024883031638509388
1740000000.0 0.016567673644198457 0.00548156914291221
1760000000.0 0.025017773066521917 0.022405231960262763
1780000000.0 -0.022268531415182726 -0.05693980250459533
1800000000.0 0.00018740933396132106 0.09295406900607114
1820000000.0 0.006342816152735937 0.12443627475248106
1840000000.0 -0.06569844347962842 -0.14978389491660546
1860000000.0 0.012977576127967155 0.20082555873361221
1880000000.0 -0.0002298065400505535 -0.24133417452109968
1900000000.0 -0.026144140812245455 0.28341531934879993
1920000000.0 -0.008154729398253036 -0.31957676986714406
1940000000.0 -0.21772244288551473 0.2795052007770646
1960000000.0 0.36488220454226444 -0.11574974331452884
1980000000.0 -0.35273792889317546 -0.19479386523493816
2000000000.0 -0.30445975876442094 0.28936092394850915
2020000000.0 0.26069211835705874 0.34164581206804456
2040000000.0 0.4217137407727671 0.11110816243171732
2060000000.0 0.3181198861207214 -0.30107478214095007
2080000000.0 0.015064587192860883 -0.4361089115032201
2100000000.0 -0.20659886996310917 -0.3775687248058523
2120000000.0 -0.3580686944737334 -0.22276141887292533
2140000000.0 -0.4028914115078518 -0.0762376774265372
2160000000.0 -0.1212343999491929 -0.3777265311976772
2180000000.0 -0.257951135714162 -0.28425849087113425
2200000000.0 -0.3581900265153822 0.10113145702435988
2220000000.0 -0.1693598604494017 0.31977954577448836
2240000000.0 0.2701673266992981 0.23425422993390402
2260000000.0 0.35500523100213893 -0.03568741841846152
2280000000.0 0.12132755098273305 -0.34146427608275665
2300000000.0 -0.3768115699743476 -0.01669172302389708
2320000000.0 0.1280052518374375 0.37955816902124706
2340000000.0 0.2659920227153837 -0.34163276654013225
2360000000.0 -0.42286272054069934 0.21244389800818345
2380000000.0 0.48722074913721714 -0.18352600938425126
2400000000.0 -0.4404539028400028 0.36008207755818095
2420000000.0 0.15537805096959964 -0.5959146234404508
2440000000.0 0.20982955186997201 0.6237467044866176
2460000000.0 -0.5357641645565341 -0.43798225104437805
2480000000.0 0.6578426156040245 0.28546905311711573
2500000000.0 -0.5381263586325453 -0.49635429022137606
2520000000.0 0.25395757152154813 0.6931804357319448
2540000000.0 0.26146388057946995 -0.6875395667373778
2560000000.0 -0.7118066916389191 0.14082763764572814
2580000000.0 0.40356833333142156 0.5812495862433975
2600000000.0 0.42144182442362355 -0.5353716914325525
2620000000.0 -0.6141901327623526 -0.20795893371024501
2640000000.0 -0.6015294721381228 -0.10558780927925815
2660000000.0 0.05233273200761393 0.5625869115127549
2680000000.0 0.47654750015437874 -0.2075749471688907
2700000000.0 -0.3061764748243953 -0.3624182889731451
2720000000.0 -0.09419309052568084 0.41875368089804715
2740000000.0 0.381296690382069 -0.07290976908600684
2760000000.0 -0.332502709012918 -0.1151424917462481
2780000000.0 0.2792079512960756 0.16515426398332128
2800000000.0 -0.29746381394741456 -0.056601253187732396
2820000000.0 0.09437309897742309 -0.2729496036714157
2840000000.0 0.17165830843208738 0.2213918223562102
2860000000.0 -0.2543252803984071 0.11083144481975142
2880000000.0 0.0005439538175144116 -0.2783951354378906
2900000000.0 0.14679397266284921 0.23939051916650056
2920000000.0 0.05970083785157277 -0.2791589922101799
2940000000.0 -0.2911725910843579 0.00027667873475400935
2960000000.0 -0.2009719290468758 0.2172412811565302
2980000000.0 -0.2181652355812965 0.20727261983760412
3000000000.0 -0.3000822680289771 -0.037762095128724235
3020000000.0 -0.08453066376226438 -0.2905662594713963
3040000000.0 0.29044835233524774 0.0740437045398927
3060000000.0 -0.298538456931022 0.008328343489786595
3080000000.0 0.27087959437477493 -0.1136579249393633
3100000000.0 -0.2702780669408354 0.10089570681041593
3120000000.0 0.210960126784831 -0.18736569753958293
3140000000.0 -0.02198777882751446 0.27211800876404213
3160000000.0 -0.16012780108699726 -0.20386913970429973
3180000000.0 -0.02504961330268008 0.24288544917530488
3200000000.0 -0.2034311501453566 -0.08599145973259119
3220000000.0 0.11137998065596355 -0.1603373291150929
3240000000.0 0.04095843700927781 0.16118260214560204
3260000000.0 -0.12397850022758143 -0.052824343509173394
3280000000.0 0.028938705372937735 0.09923095234440471
3300000000.0 0.05599655313844224 -0.04795723485308568
3320000000.0 -0.009480686278456206 -0.04640235718113161
3340000000.0 -0.015281083594714822 0.018601978997532156
3360000000.0 0.0006196714067984453 -0.006211036752092351
3380000000.0 -0.004860362241323002 -0.007641893993231693
3400000000.0 -0.022142487238828713 0.0038173925459277077
3420000000.0 -0.02788014557259603 -0.019119960577793693
3440000000.0 0.029839322463554665 -0.030114781092377155
3460000000.0 -0.04958888583152679 0.010434780705793647
3480000000.0 0.051870510239417106 -0.03492476605594882
3500000000.0 -0.0005275587446214692 -0.07631310735740152
3520000000.0 -0.07390761052730901 -0.052787185639332865
3540000000.0 0.08539760257438496 0.06316339455727568
3560000000.0 -0.10971398584869083 -0.05189644563229604
3580000000.0 0.1339242339806967 -0.023968404190270194
3600000000.0 0.04586825086993267 0.1453090935721645
3620000000.0 -0.09558059661921087 0.1335379873367184
3640000000.0 -0.17065124869163636 -0.03663257615743379
3660000000.0 -0.06159943906542023 -0.17299471883633064
3680000000.0 0.1326517724956916 -0.13444540451717832
3700000000.0 0.16292936281090037 -0.09782011931899415
3720000000.0 0.1450311235532621 0.12288318503914722
3740000000.0 0.05788731451236079 0.17561203176334564
3760000000.0 -0.04505985003178024 -0.1737983804956152
3780000000.0 0.06955401995769075 0.1544594689615357
3800000000.0 0.12644715275251162 -0.10176240298912645
3820000000.0 -0.050971550834617844 -0.14630107728966082
3840000000.0 -0.09506230644501525 -0.11216582828019675
3860000000.0 0.1468997362089194 0.008406918362147086
3880000000.0 0.14539457389801336 0.042996219997064926
3900000000.0 0.047992071846428806 -0.1521518819362186
3920000000.0 -0.07789652351947726 0.14369126168408436
3940000000.0 -0.02573470990788992 -0.16638671671972521
3960000000.0 0.12087914343533179 -0.12335845563941919
3980000000.0 -0.04313451946044375 -0.1690896845475477
4000000000.0 -0.060944746020761185 -0.1581304935998065
