!Created with skrf (http://scikit-rf.org).
# Hz S RI R 50.0 
!freq ReS11 ImS11
400000000.0 -0.6033542907205136 0.6261193896998144
420000000.0 0.5400179299338871 0.6829420245773037
440000000.0 0.4086064422769607 -0.7316630246859064
460000000.0 -0.5737662101369042 -0.5392405139115889
480000000.0 0.5858601671913488 -0.3880814439436399
500000000.0 -0.11336500471782376 -0.5647578995664055
520000000.0 -0.3860322221077247 0.31261775357744176
540000000.0 0.2456200663286505 -0.32516307629512664
560000000.0 -0.12589154276850312 -0.3400169488925938
580000000.0 -0.0023472159925622834 0.33997543436038474
600000000.0 0.3365215213875987 0.10313160633755195
620000000.0 -0.001035540352290066 0.3650816139733012
640000000.0 0.37965539772073775 0.08610738017824308
660000000.0 0.27323019818316796 -0.29843322275218415
680000000.0 0.4258042206755325 -0.04512203746605378
700000000.0 -0.10865506249503247 -0.4178744623914573
720000000.0 -0.2990564201985307 0.309367572489098
740000000.0 0.062098349051359435 -0.4087286826368823
760000000.0 -0.3901556463029086 0.05420392026803575
780000000.0 0.31852026075650564 0.16835128501696536
800000000.0 -0.05472968877252021 -0.3187555348599023
820000000.0 -0.24497647327199618 0.13112331906766417
840000000.0 -0.052672535155420426 0.23367374369479113
860000000.0 -0.19869996704584744 -0.038299906752111736
880000000.0 0.1550140764695281 0.03519917808744726
900000000.0 0.0871003567736282 0.06647966454421399
920000000.0 -0.07138218180312907 0.009810045003441663
940000000.0 -0.020436070511272178 -0.03642239497649483
960000000.0 0.043748082143398474 0.014877736309136485
980000000.0 0.06520435962653671 -0.006822046891980371
1000000000.0 -0.020909520488762486 -0.08141117880087262
1020000000.0 -0.041289956969437235 -0.09542200421897072
1040000000.0 0.03987183724970449 -0.1110635015823928
1060000000.0 0.15094437783904782 0.02358695454754373
1080000000.0 -0.025513820412009978 0.17070538312785896
1100000000.0 -0.02274127724497858 -0.1972434943155825
1120000000.0 0.07993367460380897 0.20648848590958588
1140000000.0 0.12184917910658095 -0.2219666011889566
1160000000.0 -0.1858217919885246 -0.20986223395978515
1180000000.0 -0.030103560775612815 -0.3140078103304558
1200000000.0 0.2600538982499616 -0.22061516848636795
1220000000.0 -0.1405403056607265 0.33824474250249614
1240000000.0 0.3831189916104757 -0.051160069986079096
1260000000.0 -0.27872858028571207 -0.30070494517025065
1280000000.0 -0.37275104247883156 0.20529732148107985
1300000000.0 0.3877088065702725 0.20279519498631576
1320000000.0 0.43955392796035214 -0.022090053868853144
1340000000.0 0.4001986028479508 -0.18119127979387573
1360000000.0 0.43494155399427314 -0.07720677493503642
1380000000.0 0.16274665958906775 -0.4062118798103375
1400000000.0 -0.395300635616781 -0.1691377391502379
1420000000.0 0.03815851025391866 0.4091468201326445
1440000000.0 0.38219660973287156 -0.032652706841188046
1460000000.0 0.037412472932324047 -0.3513883126589904
1480000000.0 -0.32069907414527754 -0.01727251743016095
1500000000.0 -0.13863325205372473 0.2520193431130937
1520000000.0 0.04596267046435521 0.2540683637509379
1540000000.0 -0.15492437803015444 -0.16773880590490395
1560000000.0 0.10679101523332825 -0.16257189284274343
1580000000.0 0.15153013859799183 0.06889925444040773
1600000000.0 0.08481311719679868 -0.10160932922238658
1620000000.0 0.07129746193605914 -0.07583945568932231
1640000000.0 0.060562562867950614 0.05007512157442152
1660000000.0 -0.052195898621141275 -0.017453917245146
1680000000.0 0.030414038061968535 0.019176838661395273
1700000000.0 0.017783305435914887 -0.013793440816907001
1720000000.0 0.006106578452949603 -0.005279299586808321
1740000000.0 -0.009872006547034608 -0.012961878094336642
1760000000.0 -0.01599450385934639 0.029189637749934404
1780000000.0 -0.009275163550436763 0.060151559494302634
1800000000.0 0.09311407062046612 -0.000665932864667761
1820000000.0 0.11494919637799357 0.051676594686999706
1840000000.0 -0.14183545718478108 -0.08442158082850418
1860000000.0 0.10203609166694802 0.17492025669624336
1880000000.0 -0.046767902972525296 -0.23854441374845695
1900000000.0 -0.009570949207474906 0.2864435769210919
1920000000.0 0.016985941611794626 -0.32072096176710746
1940000000.0 -0.2529514477592729 0.2503077666629269
1960000000.0 0.38314153139223844 -0.019082150639659158
1980000000.0 -0.28018911518860773 -0.2898047059459304
2000000000.0 -0.3832371132595608 0.1711959187701719
2020000000.0 0.18616396402783156 0.38582216956025966
2040000000.0 0.3955350962282027 0.17775917640410452
2060000000.0 0.33342150839988943 -0.2792271964999302
2080000000.0 0.0854562652344705 -0.42472872338029866
2100000000.0 -0.20485444417289417 -0.3743938488330268
2120000000.0 -0.39789773977776904 -0.1278633086049946
2140000000.0 -0.405999447044165 0.02555709327264144
2160000000.0 -0.23258608863425245 -0.3167750047644894
2180000000.0 -0.34212180596050334 -0.16656278607227426
2200000000.0 -0.2822121600084134 0.23917611066952332
2220000000.0 -0.01223384234568195 0.3597368789034077
2240000000.0 0.34893751952094815 0.07447467244027439
2260000000.0 0.28118815764928434 -0.2193701494130712
2280000000.0 -0.03496857495800446 -0.36111370009629307
2300000000.0 -0.3627723245539421 0.10511575539911325
2320000000.0 0.24045112326898818 0.32166686233511277
2340000000.0 0.19362182845705794 -0.38830613722026475
2360000000.0 -0.39443514751894926 0.26369314248382725
2380000000.0 0.477503266953269 -0.20903450467633608
2400000000.0 -0.4383001612133731 0.3631663960613468
2420000000.0 0.19525996084421698 -0.5837126244630396
2440000000.0 0.20389139733931694 0.624327436076217
2460000000.0 -0.5186313246134202 -0.4554342914878681
2480000000.0 0.6494878800662452 0.2973763712688069
2500000000.0 -0.5874843092131462 -0.4319560396558998
2520000000.0 0.3604341441981999 0.6399467543412867
2540000000.0 0.153903771779015 -0.7154944241514313
2560000000.0 -0.6625943064780383 0.2879319998132149
2580000000.0 0.4706862349764822 0.5243627743070036
2600000000.0 0.2759079806828485 -0.619379477199958
2620000000.0 -0.6402835086659 -0.0824002140278421
2640000000.0 -0.6016681359554755 0.09046348130254932
2660000000.0 0.18583595859410684 0.5314664465311629
2680000000.0 0.4346226195076422 -0.2820154036574783
2700000000.0 -0.36620865841984274 -0.29997085321844474
2720000000.0 -0.05193397562947093 0.4254875580950619
2740000000.0 0.365898709495191 -0.1281826858975425
2760000000.0 -0.3367051993126415 -0.09917324700709733
2780000000.0 0.269248412388291 0.18040488673368116
2800000000.0 -0.2830131784823117 -0.10512007636817569
2820000000.0 0.16617442275294564 -0.2349273664122534
2840000000.0 0.114949924017214 0.25357829177922286
2860000000.0 -0.2606033310144346 0.08880565995473609
2880000000.0 0.047691948986588954 -0.2721592803101948
2900000000.0 0.10706879394350409 0.2570772775607966
2920000000.0 0.05645676021745888 -0.27705114774243617
2940000000.0 -0.28822035802967483 0.007801554621495483
2960000000.0 -0.08840795696373405 0.27949267885267476
2980000000.0 -0.16356679560540205 0.24958585061931793
3000000000.0 -0.2943057208458738 0.0637972837233302
3020000000.0 -0.16455137609970844 -0.25320998419209534
3040000000.0 0.29865125269984394 -0.013421553820428957
3060000000.0 -0.27570982423673807 0.11213698321368609
3080000000.0 0.23324245392835016 -0.17886283904859043
3100000000.0 -0.20834483785141214 0.2009932938677016
3120000000.0 0.07789260563120133 -0.27300589408575415
3140000000.0 -0.002219653250578809 0.2739804148120331
3160000000.0 -0.17842399732112993 -0.1899538741116751
3180000000.0 -0.015241060550684984 0.24431074139190503
3200000000.0 -0.20442836887643034 -0.08588586099761158
3220000000.0 0.1328503366222628 -0.1455974238442504
3240000000.0 0.022215404283323997 0.16591482835971055
3260000000.0 -0.09564103771425614 -0.09703143670573751
3280000000.0 -0.03943598298231496 0.0975352200092208
3300000000.0 0.07146671535581817 0.023984992705210924
3320000000.0 0.0348381562077186 0.03386781399850698
3340000000.0 0.025463149807250802 -0.0013375692669106217
3360000000.0 0.007848959559652192 -0.0004248598848650849
3380000000.0 0.0032856985687125914 -0.008443732728327769
3400000000.0 0.007249927551789032 0.02038622647386113
3420000000.0 0.012235347884369271 -0.029802443578550733
3440000000.0 0.0257131923422302 0.03154301935055022
3460000000.0 0.048524307427957464 -0.0013720371675369333
3480000000.0 -0.05875283910525017 0.012801828541325536
3500000000.0 -0.0725690642322074 0.01796291395424252
3520000000.0 -0.05176659126639234 0.07203853923297152
3540000000.0 0.07385024382610626 -0.07295573709057401
3560000000.0 -0.05852928055318201 0.10466774525177351
3580000000.0 0.03360424708145913 -0.1295729563419418
3600000000.0 0.1510162807335695 0.015690718518883512
3620000000.0 0.07262876387515575 0.1462585028913555
3640000000.0 -0.12833549963498136 0.11782182753819574
3660000000.0 -0.17291021725112377 -0.06254603794931227
3680000000.0 -0.05210380298133318 -0.1822687666526959
3700000000.0 0.028992080658715502 -0.187986891958707
3720000000.0 0.1862294710525154 -0.043582079846410285
3740000000.0 0.1441336203535093 0.1185482512280172
3760000000.0 -0.1230330724350148 -0.13374314813477428
3780000000.0 0.12943517210093675 0.11365233404910688
3800000000.0 0.10188681835942241 -0.13043426330349628
3820000000.0 -0.09654557105946096 -0.12513845288990694
3840000000.0 -0.08149616324502605 -0.12695906893004485
3860000000.0 0.1498142282635772 -0.014116293405977233
3880000000.0 0.15540973366944758 -0.0015193515182962782
3900000000.0 0.004571558731613478 -0.16274831241041976
3920000000.0 -0.04821647801062744 0.1595848940470277
3940000000.0 -0.07293614412424754 -0.1549654711783426
3960000000.0 0.13538526702224626 -0.1117880147192217
3980000000.0 0.002532084847229149 -0.1772325113470002
4000000000.0 0.011254061422846082 -0.17151941811547355
