!Created with skrf (http://scikit-rf.org).
# Hz S RI R 50.0 
!freq ReS11 ImS11
400000000.0 -0.582406758651783 0.647318022133594
420000000.0 0.5575092818341416 0.6688808809259733
440000000.0 0.36781754719199 -0.7528842900131676
460000000.0 -0.586563591576335 -0.5230207932399805
480000000.0 0.6058854355748173 -0.3567817585827168
500000000.0 -0.11826238073016676 -0.5652921768608068
520000000.0 -0.35175479253576264 0.3486489200744078
540000000.0 0.2805837948531336 -0.2938502045378781
560000000.0 -0.1082124394414887 -0.3466087131401177
580000000.0 0.09301108880519528 0.32930065493752253
600000000.0 0.35002178756764124 0.007830980653211325
620000000.0 -0.10413434302319871 0.3496644836530033
640000000.0 0.37519221437041816 0.10828524001084323
660000000.0 0.25156607743006665 -0.31739576714482554
680000000.0 0.42703182302774423 -0.01907045225750605
700000000.0 -0.07367051417042669 -0.42570152686944873
720000000.0 -0.3216074891184257 0.28597302176720824
740000000.0 0.08726713971073269 -0.404303229515783
760000000.0 -0.3892855679629831 0.05879945068982195
780000000.0 0.3231821059481285 0.15960330013725532
800000000.0 -0.07844325755650229 -0.31336927654514996
820000000.0 -0.2364050633548482 0.14556634056078938
840000000.0 -0.011233577175994382 0.23904191021469476
860000000.0 -0.20159281454828376 -0.017483387222513642
880000000.0 0.1564261663690708 0.02598419853485129
900000000.0 0.09641479739706457 0.0516214882830075
920000000.0 -0.06604894976557375 0.028214180981958163
940000000.0 -0.02491340688496663 -0.033496463445139055
960000000.0 0.044499435683185214 0.015262504212214392
980000000.0 0.06501561079605933 -0.010415779918179416
1000000000.0 0.0016767027445941107 -0.08345981056061609
1020000000.0 -0.034230636953541824 -0.09767973720386276
1040000000.0 0.025882326094639432 -0.11472534191967781
1060000000.0 0.15184501289129684 -0.016423640561295916
1080000000.0 0.017799003213815136 0.17150478356127158
1100000000.0 -0.04498211358381644 -0.19330567664132245
1120000000.0 0.12470237041547316 0.18334595223116446
1140000000.0 0.06829876106564302 -0.24428607906538494
1160000000.0 -0.21423125307641241 -0.18183209186353005
1180000000.0 -0.06351996013354264 -0.3097433335458899
1200000000.0 0.24365078211149574 -0.23983759194039367
1220000000.0 -0.12076222192073223 0.34633938336931164
1240000000.0 0.3835603273052642 -0.047548967968635544
1260000000.0 -0.2648525333382389 -0.3131114057087661
1280000000.0 -0.39030656783630846 0.1702359059223502
1300000000.0 0.3762570999017497 0.22381125322659923
1320000000.0 0.4397957089656174 0.00879648854678182
1340000000.0 0.40760583779773524 -0.16274731381061866
1360000000.0 0.4374665217453715 -0.05787718110222347
1380000000.0 0.1599945796275435 -0.40676518360835273
1400000000.0 -0.40153081973148996 -0.15237448872064666
1420000000.0 0.056080521558831975 0.4065358651119945
1440000000.0 0.37682548966169194 -0.06938703840503385
1460000000.0 -0.008293681300551248 -0.35285025423911653
1480000000.0 -0.3171826765989252 0.04195134109172744
1500000000.0 -0.07096565033261287 0.2780642964947337
1520000000.0 0.10922150372711409 0.23358527485114264
1540000000.0 -0.20483023762861086 -0.10101000342734866
1560000000.0 0.028469867979636146 -0.1924300893322141
1580000000.0 0.16250027580622228 0.037773330863023535
1600000000.0 0.053129972062974214 -0.12168760091913315
1620000000.0 0.06147616301006221 -0.08471163184842366
1640000000.0 0.04164266538971225 0.06765226596832287
1660000000.0 -0.05381638218109928 -0.015484397350474665
1680000000.0 0.030161626875027818 0.02094953467932858
1700000000.0 0.013839113213302263 0.018585542402255652
1720000000.0 0.008203027263213846 -0.0034213783452896546
1740000000.0 -0.0019153348096514853 0.01713582081148359
1760000000.0 0.025409271071549888 0.022492918996257102
1780000000.0 0.030634258532031576 0.054102242146264724
1800000000.0 0.09006021687158358 -0.028387874909296514
1820000000.0 0.12218332274824746 0.03384140780461845
1840000000.0 -0.14281438810060595 -0.08509865767101658
1860000000.0 0.09008413919636317 0.1827707101703404
1880000000.0 -0.045328383853579304 -0.23995586759628057
1900000000.0 -0.030133342736650963 0.2852358996968814
1920000000.0 0.03246098278076158 -0.3196219196718964
1940000000.0 -0.269755908248369 0.232013012766189
1960000000.0 0.382428045238543 -0.027295676433207072
1980000000.0 -0.275914556516126 -0.29324561042851605
2000000000.0 -0.36852792847005733 0.199777408679853
2020000000.0 0.1577577640105008 0.3982123386169019
2040000000.0 0.39178165626571637 0.18558414491076056
2060000000.0 0.3239032609742707 -0.289300982279224
2080000000.0 0.03486222484234741 -0.43098212828019555
2100000000.0 -0.24541005179553035 -0.3483231151056654
2120000000.0 -0.4083585056301586 -0.08463761738244469
2140000000.0 -0.3989584451710826 0.07409914817293836
2160000000.0 -0.25427671187595297 -0.2986677043439003
2180000000.0 -0.370369043131299 -0.08046921673777535
2200000000.0 -0.2305747523965181 0.28715310625296503
2220000000.0 0.1271112896698178 0.33475417859307255
2240000000.0 0.3546285856682836 -0.010012058110876751
2260000000.0 0.21399928417602032 -0.2838835551269288
2280000000.0 -0.15079679244176938 -0.3288480002436783
2300000000.0 -0.2951788023755869 0.23388105578124702
2320000000.0 0.3381454921504127 0.21468405520730088
2340000000.0 0.04117584839760859 -0.431082590369311
2360000000.0 -0.2775243046805149 0.3838002387475914
2380000000.0 0.3850088752990581 -0.3508780246982329
2400000000.0 -0.3413253467709196 0.4550378302818858
2420000000.0 0.07497187214879585 -0.6108944686363833
2440000000.0 0.2571829197104057 0.6044135437623273
2460000000.0 -0.5497578761789408 -0.4177193225782983
2480000000.0 0.6603268871871776 0.27420575467011615
2500000000.0 -0.6081577221449715 -0.4019793116240828
2520000000.0 0.35570853104959854 0.6427741420591356
2540000000.0 0.1815502482872584 -0.7087681953336255
2560000000.0 -0.6581231235664416 0.29539951075910204
2580000000.0 0.48651911244856905 0.5063630738774343
2600000000.0 0.22909159253348219 -0.634798396406247
2620000000.0 -0.6379872939171612 -0.07464356169855897
2640000000.0 -0.602387097130227 0.044773008945928776
2660000000.0 0.1842866538259741 0.527419960267659
2680000000.0 0.4498883776522347 -0.2469882359372562
2700000000.0 -0.3499846124126963 -0.31094219322420796
2720000000.0 -0.025797749622731778 0.4226833091475128
2740000000.0 0.35678542607608293 -0.13953890996520432
2760000000.0 -0.3417054002901792 -0.060980077463452964
2780000000.0 0.3003103176881311 0.11046831597576676
2800000000.0 -0.29803134807755877 -0.015646776750906723
2820000000.0 0.05894940721529704 -0.2792238010881302
2840000000.0 0.2104209802954016 0.1791230437579399
2860000000.0 -0.1989783012469423 0.18889801630105185
2880000000.0 -0.06753857957376809 -0.2672252121692374
2900000000.0 0.193686649765572 0.20065237208463504
2920000000.0 -0.027868626407892262 -0.28258404412164334
2940000000.0 -0.283964853012021 0.056366443179583024
2960000000.0 -0.13334411307972355 0.2626099248557725
2980000000.0 -0.16229654091935894 0.25148830084884705
3000000000.0 -0.2860374042472611 0.09938106327139616
3020000000.0 -0.1473462984496953 -0.26497947160575597
3040000000.0 0.29984578484034824 0.012342801538555506
3060000000.0 -0.2852982685616486 0.08899241612636938
3080000000.0 0.2631404085981586 -0.1321773267272684
3100000000.0 -0.2800944412921089 0.075106787198638
3120000000.0 0.2205936401902571 -0.1788685139933557
3140000000.0 -0.08916316699132001 0.26034056800738886
3160000000.0 -0.06469439032963324 -0.25242529069830444
3180000000.0 -0.17042672564229666 0.17584907088334858
3200000000.0 -0.07053527574104315 -0.20991635198373648
3220000000.0 0.19605880646608828 -0.004632613058151714
3240000000.0 -0.11671836466749365 0.11926938658016453
3260000000.0 0.03607396681942374 -0.13019889229172432
3280000000.0 -0.10413292989499659 0.009364739839628844
3300000000.0 0.0009849259169538382 0.07492217992242986
3320000000.0 -0.0432701074325773 0.020969282382508718
3340000000.0 -0.023349153108914347 0.00874666835548012
3360000000.0 -0.002934170653207022 -0.007873609091135944
3380000000.0 0.0012411418254302505 -0.010429135881229455
3400000000.0 -0.014884783375783755 0.016737100128737397
3420000000.0 -0.00846983582433865 -0.032913142856295347
3440000000.0 0.01820958829299152 0.03840168385100864
3460000000.0 0.05034055924452048 -0.0036786541273267125
3480000000.0 -0.05210621849891886 0.03280941795774529
3500000000.0 -0.06733188806993332 0.03520215400161503
3520000000.0 -0.06690584249156947 0.06102363638516656
3540000000.0 0.080993142770375 -0.06754013413260002
3560000000.0 -0.06903883425326214 0.09885638589711018
3580000000.0 0.033538876786352936 -0.13089108837419478
3600000000.0 0.15183446604054243 0.00687068890682057
3620000000.0 0.07231134678755415 0.14697266490001765
3640000000.0 -0.12912104824132756 0.11824721409551031
3660000000.0 -0.16128158053198174 -0.09024279702087389
3680000000.0 -0.035640230188608825 -0.18701350794767727
3700000000.0 0.03057010447195491 -0.18892443580577017
3720000000.0 0.1886029586626766 -0.028488616458855354
3740000000.0 0.14923783215920927 0.11196717435520484
3760000000.0 -0.13053795749636932 -0.1259235788520722
3780000000.0 0.1525103177143264 0.07996979487774955
3800000000.0 0.08193748844822858 -0.14330747075996872
3820000000.0 -0.11199299825844232 -0.11058815656105761
3840000000.0 -0.10092299993193143 -0.11170566855646544
3860000000.0 0.15011883974517376 -0.00599204710755577
3880000000.0 0.15484113666197957 0.005495561241259003
3900000000.0 0.013401713896830337 -0.16153755847339862
3920000000.0 -0.04539492333366925 0.1601083836496925
3940000000.0 -0.0824846412848543 -0.14960295425359876
3960000000.0 0.10652003823767922 -0.1397922497051359
3980000000.0 0.04678300223617668 -0.17139563435600488
4000000000.0 0.07362342140202488 -0.15548511297485462
