!Created with skrf (http://scikit-rf.org).
# Hz S RI R 50.0 
!freq ReS11 ImS11
400000000.0 -0.5380236551623208 0.6831965857258524
420000000.0 0.6014329478718536 0.6291231379438925
440000000.0 0.3540541947795432 -0.7589907598605884
460000000.0 -0.6239948063358817 -0.4795925617017942
480000000.0 0.5645339908254584 -0.41805591125778196
500000000.0 -0.14395594028811423 -0.5594732639819756
520000000.0 -0.3614633096734383 0.3395649485953847
540000000.0 0.28362826093295135 -0.2911807394507066
560000000.0 -0.12135038529186283 -0.34100389900191663
580000000.0 0.09347670510467933 0.3279947955793653
600000000.0 0.35049037238461433 -0.010893663372048288
620000000.0 -0.026723879910745596 0.3650635314308031
640000000.0 0.38051276752938334 0.09035477890150197
660000000.0 0.24027607118512817 -0.3273222169954792
680000000.0 0.4285635343621947 0.013916515203904987
700000000.0 -0.03051478976954246 -0.43145571748096256
720000000.0 -0.35243998972064805 0.2474042781146679
740000000.0 0.12985680301495647 -0.3922828251160158
760000000.0 -0.3929532579702444 0.013883578912692379
780000000.0 0.31379800771665356 0.17521855404047307
800000000.0 -0.07196273566207873 -0.31415731592949797
820000000.0 -0.22460376424618395 0.16230143093917557
840000000.0 0.029054066768840876 0.23711529610309431
860000000.0 -0.1941924518957761 0.05637161823248462
880000000.0 0.1404149211167446 -0.07547582055188157
900000000.0 0.10916897665072799 -0.022029291238272332
920000000.0 -0.06913269607069511 0.026529753966268565
940000000.0 0.04301344198260649 0.001926755565583549
960000000.0 -0.028755294647873835 0.03624941750739348
980000000.0 0.051748045795356946 0.03881849642703271
1000000000.0 -0.016636688835631238 -0.08071583623419765
1020000000.0 -0.06401687931151666 -0.08004597456372962
1040000000.0 -0.03731272100188872 -0.11100347105732349
1060000000.0 0.11149216243376599 -0.10485998339718595
1080000000.0 0.08896067597909543 0.14967139351721995
1100000000.0 -0.08568566714110488 -0.18170967873474334
1120000000.0 0.1465121975936377 0.16953503548086565
1140000000.0 0.11119571149673392 -0.23087606387640716
1160000000.0 -0.14883495532367547 -0.24079551150269046
1180000000.0 0.0657301880622912 -0.3113239773670306
1200000000.0 0.3239430495496941 -0.11391327972763579
1220000000.0 -0.26603840699773884 0.25362388223321597
1240000000.0 0.371076433209677 0.10813951821864395
1260000000.0 -0.1426985388645469 -0.3842457022224818
1280000000.0 -0.42129195133423386 0.05623609176433688
1300000000.0 0.3216394279057883 0.2951606885506805
1320000000.0 0.43526263166478657 0.05182435963313064
1340000000.0 0.41573377537005474 -0.13641989347912206
1360000000.0 0.4352525009472052 -0.06529987968153984
1380000000.0 0.1249275118955162 -0.4178736954489177
1400000000.0 -0.4169408656124122 -0.10061373453557763
1420000000.0 0.12123451818432686 0.3921872115438224
1440000000.0 0.35749590474683207 -0.1395306344676977
1460000000.0 -0.06877824788219013 -0.347225535462832
1480000000.0 -0.3180236868833711 0.04985047573608087
1500000000.0 -0.033394963622386 0.28719541808874766
1520000000.0 0.11518530322022888 0.23382382611870517
1540000000.0 -0.18277004278729297 -0.14194461082423596
1560000000.0 0.11524382828298438 -0.16019441674570037
1580000000.0 0.09736573053119132 0.13819133081265678
1600000000.0 0.12982238254002818 -0.03337686220727259
1620000000.0 0.08705719276801314 0.05890380130848328
1640000000.0 -0.07379249230714129 0.02720024026711539
1660000000.0 0.03642702594033145 -0.040346845977933234
1680000000.0 -0.03431137663486875 0.002947342835961718
1700000000.0 -0.01140884957076673 -0.01723027118266338
1720000000.0 0.0024439187282012166 -0.007166352163692375
1740000000.0 -0.003984860044017997 -0.017113849022964422
1760000000.0 0.033250725323492235 0.003764349439196787
1780000000.0 -0.05542185976292572 -0.026612834497852615
1800000000.0 0.009989059784634593 0.09198298383815533
1820000000.0 0.04106564229984627 0.11846704461132511
1840000000.0 -0.07948526887792809 -0.14336357757104431
1860000000.0 0.03353106759439445 0.19847151070243452
1880000000.0 0.0002717954249943194 -0.24137976918933934
1900000000.0 -0.00966868781755636 0.2848366481303024
1920000000.0 -0.011876072797556304 -0.31971323338116375
1940000000.0 -0.21877538338700928 0.2796031315137706
1960000000.0 0.36780022771615173 -0.10738408947892489
1980000000.0 -0.3299295379918199 -0.2320147164944008
2000000000.0 -0.33737276973017316 0.2504111619289813
2020000000.0 0.21369741726284394 0.3730419175006077
2040000000.0 0.406174508070995 0.15711341338262383
2060000000.0 0.33404350795145427 -0.2817620636711949
2080000000.0 0.09116609399869562 -0.42592995772913994
2100000000.0 -0.16157817294477636 -0.39731171829856704
2120000000.0 -0.3722546663557332 -0.19563463485612073
2140000000.0 -0.4031936094059535 -0.06747560819226611
2160000000.0 -0.16585076647731478 -0.3580285581868531
2180000000.0 -0.3092511746307828 -0.22396733427507182
2200000000.0 -0.3433689608091616 0.13992613493303255
2220000000.0 -0.08724896403418962 0.3496800919208926
2240000000.0 0.31606231171948973 0.1647471764251468
2260000000.0 0.33063417432061565 -0.13206667353147367
2280000000.0 0.0019161656450047413 -0.3621191325354982
2300000000.0 -0.3662323277890473 0.09115034073994581
2320000000.0 0.19619490094174954 0.3493798405088763
2340000000.0 0.1979832481857743 -0.3860896962408891
2360000000.0 -0.3968081595627404 0.2589913387279411
2380000000.0 0.4553230436767441 -0.2529308499519932
2400000000.0 -0.4377200730788379 0.36353514330816245
2420000000.0 0.14412261859337042 -0.5985712689312954
2440000000.0 0.2537465389201895 0.6064037195847256
2460000000.0 -0.5428110999390808 -0.42756006803232177
2480000000.0 0.6508238394363287 0.29928146386779325
2500000000.0 -0.5755822134070596 -0.4495424189962377
2520000000.0 0.33061410979882344 0.657505655042813
2540000000.0 0.20658537415504152 -0.7032204829538399
2560000000.0 -0.6786312787608039 0.2514046174480488
2580000000.0 0.4423881704314907 0.5491107943857452
2600000000.0 0.3570075359064741 -0.5771890235569876
2620000000.0 -0.6356956349719759 -0.11709083922928104
2640000000.0 -0.6083651721597093 -0.018527115633993032
2660000000.0 0.11472575003055907 0.5512998791900442
2680000000.0 0.46502392999620923 -0.22892640557585928
2700000000.0 -0.32982260246882267 -0.3400888707075699
2720000000.0 -0.10320406026660343 0.4161090541998665
2740000000.0 0.37694226221679095 -0.09053863900175099
2760000000.0 -0.324190057637932 -0.13435906577424564
2780000000.0 0.25661391745656287 0.19779108420055153
2800000000.0 -0.2874220575256498 -0.0914091578852301
2820000000.0 0.1361815720333811 -0.253351724281629
2840000000.0 0.14003259921832248 0.2410956267457265
2860000000.0 -0.25684852249151247 0.10193799007419208
2880000000.0 0.029980260482095317 -0.27550764812782397
2900000000.0 0.12161275038954918 0.25167771299718306
2920000000.0 0.04672047823430337 -0.2802342404926155
2940000000.0 -0.29027000010472614 0.0002588393391162318
2960000000.0 -0.16471402947182745 0.24437190822310678
2980000000.0 -0.2068586122042671 0.21631468734681486
3000000000.0 -0.29874607407297227 0.04837682252018947
3020000000.0 -0.09684417600619576 -0.287371591312252
3040000000.0 0.2799742768940118 0.10892449581682637
3060000000.0 -0.2975415463813092 0.025812746710676446
3080000000.0 0.2803911146688768 -0.08788672112556521
3100000000.0 -0.2664992406987506 0.1121722115535384
3120000000.0 0.20490513721271594 -0.1952624202582985
3140000000.0 -0.08025995890434416 0.2619023602444781
3160000000.0 -0.1121821325392094 -0.23389964744797298
3180000000.0 -0.09434798944985151 0.2245720118031269
3200000000.0 -0.14403545220797911 -0.16673985803315308
3220000000.0 0.15597213136193344 -0.11616488496071001
3240000000.0 0.01705650635159848 0.16439668020351564
3260000000.0 -0.11147440004311408 -0.07487826711800386
3280000000.0 0.0269597050261956 0.09923286897063291
3300000000.0 -0.0030419578973889323 -0.07352220163311927
3320000000.0 -0.01981925689386608 -0.04308001715591029
3340000000.0 0.006542727000352751 0.023618026683050953
3360000000.0 0.0010984385141005863 0.0068568344885266705
3380000000.0 0.003498399668916005 0.007723331662816076
3400000000.0 -0.018049924636385904 0.011827474483402337
3420000000.0 -0.015012552467383096 -0.02910557642303277
3440000000.0 0.0009090609654408716 -0.04145539806581573
3460000000.0 -0.04194958058279914 0.027994964198893066
3480000000.0 0.056783565950899124 -0.024016560762189613
3500000000.0 0.014997726035277686 -0.07402532060697124
3520000000.0 -0.05532846845361246 -0.0705135999174632
3540000000.0 0.06192154112449448 0.08470339841348583
3560000000.0 -0.1123031232733689 -0.04343457678472264
3580000000.0 0.13308505036934035 0.01800611066769769
3600000000.0 0.07843410675119641 0.12972531972667994
3620000000.0 -0.07616010174781301 0.14379214930804232
3640000000.0 -0.17268378763373968 0.003029596329238713
3660000000.0 -0.0852000088602016 -0.16170098131411914
3680000000.0 0.0768490773553751 -0.17139571633263076
3700000000.0 0.10996536518393547 -0.15424048495720574
3720000000.0 0.18358430166832682 0.045883590099926666
3740000000.0 0.12970662951443052 0.13137885093612764
3760000000.0 -0.08941715591254525 -0.15523171290784565
3780000000.0 0.13114554502317863 0.10816670475833091
3800000000.0 0.07620151265068215 -0.1438888493945383
3820000000.0 -0.11363139527364455 -0.10617398993351668
3840000000.0 -0.10532583871632041 -0.10427390802685658
3860000000.0 0.14572024221019278 -0.029368773851186164
3880000000.0 0.15333544042720357 0.009858014083732715
3900000000.0 0.020938412496773008 -0.15957104985941922
3920000000.0 -0.06129578946401925 0.1528402796274386
3940000000.0 -0.07993561303354245 -0.14916834057480108
3960000000.0 0.11084653550023636 -0.13387828865346602
3980000000.0 -0.040607938404405665 -0.17039704602410413
4000000000.0 -0.0969798610120765 -0.1391574585065032
