!Created with skrf (http://scikit-rf.org).
# Hz S RI R 50.0 
!freq ReS11 ImS11
400000000.0 -0.6144578546714045 0.6170576693295283
420000000.0 0.5461961322169051 0.6780681533930124
440000000.0 0.3961322609362632 -0.7383578596021773
460000000.0 -0.5786529263012075 -0.5343193291884223
480000000.0 0.5756847815155434 -0.4035917479114291
500000000.0 -0.12687081147303614 -0.5621049032297892
520000000.0 -0.38609714349032853 0.31211299768446266
540000000.0 0.24093231776330534 -0.32898436733506
560000000.0 -0.15832068221574638 -0.3261539357362983
580000000.0 0.02170303068324785 0.3394760626183125
600000000.0 0.34314137106502024 0.07969988112484006
620000000.0 -0.045991544709685035 0.3631789993997212
640000000.0 0.37593886953858646 0.10345407072799728
660000000.0 0.2715913446202498 -0.30019169467709633
680000000.0 0.4259342974028094 -0.040291895012844955
700000000.0 -0.09934632172368751 -0.42079996359179245
720000000.0 -0.31776515548509654 0.29057363866413616
740000000.0 0.07166936555975383 -0.4072348517052633
760000000.0 -0.3923701205983108 0.031232034594173105
780000000.0 0.32678300688843376 0.15016049288237937
800000000.0 -0.09092617936248294 -0.30985953893783896
820000000.0 -0.21484257027751733 0.1755233268614378
840000000.0 0.014657822959835908 0.23886228772385554
860000000.0 -0.20207843339291018 0.0034477653134401508
880000000.0 0.15892702268217165 0.005244703687164918
900000000.0 0.10236146031446418 0.03984935886228962
920000000.0 -0.06960930223508774 0.020171005067303693
940000000.0 -0.021712763772369432 -0.036386814028070355
960000000.0 0.03269148133220891 0.03272568208712537
980000000.0 0.0651924378232313 0.005065622792783847
1000000000.0 -0.009587438934516216 -0.08304468033280028
1020000000.0 -0.058061341136980395 -0.08532281087272427
1040000000.0 -0.010331125778523135 -0.11677856757314521
1060000000.0 0.14846801207906993 -0.03546425876451314
1080000000.0 0.03745163687188507 0.16916399835826296
1100000000.0 -0.07025294596649784 -0.18662997049547433
1120000000.0 0.12339583159659266 0.18506798898643706
1140000000.0 0.11146061167313476 -0.2282519719281556
1160000000.0 -0.18228151668070977 -0.21404033776693612
1180000000.0 -0.014693339738105018 -0.3158434528605376
1200000000.0 0.28487923960278516 -0.18862255863521418
1220000000.0 -0.16088706956056423 0.3296421256060052
1240000000.0 0.38617403339524464 -0.017202374409560184
1260000000.0 -0.2609015371838587 -0.31632408430249376
1280000000.0 -0.3862318247668161 0.17848292688917997
1300000000.0 0.38341282097022417 0.2106016205615259
1320000000.0 0.43912659851792474 -0.014445157039756523
1340000000.0 0.39709962015024797 -0.1872046068127403
1360000000.0 0.4303145787859828 -0.09677910032235407
1380000000.0 0.13740088550202506 -0.4149195718307457
1400000000.0 -0.4111768719045055 -0.12418055993939003
1420000000.0 0.09697196437881361 0.39874910022597765
1440000000.0 0.3719169702450245 -0.09353210113389955
1460000000.0 -0.01339546983504724 -0.35304378411100634
1480000000.0 -0.32086195085410807 0.0003043466997644294
1500000000.0 -0.08734868686379249 0.27412834224162536
1520000000.0 0.09260222621873096 0.2410852457937201
1540000000.0 -0.19918719288703288 -0.11194580626056659
1560000000.0 0.05312085135541734 -0.1870065055236
1580000000.0 0.16612740459888228 0.007546918012410397
1600000000.0 0.050504335128036155 -0.12269089795372566
1620000000.0 0.033745905817576305 -0.0990180485725559
1640000000.0 0.06146632459698564 0.04999351368495735
1660000000.0 -0.055732602939055104 0.00588550659724618
1680000000.0 0.03453940563213262 0.01329717787884736
1700000000.0 -0.02189119999119295 0.0072368859116404075
1720000000.0 0.005520718975616041 -0.007365768793290547
1740000000.0 0.013314484330920088 0.010731282872664326
1760000000.0 0.033651758591417884 0.00220468208808255
1780000000.0 0.04691214734845566 0.04005250474671373
1800000000.0 0.07003788906067938 -0.06289589624798685
1820000000.0 0.1265785374028645 -0.008792633734644914
1840000000.0 -0.16479214651102056 -0.02420156654948629
1860000000.0 0.12344609702907827 0.16302924887681866
1880000000.0 -0.06547317820669077 -0.23582273778524074
1900000000.0 -0.007032558310196537 0.2877875584839655
1920000000.0 0.05023922468087637 -0.318379005277629
1940000000.0 -0.2774097362351974 0.22356958990879056
1960000000.0 0.3834981801981824 0.005089719406108974
1980000000.0 -0.2655074953868304 -0.30285065618112184
2000000000.0 -0.3814357023496782 0.1738323754470774
2020000000.0 0.1495672890833092 0.400795411528359
2040000000.0 0.38496806461320265 0.19753315028261528
2060000000.0 0.3292226989160274 -0.28217932327839057
2080000000.0 0.028144331592729003 -0.4300504828688583
2100000000.0 -0.27441620201234695 -0.3232306636481499
2120000000.0 -0.4146962169991953 -0.014332729306619513
2140000000.0 -0.3735899448399164 0.15246020785027128
2160000000.0 -0.3334694586964319 -0.20248700314262788
2180000000.0 -0.37561817737853026 0.035660556818350925
2200000000.0 -0.12588961760742695 0.34394708600407287
2220000000.0 0.2664956066278114 0.23667109365488342
2240000000.0 0.3142310428880863 -0.16287948921643655
2260000000.0 0.07458330706205939 -0.3467382390924861
2280000000.0 -0.27304919458112054 -0.23596282516318315
2300000000.0 -0.1829118793905005 0.328712606010222
2320000000.0 0.387588640653806 0.09845402533979263
2340000000.0 -0.08400769353610915 -0.4247997034708982
2360000000.0 -0.1951754751626496 0.43141515614390163
2380000000.0 0.350451365318382 -0.3853131125767357
2400000000.0 -0.306874345840104 0.4795382266450744
2420000000.0 0.06965923417390725 -0.6119128316912735
2440000000.0 0.24926272799506669 0.6085931244129825
2460000000.0 -0.541281942229315 -0.4294643877242211
2480000000.0 0.6462088461487464 0.3073285547256041
2500000000.0 -0.5251193249473446 -0.5069662925539261
2520000000.0 0.24561978909838342 0.6929928100502422
2540000000.0 0.21443160593307428 -0.6997049284220057
2560000000.0 -0.691268362756809 0.20554952717006197
2580000000.0 0.48022113950078704 0.5110654218088826
2600000000.0 0.2986674728984468 -0.6040446519182481
2620000000.0 -0.6300423119095249 -0.10934182613669174
2640000000.0 -0.5970675759070065 0.06731731976413072
2660000000.0 0.234116224030316 0.5027020094325343
2680000000.0 0.39556755451778175 -0.3197248848174523
2700000000.0 -0.39384958535517867 -0.2438224402373708
2720000000.0 0.0694831068013018 0.41275801774185483
2740000000.0 0.29682601956396765 -0.2339841241131216
2760000000.0 -0.3307833267157995 0.08800814227459727
2780000000.0 0.3097081165228423 -0.06233149309797303
2800000000.0 -0.2430727279503567 0.16739537374793947
2820000000.0 -0.1459578127969068 -0.2417990263953007
2840000000.0 0.2706097307600359 -0.04765903394370979
2860000000.0 -0.008211414920247708 0.2726186441105496
2880000000.0 -0.23158106021385091 -0.14918578811395145
2900000000.0 0.2765715893143942 0.0391677821972067
2920000000.0 -0.15283593280296076 -0.24042914463239518
2940000000.0 -0.24810604678468465 0.15240903991106355
2960000000.0 -0.06414087111455698 0.289687811905892
2980000000.0 -0.19468707553170095 0.23072588615687759
3000000000.0 -0.29794904038259523 0.06722149502048197
3020000000.0 -0.13964845509784918 -0.2717169145639754
3040000000.0 0.27986553162186584 0.11431010170125012
3060000000.0 -0.30008555516156893 -0.02543532520650181
3080000000.0 0.29609997133763083 -0.013318680009111511
3100000000.0 -0.2886800168750915 -0.038122230439899506
3120000000.0 0.285529019858864 0.0035796372758467067
3140000000.0 -0.23992578184485613 0.13703149790529082
3160000000.0 0.12800226250228744 -0.22760056522391747
3180000000.0 -0.24433498258193312 -0.013053156876458426
3200000000.0 0.11985430834630888 -0.18635174345674357
3220000000.0 0.09314502966134323 0.17271861385664453
3240000000.0 -0.1512230472320451 -0.07023198734700252
3260000000.0 0.12226789833060164 0.05809519377275017
3280000000.0 0.048770670990514804 -0.09165059195170416
3300000000.0 -0.029739017952135374 -0.06795687045186816
3320000000.0 0.031009455688336823 0.03627165096203966
3340000000.0 0.024135054450991823 -0.0074388025839655855
3360000000.0 0.0076971063638587795 0.00716381758334501
3380000000.0 0.009854515529671997 0.009213944189499513
3400000000.0 0.019108515892237273 -0.015942951936743655
3420000000.0 0.011465409258011776 -0.03281787007743724
3440000000.0 -0.025411670007944 0.03508309709195521
3460000000.0 -0.0135023900388144 0.04882387258919161
3480000000.0 0.054473413276598305 -0.02952227796074352
3500000000.0 0.07352720864700793 -0.018311941859726916
3520000000.0 0.08920894596198996 0.01182630052497169
3540000000.0 -0.07387890053303217 -0.07486302416094526
3560000000.0 0.10093674711512912 0.06654825487180528
3580000000.0 -0.12077653231981082 -0.06109999071855021
3600000000.0 0.1118611952773769 -0.10425880027299449
3620000000.0 0.16035015420360724 0.038904549544983305
3640000000.0 -0.040398623353173214 0.17105106065743786
3660000000.0 -0.1789246447804935 0.05126993985885088
3680000000.0 -0.12030094285569778 -0.14932023056766253
3700000000.0 -0.025508505694975404 -0.19145733100832174
3720000000.0 0.18122542056871843 -0.06666801631884721
3740000000.0 0.17218451415654276 0.07667722149821121
3760000000.0 -0.16870805842349437 -0.07278222968014633
3780000000.0 0.1640618379546585 0.060164453665389236
3800000000.0 0.01958658405018306 -0.16687746937867648
3820000000.0 -0.14661669532587127 -0.06605073940508406
3840000000.0 -0.130843641509506 -0.0788730407393425
3860000000.0 0.12699145310138452 -0.08447502494733172
3880000000.0 0.14343067862347514 -0.06423208530430909
3900000000.0 -0.02874667149017021 -0.16223026580880598
3920000000.0 -0.000620238401188319 0.16832197118648454
3940000000.0 -0.10496119215868639 -0.13783830663839355
3960000000.0 0.11073115914637288 -0.1392211631569724
3980000000.0 -0.0412634746242108 -0.1744349404518559
4000000000.0 -0.06678264939940685 -0.16027804968051573
