!Created with skrf (http://scikit-rf.org).
# Hz S RI R 50.0 
!freq ReS11 ImS11
400000000.0 -0.60211086372049 0.6279303950960603
420000000.0 0.5305262747286221 0.6904102397315274
440000000.0 0.3996212512328481 -0.7362662869499543
460000000.0 -0.5884739655071886 -0.5233240662927234
480000000.0 0.563233572585293 -0.42038822319961233
500000000.0 -0.13165948660717214 -0.5611776379688154
520000000.0 -0.40039372510046173 0.2934808507902179
540000000.0 0.2519026444353754 -0.32057842281833715
560000000.0 -0.1676263804705018 -0.3210746298687235
580000000.0 -0.005099859327647118 0.3398809909691243
600000000.0 0.3446979814394972 0.07013429247976126
620000000.0 -0.04130936759818906 0.36330026930631987
640000000.0 0.3795939272766845 0.08977541069523008
660000000.0 0.2504036822208535 -0.3177168333697168
680000000.0 0.4254782620592687 -0.042041354922370065
700000000.0 -0.10758632953432824 -0.4184847381446322
720000000.0 -0.31704358535941374 0.29088387682914335
740000000.0 0.07225070582935467 -0.40687023872084555
760000000.0 -0.39234664677941705 0.03250054123398037
780000000.0 0.3220973169154035 0.16057540468802425
800000000.0 -0.05358234654365225 -0.318858959398989
820000000.0 -0.24099833681674565 0.13827546248597017
840000000.0 -0.01488653705314236 0.23872712614389355
860000000.0 -0.20231531750920603 -0.0039043366417726285
880000000.0 0.15910477146078067 0.006564079351198
900000000.0 0.09720462840267144 0.05141218347806946
920000000.0 -0.0701490214550089 0.017619001377412916
940000000.0 -0.013109862985463143 -0.039863188716838624
960000000.0 0.04020716637002225 -0.023330559626046316
980000000.0 0.06111549630572008 -0.025520170120615793
1000000000.0 0.007409507220939758 -0.0842667022687364
1020000000.0 -0.020943140405140646 -0.10166962554485162
1040000000.0 0.04299855049823629 -0.1094428857193275
1060000000.0 0.1521724114278617 0.014691209622637199
1080000000.0 -0.0021677534922480194 0.17301314431440887
1100000000.0 -0.03944339134872406 -0.19500864935388257
1120000000.0 0.11864576413667133 0.18747068272651876
1140000000.0 0.10417309486447739 -0.23117555887124272
1160000000.0 -0.1916924629366866 -0.20490253258459934
1180000000.0 -0.032405447003362876 -0.31410882521864597
1200000000.0 0.27448430035131605 -0.20304829893222376
1220000000.0 -0.16485975749196602 0.32743027959570825
1240000000.0 0.38486778306329 -0.03197712129087771
1260000000.0 -0.2714343892765176 -0.3063997556115118
1280000000.0 -0.3815594057041676 0.18766872275114913
1300000000.0 0.3986803809831002 0.180291658576255
1320000000.0 0.43933320320727687 -0.011329489534738883
1340000000.0 0.4036320912052373 -0.172892150889879
1360000000.0 0.43041292466779335 -0.09845840503014983
1380000000.0 0.14496237072153875 -0.4127027962972042
1400000000.0 -0.4039229750705763 -0.14770756724943596
1420000000.0 0.042406463928102496 0.40886009864511175
1440000000.0 0.38418626735070666 -0.015003156192701218
1460000000.0 0.05575720097309435 -0.34950457409465613
1480000000.0 -0.3149900920072707 -0.06309600539376858
1500000000.0 -0.13601540147950725 0.25399958357405333
1520000000.0 0.013567274122961343 0.2587253976098615
1540000000.0 -0.1552149332683234 -0.16874782772418387
1560000000.0 0.12655081653358227 -0.14817935059506812
1580000000.0 0.11788225020406094 0.11819451892758726
1600000000.0 0.10672277850677354 -0.0779461394481599
1620000000.0 0.08864732675283492 -0.05410373054477425
1640000000.0 0.03667194891890063 0.06917721033029178
1660000000.0 -0.05420598251231663 -0.009497699718892512
1680000000.0 0.02944509942231102 -0.020559084052486513
1700000000.0 0.021056684062938712 0.005918413523524057
1720000000.0 -0.005340356638063159 0.005479113029633437
1740000000.0 -0.0006931036409252187 -0.01651211544096766
1760000000.0 -0.03259123155583577 -0.0023063949679828113
1780000000.0 -0.014388956282114035 0.05913957158207605
1800000000.0 0.09345684910368145 0.0015386228900582746
1820000000.0 0.11742630984497891 0.04407084771526558
1840000000.0 -0.1479565867342785 -0.0728369241319372
1860000000.0 0.09912095616346124 0.1767000397407176
1880000000.0 -0.05200453240486579 -0.23727959910780783
1900000000.0 -0.001962698180358555 0.28624752204167225
1920000000.0 -0.0008322583364130654 -0.32109009428706076
1940000000.0 -0.254485027929026 0.24829024368777453
1960000000.0 0.38017916103356364 -0.047924886123893305
1980000000.0 -0.29115361533111156 -0.27819188853642896
2000000000.0 -0.3637284291031629 0.208895595284774
2020000000.0 0.17034214142635695 0.39337136219449176
2040000000.0 0.4022914804844687 0.16286885293936101
2060000000.0 0.354031001086134 -0.25387070390741323
2080000000.0 0.060008666456188166 -0.4295762908430466
2100000000.0 -0.17841081326487476 -0.3882947928217542
2120000000.0 -0.3857280098555216 -0.16169481826622212
2140000000.0 -0.40673724501685393 0.0007349171374176805
2160000000.0 -0.20910851975436057 -0.33285686129996755
2180000000.0 -0.3372492596347605 -0.17702172821279283
2200000000.0 -0.28994342563977665 0.23025487553508112
2220000000.0 -0.004524882364611191 0.36027331569162646
2240000000.0 0.33055130727680243 0.13551439164324297
2260000000.0 0.31023462072328234 -0.17636193249911994
2280000000.0 -0.00875713101655591 -0.3628834667263238
2300000000.0 -0.36138348161949674 0.11157423683250549
2320000000.0 0.22774795150245813 0.3305838302864595
2340000000.0 0.21042983563719203 -0.3795869894017146
2360000000.0 -0.3919977825967896 0.26665665837043623
2380000000.0 0.4701054806283797 -0.22533342640427986
2400000000.0 -0.43124790620676345 0.37151365455680546
2420000000.0 0.18194471648705013 -0.588260323840657
2440000000.0 0.2118477708483211 0.6223550094701983
2460000000.0 -0.5039867259816004 -0.4722592139985173
2480000000.0 0.6453393721336974 0.30776532544995694
2500000000.0 -0.5388494358319578 -0.4918767372403442
2520000000.0 0.3152043328244353 0.6641841599099689
2540000000.0 0.18199373526933565 -0.7093789760461164
2560000000.0 -0.6812044730851695 0.24298307802877006
2580000000.0 0.476209141705535 0.5202533941513298
2600000000.0 0.29945014738704734 -0.6091146628332741
2620000000.0 -0.6445680808067566 -0.043527685781696974
2640000000.0 -0.6084676034095584 -0.0160475657932581
2660000000.0 0.14100229239067064 0.5454228214909926
2680000000.0 0.4273085827706128 -0.2932425226675824
2700000000.0 -0.3864637515745784 -0.27320612392814553
2720000000.0 -0.0014664386136926358 0.4289945285009706
2740000000.0 0.36788049141049245 -0.12414652062027197
2760000000.0 -0.3373969404192003 -0.09862342306672403
2780000000.0 0.27471574563789203 0.17229525547969152
2800000000.0 -0.29109869457846055 -0.08125536542644578
2820000000.0 0.14140300424036636 -0.2514234599200585
2840000000.0 0.14759640619705322 0.2367207058343851
2860000000.0 -0.26525890109947464 0.0772260666417878
2880000000.0 0.0451697179034134 -0.27336832372750514
2900000000.0 0.08549229790655118 0.26649675217475105
2920000000.0 0.08914142464055037 -0.2692533014421643
2940000000.0 -0.2869629411981434 -0.037636563177484185
2960000000.0 -0.18997425782448601 0.22424165993420694
2980000000.0 -0.2171479209058495 0.20562213290599976
3000000000.0 -0.2988606221185094 0.03777934390218988
3020000000.0 -0.1502466444465538 -0.26214232302659446
3040000000.0 0.29921822540594917 -0.0028589042548458894
3060000000.0 -0.2675282827689661 0.13139316544711724
3080000000.0 0.24036899542521536 -0.16834250966824746
3100000000.0 -0.2150274767854797 0.19232783158565933
3120000000.0 0.1103046000013399 -0.26059147613962275
3140000000.0 -0.0029048067900122538 0.27402247811588576
3160000000.0 -0.1907256574599649 -0.17704373334934784
3180000000.0 -0.0379008836476103 0.24120696132113767
3200000000.0 -0.19398253193135817 -0.10624191522953673
3220000000.0 0.14418959783904026 -0.1325599699648323
3240000000.0 0.0339710674655972 0.16361986389368252
3260000000.0 -0.1256849129748939 -0.049993524861601205
3280000000.0 -0.005524010459147626 0.10392104421056941
3300000000.0 0.055009385997557114 -0.050172019334140665
3320000000.0 0.026596558976542724 -0.04107268779161542
3340000000.0 -0.02290968066290765 -0.010814721905363282
3360000000.0 6.929401710055425e-05 0.007559437090733251
3380000000.0 -0.004154441901833819 -0.007474430373517302
3400000000.0 0.004454515385410495 -0.021402537996294047
3420000000.0 -0.01757765613794793 0.027902205228604142
3440000000.0 -0.04041327354652438 -0.01052427568684162
3460000000.0 -0.002223932852444506 0.04978347662756719
3480000000.0 -0.021074239854534656 -0.05791594613361671
3500000000.0 -0.060965439718533035 -0.045740830642615166
3520000000.0 -0.0900821262463286 -2.1021986769500018e-05
3540000000.0 0.10381971800068678 0.01592128153269339
3560000000.0 -0.1126202056546066 0.0435516630702073
3580000000.0 0.08507414617627208 -0.10506889469938521
3600000000.0 0.11854815043943079 0.09607287345475224
3620000000.0 -0.01838691472425305 0.16349680684696727
3640000000.0 -0.16919001631328823 0.04131161730587336
3660000000.0 -0.12857902145982944 -0.13220434635133738
3680000000.0 0.045807786180096746 -0.18429104204096156
3700000000.0 0.11050258464564759 -0.1559508922393962
3720000000.0 0.18908272410937463 0.03084598094018112
3740000000.0 0.1325647057290313 0.13092070272454487
3760000000.0 -0.10952146336907263 -0.1452677669819947
3780000000.0 0.13650715036153058 0.10481145678072942
3800000000.0 0.08839842239643111 -0.13909115425908886
3820000000.0 -0.10570167261314284 -0.11722510110618159
3840000000.0 -0.11429584321170931 -0.09611861066816961
3860000000.0 0.1482118535262686 -0.019593488272197094
3880000000.0 0.15351482646967957 0.014649966470055543
3900000000.0 0.039541955348598716 -0.15695180261381597
3920000000.0 -0.05749216868805848 0.1552623245315837
3940000000.0 -0.069204809631902 -0.15635841613495907
3960000000.0 0.1349524271365278 -0.1114755406432942
3980000000.0 -0.0022736343654933427 -0.17672126325105708
4000000000.0 0.011580087288176302 -0.17090753915123894
