!Created with skrf (http://scikit-rf.org).
# Hz S RI R 50.0 
!freq ReS11 ImS11
400000000.0 -0.640575910519986 0.5885992807655086
420000000.0 0.5225561771053778 0.6953006000982883
440000000.0 0.39659924299364263 -0.7374285802829904
460000000.0 -0.5762319862410024 -0.5350617320726445
480000000.0 0.561125747150868 -0.4220177404426157
500000000.0 -0.07732365929653004 -0.5705782733484436
520000000.0 -0.35408284812254376 0.34894100570277087
540000000.0 0.2210267101882442 -0.3414694101906694
560000000.0 -0.08205157422718638 -0.35285904226447207
580000000.0 -0.03089162291672641 0.340862554295981
600000000.0 0.35039917940733656 0.03923154051419964
620000000.0 -0.09582065521539719 0.3531011788372526
640000000.0 0.35853023693285296 0.1563499924607525
660000000.0 0.31258367778819146 -0.2579548752012034
680000000.0 0.4279335468806227 0.01258912303918108
700000000.0 -0.07498734227542264 -0.4248015550486213
720000000.0 -0.3379401085025551 0.26556450455150055
740000000.0 0.12832403816092758 -0.3929520891522126
760000000.0 -0.3919853415963777 0.02387506540258094
780000000.0 0.3300195174270154 0.1431802145863338
800000000.0 -0.09474771454247868 -0.3086196141011628
820000000.0 -0.20991940499205833 0.18182280222225133
840000000.0 0.022952324526384644 0.23825615640269468
860000000.0 -0.20145104387057566 0.02106526230853452
880000000.0 0.15699915486980784 -0.023687496261394308
900000000.0 0.0873825512325456 0.06775858544633517
920000000.0 -0.053809977340772204 -0.05023814301054482
940000000.0 0.04241278269771061 0.003613912694201802
960000000.0 0.006396077927458412 0.04573092518166719
980000000.0 0.06456073276780958 -0.003909011398283452
1000000000.0 -0.03795025437026522 -0.0740451573496962
1020000000.0 -0.07431999407826329 -0.0712721921771504
1040000000.0 -0.03904170971508385 -0.11109909484029784
1060000000.0 0.13848923648851677 -0.06594989781812317
1080000000.0 0.047864098266682926 0.167352972774383
1100000000.0 -0.06526643471497924 -0.19010337594952526
1120000000.0 0.10091410191024734 0.2000911834558805
1140000000.0 0.171865605575994 -0.18984005953166128
1160000000.0 -0.09226764700854548 -0.26724110618561775
1180000000.0 0.13675030779772002 -0.28660600264732855
1200000000.0 0.3376249642682137 -0.05553174095479463
1220000000.0 -0.2749777324592296 0.24311968723576208
1240000000.0 0.3692426775687394 0.11507975081474957
1260000000.0 -0.16728112515016264 -0.3737680169772941
1280000000.0 -0.4163257216517198 0.08366456582064573
1300000000.0 0.33642689811657567 0.27789974114839733
1320000000.0 0.43726985049565226 0.027798371843898436
1340000000.0 0.4001890435638156 -0.1776819724715767
1360000000.0 0.428897379533217 -0.09987826241821289
1380000000.0 0.10511143868064617 -0.4236344002296569
1400000000.0 -0.42042677868566897 -0.08773429549147622
1420000000.0 0.1193430595170433 0.39350928672439167
1440000000.0 0.3577992311737866 -0.14073703201033258
1460000000.0 -0.06671631272044265 -0.3486124906830987
1480000000.0 -0.32030488903230603 0.04201848078117794
1500000000.0 -0.07341736140380456 0.2810693601873633
1520000000.0 0.07315085536038207 0.25145850473410136
1540000000.0 -0.14850988925539224 -0.17807304014109218
1560000000.0 0.1532892349480505 -0.1251322955626598
1580000000.0 0.06570639549594716 0.15622565887774845
1600000000.0 0.12987240424780458 0.033255464089023
1620000000.0 0.04505065262345936 0.09536255870259343
1640000000.0 -0.07831318291606697 0.002331581775595667
1660000000.0 0.053823067648900665 0.0013585667324113964
1680000000.0 -0.02849554235757187 -0.01799709209085567
1700000000.0 0.015897019730985888 -0.01127405253710514
1720000000.0 -0.006634313857279605 -0.0012316541863363311
1740000000.0 0.0019121282478227672 0.017391513317790524
1760000000.0 0.02792173265520031 0.018922083611120317
1780000000.0 0.00911120765784325 -0.06011489639473568
1800000000.0 -0.03825854138812903 0.08395728111532423
1820000000.0 -0.013328853978685648 0.1236124755763344
1840000000.0 -0.05777518752925784 -0.15286792089159407
1860000000.0 0.014373996933684777 0.20031057202145885
1880000000.0 0.007744684544222088 -0.24097246876191955
1900000000.0 -0.020542588501157404 0.2836442040093938
1920000000.0 -0.022897602926248223 -0.31875544956686463
1940000000.0 -0.1995513875378141 0.2931296765164923
1960000000.0 0.36347068698186435 -0.12047653449426389
1980000000.0 -0.35528668313404543 -0.190132347124734
2000000000.0 -0.3099442550260375 0.2842492999230161
2020000000.0 0.27199064272172335 0.33333765293983697
2040000000.0 0.4142090555523565 0.13765552441052686
2060000000.0 0.3179943550352158 -0.3010478224076516
2080000000.0 0.04392186705371128 -0.43437751901087274
2100000000.0 -0.20226072244248647 -0.38002715324805864
2120000000.0 -0.35087183068630284 -0.23446986533801562
2140000000.0 -0.4017700180462066 -0.0831310213953751
2160000000.0 -0.10713190332031106 -0.3816727040792524
2180000000.0 -0.25280516921845314 -0.2883788578104134
2200000000.0 -0.3679779406840057 0.05319538430406745
2220000000.0 -0.17025779133988736 0.3189774982295642
2240000000.0 0.23410192568465113 0.2703624379040427
2260000000.0 0.35524484889479846 -0.036605817038810724
2280000000.0 0.14213430593213344 -0.3339262936519081
2300000000.0 -0.37657297740140216 -0.02198631729336044
2320000000.0 0.12268488117328151 0.38125858287687947
2340000000.0 0.28743402553824465 -0.32371153990787405
2360000000.0 -0.4282002260208207 0.2020393786290598
2380000000.0 0.48559337059324975 -0.18872349348679313
2400000000.0 -0.4518193704274925 0.3463595334118956
2420000000.0 0.18338750743914864 -0.5883312047327787
2440000000.0 0.1944823049837409 0.6288572560319232
2460000000.0 -0.5296365258280221 -0.4457535671062305
2480000000.0 0.6597973461745797 0.2810839617715352
2500000000.0 -0.5888746224078132 -0.43508058930318805
2520000000.0 0.2965969782995401 0.6759054109142875
2540000000.0 0.23235993858172985 -0.6976388063696966
2560000000.0 -0.7076522870594917 0.1617405683977262
2580000000.0 0.36343256973097493 0.6070736673792823
2600000000.0 0.4152739342112112 -0.5395717173815118
2620000000.0 -0.6069092643833317 -0.22819407822452498
2640000000.0 -0.5962396230553642 -0.13016751319858624
2660000000.0 0.04099516973317881 0.5633062059683467
2680000000.0 0.501749124250311 -0.13376935301313606
2700000000.0 -0.2894552238393016 -0.37556565593899444
2720000000.0 -0.07490242972421833 0.422761472321538
2740000000.0 0.3745616896478206 -0.10274115862564924
2760000000.0 -0.3358518286016475 -0.10515539902618702
2780000000.0 0.27858247000632025 0.16747738222954595
2800000000.0 -0.29395015859858864 -0.0731833341418031
2820000000.0 0.1231361761463502 -0.2613485511691617
2840000000.0 0.16423690780388453 0.22657781831760984
2860000000.0 -0.24864853276447524 0.1228686766602987
2880000000.0 0.005591149762575746 -0.2782721958350799
2900000000.0 0.12148621519214811 0.2532926398586632
2920000000.0 0.09021541267865284 -0.2706214198451188
2940000000.0 -0.2897891634865973 -0.023832002988877634
2960000000.0 -0.17100315953407075 0.24054308808177557
2980000000.0 -0.20121381943872443 0.2231961268171765
3000000000.0 -0.3034864858289276 0.010675228644290548
3020000000.0 -0.10426560676190172 -0.2848655660742853
3040000000.0 0.26576277638162676 0.13899990032020662
3060000000.0 -0.29571491662441607 0.04201708145698955
3080000000.0 0.27812825470150393 -0.09488798464375421
3100000000.0 -0.2708676930727691 0.09981164104646335
3120000000.0 0.16975212214688484 -0.2269664365697274
3140000000.0 -0.038849146849082944 0.2709695591159047
3160000000.0 -0.1359891894714541 -0.22126081223029348
3180000000.0 -0.06595853437099963 0.23437729856673353
3200000000.0 -0.19681127221039774 -0.09862915912867067
3220000000.0 0.12343061550670521 -0.15055573647275175
3240000000.0 0.06228643578704194 0.15324117017764
3260000000.0 -0.12400631085946451 -0.050693231145616045
3280000000.0 0.04428450234060087 0.09287560586655672
3300000000.0 -0.0042354836324942444 -0.07276198245437279
3320000000.0 -0.04207197469379554 -0.020061297459331388
3340000000.0 0.023570064428744136 0.0038804010764347265
3360000000.0 -0.0036194489974620747 0.0048321691687300775
3380000000.0 -0.0014217078907683618 0.008651929379812285
3400000000.0 -0.010734878959656769 -0.01897402544373
3420000000.0 -0.015080059028071384 -0.029371083592039313
3440000000.0 0.03043830556848024 -0.02917169089902144
3460000000.0 -0.05044876741581011 0.006976324561954592
3480000000.0 0.06119420142788589 -0.01277525724776712
3500000000.0 0.017468403550563515 -0.074532764383175
3520000000.0 -0.026452197032891252 -0.08622493446714445
3540000000.0 0.030553477239114713 0.10086166430629122
3560000000.0 -0.1045674672624943 -0.06052226083458275
3580000000.0 0.1351534866112129 0.005337947016109774
3600000000.0 0.051300176013547694 0.14312123654786837
3620000000.0 -0.10842744756888846 0.1219081072217853
3640000000.0 -0.16229263272442834 -0.06179993857413977
3660000000.0 -0.03397981410352847 -0.18002682645173787
3680000000.0 0.13675333334226922 -0.12943151748995294
3700000000.0 0.17114334417722185 -0.07886562264887989
3720000000.0 0.14404204127488868 0.12201934054384342
3740000000.0 0.03747162215247758 0.1798826507345075
3760000000.0 -0.02627272521123916 -0.17656726153147975
3780000000.0 0.06075377870910934 0.15829992464115195
3800000000.0 0.13549243295770655 -0.08942636509230076
3820000000.0 -0.06608357401337815 -0.13998548120479284
3840000000.0 -0.07669684957277759 -0.12584032820873622
3860000000.0 0.14379506690339133 0.03258198439448788
3880000000.0 0.13371269453280704 0.07318456990343897
3900000000.0 0.08220602569142063 -0.13656398215465104
3920000000.0 -0.10221749647351001 0.12784888609704984
3940000000.0 0.007619904206367063 -0.16815395607329653
3960000000.0 0.1706707922052961 -0.027740365464750512
3980000000.0 0.061215918453176296 -0.16309703169422038
4000000000.0 0.034050749707294575 -0.16512983881639867
