!Created with skrf (http://scikit-rf.org).
# Hz S RI R 50.0 
!freq ReS11 ImS11
400000000.0 -0.5887670874956039 0.6402396863460952
420000000.0 0.5521977343229921 0.6741497218675087
440000000.0 0.4026619682440834 -0.7354656254238228
460000000.0 -0.5879026004595634 -0.5244346394170818
480000000.0 0.5979205876568996 -0.3694162507956079
500000000.0 -0.15886414730126336 -0.5558339026176234
520000000.0 -0.35113725857581335 0.349808658759016
540000000.0 0.2777944232722749 -0.2961281729184878
560000000.0 -0.0924017328868222 -0.3505692736095916
580000000.0 0.1213144345761377 0.31855906539871076
600000000.0 0.3498294832107145 0.02719153656866499
620000000.0 -0.1005018652213892 0.35129718064246507
640000000.0 0.38474901896902797 0.06472493185813386
660000000.0 0.24521668378269984 -0.32255825904753044
680000000.0 0.42386125004137215 -0.05583668446206978
700000000.0 -0.09223412470759806 -0.4221471335226135
720000000.0 -0.3080294415298411 0.3005814610174225
740000000.0 0.06990518083979588 -0.4077811709485107
760000000.0 -0.39326910677312144 0.024013629729002634
780000000.0 0.3185473440900151 0.16818194147522503
800000000.0 -0.06393426932536653 -0.3167810497641797
820000000.0 -0.22732514720571462 0.15932118802421572
840000000.0 -0.012793571831840923 0.23903997335986357
860000000.0 -0.19970038962097403 -0.030741941013062223
880000000.0 0.1561569178968545 0.028304111488171673
900000000.0 0.09625975199452105 0.05214957162590739
920000000.0 -0.0660484200354829 0.02790318071112985
940000000.0 -0.034285355838589826 -0.02404625784900536
960000000.0 0.041109766034881964 -0.02267944387413245
980000000.0 0.06518674382075235 -0.010319840413147709
1000000000.0 -0.010133815343633586 -0.08325725287686962
1020000000.0 -0.027203413382367456 -0.09985059999303486
1040000000.0 0.04209942582024459 -0.10989953623348757
1060000000.0 0.15177148648612548 -0.015293908008769645
1080000000.0 0.0006428148038801764 0.17249701391411792
1100000000.0 -0.03178139445039912 -0.19604738744964278
1120000000.0 0.12618155238024284 0.18204459141476553
1140000000.0 0.09927312357303555 -0.23334772058017506
1160000000.0 -0.20677342771388701 -0.1899937867535875
1180000000.0 -0.04674215706438307 -0.31268295863590667
1200000000.0 0.26839686551422337 -0.21159913551427073
1220000000.0 -0.16305332411748857 0.32851498159532216
1240000000.0 0.3859435537725452 -0.02899842062608549
1260000000.0 -0.2646297059376467 -0.3133731857979529
1280000000.0 -0.39291099387206285 0.1636622547581934
1300000000.0 0.3812485497676321 0.21488631055346794
1320000000.0 0.43964120027260484 0.0016537652905622552
1340000000.0 0.40711975043608245 -0.16490590171986239
1360000000.0 0.43577319425977656 -0.07109587288829732
1380000000.0 0.16812256057017605 -0.4037417239728336
1400000000.0 -0.39987026647413354 -0.15685509582471532
1420000000.0 0.03201021457886433 0.4096481617859115
1440000000.0 0.3821133444139518 -0.034683716734602896
1460000000.0 0.034200490211987976 -0.3519912112944676
1480000000.0 -0.32116295248412186 -0.005613731535083793
1500000000.0 -0.11600151974291424 0.26308596883900276
1520000000.0 0.08093325551631929 0.2451900258863442
1540000000.0 -0.1764205067775152 -0.14576854111428866
1560000000.0 0.09909021529669787 -0.16768374012182946
1580000000.0 0.13642719621470323 0.09594973458245128
1600000000.0 0.0934322184000239 -0.09383781978585269
1620000000.0 0.09211211019345034 -0.04832728471233702
1640000000.0 0.03445158298328242 0.07048981481838006
1660000000.0 -0.03962484880731951 -0.03854621745851029
1680000000.0 0.03476193828155383 0.010127867525412578
1700000000.0 0.003607032145722218 0.021914977502088682
1720000000.0 0.0032427204312653678 0.007595031720002008
1740000000.0 -0.012346135616874464 -0.011582925662496947
1760000000.0 -0.012313515000822086 0.03086843695433949
1780000000.0 -0.0026993298432102268 0.06136723813019665
1800000000.0 0.09283436748566076 0.0091925406097969
1820000000.0 0.11296988214288264 0.054841554812649365
1840000000.0 -0.1448967808469521 -0.07887287229203466
1860000000.0 0.1071104043229429 0.17213571367448868
1880000000.0 -0.04983382372473856 -0.23792336574555667
1900000000.0 -0.012671228394391583 0.28631262506531513
1920000000.0 0.007760525855462091 -0.3210760491216478
1940000000.0 -0.255133556771012 0.24780902342970204
1960000000.0 0.379541796222396 -0.05395122276922796
1980000000.0 -0.29765390946034204 -0.2714854909408639
2000000000.0 -0.3709289008126566 0.1959380363368065
2020000000.0 0.17899412019636468 0.38976336424493485
2040000000.0 0.39159704205584767 0.1880028615195397
2060000000.0 0.344280380204581 -0.26665171277435207
2080000000.0 0.059656808374243676 -0.4290852360799706
2100000000.0 -0.20609696617142895 -0.373222469506625
2120000000.0 -0.3964968683811897 -0.13218327413658496
2140000000.0 -0.4065470871919172 0.008609654023490872
2160000000.0 -0.2248036124878282 -0.3222421604875985
2180000000.0 -0.35495888318810215 -0.13602008262411416
2200000000.0 -0.2770778315193597 0.24390206379468912
2220000000.0 0.025989402739737398 0.3581609862731431
2240000000.0 0.3470042214466223 0.08147429397206149
2260000000.0 0.27933591424866183 -0.22082126406140212
2280000000.0 -0.07178824395031931 -0.35486976551616334
2300000000.0 -0.3353631073081707 0.1723240048744792
2320000000.0 0.2774116955138139 0.28877809580259334
2340000000.0 0.11924084809090608 -0.41664616582741704
2360000000.0 -0.34298322936898906 0.3270656407718997
2380000000.0 0.4281857308291765 -0.29707821930401745
2400000000.0 -0.3933620689304632 0.41163951233053725
2420000000.0 0.0993105074067287 -0.6076151510557949
2440000000.0 0.22425377681625377 0.6179376014055677
2460000000.0 -0.5549736112276613 -0.4113006015881416
2480000000.0 0.6621205494467269 0.27006074360619564
2500000000.0 -0.59064072829568 -0.4281085565307576
2520000000.0 0.3372770672309766 0.6522891529615993
2540000000.0 0.15461629655697076 -0.7144155385614958
2560000000.0 -0.674029881530973 0.2565860954718107
2580000000.0 0.5016229860029273 0.49218290965128175
2600000000.0 0.2814383538767393 -0.6146716334016666
2620000000.0 -0.6421124647950431 -0.039513470995373355
2640000000.0 -0.5957706044219507 0.1082023035653222
2660000000.0 0.21377569599716031 0.5185688080370386
2680000000.0 0.4200467389467531 -0.3003349080128756
2700000000.0 -0.3660156060332693 -0.29734179569000146
2720000000.0 -0.04137593708577523 0.42468904421858683
2740000000.0 0.35975112313822966 -0.14034175475255675
2760000000.0 -0.3350584830237158 -0.10140132332375482
2780000000.0 0.27336069472615043 0.17216060702425356
2800000000.0 -0.2911535526076254 -0.07613708925755075
2820000000.0 0.14574422382203867 -0.24719389160801913
2840000000.0 0.1445008467527307 0.23722572466791977
2860000000.0 -0.25989507813893886 0.09039487795087402
2880000000.0 0.036568239846444764 -0.27375408476394125
2900000000.0 0.12528807743307768 0.24876898944490894
2920000000.0 0.06723538222489166 -0.27478039697753925
2940000000.0 -0.28793389504791456 -0.015164963416269548
2960000000.0 -0.13548244063534734 0.2598874989422156
2980000000.0 -0.1609818755120964 0.2508795817549111
3000000000.0 -0.2868981634489446 0.09000348568932363
3020000000.0 -0.1991822660565091 -0.22670656018375546
3040000000.0 0.29749390884135396 -0.03668195172451364
3060000000.0 -0.2683662396548008 0.12950132175489557
3080000000.0 0.237235009660633 -0.17372110226497733
3100000000.0 -0.23671363949715954 0.16692105458073755
3120000000.0 0.15861712972341446 -0.2352694605283895
3140000000.0 -0.019435764721553807 0.2741476203257102
3160000000.0 -0.14960466399956257 -0.2135407379983118
3180000000.0 -0.07071582898171043 0.23494831401604727
3200000000.0 -0.17976846164338325 -0.12965120305895975
3220000000.0 0.16118394924339882 -0.11223082132532332
3240000000.0 -0.019399426772750628 0.1661117965217298
3260000000.0 -0.043578515834279886 -0.1288618128049343
3280000000.0 -0.0760016821584548 0.07127519285117832
3300000000.0 0.054337939138311205 0.0515215400550543
3320000000.0 0.009073484624401383 0.04776635491993905
3340000000.0 -0.001776016287340851 0.025415435999669486
3360000000.0 0.007917610054216144 0.00297911475804153
3380000000.0 0.008718189030295833 -0.002642841919084182
3400000000.0 -0.015969126751592143 0.014772302793536574
3420000000.0 0.033145003558198896 -0.0005360329002248521
3440000000.0 -0.03723680802950567 0.01789016079318977
3460000000.0 0.027271164118139478 0.04154917318906998
3480000000.0 -0.05096521911909524 -0.03390239044175075
3500000000.0 -0.0679879664849685 -0.03227437205963107
3520000000.0 -0.0859199930717018 0.027216361373283416
3540000000.0 0.10462508620645913 0.005282090241628935
3560000000.0 -0.11438075834935967 0.03696973588322344
3580000000.0 0.06741226870615416 -0.11742414645930761
3600000000.0 0.13835548469281117 0.06403025338109125
3620000000.0 0.05282660289665405 0.1554691837967922
3640000000.0 -0.14107051205884585 0.10281039799933525
3660000000.0 -0.15464463595942135 -0.09975199045068234
3680000000.0 0.01733173776175833 -0.18868547477834227
3700000000.0 0.06911101490815945 -0.17743788171951694
3720000000.0 0.19111536428066295 -0.0018817691178469132
3740000000.0 0.13258680031557354 0.13105504850085634
3760000000.0 -0.12949937308454285 -0.12658688682342745
3780000000.0 0.12323156304498738 0.1200595560969366
3800000000.0 0.10613474891696037 -0.12658435462467413
3820000000.0 -0.10120681535370617 -0.1211349286441444
3840000000.0 -0.10838815881970042 -0.10403736763755018
3860000000.0 0.14885399165226396 -0.012882800650635835
3880000000.0 0.15487586726923588 -0.0035281590967579024
3900000000.0 0.029869682159998103 -0.1586409923780235
3920000000.0 -0.06357219620165794 0.15324732233531022
3940000000.0 -0.086429684181428 -0.14609103927464948
3960000000.0 0.12653929813562795 -0.12039673060295969
3980000000.0 -0.06455714679629149 -0.16359343611052238
4000000000.0 -0.08178585899610374 -0.14975090527526644
