!Created with skrf (http://scikit-rf.org).
# Hz S RI R 50.0 
!freq ReS11 ImS11
400000000.0 0.7620089352399809 0.4098581534831964
420000000.0 0.8377841052409961 -0.06881512014796184
440000000.0 0.7927177061899192 0.07843855024087525
460000000.0 0.750290327296722 0.06082040322508699
480000000.0 -0.4643156855331911 -0.5157307668337185
500000000.0 0.5840591172478433 0.13555672319334403
520000000.0 0.39673184492990493 -0.3013513726470044
540000000.0 -0.38343541375301043 -0.18319717897361903
560000000.0 -0.35890778332536727 0.1319122178629621
580000000.0 0.2785762663321101 -0.22274856388525474
600000000.0 -0.11535689730029121 0.3414861616451657
620000000.0 0.15964728663989358 -0.33667657403470047
640000000.0 -0.34008054358457857 -0.256178677334889
660000000.0 0.41670882882734633 -0.0670085530595547
680000000.0 0.3744867931801051 0.2317661687978526
700000000.0 0.4285066026036431 0.08311176188878346
720000000.0 0.12518800687801157 -0.43140269864205805
740000000.0 0.10128460217287058 -0.42506075934179066
760000000.0 -0.42581897235280025 0.015362576429444831
780000000.0 0.18172406763796498 0.34101043871258035
800000000.0 0.2917517458176704 -0.15516579845401193
820000000.0 0.19448256749088086 0.18480034562728348
840000000.0 0.1424699897188014 -0.1434337802105473
860000000.0 0.09548580570230833 -0.1443062416697529
880000000.0 -0.13265396896413506 0.07172845089098628
900000000.0 -0.09837427789272297 0.03681170908607418
920000000.0 -0.04691725513068103 0.028195404877034893
940000000.0 0.014794722191150182 0.026638840945337035
960000000.0 0.0012097565523880064 -0.030222118326111033
980000000.0 0.020949473285366803 0.05117094673849118
1000000000.0 0.005666394030450687 0.0906725798469227
1020000000.0 -0.10897902656754932 0.04907661225858599
1040000000.0 -0.12876432079558625 -0.04559233957460983
1060000000.0 0.1398555614093967 0.08283078554191067
1080000000.0 -0.1532304652486246 0.10205835964690736
1100000000.0 -0.05775560232348932 -0.20190939716679732
1120000000.0 0.2318096768869471 -0.027302659004588316
1140000000.0 -0.22821059992156764 0.1138554330707982
1160000000.0 -0.1801772149503386 0.21921142268617427
1180000000.0 -0.31251236478813393 0.01763995745995169
1200000000.0 0.32677034882070316 -0.10944242630240683
1220000000.0 -0.24654948326546436 0.2810872062423692
1240000000.0 0.28972725349116474 -0.2655022606533581
1260000000.0 -0.31423525574798195 -0.254566103709437
1280000000.0 -0.3502506032323251 0.23406100664849577
1300000000.0 0.1719809601041597 0.3954787438595731
1320000000.0 0.35986550454555666 0.25034047439508306
1340000000.0 0.44294054381416276 -0.03948958404813504
1360000000.0 0.30198272590525643 -0.32860615400085313
1380000000.0 -0.29086512186931324 -0.3238777185224033
1400000000.0 -0.4166476771712516 0.06574479357932105
1420000000.0 0.18737690963405895 0.35394215939893087
1440000000.0 0.3703580214385893 0.03456693344978894
1460000000.0 0.2856978622358943 -0.19167761440894981
1480000000.0 -0.2683162484390086 -0.1682613815630904
1500000000.0 -0.010996539672130112 0.2848996975162882
1520000000.0 -0.0035072876882604694 0.251193492333284
1540000000.0 0.05400012127680122 -0.21558778510275806
1560000000.0 -0.01601225758908962 0.19304683706503462
1580000000.0 -0.042713697814186796 0.16348513051456823
1600000000.0 0.13348444759764386 -0.018325975378364997
1620000000.0 0.10092339304623599 -0.005708898180830181
1640000000.0 -0.041043960796830745 0.06701274362163004
1660000000.0 -0.011754042870496995 0.06282796011160227
1680000000.0 -0.015965565424375106 -0.03754573842188097
1700000000.0 -0.012016644359614356 0.01657025228310149
1720000000.0 -0.004327662824077046 -0.0049504430863342285
1740000000.0 0.0006017186506300932 -0.013336618345738757
1760000000.0 0.027741990957580256 -0.010536957683458163
1780000000.0 -0.056108234088926526 -0.0025336172916018396
1800000000.0 0.09453971261179935 0.0070433570936433015
1820000000.0 -0.09602162445976609 -0.08482027452454702
1840000000.0 0.16762067175832582 -0.003065921383043842
1860000000.0 0.1045604717757707 0.17176479932947264
1880000000.0 0.2111287126505314 -0.10814412635356586
1900000000.0 -0.2811247868699734 -0.02824337212398822
1920000000.0 0.29514256278846573 -0.12849049248151403
1940000000.0 -0.3475770139841855 -0.015779411382504955
1960000000.0 0.025371419406746577 0.3726569687509852
1980000000.0 0.3851509494130681 -0.11800905079229798
2000000000.0 -0.39643133990563495 -0.1413131896238816
2020000000.0 -0.17649429810943068 0.38957110268984946
2040000000.0 0.19038277586509422 0.38941025361364595
2060000000.0 0.41974354768738775 0.10903215401537994
2080000000.0 0.380180881516334 -0.20150522958273787
2100000000.0 0.17883434911346524 -0.3859411771603157
2120000000.0 -0.09571880938784448 -0.4051565715637158
2140000000.0 -0.3093904738989444 -0.256924059399257
2160000000.0 0.2634288501002598 -0.2871803656664389
2180000000.0 -0.11212849587468754 -0.3590452483660906
2200000000.0 -0.3315058056875614 -0.14163477085623077
2220000000.0 -0.34497409615742153 -0.054229465106346575
2240000000.0 -0.3446132431609902 -0.013513859305109404
2260000000.0 -0.2651774355071902 0.2240706234588316
2280000000.0 0.05218440370747413 0.3467854719387927
2300000000.0 0.3473516111973841 0.09911104591545125
2320000000.0 0.2121760591135428 -0.32197292205967515
2340000000.0 -0.3693196757679549 -0.1917446954905464
2360000000.0 -0.07750042779039693 0.4490140104457186
2380000000.0 0.22028036215091365 -0.4571243296978258
2400000000.0 0.016891348981343455 0.5620136283997959
2420000000.0 -0.4153299902697813 -0.4535276373780887
2440000000.0 0.6615656559094718 -0.035885868598760244
2460000000.0 -0.5068353171191986 0.4868694263522366
2480000000.0 0.08761014242649737 -0.7283968659158377
2500000000.0 0.004751783019623293 0.7535753724441255
2520000000.0 0.158839032637031 -0.7478826132488176
2540000000.0 -0.415038610170633 0.6452245899417759
2560000000.0 0.7420785264668638 -0.16991099411060148
2580000000.0 -0.5566182128990845 -0.49809082955743955
2600000000.0 -0.015410718288175076 0.7225717623474276
2620000000.0 0.5593883875186503 -0.4108627831656653
2640000000.0 0.10997747381966602 -0.6482946478651185
2660000000.0 -0.5111947048323052 0.3404709010038934
2680000000.0 0.5659375959431551 0.03651613248021859
2700000000.0 -0.3694776987785056 -0.36444703489309455
2720000000.0 0.27016862157315824 0.3860682090095181
2740000000.0 -0.0675021625995346 -0.41648717389359047
2760000000.0 -0.24797844800764318 0.29129399437869563
2780000000.0 0.255988970479866 -0.23856709828678058
2800000000.0 -0.2025508987422874 0.2547877861728553
2820000000.0 0.13447590193639053 -0.27722426087614227
2840000000.0 0.18207539528655484 0.2392384296229489
2860000000.0 -0.2681794453085097 0.12049336377162491
2880000000.0 0.014476718574750446 -0.289243185360763
2900000000.0 -0.1871480144198738 0.21970560268250114
2920000000.0 0.21024229391088434 0.2065745204182297
2940000000.0 0.17425612214859623 -0.25100726234291926
2960000000.0 -0.2980404657491868 -0.09625220934097609
2980000000.0 -0.19631731321278004 0.24690657743478905
3000000000.0 -0.3116711747814775 0.04695665036770828
3020000000.0 -0.16712258810406735 -0.268929534991788
3040000000.0 0.20205262931253115 -0.24161119179366078
3060000000.0 0.17169828015965458 0.25568212873427837
3080000000.0 -0.22833713387126436 -0.1919270671824095
3100000000.0 0.10237348580833285 0.2709973169548384
3120000000.0 0.003811131819566417 -0.28345483120689924
3140000000.0 0.12829179646922992 0.2433920428219498
3160000000.0 -0.19733398044017667 -0.1737040650395711
3180000000.0 0.017400579599508626 0.24893910298857064
3200000000.0 -0.21862575164441794 0.06880892110870908
3220000000.0 -0.18642963264842938 -0.07960140822798768
3240000000.0 -0.034992728616702266 -0.16828992297978584
3260000000.0 0.06928039798885313 -0.11809132145722845
3280000000.0 -0.09217416472970742 0.038840778867256065
3300000000.0 0.02407731399978444 0.06794724123155461
3320000000.0 -0.03446180854315135 0.025398366794791283
3340000000.0 -0.011956137777761973 -0.02000184234183079
3360000000.0 0.007519889809808277 -0.003216737775290159
3380000000.0 0.0017159674849918705 -0.004883251979407597
3400000000.0 0.0018889496947993732 -0.015691649804528668
3420000000.0 -0.03132480985848058 0.005548056969283732
3440000000.0 0.03655394574381846 -0.03003543401264856
3460000000.0 -0.028944235209598258 -0.05334155062011562
3480000000.0 -0.01688028674520385 0.07037045893095382
3500000000.0 0.08070898856527178 -0.04015095660655301
3520000000.0 0.10316916798525952 0.00952556293072037
3540000000.0 -0.07340966773562538 0.0885339190690881
3560000000.0 -0.041718536423506924 -0.11506791973956047
3580000000.0 -0.1275911430438656 -0.03658754976818814
3600000000.0 0.1459518387206111 0.02840413378111015
3620000000.0 -0.1587371711127911 0.04318848805945903
3640000000.0 -0.18064617144951328 -0.008819373212550411
3660000000.0 -0.11853330549785619 -0.14830371908492013
3680000000.0 -0.16227593386243272 -0.10982443669857034
3700000000.0 -0.1935519048117497 0.033095844547841397
3720000000.0 -0.18855864186262974 -0.03333055936643422
3740000000.0 0.06952096589862816 -0.16642566372723272
3760000000.0 -0.09976074240723798 -0.1444298761276898
3780000000.0 -0.06156223181566765 0.16033721563544773
3800000000.0 0.07731243684126295 -0.1485481719852592
3820000000.0 -0.15542335345678057 0.0425497883524376
3840000000.0 -0.09547846266474327 0.1164944994244088
3860000000.0 -0.13833542498123738 0.045515363265615214
3880000000.0 0.007688708082380994 -0.1435192382334991
3900000000.0 0.02239633712454471 0.14575173478695436
3920000000.0 0.12395848248521851 0.09864055164436943
3940000000.0 -0.14204186877169184 0.09343593793867808
3960000000.0 0.01054123765462038 0.17888360998827801
3980000000.0 0.13829591877871159 -0.11146810052136129
4000000000.0 -0.14054688610173272 -0.09058652103348551
