!Created with skrf (http://scikit-rf.org).
# Hz S RI R 50.0 
!freq ReS11 ImS11
400000000.0 0.7715279918424719 0.3927689899996932
420000000.0 0.83430230477487 -0.09715792375432897
440000000.0 0.7947807397513673 0.024890392930456647
460000000.0 0.7506025161543884 0.03358291006796007
480000000.0 -0.44881451059408256 -0.5299006083685539
500000000.0 0.5922284710046329 0.09686624691687372
520000000.0 0.3896285120448972 -0.31176994475240105
540000000.0 -0.392596648512648 -0.16234576888899677
560000000.0 -0.3604295776293962 0.1265256664873237
580000000.0 0.2918406667818444 -0.2045929737938106
600000000.0 -0.09369994298230945 0.3471956821822242
620000000.0 0.08208983343727151 -0.36212159213936573
640000000.0 -0.3646937711855586 -0.218610643529988
660000000.0 0.4072741408316465 -0.10651144356736884
680000000.0 0.36054788452229947 0.254081782540896
700000000.0 0.4353367670203139 0.04318464114037829
720000000.0 0.02824949151111714 -0.4483261588015085
740000000.0 0.024129797855493424 -0.43449237435845034
760000000.0 -0.4227004207454512 -0.04734383412632037
780000000.0 0.0843923390548504 0.3779850690187854
800000000.0 0.3211694758154366 -0.08534175982623732
820000000.0 0.23546269142277323 0.13135602328170826
840000000.0 0.06211312465143922 -0.1918317557664157
860000000.0 0.08105537089255316 -0.1509756110217971
880000000.0 -0.14961769201431224 0.008863154904828668
900000000.0 -0.1036694583656177 -0.004688471422479557
920000000.0 -0.04181935115177585 0.03423222461667185
940000000.0 0.02639551893476161 -0.014455350768123442
960000000.0 -0.030398533289635262 -0.004867566416720422
980000000.0 0.02234559747138503 0.050712597644403265
1000000000.0 -0.02493420377342182 0.08653421432219034
1020000000.0 -0.11880731034389422 -0.010946392071089639
1040000000.0 -0.11351443922457802 -0.0768792722040303
1060000000.0 0.12051561275501557 0.1105491928954853
1080000000.0 -0.11716691319106333 0.14346543066472175
1100000000.0 -0.14538570425987105 -0.15113090093201603
1120000000.0 0.1942730926014002 -0.1263891978522506
1140000000.0 -0.22214186754477366 0.12199362953807225
1160000000.0 -0.1789169062123947 0.21854493678704268
1180000000.0 -0.31047993059352713 -0.04020147209438487
1200000000.0 0.3378782558026278 -0.0734328851359683
1220000000.0 -0.2240812208134722 0.3008414047844331
1240000000.0 0.2166975244583125 -0.328238848725516
1260000000.0 -0.3770480533653437 -0.14332256768044266
1280000000.0 -0.3289917531668131 0.2609697423340229
1300000000.0 0.09771389312283864 0.4186212884788294
1320000000.0 0.2892767634719755 0.32942117748763977
1340000000.0 0.44405559788909604 0.0462225157410644
1360000000.0 0.27933939058045437 -0.35079094002415245
1380000000.0 -0.3605815265803434 -0.24578568423520153
1400000000.0 -0.3951215541883584 0.14672017769759066
1420000000.0 0.2168139777634547 0.3349165168997529
1440000000.0 0.35545508670986803 0.10510994807013661
1460000000.0 0.3153970524615294 -0.13546784738661546
1480000000.0 -0.24495561473335378 -0.20204632626268162
1500000000.0 -0.008128890738158522 0.2861999215791353
1520000000.0 0.07142430141095836 0.241088528340731
1540000000.0 -0.011090191874134415 -0.22073693820473816
1560000000.0 0.016647254677537707 0.19140560180763755
1580000000.0 -0.023534480570445607 0.16581860160756032
1600000000.0 0.13197318934305405 0.022984692972611704
1620000000.0 0.07934506761918217 0.06269030224969317
1640000000.0 -0.07686238458929434 0.023257284459973084
1660000000.0 -0.018856724364666688 0.06279825943317041
1680000000.0 -0.035253859261681036 0.02225651832659364
1700000000.0 -0.019858150720761653 0.005324144625570322
1720000000.0 -0.004323521455007732 0.0032917618375026387
1740000000.0 0.011338508695652684 0.009098329047771041
1760000000.0 -0.022546308816970277 -0.02136392083657366
1780000000.0 0.0490223514059845 0.027625611877180968
1800000000.0 0.05316930975157652 -0.0767923002057012
1820000000.0 -0.11390728116136915 -0.05537923192964919
1840000000.0 0.16223996922655454 0.03700909046423816
1860000000.0 0.039845387823567044 0.19747193429482685
1880000000.0 0.220775972795131 -0.09044407304311532
1900000000.0 -0.2839296593576896 -0.012739156881729566
1920000000.0 0.27177916029187754 -0.17471029236031768
1940000000.0 -0.34523045913716016 0.04464984656517832
1960000000.0 0.047492135927445264 0.37028638454487134
1980000000.0 0.39030245786140555 -0.09742326443957224
2000000000.0 -0.38110502864395224 -0.1782343115505764
2020000000.0 -0.23108486756097799 0.36038293634963914
2040000000.0 0.1536888090956134 0.4053469366279227
2060000000.0 0.41452171671062854 0.12553337107106113
2080000000.0 0.3710061379769539 -0.2157728442792075
2100000000.0 0.11876665681033695 -0.4070117898961844
2120000000.0 -0.10385354506051334 -0.40207194728071377
2140000000.0 -0.31608839914163284 -0.24652952173562334
2160000000.0 0.2447235624420156 -0.3017134468179705
2180000000.0 -0.13174868465487652 -0.35161521107758464
2200000000.0 -0.3549013863029552 -0.06089526646329898
2220000000.0 -0.34889943295150994 0.003901273258816603
2240000000.0 -0.3408409747217285 0.05027093245186061
2260000000.0 -0.23568608842482064 0.2553895834398335
2280000000.0 0.1056089513481201 0.33572505139181325
2300000000.0 0.36150051925208104 0.029366727426435545
2320000000.0 0.13921783245070155 -0.36117857631763717
2340000000.0 -0.3940168815285646 -0.13851491972659188
2360000000.0 -0.03817654120159317 0.45534314639152246
2380000000.0 0.18973651899421443 -0.4719079878281414
2400000000.0 0.0446048089593509 0.5611447295833462
2420000000.0 -0.44870382836221034 -0.42055321955499914
2440000000.0 0.6583121624093446 -0.07168050248725558
2460000000.0 -0.4406473637619778 0.5460991087936347
2480000000.0 0.0022866958236676905 -0.7324123228830987
2500000000.0 0.044332681156688834 0.7506621778093147
2520000000.0 0.02929828987249019 -0.762157796148742
2540000000.0 -0.2964130707857108 0.704800697039686
2560000000.0 0.6956578246265632 -0.30245220470271017
2580000000.0 -0.6371211298327872 -0.38491271835758684
2600000000.0 0.1516542304425286 0.7051631694877449
2620000000.0 0.4409880080369998 -0.5346685525817446
2640000000.0 -0.02197515687979138 -0.6563440286216309
2660000000.0 -0.4175055878591971 0.4499605229012529
2680000000.0 0.5597856139973515 -0.08686112991721365
2700000000.0 -0.4258417793223104 -0.29596517575975667
2720000000.0 0.2901947428245167 0.37092168903726835
2740000000.0 -0.08982688760029534 -0.4130127573334804
2760000000.0 -0.25690250680110355 0.28462600278909633
2780000000.0 0.2691397882389232 -0.2242630669834078
2800000000.0 -0.2246070214759214 0.23558280444131055
2820000000.0 0.1804059331908525 -0.2490997968713678
2840000000.0 0.13308459507460227 0.26900155240107515
2860000000.0 -0.28630382146040456 0.06226517523135517
2880000000.0 0.07716545595375726 -0.2785699853306804
2900000000.0 -0.20640162638708248 0.20023279747430459
2920000000.0 0.19693022756628703 0.21761098544090182
2940000000.0 0.17712638421815316 -0.24695661081373557
2960000000.0 -0.3030095822239673 -0.07252786613168838
2980000000.0 -0.21011708610641575 0.23328452670886118
3000000000.0 -0.28306324442727454 0.13278508472750383
3020000000.0 -0.2473662937875864 -0.19532901509523773
3040000000.0 0.09390506278213694 -0.29992514208565924
3060000000.0 0.2385133981398959 0.19526329177979881
3080000000.0 -0.27420899450273356 -0.11776530332606737
3100000000.0 0.1842360226998277 0.22285073959004453
3120000000.0 -0.1060457711518003 -0.26343222269658934
3140000000.0 0.13721449111114048 0.23862873330250228
3160000000.0 -0.23741083176622838 -0.11329011296935004
3180000000.0 0.033254872813155756 0.2472066329412202
3200000000.0 -0.2107009228298636 0.0912632475244211
3220000000.0 -0.19833264746155863 -0.046598939242194215
3240000000.0 -0.0362849311062488 -0.1687902768340614
3260000000.0 0.09975707239680477 -0.09431146272476158
3280000000.0 -0.09439412774982454 -0.036380448485184735
3300000000.0 -0.01076689106119599 0.07238150697765006
3320000000.0 -0.041205388117026606 0.015079873677871693
3340000000.0 0.009161261943098239 -0.022249551372759697
3360000000.0 -0.0076489304015348114 0.005122950897935675
3380000000.0 -0.00032895502032576285 -0.004372321565228659
3400000000.0 -0.011004952740879172 -0.009148299503422821
3420000000.0 -0.0073251125297214455 -0.03035568533896373
3440000000.0 0.03953387880326357 0.023972929757997363
3460000000.0 -0.0021195876788645167 -0.059751074270400446
3480000000.0 -0.04049587448350912 0.05899190615700868
3500000000.0 0.08544324704633466 -0.021701787718481944
3520000000.0 0.10161729747578789 -0.0042407034750859
3540000000.0 -0.08152906218868525 0.07817052933258921
3560000000.0 -0.050661896130919204 -0.11049548108282563
3580000000.0 -0.12876587332854633 -0.02635625554557377
3600000000.0 0.14559465668563282 -0.023355100172418798
3620000000.0 -0.1459723912726397 0.07158040262306575
3640000000.0 -0.17759391674403266 0.02616133238741437
3660000000.0 -0.1724197166159509 -0.07638137610537635
3680000000.0 -0.18820431601962054 -0.051975659067973225
3700000000.0 -0.14898191910827374 0.12721006475199326
3720000000.0 -0.19195236406424454 0.009351584268385286
3740000000.0 0.0008013460703378336 -0.18130439084837188
3760000000.0 -0.15481252425113337 -0.08482990346084057
3780000000.0 0.0036650325244547 0.1728482959235816
3800000000.0 0.00847065557685813 -0.16780124997555038
3820000000.0 -0.13529572820530758 0.08926804223702833
3840000000.0 -0.03744088592335601 0.14688053931157538
3860000000.0 -0.11118867543761606 0.09578472807561915
3880000000.0 -0.05676889225397166 -0.1332474140456633
3900000000.0 0.1143575614082485 0.0949048073660726
3920000000.0 0.15718584057816665 0.027474224301890282
3940000000.0 -0.11104660332349713 0.13072169790741495
3960000000.0 0.02143661200933935 0.18015022585962867
3980000000.0 0.12537771391417823 -0.12766100472758035
4000000000.0 -0.1475277349179056 -0.08236291753726553
