!Created with skrf (http://scikit-rf.org).
# Hz S RI R 50.0 
!freq ReS11 ImS11
400000000.0 0.7836979108438592 0.3714256329150784
420000000.0 0.8379368647363898 -0.06347604302639107
440000000.0 0.7944115487274592 0.0582506694356382
460000000.0 0.7504478716248759 0.05273489991351375
480000000.0 -0.4438635243549801 -0.5334504916505034
500000000.0 0.5892348266551013 0.10848525784397314
520000000.0 0.396290571694266 -0.3015526755324724
540000000.0 -0.3755621355295288 -0.1986208250597615
560000000.0 -0.3626534450378132 0.12134877436320858
580000000.0 0.30020860783646314 -0.19232970192053728
600000000.0 -0.1467060547896957 0.32945333219343503
620000000.0 0.16415322205552815 -0.33457288659693146
640000000.0 -0.36056691632375737 -0.2269917051075661
660000000.0 0.41864000769952214 -0.053913649270059365
680000000.0 0.3668428181701681 0.24366709109399004
700000000.0 0.4310639595438262 0.06896379694907429
720000000.0 0.15869297972718882 -0.4202229845927532
740000000.0 0.10577505379261545 -0.42419419977663886
760000000.0 -0.42573327898966185 0.022235996206338544
780000000.0 0.1847347225103414 0.3393496259939215
800000000.0 0.28670407393984104 -0.16390200922940248
820000000.0 0.1975766274712508 0.18120400631052266
840000000.0 0.1365537311520129 -0.14897642685563295
860000000.0 0.07742682284194541 -0.15501394495601714
880000000.0 -0.12522989343748017 0.08443923433160552
900000000.0 -0.09716251638187795 0.039909739736671834
920000000.0 -0.04931192766242034 0.02369317474432344
940000000.0 0.025459314037792558 0.016407499912836975
960000000.0 -0.006401870555192411 -0.029634202728837856
980000000.0 0.023608832304708477 0.050332169438997314
1000000000.0 0.0036147020762853682 0.09103111431681019
1020000000.0 -0.10388618256138503 0.059216323359174886
1040000000.0 -0.13270560622707955 -0.03199391396713391
1060000000.0 0.15072347442745146 0.05999936154987704
1080000000.0 -0.15150757781635635 0.10462077527596718
1100000000.0 -0.06546587829313766 -0.1996411398808863
1120000000.0 0.22901932280678927 -0.047139798184894305
1140000000.0 -0.23210569032944597 0.10647706513299592
1160000000.0 -0.1710151418775035 0.22682696462622207
1180000000.0 -0.3128202472816474 -0.004712545620216832
1200000000.0 0.32791921365381094 -0.1059337704126925
1220000000.0 -0.2605591118166373 0.2675186909392399
1240000000.0 0.308908892999377 -0.24252734319186772
1260000000.0 -0.29115032340080693 -0.280526718130989
1280000000.0 -0.3571567852839487 0.22345115041359556
1300000000.0 0.18538096282285396 0.3894330569184623
1320000000.0 0.3717003853701439 0.23237721932095923
1340000000.0 0.442873373147043 -0.03873886455646804
1360000000.0 0.3005097679451067 -0.32965505070978973
1380000000.0 -0.29888907129157 -0.31632489886478016
1400000000.0 -0.4175726226324519 0.06139542025254685
1420000000.0 0.20584047523536714 0.34361828911568293
1440000000.0 0.3709740134704754 0.03248848450349212
1460000000.0 0.27650410864335917 -0.2051856160007223
1480000000.0 -0.2705472833301112 -0.16491579760897088
1500000000.0 -0.02940912617995234 0.28397781343681033
1520000000.0 -0.04063150522349501 0.2483348901853377
1540000000.0 0.06590352525691888 -0.21281349277897318
1560000000.0 -0.023283911153308832 0.1923032755207542
1580000000.0 -0.03736429541188487 0.16482902503526092
1600000000.0 0.13176540868873818 -0.02772687439374672
1620000000.0 0.09700474310377409 -0.027659057449249357
1640000000.0 -0.03828874109631501 0.06807125578489896
1660000000.0 -0.007151808611349356 0.06303404361462989
1680000000.0 -0.00945772112363846 -0.03949042867506375
1700000000.0 -0.0071239106707703895 0.019274557641901523
1720000000.0 0.006353262730733131 -0.001955160483518474
1740000000.0 -0.010346360011601946 -0.008180637018157398
1760000000.0 0.02899498203992893 0.004117091488267616
1780000000.0 -0.055162328967249374 -0.009161906164234195
1800000000.0 0.09409653069808858 0.00884949874401682
1820000000.0 -0.1106849789119426 -0.06466409090817339
1840000000.0 0.16604322238751829 -0.021876745811413696
1860000000.0 0.1170333081704563 0.1634206159836695
1880000000.0 0.2012870802777571 -0.12558788861179268
1900000000.0 -0.28144902951141365 -0.022892484483880572
1920000000.0 0.2972596221186557 -0.12361665479907065
1940000000.0 -0.34779560944488463 -0.013461861095385429
1960000000.0 0.03463877161574052 0.372044730085372
1980000000.0 0.3856752058667457 -0.11703309451121144
2000000000.0 -0.3961952365998658 -0.14276248322890317
2020000000.0 -0.20707082536477434 0.37453948306708296
2040000000.0 0.19951781714510736 0.38482847803860065
2060000000.0 0.409711283900797 0.14247605670432067
2080000000.0 0.3888725430084143 -0.18366598837173825
2100000000.0 0.17778973647495472 -0.3862661402903328
2120000000.0 -0.0873999896209267 -0.4068725416469852
2140000000.0 -0.28017479312743865 -0.28844607868044275
2160000000.0 0.28253770712497706 -0.26820920554995586
2180000000.0 -0.1082348425115473 -0.36029229452933975
2200000000.0 -0.32689814081644103 -0.15222598851099498
2220000000.0 -0.34494941506187005 -0.05665181791905662
2240000000.0 -0.34422388922654273 -0.02045266764725776
2260000000.0 -0.2659840205026785 0.22325771384794474
2280000000.0 0.04598572837115324 0.3477015717633409
2300000000.0 0.3434707425488826 0.11215033437786004
2320000000.0 0.2184171882210407 -0.31796149198285995
2340000000.0 -0.36548481736739596 -0.1988515855346313
2360000000.0 -0.07171657646469821 0.4499587798491357
2380000000.0 0.21783564730632624 -0.4582326654576169
2400000000.0 0.014416815927092779 0.5619086802660667
2420000000.0 -0.40940962868495046 -0.4586010599401087
2440000000.0 0.6609034582784381 -0.04446724112962036
2460000000.0 -0.4802083050075077 0.5129996834950685
2480000000.0 0.0796657612307675 -0.7291663099257352
2500000000.0 0.022469380777722276 0.753460981016613
2520000000.0 0.1254596029027759 -0.7542993370390202
2540000000.0 -0.4440559239569107 0.6257973396253615
2560000000.0 0.7424173770870248 -0.1688008587320348
2580000000.0 -0.5443430332583097 -0.5118565872787026
2600000000.0 -0.05558024040678806 0.7207873996195522
2620000000.0 0.5590581181086193 -0.41118782740928067
2640000000.0 0.17687505151436245 -0.6331078042157919
2660000000.0 -0.5161047250817806 0.3326362193172969
2680000000.0 0.5671364409765228 -0.008046376912495988
2700000000.0 -0.37391841191689984 -0.35990825288560935
2720000000.0 0.2655733533946183 0.38887629686953157
2740000000.0 -0.058367971062656177 -0.41758552261836523
2760000000.0 -0.2499048763897212 0.28930210918888644
2780000000.0 0.25337315862711274 -0.24098873247530966
2800000000.0 -0.1950645428751379 0.2603178814551701
2820000000.0 0.12415521789971475 -0.2820619390051761
2840000000.0 0.19007686954318828 0.23305215618195246
2860000000.0 -0.2550844045018646 0.1459709213173468
2880000000.0 0.03019945832033609 -0.28831555653888274
2900000000.0 -0.19300352514765026 0.21468666659594993
2920000000.0 0.21751536593122625 0.19905422987788282
2940000000.0 0.20591551778270017 -0.22617492324910257
2960000000.0 -0.2990331583481039 -0.0937433966284043
2980000000.0 -0.21610402304166212 0.2302674280437723
3000000000.0 -0.313450138079435 0.024394852612928685
3020000000.0 -0.14520518811279798 -0.2809715151743562
3040000000.0 0.1653755671019247 -0.2676358910282444
3060000000.0 0.1599240065269876 0.2627381824075784
3080000000.0 -0.22731327498308673 -0.1931878739637117
3100000000.0 0.03986120020063345 0.2865419823673264
3120000000.0 0.003997549419004266 -0.2835262937421827
3140000000.0 0.11465406326634141 0.24984345674680053
3160000000.0 -0.2084769174263594 -0.16040370879885585
3180000000.0 0.005906361877335129 0.24920981048587035
3200000000.0 -0.2179616443766989 0.06997809715021931
3220000000.0 -0.19072400990185573 -0.06876595042805078
3240000000.0 -0.04372397529574106 -0.16597263814849056
3260000000.0 0.06381736493962765 -0.12091493530999992
3280000000.0 -0.08265451960203735 0.056154251109797416
3300000000.0 0.03573554796335178 0.06255223510994105
3320000000.0 -0.014592731736440719 0.04040654986524845
3340000000.0 -0.01931919059347809 -0.013347251880432103
3360000000.0 -0.0053561171888826 0.0062392860534229684
3380000000.0 0.004175488095886904 -0.003010603799241037
3400000000.0 -0.012184685426680837 0.010541673428646215
3420000000.0 -0.02762940722890757 0.01630424264307233
3440000000.0 0.04676858791089899 0.005634093818938955
3460000000.0 -0.03282407754854842 -0.05086670312169049
3480000000.0 -0.023407228232624318 0.06845098006175059
3500000000.0 0.07733066128187441 -0.0463416499479466
3520000000.0 0.10022184728533072 0.025900195705930714
3540000000.0 -0.07223969123860974 0.08949153663351486
3560000000.0 -0.042651266052594054 -0.11469188284581751
3580000000.0 -0.13070660698211395 -0.025012176175554318
3600000000.0 0.14628314005650506 0.02617552221228835
3620000000.0 -0.16350867373177497 0.01691714548300716
3640000000.0 -0.18060195044926697 -0.01649945433294501
3660000000.0 -0.10326370540825575 -0.1590679393136252
3680000000.0 -0.15235241380312037 -0.12319215392864657
3700000000.0 -0.19470222980667176 0.022985956150794563
3720000000.0 -0.18344908714191369 -0.05418762104158343
3740000000.0 0.08248729747526598 -0.16024364505988
3760000000.0 -0.08236826481494586 -0.15484816832633783
3780000000.0 -0.08853711180389996 0.14768784679581903
3800000000.0 0.08652830617422036 -0.14293719229274432
3820000000.0 -0.1551545737259269 0.041410257483918946
3840000000.0 -0.10749226653360752 0.1050827735949405
3860000000.0 -0.14333923423539954 0.025033551233501712
3880000000.0 0.03175102791225849 -0.1399589605444963
3900000000.0 0.005610943257175512 0.14698104922105004
3920000000.0 0.11514436772163145 0.10823055281556125
3940000000.0 -0.14475199314843815 0.08965167093015573
3960000000.0 0.004041460153890424 0.17931407301895488
3980000000.0 0.11492334754650817 -0.1350855194293727
4000000000.0 -0.16070701839607412 -0.04508331212911878
