!Created with skrf (http://scikit-rf.org).
# Hz S RI R 50.0 
!freq ReS11 ImS11
400000000.0 0.7834981546451906 0.3705968445338955
420000000.0 0.8318319647057701 -0.1199391419246186
440000000.0 0.7941557283516284 0.05833992135457293
460000000.0 0.7494252253067208 0.0675566125752313
480000000.0 -0.453886455831401 -0.5251095934269233
500000000.0 0.5895447934251398 0.10882474430126042
520000000.0 0.3931962694571528 -0.30669988579639407
540000000.0 -0.3766086445484598 -0.19699817855617674
560000000.0 -0.35910952551606706 0.13029358409886505
580000000.0 0.2754045995883225 -0.22607478316128773
600000000.0 -0.08357600960105245 0.35033619075144423
620000000.0 0.14610414129699215 -0.34246177628642954
640000000.0 -0.3483519312509916 -0.24447472938220777
660000000.0 0.42071368111046753 -0.03326755192967759
680000000.0 0.35419368030527987 0.26291858210046226
700000000.0 0.4357640319032689 0.03676868168481545
720000000.0 0.09373064652468789 -0.43947382004780294
740000000.0 0.04701100901290293 -0.4330198539737412
760000000.0 -0.4238654759603091 -0.038347364096874385
780000000.0 0.1120218124221461 0.3704505315433138
800000000.0 0.31172785448811274 -0.11340278971055306
820000000.0 0.22358858963676406 0.14994720494489536
840000000.0 0.09403590053112561 -0.17844560320022246
860000000.0 0.08650052300760179 -0.14857006253995697
880000000.0 -0.14740885810348225 0.028096742177012135
900000000.0 -0.10397135694531041 0.008424740488610895
920000000.0 -0.04084262516455458 0.03605878962277726
940000000.0 0.030160859964560915 -0.0009973129989170944
960000000.0 -0.02997840993407933 0.00570132057910874
980000000.0 0.03611978708834697 0.04213693107710583
1000000000.0 -0.01591078678149163 0.08940549067093032
1020000000.0 -0.11908251808307231 -0.011331238972753316
1040000000.0 -0.10109911094632262 -0.09226463881331662
1060000000.0 0.1291273102391933 0.09946374244730148
1080000000.0 -0.13130542054035554 0.12976765216989092
1100000000.0 -0.13103282089679577 -0.1637681591459058
1120000000.0 0.19518660958621847 -0.12634167652301986
1140000000.0 -0.23105740834634908 0.10536004369896596
1160000000.0 -0.1695529707261927 0.22672107088422655
1180000000.0 -0.3127067569822527 -0.014665681025208939
1200000000.0 0.3279473047506986 -0.1087951229817665
1220000000.0 -0.23045268923989676 0.2962229173379044
1240000000.0 0.23034858300173922 -0.31963744952680284
1260000000.0 -0.3631442808023627 -0.17794510951311376
1280000000.0 -0.32436968047180664 0.2674519710698835
1300000000.0 0.1258032194685414 0.4115967450295349
1320000000.0 0.3075328815388018 0.3128287225759665
1340000000.0 0.44558492884642564 0.02256357172754466
1360000000.0 0.29555016559425884 -0.33634646621548797
1380000000.0 -0.3250131454486159 -0.2905259618055438
1400000000.0 -0.40605504783160457 0.11218946803925642
1420000000.0 0.20126714746413274 0.34429032349867955
1440000000.0 0.3609075331610609 0.08424873569124212
1460000000.0 0.314334605045753 -0.13813159631488653
1480000000.0 -0.24363173247521727 -0.2023835652222381
1500000000.0 -0.004785957726388773 0.28565543740478616
1520000000.0 0.026241956561669822 0.25018137353903136
1540000000.0 -0.008470841186423996 -0.2213635640132709
1560000000.0 0.04112205628273192 0.18804559861661732
1580000000.0 -0.018490723703366792 0.16688219839952145
1600000000.0 0.12792940963962224 -0.04005792778782621
1620000000.0 0.10159333565474536 -0.002634012974284606
1640000000.0 -0.04631298845791394 0.06529673725384474
1660000000.0 0.02977390448609096 0.05856539005854529
1680000000.0 -0.041692611677732555 0.0057218846593883885
1700000000.0 0.02059094281686292 -0.0013053064275673346
1720000000.0 0.0004528003030501434 -0.005962281266139345
1740000000.0 0.0024146330486524083 -0.014486943318276222
1760000000.0 -0.026976296830234368 -0.01574618080288088
1780000000.0 0.0228830619916901 0.05197276649805091
1800000000.0 0.0737500405711665 -0.05873414815082668
1820000000.0 -0.11078263390786856 -0.0641103378756678
1840000000.0 0.1631469212232061 0.038476575935440814
1860000000.0 0.05869231575110641 0.1931889240330336
1880000000.0 0.219565600373797 -0.09317967475540367
1900000000.0 -0.2821968924031573 -0.02802401796631043
1920000000.0 0.2891418422839293 -0.1429435249740838
1940000000.0 -0.34779001109927427 0.006551674812721899
1960000000.0 0.025991888632065394 0.3719929939177343
1980000000.0 0.3879505864141808 -0.1056324658785066
2000000000.0 -0.3883956783431944 -0.16092316246544242
2020000000.0 -0.18570136841276605 0.3851504035586203
2040000000.0 0.18240479508214127 0.39304562185022973
2060000000.0 0.4233662823400874 0.09225208630726633
2080000000.0 0.3655370795891075 -0.22618826490704255
2100000000.0 0.13172520982883126 -0.40345352227392944
2120000000.0 -0.11369700817629083 -0.39969935646418653
2140000000.0 -0.3279183042246073 -0.23188366075335273
2160000000.0 0.22650616418598765 -0.3167676132080355
2180000000.0 -0.171379250934715 -0.33498124391069817
2200000000.0 -0.3505670300318224 -0.08617831552068919
2220000000.0 -0.34959599106583983 0.015153464551236047
2240000000.0 -0.34229254815958843 0.044830414413077654
2260000000.0 -0.2372687976660053 0.25432049266304346
2280000000.0 0.09565087653627832 0.3382526385477891
2300000000.0 0.3578518111093469 0.05658247409052922
2320000000.0 0.16196245297545617 -0.35121663195063507
2340000000.0 -0.380861938692131 -0.17017153481501113
2360000000.0 -0.052221127005435124 0.45363946106997227
2380000000.0 0.2013197173825868 -0.4667021279648561
2400000000.0 0.04811017237608411 0.5607691123270115
2420000000.0 -0.46088491980510393 -0.40710802900335563
2440000000.0 0.6573786544783162 -0.07997989390616941
2460000000.0 -0.43867852399244 0.548127957580745
2480000000.0 0.005918477083562603 -0.7325331631382569
2500000000.0 0.040927224299149835 0.7515366072306149
2520000000.0 0.04171188694822113 -0.7620828996646422
2540000000.0 -0.2982837858062229 0.705484083199853
2560000000.0 0.7067427961720347 -0.2792632530319218
2580000000.0 -0.6492065983431583 -0.3669813955252964
2600000000.0 0.05280554638555988 0.7201493158094606
2620000000.0 0.510593881627464 -0.4686811127263796
2640000000.0 0.03931633170689895 -0.6555667997480802
2660000000.0 -0.43282882915775245 0.4348780677151127
2680000000.0 0.5644467745628621 -0.050600244941856755
2700000000.0 -0.4119842442265201 -0.3151740683685671
2720000000.0 0.28995712915874233 0.37107564255260056
2740000000.0 -0.06967379331765665 -0.4160281846367474
2760000000.0 -0.25610588214742824 0.283971286974331
2780000000.0 0.25804161417654464 -0.23585206887457305
2800000000.0 -0.213489282167031 0.2447422470158596
2820000000.0 0.16044936979091223 -0.2620847661446705
2840000000.0 0.15580335966219133 0.2558600596053918
2860000000.0 -0.28047999283771724 0.08542336620236872
2880000000.0 0.02721842744922712 -0.2874317369488213
2900000000.0 -0.17897347673827746 0.22505433190333146
2920000000.0 0.22346933660419926 0.19029366326779054
2940000000.0 0.16858025554271489 -0.2533422867181759
2960000000.0 -0.3096212855557802 -0.039073513743085174
2980000000.0 -0.16110463968939723 0.27040576305279235
3000000000.0 -0.29979508424574947 0.09441586196585515
3020000000.0 -0.20674611191164213 -0.23955227552353953
3040000000.0 0.16901676615991545 -0.26572476866445033
3060000000.0 0.25795846128630107 0.16881567009254964
3080000000.0 -0.27651916196624415 -0.11272470964011262
3100000000.0 0.08826381900719552 0.2758132083412716
3120000000.0 -0.060759573408908675 -0.27767880010752327
3140000000.0 0.13615228766132387 0.2396278026608265
3160000000.0 -0.22321380761911266 -0.14100438831774
3180000000.0 0.025038278860438516 0.24883723017597595
3200000000.0 -0.2181899127857814 0.07296095878231545
3220000000.0 -0.18505505888708404 -0.08410145152417131
3240000000.0 -0.017452348788223174 -0.17138557373464536
3260000000.0 0.10846367253763924 -0.08418604673859705
3280000000.0 -0.09873332422570107 -0.01871225417398512
3300000000.0 -0.04685531528223277 0.05523007559121666
3320000000.0 -0.02011954351552419 -0.0381672163662497
3340000000.0 0.01618177329944451 0.017203183800401527
3360000000.0 -0.00757203829251375 0.00487592787170451
3380000000.0 0.0009018693057844737 0.00610749798841929
3400000000.0 0.012537447199224654 -0.009406956342921425
3420000000.0 0.027964315770437582 0.014858224429583403
3440000000.0 -0.01500079108174095 -0.04484030750495146
3460000000.0 -0.05889560785224165 -0.014500433068124704
3480000000.0 0.013448637284932131 0.07085235411655726
3500000000.0 0.024226896041895794 -0.08695624218364005
3520000000.0 0.09682314441063986 -0.03681559230499772
3540000000.0 -0.03034887326000931 0.11099936425610507
3560000000.0 -0.07388844474430774 -0.09760100838094206
3580000000.0 -0.13267889942438793 0.012099985361669827
3600000000.0 0.1486824365149893 -0.00901472166666586
3620000000.0 -0.15023353012986823 0.06717394761997214
3640000000.0 -0.1782912972262938 0.0339773448412369
3660000000.0 -0.1514616703733208 -0.11562119188203612
3680000000.0 -0.17017048253003814 -0.09772484931982346
3700000000.0 -0.19158855045015125 0.04464988605966915
3720000000.0 -0.19030992162416924 -0.022832282146434752
3740000000.0 0.07340136490333865 -0.16572175740477726
3760000000.0 -0.0906486318764425 -0.15103359021262083
3780000000.0 -0.06727690702749917 0.1587218200363595
3800000000.0 0.08861527699128367 -0.14285493629557405
3820000000.0 -0.15644529802954427 0.04030736025452462
3840000000.0 -0.10339503387608809 0.11023291075022612
3860000000.0 -0.1404258984156361 0.04081392410813984
3880000000.0 0.02434776207280773 -0.142534000770563
3900000000.0 0.019351462651881306 0.14690551335417046
3920000000.0 0.12104076443989926 0.1037757164186296
3940000000.0 -0.14700259867026855 0.08761630046270083
3960000000.0 -0.028198799846259223 0.17818262417269382
3980000000.0 0.1671118037973131 -0.06341546577396931
4000000000.0 -0.10008713798265814 -0.13486839800126826
