!Created with skrf (http://scikit-rf.org).
# Hz S RI R 50.0 
!freq ReS11 ImS11
400000000.0 0.7750039605109227 0.38638302875831587
420000000.0 0.8345610714804624 -0.09525213605510172
440000000.0 0.7920322268262668 0.07172173695629384
460000000.0 0.7504892121864296 0.03791131193404676
480000000.0 -0.466399734871465 -0.5142117394430881
500000000.0 0.5900387809698093 0.11002001829110951
520000000.0 0.3923739544409371 -0.3081218662509321
540000000.0 -0.39026980492993396 -0.16766453664928707
560000000.0 -0.3628309084784018 0.11981376777998004
580000000.0 0.2834817746278769 -0.21581809939898752
600000000.0 -0.07058780153588676 0.3525735496305596
620000000.0 0.1291310512596453 -0.3481934432831833
640000000.0 -0.34713865499402413 -0.24563999068888187
660000000.0 0.4158981645063677 -0.06756534522066034
680000000.0 0.35940641568353227 0.25542802357414257
700000000.0 0.4359877313413962 0.03495327822613078
720000000.0 0.07000579088406735 -0.4435689419484546
740000000.0 0.02024500761843238 -0.4343818183320866
760000000.0 -0.42127595570924925 -0.061493229215980015
780000000.0 0.10929117169581716 0.3714681292511787
800000000.0 0.31522407857977097 -0.10341383487644991
820000000.0 0.23164865155321726 0.1371545498062618
840000000.0 0.05145120307217211 -0.19499773442754084
860000000.0 0.06972595095367512 -0.1567831750071528
880000000.0 -0.14820992976258998 0.023237537884595896
900000000.0 -0.10377977655271044 0.0042336105560751664
920000000.0 -0.032518581517373565 0.04291664678235042
940000000.0 0.01265338778094178 -0.027148564217020554
960000000.0 -0.030735597257318534 -0.0014223110803933895
980000000.0 0.0233019369419124 0.050439779432935684
1000000000.0 -0.02303019811019693 0.08730944547474218
1020000000.0 -0.1193182417281647 -0.00144723784736181
1040000000.0 -0.1197167625964001 -0.06670814718184298
1060000000.0 0.12495106456655079 0.10537531953873648
1080000000.0 -0.1193015021769502 0.1417936110754795
1100000000.0 -0.13715749633506327 -0.15884537065515922
1120000000.0 0.19816517801706254 -0.12086919521759955
1140000000.0 -0.2224298228841578 0.12228213278656584
1160000000.0 -0.1756062068546791 0.22148031949838046
1180000000.0 -0.30873054046285936 -0.05253900963819323
1200000000.0 0.3407652619107939 -0.057427832608218675
1220000000.0 -0.2263264197692007 0.29891189202397894
1240000000.0 0.2349062170284876 -0.31524742392809413
1260000000.0 -0.36684369243147374 -0.16769926084909023
1280000000.0 -0.3425139590925899 0.24304479544458002
1300000000.0 0.10079545149141439 0.41800766909817477
1320000000.0 0.2983997667941351 0.3211581964892786
1340000000.0 0.4445808840983713 0.03738856857464766
1360000000.0 0.27960993280125124 -0.35024053109143266
1380000000.0 -0.3520064773995062 -0.25780442463269543
1400000000.0 -0.3961171401712837 0.14399198937200633
1420000000.0 0.222322218186712 0.3315460001448748
1440000000.0 0.3595830685799904 0.0907119453296794
1460000000.0 0.3123987220718993 -0.14282027997215635
1480000000.0 -0.2404737548566997 -0.20735617757378016
1500000000.0 -0.013125950705721272 0.2860387347845912
1520000000.0 0.05770385060361519 0.24489039763491693
1540000000.0 0.011114941289513104 -0.2208550601204738
1560000000.0 0.019369868214846462 0.1912737743999729
1580000000.0 -0.02425634202614036 0.1658387866502696
1600000000.0 0.13352002181643755 0.012328073474512593
1620000000.0 0.08330981342651114 0.05753884916644846
1640000000.0 -0.07436259499532051 0.030157096325680404
1660000000.0 -0.020109792600377277 0.062228392355343644
1680000000.0 -0.0386032065869332 0.015086485886794154
1700000000.0 -0.012127497973502767 -0.01611280171354932
1720000000.0 0.0008016380660906934 -0.005623630247120159
1740000000.0 0.0016934052070743638 0.01382868616542586
1760000000.0 -0.01926870289416666 -0.02381400548073811
1780000000.0 0.036938560631001954 0.042126295232756426
1800000000.0 0.06595723589222899 -0.06631212890843273
1820000000.0 -0.10701989727560768 -0.06777734845775042
1840000000.0 0.1639339685078645 0.030144297980871596
1860000000.0 0.04795267260828926 0.19563207846565986
1880000000.0 0.21686910363112957 -0.09980151993438593
1900000000.0 -0.28367599793062903 -0.013628122567568539
1920000000.0 0.27921370608220497 -0.16177191245866057
1940000000.0 -0.34610171763609804 0.03700864800248125
1960000000.0 0.04276426598772143 0.37096668934905913
1980000000.0 0.38890519552578373 -0.10355005911245345
2000000000.0 -0.38593733986888623 -0.16797952301247143
2020000000.0 -0.2527504929109552 0.34582528935693224
2040000000.0 0.16379424407773696 0.40155399608955905
2060000000.0 0.4060244570277011 0.15169330139656337
2080000000.0 0.3675126911066396 -0.22145240780278752
2100000000.0 0.14021321391825012 -0.4004462431370923
2120000000.0 -0.13589376883585508 -0.39248953095123207
2140000000.0 -0.3079279973595455 -0.25707893469400567
2160000000.0 0.26100922936210863 -0.2879159243047555
2180000000.0 -0.12908180893022814 -0.3528718460210633
2200000000.0 -0.3499734170078199 -0.0849756981468058
2220000000.0 -0.34813513819625813 -0.019631222410384237
2240000000.0 -0.3411906218405686 0.046882195105778214
2260000000.0 -0.25698490630206644 0.23340073978327128
2280000000.0 0.10391126012051374 0.3361022996176207
2300000000.0 0.36062146095632597 0.036852615685229344
2320000000.0 0.1399806069653246 -0.3607748317524993
2340000000.0 -0.3880332803082548 -0.15362031414600857
2360000000.0 -0.042015542277641184 0.4549604518723214
2380000000.0 0.17831114729309053 -0.4765675918373579
2400000000.0 0.04351425393342471 0.5612846674563519
2420000000.0 -0.44110505137331074 -0.4289971802859096
2440000000.0 0.6546165244368175 -0.1001734374260273
2460000000.0 -0.44317169581418475 0.5442600965862076
2480000000.0 0.032487297451307955 -0.7322352872487752
2500000000.0 0.0937132319140389 0.7462336132162838
2520000000.0 0.0314989319964709 -0.7625295770422844
2540000000.0 -0.3526919536652038 0.6787436139284259
2560000000.0 0.6948446045178819 -0.3051086062937649
2580000000.0 -0.6142901486918905 -0.42069916775065813
2600000000.0 0.11888722213454778 0.7115858794661244
2620000000.0 0.4401526868366356 -0.5354582977089485
2640000000.0 -0.006750359538037496 -0.6565507310563898
2660000000.0 -0.4343393489845768 0.43367441424873865
2680000000.0 0.5615620736448682 -0.0735462718395409
2700000000.0 -0.431527622573852 -0.2878990663288876
2720000000.0 0.28151342543608215 0.3773098659736411
2740000000.0 -0.09703400443712061 -0.41112535548555856
2760000000.0 -0.25740677923439065 0.2838464402908094
2780000000.0 0.27359697392979926 -0.21860321633933477
2800000000.0 -0.22004967361799915 0.2397571863616787
2820000000.0 0.17924142990966627 -0.2500068127504862
2840000000.0 0.13559991241989994 0.268405072877136
2860000000.0 -0.28548284534095875 0.06689739215603646
2880000000.0 0.07150551427843976 -0.28004906450717904
2900000000.0 -0.19260710535429645 0.21327817949007388
2920000000.0 0.2109966139515212 0.20366348108806023
2940000000.0 0.15203512544686465 -0.26318704543029503
2960000000.0 -0.3023537455869129 -0.0776694850738856
2980000000.0 -0.16638966990952206 0.26657862864992515
3000000000.0 -0.29408135302856114 0.10768543234607318
3020000000.0 -0.22073440726964497 -0.2253723270651172
3040000000.0 0.12393240208336936 -0.28896119636647166
3060000000.0 0.24970595016951286 0.18123979456148478
3080000000.0 -0.2682726924076458 -0.13095469585354044
3100000000.0 0.1564892738721391 0.2431190176639007
3120000000.0 -0.034024771307334736 -0.28128161017653464
3140000000.0 0.13016875293548277 0.24251319046232336
3160000000.0 -0.22683835198592772 -0.1326049120344537
3180000000.0 0.047201471124065066 0.24506963293624873
3200000000.0 -0.2156245763606797 0.07848406752914708
3220000000.0 -0.19841319277591285 -0.045830148524869746
3240000000.0 -0.04163736287067011 -0.1669681989546879
3260000000.0 0.09578825687128124 -0.0980432560670464
3280000000.0 -0.09185621185621727 -0.04191538172374401
3300000000.0 -0.006583522141203506 0.07270253443232991
3320000000.0 -0.041531312500937924 0.01314955605975572
3340000000.0 0.005708074917191239 -0.023004676873527353
3360000000.0 0.004978767797431917 -0.007493769869731134
3380000000.0 0.0016871522803458391 0.004107532604116775
3400000000.0 -0.013561589564760808 0.005796052245385419
3420000000.0 -0.0033221368946656426 -0.03143402939941687
3440000000.0 0.019413767806825268 0.04216902536734852
3460000000.0 0.007661175916722226 -0.05934634934540803
3480000000.0 -0.06058527050285895 0.03796816135527859
3500000000.0 0.08761688646449889 -0.011503400711071853
3520000000.0 0.09797648792404921 0.0273838263875657
3540000000.0 -0.0936607229165044 0.06331713529143836
3560000000.0 -0.023388197982216405 -0.11917750271059603
3580000000.0 -0.12545784645900357 -0.039965852249777445
3600000000.0 0.14726811377817783 -0.0008418759783750157
3620000000.0 -0.15490871520067906 0.0487987966641635
3640000000.0 -0.17868353020366035 0.01654972101633967
3660000000.0 -0.1609078644293248 -0.09778244396238363
3680000000.0 -0.1819775704983711 -0.07016378555313992
3700000000.0 -0.15718738239531146 0.11603842511350763
3720000000.0 -0.1916531725528591 0.006089091534588817
3740000000.0 0.01627859639500941 -0.1804426962214747
3760000000.0 -0.1532758431048497 -0.086700475198707
3780000000.0 0.008730590653465015 0.17172206052372932
3800000000.0 0.030526263302177246 -0.16501073117227652
3820000000.0 -0.14096256380654887 0.07874181148747338
3840000000.0 -0.07526890618896463 0.13133297923641407
3860000000.0 -0.12570715001965502 0.07503276656673807
3880000000.0 -0.039055827462865934 -0.13909532865833274
3900000000.0 0.10478928810796877 0.10490291819455892
3920000000.0 0.15271706991271858 0.04493148000378698
3940000000.0 -0.11112183386169919 0.13007468266922023
3960000000.0 0.034444951933563936 0.17740459102531453
3980000000.0 0.10972796571239822 -0.14097014080241074
4000000000.0 -0.1610773181095997 -0.050882053759186474
