!Created with skrf (http://scikit-rf.org).
# Hz S RI R 50.0 
!freq ReS11 ImS11
400000000.0 0.7725118989676458 0.39204810257881884
420000000.0 0.8351548387483606 -0.09429883675896289
440000000.0 0.7952490566689643 0.039365183280575394
460000000.0 0.750768818468523 0.04500335351463222
480000000.0 -0.43891543730838906 -0.5378735185618864
500000000.0 0.5907528362973743 0.10180634915600244
520000000.0 0.3940910679994029 -0.30532578641238267
540000000.0 -0.3858457351256184 -0.17799869832773887
560000000.0 -0.36084354620947984 0.12587567393343424
580000000.0 0.2829253958258949 -0.21694841071325865
600000000.0 -0.0892894722039422 0.34904924740963045
620000000.0 0.15436854423573557 -0.3390541693536137
640000000.0 -0.3534533280975942 -0.23773725787179678
660000000.0 0.4188359690725041 -0.052781732207752695
680000000.0 0.36013149333205374 0.25423738459842016
700000000.0 0.432637290912863 0.06119036020709771
720000000.0 0.093549525925372 -0.4394549783721567
740000000.0 0.09472050341952504 -0.4261733558450568
760000000.0 -0.42552483593571905 -0.016724699610003484
780000000.0 0.1471992030950836 0.3575891787287601
800000000.0 0.30011719850456614 -0.13987377567359355
820000000.0 0.21306625496908352 0.1636486977133974
840000000.0 0.1108527502653979 -0.1687080804056369
860000000.0 0.08731646408174656 -0.1487799230260888
880000000.0 -0.14146315724977337 0.05170781346560555
900000000.0 -0.1000164070831215 0.030956101857018473
920000000.0 -0.04654958696069568 0.028417876740486323
940000000.0 0.024138459688733703 0.01788267759882555
960000000.0 -0.02566941264768358 -0.01597762157076378
980000000.0 0.0329194050320537 0.04471751888947342
1000000000.0 -0.00225432750937576 0.09082298125968868
1020000000.0 -0.11775344121707033 0.021038619589563805
1040000000.0 -0.1191537386930755 -0.06714826697507142
1060000000.0 0.1415565248518309 0.08059829070510187
1080000000.0 -0.1392177761701503 0.12118023855041327
1100000000.0 -0.10344531720571563 -0.18276770780355833
1120000000.0 0.21832093439605302 -0.08168036430312751
1140000000.0 -0.2232430896329739 0.12225678011247823
1160000000.0 -0.20228671108495272 0.1981420478114839
1180000000.0 -0.31236100171158687 -0.01729022304368508
1200000000.0 0.3344516266088565 -0.08486190230454889
1220000000.0 -0.22975352063896884 0.2960437687383479
1240000000.0 0.25479439271080717 -0.2998962271794761
1260000000.0 -0.34116149130300105 -0.21668535334586353
1280000000.0 -0.3343276981811139 0.254959394798756
1300000000.0 0.14306605262714667 0.4059280376291956
1320000000.0 0.32754040268065876 0.29105673649533026
1340000000.0 0.4453667396149548 -0.0008377757726439748
1360000000.0 0.2897797816831881 -0.340529206333733
1380000000.0 -0.32400673203169844 -0.2913633434527261
1400000000.0 -0.4091858746713945 0.10130669067003505
1420000000.0 0.2091962785204661 0.34028553670306394
1440000000.0 0.3651154868962622 0.06717106055861156
1460000000.0 0.30264613853613564 -0.16302249611596667
1480000000.0 -0.27388024547839857 -0.15909230544820907
1500000000.0 -0.01353662544001897 0.2855956226295676
1520000000.0 0.014868374198434205 0.25101187978483686
1540000000.0 0.021961490410281885 -0.22080707288358156
1560000000.0 0.011819074843743034 0.19267799167277602
1580000000.0 -0.028041532602646857 0.1659153933191715
1600000000.0 0.13186666306546385 -0.025463168444901253
1620000000.0 0.1011696555192353 0.001495471611460695
1640000000.0 -0.052672180626824876 0.059097952191003576
1660000000.0 0.022053070537380055 0.06086840370156395
1680000000.0 -0.04122862482879493 0.0026137202755051004
1700000000.0 0.019566531312672438 -0.005669466339929862
1720000000.0 -0.0031719573504418166 -0.005259951431751244
1740000000.0 -0.00934960813890033 -0.010806528077881204
1760000000.0 -0.0012665365399865901 -0.030229934145786928
1780000000.0 -0.023306829986508522 0.05115601089911053
1800000000.0 0.09035868805203172 -0.02651941302796831
1820000000.0 -0.10326723543013365 -0.07512905974886942
1840000000.0 0.16678497754203267 0.014856012764895189
1860000000.0 0.09075210824777293 0.17978493120575983
1880000000.0 0.20633221693661105 -0.1187611390051641
1900000000.0 -0.28287001643846255 -0.012732867079116625
1920000000.0 0.29190247733969105 -0.1365433059454449
1940000000.0 -0.3480582462796066 -0.005682888139746496
1960000000.0 0.028357741345349834 0.37229813129265976
1980000000.0 0.38747597380360277 -0.1095336876876406
2000000000.0 -0.38936114408705064 -0.15937368234530291
2020000000.0 -0.21910211823358217 0.3674231477065839
2040000000.0 0.1975348245625358 0.3857383285735806
2060000000.0 0.41044295267970254 0.14035902188688565
2080000000.0 0.3685801706385501 -0.22146187177594687
2100000000.0 0.15402474838511906 -0.3959083898258735
2120000000.0 -0.122673270301773 -0.39730920226757305
2140000000.0 -0.30379889191596227 -0.26322742492571266
2160000000.0 0.2456901065119843 -0.30226656928023915
2180000000.0 -0.15658269957572718 -0.3421559716819578
2200000000.0 -0.3415206980439161 -0.11582442048026895
2220000000.0 -0.3489126326628766 -0.022583021834250466
2240000000.0 -0.34454622353022046 0.01775066077264761
2260000000.0 -0.2664085329433474 0.22286866752586434
2280000000.0 0.08014957665949678 0.3419153027016968
2300000000.0 0.35717864805356636 0.05971537862582539
2320000000.0 0.17670675385992818 -0.34338800928417257
2340000000.0 -0.371255776054819 -0.18858535725762507
2360000000.0 -0.0680297184821643 0.45103665721467917
2380000000.0 0.1968217863689144 -0.4683371050874632
2400000000.0 0.018859802196512482 0.5621255233699244
2420000000.0 -0.4361946894824885 -0.4332482381373807
2440000000.0 0.6593450502902773 -0.06214392947002813
2460000000.0 -0.4647532083202451 0.526403687882151
2480000000.0 0.073322737159541 -0.729368228062561
2500000000.0 0.0558839544328716 0.750820298361905
2520000000.0 0.10748024307563712 -0.7563665288707544
2540000000.0 -0.4175173659625556 0.6431325158816295
2560000000.0 0.7265388343353928 -0.22426736572784314
2580000000.0 -0.5821883951653256 -0.4670786409019339
2600000000.0 0.004667789093616981 0.7223646842503025
2620000000.0 0.52060150248975 -0.45811650438842516
2640000000.0 0.04820593190860909 -0.6553462363072324
2660000000.0 -0.4864602877021037 0.37411102745994357
2680000000.0 0.5665685366303855 -0.011909923111592821
2700000000.0 -0.3858939183217425 -0.3466241645242886
2720000000.0 0.27781610464050727 0.38028012611024625
2740000000.0 -0.03700772869009645 -0.4200370378079451
2760000000.0 -0.26115394112091167 0.27910074450701794
2780000000.0 0.25500969363660236 -0.23899234175503012
2800000000.0 -0.20563878182241585 0.2514888265667394
2820000000.0 0.14593185212520388 -0.27086955639253024
2840000000.0 0.16272392763460886 0.2526915936066841
2860000000.0 -0.27166720846663645 0.1117784338653405
2880000000.0 0.016257426004085522 -0.2889940798565567
2900000000.0 -0.18146368530047333 0.22394145090733758
2920000000.0 0.21925992108356837 0.19622161491693343
2940000000.0 0.16865908072036748 -0.254170084749218
2960000000.0 -0.3028073623823371 -0.0780138505033482
2980000000.0 -0.19469815409791513 0.24757934108904228
3000000000.0 -0.3110535028092018 0.05076952381992821
3020000000.0 -0.16137045326367638 -0.2723419309821436
3040000000.0 0.16316624140110317 -0.26922676639474225
3060000000.0 0.1984361465209481 0.23553110618239534
3080000000.0 -0.25502687196722024 -0.15456629092000568
3100000000.0 0.11652540206467833 0.26498511318471313
3120000000.0 0.011689080355184484 -0.28313835419232797
3140000000.0 0.12938035398141925 0.24285855808908297
3160000000.0 -0.19894000197585032 -0.17200078879806877
3180000000.0 0.021982674452839548 0.24853779531777778
3200000000.0 -0.21867369358457162 0.06937453050198408
3220000000.0 -0.19143918375989888 -0.06823095525189675
3240000000.0 -0.036875362153944144 -0.1680349900081399
3260000000.0 0.07727032073106696 -0.11316110390757209
3280000000.0 -0.10048017926153455 0.0035298551859445867
3300000000.0 0.036213409985464975 0.06267620050798745
3320000000.0 -0.034108772522787115 0.026629467053328592
3340000000.0 0.010460235079460265 -0.021432522127952127
3360000000.0 -0.004521802020489017 0.007993334059920254
3380000000.0 -0.0036922753804620513 -0.0035201707580233958
3400000000.0 -0.011145789460157462 0.010254348183374219
3420000000.0 0.0004897053008812307 0.03134720407865922
3440000000.0 0.017851651538354076 -0.04326779918186596
3460000000.0 -0.04904271213067163 -0.03468995461513076
3480000000.0 0.020177814716552202 0.06893156410764852
3500000000.0 0.058009632842757265 -0.06786627480834992
3520000000.0 0.10238602293636931 -0.010661853859338785
3540000000.0 -0.04959858186332329 0.10299747456294404
3560000000.0 -0.07670611566628698 -0.09499404642324526
3580000000.0 -0.13237964934687083 0.007468455048132069
3600000000.0 0.14835950741239287 0.00047737188464077685
3620000000.0 -0.15035911679370398 0.06564603192296721
3640000000.0 -0.17748825172829472 0.03674943673695106
3660000000.0 -0.14066701173909762 -0.1273260518228845
3680000000.0 -0.1738656227789676 -0.09021923438064595
3700000000.0 -0.19004578986436435 0.048963059134898325
3720000000.0 -0.19014919352754395 -0.024819368447301222
3740000000.0 0.06648735651613144 -0.16830080595230762
3760000000.0 -0.10598231933095245 -0.14027630976517816
3780000000.0 -0.05095670090164908 0.16435461427163467
3800000000.0 0.0785525759505702 -0.1483703264465597
3820000000.0 -0.15091253135418167 0.0572738273546473
3840000000.0 -0.10866528101177947 0.10555778891949569
3860000000.0 -0.14167769964192453 0.037138169084075176
3880000000.0 0.012012003054346894 -0.1441034224178861
3900000000.0 0.026588047469638155 0.14560178065420765
3920000000.0 0.12878204716574032 0.09337406462012271
3940000000.0 -0.14083772941820802 0.09653233490014664
3960000000.0 0.015935070633746086 0.17913989390788
3980000000.0 0.12866196839386976 -0.12331426246489928
4000000000.0 -0.1551062316550958 -0.06372400513055235
