!Created with skrf (http://scikit-rf.org).
# Hz S RI R 50.0 
!freq ReS11 ImS11
400000000.0 0.7708911720761801 0.39581345620329256
420000000.0 0.8349198881502662 -0.09284388029992904
440000000.0 0.7952646403588571 0.03363674244319185
460000000.0 0.7509409111550025 0.0402728888691356
480000000.0 -0.44322173837224693 -0.5343103319538096
500000000.0 0.5917659041535038 0.09634355885832407
520000000.0 0.39245331129432437 -0.30753905817684085
540000000.0 -0.3818713697199182 -0.18643464852075237
560000000.0 -0.3605538626149146 0.12658435189605813
580000000.0 0.283873887044795 -0.21545216689239352
600000000.0 -0.0927074820705238 0.3479412036239543
620000000.0 0.15536850568172705 -0.33839667611682356
640000000.0 -0.35294528189572266 -0.2376082053725787
660000000.0 0.4142309412127213 -0.07970732972287202
680000000.0 0.36799196213192026 0.24290744826172267
700000000.0 0.4349285877814709 0.04361242483464379
720000000.0 0.06658249202186374 -0.4445500860490291
740000000.0 0.08005698833905968 -0.4290515021536168
760000000.0 -0.425026056225324 -0.0288422021158038
780000000.0 0.12761022722473817 0.3651622407289974
800000000.0 0.30615305684239974 -0.1270484653812189
820000000.0 0.21713574106422878 0.15891497615985375
840000000.0 0.11617689882896984 -0.16497568750776406
860000000.0 0.09738176209176398 -0.14214893041655433
880000000.0 -0.1472467023463624 0.02987384844889901
900000000.0 -0.10361474908633887 0.011167558037863824
920000000.0 -0.04231559681352563 0.03391683772853624
940000000.0 0.029864386419180714 0.0017239903576607265
960000000.0 -0.03035116259721186 0.0011493001934734474
980000000.0 0.04033797595287068 0.038477072771820234
1000000000.0 -0.01937248711870761 0.08877480694183996
1020000000.0 -0.11961694084298126 0.0019823170585284294
1040000000.0 -0.10882886558635177 -0.08280686530769939
1060000000.0 0.13061563784460298 0.09725764108135253
1080000000.0 -0.13596036895670596 0.12464285179805408
1100000000.0 -0.11543694387240414 -0.17500363944834435
1120000000.0 0.20987547775058676 -0.10038065356327279
1140000000.0 -0.2120180539474596 0.14015861895039167
1160000000.0 -0.17778209757386698 0.2200852192779961
1180000000.0 -0.31272563143283316 -0.006323617701825344
1200000000.0 0.3265051844739537 -0.1122039582230251
1220000000.0 -0.21384586827425045 0.3081658620039832
1240000000.0 0.24603369001489842 -0.3075240430812443
1260000000.0 -0.3516752015125783 -0.19973583821460558
1280000000.0 -0.3252472110645427 0.2669039057713228
1300000000.0 0.15082679519693104 0.40342941615587363
1320000000.0 0.3195611430262211 0.300489971363139
1340000000.0 0.4455678173029195 0.01799220656586293
1360000000.0 0.30195349508006714 -0.3302932710172787
1380000000.0 -0.31948136739357363 -0.2965363604254388
1400000000.0 -0.40803475195082506 0.1053900697925459
1420000000.0 0.19288404141003848 0.3497014847284514
1440000000.0 0.36298156087750677 0.07607017171126071
1460000000.0 0.30895732223437716 -0.14997854947562564
1480000000.0 -0.2519624930266028 -0.19174754235295202
1500000000.0 0.006167975526745206 0.2855018986477995
1520000000.0 0.027718129142404926 0.2500768314164129
1540000000.0 -0.012221020136204849 -0.22120259946547413
1560000000.0 0.02437327559659209 0.19122990765066167
1580000000.0 0.007210162671513613 0.1678157784821299
1600000000.0 0.1285686020951623 -0.03867154796155462
1620000000.0 0.09952483758988084 -0.019739119043612342
1640000000.0 -0.03608340995745574 0.07106539085832392
1660000000.0 0.032026879441935795 0.05700558860059671
1680000000.0 -0.03139912814546452 0.027953034375314968
1700000000.0 0.02046229780587154 -0.0031820350069583646
1720000000.0 -0.002113896754804459 -0.005899781547322556
1740000000.0 -0.009174999736769053 -0.011173874989667841
1760000000.0 -0.018910264969821775 -0.02416064755756925
1780000000.0 0.010361566180251492 0.05563556664390691
1800000000.0 0.08425453133668108 -0.04254473280829482
1820000000.0 -0.10925287571417273 -0.06719234596958257
1840000000.0 0.16656200249477762 0.02045911514186481
1860000000.0 0.07626819774484112 0.1869014429430955
1880000000.0 0.2154795030807661 -0.10202583861418206
1900000000.0 -0.2822611747475602 -0.024867457541136787
1920000000.0 0.29555985958870984 -0.12863174178179396
1940000000.0 -0.3477982520167133 -0.010262764451746814
1960000000.0 0.024015096113723933 0.3724079546715999
1980000000.0 0.388953049000223 -0.10270491421077955
2000000000.0 -0.38904661114998423 -0.15955837260731498
2020000000.0 -0.22174849895511137 0.36568460982165935
2040000000.0 0.2070870061531437 0.3803222891502539
2060000000.0 0.41636453522525485 0.12007847531427368
2080000000.0 0.3740650678091282 -0.21145018608138247
2100000000.0 0.1378354223595623 -0.40146050194380367
2120000000.0 -0.131381215481383 -0.39408420367035846
2140000000.0 -0.3123019102486017 -0.25271241805620487
2160000000.0 0.23426607194963434 -0.31092303395228726
2180000000.0 -0.17851894172716562 -0.3311514148615459
2200000000.0 -0.3511137109268388 -0.08246498377037398
2220000000.0 -0.34974861264908036 -0.0008668382598455683
2240000000.0 -0.34104239842732287 0.051803300061642146
2260000000.0 -0.2351690862777198 0.2561106162144305
2280000000.0 0.11154204369865364 0.3332716260581994
2300000000.0 0.361036230074826 0.03214518057346692
2320000000.0 0.16176240571327438 -0.35115539361010795
2340000000.0 -0.3846440296771163 -0.16145668887928008
2360000000.0 -0.05123817960296646 0.45357304104897717
2380000000.0 0.18831238933855785 -0.47226084687340936
2400000000.0 0.04493828448521666 0.5609884025671382
2420000000.0 -0.4531733724905246 -0.4155233784294271
2440000000.0 0.6585092078263625 -0.06992200999215821
2460000000.0 -0.45307404637804044 0.5362820218253657
2480000000.0 0.022791459785893326 -0.7321313090415986
2500000000.0 0.01904127175083439 0.752433500538316
2520000000.0 0.08466584400293421 -0.7588167726591113
2540000000.0 -0.370025380119792 0.6709603255630018
2560000000.0 0.7147855408299525 -0.25836541847368105
2580000000.0 -0.6201708590028657 -0.4144390325626141
2600000000.0 0.08706066339377065 0.716549805140428
2620000000.0 0.44238291132713925 -0.5337320827935228
2640000000.0 -0.022038142482852033 -0.6565665480011939
2660000000.0 -0.4437470741934595 0.4238493369785554
2680000000.0 0.5591083395481661 -0.09346158101659982
2700000000.0 -0.41123105085079037 -0.3166454159157336
2720000000.0 0.29330600013155905 0.36880223098563186
2740000000.0 -0.08444445722840382 -0.413600440269792
2760000000.0 -0.24957745849197893 0.2900000032336358
2780000000.0 0.26497208756538904 -0.2284424187488376
2800000000.0 -0.22537192978675563 0.23422110449314598
2820000000.0 0.16584006990465244 -0.25902673472989074
2840000000.0 0.14931319357673148 0.26010950772318364
2860000000.0 -0.2822208992218912 0.07996744541128065
2880000000.0 0.044447289643641676 -0.2854226914995847
2900000000.0 -0.1851508189829209 0.2199009072838062
2920000000.0 0.22888485915549667 0.18346514213706566
2940000000.0 0.134185988638937 -0.2729199904179608
2960000000.0 -0.3089129036883563 -0.04444931369281538
2980000000.0 -0.13357146781219945 0.28418898904905937
3000000000.0 -0.2968462873196852 0.1040961108718736
3020000000.0 -0.22008517934216634 -0.22695973578970705
3040000000.0 0.1149515137735086 -0.2929128922289913
3060000000.0 0.2463715748226778 0.18469266072245125
3080000000.0 -0.27246132127091877 -0.12174496589934801
3100000000.0 0.15662568334759566 0.24381079848295456
3120000000.0 -0.09196170254849051 -0.2690182613576602
3140000000.0 0.15761635432679133 0.22610248531335583
3160000000.0 -0.21841231263725966 -0.1477844276114035
3180000000.0 0.020374041075578178 0.24913151011830276
3200000000.0 -0.21345601855943644 0.08573124854580297
3220000000.0 -0.18949802191863324 -0.0740807274588281
3240000000.0 -0.01675684304933579 -0.17157012842233918
3260000000.0 0.10421615242470574 -0.08975385693648036
3280000000.0 -0.09766104854025862 -0.025595067004875186
3300000000.0 -0.009082728017694594 0.07223735632047498
3320000000.0 -0.04033203855304278 -0.01650777532132217
3340000000.0 0.01636611066998734 0.01764942916353755
3360000000.0 -0.0009641941825325145 0.009233232227319125
3380000000.0 0.005248867328040423 0.0009415791062348483
3400000000.0 0.013373832562117475 -0.00675347494675705
3420000000.0 0.026094703885794383 0.017034516232029333
3440000000.0 0.0060689498892236 -0.04619147878054918
3460000000.0 -0.058954013321929 0.011930782344594477
3480000000.0 0.027462090179464767 0.06612013997797862
3500000000.0 0.028578100262700506 -0.0847743941272628
3520000000.0 0.09688438228818273 -0.03520101688723603
3540000000.0 -0.029637122261951823 0.11062084896329137
3560000000.0 -0.09454805292493194 -0.07748874910195885
3580000000.0 -0.12899091244745706 0.031681841715492924
3600000000.0 0.14486311839845634 -0.03412530151209639
3620000000.0 -0.1301200608712681 0.10031744132668992
3640000000.0 -0.17347105975934973 0.05249873873288811
3660000000.0 -0.1577602528941614 -0.10604998385072659
3680000000.0 -0.1847679008177185 -0.06627626124911344
3700000000.0 -0.18131831022314332 0.0757517813865773
3720000000.0 -0.19212560699494835 0.0034125156024511914
3740000000.0 0.03458290989541199 -0.1779926325334796
3760000000.0 -0.12711830128013685 -0.1220666558237248
3780000000.0 -0.02977517948438064 0.1698160827493318
3800000000.0 0.056720484933163694 -0.15853267417642913
3820000000.0 -0.15361142030907737 0.05217232218293482
3840000000.0 -0.08607931585300807 0.12521547076480322
3860000000.0 -0.1377211243978566 0.0519007977320022
3880000000.0 -0.008800335371239625 -0.14471900597641982
3900000000.0 0.04471493677555207 0.14194634111077503
3920000000.0 0.1388413976351086 0.07897049067175214
3940000000.0 -0.13126407892910857 0.1101792774054192
3960000000.0 0.020571270274677523 0.17952294954415
3980000000.0 0.13102367281118504 -0.12205249083442009
4000000000.0 -0.1503204667299357 -0.0765536741279151
