!Created with skrf (http://scikit-rf.org).
# Hz S RI R 50.0 
!freq ReS11 ImS11
400000000.0 0.7758685707612756 0.38381765958509906
420000000.0 0.8325632946635302 -0.113386224375523
440000000.0 0.7947490269626234 0.029312091418964202
460000000.0 0.7500788925136678 0.04116664735884883
480000000.0 -0.4192121467217341 -0.5540474840440367
500000000.0 0.5897621234718624 0.11532016075109906
520000000.0 0.3825637228136163 -0.3212877835328012
540000000.0 -0.3992017550876109 -0.14508262421402332
560000000.0 -0.36220593905247717 0.12171047681672566
580000000.0 0.26237350969029916 -0.2407488474070441
600000000.0 -0.022677820858340775 0.35836802807825413
620000000.0 0.08814067544332489 -0.3598824666437231
640000000.0 -0.3531474696939992 -0.23568886569347472
660000000.0 0.42078069758326225 -0.011939717893119685
680000000.0 0.28871226415468937 0.33484870279073503
700000000.0 0.4397723739723234 0.012209119783526075
720000000.0 -0.0607272495585772 -0.44605364111115847
740000000.0 -0.06180417029085286 -0.43007896702198756
760000000.0 -0.41363025780871504 -0.08890547977459468
780000000.0 -0.07422294787431956 0.3795925178764506
800000000.0 0.3320253482122326 0.037346981156557685
820000000.0 0.2525175317155396 0.10054148056458662
840000000.0 -0.04067118624053665 -0.19767207566913683
860000000.0 0.022765756698122 -0.1687287764434502
880000000.0 -0.1487627102717319 0.0023885498734754775
900000000.0 -0.0959871406113071 -0.03857395328649169
920000000.0 -0.05291039553463062 0.00999203234591871
940000000.0 0.030170796887719117 -0.000782956153276056
960000000.0 -0.031175644856387342 -0.0023214135815565625
980000000.0 0.02288258303998845 0.05101726863612805
1000000000.0 -0.054157694540165696 0.07222906983322211
1020000000.0 -0.10494492101547644 -0.057560708068007144
1040000000.0 -0.10515508462574681 -0.08912212953549371
1060000000.0 0.140204291440961 0.08512888583782592
1080000000.0 -0.059196780947042754 0.17559898343322958
1100000000.0 -0.18532839277456245 -0.09665197233610989
1120000000.0 0.18715882302389683 -0.13466199447646146
1140000000.0 -0.23721028022977722 0.0871964340234541
1160000000.0 -0.24016825931416316 0.14872237454295453
1180000000.0 -0.2984175481725323 -0.09867189879573574
1200000000.0 0.341983501586299 -0.06085025640628281
1220000000.0 -0.18005683697388575 0.3305033613784726
1240000000.0 0.1668737015938867 -0.35648033087655995
1260000000.0 -0.3896472858023098 -0.10153296476721752
1280000000.0 -0.33498606256325614 0.25100711296651745
1300000000.0 0.033710897323749135 0.42761248453991024
1320000000.0 0.2127636849768318 0.3832471465015641
1340000000.0 0.43688035265986996 0.09592383902416887
1360000000.0 0.28747927340707385 -0.3456027608830745
1380000000.0 -0.3841813338068739 -0.20805110267913784
1400000000.0 -0.36366422544429433 0.21203496690306176
1420000000.0 0.24121309876469904 0.31678625862047566
1440000000.0 0.35030848452018276 0.11776160963869829
1460000000.0 0.32890689164040254 -0.09803053542725079
1480000000.0 -0.2517297432165475 -0.194313176644718
1500000000.0 0.011275169454348281 0.28667290043488197
1520000000.0 0.09699853225674829 0.23239188675886366
1540000000.0 -0.018219382731890454 -0.22079249789552294
1560000000.0 0.03210207197890826 0.18981311642467216
1580000000.0 -0.007976492082160391 0.16770349692683664
1600000000.0 0.1337469669143789 0.0015191636836909023
1620000000.0 0.06918986283358075 0.07345127872317819
1640000000.0 -0.07116639883913366 -0.03729820651753659
1660000000.0 -0.05442498957402183 0.03761389985380067
1680000000.0 -0.0397941167626791 0.014946017418880957
1700000000.0 -0.00014065084093973436 0.020834295469156567
1720000000.0 -0.00422796023922043 -0.001639599503440179
1740000000.0 -0.0017831824668316334 0.014798870185278305
1760000000.0 0.01422493609985051 -0.02948286849614004
1780000000.0 0.05725695955439309 -0.003641401366106241
1800000000.0 0.007210494281794588 -0.09290379455854444
1820000000.0 -0.11989488358524417 -0.03581664530143885
1840000000.0 0.15422678258632297 0.058004146647722805
1860000000.0 -0.02559446662975851 0.19849174208329537
1880000000.0 0.23836386892448802 -0.011016108956968107
1900000000.0 -0.27823288351626346 -0.061838325928999384
1920000000.0 0.2634469260316414 -0.18879967390930016
1940000000.0 -0.326270084567863 0.12293799435636099
1960000000.0 0.1295042996432857 0.34967385606358353
1980000000.0 0.37283315844764847 -0.14872362681903406
2000000000.0 -0.3844785525768028 -0.16922558127142098
2020000000.0 -0.2736073295523666 0.3291477971009571
2040000000.0 0.13580456299880408 0.4125473656702952
2060000000.0 0.40281224017542905 0.16326030699307845
2080000000.0 0.3447404059624368 -0.2575815289375361
2100000000.0 0.07526345160270413 -0.41788577458197507
2120000000.0 -0.15948554186819391 -0.38309337845067987
2140000000.0 -0.30524777570800377 -0.25985675317804424
2160000000.0 0.28290536274439854 -0.26656355423538536
2180000000.0 -0.11138145709219267 -0.35933118750672915
2200000000.0 -0.348760995602452 -0.09376111576237588
2220000000.0 -0.3492395786352606 0.008324182785207078
2240000000.0 -0.3334656097129805 0.08567519198888177
2260000000.0 -0.22857270792517081 0.2611231245821068
2280000000.0 0.07858581700264852 0.34259015661121944
2300000000.0 0.35792297604557183 0.05963547658270289
2320000000.0 0.1513864970561534 -0.3569114458889586
2340000000.0 -0.40063835128271436 -0.1201675980881884
2360000000.0 0.0007939885388875603 0.457387794423536
2380000000.0 0.16520055942531675 -0.48098931729335515
2400000000.0 0.0568502646973656 0.559951676941576
2420000000.0 -0.4535611151033649 -0.4154930811775527
2440000000.0 0.6526917200233603 -0.11243033610815327
2460000000.0 -0.4098881879620176 0.5697041775135434
2480000000.0 -0.028462565816109724 -0.7319921700806272
2500000000.0 0.11652240872885165 0.7427210643978553
2520000000.0 -0.02601249748923179 -0.7623038275695941
2540000000.0 -0.3072472352298043 0.7003918300035944
2560000000.0 0.6785202893770168 -0.3400654887690435
2580000000.0 -0.6382440601826349 -0.38400604423426915
2600000000.0 0.16528445962051294 0.7023640442513285
2620000000.0 0.41956742703592015 -0.5522251569076722
2640000000.0 -0.05610353956140706 -0.6548152174192358
2660000000.0 -0.441191093023506 0.4272538132234832
2680000000.0 0.5622935286600095 -0.07102294603447161
2700000000.0 -0.4104690540171405 -0.3172651055379697
2720000000.0 0.2815122802812449 0.3776726137901448
2740000000.0 -0.05702223563079917 -0.41866315651797187
2760000000.0 -0.2815555167524699 0.26003432135944077
2780000000.0 0.2801134860464959 -0.21011603358845762
2800000000.0 -0.22379607293736753 0.23545873997612096
2820000000.0 0.1831685434260875 -0.24626520280408518
2840000000.0 0.1413141155477632 0.2638526964245113
2860000000.0 -0.2864625792087431 0.0603345762893181
2880000000.0 0.060235926569553004 -0.2824838982161877
2900000000.0 -0.17629883952043288 0.22695329174715353
2920000000.0 0.2269070390598017 0.18601268264424137
2940000000.0 0.1282290415991443 -0.27551340760887827
2960000000.0 -0.30894630183703947 -0.044352628794860696
2980000000.0 -0.17470851903971926 0.26156782750652213
3000000000.0 -0.2862057086043553 0.13047429173679098
3020000000.0 -0.25126031921960795 -0.19322390222673524
3040000000.0 0.0774925109207798 -0.30612192162134594
3060000000.0 0.23556696361376592 0.20060764399364947
3080000000.0 -0.26928339011049296 -0.13063780476720613
3100000000.0 0.09037752669129742 0.2749392531098338
3120000000.0 -0.018242448558231972 -0.2835893306971594
3140000000.0 0.10090693861546131 0.2566597630236365
3160000000.0 -0.20629704006735744 -0.16348640219190083
3180000000.0 -0.005412001292064941 0.2498117066726724
3200000000.0 -0.22672869076314545 0.035219189739413265
3220000000.0 -0.18942932051150807 -0.07457226835936079
3240000000.0 -0.019959680328371168 -0.170588079780028
3260000000.0 0.10640972435836409 -0.08589515994061472
3280000000.0 -0.08917675036959248 -0.04685907228732985
3300000000.0 -0.008058789997894882 0.0722326251860653
3320000000.0 -0.0407603997808233 0.014838356700583564
3340000000.0 0.007591557246654673 -0.02245032252688994
3360000000.0 0.002916977474998603 -0.00851268030522066
3380000000.0 0.002297458149408712 0.0038978761946743606
3400000000.0 -0.010952710809581085 -0.009781547319511598
3420000000.0 -0.006794417541684184 -0.030843084760614765
3440000000.0 0.01155605495081372 0.044970768599091986
3460000000.0 -0.017411554211361036 -0.05765315710470411
3480000000.0 -0.062067918718195975 0.03466057138210786
3500000000.0 0.08510744881277243 -0.022574939626871255
3520000000.0 0.1009918827905657 0.00955224058586265
3540000000.0 -0.0919526696059126 0.06516981269454636
3560000000.0 -0.03413788465686331 -0.11623978018403588
3580000000.0 -0.12520841626776671 -0.03889021105923708
3600000000.0 0.14546618600414338 -0.024591786716115577
3620000000.0 -0.14670679099785422 0.06952603224757099
3640000000.0 -0.17790664986636975 0.018623609540194454
3660000000.0 -0.17227089047968774 -0.0765077806123937
3680000000.0 -0.18242231099743444 -0.06857282158753257
3700000000.0 -0.1638724764967692 0.10670815314939883
3720000000.0 -0.19176921290000795 0.0027348021428556944
3740000000.0 0.010388639817736366 -0.18097492568581108
3760000000.0 -0.15636754986303833 -0.08165974853383219
3780000000.0 0.027513750474270227 0.16961300462408313
3800000000.0 0.02059701669362657 -0.16630010745401033
3820000000.0 -0.13859143424311707 0.08295412162795097
3840000000.0 -0.08516375848172926 0.12549583749451967
3860000000.0 -0.1333562952738777 0.061633861917698
3880000000.0 -0.031348171158320025 -0.14164089119944007
3900000000.0 0.1048884709314068 0.10516953375535527
3920000000.0 0.15179457913765537 0.048385144229697113
3940000000.0 -0.12794661324139248 0.11353721882268951
3960000000.0 -0.003070702455930587 0.18088189691260356
3980000000.0 0.15282716783910502 -0.09269437352701873
4000000000.0 -0.12256794400018935 -0.116172723938518
