!Created with skrf (http://scikit-rf.org).
# Hz S RI R 50.0 
!freq ReS11 ImS11
400000000.0 -0.589988491386334 0.6427208851772355
420000000.0 0.5487702050102043 0.676612402259734
440000000.0 0.4317190739041246 -0.7180848318240088
460000000.0 -0.5048624692943925 -0.5980152643437785
480000000.0 0.6758581899125242 -0.19722775725000363
500000000.0 -0.1791499657565391 -0.5510338477799879
520000000.0 -0.4402870992946488 0.23075177331027805
540000000.0 0.27431419402505736 -0.3065766333247672
560000000.0 -0.35162046821391996 -0.11254804793009332
580000000.0 0.30409022996620855 0.15036980925370702
600000000.0 0.18056594521922478 -0.2996373452650089
620000000.0 -0.04033227905812743 0.3551785735485149
640000000.0 0.2987517874521493 0.2479340362675515
660000000.0 0.2364247372206757 -0.32610060069483104
680000000.0 0.38572859737361476 0.1787677737638434
700000000.0 -0.1378657706824147 -0.4083074730435943
720000000.0 -0.42598850856395826 0.010267178407960048
740000000.0 0.1919382106027133 -0.37025203038978244
760000000.0 -0.3847869662783637 -0.07503396309657395
780000000.0 0.25355964168614425 0.25553150082088205
800000000.0 0.09578178950728651 -0.30875540181541605
820000000.0 -0.27289541014771695 0.05333541718889037
840000000.0 -0.15823275560674277 0.1814457038103728
860000000.0 -0.17307504694496847 -0.11080382059465654
880000000.0 0.15711516809165937 0.03926059112282366
900000000.0 0.10961049136838169 -0.0179219940672397
920000000.0 -0.07465119455346896 0.0015657071830335139
940000000.0 -0.00874908269819424 0.0441604673692571
960000000.0 -0.03656301951690215 -0.03274197335271136
980000000.0 0.05895962713911915 -0.03229265602311285
1000000000.0 -0.0013598741992419626 -0.08498195724387395
1020000000.0 0.038034502432019286 -0.097915011729343
1040000000.0 0.07356228549892493 -0.09332547508002122
1060000000.0 0.09829514362001321 0.11949012288843719
1080000000.0 -0.004861604292825928 0.17481221297019453
1100000000.0 -0.03749279424032694 -0.1963877152841558
1120000000.0 0.12312757761091284 0.18448915661405502
1140000000.0 0.18274130275132225 -0.17626843451282664
1160000000.0 -0.16330327020657548 -0.2298722379863434
1180000000.0 0.00631453893221662 -0.31592772333305297
1200000000.0 0.31007229344200715 -0.13907771701473903
1220000000.0 -0.23613602687750912 0.2780449709127217
1240000000.0 0.3780214452896087 0.07563407419342102
1260000000.0 -0.13806022103245177 -0.3840924225839201
1280000000.0 -0.4114916179023049 0.10512447275871926
1300000000.0 0.3189834086150236 0.29754249746581624
1320000000.0 0.4231873303222337 0.11315764133533171
1340000000.0 0.436198689579528 -0.04161138856076527
1360000000.0 0.44035145513604773 -0.01944215354606462
1380000000.0 0.22847502889901666 -0.3722475988556216
1400000000.0 -0.37008137764059695 -0.218482825458382
1420000000.0 0.026506597641615882 0.4098398525557096
1440000000.0 0.3836438313030111 -0.019821693823956286
1460000000.0 0.025700418123197687 -0.35258630559070114
1480000000.0 -0.31882096660564585 0.03567795935406244
1500000000.0 -0.14946279894628903 0.24557769153055403
1520000000.0 0.043841714559268344 0.254155991023165
1540000000.0 -0.14211689185470058 -0.1791345808621333
1560000000.0 0.10912289644323048 -0.1615212881659291
1580000000.0 0.14392327459285456 0.08481480242734174
1600000000.0 0.11143996184323053 -0.07142954326890101
1620000000.0 0.06511789782277227 -0.08092429910298733
1640000000.0 0.042494941298974034 0.06467739148938109
1660000000.0 -0.051027964393519414 -0.016664743152792073
1680000000.0 0.03269305388419904 0.01278572270006029
1700000000.0 0.02026557015920626 0.007051218449653748
1720000000.0 0.005550877344574658 -0.0024744130186236
1740000000.0 -0.00548610194891476 -0.013787332790552201
1760000000.0 -0.03228806336990785 -0.005111235011073689
1780000000.0 0.05953346923155079 -0.013348690131565697
1800000000.0 -0.060299918299868194 0.06991737523231072
1820000000.0 -0.03655826094643945 0.1180698054764596
1840000000.0 0.04201479134463736 -0.1560391692622873
1860000000.0 -0.16410316709371048 0.11282841660079809
1880000000.0 0.20057243653175863 -0.1314546429173887
1900000000.0 -0.24851203474298497 0.1379970289961956
1920000000.0 0.2259790596202286 -0.2268460900083396
1940000000.0 -0.33287453452480426 0.11829477258737853
1960000000.0 0.35129154746396635 0.14282894634637047
1980000000.0 -0.0541948560437164 -0.3938888088302435
2000000000.0 -0.36783694278920526 -0.19211435243539923
2020000000.0 -0.25581803302829237 0.340525276559792
2040000000.0 0.06631621701587381 0.427946201534937
2060000000.0 0.4224788525278358 0.10086482288945389
2080000000.0 0.34624350888337335 -0.25759644594628395
2100000000.0 0.12034088628432286 -0.4057736982542084
2120000000.0 -0.08237151617229609 -0.40548304185389966
2140000000.0 -0.20577614202918057 -0.34620490573202767
2160000000.0 0.24014308466857187 -0.3059520431055296
2180000000.0 0.05091618455841265 -0.37199079904031546
2200000000.0 -0.20913250258882737 -0.2966475226621188
2220000000.0 -0.3409060272469105 -0.08504683381505639
2240000000.0 -0.252068003188774 0.23904322663594657
2260000000.0 -0.03128255124241397 0.34471447534229266
2280000000.0 0.19088701685546042 0.29365570775613825
2300000000.0 0.3320783067227584 -0.14564407200127713
2320000000.0 -0.09849697048627461 -0.3717812967475043
2340000000.0 -0.39288719134403416 0.1363392359659189
2360000000.0 0.37443378441195824 0.26163076898877585
2380000000.0 -0.2748197027383509 -0.4249006434090219
2400000000.0 0.3496348879621575 0.4336485848414024
2420000000.0 -0.5669543163066466 -0.2215687516574989
2440000000.0 0.6366079861937488 -0.16062465611451554
2460000000.0 -0.39564104366807074 0.5732525948794216
2480000000.0 0.07988222076899039 -0.723506993644867
2500000000.0 -0.03588091711753709 0.747610406759109
2520000000.0 0.1991317402132318 -0.733015267870735
2540000000.0 -0.4996363211637034 0.5748786277067842
2560000000.0 0.7510355532858697 -0.089508828568466
2580000000.0 -0.4760742654469091 -0.5687676407826157
2600000000.0 -0.12192343993004164 0.7080484987156496
2620000000.0 0.5956115579298416 -0.3450749119494822
2640000000.0 0.31809010048543535 -0.5694454869355375
2660000000.0 -0.6025192019346037 0.07596928306216309
2680000000.0 0.39637656730198767 0.39719906158529217
2700000000.0 -0.026210509085060753 -0.5133911108188125
2720000000.0 -0.25149466128033465 0.39202899243024586
2740000000.0 0.4050210261405902 -0.1159163549844948
2760000000.0 -0.3815484165135245 -0.011392931709945136
2780000000.0 0.3499759610148517 0.028268217228716544
2800000000.0 -0.3110815244059911 0.09760138466863039
2820000000.0 0.029500131069681385 -0.3082497815282304
2840000000.0 0.2224249949043579 0.19853540989848284
2860000000.0 -0.2718605393908305 0.11215524690962056
2880000000.0 0.0673583503529152 -0.2862412200403946
2900000000.0 0.06276866310187725 0.28931310702643454
2920000000.0 0.1315283756103005 -0.2692603853099187
2940000000.0 -0.30126516349624205 -0.04126587248625996
2960000000.0 -0.2188001589648639 0.2166418790173254
2980000000.0 -0.2219632377733192 0.21993640415533258
3000000000.0 -0.30981678296827597 0.0558666349878132
3020000000.0 -0.17331670052222722 -0.26219556706078295
3040000000.0 0.30921556820864843 -0.027179670421117717
3060000000.0 -0.2716471179502163 0.14487451925976022
3080000000.0 0.21142422221740975 -0.21703210401119066
3100000000.0 -0.23352278172125981 0.18427298531234504
3120000000.0 0.09364361547402038 -0.27627117661329215
3140000000.0 0.04587190414048811 0.27835159486663885
3160000000.0 -0.19970091375054627 -0.17826584764454856
3180000000.0 0.034819533120979844 0.24945837539116564
3200000000.0 -0.22579447846911865 -0.03450094101320607
3220000000.0 0.0055895121792298025 -0.20292218415800722
3240000000.0 0.17217753995068968 0.02029208494429323
3260000000.0 -0.05373157793552915 0.13003920329902222
3280000000.0 0.02567997845257609 -0.1055841348177195
3300000000.0 0.012878792861497441 0.07665250647942032
3320000000.0 -0.006264136073288416 -0.049989597781749155
3340000000.0 0.017396740845080173 0.02042926921054974
3360000000.0 0.0020958345155539615 0.008394181338096959
3380000000.0 0.007487075837050546 0.0063192863069615685
3400000000.0 0.022991388404785627 -0.004376205310455941
3420000000.0 0.006150571521458112 0.03528118554572624
3440000000.0 0.02240816639295586 -0.03970819565043163
3460000000.0 0.05129326447035478 0.018792966294835817
3480000000.0 -0.05722541858001045 0.03198885717797444
3500000000.0 0.07880028852733525 -0.018389295999262516
3520000000.0 -0.0328349279522451 -0.08950091660847306
3540000000.0 0.04638434078047976 0.0996234371292776
3560000000.0 -0.09804906303095523 -0.07693294127420619
3580000000.0 0.1295759625890464 -0.04967630258794914
3600000000.0 0.08754164578531042 0.12765696105118093
3620000000.0 -0.019865002378250896 0.16408705300264212
3640000000.0 -0.17268152513736387 0.03344176371434712
3660000000.0 -0.15865658014985973 -0.09401995367882714
3680000000.0 -0.03878402643595125 -0.1848122098627628
3700000000.0 0.032576956452036426 -0.18631004955048097
3720000000.0 0.16501714795517844 -0.08975443681731952
3740000000.0 0.17539324315079538 0.05146682637537197
3760000000.0 -0.15466484051055723 -0.08502879727900803
3780000000.0 0.14845346929464706 0.07514854289046255
3800000000.0 0.09589240216230865 -0.12747622733679806
3820000000.0 -0.11250029827018304 -0.10181156656928558
3840000000.0 -0.07719364294461764 -0.12036533425265608
3860000000.0 0.14286472753167237 0.01740541008732955
3880000000.0 0.1272400052747862 0.07714815758220478
3900000000.0 0.10202934835280553 -0.11796689331923813
3920000000.0 -0.10948209766507287 0.11803721167707672
3940000000.0 0.034745550621569816 -0.1625354542500914
3960000000.0 0.13320667909690845 -0.10704272294625183
3980000000.0 0.009835114181382693 -0.1724948816732385
4000000000.0 -0.03933003289182615 -0.16310999148553804
