!Created with skrf (http://scikit-rf.org).
# Hz S RI R 50.0 
!freq ReS11 ImS11
400000000.0 -0.6022746042244962 0.6336678596117863
420000000.0 0.6106326585625725 0.6215273309229169
440000000.0 0.39371828716463947 -0.7390394014824494
460000000.0 -0.4645177839110724 -0.6299174452517747
480000000.0 0.6639614630105163 -0.23740186798429522
500000000.0 -0.306462447902662 -0.49282809412830625
520000000.0 -0.46836190078881496 0.16222368656584407
540000000.0 0.36908554925847403 -0.1874319006130985
560000000.0 -0.36934443545492657 0.021832325765022413
580000000.0 0.3160923270094796 0.12172958476071813
600000000.0 0.18136999237426038 -0.2970664314917178
620000000.0 0.0013865644784306582 0.35827505016953026
640000000.0 0.3189005195705433 0.22078168324766428
660000000.0 0.1894409539739355 -0.3551292730976867
680000000.0 0.3911014378054875 0.16695273702008012
700000000.0 -0.14093566414500308 -0.4093524320733976
720000000.0 -0.42392979483955623 0.04410602331495806
740000000.0 0.2066793970793478 -0.3618968148557492
760000000.0 -0.3814390542986938 -0.0911123786666566
780000000.0 0.24695483301071577 0.2616986480155298
800000000.0 0.10663760004657624 -0.30467465594666787
820000000.0 -0.2764173282793579 0.02890215162705331
840000000.0 -0.15932676044097746 0.1798702010687042
860000000.0 -0.19148027921207234 -0.07162989785117654
880000000.0 0.16132152992416832 -0.0008761838108770673
900000000.0 0.09438287262177437 -0.05960451778841525
920000000.0 -0.043318404980945635 0.06146190363222229
940000000.0 -0.027073384022220814 0.03641457590915428
960000000.0 -0.03276129195575687 -0.03705041345923408
980000000.0 0.06763315471697598 0.00180080791062819
1000000000.0 0.03576292796330325 -0.07692205855222121
1020000000.0 0.06083849960688923 -0.08501387442653323
1040000000.0 0.09007809105345921 -0.076941304718784
1060000000.0 0.10878112659334811 0.10945690069791868
1080000000.0 0.029198563008384235 0.1723455471484179
1100000000.0 -0.07301335125835037 -0.18619114190808805
1120000000.0 0.16774982778134925 0.14437030917065616
1140000000.0 0.09870297840199194 -0.23381288881945278
1160000000.0 -0.17326487963620585 -0.2223719749683988
1180000000.0 -0.07431259426884813 -0.3076481007842197
1200000000.0 0.2727530054943587 -0.2037178262085846
1220000000.0 -0.2108352816791216 0.29857410004701457
1240000000.0 0.3822374392190578 0.05291081106539639
1260000000.0 -0.16093864677466221 -0.3754149794709376
1280000000.0 -0.40769490313291884 0.1199234312965189
1300000000.0 0.3349937093004298 0.2791472872035475
1320000000.0 0.4158581808677401 0.1375759231993561
1340000000.0 0.43755683445858906 -0.019834475201739848
1360000000.0 0.44029040037841616 -0.00712041322670208
1380000000.0 0.23795006585773076 -0.36578112955528574
1400000000.0 -0.3695895095295864 -0.2184160877906704
1420000000.0 0.029699942802256803 0.40900528999831187
1440000000.0 0.38122256961932927 -0.03944205315084449
1460000000.0 0.008345250842047174 -0.35249905957305266
1480000000.0 -0.31998463469202487 0.011943801377494375
1500000000.0 -0.10596116952631546 0.26632444225132623
1520000000.0 0.1091233456042267 0.23292150612195808
1540000000.0 -0.17387946043538796 -0.1484664009029191
1560000000.0 0.036115661881853826 -0.19128369950749627
1580000000.0 0.16621619653413386 0.016161469037348417
1600000000.0 0.04334951600867386 -0.12525074759945168
1620000000.0 -0.01147069761004173 -0.10367966228710387
1640000000.0 0.06851372979094152 0.03726457902593717
1660000000.0 -0.04505577909759312 0.031244288749865443
1680000000.0 0.035867594798936975 0.0021197530229120844
1700000000.0 0.019414469024211428 0.0117799195294781
1720000000.0 -0.007041762311279837 0.0016437289549006166
1740000000.0 0.01367205096018415 -0.006979460006597704
1760000000.0 0.0052008551662140814 0.03269728483584822
1780000000.0 -0.0034752391899855826 -0.06191248263732344
1800000000.0 0.005091925736352023 0.0936770143168903
1820000000.0 -0.006464133567285222 0.12472874507770619
1840000000.0 0.036839609689964074 -0.158976995132478
1860000000.0 -0.1731265142503234 0.10180711623634299
1880000000.0 0.21862119379018385 -0.10222190481437443
1900000000.0 -0.27110574413008465 0.08802145803466953
1920000000.0 0.2648649093199848 -0.18045811576146967
1940000000.0 -0.34834178066853616 0.05958776973545741
1960000000.0 0.3154160472921679 0.20975741749087248
1980000000.0 5.306359119065657e-05 -0.3964522599367401
2000000000.0 -0.3308398839272591 -0.24941930101170393
2020000000.0 -0.25739572571082864 0.33728775635438707
2040000000.0 0.028379967254457926 0.4302160300018009
2060000000.0 0.42395804686068944 0.08571508190783118
2080000000.0 0.32578667958950114 -0.28006195942650464
2100000000.0 0.01530462688597867 -0.4217268721971256
2120000000.0 -0.17261259712816837 -0.37501631285229525
2140000000.0 -0.2762971727537362 -0.29107441472183915
2160000000.0 0.13186047661056033 -0.364385752422631
2180000000.0 -0.07900652193960567 -0.3658076939245884
2200000000.0 -0.3083918201102568 -0.19042848687303265
2220000000.0 -0.3459178325904376 0.06415263653155276
2240000000.0 -0.1444514108646861 0.3158971142795181
2260000000.0 0.0468639965261336 0.34336005555524746
2280000000.0 0.23787981509917613 0.25745425694950047
2300000000.0 0.31493431535201605 -0.18100443928624713
2320000000.0 -0.11551546739833181 -0.36749789433789587
2340000000.0 -0.39787934106117673 0.12234821162893728
2360000000.0 0.3321303942015724 0.3127763134943876
2380000000.0 -0.21201608341677358 -0.4583971957853261
2400000000.0 0.2519610348176712 0.4952193584759202
2420000000.0 -0.5201145692470629 -0.3130808425162378
2440000000.0 0.6487451800517287 -0.08850543566311456
2460000000.0 -0.4672796844373157 0.5144797256394603
2480000000.0 0.18171680325096023 -0.7036160888871942
2500000000.0 -0.0918245656980597 0.7415815854313185
2520000000.0 0.2411543189581343 -0.7196213215478917
2540000000.0 -0.5130902073499243 0.5630651962283785
2560000000.0 0.7445828070674194 -0.1350903916592501
2580000000.0 -0.5538193254819115 -0.49454700046692857
2600000000.0 -0.027322696783888028 0.7189216854534547
2620000000.0 0.5494716602762884 -0.41567447544021197
2640000000.0 0.24422282561705652 -0.6057010118147009
2660000000.0 -0.5895825394750511 0.14948206870302844
2680000000.0 0.4801709753766527 0.2920762755417412
2700000000.0 -0.09742084926603894 -0.5057936687877175
2720000000.0 -0.20800910119250257 0.41796393819583666
2740000000.0 0.402160171300244 -0.12674094924147955
2760000000.0 -0.3815256205286642 -0.013598180913564063
2780000000.0 0.34997927066821394 0.02689817749106847
2800000000.0 -0.3061315906009319 0.10951023511681585
2820000000.0 0.023561611801443158 -0.3069570385233105
2840000000.0 0.2253630171440099 0.1927129275363024
2860000000.0 -0.2643637898807922 0.12436902111352713
2880000000.0 0.0023257542352888316 -0.29228401827987527
2900000000.0 0.16524769731611397 0.24331419252267078
2920000000.0 0.02197201328837071 -0.29708783821904566
2940000000.0 -0.29674174023297867 0.06012224275571038
2960000000.0 -0.07963683442881654 0.29689349718395935
2980000000.0 -0.10175815620690994 0.2947728940440189
3000000000.0 -0.2555137974274468 0.18335924032219028
3020000000.0 -0.28634165066996164 -0.13074698332346044
3040000000.0 0.2689585918746187 -0.15749696665966093
3060000000.0 -0.16564958338324892 0.2609194549409404
3080000000.0 0.11548596508730556 -0.2814937264733819
3100000000.0 -0.09405063876572584 0.28322068810835793
3120000000.0 0.007953313680032482 -0.29252664351750485
3140000000.0 0.1194726858058407 0.2568930649435333
3160000000.0 -0.23808430505242942 -0.12550198646769892
3180000000.0 0.06564609796876385 0.24516734403847235
3200000000.0 -0.2260386229796583 -0.0424245968445111
3220000000.0 0.05460250284027463 -0.19681118928592833
3240000000.0 0.14720220813573745 0.09341178045836557
3260000000.0 -0.1302563257577505 0.055556877700404725
3280000000.0 0.09308144841380299 -0.05776935238742123
3300000000.0 -0.07408422647551391 0.027108037976271294
3320000000.0 0.03694462373974026 0.03540206787523331
3340000000.0 0.009744166533097703 -0.02569905789798453
3360000000.0 -0.008382760131893461 0.0003810643045982118
3380000000.0 0.008175952979501773 0.002593893751107063
3400000000.0 0.02082206630224647 0.009777845010639281
3420000000.0 -0.0270414038261865 -0.023129856247092188
3440000000.0 -0.0017000769456315295 0.04494109634999302
3460000000.0 -0.050417768741409845 -0.019796320925251045
3480000000.0 0.06233034538572901 -0.019165020059083514
3500000000.0 -0.051394043344807606 -0.06084149837954509
3520000000.0 -0.09127268157807253 0.01796309315608407
3540000000.0 0.08358989499789948 -0.06900011818974941
3560000000.0 -0.08200945759740541 0.093069387022301
3580000000.0 0.040854735835217516 -0.13096580035863914
3600000000.0 0.15181037968424668 0.01830698494308086
3620000000.0 0.0999119484721498 0.13072148443058293
3640000000.0 -0.07828286504950173 0.15623423152432406
3660000000.0 -0.18322680535205912 -0.0010006657246468388
3680000000.0 -0.1580760726372719 -0.1037574085503329
3700000000.0 -0.08439755330292473 -0.16932321755506224
3720000000.0 0.10626550858797552 -0.15496605332184804
3740000000.0 0.1812178302974839 -0.02147867564717193
3760000000.0 -0.17424548242154933 -0.022794491459593415
3780000000.0 0.1588688474990636 0.049398584356133105
3800000000.0 0.0035364576492988155 -0.15948697709069504
3820000000.0 -0.1306985222817226 -0.07689027777289265
3840000000.0 -0.08053293922366675 -0.11924681058489606
3860000000.0 0.1383547176244668 0.041549470431292805
3880000000.0 0.13687170965235193 0.05965304344320235
3900000000.0 0.10845745488360307 -0.11286759892625103
3920000000.0 -0.10760701081721782 0.11954160479872689
3940000000.0 0.03551828509246753 -0.1612807163518163
3960000000.0 0.1532395778277828 -0.07600655025036061
3980000000.0 0.00598391964979127 -0.17197900686203285
4000000000.0 -0.07425058790175637 -0.14966344949071414
