!Created with skrf (http://scikit-rf.org).
# Hz S RI R 50.0 
!freq ReS11 ImS11
400000000.0 -0.555465782583365 0.673642748392358
420000000.0 0.6189951620544292 0.6097226254148388
440000000.0 0.3811702375681299 -0.7448800802273139
460000000.0 -0.46191244495694894 -0.6309600251331062
480000000.0 0.6640701633341182 -0.23624723714355972
500000000.0 -0.27033893368991246 -0.5129953156945928
520000000.0 -0.4717220039000491 0.15089726930386227
540000000.0 0.3401064229676052 -0.23582541025399806
560000000.0 -0.3691756310891594 0.01962652079938441
580000000.0 0.3210377422748281 0.10708591330964287
600000000.0 0.2381955646514318 -0.256344806492115
620000000.0 -0.004678378141916362 0.3600690661335559
640000000.0 0.293917920083675 0.25573637377749076
660000000.0 0.23711049027693487 -0.32662644934738533
680000000.0 0.36068464131772765 0.2259524820613909
700000000.0 -0.0768854196852098 -0.4250590490891639
720000000.0 -0.42556187192643186 -0.020585361788398593
740000000.0 0.21827566653573907 -0.3542703635883754
760000000.0 -0.3755226686523413 -0.11150627243769701
780000000.0 0.24667978343219404 0.25989078406858773
800000000.0 0.05773323749729748 -0.31692585411332097
820000000.0 -0.26244349535199635 0.08899020929525187
840000000.0 -0.09971156908227496 0.21897934505726457
860000000.0 -0.20424675418211047 -0.01627460169823467
880000000.0 0.15162596548414228 -0.05961119909433134
900000000.0 0.07334280880221018 -0.0859715359021139
920000000.0 -0.07077729347484284 0.030745074162576578
940000000.0 -0.015035736749623026 -0.04370353642152899
960000000.0 0.048019433931939304 -0.0025329426364073906
980000000.0 0.06537361558063454 0.004213824594428621
1000000000.0 -0.01576399794694069 -0.08149992837315136
1020000000.0 -0.0363665724590716 -0.09719177284632144
1040000000.0 -0.01813134653096565 -0.117195410367921
1060000000.0 0.15481087071978117 0.008866063376845767
1080000000.0 0.1115999864900477 0.13634766840951432
1100000000.0 -0.11522251807007164 -0.166217353327465
1120000000.0 0.16177740275087357 0.15493101492086736
1140000000.0 0.16331290058791145 -0.19737978958507582
1160000000.0 -0.09490217362688541 -0.26780344980932713
1180000000.0 0.09463131194680083 -0.30338384761675646
1200000000.0 0.3366356290060159 -0.05784608132993772
1220000000.0 -0.32056017800344205 0.17727013588897633
1240000000.0 0.33947074025782054 0.1841045777576383
1260000000.0 -0.02175719708603026 -0.4077244957254241
1280000000.0 -0.4242838186971914 -0.0008700515619941176
1300000000.0 0.2742708064850286 0.33804915048845097
1320000000.0 0.40756166230884083 0.1577860526240801
1340000000.0 0.43655321899585686 -0.014641541909035837
1360000000.0 0.4384122614116638 -0.03095092365973918
1380000000.0 0.21348956163702187 -0.379912775721416
1400000000.0 -0.3917396273583436 -0.17466332641119392
1420000000.0 0.09247213276811579 0.39970512896506216
1440000000.0 0.3694466363303506 -0.10449146582946638
1460000000.0 -0.0669573772949518 -0.3470232969020929
1480000000.0 -0.30379344893549215 0.10513503609546648
1500000000.0 -0.062454516018355444 0.28151100412559804
1520000000.0 0.10004686997206688 0.2392452557797582
1540000000.0 -0.15949319662838546 -0.16639483323881707
1560000000.0 0.08532446807170185 -0.17702405399802076
1580000000.0 0.14642982939283067 0.08361612866965433
1600000000.0 0.11239474789076073 -0.07247190237001672
1620000000.0 0.07433954655622049 -0.07400607616309146
1640000000.0 0.009920966608057429 0.07776183826697419
1660000000.0 -0.0007266077990487622 -0.054021516129095046
1680000000.0 0.0028351622075688857 0.03503644609115926
1700000000.0 -0.013124509957712291 0.01679961060000828
1720000000.0 0.0060656593863100015 0.0021007694898921743
1740000000.0 0.007326979764981408 -0.013925652670073639
1760000000.0 -0.02876917291610926 -0.017873665731863653
1780000000.0 0.06064307520827516 -0.012995362601549926
1800000000.0 -0.06616604044406342 0.06595600425844098
1820000000.0 -0.06151809946916129 0.10828589347925355
1840000000.0 0.08016495590298586 -0.14117945444147612
1860000000.0 -0.1840956846910168 0.07755115889789789
1880000000.0 0.22700723344911822 -0.07924131652785432
1900000000.0 -0.2706309780169167 0.08748565229033196
1920000000.0 0.2538186102269368 -0.19469841296753257
1940000000.0 -0.3361144456525382 0.10771377706780724
1960000000.0 0.35214545413828036 0.13914100417660277
1980000000.0 -0.05889367241128922 -0.3928110581269311
2000000000.0 -0.3822586392317424 -0.16097320341283392
2020000000.0 -0.23826641879587143 0.35261935004608125
2040000000.0 0.10542424503204732 0.41966533131726413
2060000000.0 0.43430029131157905 0.013911971872120048
2080000000.0 0.3316320895984164 -0.2762151917823142
2100000000.0 0.040846525122045424 -0.42171019607459814
2120000000.0 -0.12713093570619224 -0.3945116125848621
2140000000.0 -0.21010633415323218 -0.3442114948540807
2160000000.0 0.163929983844898 -0.3530497124402151
2180000000.0 0.013099666089184777 -0.37513360493274706
2200000000.0 -0.25371499196281955 -0.25943321726374197
2220000000.0 -0.34967746128909566 -0.03559314374766087
2240000000.0 -0.2215665998851336 0.2684589182427299
2260000000.0 0.0052978088325442195 0.34637043657645267
2280000000.0 0.19520573478461237 0.29069046390576025
2300000000.0 0.33476631424505676 -0.13898511579243933
2320000000.0 -0.12303737488799549 -0.3642150502980332
2340000000.0 -0.3865023412183732 0.15331407196052282
2360000000.0 0.37343663196063087 0.2622832611927584
2380000000.0 -0.2683291654072083 -0.42805703794717914
2400000000.0 0.34075868761765743 0.4398929200479114
2420000000.0 -0.5637942013010353 -0.22757755337883923
2440000000.0 0.6283649406694402 -0.1884004518225025
2460000000.0 -0.37518542206961136 0.58656215644297
2480000000.0 0.040178775798413065 -0.7266413583560064
2500000000.0 -0.07879559958786185 0.7449988029091569
2520000000.0 0.1673582928280494 -0.7419832956151633
2540000000.0 -0.47931381056810946 0.592746473626671
2560000000.0 0.7474589959134873 -0.11697764034168036
2580000000.0 -0.5240113203521896 -0.5251029307061398
2600000000.0 -0.01908921239356665 0.7181913141804671
2620000000.0 0.5593128334383989 -0.401406730599106
2640000000.0 0.3424794273113044 -0.5550682445234524
2660000000.0 -0.6042536101761918 0.05558339001992748
2680000000.0 0.4105457963980156 0.3809733351486328
2700000000.0 -0.010348357737687709 -0.512421994292762
2720000000.0 -0.2477384154287146 0.3928420001981716
2740000000.0 0.40413224650519314 -0.11278266701800094
2760000000.0 -0.3798301446062875 -0.00423080487675354
2780000000.0 0.34922478559865705 -0.012373719254746191
2800000000.0 -0.29450485306030505 0.13493630436718074
2820000000.0 -0.023672956441025624 -0.306642037673318
2840000000.0 0.2621217769652787 0.13864939526472841
2860000000.0 -0.2230863113191163 0.18973591284095698
2880000000.0 -0.055885011328604885 -0.2876271010846791
2900000000.0 0.1648592916290937 0.24509006285687182
2920000000.0 0.04640695602376043 -0.29567923788164563
2940000000.0 -0.302658748718341 0.029347627245886614
2960000000.0 -0.13984066040303478 0.2746135788022223
2980000000.0 -0.19169496910420486 0.24711942896307368
3000000000.0 -0.3068315367434382 0.07116858890359017
3020000000.0 -0.18892362940100782 -0.25161894823170794
3040000000.0 0.30675385518500387 -0.051893305796559
3060000000.0 -0.27398696978064163 0.14260279635436054
3080000000.0 0.2448422202881193 -0.17987190719021334
3100000000.0 -0.25861808368217803 0.14753048288378873
3120000000.0 0.14962492540937908 -0.25039078716089813
3140000000.0 -0.02361799585903832 0.2807421183660921
3160000000.0 -0.17910944837211812 -0.19836281344995801
3180000000.0 -0.014916034925731 0.2508645469893777
3200000000.0 -0.21182400620398328 -0.08303274023650883
3220000000.0 0.05670744802975903 -0.19399339349442238
3240000000.0 0.1574979252537872 0.07016197098929314
3260000000.0 -0.10267363603780963 0.09432918973077577
3280000000.0 0.07267237479992567 -0.07952810757852287
3300000000.0 -0.019642788948803704 0.07407466880132932
3320000000.0 0.021327043582728317 -0.0450355344688106
3340000000.0 -0.005102001776181358 0.025514127739862134
3360000000.0 0.006693395573561647 0.002064497897529315
3380000000.0 0.0096465816664852 -0.0027265020442133418
3400000000.0 0.009657562774924678 -0.02139766848385814
3420000000.0 0.03423212433603148 0.009377987828025812
3440000000.0 0.002459055118267031 -0.045146726562059585
3460000000.0 0.04473830410635454 -0.03163072560827762
3480000000.0 0.04140742421772917 0.05084804712681496
3500000000.0 0.04633461689408859 -0.06496875016124344
3520000000.0 -0.0348907313916341 -0.08602201004846466
3540000000.0 0.09503833523839245 0.05101792270122906
3560000000.0 -0.1207442297567424 0.02197240336173421
3580000000.0 0.081373933970741 -0.10933514496253102
3600000000.0 0.1415705326527133 0.057453984035263354
3620000000.0 0.050627837343538415 0.15571456870374423
3640000000.0 -0.14510525952023406 0.09498005585636164
3660000000.0 -0.17989859500866953 -0.026685250885071166
3680000000.0 -0.10530767157666898 -0.15443267090466192
3700000000.0 -0.0381182043261665 -0.18380594755162669
3720000000.0 0.13421539482549455 -0.1290922138586821
3740000000.0 0.17973193248124633 -0.012314742735140605
3760000000.0 -0.1695838845007991 -0.039012834378618
3780000000.0 0.1633626470398827 0.01723683279957762
3800000000.0 0.015404309515568372 -0.15605166111472515
3820000000.0 -0.13905670719975022 -0.05352773660391614
3840000000.0 -0.10359601428209537 -0.09540727102075618
3860000000.0 0.1415792510889502 0.010717367686085423
3880000000.0 0.13406554789271577 0.05966409993778121
3900000000.0 0.056808459413336024 -0.14331231787917453
3920000000.0 -0.08316533230576977 0.13520135313979878
3940000000.0 -0.0064048154754044176 -0.16402622488446075
3960000000.0 0.10237528056824591 -0.13482591100538788
3980000000.0 -0.08365104161430119 -0.1495348896484429
4000000000.0 -0.1235971984032232 -0.1111812590740111
