!Created with skrf (http://scikit-rf.org).
# Hz S RI R 50.0 
!freq ReS11 ImS11
400000000.0 -0.5632542154888751 0.6644954998356465
420000000.0 0.6501260448115459 0.5773402039596118
440000000.0 0.329938690279163 -0.768583214403842
460000000.0 -0.49656994619915884 -0.6037809579708642
480000000.0 0.6620769920822064 -0.24183489933845054
500000000.0 -0.3067430097466496 -0.4923596791321301
520000000.0 -0.46678657078232905 0.1658254112077526
540000000.0 0.34040682047042853 -0.23569071806677278
560000000.0 -0.36937019276170735 0.013225675453389868
580000000.0 0.3215944203239478 0.10574817748620643
600000000.0 0.2022754834234375 -0.28465747342158965
620000000.0 -0.002330913517602582 0.35986929540367296
640000000.0 0.29838850804694517 0.2502879438917794
660000000.0 0.2602547090464848 -0.30876587264017585
680000000.0 0.35663904702346155 0.23288209297573398
700000000.0 -0.08806090099003393 -0.42342926075717907
720000000.0 -0.4249479919708433 -0.03382820357300433
740000000.0 0.2188990338809851 -0.3540755484186885
760000000.0 -0.3772209836317491 -0.10490792569778508
780000000.0 0.2403819987028322 0.2663766935959442
800000000.0 0.08331232706059687 -0.3111801386124314
820000000.0 -0.26337192879971594 0.08688363651566013
840000000.0 -0.10342941283752978 0.21706934648000076
860000000.0 -0.20496028425271995 -0.008398965815368847
880000000.0 0.14929757364231225 -0.06565693386689336
900000000.0 0.07853999368403451 -0.08154150699375064
920000000.0 -0.06685630249604638 0.03835999401891933
940000000.0 -0.005071551242913559 -0.04595222383065309
960000000.0 0.04742918202089583 -0.009010085551555731
980000000.0 0.0655942430208318 0.0009824852085335279
1000000000.0 -0.01818984413382734 -0.0814955240208584
1020000000.0 -0.01783644462233522 -0.10218858553822713
1040000000.0 -0.008944244826331238 -0.11828649311262722
1060000000.0 0.15106156999969578 0.03509225287225829
1080000000.0 0.09459467042080703 0.14881643994722552
1100000000.0 -0.09302566800250728 -0.1792704573732764
1120000000.0 0.17018074801172353 0.14592336471868403
1140000000.0 0.1689667422208595 -0.19266545461881335
1160000000.0 -0.12970115270401433 -0.2532896172500715
1180000000.0 0.09719765093045984 -0.3026498510340844
1200000000.0 0.33613873329826754 -0.0621883187444311
1220000000.0 -0.3174659844183265 0.1833324448902779
1240000000.0 0.33660539669386097 0.18910553485312045
1260000000.0 -0.017298094970567664 -0.4077818632967539
1280000000.0 -0.42416136685567085 -0.001260206439030594
1300000000.0 0.25916341996608405 0.34932893553723887
1320000000.0 0.4040579333939454 0.16592535942362832
1340000000.0 0.43666713406093577 -0.009502282939371174
1360000000.0 0.43801325006611813 -0.03526152045491988
1380000000.0 0.20802826307980854 -0.3827958549427149
1400000000.0 -0.39157366366466717 -0.1751130677614597
1420000000.0 0.09850531827940082 0.3980826569026034
1440000000.0 0.36730016190548476 -0.111908272650985
1460000000.0 -0.059585985148516686 -0.3488012526206843
1480000000.0 -0.3090948032610458 0.0906190985263245
1500000000.0 -0.05438835982755793 0.28370522226015515
1520000000.0 0.12484725873710442 0.22776362206681597
1540000000.0 -0.17943185400140985 -0.14528680036116062
1560000000.0 0.127710100601153 -0.1504351088686238
1580000000.0 0.10572828274557854 0.13187708071263252
1600000000.0 0.1341235738107856 0.0021419594262200303
1620000000.0 0.10440897184495014 0.011492142426638327
1640000000.0 -0.052894991213642925 0.057188128246630936
1660000000.0 0.011002779886897426 -0.05260240184481516
1680000000.0 -0.03398626474664018 0.00514407440682964
1700000000.0 -0.016103917443143847 0.01315960659292849
1720000000.0 -0.005827156369074593 -0.0007230117714430652
1740000000.0 0.001798171261954235 0.015903606506015373
1760000000.0 0.014342355046989616 -0.030617914293382793
1780000000.0 0.033954515100069325 0.05175768141703214
1800000000.0 -0.0889103479441972 0.026437495246225587
1820000000.0 -0.09316866531663298 0.08140300395563942
1840000000.0 0.09252433066234712 -0.13248800266086658
1860000000.0 -0.18547858741487153 0.07186726173651097
1880000000.0 0.22959378410411754 -0.06765362327597264
1900000000.0 -0.2682132657681149 0.09267818242019317
1920000000.0 0.2314872649541078 -0.22022185055534957
1940000000.0 -0.32534914748019833 0.13609873775863765
1960000000.0 0.3607025196943893 0.11535120425225653
1980000000.0 -0.08762479046706231 -0.3874047915948703
2000000000.0 -0.3921029711992761 -0.13568273271396888
2020000000.0 -0.18992738292275124 0.38130776201143946
2040000000.0 0.09878210739167877 0.42231207994258596
2060000000.0 0.43420579173571533 0.03410017427089704
2080000000.0 0.32902410857160624 -0.28173420671604427
2100000000.0 0.11100802175869635 -0.41035301786075606
2120000000.0 -0.10104259325386329 -0.40280486601589305
2140000000.0 -0.18409117575946654 -0.36028992545068905
2160000000.0 0.23201013727274 -0.31368039644686263
2180000000.0 0.10129829498647774 -0.36256626543901577
2200000000.0 -0.20867696476835418 -0.29836416754550865
2220000000.0 -0.3288069055919245 -0.12902604564533873
2240000000.0 -0.26147199375446695 0.23002087268731214
2260000000.0 -0.07644843113244996 0.33800945996099263
2280000000.0 0.13578066507961883 0.32293624171552504
2300000000.0 0.34602695793213367 -0.10776084714486109
2320000000.0 -0.06439246415328896 -0.37897779033578866
2340000000.0 -0.400361132099068 0.11251771722174347
2360000000.0 0.3539823652496054 0.2877139704683284
2380000000.0 -0.2467337040421809 -0.44088410273140693
2400000000.0 0.3487653807977564 0.4337660070519275
2420000000.0 -0.5751553701081832 -0.19872370018371335
2440000000.0 0.6311509619005078 -0.18145435975445903
2460000000.0 -0.3692106472271739 0.5911430877737666
2480000000.0 0.05756247394925203 -0.7260273049273795
2500000000.0 -0.06850877928056864 0.7460502087585056
2520000000.0 0.2366368113258176 -0.7223491463231196
2540000000.0 -0.48005486180195095 0.591743500001116
2560000000.0 0.7435772177898916 -0.1429642863966806
2580000000.0 -0.5504125799766405 -0.49827161600219505
2600000000.0 -0.06613452904903079 0.7161207448568516
2620000000.0 0.5941653622012878 -0.34861268537603124
2640000000.0 0.35791268245190244 -0.5458055812820081
2660000000.0 -0.6020992105291817 0.08554167385090138
2680000000.0 0.42838289571642485 0.3636097271465643
2700000000.0 -0.021138276459857965 -0.513625337994289
2720000000.0 -0.24500943849397333 0.3965919150724325
2740000000.0 0.4138462832630741 -0.07615805234626687
2760000000.0 -0.3783906634651645 -0.044633365730477347
2780000000.0 0.3491377634744396 0.0345080052703139
2800000000.0 -0.3103276198293808 0.0960239510132785
2820000000.0 0.03469163077900452 -0.30602324515398255
2840000000.0 0.23691316023596082 0.17863803296265968
2860000000.0 -0.25214638901188513 0.1495606778525054
2880000000.0 -0.004304014790600926 -0.29264904682736614
2900000000.0 0.1535314569558337 0.25138454669771726
2920000000.0 0.040030369545823466 -0.2958800484228902
2940000000.0 -0.30155114592079074 0.03588219441482469
2960000000.0 -0.13969080310153448 0.27465363631173734
2980000000.0 -0.18499151010008621 0.251405541373724
3000000000.0 -0.2840887975860008 0.1341785134679414
3020000000.0 -0.20937557696038264 -0.23422335348789067
3040000000.0 0.2763489161289673 -0.14110801001418558
3060000000.0 -0.24719920442482152 0.18485163106063743
3080000000.0 0.2064365781319646 -0.222941776180928
3100000000.0 -0.1681147181443005 0.24599160317128874
3120000000.0 0.059009516788337234 -0.28611845699327193
3140000000.0 0.006377108735622897 0.2820430102751236
3160000000.0 -0.19046354273760088 -0.18827661923120664
3180000000.0 0.0013764512546383745 0.25159955979402543
3200000000.0 -0.2168626146804642 -0.06935907452564298
3220000000.0 0.057431990390965214 -0.19401782392171563
3240000000.0 0.16651797535548996 0.044044420596259744
3260000000.0 -0.06839041680369529 0.12183797661947489
3280000000.0 0.004547467986065553 -0.1077724855671438
3300000000.0 0.04877072122768535 0.05958789134765141
3320000000.0 -0.02929856300740009 -0.04068659685427439
3340000000.0 0.023153997599053473 0.01263737159768811
3360000000.0 0.0018491181320389914 -0.007733738174018673
3380000000.0 0.009824647579736752 0.0030680887615656487
3400000000.0 0.02382714173756637 0.0023025092177022784
3420000000.0 -0.028891065216278787 0.020825760824427157
3440000000.0 0.045121677703393426 -0.005641852162330048
3460000000.0 0.047238110448602766 0.027515563174482695
3480000000.0 -0.026788863442613366 0.05992432825651835
3500000000.0 0.07809511130187793 -0.014513661497216808
3520000000.0 0.0321516839697387 -0.08729439081423396
3540000000.0 0.024326281521659894 0.10470916040075216
3560000000.0 -0.10515729132758901 -0.062079392984885906
3580000000.0 0.12249117710890899 -0.059493816647108
3600000000.0 0.09721438323515649 0.11617700986592631
3620000000.0 -0.008514564817462841 0.16238232309024395
3640000000.0 -0.16586090470723866 0.04772693444646612
3660000000.0 -0.17488062098407528 -0.04666613728809668
3680000000.0 -0.06922875571735654 -0.17224577296903962
3700000000.0 -0.015561243697078737 -0.18588992402170548
3720000000.0 0.15368400374224833 -0.10384241706392768
3740000000.0 0.17892541938656212 -0.003246050747013787
3760000000.0 -0.17196835674740496 -0.017042828215174936
3780000000.0 0.1607985096413512 0.02867350814438606
3800000000.0 -0.028165728381507774 -0.15386002187060455
3820000000.0 -0.1401161610010854 -0.05218961973892939
3840000000.0 -0.11556335557272382 -0.08130164277264308
3860000000.0 0.1420070801061556 -0.0006659603116128092
3880000000.0 0.14352369388311337 0.030279509636826667
3900000000.0 0.05131637449009962 -0.144731390887492
3920000000.0 -0.06364413527596192 0.14539914589929326
3940000000.0 -0.03378016601121146 -0.16054736377343784
3960000000.0 0.10922992086697794 -0.1301288814462542
3980000000.0 -0.0728434056758496 -0.15463740972914747
4000000000.0 -0.1035169145961161 -0.13010736593829364
