!Created with skrf (http://scikit-rf.org).
# Hz S RI R 50.0 
!freq ReS11 ImS11
400000000.0 -0.6008731184541761 0.6339714437420528
420000000.0 0.6235496665850762 0.6079464019414321
440000000.0 0.41258692513028433 -0.7288888549456976
460000000.0 -0.4461036570200522 -0.6429599581084446
480000000.0 0.6706546371201565 -0.2161012082361702
500000000.0 -0.29557774667874354 -0.4988931938432531
520000000.0 -0.46697316640730663 0.16514415585704764
540000000.0 0.345222362110273 -0.22737677762890746
560000000.0 -0.36515626660464046 -0.05786477962463685
580000000.0 0.30848639453998394 0.13929419225275452
600000000.0 0.21255505617057555 -0.2764804250958419
620000000.0 0.010902254390028291 0.35845722675647124
640000000.0 0.2982823205118498 0.24885751451227944
660000000.0 0.23388400461342915 -0.3278360388833399
680000000.0 0.38599297087428797 0.17765162030383105
700000000.0 -0.16234240570199104 -0.40044840214794886
720000000.0 -0.42410858381664457 0.03880223970607361
740000000.0 0.1571884306278393 -0.38515063253782167
760000000.0 -0.3791920346886503 -0.10183233896354398
780000000.0 0.24286059550671907 0.2649235180472027
800000000.0 0.09728547807296996 -0.30820490029347614
820000000.0 -0.27491510313053547 0.039553314029065395
840000000.0 -0.15878066466881566 0.1812681993416786
860000000.0 -0.1757229134792443 -0.10491724796184755
880000000.0 0.16183855931441193 0.005931093739444408
900000000.0 0.10792776574211974 -0.02694979172991982
920000000.0 -0.06244925934646157 0.04150720724750415
940000000.0 -0.0409874710449609 0.018429177022288298
960000000.0 -0.022548718778437768 -0.043117166665585994
980000000.0 0.05432612593642227 -0.03924470668771996
1000000000.0 0.006475609496818622 -0.08448178906497403
1020000000.0 0.04012983898314068 -0.09724503241022033
1040000000.0 0.0825155617460455 -0.08589890712173952
1060000000.0 0.09790650234663935 0.12020005995459061
1080000000.0 -0.004473078190463015 0.17489856544505544
1100000000.0 -0.024511651050014554 -0.19873685124286905
1120000000.0 0.09785869104572013 0.19900309300303576
1140000000.0 0.17466384247691996 -0.1835113796787263
1160000000.0 -0.1535010957886411 -0.23586973184012378
1180000000.0 0.004182041225813678 -0.31555252227492137
1200000000.0 0.3019956510682288 -0.15511247464736738
1220000000.0 -0.2358361517533511 0.2781852912003336
1240000000.0 0.37808780754401955 0.07428246652153349
1260000000.0 -0.14839852729861733 -0.37982039170403087
1280000000.0 -0.4070033925953254 0.12091974954965086
1300000000.0 0.3563479204143663 0.25072838849971746
1320000000.0 0.42471697535933417 0.1053002662305783
1340000000.0 0.43377455881893595 -0.061212545663959096
1360000000.0 0.43826303511792447 -0.04577579893586441
1380000000.0 0.22106898551826462 -0.3769947250307542
1400000000.0 -0.3663774116232533 -0.22516199771196874
1420000000.0 0.007431839513625434 0.41088849029651614
1440000000.0 0.38389608868886416 -0.008576944479714603
1460000000.0 0.04616981466305656 -0.3505575285546905
1480000000.0 -0.3193636871486954 0.034116271881598104
1500000000.0 -0.15627813039385677 0.2409652905749444
1520000000.0 0.019516700703478024 0.2570115627170216
1540000000.0 -0.13340914783899863 -0.18533856495155496
1560000000.0 0.14752794057332738 -0.12664188863918938
1580000000.0 0.1228357629525063 0.11261514501253532
1600000000.0 0.12104924141449128 -0.052028078477524026
1620000000.0 0.030476447191793515 -0.0988394516935586
1640000000.0 0.07094827792843993 0.03062332313537357
1660000000.0 -0.05186168336231942 0.013825303481568277
1680000000.0 0.03174460272387646 -0.014915023296885372
1700000000.0 -0.0009488450037101997 -0.021851294864548204
1720000000.0 0.006779136711688987 -0.0007564286302151979
1740000000.0 -0.0075793357938413386 0.013142237806336205
1760000000.0 -0.025209630762222393 0.021169969998969543
1780000000.0 0.03697850603291663 -0.04889928647739724
1800000000.0 -0.016370463210560616 0.09130338395477579
1820000000.0 -0.005902225028129729 0.12426716907846926
1840000000.0 0.022086988018137594 -0.16100812773405512
1860000000.0 -0.16374244700602286 0.11467577064887828
1880000000.0 0.20933684214072415 -0.11897964138168661
1900000000.0 -0.2648742837601523 0.10478680249255254
1920000000.0 0.24242202867190607 -0.2093585463967894
1940000000.0 -0.33879934685645113 0.1010022458881225
1960000000.0 0.34444284961374305 0.1581194503352277
1980000000.0 -0.01580766486279553 -0.39725961469988735
2000000000.0 -0.3642396826542772 -0.19802563921098798
2020000000.0 -0.2575711829675185 0.3387933614352695
2040000000.0 0.06039507979647962 0.4283661761371729
2060000000.0 0.42651947938094437 0.07865359625964229
2080000000.0 0.35311823122186087 -0.2479656633078161
2100000000.0 0.1035151119686607 -0.4108226104127945
2120000000.0 -0.1379668395724625 -0.39076488842872237
2140000000.0 -0.21588571232825027 -0.3406791938431221
2160000000.0 0.19791877465510965 -0.3355082239146162
2180000000.0 0.024466654608985144 -0.3750813045432262
2200000000.0 -0.2337050488214069 -0.2786468694035863
2220000000.0 -0.3495226172074022 -0.04519877309351197
2240000000.0 -0.25887008871049083 0.23439903682796273
2260000000.0 -0.08761244037081634 0.33643920962690543
2280000000.0 0.14059167639497047 0.32259788874581397
2300000000.0 0.3580013513565526 -0.06540708721862691
2320000000.0 -0.0329365062039732 -0.38422920821541023
2340000000.0 -0.4106667612370162 0.07058456538679236
2360000000.0 0.34481136859282885 0.30031316986917433
2380000000.0 -0.2394659567223114 -0.4458509597134125
2400000000.0 0.3496602570478625 0.4339264149090911
2420000000.0 -0.5740240222492653 -0.20216392888083515
2440000000.0 0.6251159607936718 -0.20097142470885782
2460000000.0 -0.34371975477353217 0.6058836461112539
2480000000.0 0.033838639399439624 -0.7270082399198273
2500000000.0 0.025767161992713446 0.7481175654284932
2520000000.0 0.15053598370556406 -0.7443389269215552
2540000000.0 -0.4299194511267397 0.6289492298048348
2560000000.0 0.7281869118258496 -0.20609265446049907
2580000000.0 -0.5908610105842862 -0.4488059802195884
2600000000.0 0.01894989668220416 0.7189353696965015
2620000000.0 0.5454094070261504 -0.42126027841786945
2640000000.0 0.2729587587550386 -0.5932644628202441
2660000000.0 -0.5891407039788242 0.1535575902078912
2680000000.0 0.457423543922166 0.3267606760487205
2700000000.0 -0.06730666072357362 -0.5104366691913816
2720000000.0 -0.2392019604156591 0.400867781450884
2740000000.0 0.4132433805782079 -0.08493286868485311
2760000000.0 -0.37931130802694424 -0.04403734176229121
2780000000.0 0.34650080762591995 0.05714754995211861
2800000000.0 -0.31743487641259466 0.0719748647950949
2820000000.0 0.0496568326541586 -0.304548346473615
2840000000.0 0.22208700693646466 0.19741702668409278
2860000000.0 -0.26676481801814794 0.12180949807802342
2880000000.0 0.022941523795115413 -0.29190813470531635
2900000000.0 0.11355466486595973 0.27204638885436844
2920000000.0 0.050987315247675406 -0.2938155221173444
2940000000.0 -0.30169494914307216 0.026581326909552783
2960000000.0 -0.1476971034621605 0.26969573868224744
2980000000.0 -0.15211606756705387 0.2720959483817781
3000000000.0 -0.2891802456714142 0.12267240948226678
3020000000.0 -0.2265264982736494 -0.21742284381444468
3040000000.0 0.3003517088286267 -0.07734933040107783
3060000000.0 -0.19555701686457513 0.23745951576756344
3080000000.0 0.1579500732008834 -0.25857446289483116
3100000000.0 -0.13488049402821348 0.2657762004003015
3120000000.0 0.01754498395568028 -0.2912139029386596
3140000000.0 0.08617444283706926 0.2686078655084586
3160000000.0 -0.23821439508684755 -0.12255879316830975
3180000000.0 0.06668006467806485 0.24278133864730073
3200000000.0 -0.22812127518724687 0.013825832680143172
3220000000.0 -0.026883115528380335 -0.20132437227038533
3240000000.0 0.1732838619899332 0.008277155241873732
3260000000.0 -0.06220746347052679 0.12608149383502462
3280000000.0 0.022926924791722578 -0.1063661105018381
3300000000.0 0.05796266303008356 0.051946366345867016
3320000000.0 -0.014499412859090996 -0.04872458417287551
3340000000.0 0.025263063283019853 0.008440000054744004
3360000000.0 0.006781614508544446 -0.004817073452736016
3380000000.0 0.007797968226001397 0.00497400465583257
3400000000.0 -0.008221237662467268 -0.02156057118853576
3420000000.0 0.030372169809277948 0.018302737881298447
3440000000.0 0.00600651721728073 -0.04454308040211938
3460000000.0 0.053403278833204795 -0.008999022856088083
3480000000.0 0.04048799733345848 0.051702458302931305
3500000000.0 0.05679746796661844 -0.055910299046508696
3520000000.0 -0.04923822816128344 -0.07967518694606605
3540000000.0 0.09205688892263723 0.05748032583669501
3560000000.0 -0.12246139856031596 -0.015170678300922894
3580000000.0 0.10381832595797572 -0.08975564032036669
3600000000.0 0.1218883349647823 0.0937480264923729
3620000000.0 0.027522439506202756 0.16225626977538074
3640000000.0 -0.15940650047655014 0.07252767172406707
3660000000.0 -0.16878524796952346 -0.0713603264843116
3680000000.0 -0.046618979512851155 -0.1819550503951024
3700000000.0 0.028517271488516578 -0.18601899922673534
3720000000.0 0.1745331679850404 -0.06675724282978145
3740000000.0 0.17753640127447684 0.03509173020455904
3760000000.0 -0.15975716640480414 -0.07180920695522137
3780000000.0 0.1431819548427325 0.0821776331153247
3800000000.0 0.08089432039303758 -0.13578848480180294
3820000000.0 -0.10126164565285105 -0.11181328775309803
3840000000.0 -0.0524208930482785 -0.13252627617297022
3860000000.0 0.13851787351869255 0.03674532018222559
3880000000.0 0.11876471496608071 0.08781898936131001
3900000000.0 0.11134702052264299 -0.10836258788833915
3920000000.0 -0.12247847834389064 0.10211873477783455
3940000000.0 0.016464835037739125 -0.16431482979925488
3960000000.0 0.1103146640973684 -0.12902402722442982
3980000000.0 -0.04745644094032204 -0.16516226091888625
4000000000.0 -0.09774028029779908 -0.13509696516202863
