!Created with skrf (http://scikit-rf.org).
# Hz S RI R 50.0 
!freq ReS11 ImS11
400000000.0 -0.5846832850756165 0.6492928037948653
420000000.0 0.6197480297823099 0.6112735939833354
440000000.0 0.383305414807231 -0.7443829717358713
460000000.0 -0.49282137436158924 -0.6076544123956534
480000000.0 0.6672555101636497 -0.22807754014096532
500000000.0 -0.27978320225380277 -0.5076920317656386
520000000.0 -0.47954189034360356 0.12580474309171397
540000000.0 0.3483289608969559 -0.22433284739735065
560000000.0 -0.3678349059046896 0.03063956187423381
580000000.0 0.29080696504322084 0.1716731516487803
600000000.0 0.18822028519764916 -0.29426482316029384
620000000.0 0.10754187852915924 0.3421255070686371
640000000.0 0.3088455933874445 0.23475898260278502
660000000.0 0.20064295306633473 -0.34919972311122105
680000000.0 0.4045391133190538 0.12975629601802918
700000000.0 -0.14049959362943765 -0.40896495995762944
720000000.0 -0.42446451132228336 0.04136648483788824
740000000.0 0.21497595928245783 -0.3579740019216033
760000000.0 -0.3766590860760237 -0.10956351652230488
780000000.0 0.23822580264262272 0.2699286821955557
800000000.0 0.13027267697246034 -0.2952796336987159
820000000.0 -0.2762670645482228 0.02887146830687315
840000000.0 -0.15447507358118387 0.18402236708626887
860000000.0 -0.1874869802296621 -0.08160296021094904
880000000.0 0.16133172613768995 0.006784678292307245
900000000.0 0.10559616891185501 -0.03564886823194757
920000000.0 -0.053669645622060724 0.05173485090955253
940000000.0 -0.024942618723812815 0.037409684811484295
960000000.0 -0.041409817231117106 -0.027089781585945227
980000000.0 0.054184698646409846 -0.040761608914592226
1000000000.0 0.024510162085560457 -0.08182285014503753
1020000000.0 0.05683844685129691 -0.08824521317800696
1040000000.0 0.09249300779564985 -0.07516877180154868
1060000000.0 0.08611533918427498 0.12872943210608265
1080000000.0 0.005662123384990262 0.1749930063453345
1100000000.0 -0.011590418240269448 -0.1997822589295482
1120000000.0 0.12940644658483794 0.17959900782824625
1140000000.0 0.16070311303087403 -0.19638611685084065
1160000000.0 -0.1569733699896477 -0.23447627695305875
1180000000.0 -0.035538329372759005 -0.3141542713026283
1200000000.0 0.28505476922089623 -0.18539135250021196
1220000000.0 -0.21092368913174522 0.29821324252872294
1240000000.0 0.3805347406590155 0.06128936026920639
1260000000.0 -0.15883203850387326 -0.37576299911040445
1280000000.0 -0.41310186722590436 0.09774093467626856
1300000000.0 0.3425186885971461 0.26964592017717665
1320000000.0 0.42179011433019165 0.11741282773828768
1340000000.0 0.4365450031268547 -0.03265719121851047
1360000000.0 0.44044604750688876 -0.012602003571045954
1380000000.0 0.24211542550813658 -0.3635876339188537
1400000000.0 -0.3592625940499175 -0.23586298418592416
1420000000.0 0.003394879040252118 0.41068855901003787
1440000000.0 0.3838416227444537 0.0054277785023755425
1460000000.0 0.046747280348987556 -0.3500531374968321
1480000000.0 -0.3208506879331779 -0.00014729097732193536
1500000000.0 -0.16464030204549898 0.23565142567353925
1520000000.0 0.017560010662015756 0.25753971965328026
1540000000.0 -0.14141777609312137 -0.1799967608509424
1560000000.0 0.12344085813052351 -0.1510495884017428
1580000000.0 0.11107620829690618 0.12468839383895255
1600000000.0 0.09976804365931508 -0.0865642529426657
1620000000.0 0.037459519395223025 -0.09653643747607077
1640000000.0 0.05534057768024125 0.05370364048878747
1660000000.0 -0.05328075136675099 0.0047092000167104995
1680000000.0 0.03177714013506343 0.01354955695861074
1700000000.0 0.004679950733732919 -0.02102109604783969
1720000000.0 0.0028319481747071237 0.005093048302388019
1740000000.0 0.011883514189717006 -0.009603286384610518
1760000000.0 -0.028756668366657304 -0.0159692729773796
1780000000.0 0.058079138463197934 -0.01884339589795467
1800000000.0 -0.06115387316880763 0.06969299330185305
1820000000.0 -0.056249321536826234 0.10994842591709374
1840000000.0 0.06779157819457066 -0.146797551462076
1860000000.0 -0.17286930578017437 0.09871300650746162
1880000000.0 0.21812558553237504 -0.09955272492870228
1900000000.0 -0.26085208731510634 0.11295769122197027
1920000000.0 0.24557336607527794 -0.20491080415356125
1940000000.0 -0.3345354939136816 0.11199850839170175
1960000000.0 0.3491180489852012 0.1468615267265434
1980000000.0 -0.043527773759518815 -0.3949431381334911
2000000000.0 -0.3764937074446899 -0.17312664363431376
2020000000.0 -0.22022502564147325 0.36422694403967715
2040000000.0 0.10874492833836823 0.4185951896402197
2060000000.0 0.4268126802460671 0.0815739640288444
2080000000.0 0.34548106182046096 -0.25947872790192217
2100000000.0 0.14758577428065142 -0.39772111788670506
2120000000.0 -0.08723989163400599 -0.40517073344884647
2140000000.0 -0.17762144614575978 -0.3620548041777866
2160000000.0 0.21073155408942842 -0.3278583413490091
2180000000.0 0.055574317166312705 -0.3721948472259558
2200000000.0 -0.1991066584992928 -0.30471446178611594
2220000000.0 -0.34623095633225076 -0.0692332946043382
2240000000.0 -0.2666533865185354 0.22444019552478078
2260000000.0 -0.1218701843410475 0.324935844440331
2280000000.0 0.09405633866911205 0.3384593565508375
2300000000.0 0.3622637824664237 -0.028051874550691813
2320000000.0 0.0016109855033351796 -0.3856451691005476
2340000000.0 -0.4164606899204335 0.006354724459019779
2360000000.0 0.2675450840904133 0.37036829709517266
2380000000.0 -0.14688194042019703 -0.48453637379561015
2400000000.0 0.2359372648518898 0.5042846915041428
2420000000.0 -0.5063218058618238 -0.3376566289642276
2440000000.0 0.6535733536242767 -0.06020455569260693
2460000000.0 -0.46374887841750667 0.5194134247486272
2480000000.0 0.119870729105943 -0.7178273753936998
2500000000.0 -0.15283397626376838 0.7328449125003437
2520000000.0 0.281738680841898 -0.7059625301788537
2540000000.0 -0.4725145760821366 0.5982729452280026
2560000000.0 0.7529824438268096 -0.08801980854594056
2580000000.0 -0.5441508196829604 -0.5075669630910777
2600000000.0 -0.08864374148770092 0.7159927534873984
2620000000.0 0.6079945053563451 -0.3294080124380894
2640000000.0 0.2679680300298034 -0.5985597609382308
2660000000.0 -0.5933141447505031 0.14773956911520855
2680000000.0 0.46508003708318163 0.32235708297472226
2700000000.0 -0.08791084601430524 -0.5107876653549058
2720000000.0 -0.20767044459428757 0.42197340976674
2740000000.0 0.40524826330162117 -0.12954281840647858
2760000000.0 -0.3840835309030531 -0.03357676968668842
2780000000.0 0.3488735534029089 0.06372665127154703
2800000000.0 -0.3237303230106603 0.05402114430107196
2820000000.0 0.10235970098556522 -0.2935009349928539
2840000000.0 0.17381365895903683 0.24334957697598603
2860000000.0 -0.29100263202715937 0.04644205558829318
2880000000.0 0.08318927628143477 -0.282004741001436
2900000000.0 0.06212867294280416 0.2886643785535068
2920000000.0 0.12334144168597856 -0.27223057067494566
2940000000.0 -0.29896973373744634 -0.053170606213256144
2960000000.0 -0.17172438710642246 0.25522065087904017
2980000000.0 -0.16534484944381725 0.2650475837549974
3000000000.0 -0.27284785683302715 0.1573239681384083
3020000000.0 -0.2682147630024806 -0.16505308554409456
3040000000.0 0.25262744137193466 -0.1832145044727431
3060000000.0 -0.18119970245122713 0.2512125380076447
3080000000.0 0.10070468865315425 -0.28748692852252705
3100000000.0 -0.14029285953955323 0.2639168192618046
3120000000.0 -0.00962085134579435 -0.2934194516768407
3140000000.0 0.13853942380141215 0.2475322431880821
3160000000.0 -0.2598189773337199 -0.07290707217190237
3180000000.0 0.11065152786354998 0.22839890118183065
3200000000.0 -0.22849342923142882 0.03211540751779616
3220000000.0 -0.04918299494631676 -0.19956343057249068
3240000000.0 0.17384368953942647 0.027207537118542128
3260000000.0 -0.09757700427625425 0.10494038391298792
3280000000.0 0.05911098843529252 -0.09471022304235995
3300000000.0 -0.06385999369034694 0.05004909481831976
3320000000.0 0.04330725037923916 0.03161815071491801
3340000000.0 0.00945708513389123 -0.02792207005924875
3360000000.0 -0.0026127587898972 -0.010117867223703251
3380000000.0 -0.004530187389039725 0.0048528143094691886
3400000000.0 0.011017051805911388 0.017263608729434516
3420000000.0 -0.012589722132074637 -0.03023103652338666
3440000000.0 -0.03246775025314705 0.027800109857628208
3460000000.0 -0.004128005253289641 -0.05183568523186651
3480000000.0 0.05849557751530507 -0.023679646281938985
3500000000.0 -0.008730741238486564 -0.07725221644469893
3520000000.0 -0.08861375921672451 -0.023047230288732012
3540000000.0 0.10568572366866896 -0.016260102394828765
3560000000.0 -0.1032199654656844 0.06566138196066242
3580000000.0 0.0381063961678639 -0.13151015308995814
3600000000.0 0.15257851008711013 0.009163107263938703
3620000000.0 0.11424825294454523 0.11858811446567633
3640000000.0 -0.10115818322928387 0.1422261037391932
3660000000.0 -0.18369385135215813 0.009899458180303213
3680000000.0 -0.12782372283457785 -0.13955469728808545
3700000000.0 -0.07286231051979786 -0.17585756632471547
3720000000.0 0.10915852113429304 -0.15493255889590116
3740000000.0 0.17596795806367518 -0.051706443899228384
3760000000.0 -0.17725896735118324 -0.012655411872222936
3780000000.0 0.16745578459388422 0.01120767843538492
3800000000.0 0.03304688899956784 -0.1579272237089119
3820000000.0 -0.12299509952062115 -0.0921113368198429
3840000000.0 -0.08541227935669574 -0.11825925390828913
3860000000.0 0.13377322485586407 0.05978186658130519
3880000000.0 0.11834648869932739 0.09429791090180537
3900000000.0 0.11205674622727457 -0.11227114974176068
3920000000.0 -0.14730305977368702 0.06850239859032316
3940000000.0 0.12312669568606016 -0.11416392555813012
3960000000.0 0.17175511311699906 -0.008810508605342816
3980000000.0 0.10827065943106474 -0.13510650393431844
4000000000.0 0.09160051386255884 -0.13927960227474878
