! Created with skrf (http://scikit-rf.org).
# Hz S RI R 50.0 
!freq ReS11 ImS11
400000000.0 -0.08241222496048282 0.8658933823705856
420000000.0 0.35757329845105423 0.7842654525381024
440000000.0 0.8270305056214224 -0.07671235344995096
460000000.0 0.3082261376974466 -0.7307095106905833
480000000.0 0.6471670502270466 -0.30619038402888066
500000000.0 -0.0693877973656218 -0.5681069904278734
520000000.0 -0.08655849101925726 -0.4849297629485187
540000000.0 0.32609426948109577 -0.2868862582029176
560000000.0 -0.3176061956945329 0.1641376662011729
580000000.0 0.021941968961083094 0.3386215116512982
600000000.0 0.28363342157264965 -0.1820268097942892
620000000.0 -0.3242785178121857 0.14567633772391275
640000000.0 0.09207718994521334 0.3775056830807268
660000000.0 0.38968176952098466 -0.0927918164923618
680000000.0 -0.03497791186619608 0.41742171538952627
700000000.0 0.30435346453252726 -0.30691309101556236
720000000.0 -0.2617822500676586 -0.3377989806985747
740000000.0 0.3898549613260459 0.1484132883670259
760000000.0 0.11629316490871117 -0.3863077245141607
780000000.0 0.16691960301579584 0.3321785988737351
800000000.0 0.12439614786927927 -0.32131662132676425
820000000.0 0.2943088998047011 0.01362674348496315
840000000.0 -0.11638107237299941 -0.21907341146866197
860000000.0 0.1905595641945268 -0.09748344793201101
880000000.0 -0.10206464339697513 0.1231384480389461
900000000.0 -0.0664416842429524 0.06664623110207461
920000000.0 -0.05934774942918486 -0.02005969703938448
940000000.0 -0.028161143010483752 0.03850188780627791
960000000.0 0.03042159351010416 -0.044058144678161736
980000000.0 0.029229275559947872 0.0633486404835087
1000000000.0 0.04218682893795146 -0.0682169267470538
1020000000.0 0.027755444616132517 0.09364546931382793
1040000000.0 0.06303369435200898 0.09105045525034838
1060000000.0 -0.03504786176154657 0.1413966764444578
1080000000.0 -0.153054337121878 -0.04636760939313221
1100000000.0 -0.10321728603025915 0.1486862414963261
1120000000.0 0.1651244340754163 0.11620148635014825
1140000000.0 0.22072763289013014 -0.07450202866846917
1160000000.0 0.2703104676061176 0.0007385451464234467
1180000000.0 0.20841793049141802 0.22602515420042155
1200000000.0 -0.044631219084623044 0.3364065710444461
1220000000.0 0.04393681182176495 -0.3636650992042263
1240000000.0 -0.1977004545643284 0.34080392794673364
1260000000.0 0.40460264620071557 -0.12205016469504881
1280000000.0 -0.4432854052136672 0.019407634022709817
1300000000.0 0.42801352106689544 0.16098328097474682
1320000000.0 -0.1873457224067118 -0.4128038466973598
1340000000.0 -0.38492833209442406 -0.223920565168654
1360000000.0 -0.3361105632431908 -0.27411586628284323
1380000000.0 -0.3839843970542277 -0.19134763563215704
1400000000.0 -0.386178966070277 0.1535598988122343
1420000000.0 0.08851578611617543 0.38727768194461626
1440000000.0 0.3400879586210351 0.15160055898245997
1460000000.0 0.20381703693586414 -0.27756031457644487
1480000000.0 -0.1439491507279629 -0.2792252680740219
1500000000.0 -0.27215461886009695 -0.08030380366337837
1520000000.0 -0.25409852791475473 -0.030059309367653133
1540000000.0 0.22816524022984883 -0.017732705917812532
1560000000.0 -0.07967438816503189 0.18006109874808454
1580000000.0 -0.10934106547210784 -0.13433338146527685
1600000000.0 -0.12217338651642241 0.07950333928574364
1620000000.0 0.08005727309179406 0.08672352628595023
1640000000.0 0.09326281023261469 -0.013264110834068133
1660000000.0 -0.06960031436750169 -0.011894049668877742
1680000000.0 0.024297476237553593 0.03961739171461785
1700000000.0 0.0188429714348849 0.02056053009347258
1720000000.0 0.011151897964562446 -0.007529864751755055
1740000000.0 0.016218661633566434 -0.013803410929942599
1760000000.0 0.03701799244072499 0.020435562515161473
1780000000.0 -0.06878760146323887 0.031951578632673346
1800000000.0 0.0645696486268789 -0.09243048095786527
1820000000.0 0.11931368891163585 -0.0842413305860508
1840000000.0 0.10400253515216296 0.14500581174532037
1860000000.0 -0.20851082703034693 -0.019134087324811526
1880000000.0 0.10463035291653698 0.21596663073025438
1900000000.0 0.21393166977787448 -0.17067742247777337
1920000000.0 -0.2064538517505482 -0.22412743623456025
1940000000.0 -0.32868940240429906 0.07509256082562067
1960000000.0 -0.01822221811712744 0.3671486299104184
1980000000.0 0.3896808972507491 -0.0487167434453193
2000000000.0 0.09423016095804691 -0.40443860668894366
2020000000.0 -0.43110120556142423 -0.010335575884305382
2040000000.0 -0.07761472505718488 0.43152706404649416
2060000000.0 0.4229579642721287 0.11770292191180018
2080000000.0 0.3526176418752977 -0.25448950822729655
2100000000.0 0.1284513557371777 -0.4090061192026975
2120000000.0 -0.11935639057138225 -0.40181134616368147
2140000000.0 -0.37688050312256144 -0.15637095690696964
2160000000.0 -0.1374671817868946 -0.3683651258293526
2180000000.0 -0.3310067208680081 -0.17715267887470285
2200000000.0 -0.3417040556965107 0.11403816216644701
2220000000.0 -0.25425901800968426 0.23526337140264986
2240000000.0 -0.11377783435305289 0.32066333343045805
2260000000.0 -0.04761542306621361 0.33705867548992147
2280000000.0 0.012497930820829568 0.34550742441970683
2300000000.0 0.35029013956306215 0.09180088995046057
2320000000.0 0.0757967492955865 -0.38130018230727375
2340000000.0 -0.4014948979434781 0.13041802132548577
2360000000.0 0.4621450666556871 0.04372557922764427
2380000000.0 -0.5099210316152564 -0.026251943011384234
2400000000.0 0.5598227558285148 -0.023196408631516795
2420000000.0 -0.5485029420194322 0.26814918251902153
2440000000.0 0.33075734254683853 -0.5696774487145649
2460000000.0 0.13127490115734847 0.6858299841027967
2480000000.0 -0.43742976169136405 -0.5817897866497129
2500000000.0 0.3916477421463303 0.6377629998417467
2520000000.0 -0.2451436635027516 -0.7172212060424145
2540000000.0 -0.06000453016868064 0.7567688294158909
2560000000.0 0.5589181096129776 -0.5052156187398191
2580000000.0 -0.7251543018826963 -0.13839274168553173
2600000000.0 0.3010911998168292 0.6478340304451525
2620000000.0 0.33306614383834754 -0.5970407203849972
2640000000.0 -0.02224010955956299 -0.6456080832000414
2660000000.0 -0.47579655845191376 0.36722342542372755
2680000000.0 0.524013612488895 0.17741436493727164
2700000000.0 -0.1468508471808968 -0.4837763060600783
2720000000.0 -0.28186049194976437 0.3610565296987697
2740000000.0 0.41585129306475577 -0.013023855951158087
2760000000.0 -0.3043728625613362 -0.2279055461019872
2780000000.0 0.32524227731801064 0.13567012331147038
2800000000.0 -0.3239274544447942 0.06055299968586206
2820000000.0 0.04089906273629605 -0.3106208272513232
2840000000.0 0.2999474684969628 0.028713295782017378
2860000000.0 -0.14604913195695537 0.25821972426775397
2880000000.0 -0.21143933804020168 -0.20389341172517123
2900000000.0 0.2542305849416163 0.14436430106081027
2920000000.0 0.04590551268577325 -0.29121089853205273
2940000000.0 -0.2991847385257743 0.013943889096371566
2960000000.0 -0.18986778388179318 0.2325406306540484
2980000000.0 -0.29128773663158397 0.0913071470386646
3000000000.0 -0.2652980256738647 -0.16166875539472292
3020000000.0 0.02631096220266295 -0.3115085947125243
3040000000.0 0.27201395056627975 0.15071765265971476
3060000000.0 -0.28999485161567223 0.10733233282897647
3080000000.0 0.21513682784766436 -0.2179639667429
3100000000.0 0.007196763413070289 0.30058199608298475
3120000000.0 -0.010309265975879818 -0.29045309378254625
3140000000.0 0.169771288530369 0.22524361053568606
3160000000.0 -0.264215238644898 -0.047150715646645316
3180000000.0 0.16037057573575203 0.19345375224143263
3200000000.0 -0.1546301532566522 0.1678446923681401
3220000000.0 -0.18473663227315343 -0.07873021754247411
3240000000.0 0.07436664865037614 -0.15228150521826186
3260000000.0 -0.05419968732221977 0.12361119941942672
3280000000.0 0.10226097174951512 0.009591510136851854
3300000000.0 0.06464289208909466 -0.04000213368571027
3320000000.0 0.05087498031008985 -0.004576045332130608
3340000000.0 0.029820034775500583 0.0025395890584934246
3360000000.0 -0.0035785989089507863 -0.012674116659173396
3380000000.0 -0.004838389494060009 -0.0011599924520393607
3400000000.0 0.01732933112564364 -0.00836732337178457
3420000000.0 -0.03494585614047715 0.004810035651283429
3440000000.0 -0.046853914606397096 0.015319923378936756
3460000000.0 -0.04499014825977641 -0.03683440155784825
3480000000.0 -0.06266049712026246 -0.026006948629342868
3500000000.0 -0.07106393950259193 0.03250647895245502
3520000000.0 -0.06791306672084997 0.06070679731397201
3540000000.0 0.10389898512886857 0.003141869035316592
3560000000.0 -0.11285804276924666 -0.034409943796032544
3580000000.0 0.0191246019029365 0.1319358818917718
3600000000.0 -0.14716226783430472 0.047167994836375376
3620000000.0 -0.16209834165041662 0.050484124872387744
3640000000.0 -0.18114811860352936 0.0065442408364093365
3660000000.0 -0.17921764864196674 0.06332748530244507
3680000000.0 -0.19165342076300934 0.007850929207053945
3700000000.0 -0.17413466687209253 -0.07636594936568288
3720000000.0 0.00021549843960906123 -0.1870872937602296
3740000000.0 0.1700874260217437 -0.0667111051370081
3760000000.0 -0.1760064592717668 -0.015590640275350648
3780000000.0 0.1541945714267439 0.06989752372232733
3800000000.0 0.03205700618069124 -0.15765216948919264
3820000000.0 -0.1332283791613459 -0.07620564009139981
3840000000.0 -0.014555411507382383 -0.1462672220741619
3860000000.0 0.13759437197494487 0.05188165845112786
3880000000.0 0.15087834365676153 -0.025227980086139985
3900000000.0 -0.0065021639784541415 -0.15541615141014087
3920000000.0 -0.11516521030457484 0.11237824270862772
3940000000.0 0.08562975539128413 -0.14184179387554183
3960000000.0 0.17097961942102366 0.007124312728599781
3980000000.0 0.079791374481111 -0.15250502860400508
4000000000.0 0.04231502271863098 -0.16060777211520588
