! Created with skrf (http://scikit-rf.org).
# Hz S RI R 50.0 
!freq ReS11 ImS11
400000000.0 -0.6854738859225155 0.5110152907941118
420000000.0 -0.13607932429012212 0.8537261238919388
440000000.0 0.8169741046027303 0.1832915570436707
460000000.0 0.43123897686228857 -0.6729684136771744
480000000.0 0.7030930086627835 -0.21867655857206555
500000000.0 -0.35188625958833336 0.46525463862970673
520000000.0 -0.18960063306540356 0.44553719519236795
540000000.0 0.34222666192338685 -0.2413952317864376
560000000.0 -0.31803853257392045 0.15965925118689483
580000000.0 0.28183119660486194 -0.18154134321495463
600000000.0 -0.29450870208756924 -0.1463257478228046
620000000.0 0.16428562501031865 0.3006534094356015
640000000.0 0.21054751976559005 0.30134850425431425
660000000.0 0.2921475820505348 0.2502077108187614
680000000.0 -0.36046852166365023 0.18860032731018733
700000000.0 0.037602660726419636 0.4220464537061679
720000000.0 0.35110185196692656 0.24903511788292715
740000000.0 -0.24685157584316253 0.35550347566410195
760000000.0 0.3504844283950417 -0.22819290243037277
780000000.0 0.3051301567392052 0.24202607664013154
800000000.0 -0.35397391696325337 -0.01192449465151472
820000000.0 -0.28960497966036375 -0.07701651159864875
840000000.0 0.24466369864593962 0.014617739889426426
860000000.0 -0.1941386797674181 -0.032686722257879004
880000000.0 0.14997887230291987 0.03835222381902268
900000000.0 -0.06134625873958842 0.056019986419729044
920000000.0 0.04541975758219989 -0.021322361596863532
940000000.0 0.02941748285355553 -0.014422884146562844
960000000.0 -0.035295504823140145 -0.020660629600423454
980000000.0 -0.060998405772572845 -0.009302305198569052
1000000000.0 -0.05275048552849123 0.050812979460702914
1020000000.0 -0.09045368167436854 -0.03066394073017094
1040000000.0 -0.07439358297263779 -0.0807536616293424
1060000000.0 -0.11995050492585489 -0.08808099673796414
1080000000.0 -0.03587725542003429 -0.16050239198176033
1100000000.0 -0.16382788374384516 0.08938774031239725
1120000000.0 0.17940394169071544 0.10003256316074423
1140000000.0 0.14850885542439576 -0.18486304858051145
1160000000.0 0.2516308792456999 -0.09975814207337924
1180000000.0 0.29105313149344686 0.0951169275650886
1200000000.0 -0.049813702252984954 0.33502242131224796
1220000000.0 0.07985443791424614 -0.361164125774172
1240000000.0 -0.07750947129136002 0.3918357878291488
1260000000.0 0.14537105441410855 -0.40150211805004404
1280000000.0 -0.14219920296638808 0.4210044455045128
1300000000.0 0.38076098605402625 -0.24058736212377368
1320000000.0 -0.2976710304772885 -0.3287857148090967
1340000000.0 -0.16617830182420806 -0.4032241537744958
1360000000.0 0.0856808329167394 -0.42266131326095285
1380000000.0 -0.0025235316750698263 -0.43056737932416456
1400000000.0 -0.41857250850516553 -0.03468802058469823
1420000000.0 -0.05173772563660631 0.39978761968006943
1440000000.0 0.37621598453296784 0.0012817787785976424
1460000000.0 0.16922539496661743 -0.301561594512725
1480000000.0 -0.20352949733059333 -0.24207892852451787
1500000000.0 -0.2803563609580813 0.04596799357624629
1520000000.0 -0.19552884632891787 0.16740002588729352
1540000000.0 0.07459541214322818 -0.21831841165679658
1560000000.0 0.19615028791027572 0.032013783875229344
1580000000.0 0.06061415807061537 0.16024071682020605
1600000000.0 0.0964819747895531 -0.10066655393028735
1620000000.0 0.028957576142884963 -0.10297840670433417
1640000000.0 0.08204499406408247 -0.0001573121035677974
1660000000.0 0.047182673191021283 -0.03205861699685942
1680000000.0 -0.03305786172740761 0.009751823535042167
1700000000.0 0.01124135243006982 -0.013492145481411347
1720000000.0 0.002181735254214156 0.00127416868471401
1740000000.0 0.007574757686016761 0.01592041228630369
1760000000.0 0.011672008767829893 -0.03365066585870328
1780000000.0 0.06398188002214807 -0.014874606955241327
1800000000.0 -0.07232221418423833 0.06713224781597486
1820000000.0 0.07015469534423248 0.10990804215694108
1840000000.0 -0.02407127648374886 -0.16667718098763673
1860000000.0 0.04215307240154632 0.20342625238064513
1880000000.0 -0.06736988843819972 -0.23888691850024255
1900000000.0 0.17012126231558392 0.2332675489520142
1920000000.0 -0.24643621945137426 -0.20854151425326453
1940000000.0 0.05687742350478196 0.3461381530989824
1960000000.0 0.32214689360139237 -0.191971520723635
1980000000.0 -0.19013579229112965 -0.3435322221194559
2000000000.0 -0.3531118954147103 -0.20895842097157916
2020000000.0 -0.37108718239157296 0.20736973251939486
2040000000.0 -0.05446805820973497 0.4322207892795209
2060000000.0 0.42899799739410654 0.0947607307107719
2080000000.0 0.2712093549769377 -0.34152623961809836
2100000000.0 -0.06650737389194561 -0.4233737814191216
2120000000.0 -0.2751438942037116 -0.3147131945275848
2140000000.0 -0.3813611277442321 -0.14096938703324588
2160000000.0 -0.041928368490816395 -0.39151082940200305
2180000000.0 -0.24177619078433255 -0.29324798525677465
2200000000.0 -0.36386980060881147 0.06249594362081183
2220000000.0 -0.15548181758234786 0.3219835178857132
2240000000.0 0.24214279309384296 0.2576210441389626
2260000000.0 0.3510440870543344 -0.003695184652652267
2280000000.0 0.25214060826341367 -0.24884358558739075
2300000000.0 -0.17445969106457987 -0.3223093756826094
2320000000.0 -0.38359934016412606 0.07300717409875526
2340000000.0 0.19610009432253853 0.37704632134126
2360000000.0 0.006445261120387908 -0.46874473374096576
2380000000.0 0.10137695987642245 0.5066941283852346
2400000000.0 -0.3070512607690543 -0.4761200671859519
2420000000.0 0.5902490106046195 0.17210601394372724
2440000000.0 -0.6000221541126999 0.2716814616588796
2460000000.0 0.3817115086818026 -0.5802943907365297
2480000000.0 -0.1463774214395369 0.7056887682046545
2500000000.0 0.2439626973061215 -0.6959343301987492
2520000000.0 -0.4935425514902657 0.5579954831536568
2540000000.0 0.7358863056891605 -0.10851974023473239
2560000000.0 -0.5581131730843916 -0.47882934046162523
2580000000.0 -0.2062921177304447 0.6876049427561023
2600000000.0 0.6740992568976073 -0.1558461564609444
2620000000.0 -0.43770350918943274 -0.49411811683404
2640000000.0 -0.5509899047183201 -0.2900432857155519
2660000000.0 -0.025421325056744767 0.5773554187900263
2680000000.0 0.48719046279745504 -0.21225191801589002
2700000000.0 -0.3831430389522986 -0.2971034804812379
2720000000.0 -0.05613607910429468 0.4342109558133832
2740000000.0 0.39225344074778856 -0.05931142200191276
2760000000.0 -0.2826003073890168 -0.22555774079483426
2780000000.0 0.20816788657266538 0.26248489887554977
2800000000.0 -0.2761551484304143 -0.15013274791622955
2820000000.0 0.22848346310127582 -0.19519523208524422
2840000000.0 0.1899336834901959 0.22162703849118753
2860000000.0 -0.23142869374912287 0.17214217253879793
2880000000.0 -0.12277789082714101 -0.2587646047835568
2900000000.0 0.22388086754002856 0.17984767305488356
2920000000.0 -0.058746055001918776 -0.28314031310051335
2940000000.0 -0.25982699551878863 0.13388249385849418
2960000000.0 -0.1824308789903139 0.23016683338997307
2980000000.0 -0.28404560162291875 0.09118440343267298
3000000000.0 -0.2519211332415898 -0.16746810378164734
3020000000.0 0.14195511787099263 -0.269167995389388
3040000000.0 0.22227245175040622 0.2078154598324288
3060000000.0 -0.2918162350703642 -0.08620262783643588
3080000000.0 0.2791278433038727 -0.11280887611406877
3100000000.0 -0.18302110450224673 0.23277915390990608
3120000000.0 -0.016619507694489766 -0.28720097684794127
3140000000.0 0.18411646306159063 0.20741677112184687
3160000000.0 -0.26204776930591367 -0.0015545077773788962
3180000000.0 0.1291379910095187 0.20703199553904436
3200000000.0 -0.2073548238955415 0.07547541994909263
3220000000.0 -0.004820264567933416 -0.19326873943870373
3240000000.0 0.09386139115874237 0.13441945958541904
3260000000.0 -0.037785982369818005 -0.12716591119150175
3280000000.0 -0.030808631244607042 0.09902222862485428
3300000000.0 0.07409806295949035 -0.02135957871614273
3320000000.0 -0.03604975646164776 -0.0353811238768203
3340000000.0 0.02574757811912874 0.010810054412641074
3360000000.0 0.00518089506124129 -0.007459222174878134
3380000000.0 -0.008254902273476037 0.006188796569156429
3400000000.0 0.00886889165673189 0.022026060506700192
3420000000.0 -0.03501947054491691 0.009282592938570904
3440000000.0 0.035724139369523115 -0.028525786310329926
3460000000.0 0.04150033218170922 0.030974387681130276
3480000000.0 -0.010882259645783725 -0.05982286929501495
3500000000.0 -0.02097645006056791 -0.07055459305101144
3520000000.0 -0.042161316491229256 -0.07883829463748203
3540000000.0 0.08006842237318082 0.06785214188070739
3560000000.0 -0.10641540925569949 -0.05301556062404864
3580000000.0 0.10012859625277665 0.08835183151844564
3600000000.0 -0.09516608813847108 0.12018719122520448
3620000000.0 -0.05219561205414539 0.15785478169183215
3640000000.0 -0.1636222436702567 0.07028950130956041
3660000000.0 -0.17998790024512265 0.04592068402476227
3680000000.0 -0.16970128531624623 -0.08321417365522482
3700000000.0 -0.06621790467331262 -0.17628722982808231
3720000000.0 0.10583188768178282 -0.15330172909597284
3740000000.0 0.1781161972611565 0.035246023614392274
3760000000.0 -0.1439073556706894 -0.10189025565711043
3780000000.0 0.12524560641547602 0.11171905175136104
3800000000.0 0.10945259701855206 -0.11797265800377094
3820000000.0 -0.07170508698314593 -0.13665386418670175
3840000000.0 -0.061257956906091676 -0.13512570677221264
3860000000.0 0.12290950870675858 -0.0803468993356484
3880000000.0 0.14553898811247795 -0.04021118570678804
3900000000.0 0.09424425300352601 -0.12078421661558691
3920000000.0 -0.14138876750134258 -0.07463818538959238
3940000000.0 0.1643486782954152 -0.018583983131245572
3960000000.0 0.12651078357671858 0.11714179724749946
3980000000.0 0.14393175033656472 -0.0974674270768915
4000000000.0 0.0004122857885482874 -0.1680719634758715
