! Created with skrf (http://scikit-rf.org).
# Hz S RI R 50.0 
!freq ReS11 ImS11
400000000.0 -0.6630796388511393 0.543123410311802
420000000.0 -0.09276643350424821 0.8591996801449144
440000000.0 0.8017966407099135 0.24110335185163181
460000000.0 0.3993593553577684 -0.693801937492458
480000000.0 0.6727266215523234 -0.29875426624463824
500000000.0 -0.3524055712829204 0.4614704792158632
520000000.0 -0.24771309071309858 0.41641098308391067
540000000.0 0.32060115676718476 -0.27094523461585696
560000000.0 -0.32001818194595416 0.15387910129180107
580000000.0 0.31600370445711 -0.10309920534306798
600000000.0 -0.2260691133423059 -0.24184281216295697
620000000.0 0.17368211979174605 0.2950456269469441
640000000.0 0.18805293250789282 0.3152955175390363
660000000.0 0.24250042420855908 0.29880271004680636
680000000.0 -0.37211845811919697 0.16625230028444252
700000000.0 0.05361835650475938 0.42047176903997885
720000000.0 0.34904195830299206 0.2513324439410113
740000000.0 -0.28474113798129963 0.3265070914618404
760000000.0 0.33462270785518694 -0.25157821151928084
780000000.0 0.3208507377108728 0.22089368709537566
800000000.0 -0.351027748027099 0.05022169807449769
820000000.0 -0.2996077323153098 -0.004274293931030169
840000000.0 0.24119907864503543 0.0378987620495326
860000000.0 -0.18778008371514424 -0.05767693887631438
880000000.0 0.1493192655842021 0.036691831022050744
900000000.0 -0.06369845185252287 0.05177824882522409
920000000.0 0.04116430472746919 -0.02730616439926381
940000000.0 0.008255032538656438 -0.030978419872154352
960000000.0 -0.025167793596255816 -0.03142283449143891
980000000.0 -0.0599485953188915 0.009799450006717824
1000000000.0 -0.06702649143491037 0.02711613665383567
1020000000.0 -0.07488727094396884 -0.05828153026219635
1040000000.0 -0.04119790616904186 -0.10177816364898695
1060000000.0 -0.10794584981695629 -0.10284161078514958
1080000000.0 -0.03392170205703986 -0.16138272444596174
1100000000.0 -0.17333722778319788 0.06948175463519053
1120000000.0 0.17101240574176435 0.11442184135210497
1140000000.0 0.16684204030242583 -0.1688100459758315
1160000000.0 0.23926967816910896 -0.12764627574867368
1180000000.0 0.29384583976228146 0.08665355283197007
1200000000.0 -0.07237100176206582 0.3308086636568895
1220000000.0 0.09352577351661495 -0.3579086062561511
1240000000.0 -0.09561908038310296 0.3877734819849133
1260000000.0 0.1657964638533508 -0.39345912076843564
1280000000.0 -0.15376056086440307 0.41724245045803615
1300000000.0 0.3864348833770313 -0.23165467426227698
1320000000.0 -0.2940517974795456 -0.3323318316910241
1340000000.0 -0.17787858250517505 -0.3981770329748274
1360000000.0 0.0531779584770739 -0.4278457188517236
1380000000.0 -0.01739591579299762 -0.42973613859118254
1400000000.0 -0.4177742324911783 -0.03774693464831035
1420000000.0 -0.07583605077889542 0.39576196452811113
1440000000.0 0.37558367363356265 0.017753525778992106
1460000000.0 0.18531684826504893 -0.29214786297565015
1480000000.0 -0.22336874479537158 -0.22438727170574665
1500000000.0 -0.2846464210504146 0.012834699022728296
1520000000.0 -0.20397037239461133 0.1587066845702254
1540000000.0 0.040134361793366075 -0.2278064834627052
1560000000.0 0.19714217683473076 0.027594098439139066
1580000000.0 0.07056232339701839 0.1561149419210079
1600000000.0 0.07067164587393053 -0.11953797739101167
1620000000.0 0.016245571659840623 -0.10549725821433695
1640000000.0 0.08138403780816027 0.007329603915556312
1660000000.0 0.05616780948243589 -0.005498325020911909
1680000000.0 -0.014896751086232871 -0.030254708553649725
1700000000.0 0.006232494189357798 -0.016728767973597656
1720000000.0 -0.0003912571288716418 -0.0023986569648972115
1740000000.0 0.00565193304896376 0.016935728821222476
1760000000.0 0.01135314921396668 -0.03418551908076173
1780000000.0 0.06555956842104062 -0.007874383616263119
1800000000.0 -0.07119469751545034 0.0684742891254325
1820000000.0 0.07441339338267382 0.10701356230807585
1840000000.0 -0.03642486654274091 -0.16453608464970754
1860000000.0 0.04399138067251416 0.20282215926483813
1880000000.0 -0.06390777338473984 -0.23966670012970684
1900000000.0 0.16354929784880812 0.2375974583570277
1920000000.0 -0.2443030547416608 -0.21082665170699563
1940000000.0 0.05140306684657043 0.3469969665270128
1960000000.0 0.32806953464278704 -0.18211214571910322
1980000000.0 -0.17422994895649344 -0.352466213965554
2000000000.0 -0.3539440643764051 -0.20869184453197948
2020000000.0 -0.3597328892266133 0.22773394004130906
2040000000.0 -0.028722681724169866 0.43528278757097466
2060000000.0 0.4382685464973962 0.03436399491421557
2080000000.0 0.27948161991487447 -0.3355696222629439
2100000000.0 -0.07476626422923897 -0.42220700730328453
2120000000.0 -0.25370757926118703 -0.3324586860873496
2140000000.0 -0.38154902831907894 -0.14096798759113233
2160000000.0 -0.031209754968353483 -0.3930096793132341
2180000000.0 -0.23614524552575417 -0.2986495013341982
2200000000.0 -0.3661328673924847 0.05438684183816543
2220000000.0 -0.16311426360235803 0.3194174716396711
2240000000.0 0.2573133305745246 0.24447117378183378
2260000000.0 0.35180036314079494 -0.011284915952333519
2280000000.0 0.24979280376101648 -0.25227326615336076
2300000000.0 -0.18117744224604232 -0.31929955243818303
2320000000.0 -0.3785933637304485 0.09959310071538086
2340000000.0 0.20840824920261028 0.37157246823608814
2360000000.0 -0.04719065495285873 -0.46785337230871665
2380000000.0 0.1770044375942081 0.4870534163323317
2400000000.0 -0.3809774938221319 -0.4213009909455611
2420000000.0 0.6112757006872973 0.07738167036800095
2440000000.0 -0.5400386875647235 0.37901395581532843
2460000000.0 0.25083263168408043 -0.6486556374020892
2480000000.0 0.003633467349654114 0.721241315743353
2500000000.0 0.071605008645624 -0.7342434932717453
2520000000.0 -0.3656715424765961 0.6491713738199368
2540000000.0 0.6901234946317911 -0.27694235866989125
2560000000.0 -0.6459877755671491 -0.3504210726749879
2580000000.0 -0.08634932559536675 0.712084826667984
2600000000.0 0.6384068925296796 -0.264798045705474
2620000000.0 -0.4854780498171608 -0.44568607756791584
2640000000.0 -0.5783199504068989 -0.22718362546307064
2660000000.0 0.05158648928986369 0.5742089076902914
2680000000.0 0.47565331968456526 -0.23307841486996114
2700000000.0 -0.40827866855500916 -0.25835729792474527
2720000000.0 -0.034917792036073585 0.4346915293577014
2740000000.0 0.38853911512981976 -0.07130223391179816
2760000000.0 -0.28676042988141526 -0.21767193448677796
2780000000.0 0.20880461539189787 0.26029131907742525
2800000000.0 -0.2807608232284381 -0.1393260762749495
2820000000.0 0.21604243129710773 -0.2078676978261494
2840000000.0 0.20546841638731536 0.20657263246330315
2860000000.0 -0.21700880598020264 0.1896972848948961
2880000000.0 -0.1554195578864195 -0.24000075084487815
2900000000.0 0.23830883012746312 0.15891862287895378
2920000000.0 -0.0749215501912908 -0.2786068215835649
2940000000.0 -0.25316479249628854 0.14447809770247097
2960000000.0 -0.1759300492565447 0.23394427622704908
2980000000.0 -0.2856023171831759 0.08471862908372638
3000000000.0 -0.24954613858022962 -0.17014811219359766
3020000000.0 0.13537265530404635 -0.27233567545374965
3040000000.0 0.22382841642514814 0.20534653448111975
3060000000.0 -0.2872345107725857 -0.0987808627297076
3080000000.0 0.2770188377510923 -0.11770017190843296
3100000000.0 -0.1282897341650461 0.26687277369912754
3120000000.0 0.014553090630181096 -0.2861459779791369
3140000000.0 0.16918196560930948 0.21891445620339947
3160000000.0 -0.2602758129365477 -0.02213294675074296
3180000000.0 0.11871118668844109 0.2123492271580161
3200000000.0 -0.21042293596825173 0.06371775102749143
3220000000.0 0.009041173404297062 -0.1927055153260229
3240000000.0 0.08650659464021632 0.13868039011863176
3260000000.0 -0.027239427466135255 -0.12932413820159464
3280000000.0 -0.05042215002188948 0.09030412062440796
3300000000.0 0.07673177354502782 -0.0014470276290669784
3320000000.0 -0.02672428645281705 -0.042393430413524266
3340000000.0 0.0208862775583031 0.01809767020767287
3360000000.0 -0.0072638283996653156 -0.004034530283432337
3380000000.0 0.010331492673831384 -0.0028189364951894773
3400000000.0 0.01784859108813947 -0.016943712932841012
3420000000.0 -0.008993520959377999 0.0354025388661223
3440000000.0 0.0259671570409469 -0.0377750355229182
3460000000.0 0.05090107495180151 -0.00916612030283878
3480000000.0 -0.040821792432196975 -0.044818851508889486
3500000000.0 0.0025065829395875946 -0.07296922428165015
3520000000.0 0.031156025218256146 -0.08286584080285984
3540000000.0 0.03318933705611388 0.09844996420970675
3560000000.0 -0.1005276921383511 -0.06335498538960509
3580000000.0 0.09344021792153369 0.09578455128776589
3600000000.0 -0.08512302978813364 0.1277788325519694
3620000000.0 -0.04533798048524339 0.1597268972214848
3640000000.0 -0.16090179103865354 0.07528475569541121
3660000000.0 -0.17960638659651879 0.04605969158897708
3680000000.0 -0.16304921008608947 -0.09459328172037036
3700000000.0 -0.04268179709095307 -0.18296656376969933
3720000000.0 0.13698632138122865 -0.12563275982656974
3740000000.0 0.15933175714516287 0.08690123042728748
3760000000.0 -0.12502503149427832 -0.12478304890262563
3780000000.0 0.11115318897667124 0.12601818309302526
3800000000.0 0.11942343997342858 -0.10763605575165669
3820000000.0 -0.04509634459475812 -0.14743845738251707
3840000000.0 -0.04073034319945777 -0.14207691432756392
3860000000.0 0.1451826301412682 -0.02181810247164377
3880000000.0 0.15061042301732366 0.003604486375797221
3900000000.0 0.12119246250719659 -0.09369816296488878
3920000000.0 -0.12009027522699703 -0.10606582574863824
3940000000.0 0.16564404917035372 0.004311116808054219
3960000000.0 0.11958646797477354 0.12438816169007991
3980000000.0 0.14501444520356735 -0.09622541522355306
4000000000.0 -0.0035593884502155837 -0.16772817760979777
