! Created with skrf (http://scikit-rf.org).
# Hz S RI R 50.0 
!freq ReS11 ImS11
400000000.0 -0.6681960634871277 0.5372436864045737
420000000.0 -0.10098067951545087 0.8582308184712301
440000000.0 0.7905719321619813 0.2772225647661093
460000000.0 0.40656966824138274 -0.690460606085346
480000000.0 0.6558102555534919 -0.3334850624419675
500000000.0 -0.3670762674188175 0.44991293175951114
520000000.0 -0.24442716253838986 0.4184528283872611
540000000.0 0.313109943799678 -0.27921423843542725
560000000.0 -0.3188707813573293 0.15517921497055123
580000000.0 0.32239409431416544 -0.08095627860824897
600000000.0 -0.23338541049946077 -0.23522530223201915
620000000.0 0.18129975094793493 0.2903336981977995
640000000.0 0.17649432868671006 0.3218939372895118
660000000.0 0.23310774281217983 0.3061100930286004
680000000.0 -0.3760526824563072 0.15732329787414004
700000000.0 0.04807298127564739 0.4211195098144191
720000000.0 0.34475997961011 0.2569495522173741
740000000.0 -0.2789909039630015 0.3307546527899464
760000000.0 0.33118479264283646 -0.2563337484533793
780000000.0 0.32800704027788896 0.2104780858453891
800000000.0 -0.3503338260455227 0.05436370811215369
820000000.0 -0.29964282381249996 0.0013991349705637728
840000000.0 0.24283652487152413 0.02451272624501466
860000000.0 -0.19144093180505084 -0.04426754468868461
880000000.0 0.15013131161054866 0.03539324954575723
900000000.0 -0.05433777034532717 0.061833958052568715
920000000.0 0.04233671015097282 -0.025561035285779687
940000000.0 0.011604811118353956 -0.030023076189531577
960000000.0 -0.03174329647877451 -0.024633496561904392
980000000.0 -0.05730472076454557 0.019846778580217675
1000000000.0 -0.060014241766040026 0.04015812822393419
1020000000.0 -0.0784513105029661 -0.053230508453810485
1040000000.0 -0.04832615231809629 -0.098587911000684
1060000000.0 -0.10867119226731517 -0.10212444277112304
1080000000.0 -0.036652651686623086 -0.16095836896488477
1100000000.0 -0.16870844923296147 0.08057799085366256
1120000000.0 0.17488670992841182 0.10881840314772415
1140000000.0 0.17685371859508264 -0.15869684549548146
1160000000.0 0.24943590522470194 -0.10605476981407769
1180000000.0 0.287929322956962 0.10459591830943275
1200000000.0 -0.07725679939008998 0.32956090342836086
1220000000.0 0.09950479178860572 -0.3561443886479338
1240000000.0 -0.10453800855141013 0.38518468819921464
1260000000.0 0.16912184856521167 -0.3915326462377488
1280000000.0 -0.15263652008282833 0.41725596685703925
1300000000.0 0.3681739250696535 -0.25948360518362495
1320000000.0 -0.30057250091038085 -0.32636568430163293
1340000000.0 -0.1858458761282581 -0.3945699700308956
1360000000.0 0.04735334080144557 -0.4285600306650191
1380000000.0 -0.0319944698992561 -0.42893626011797165
1400000000.0 -0.4180534391738363 -0.03546288244935015
1420000000.0 -0.07698424316459855 0.39561999999315506
1440000000.0 0.37575746323433196 0.017977381675448153
1460000000.0 0.18157324509873307 -0.2945294238342525
1480000000.0 -0.18251673055619555 -0.2590140081850138
1500000000.0 -0.28522682555034895 0.0031243182281880688
1520000000.0 -0.210095388801441 0.15110173067006893
1540000000.0 0.05646917833277823 -0.2244222193587327
1560000000.0 0.19536928539376885 0.03792325782102323
1580000000.0 0.05957230201940179 0.16039426373482252
1600000000.0 0.08276167402403162 -0.11155032045841279
1620000000.0 0.05526704886211015 -0.090973221672141
1640000000.0 0.07808860623176472 0.023511253437534324
1660000000.0 0.055828405173762675 -0.008032324614402807
1680000000.0 -0.03269591881812008 -0.009367283245543982
1700000000.0 -0.003520738651728506 0.01788066717572574
1720000000.0 -0.0007209022708192743 0.0017059658250704285
1740000000.0 -0.013446030347252544 0.011379764167856833
1760000000.0 0.03414021789906763 -0.009249111667800573
1780000000.0 0.06566448224485026 -0.004046415592394199
1800000000.0 -0.06816682267719666 0.0714562278558215
1820000000.0 0.08881821423648513 0.09532562730720281
1840000000.0 -0.05199479081601408 -0.16007404994153493
1860000000.0 0.05765126539860208 0.19913335603300975
1880000000.0 -0.08077928945592353 -0.23416230696560303
1900000000.0 0.17431318734307188 0.229600575923544
1920000000.0 -0.24247633859928497 -0.21293158468561957
1940000000.0 0.04374117820940692 0.3481608293233701
1960000000.0 0.33181079058819335 -0.17556202573255553
1980000000.0 -0.1604533897026909 -0.35905477237239314
2000000000.0 -0.34542807531578484 -0.22254888470036469
2020000000.0 -0.3719286379165783 0.20746388903388432
2040000000.0 -0.01749163351920304 0.4357466496944116
2060000000.0 0.4317618197649206 0.08396943108153149
2080000000.0 0.29127473161681633 -0.3251358937932994
2100000000.0 -0.04689384395941283 -0.4260025148982909
2120000000.0 -0.24847518884866926 -0.33615856541439193
2140000000.0 -0.3746773984183104 -0.1571817478791747
2160000000.0 -0.004547804936905978 -0.3939291983407376
2180000000.0 -0.20769633360979042 -0.318905568013309
2200000000.0 -0.3687455582611999 0.027316938198103283
2220000000.0 -0.14992441137293325 0.325108682743208
2240000000.0 0.24766011666102683 0.2528731490537241
2260000000.0 0.35126453945029495 -0.009758018035827468
2280000000.0 0.2539581586253104 -0.24690777808633885
2300000000.0 -0.16260840128506562 -0.3279467789814745
2320000000.0 -0.38453442643388874 0.06692420364250916
2340000000.0 0.17276672083375 0.38812109815878393
2360000000.0 0.014484722629850441 -0.46867787579520376
2380000000.0 0.09803308159032019 0.5074546784737582
2400000000.0 -0.3064549683401596 -0.4767189081177715
2420000000.0 0.5886944927189759 0.17829843863130002
2440000000.0 -0.5997280639462187 0.27309249386802664
2460000000.0 0.3442476879884833 -0.6032888055848457
2480000000.0 -0.1563803567456005 0.7039134744778827
2500000000.0 0.24957054695124398 -0.6943056551743341
2520000000.0 -0.4752802926850433 0.5742140079740973
2540000000.0 0.7285847751325697 -0.15102178992697268
2560000000.0 -0.5388089882970539 -0.5008086453854245
2580000000.0 -0.2207012532718944 0.6834626577403652
2600000000.0 0.6784879898026588 -0.13745347181445977
2620000000.0 -0.43866130783532004 -0.49355342413664804
2640000000.0 -0.529441919029364 -0.32762679418725266
2660000000.0 -0.04663672300030224 0.575821331807396
2680000000.0 0.5000680921200373 -0.1781947712422505
2700000000.0 -0.36772220446419385 -0.3151829986509878
2720000000.0 -0.09814329921393888 0.4261016783192008
2740000000.0 0.3907546440369193 -0.06640450686741932
2760000000.0 -0.2876782013842518 -0.21838554858909476
2780000000.0 0.20425975256642473 0.2652653465262028
2800000000.0 -0.27868187953342133 -0.14591545164240116
2820000000.0 0.2156249122833085 -0.20961582328530226
2840000000.0 0.19668335805414894 0.21638292361426295
2860000000.0 -0.2301876481742976 0.17539809356592734
2880000000.0 -0.13472142162646433 -0.2533437572799661
2900000000.0 0.22351014924314147 0.1809321608432731
2920000000.0 -0.07154126692590203 -0.2801561230849825
2940000000.0 -0.2544137722596023 0.1439455341685816
2960000000.0 -0.19191458388479654 0.22228175686866083
2980000000.0 -0.2966747224652499 0.0339238161586833
3000000000.0 -0.2252282558772958 -0.2007650858078928
3020000000.0 0.1782058745716384 -0.2466864152204759
3040000000.0 0.17181473748772158 0.250647111094285
3060000000.0 -0.2881111548814144 -0.09627440476746518
3080000000.0 0.2890995218074754 -0.08470019090207709
3100000000.0 -0.13623382585539934 0.26287654833271257
3120000000.0 -0.02556030347285965 -0.2856329879403213
3140000000.0 0.16344781217552853 0.22295555998152664
3160000000.0 -0.26108348758000394 -0.010100209564441838
3180000000.0 0.12881494533436885 0.20611620400605615
3200000000.0 -0.20637328958317241 0.07588345373458555
3220000000.0 0.004742639581750546 -0.1931964568787945
3240000000.0 0.09013587876190972 0.1368828683608834
3260000000.0 -0.046999163318387986 -0.12380921103879891
3280000000.0 -0.050544170958936714 0.09065535014491798
3300000000.0 0.07097416120545343 -0.03024260094791635
3320000000.0 -0.04420529186272586 -0.024920740090487725
3340000000.0 0.022703598385911017 0.01641976913804157
3360000000.0 0.0015963434833275666 0.00875110867322539
3380000000.0 -0.004877941985228751 -0.009261311410598837
3400000000.0 -0.0007498250185713762 0.023900621027345848
3420000000.0 -0.03597034282120029 0.004337060155338997
3440000000.0 0.04239834954702528 -0.01666790491058039
3460000000.0 0.04756532315774946 0.01904834628348544
3480000000.0 -0.019833658897264815 -0.05701944421038035
3500000000.0 0.01495954437744892 -0.0713451628571914
3520000000.0 0.031411361659507184 -0.08308217817498903
3540000000.0 0.043943217525146544 0.09460900421864167
3560000000.0 -0.08226032909911256 -0.08545497580518349
3580000000.0 0.09707575550565078 0.09226106027487294
3600000000.0 -0.10157977461991413 0.11453760896651964
3620000000.0 -0.03732237923648539 0.16226849494676276
3640000000.0 -0.15920937840992655 0.07933974022292432
3660000000.0 -0.18099559242965527 0.03867559644879296
3680000000.0 -0.16391358975126552 -0.09299589906499912
3700000000.0 -0.04606048905104664 -0.18218906864675102
3720000000.0 0.12894332087601565 -0.13409097352815125
3740000000.0 0.1703948817234461 0.06254675813069227
3760000000.0 -0.13911112181175972 -0.10877001056897229
3780000000.0 0.12688387909485843 0.1101891696438629
3800000000.0 0.10035426028791371 -0.125744836088976
3820000000.0 -0.06946691305632077 -0.13761498395274793
3840000000.0 -0.05929081257285535 -0.13522606452414063
3860000000.0 0.14412821295562886 -0.027694156544366876
3880000000.0 0.15070445653011186 -0.0007451064232258245
3900000000.0 0.11893090763414087 -0.09641262182231937
3920000000.0 -0.12671856396426334 -0.09777648158515936
3940000000.0 0.1653193862045048 -0.0036374555601813427
3960000000.0 0.13043155184572283 0.11272108227922138
3980000000.0 0.12240228272032008 -0.1232232008045018
4000000000.0 -0.06622350778892448 -0.15400792169033573
