! Created with skrf (http://scikit-rf.org).
# Hz S RI R 50.0 
!freq ReS11 ImS11
400000000.0 -0.6689556052761988 0.5360213723802156
420000000.0 -0.1264087990892802 0.854654007307099
440000000.0 0.7927100822451916 0.26907500794915
460000000.0 0.4204066189403233 -0.6816856375610869
480000000.0 0.6783177446551197 -0.28629960984423736
500000000.0 -0.3908450553839848 0.4292557985652576
520000000.0 -0.2748537315364419 0.40004421104930055
540000000.0 0.2750762597453812 -0.31798682836549597
560000000.0 -0.2985132228449075 0.19226752556125004
580000000.0 0.3061942158775166 -0.1298375963560032
600000000.0 -0.2539380338785737 -0.21293375131641976
620000000.0 0.16713639575014896 0.2982245326622258
640000000.0 0.14504995728795353 0.3370009735415402
660000000.0 0.23146546781162292 0.30716813154277317
680000000.0 -0.3873355469714975 0.12931651767392793
700000000.0 0.04599534118691569 0.421209467895194
720000000.0 0.33481374756635757 0.27013415514882805
740000000.0 -0.28470934797749714 0.32524466426315657
760000000.0 0.34032815678885053 -0.2443050296790784
780000000.0 0.3385181614203292 0.1927084628845444
800000000.0 -0.347425900771894 0.07226999117501676
820000000.0 -0.29930745068071213 0.015178590621594346
840000000.0 0.24295843317520538 0.024514460368850938
860000000.0 -0.19188008274620408 -0.041232634982274044
880000000.0 0.15343814074662196 0.015146464344344654
900000000.0 -0.04507926965071182 0.0682527476078952
920000000.0 0.044272089742735 -0.022280008995974893
940000000.0 -0.007247596737216253 -0.031041435022490644
960000000.0 -0.038037526701748064 -0.011071568340102766
980000000.0 -0.04939948035141364 0.03379282684230045
1000000000.0 -0.05991282759246269 0.038996464247055836
1020000000.0 -0.07429333183165004 -0.058458829255340204
1040000000.0 -0.031884442415162945 -0.1050469682483789
1060000000.0 -0.10586959250959956 -0.10523763132692816
1080000000.0 -0.028308256168993875 -0.1627907306693407
1100000000.0 -0.17212411291898694 0.07387920235388658
1120000000.0 0.16280639233082755 0.12651967147210239
1140000000.0 0.1692993509343278 -0.16724398595537485
1160000000.0 0.2551899961971925 -0.09140671381642972
1180000000.0 0.28071367018113036 0.12270343885101438
1200000000.0 -0.1049604465314929 0.3214139572973315
1220000000.0 0.12497354154545771 -0.347470210981419
1240000000.0 -0.11837431361869075 0.3809922874345189
1260000000.0 0.18790659958104033 -0.38275226862291417
1280000000.0 -0.17536502892836187 0.4081442475072415
1300000000.0 0.3798739814620696 -0.24214628188496468
1320000000.0 -0.29567236521725304 -0.33088990051504374
1340000000.0 -0.1949556638001131 -0.3903447547603705
1360000000.0 0.02880064711383937 -0.4300321202587882
1380000000.0 -0.0478576468362165 -0.42714719257942063
1400000000.0 -0.41909608460971987 -0.015211214977654288
1420000000.0 -0.0744980838056125 0.39607016278365514
1440000000.0 0.3763834081021848 0.0064046341015390916
1460000000.0 0.17799906207672386 -0.29681737054881335
1480000000.0 -0.2510775637418998 -0.19318448973170724
1500000000.0 -0.2844737088703345 0.026628150530409796
1520000000.0 -0.1937362494457213 0.17173342907940764
1540000000.0 0.04040303330261594 -0.22816126491411778
1560000000.0 0.19014624340818406 0.061068169052215945
1580000000.0 0.08344402219483008 0.14944720442690504
1600000000.0 0.1224399299051175 -0.06527818738053127
1620000000.0 0.07929074203881112 -0.07072152869757475
1640000000.0 0.06428441350357049 0.0498781052231715
1660000000.0 0.05517704064665016 0.011526156330380774
1680000000.0 -0.03321149175219306 -0.0063694763818741
1700000000.0 -0.01498415047479574 -0.009411429757604228
1720000000.0 -0.0015300267376586593 6.967542944637676e-05
1740000000.0 0.007098738131644413 -0.016107484975513866
1760000000.0 0.01345713574492476 0.03292193676248848
1780000000.0 0.057172820026071984 0.033152179549581696
1800000000.0 -0.08133130397435916 0.05666517357014792
1820000000.0 0.0732219694887952 0.10773217108280743
1840000000.0 -0.05225353884450495 -0.15979135027409863
1860000000.0 0.07847547753465224 0.19125570550093832
1880000000.0 -0.08215382949867703 -0.23263562806575624
1900000000.0 0.17244263743367785 0.22979025373867273
1920000000.0 -0.2462186802487827 -0.2073829976934297
1940000000.0 0.03845829553666879 0.3482176236537807
1960000000.0 0.3381493572780528 -0.16276166232384015
1980000000.0 -0.15746242306388278 -0.3606981705270104
2000000000.0 -0.3501113050311277 -0.21630305216087925
2020000000.0 -0.3626181669230248 0.2247391850736946
2040000000.0 0.0031806306679241325 0.43671493226777397
2060000000.0 0.4351590518824733 0.06641853650741616
2080000000.0 0.2794110936494799 -0.3354268327027139
2100000000.0 -0.04399314227390781 -0.4262908724378538
2120000000.0 -0.2177003759133715 -0.35694535488196
2140000000.0 -0.3508610452524184 -0.20559268178768775
2160000000.0 0.059623328449817534 -0.3899481364938214
2180000000.0 -0.16003382343624203 -0.3460248736777615
2200000000.0 -0.3699866744406948 -0.0006277167957562358
2220000000.0 -0.17305457513525013 0.3136159050375474
2240000000.0 0.23355141949164326 0.2662162599692808
2260000000.0 0.35010824471208485 0.01832722488114553
2280000000.0 0.27237316973217324 -0.22474631960031305
2300000000.0 -0.13566729214874776 -0.33863029441978604
2320000000.0 -0.3883078523977457 0.029049792508405652
2340000000.0 0.1621010777228515 0.3923902345561652
2360000000.0 0.04546663134388318 -0.46644232240437933
2380000000.0 0.0524865977151185 0.5137798180851145
2400000000.0 -0.30510346175941283 -0.4775031648104111
2420000000.0 0.5906119280474887 0.1723497899150523
2440000000.0 -0.6002966855449153 0.2727792875910208
2460000000.0 0.3751734462591624 -0.5854426303627059
2480000000.0 -0.14040395155599966 0.7076680512947111
2500000000.0 0.33995772246518874 -0.6560272647150274
2520000000.0 -0.5545845912836823 0.4991889267432071
2540000000.0 0.735808236891104 -0.11649116434061782
2560000000.0 -0.5053307908567264 -0.5358226168286652
2580000000.0 -0.19560102212402086 0.691801300594662
2600000000.0 0.6884946185610265 -0.07762483995169404
2620000000.0 -0.35052030961436187 -0.5601302310492094
2640000000.0 -0.5016430431579735 -0.36954318736004427
2660000000.0 -0.07357362821208087 0.5734486999751246
2680000000.0 0.514678149953708 -0.13199103217490218
2700000000.0 -0.36617372874031867 -0.31788440964921594
2720000000.0 -0.10583005240846975 0.42478426470683206
2740000000.0 0.39576050000748797 -0.02292996738885436
2760000000.0 -0.2753518189212561 -0.2341378684005964
2780000000.0 0.21098215807903895 0.2602075177930992
2800000000.0 -0.28825587649036954 -0.12611723174916775
2820000000.0 0.20654846801469876 -0.21886576858384493
2840000000.0 0.2197017453771132 0.19316687608795655
2860000000.0 -0.21410778192748542 0.19449155428912257
2880000000.0 -0.14906339988013176 -0.24563432146800845
2900000000.0 0.23321625980824034 0.16940661330367904
2920000000.0 -0.09411902928912791 -0.27389055312658134
2940000000.0 -0.2539676385515557 0.14542137701987648
2960000000.0 -0.20943032223537147 0.2069797032585864
2980000000.0 -0.29554474737268743 0.04539111087455769
3000000000.0 -0.220722586948616 -0.2074196565865337
3020000000.0 0.20122426509254895 -0.22907566613760155
3040000000.0 0.16103834039350043 0.25851462502596095
3060000000.0 -0.2865797931994364 -0.10360408287996019
3080000000.0 0.2950934373395479 -0.06212550632011916
3100000000.0 -0.18469425639194642 0.2317022037400432
3120000000.0 0.05226840627369223 -0.28226833465003515
3140000000.0 0.14113272624952483 0.2381763046866925
3160000000.0 -0.2553347733886473 -0.054493560196836904
3180000000.0 0.08914716670068988 0.22618158313451203
3200000000.0 -0.21337529138262046 0.05267421946200315
3220000000.0 0.0053844169914040625 -0.19238672955571354
3240000000.0 0.08426936225708448 0.13961056199086808
3260000000.0 -0.034052151879744225 -0.12729850140366214
3280000000.0 -0.025565223135056308 0.09979074430355969
3300000000.0 0.06972265148438017 -0.03193552281811946
3320000000.0 -0.04994514606773424 -0.0041261844156512215
3340000000.0 0.012462402427459478 -0.024687570434847123
3360000000.0 -0.0004498755713179345 -0.009257230813736094
3380000000.0 0.008630952111924096 0.0072510151784857275
3400000000.0 -0.02258227429201347 -0.010018652947476043
3420000000.0 -0.02071738461745818 -0.030565055144887728
3440000000.0 0.04589308690707546 -0.0036334500850913436
3460000000.0 0.014255555570838551 0.0495222363884637
3480000000.0 0.03465659878119345 -0.04916550922137079
3500000000.0 0.035866365834624554 -0.06366900464717157
3520000000.0 0.04685732711542652 -0.07597255599937973
3540000000.0 0.005132856318562257 0.10458779736335275
3560000000.0 -0.03960316914311152 -0.11204502691721299
3580000000.0 0.05591339746409612 0.12166649657008972
3600000000.0 -0.11150292336070634 0.10536604533793868
3620000000.0 -0.07704426406297887 0.14686867197495243
3640000000.0 -0.17512699749958777 0.022648046648792847
3660000000.0 -0.1843164903430721 0.012257742674026873
3680000000.0 -0.14506221809614778 -0.11966587996629258
3700000000.0 -0.029551996796659208 -0.18520270871673744
3720000000.0 0.14368303750277817 -0.11773857419932059
3740000000.0 0.1594191109773483 0.08602794746825806
3760000000.0 -0.13237821247244774 -0.11620560933077043
3780000000.0 0.12809873667631666 0.10811912804485359
3800000000.0 0.10354434824239171 -0.12257801355915827
3820000000.0 -0.0715455308918449 -0.13588869650069496
3840000000.0 -0.06339916317203385 -0.1326009805433647
3860000000.0 0.14036986996807074 -0.04019644965729912
3880000000.0 0.1495057274175831 -0.010825555306806437
3900000000.0 0.11443795964624434 -0.10118246426204965
3920000000.0 -0.1273713968908605 -0.09551974235034837
3940000000.0 0.1645360797086254 -0.015097242488906025
3960000000.0 0.1450124838686554 0.09184098574665368
3980000000.0 0.10527029095198617 -0.13746516233691827
4000000000.0 -0.07808844597770814 -0.14796649816818144
