! Created with skrf (http://scikit-rf.org).
# Hz S RI R 50.0 
!freq ReS11 ImS11
400000000.0 -0.6614129612457225 0.5450779829247648
420000000.0 -0.12054443450043241 0.8553079656242886
440000000.0 0.7836623432399419 0.2956982825341819
460000000.0 0.4356127945303323 -0.6726398999656223
480000000.0 0.6696621246900076 -0.3056657262566804
500000000.0 -0.38648316395857396 0.43344072489392765
520000000.0 -0.27186528879679134 0.401931904767147
540000000.0 0.3012460500748137 -0.2936066749539916
560000000.0 -0.3047042113145321 0.18319855356851164
580000000.0 0.30645163500132777 -0.128579328435331
600000000.0 -0.24355870736679341 -0.22385482543908883
620000000.0 0.1547397531005071 0.3048239309226959
640000000.0 0.1717398915568522 0.3243987719562959
660000000.0 0.24059468833910708 0.29999825728724744
680000000.0 -0.3731736540757292 0.1640363710606456
700000000.0 0.04344741967366538 0.42166842936498516
720000000.0 0.34228648275291645 0.2603160224313583
740000000.0 -0.2905361311181369 0.32056564035112434
760000000.0 0.33632558865000417 -0.24940319898003008
780000000.0 0.3310580307954513 0.2053716323058309
800000000.0 -0.3489080182070923 0.06472150411296707
820000000.0 -0.2993053342856118 -0.011097055234912423
840000000.0 0.2383720381400048 0.052328912839361856
860000000.0 -0.18927528928566517 -0.05229014609821436
880000000.0 0.1528806764129571 0.02167467780905727
900000000.0 -0.051676007844301285 0.06405036746226384
920000000.0 0.04535050457494366 -0.020633445034368706
940000000.0 0.020264349210242342 -0.02476909759381905
960000000.0 -0.03373454910568015 -0.02113931583659499
980000000.0 -0.05484907949574284 0.02485678928574777
1000000000.0 -0.061905864147616216 0.03664819366395127
1020000000.0 -0.07606477405575962 -0.056630202970360574
1040000000.0 -0.03676785124697336 -0.10342460297492645
1060000000.0 -0.1075481738847451 -0.1033639553365906
1080000000.0 -0.030402109796796434 -0.16237046080677645
1100000000.0 -0.16959773410156723 0.07845335585266287
1120000000.0 0.17325718320364308 0.11118638158771117
1140000000.0 0.15329788041456865 -0.18171148667796788
1160000000.0 0.24915914316677557 -0.10645949594440936
1180000000.0 0.292178762302822 0.09172313231833595
1200000000.0 -0.0767965885234995 0.32969650114085486
1220000000.0 0.09043872305863115 -0.35839487615546894
1240000000.0 -0.10243046557865194 0.3858735263403905
1260000000.0 0.17872605909110706 -0.38763101549046514
1280000000.0 -0.16204519295396405 0.4138808552371657
1300000000.0 0.3711237514145991 -0.2555932109882225
1320000000.0 -0.2979512323771213 -0.32893748851113674
1340000000.0 -0.1908243260255598 -0.3919828803331772
1360000000.0 0.04265932287491179 -0.42878161464415815
1380000000.0 -0.024285891430909687 -0.4292574430751763
1400000000.0 -0.41844152269066426 -0.029437756085972322
1420000000.0 -0.0806281429607518 0.39486190000946725
1440000000.0 0.375615663973156 0.02118966775151874
1460000000.0 0.18762852044485964 -0.29043505651435503
1480000000.0 -0.18392975855514823 -0.25779358853192536
1500000000.0 -0.2834382219185182 0.02951985396573387
1520000000.0 -0.20054533013914977 0.1631887002097215
1540000000.0 0.059346650224147 -0.22369455115404832
1560000000.0 0.19844696603364798 0.018057426865000073
1580000000.0 0.07420391740616343 0.1541614574380433
1600000000.0 0.11305291699650664 -0.08052932610419264
1620000000.0 0.07055064167483233 -0.07942751853842318
1640000000.0 0.07505214997898414 0.03175347841312632
1660000000.0 0.056668193734923225 0.000671208875687934
1680000000.0 -0.03283263810499588 -0.00898240993213213
1700000000.0 -0.01792036178675436 -0.0026892145700228905
1720000000.0 0.0013105034686554469 -0.0017244095680568278
1740000000.0 -0.01584193412021855 0.007652196027776402
1760000000.0 0.034857979085095574 -0.007644535266060974
1780000000.0 0.061735011456882836 0.023552533978329845
1800000000.0 -0.0764891041878262 0.06288890759491685
1820000000.0 0.08322405752239372 0.10057015041678706
1840000000.0 -0.05486695587090248 -0.15916129901780096
1860000000.0 0.068905974688763 0.1954326856902915
1880000000.0 -0.08270354501899922 -0.23315800091346858
1900000000.0 0.17237323941293142 0.23081088881785797
1920000000.0 -0.24814767226651957 -0.20579311453548685
1940000000.0 0.05087873968137365 0.34687135802425356
1960000000.0 0.33072969721904955 -0.17745944787086798
1980000000.0 -0.1703333397668176 -0.3545613339686037
2000000000.0 -0.35249881619029794 -0.21159094665876554
2020000000.0 -0.36919095007111735 0.21274123960162328
2040000000.0 -0.02675029169027782 0.4355184948987006
2060000000.0 0.43497796157234825 0.06500445063890291
2080000000.0 0.26335090455477017 -0.3480248139499277
2100000000.0 -0.06049160799334275 -0.42426742856004346
2120000000.0 -0.26993792619780566 -0.3189986101461301
2140000000.0 -0.3727418645735112 -0.16226734680175656
2160000000.0 -0.007429417737106115 -0.39396824584021195
2180000000.0 -0.20005872479325962 -0.3239171830458405
2200000000.0 -0.36799620847632647 0.037778790192665425
2220000000.0 -0.15242440738807805 0.3241755913955634
2240000000.0 0.256479671881153 0.2448903016047294
2260000000.0 0.35109272499028205 0.0008948652020684251
2280000000.0 0.2509900089960639 -0.24981764933876252
2300000000.0 -0.177757803126648 -0.3200861126627608
2320000000.0 -0.38324676214969694 0.07455610446386902
2340000000.0 0.1903146328014691 0.38027994689643685
2360000000.0 -0.006877658644772422 -0.4693439483847935
2380000000.0 0.12491290955786437 0.5019270911285203
2400000000.0 -0.34708294958058306 -0.44869371623759824
2420000000.0 0.6009148899583402 0.1328602807830805
2440000000.0 -0.5943370893386646 0.2854080504769227
2460000000.0 0.3328565057294808 -0.6100868036946127
2480000000.0 -0.1148141707195817 0.7119701222940259
2500000000.0 0.2500995673027858 -0.6942095126069819
2520000000.0 -0.48937041971429324 0.5620748760147967
2540000000.0 0.7226593190950799 -0.17668942279435923
2560000000.0 -0.569523358469424 -0.4655972639671955
2580000000.0 -0.136624312324619 0.7047902002006577
2600000000.0 0.673388605991901 -0.15897887997051988
2620000000.0 -0.44180643708366013 -0.49023164653465157
2640000000.0 -0.5408249638943726 -0.3076659559425735
2660000000.0 -0.011034012396747624 0.577261753690656
2680000000.0 0.49896827864699544 -0.1804260124350356
2700000000.0 -0.38649544859450874 -0.29147214728279836
2720000000.0 -0.07553604665938443 0.430567035267801
2740000000.0 0.3932845311271445 -0.04677290356895183
2760000000.0 -0.28283740752619724 -0.22442631194112012
2780000000.0 0.21391966153142586 0.257433013905068
2800000000.0 -0.28287222657105443 -0.1369153222476401
2820000000.0 0.2226709348182044 -0.20174111474483927
2840000000.0 0.19800522416950306 0.21456465610253614
2860000000.0 -0.21836810847687574 0.18881107251849333
2880000000.0 -0.14905844629646567 -0.24484552990309746
2900000000.0 0.23948032114725376 0.15859291479734083
2920000000.0 -0.06676222872104356 -0.2814128848198328
2940000000.0 -0.2444815698544239 0.16014138867680897
2960000000.0 -0.18773278489591844 0.22552212288286155
2980000000.0 -0.2967418882882232 0.028843554012543002
3000000000.0 -0.22708476656619728 -0.19870895262581703
3020000000.0 0.17444624412664744 -0.2493971845232218
3040000000.0 0.16226090449129688 0.256830545165077
3060000000.0 -0.297504251116073 -0.06360988351605812
3080000000.0 0.2901725558285246 -0.08196312724698052
3100000000.0 -0.13286672255871831 0.2647630630752962
3120000000.0 0.030183383708742937 -0.2850495210935867
3140000000.0 0.1565286199771037 0.22832459255421383
3160000000.0 -0.26072695223040254 -0.020639496993841034
3180000000.0 0.12377794262172567 0.20948910161969847
3200000000.0 -0.21153840341563665 0.059471290776380116
3220000000.0 0.007989697463431557 -0.19294303567253732
3240000000.0 0.08652615818029173 0.13854709359799966
3260000000.0 -0.029040497017533303 -0.12897989247325503
3280000000.0 -0.04230017253445341 0.09425809315673925
3300000000.0 0.0768596042290441 -0.00368114707531218
3320000000.0 -0.03496902345955059 -0.03622603280689061
3340000000.0 0.026880881493892398 -0.0069995406482995254
3360000000.0 -0.007088701009172407 0.0054920718967589365
3380000000.0 -0.007250716825594935 -0.008014319062175616
3400000000.0 -0.017421868555861 0.017011055210843326
3420000000.0 -0.036445546658698286 -0.002453825254047514
3440000000.0 0.04381938437160153 -0.013110977992214664
3460000000.0 0.04492609503393247 0.02546656836070432
3480000000.0 -0.006954915163693084 -0.05989732588043112
3500000000.0 0.029345841044124524 -0.06675081519080407
3520000000.0 0.0225335981315232 -0.0861294531797214
3540000000.0 0.01746589811480953 0.10293833407817905
3560000000.0 -0.08141771889852634 -0.08690293318927439
3580000000.0 0.07308622296579112 0.11204616645319769
3600000000.0 -0.12140574933911366 0.09296020387203648
3620000000.0 -0.08402300799602608 0.14243982669715186
3640000000.0 -0.1696725711231137 0.04952179702738544
3660000000.0 -0.18059188229513176 0.03854471900787173
3680000000.0 -0.1611334568261747 -0.09745852895072926
3700000000.0 -0.046976163739348334 -0.18158638036559865
3720000000.0 0.13001894897901436 -0.13192815171654246
3740000000.0 0.16554419273616489 0.07440060728291946
3760000000.0 -0.13913615137229318 -0.1076816662972733
3780000000.0 0.12755936177639318 0.10907319073621169
3800000000.0 0.09681651879263832 -0.12818150474945839
3820000000.0 -0.07369368992593683 -0.13530881229979103
3840000000.0 -0.06722389509890694 -0.13128556933717817
3860000000.0 0.1364009587452445 -0.05373348329964947
3880000000.0 0.15007977352837626 -0.014022250232225083
3900000000.0 0.10444349305618053 -0.11210552944897288
3920000000.0 -0.12652729099486948 -0.09818168237258887
3940000000.0 0.1656338173085626 -0.0010867505646742928
3960000000.0 0.11048686844893135 0.13268875526306476
3980000000.0 0.15093158994043418 -0.08657781740834881
4000000000.0 0.00784011174944454 -0.16756925098529385
