! Created with skrf (http://scikit-rf.org).
# Hz S RI R 50.0 
!freq ReS11 ImS11
400000000.0 -0.6657721378837212 0.5370615922577274
420000000.0 -0.10165865069339813 0.8586841025173921
440000000.0 0.8118863760709956 0.20860427436662732
460000000.0 0.30166303406160977 -0.7417783570949841
480000000.0 0.6807907533469113 -0.2761642538333336
500000000.0 -0.3736883110509669 0.44570434086749994
520000000.0 -0.13250105124555064 0.4663105974500195
540000000.0 0.2821696751945734 -0.305030209521579
560000000.0 -0.3547867531032725 0.0011320280560182796
580000000.0 0.3308971596869381 -0.03751872347657366
600000000.0 -0.3014853841901688 -0.13667350894240726
620000000.0 0.15343325989305925 0.3053782189249273
640000000.0 0.1648600102443249 0.3283936056371029
660000000.0 0.26336020680306044 0.2812602280902662
680000000.0 -0.373226790493723 0.16609562865840732
700000000.0 0.008316233864631584 0.42281762739177814
720000000.0 0.33765349918334425 0.2670840444023984
740000000.0 -0.298312643142438 0.3131921421054049
760000000.0 0.3201227168912254 -0.26978472796460934
780000000.0 0.3252087195204972 0.214356389869783
800000000.0 -0.35463036159885697 0.012686789062226235
820000000.0 -0.2986534906979176 0.020170643122837447
840000000.0 0.2400014371454581 0.044659174496824355
860000000.0 -0.19185352576897832 -0.042800629095554134
880000000.0 0.15027800939978073 0.03546302847961657
900000000.0 -0.03442079557327812 0.07503121333333652
920000000.0 0.046247106944897365 -0.018980467261637494
940000000.0 0.020023438176854085 -0.025250843197836863
960000000.0 -0.02786686232958522 -0.028737603071826327
980000000.0 -0.05876052334355459 0.01447792762739365
1000000000.0 -0.06411512501179853 0.03476775721763849
1020000000.0 -0.08275389059419931 -0.04562868721079628
1040000000.0 -0.026797386920302643 -0.10607060143539968
1060000000.0 -0.10547418418585405 -0.10538568893691505
1080000000.0 -0.0341686768850347 -0.16127378849899165
1100000000.0 -0.16610430952603675 0.08467947523345307
1120000000.0 0.17415886748317974 0.10985405770100698
1140000000.0 0.15435548408982028 -0.18061796551304804
1160000000.0 0.2430337598990296 -0.11958708204546391
1180000000.0 0.2905013669621019 0.09657690977548554
1200000000.0 -0.08034197169928421 0.3290083965517145
1220000000.0 0.0891761633279345 -0.3587676413444107
1240000000.0 -0.08958007002634834 0.3892170051320038
1260000000.0 0.1592911939163897 -0.396234854248016
1280000000.0 -0.1404663508570863 0.42177508601650976
1300000000.0 0.3674963311471151 -0.2605409161855095
1320000000.0 -0.3063012714249203 -0.3210592914072721
1340000000.0 -0.18602343333429086 -0.39423639380562203
1360000000.0 0.0448466020094677 -0.42875633111916206
1380000000.0 -0.03137353600677251 -0.42893937956118694
1400000000.0 -0.41935371597026744 -0.010305262775166413
1420000000.0 -0.05870493831737266 0.39865464165142417
1440000000.0 0.37413835676082136 0.04089679933982578
1460000000.0 0.2046017700022329 -0.27867382597830587
1480000000.0 -0.1845680114745637 -0.25692169691614697
1500000000.0 -0.2838087297574351 0.021970732280275088
1520000000.0 -0.2083997468193055 0.153035504487483
1540000000.0 0.05603070262284396 -0.22432149462668755
1560000000.0 0.1968813631354798 0.028238338251516126
1580000000.0 0.06049838818169255 0.159747257788147
1600000000.0 0.09398122728139191 -0.10257721496997771
1620000000.0 0.018031845842652938 -0.10510332633802125
1640000000.0 0.08166645292318318 -0.0007141198961654268
1660000000.0 0.05528913056740157 -0.011519706039862923
1680000000.0 -0.021532914719081316 -0.02616626157313103
1700000000.0 -0.0017023465927502104 -0.017803700782512
1720000000.0 -0.0016335154970076855 0.0018592898478116515
1740000000.0 0.014195012922495195 0.01087079346838795
1760000000.0 0.013751069027774235 -0.03288384706232019
1780000000.0 0.06581605920720235 -0.0029959204646291
1800000000.0 -0.07132446917749466 0.06892368835134946
1820000000.0 0.07789384960684845 0.10449510109381618
1840000000.0 -0.0478692653861336 -0.16158319505481045
1860000000.0 0.05251796873467513 0.20095219298355255
1880000000.0 -0.052877407595283504 -0.2421074367076605
1900000000.0 0.1712827359805966 0.2322263350818973
1920000000.0 -0.24665960300483425 -0.20833837027258847
1940000000.0 0.04489490738620192 0.3480202663642457
1960000000.0 0.32628582140563495 -0.18537351869718158
1980000000.0 -0.1748841221853967 -0.35202037127194025
2000000000.0 -0.3524629813863322 -0.2109027643902073
2020000000.0 -0.360285309789015 0.22638921332045275
2040000000.0 -0.045930874460044194 0.4337050927738498
2060000000.0 0.43528590436134706 0.06210897504406988
2080000000.0 0.2357812528145409 -0.3671419017486901
2100000000.0 -0.08526940017979766 -0.42007886604997946
2120000000.0 -0.2942417131637258 -0.29708868943174604
2140000000.0 -0.3827985231191734 -0.1373103929052945
2160000000.0 -0.04091247140795322 -0.3921199214595696
2180000000.0 -0.2284667385512238 -0.3045808116814634
2200000000.0 -0.3656475359213799 0.05565252468465996
2220000000.0 -0.15123034449699743 0.3253550289580506
2240000000.0 0.25682457022797955 0.24482123832356822
2260000000.0 0.3517100328817474 -0.013059310617238707
2280000000.0 0.24347235033625092 -0.25832593782668767
2300000000.0 -0.17965330421183046 -0.3199763369494065
2320000000.0 -0.38297369581180174 0.0789484564113695
2340000000.0 0.1860931722735894 0.38239044000228756
2360000000.0 -0.0036866303138805927 -0.4691293307340607
2380000000.0 0.1374305851353941 0.49875692990410947
2400000000.0 -0.35156162434940214 -0.4452405350290604
2420000000.0 0.6043940232639752 0.11645910878312167
2440000000.0 -0.5625691653925571 0.3433988476632843
2460000000.0 0.30715521971115084 -0.623346527015313
2480000000.0 -0.04922194468624569 0.7192029079746439
2500000000.0 0.1405583702852013 -0.7239642701531048
2520000000.0 -0.40441133849138705 0.6255434957113108
2540000000.0 0.712982689909456 -0.2117022758708746
2560000000.0 -0.6091243915918352 -0.4116959268641342
2580000000.0 -0.13178357212722117 0.7053975384062984
2600000000.0 0.6610943686939261 -0.20291696469534065
2620000000.0 -0.47062512370396153 -0.4618424779259221
2640000000.0 -0.5574964169502976 -0.2753563319344457
2660000000.0 0.016013318348248297 0.5767626506366493
2680000000.0 0.47497129507784247 -0.2356002018321904
2700000000.0 -0.3954206955703531 -0.27808631966174363
2720000000.0 -0.061096224772875005 0.4320523553461589
2740000000.0 0.3842202365368628 -0.0945138422228825
2760000000.0 -0.28207212386440916 -0.2243745186486781
2780000000.0 0.2222885499931162 0.24897159765590385
2800000000.0 -0.28398363889939016 -0.13293394686205073
2820000000.0 0.21002093564947003 -0.21382360524213787
2840000000.0 0.21292439170550473 0.19870919275608687
2860000000.0 -0.21484114140065114 0.1919691698644911
2880000000.0 -0.15851605952721542 -0.2382073127747676
2900000000.0 0.2474154406128222 0.14460817305203374
2920000000.0 -0.09849179443762238 -0.2711097757103488
2940000000.0 -0.2352840795927525 0.17258064439146018
2960000000.0 -0.1838357212021506 0.2283301128701314
2980000000.0 -0.2860553681573922 0.08337353514567167
3000000000.0 -0.23879187488440576 -0.18436962833813852
3020000000.0 0.17437529786366515 -0.2491106758571461
3040000000.0 0.1694186518247328 0.2524369664168356
3060000000.0 -0.2991444448863488 -0.05441845072444057
3080000000.0 0.28492774597191395 -0.09571144519494308
3100000000.0 -0.14566519397079186 0.25767292904388844
3120000000.0 0.005831991242040042 -0.28671080209280025
3140000000.0 0.1905810027215513 0.19992067110748965
3160000000.0 -0.2582210558321988 -0.03744725500540717
3180000000.0 0.14270280755762865 0.19764731574391603
3200000000.0 -0.20312901870702416 0.08329541597158285
3220000000.0 0.004507495600338966 -0.19288530100559842
3240000000.0 0.09237288702056438 0.13484996795059984
3260000000.0 -0.03563664544789665 -0.12740179055622478
3280000000.0 -0.06663337181868907 0.07921285710813841
3300000000.0 0.07405332637183432 -0.020849365699495772
3320000000.0 -0.02868232865851449 -0.041143240481491435
3340000000.0 0.01021188756024948 0.02590408409929808
3360000000.0 -0.007591660737657908 0.003711203776507206
3380000000.0 0.010507537577289713 0.00126142357386312
3400000000.0 0.01987864972252619 -0.013936596558615247
3420000000.0 -0.014053636385018263 0.03373779701147781
3440000000.0 0.03570339754283905 -0.028384521918530085
3460000000.0 0.042963746639892726 -0.029270698267413155
3480000000.0 -0.04591880729765112 -0.039670491832043436
3500000000.0 -0.0072320681656840025 -0.0726946776537102
3520000000.0 0.017579943196844854 -0.08689517396767668
3540000000.0 0.06452022281511773 0.08186863103869263
3560000000.0 -0.09881673178883676 -0.06576461392761418
3580000000.0 0.09165094177422095 0.09730019209853506
3600000000.0 -0.08213485518657088 0.12969132486999008
3620000000.0 -0.04317979951294744 0.16066638585008824
3640000000.0 -0.16363520601093984 0.06863028086856002
3660000000.0 -0.18070059799409743 0.0423575859946388
3680000000.0 -0.16211775291919217 -0.09707844128512388
3700000000.0 -0.03397561884496546 -0.18499318006459525
3720000000.0 0.1477282289254081 -0.11271101977246659
3740000000.0 0.15821565653819497 0.08938361512349331
3760000000.0 -0.11319935412685977 -0.13552502483860596
3780000000.0 0.10884139602973227 0.12792180663084926
3800000000.0 0.12637682518866908 -0.09952863791638629
3820000000.0 -0.04280985000734922 -0.14797382086759325
3840000000.0 -0.016430318432105767 -0.14705709755224924
3860000000.0 0.14366254286775756 -0.029523720567586474
3880000000.0 0.15015570437627396 0.011404147171139786
3900000000.0 0.12696461175652582 -0.08532391204004798
3920000000.0 -0.11981308450157777 -0.10563461331788426
3940000000.0 0.1652383237552946 0.0014894754578924667
3960000000.0 0.12195326980422402 0.12130686716556002
3980000000.0 0.13714167528026228 -0.10583969842943695
4000000000.0 -0.03373160356305378 -0.1638524652809809
