! Created with skrf (http://scikit-rf.org).
# Hz S RI R 50.0 
!freq ReS11 ImS11
400000000.0 -0.6795530167721278 0.5202651472780249
420000000.0 -0.10325869785431861 0.8583878271837715
440000000.0 0.811380650272449 0.20633878699377373
460000000.0 0.3945227221461562 -0.6962955287670536
480000000.0 0.6780574182397195 -0.2862760833871805
500000000.0 -0.32279897741117336 0.4835921309336095
520000000.0 -0.22833770330013975 0.42567477232033996
540000000.0 0.35718430088757946 -0.21803397886943476
560000000.0 -0.32786733668155305 0.1392807389664715
580000000.0 0.30625201633293453 -0.13062813746016483
600000000.0 -0.2183788170604079 -0.24753169507930256
620000000.0 0.1576680646697878 0.30442204961511266
640000000.0 0.20353441487788546 0.3060271936860697
660000000.0 0.2847183029683899 0.25837905177268916
680000000.0 -0.36705585072689223 0.17658868577841166
700000000.0 0.029833688414072874 0.42279372248060365
720000000.0 0.3705861206572679 0.21839548999219885
740000000.0 -0.27891922694084037 0.33094344739922604
760000000.0 0.3337147464749812 -0.25250292579129907
780000000.0 0.3195466900429964 0.22211818248157233
800000000.0 -0.3542347667560899 0.017885706138944836
820000000.0 -0.29917507458495773 -0.017414754112582614
840000000.0 0.2373417106135642 0.0588157198901821
860000000.0 -0.17904312801579725 -0.08103096814405408
880000000.0 0.1437552418051318 0.05589500884255978
900000000.0 -0.045045930103108686 0.06853581258809642
920000000.0 0.04020672914347061 -0.029035088207902012
940000000.0 0.02319564794200749 -0.022719075159354497
960000000.0 -0.02913418923919493 -0.02786480231820066
980000000.0 -0.059329215430658486 0.014904122550757916
1000000000.0 -0.05345093553264465 0.04938039259468869
1020000000.0 -0.08541037100854162 -0.041244257037366554
1040000000.0 -0.056311231525464384 -0.09401371149717468
1060000000.0 -0.11709545912652335 -0.09197103069266968
1080000000.0 -0.03197248920240757 -0.16160520685968996
1100000000.0 -0.16705338582460222 0.08257998044299882
1120000000.0 0.16684292352472105 0.11980232546646886
1140000000.0 0.15727755820638653 -0.17797704595496325
1160000000.0 0.25125189784337704 -0.10124098575407266
1180000000.0 0.29402647729763787 0.08467545251221961
1200000000.0 -0.0738163071869293 0.3306319375441244
1220000000.0 0.09144064589903159 -0.35835132820566357
1240000000.0 -0.07469282242514116 0.3924856382006993
1260000000.0 0.14935028706499523 -0.4003380561789597
1280000000.0 -0.14235662390161605 0.42125880286391865
1300000000.0 0.3696800785751357 -0.25745072261789387
1320000000.0 -0.3064147804388023 -0.3210272626645181
1340000000.0 -0.17119969957083775 -0.40098836237956037
1360000000.0 0.08513890679817562 -0.422617020512686
1380000000.0 -0.011466995911959963 -0.43022191403413484
1400000000.0 -0.4192578064333325 -0.020890782843757432
1420000000.0 -0.051826010325390234 0.3997693074778744
1440000000.0 0.37534882490234756 0.026307943088093384
1460000000.0 0.18704508666402794 -0.2906669666598283
1480000000.0 -0.20526944593365776 -0.2404684713560149
1500000000.0 -0.2807410839386141 0.04532044064871428
1520000000.0 -0.1957484428044475 0.16819879347599986
1540000000.0 0.06573031968670723 -0.22179683280415585
1560000000.0 0.19820464616302413 0.013610385406580524
1580000000.0 0.08197752102562754 0.14995595529478126
1600000000.0 0.08070835654114898 -0.11378618027914275
1620000000.0 0.004617257276048137 -0.10686570451663607
1640000000.0 0.08173188294909449 0.0005683872776844358
1660000000.0 0.05230387953317818 -0.021826375381524016
1680000000.0 -0.028034045555749443 -0.01939595269247718
1700000000.0 0.01749684496762509 0.0006096088130622748
1720000000.0 -0.002423774679995094 0.0005408644915130009
1740000000.0 0.013198005986292262 0.012299315827715493
1760000000.0 0.004690191954866365 -0.03560706909174454
1780000000.0 0.06185850104710179 -0.023205170122759217
1800000000.0 -0.07766290571314749 0.06110390437630693
1820000000.0 0.0672833774182982 0.11185876201364385
1840000000.0 -0.0316051500032909 -0.1655881980980052
1860000000.0 0.02562693375162005 0.20619670419961109
1880000000.0 -0.04603798318492226 -0.24390573754980535
1900000000.0 0.16534064593807551 0.23688043242874338
1920000000.0 -0.24514558589648316 -0.21025148200993765
1940000000.0 0.057688378720839525 0.346208283246362
1960000000.0 0.3183223465972155 -0.19880428982770298
1980000000.0 -0.18757119076381273 -0.3453107048112898
2000000000.0 -0.3599820062893431 -0.19780233572724676
2020000000.0 -0.36090354072201536 0.22556051720622347
2040000000.0 -0.023668092148637035 0.43528631979868837
2060000000.0 0.4345185425507555 0.06799678549477986
2080000000.0 0.2538210099885159 -0.3552755593425237
2100000000.0 -0.08343271937796022 -0.4209066184518367
2120000000.0 -0.2870660568051788 -0.3044932993277259
2140000000.0 -0.38103809305577 -0.14321479643118779
2160000000.0 -0.029690295639833095 -0.3933469229331063
2180000000.0 -0.23278028531069347 -0.30136926651674045
2200000000.0 -0.3667598413615345 0.047720697069690086
2220000000.0 -0.1476653587808967 0.3264899421365312
2240000000.0 0.24811323893461504 0.253377766885818
2260000000.0 0.3515741595127518 -0.003873516516433816
2280000000.0 0.2477830602337791 -0.2537680359910963
2300000000.0 -0.1936921429640746 -0.3119553046513048
2320000000.0 -0.3773959936068261 0.10368489380737417
2340000000.0 0.22593295742343705 0.3612898864235823
2360000000.0 -0.05552413905697211 -0.4667989345675104
2380000000.0 0.16228928430359155 0.4919620560617629
2400000000.0 -0.37847306854597884 -0.42350077041631096
2420000000.0 0.6103474804962419 0.08563085826274017
2440000000.0 -0.5434824891507181 0.3743868990092124
2460000000.0 0.25574257700230707 -0.6468146389722415
2480000000.0 -0.018436621699346234 0.7211582029730882
2500000000.0 0.09610799397298644 -0.7313589994620328
2520000000.0 -0.3820259859280533 0.6396362507042841
2540000000.0 0.6887185953702211 -0.28003000681309753
2560000000.0 -0.6542568362711132 -0.3338476350891884
2580000000.0 -0.07237011766491792 0.7132675350015246
2600000000.0 0.6192932385689928 -0.3058014673432381
2620000000.0 -0.5128749007969853 -0.41350535801365523
2640000000.0 -0.5856948205622308 -0.2056720584001627
2660000000.0 0.10476422903543937 0.5663446655107732
2680000000.0 0.46395792480270714 -0.2546709720866638
2700000000.0 -0.41206292061724664 -0.25136137055191593
2720000000.0 -0.025175077956145 0.4350833375203527
2740000000.0 0.37677188356271485 -0.11881124560748951
2760000000.0 -0.30500851527031986 -0.19161465828712745
2780000000.0 0.2287516337296228 0.24277790641883254
2800000000.0 -0.28473338968769474 -0.13057368994813084
2820000000.0 0.21365969730919263 -0.20994917149895098
2840000000.0 0.1978736753979425 0.21342541957242245
2860000000.0 -0.21980560122625695 0.18538541167851166
2880000000.0 -0.12602100355518478 -0.25621540144335136
2900000000.0 0.2361313787123275 0.1616617252600858
2920000000.0 -0.10101416459910902 -0.26985641029181834
2940000000.0 -0.22706605363305463 0.18224757748901899
2960000000.0 -0.1717910093569691 0.2370391202709806
2980000000.0 -0.2833236733004115 0.09177842030968118
3000000000.0 -0.2643339042304485 -0.14552684036024585
3020000000.0 0.12760188999373742 -0.2756550225524406
3040000000.0 0.23191535041617548 0.19611618819033483
3060000000.0 -0.29860905320393943 -0.055964918353612156
3080000000.0 0.26696773785400846 -0.13882016273307146
3100000000.0 -0.1335236965371818 0.26407871141193123
3120000000.0 0.0071158929226964665 -0.28666481279559947
3140000000.0 0.18789808886890277 0.20335152623887187
3160000000.0 -0.26100892363355965 -0.01243074902777312
3180000000.0 0.1129312649347397 0.21543275139156176
3200000000.0 -0.21531072106301685 0.04414133490055437
3220000000.0 0.01678745449955416 -0.19234410876832972
3240000000.0 0.06914293367049644 0.14808632523658619
3260000000.0 0.006477692080709917 -0.13176441267431196
3280000000.0 -0.06629300883228412 0.07936073635211255
3300000000.0 0.07623261764833329 0.0073443752664458925
3320000000.0 -0.009230425841745023 -0.04909104452539484
3340000000.0 0.008570730108187149 0.025806057131400714
3360000000.0 0.006485493402897522 0.00555202128718012
3380000000.0 0.008411464313305793 0.006754213548161645
3400000000.0 0.02357265266801039 0.006793705785973789
3420000000.0 -0.01684270617793002 0.03255651133691551
3440000000.0 0.027024237243875225 -0.03721282588102721
3460000000.0 0.0476766555131259 0.020069013558632616
3480000000.0 -0.01017976641096941 -0.0597917970210092
3500000000.0 -0.005769190504837715 -0.07322081752902014
3520000000.0 -0.015148696552924171 -0.08798476870658643
3540000000.0 0.06692467031715973 0.08049703630306576
3560000000.0 -0.09677911403322986 -0.06887019895730026
3580000000.0 0.08107948498694181 0.10624981532463372
3600000000.0 -0.10120417506674027 0.1150324393803608
3620000000.0 -0.062452361620204774 0.15373737653570096
3640000000.0 -0.16602076650895123 0.06287956845483252
3660000000.0 -0.18257938684044273 0.02898943021049927
3680000000.0 -0.15523499556387713 -0.10661339409022619
3700000000.0 -0.04816255076592938 -0.18130142708618668
3720000000.0 0.12524448313368108 -0.13706379342536282
3740000000.0 0.16900137916591906 0.06533154851886605
3760000000.0 -0.1347535572503807 -0.11348315965900645
3780000000.0 0.12461018253213152 0.11200394714796257
3800000000.0 0.11224203663735229 -0.11489093129971124
3820000000.0 -0.05106038526467181 -0.14543380862577004
3840000000.0 -0.03148541386771279 -0.14482342054444436
3860000000.0 0.14186764171848645 -0.0385890738393624
3880000000.0 0.15011407422641576 -0.013748989043095414
3900000000.0 0.1123543238011359 -0.10426676957759069
3920000000.0 -0.13510781164578725 -0.08619688160793355
3940000000.0 0.16575576152198077 -0.004622993590112629
3960000000.0 0.12259876280638338 0.12191672316584966
3980000000.0 0.1346704769457211 -0.11069125783106926
4000000000.0 0.008811105837595565 -0.16809299521120594
