! Created with skrf (http://scikit-rf.org).
# Hz S RI R 50.0 
!freq ReS11 ImS11
400000000.0 0.21611339376602837 0.844896184275608
420000000.0 0.6458456986520237 0.5678081639446823
440000000.0 0.8057929213624447 -0.17365340844935812
460000000.0 0.22227693309544921 -0.7555598965121839
480000000.0 0.6623688454788011 -0.22989853477117875
500000000.0 0.5627097380758123 -0.04170712439095227
520000000.0 0.4290384510081444 -0.24642522864939972
540000000.0 0.35223402024312167 0.25049957580302007
560000000.0 -0.295102659123639 -0.21111711440627914
580000000.0 -0.2669253656449862 0.21447672942291152
600000000.0 0.3386140759494084 -0.03862678828783082
620000000.0 -0.35193257892061586 -0.049588721343812245
640000000.0 -0.31947051704791274 0.21551477608159766
660000000.0 -0.13388983025218804 0.37666218155549114
680000000.0 -0.36731554995608195 -0.21512469855316832
700000000.0 0.285916767911736 0.3381466842414446
720000000.0 0.20850269920001974 -0.3939205258415014
740000000.0 0.43489646429210754 -0.0659065044242478
760000000.0 -0.40839301087781366 -0.09109710381926549
780000000.0 0.07768099870181712 -0.376338705954358
800000000.0 0.1706016178511642 0.3022441233042548
820000000.0 0.21623776763012253 0.18448777378515668
840000000.0 0.17785617393919884 0.14330895759571863
860000000.0 -0.10505870132075323 0.1627796729178235
880000000.0 0.11814594739805419 0.05591469950380745
900000000.0 0.04784236488057791 -0.05340801127271935
920000000.0 0.040172890871836654 -0.005078383188862734
940000000.0 0.0253752952873546 -0.0016162597558623268
960000000.0 -0.014968991455572981 -0.03155250542162968
980000000.0 0.012681152105929608 -0.0495262436400481
1000000000.0 -0.04518696527827724 0.034620749699686613
1020000000.0 0.06051050586796299 0.04201307652189659
1040000000.0 0.07547164235594936 0.042937247303958426
1060000000.0 -0.12585315496805402 0.022712540680607556
1080000000.0 0.14261105408898098 -0.04141973456571091
1100000000.0 -0.030615114606820926 -0.17729894133349766
1120000000.0 -0.03554274780550497 0.20717913820907113
1140000000.0 -0.06199213645361831 -0.24304973474203884
1160000000.0 -0.2763707408595638 0.09395246689183387
1180000000.0 -0.10496364202158825 0.31337846550247817
1200000000.0 -0.13230837778185808 0.33581725402251883
1220000000.0 -0.32878461990526653 -0.20193159171082306
1240000000.0 0.4048970793811419 0.03229755716194828
1260000000.0 -0.40667638865352507 -0.134421292970945
1280000000.0 0.35314292150767446 0.26229744673791444
1300000000.0 -0.056973112220623325 -0.43920899856936463
1320000000.0 -0.4332155683308947 0.01825174190491481
1340000000.0 -0.35348136786071044 -0.23169216060207684
1360000000.0 0.13657310581737556 -0.3912543762353459
1380000000.0 0.3238425386144581 -0.2606299682467228
1400000000.0 0.20077326595910264 -0.3530145857751739
1420000000.0 -0.13396389249727703 -0.37354309870498703
1440000000.0 -0.375056742270878 -0.06040017412017715
1460000000.0 -0.03732815589831103 0.35837772814520236
1480000000.0 0.25719686050100304 -0.21704296175360901
1500000000.0 -0.2592810831794336 0.1644853609773386
1520000000.0 0.27759193286044387 -0.004738896960632731
1540000000.0 0.2177184715800753 0.10795857615590561
1560000000.0 0.18255926943027617 0.082983124657452
1580000000.0 0.0463543156578283 0.15801884504878577
1600000000.0 0.08681337077652794 -0.09589039053870971
1620000000.0 0.06414743511241149 0.06669420470601456
1640000000.0 -0.010733722242990336 -0.06966321461077764
1660000000.0 -0.04065050264452252 -0.021555323733885284
1680000000.0 -0.005963608162210253 -0.023496751769118505
1700000000.0 -0.011274682274536398 -0.0004515209667133557
1720000000.0 0.00304844383408916 0.011993213007082143
1740000000.0 -0.028688886724361477 -0.00293905380453974
1760000000.0 0.029213404541567956 -0.032230099680180334
1780000000.0 0.015932627624598593 -0.06766505837732249
1800000000.0 -0.017690805060366927 0.09672468768992022
1820000000.0 -0.1184419178591246 0.031678721685989515
1840000000.0 -0.044161820270646676 0.15054994123382504
1860000000.0 0.16470893269691703 0.09343303291940767
1880000000.0 0.19827853052723562 -0.1126939034418226
1900000000.0 -0.17489675395688561 -0.2086063150512305
1920000000.0 0.1271400906659446 0.2849671307863889
1940000000.0 0.0912769694623486 -0.3387282083295131
1960000000.0 -0.2607571607818211 0.28061321289377417
1980000000.0 0.3532260106290861 -0.20220079210777647
2000000000.0 -0.34154481944246423 -0.253129530797503
2020000000.0 -0.07834975740557348 0.42880318793999145
2040000000.0 0.40465626605041516 0.16987709862915068
2060000000.0 0.25422889530675663 -0.35417226367874965
2080000000.0 -0.08787468349302825 -0.41779298555177713
2100000000.0 -0.09816295317177182 -0.40663577856095345
2120000000.0 -0.11532787544960728 -0.391662662162308
2140000000.0 -0.13368568085066432 -0.37480176103752805
2160000000.0 0.32642089048029255 -0.2045780087040996
2180000000.0 0.21111779073250228 -0.3061495916698168
2200000000.0 0.09876181683389777 -0.3473572244438917
2220000000.0 -0.25922462432688653 -0.240412424293476
2240000000.0 -0.294225145639694 0.18672690233403008
2260000000.0 -0.0029489598902528837 0.3475912663591545
2280000000.0 0.21637400371962623 0.2733181526390814
2300000000.0 0.3047054480098316 -0.19333133753101156
2320000000.0 -0.13202088708610726 -0.3588722982083029
2340000000.0 -0.38085296410738917 0.1614641017832253
2360000000.0 0.3617148775790922 0.2745694653007951
2380000000.0 -0.30549954024829784 -0.3988581329256105
2400000000.0 0.31121328306564416 0.45918467171740895
2420000000.0 -0.5124224949132088 -0.3272719124144789
2440000000.0 0.6516689629040151 -0.08999476017834422
2460000000.0 -0.47930825705258884 0.509542963884285
2480000000.0 0.20834409414803792 -0.7011877430586193
2500000000.0 -0.2834003115383549 0.69811202584159
2520000000.0 0.44652789221011946 -0.6199252825436171
2540000000.0 -0.6273704613163134 0.43955755093626553
2560000000.0 0.7473930458413656 0.13681812101402768
2580000000.0 -0.36403947863128394 -0.6499112177582768
2600000000.0 -0.31545761488883045 0.6479659676575167
2620000000.0 0.6775081460139497 -0.12730845896480306
2640000000.0 0.5124554981834906 -0.4031048315173705
2660000000.0 -0.603570912414774 -0.07462831817348402
2680000000.0 0.3540211121434414 0.4350536441432142
2700000000.0 0.02046403328973744 -0.512962958194701
2720000000.0 -0.2053795393763337 0.4167584682286041
2740000000.0 0.3565448620982905 -0.22157385052286468
2760000000.0 -0.3752365251119904 0.06145284503339812
2780000000.0 0.3242355109711804 -0.1325721977444464
2800000000.0 -0.18612148048402988 0.2672229384118674
2820000000.0 -0.1417074395287584 -0.27478789286149374
2840000000.0 0.2978588885033187 0.02877370349717361
2860000000.0 -0.15154906660148568 0.2545446138178532
2880000000.0 -0.14133249023002079 -0.2600266962623598
2900000000.0 0.1882241186154868 0.22995502467556653
2920000000.0 0.09585080752145345 -0.2860442915015723
2940000000.0 -0.3067086194580974 -0.024075339010830372
2960000000.0 -0.1493594228691743 0.2711598161915126
2980000000.0 -0.2669555342717363 0.16273106711794075
3000000000.0 -0.2270124518759553 -0.2188980852079751
3020000000.0 0.134667967144884 -0.28706370383490404
3040000000.0 0.20179780877586254 0.24221551670384164
3060000000.0 -0.31380504673704684 -0.009634851561265019
3080000000.0 0.29524395525907154 -0.09262385588396585
3100000000.0 -0.17378575357351483 0.2484528969734931
3120000000.0 0.08314591557596629 -0.28246547910059666
3140000000.0 0.09384876719781192 0.26690854898543787
3160000000.0 -0.21155113861010444 -0.162339163768777
3180000000.0 -0.04229683264604426 0.2453030913515556
3200000000.0 -0.1740671946156578 -0.14393458331885495
3220000000.0 0.16834274963890222 -0.10461807302805887
3240000000.0 -0.007326081862275125 0.16848774829109173
3260000000.0 0.05461567306430396 -0.1257311225553264
3280000000.0 -0.053870952485489426 0.09131870291321206
3300000000.0 0.07799431556098692 -0.01040818593100202
3320000000.0 -0.05019631814580916 -0.009315651614421525
3340000000.0 -0.0037391291403191646 -0.02630960241333026
3360000000.0 0.004601064793378353 -0.004671156767495863
3380000000.0 0.010268600755689082 -0.0026951725748027323
3400000000.0 -0.018876410427128787 -0.0167746370564257
3420000000.0 0.008476830673288374 -0.03753364038029932
3440000000.0 -0.03183055288921066 0.03857226183625433
3460000000.0 -0.016787485148781277 0.05404362459057263
3480000000.0 0.006368256590157174 -0.06537212667808245
3500000000.0 0.01992823643865207 -0.07644382349141397
3520000000.0 -0.07648717767745182 -0.056831186537395585
3540000000.0 0.09487084550515447 0.05844941806051359
3560000000.0 -0.1180321700026213 0.041989491297991434
3580000000.0 0.12534134855986462 -0.0607054763616225
3600000000.0 0.05120936350112742 0.1489041419682606
3620000000.0 -0.011749574294430144 0.16902674766738873
3640000000.0 -0.16856285420340922 0.06408344879576802
3660000000.0 -0.18359076431158924 -0.04653646407557489
3680000000.0 -0.12949565524994 -0.14467325040303744
3700000000.0 -0.06946644557474022 -0.18008042201885796
3720000000.0 0.09893222227542679 -0.16523015120049225
3740000000.0 0.1744071073923441 -0.07017420326229727
3760000000.0 -0.17086783115427046 0.056665263046873936
3780000000.0 0.16853768385299922 0.018486469908050324
3800000000.0 0.04911810843947281 -0.1520271931732499
3820000000.0 0.05840711990350778 -0.1414059969146289
3840000000.0 0.13990715785047994 -0.04676458676652087
3860000000.0 0.02735864120777131 0.14614952431098086
3880000000.0 0.07065653227800825 0.13826272948809085
3900000000.0 0.05078159201142192 -0.14991410230897617
3920000000.0 -0.1317988913239977 0.09463638587333825
3940000000.0 0.10710601466558817 -0.12592843868372755
3960000000.0 0.16412297470526954 0.0388746206677922
3980000000.0 0.13512057992286208 -0.10129896090336314
4000000000.0 0.11077057395553831 -0.11967989180446269
