! Created with skrf (http://scikit-rf.org).
# Hz S RI R 50.0 
!freq ReS11 ImS11
400000000.0 -0.07775521028125816 0.8651164305861071
420000000.0 0.4106510521791838 0.7551389017328661
440000000.0 0.8194925371691971 -0.1261569147612166
460000000.0 0.30154444931608426 -0.73255574496543
480000000.0 0.6516583116490061 -0.29273942009935244
500000000.0 -0.10626972114434738 -0.5634446912364304
520000000.0 -0.11330652727023623 -0.47673303080483254
540000000.0 0.3970289553088826 -0.1877388299714653
560000000.0 -0.29265170058209006 -0.20220296476120023
580000000.0 -0.10543537402355577 0.3210710828851131
600000000.0 0.30474585343961547 -0.14946581461035743
620000000.0 -0.29616395194865547 0.20208404474429106
640000000.0 0.08518281101163311 0.3782628948398477
660000000.0 0.4017223463638487 0.01831510155278768
680000000.0 0.033871999768232984 0.42163750245330356
700000000.0 0.22511092976372196 -0.3692241125812635
720000000.0 -0.10878361731980676 -0.41238429066762605
740000000.0 0.38226955485313546 0.16995821658885893
760000000.0 0.12569094231852443 -0.37934808932322767
780000000.0 0.028350143550171923 0.37067700156534306
800000000.0 0.060439262098770444 -0.33861584399472855
820000000.0 0.28223161128344026 -0.08090676347615264
840000000.0 -0.14301969595809322 -0.20313745098768743
860000000.0 0.1251937940260236 -0.1735317503246814
880000000.0 -0.04150573292741824 0.155972850786421
900000000.0 -0.03954763141807947 0.08624731123094713
920000000.0 -0.04651191059908539 -0.044979554989124926
940000000.0 -0.046403774872760414 -0.01292708776228927
960000000.0 0.04959615909049843 0.017831493871164648
980000000.0 0.051011662916808455 0.04389813354264005
1000000000.0 0.029069394838920418 -0.07292861544173224
1020000000.0 0.0884377856121701 0.041662210221737134
1040000000.0 0.10947160548440923 -0.0075135358370217375
1060000000.0 -0.029808078574162015 0.14235479823807798
1080000000.0 -0.13976321146828488 0.07910248166692718
1100000000.0 0.003632532484357899 0.18327255042416335
1120000000.0 0.16794789607743812 0.11475081933901822
1140000000.0 0.2328747994918519 -0.046151732418667525
1160000000.0 0.2632017047082903 0.06799373213540963
1180000000.0 0.05746587620211336 0.30448440001376204
1200000000.0 -0.13520264854014247 0.3154064974240946
1220000000.0 0.13731498950618606 -0.3411062702721763
1240000000.0 -0.2782675656615524 0.28060274327070206
1260000000.0 0.42283391118045976 0.006865192543794786
1280000000.0 -0.44112403146931 -0.04941274712793236
1300000000.0 0.3862480813223114 0.2413007053441302
1320000000.0 -0.13703898034007425 -0.4319865532595514
1340000000.0 -0.38211491318454716 -0.22550148895722918
1360000000.0 -0.3215742492435346 -0.28933288929014733
1380000000.0 -0.3822925314687453 -0.19429566182193622
1400000000.0 -0.36740661304123345 0.19169239274753383
1420000000.0 0.08943223724007975 0.38645174058720866
1440000000.0 0.3396875312368534 0.15099485903026658
1460000000.0 0.14207178580021165 -0.3129272501394489
1480000000.0 -0.1872043495376572 -0.2510113389232131
1500000000.0 -0.2812693871706062 -0.03988048187489482
1520000000.0 -0.2486908145533636 0.06429270799202598
1540000000.0 0.1981456546427912 -0.11491911413902053
1560000000.0 -0.009136057988052424 0.19718298999963532
1580000000.0 -0.14064913331501566 -0.10374868600905932
1600000000.0 -0.03843071818648707 0.1419120191949084
1620000000.0 0.08175029712389231 0.0863143554273125
1640000000.0 0.08809808388238188 -0.03551456748211069
1660000000.0 -0.06008865230456523 -0.03644825060381948
1680000000.0 -0.04168432560882971 0.021613788021191228
1700000000.0 -0.01863451389888227 0.022027856166917832
1720000000.0 -0.007571836014592059 -0.010767486522126472
1740000000.0 0.007237214331111018 0.020592883089827495
1760000000.0 0.038882646922619425 -0.017852673407492203
1780000000.0 -0.061588881131516095 0.04539107439615947
1800000000.0 0.06183438702308576 -0.09609606996607598
1820000000.0 0.08110474601346622 -0.12132616328635946
1840000000.0 0.1028795698613509 0.14694922005109634
1860000000.0 -0.20976892643595962 0.010048548063172208
1880000000.0 0.11125976873361652 0.21359996644404733
1900000000.0 0.22482989336384557 -0.15691172075480286
1920000000.0 -0.19826579849148712 -0.23218189191062025
1940000000.0 -0.3284842990023974 0.07536598752606093
1960000000.0 -0.03536956828315872 0.36620526169577317
1980000000.0 0.3927214156888989 -0.024438879714746127
2000000000.0 0.09223227485694206 -0.4039578382712038
2020000000.0 -0.4310553039536998 0.004354938473777985
2040000000.0 -0.02745692733513256 0.4369034103242297
2060000000.0 0.4328447459846173 0.06825043712191432
2080000000.0 0.2796664070912745 -0.3317605424125711
2100000000.0 0.07133947286613555 -0.4213342185949925
2120000000.0 -0.20186219929792434 -0.3661412681371802
2140000000.0 -0.3771922702504121 -0.1521610913076588
2160000000.0 -0.214701360167279 -0.3278691725468433
2180000000.0 -0.362305321244085 -0.09188187799700999
2200000000.0 -0.3072438028169419 0.18665067847215017
2220000000.0 -0.1708921504286199 0.2998277624517847
2240000000.0 -0.04310605963581244 0.33738381689914143
2260000000.0 0.08834941757365089 0.3280446698388652
2280000000.0 0.15367029172557645 0.3094684891495382
2300000000.0 0.35981383229186353 -0.03982149650529476
2320000000.0 -0.06363331664332107 -0.3832219755760836
2340000000.0 -0.36033905903332775 0.2187712480659116
2360000000.0 0.4632691626465173 -0.025519409244830975
2380000000.0 -0.5093463285286192 0.03838363459675172
2400000000.0 0.5530018581580376 -0.08890944953874767
2420000000.0 -0.5475390682007224 0.2704043488520147
2440000000.0 0.29853644100524185 -0.5871303274681131
2460000000.0 0.11629650629512737 0.6885293149510106
2480000000.0 -0.4232159930064651 -0.5929155504128927
2500000000.0 0.42722328048517255 0.6138055124047335
2520000000.0 -0.32554891917119566 -0.6837087356433984
2540000000.0 -0.11619327840161708 0.7504098832949444
2560000000.0 0.5691157156568878 -0.49329030898366877
2580000000.0 -0.7038469374167926 -0.2179606502901495
2600000000.0 0.28930321579504403 0.6506553113549844
2620000000.0 0.315590339969825 -0.6042031281261222
2640000000.0 0.040139835028781774 -0.6419174993102436
2660000000.0 -0.4764173140905458 0.3611016194315375
2680000000.0 0.522652978611616 0.17152279651344068
2700000000.0 -0.17805089868613536 -0.4699589345779596
2720000000.0 -0.23796290940571563 0.38778350213600177
2740000000.0 0.41336721721844744 -0.009492877760478127
2760000000.0 -0.32650003367016156 -0.18907330456148058
2780000000.0 0.3477810001228818 0.03733679301649168
2800000000.0 -0.3004088998560671 0.12817246273457245
2820000000.0 -0.07414215495622603 -0.30322101896492576
2840000000.0 0.2874792797984081 -0.0847671217147567
2860000000.0 -0.09010450061337757 0.28187060795052554
2880000000.0 -0.2629112298360119 -0.1304231847426044
2900000000.0 0.281642628571078 0.07859799692142384
2920000000.0 -0.0410257534142248 -0.2918781605900869
2940000000.0 -0.29425848176565167 0.056140663537240156
2960000000.0 -0.22964760611905385 0.19692025102523725
2980000000.0 -0.3065664847063197 0.012741216052913113
3000000000.0 -0.21865059685453742 -0.22191994842624987
3020000000.0 0.07206012705337406 -0.3043566843073933
3040000000.0 0.1830985083901604 0.2518922628535335
3060000000.0 -0.30956294234043946 0.017116520288140043
3080000000.0 0.24245346114791078 -0.18522454925192158
3100000000.0 -0.11914328945938388 0.2740715217208777
3120000000.0 0.10961887855134544 -0.2684414535596812
3140000000.0 0.0928942839970695 0.26499767923809514
3160000000.0 -0.22851411751624573 -0.13744684951436176
3180000000.0 0.07985603127874802 0.23683988652302493
3200000000.0 -0.20119758954069705 0.10523267408775419
3220000000.0 -0.10665553431885148 -0.16807030157888986
3240000000.0 0.13093903917154628 -0.10557319509664129
3260000000.0 -0.12460008429002166 0.04744148151158433
3280000000.0 0.07956453800960318 0.06349791599981447
3300000000.0 0.07257823335189287 0.020679946229553527
3320000000.0 0.0394438776710663 0.031513477009427894
3340000000.0 0.0021741077362448786 0.029292761854738135
3360000000.0 0.009253909797776507 -0.00767077951489341
3380000000.0 -0.0022965942318857123 0.003913204784249126
3400000000.0 0.009943367314199847 0.017163871608002406
3420000000.0 0.022555878702682396 0.02807912963248579
3440000000.0 0.031032427637734814 0.03979924733165394
3460000000.0 -0.0582005952612168 0.0004256528390259397
3480000000.0 -0.04514272612812064 0.050152972474335956
3500000000.0 -0.01649957943217442 0.07577958242025341
3520000000.0 0.06276664624325604 0.06468763600530056
3540000000.0 0.006559999259962951 -0.10292475843010805
3560000000.0 -0.09903587696471434 0.06377075850878618
3580000000.0 0.11644775910601152 0.0639271816778808
3600000000.0 -0.13357094539555653 0.0764574985876878
3620000000.0 -0.09558501228958009 0.13896155479462685
3640000000.0 -0.148937647152979 0.10178322925756073
3660000000.0 -0.07769727815118484 0.17310129922677445
3680000000.0 -0.15928115687464123 0.1075032491652736
3700000000.0 -0.19056444869122896 -0.014573958382314529
3720000000.0 -0.06692315792450376 -0.17571177193713744
3740000000.0 0.13247170650456816 -0.12741339298725324
3760000000.0 -0.15547965893773624 0.08625074357179915
3780000000.0 0.1697092291354128 -0.008409953416244863
3800000000.0 -0.03339276433697285 -0.15869455462134868
3820000000.0 -0.15210234242640594 -0.02796727929914136
3840000000.0 -0.11256607521054801 -0.09667529640995809
3860000000.0 0.1427389389073208 -0.042570086889631105
3880000000.0 0.1272894340335918 -0.08768820398592671
3900000000.0 -0.08358994679732898 -0.13288777841528088
3920000000.0 -0.07409198541281509 0.14395320540534368
3940000000.0 0.06559670268202814 -0.1537938070084587
3960000000.0 0.16616882688862505 -0.04520807410248833
3980000000.0 0.04973786028862868 -0.16629780044998493
4000000000.0 0.05111817279792434 -0.15921868872266706
