! Created with skrf (http://scikit-rf.org).
# Hz S RI R 50.0 
!freq ReS11 ImS11
400000000.0 0.20136075950646043 0.8494022597679735
420000000.0 0.6671317256072138 0.5422423128937417
440000000.0 0.7824832110232435 -0.26246987282159695
460000000.0 0.14646720668413196 -0.7743055667309109
480000000.0 0.5252687775936167 -0.47198275556395713
500000000.0 0.3409139948306502 -0.4481244335688428
520000000.0 0.3170277094694538 -0.36997300801197597
540000000.0 0.35764093752282683 0.23504646771676171
560000000.0 -0.16043865039645785 -0.3190078559876173
580000000.0 -0.2992013201108799 0.15819563830497205
600000000.0 0.32664621890362205 0.06072945175409177
620000000.0 -0.1946605781402558 -0.2916904544880385
640000000.0 -0.37241374203672606 -0.09453500025078146
660000000.0 -0.3077302383099502 0.2558095693286097
680000000.0 -0.21060669755822747 -0.37341491500994406
700000000.0 0.2819202206002577 0.34758667246938374
720000000.0 0.03791743637476657 -0.44865446541813747
740000000.0 0.40799446214056373 -0.16677137606557982
760000000.0 -0.3679417735539462 -0.19833867471846708
780000000.0 0.19056797024851313 -0.33615820052960405
800000000.0 0.08659460306511398 0.3388490644484963
820000000.0 0.14400267257058352 0.24872867726669967
840000000.0 0.19732404797321554 0.12153770445453402
860000000.0 0.07806755222147532 0.18182338415221652
880000000.0 -0.13522801022995398 0.002781112176273129
900000000.0 -0.053142791717572316 -0.04460693004293225
920000000.0 0.017727968683177175 -0.033003459559791344
940000000.0 0.019222556590685322 -0.02397263395458611
960000000.0 -0.03718865844836582 -0.01941413496996024
980000000.0 -0.0478517259247319 0.01876922152199785
1000000000.0 -0.03229762992999708 -0.04626749265389482
1020000000.0 -0.044433003520971695 -0.0563066698140929
1040000000.0 -0.018671040167214114 -0.0813844332190168
1060000000.0 0.10504362737186411 0.06460614076021413
1080000000.0 -0.017555445818156486 -0.13942680497051466
1100000000.0 -0.03085741944358275 -0.16537992062446458
1120000000.0 -0.1941455221556277 0.04132507004059076
1140000000.0 0.24152357775040553 -0.024514984623379317
1160000000.0 0.11346412982479172 -0.2638381864153174
1180000000.0 -0.25483484927637245 -0.21125948877489323
1200000000.0 -0.35830547230340287 -0.079678061381331
1220000000.0 -0.04502060949439528 -0.39403367654362303
1240000000.0 0.4050693687157185 0.10620667140360543
1260000000.0 -0.43305262396622063 0.07462569761929931
1280000000.0 0.4371728205722593 -0.10040281988582776
1300000000.0 -0.43382444186602154 -0.10953069320474139
1320000000.0 -0.09747349058052553 0.42280180780890003
1340000000.0 -0.36600869846113465 0.20239694212292347
1360000000.0 -0.1305434011803001 -0.38559294559189417
1380000000.0 0.2755539301269221 -0.2991104020443654
1400000000.0 0.2619930892558085 -0.29771069867268657
1420000000.0 0.2464130412731017 -0.2989864042354016
1440000000.0 0.015552802244092421 -0.3737902863883703
1460000000.0 -0.34100504138381 -0.10671033547974611
1480000000.0 0.1841796872935443 0.2832367721332308
1500000000.0 -0.23606692091019305 -0.2027953512780199
1520000000.0 0.050907139645228444 0.28122858546609913
1540000000.0 0.07409584307048085 0.24221136911897223
1560000000.0 0.21191067694888996 0.017848012705042004
1580000000.0 0.12458509110665557 -0.1260285534284906
1600000000.0 0.059024460935119115 0.1300014186979234
1620000000.0 -0.09841286898990023 -0.02197061157297717
1640000000.0 0.02221763182531715 0.06925207055547504
1660000000.0 0.04431297696764611 -0.011109318395259095
1680000000.0 0.011223628197866245 -0.011729032840199074
1700000000.0 0.011834631183604406 -0.00018594832236993984
1720000000.0 0.010612412664760276 0.02911193256405369
1740000000.0 0.029768934724376157 0.04129129386697195
1760000000.0 0.0020233284162707167 -0.06327105958578129
1780000000.0 0.021819500627185746 0.08007244026225442
1800000000.0 0.04086780815311462 -0.09904258943297523
1820000000.0 0.12037360741948425 -0.0036942275711242083
1840000000.0 -0.10948727361993059 0.09711319616366243
1860000000.0 -0.08618469897364313 -0.1501779988922958
1880000000.0 0.19663983700347598 -0.07823439588511315
1900000000.0 0.2468348306285348 -0.07259573701839811
1920000000.0 -0.26822147486100534 -0.14223151938623702
1940000000.0 0.13140345617136043 0.32361657720470177
1960000000.0 -0.10137928839702279 -0.3732636367598434
1980000000.0 0.1491293344383189 0.3862689924887568
2000000000.0 0.09569647154670552 -0.42574606392358566
2020000000.0 -0.17053715739302192 0.41549829264305604
2040000000.0 0.45111229337747305 0.006594698445942844
2060000000.0 -0.21125386799555093 -0.3934797430238375
2080000000.0 -0.40413357721210463 0.15095300108045223
2100000000.0 -0.32083002474290706 0.2632467196608324
2120000000.0 -0.3741887715322385 0.1356579662743343
2140000000.0 -0.36360069712930604 -0.11925969614404165
2160000000.0 0.33279711460961325 -0.16152890394232286
2180000000.0 0.35405213414103925 0.0630043933561504
2200000000.0 0.31030377484471233 0.16773837440291753
2220000000.0 0.3180191579313113 -0.15479038193147956
2240000000.0 -0.17440917463877528 -0.30612778346136765
2260000000.0 -0.3346934903927311 0.1212324968524716
2280000000.0 0.17738473345765562 0.31197318502161714
2300000000.0 0.2503083503951652 -0.2741839231753706
2320000000.0 -0.36002716595566886 -0.14725315235192363
2340000000.0 -0.166901764478121 0.38041888749559916
2360000000.0 0.44710774547264637 0.0599082795112831
2380000000.0 -0.3463932263427262 -0.35760447140303786
2400000000.0 0.1700378984466368 0.522268973610396
2420000000.0 -0.2918910761077102 -0.5280602695732112
2440000000.0 0.5977629900758311 0.267260216176824
2460000000.0 -0.6728853897093184 0.18254469115973962
2480000000.0 0.5011220742288567 -0.5315296454306431
2500000000.0 -0.4374905803095375 0.6113455753435413
2520000000.0 0.5301425342512085 -0.5498019277601325
2540000000.0 -0.7016743634716226 0.30686458155850305
2560000000.0 0.7193402224619831 0.24854920827355606
2580000000.0 -0.2876286922518796 -0.6880231075221668
2600000000.0 -0.3970159433716207 0.6030113187831995
2620000000.0 0.6904830531494676 -0.03893393761197888
2640000000.0 0.5987882097710767 -0.26457833274562115
2660000000.0 -0.5284029926598174 -0.3075162857162718
2680000000.0 0.10301852180055422 0.558416355321898
2700000000.0 0.2145689026678842 -0.4773783055700474
2720000000.0 -0.26477257078169636 0.39663454166406287
2740000000.0 0.24720824059042398 -0.35489726215438816
2760000000.0 -0.10524384594753612 0.3759953048720458
2780000000.0 -0.16527065917729056 -0.31558875815493204
2800000000.0 0.29193914751477607 0.1414429650035491
2820000000.0 -0.29691280804762776 0.05389690447638653
2840000000.0 0.27745040901359674 -0.07739030265021252
2860000000.0 -0.25704138323783604 0.1186256516647977
2880000000.0 0.2791211131336585 -0.053752662822321995
2900000000.0 -0.25029657661038207 -0.14691574622041223
2920000000.0 0.053166920522798373 0.29668114999424755
2940000000.0 0.17468236894961994 -0.25938568447018384
2960000000.0 -0.3086734859202007 -0.08527618588662061
2980000000.0 -0.2768437115654894 0.17319188356269027
3000000000.0 -0.25344927754726115 0.2071210139249324
3020000000.0 -0.32328405655468917 0.04240527024551557
3040000000.0 -0.028947962752898803 -0.3181429388488841
3060000000.0 0.2344147644418787 0.20505355437083705
3080000000.0 -0.2443715400500868 -0.17756172505788992
3100000000.0 0.14966743412528274 0.25152293112452373
3120000000.0 0.09792806257520272 -0.265375776969515
3140000000.0 -0.17426835932060591 0.21200574905329295
3160000000.0 0.2504081233807551 -0.0800724087378048
3180000000.0 0.028768080741399697 -0.2482569934559225
3200000000.0 0.18878622407536438 0.13942444057080713
3220000000.0 -0.004890206191485263 0.21312437833367553
3240000000.0 -0.05171185354887708 0.179000670049146
3260000000.0 -0.0596163950877775 0.1416774130218917
3280000000.0 0.06051151535112587 0.09974641672642205
3300000000.0 0.08042484815432686 -0.005050859179964555
3320000000.0 -0.03720812538824686 0.025164931675766118
3340000000.0 0.010382857743195285 -0.008270251098272558
3360000000.0 0.005021697037509063 -0.01084091541213441
3380000000.0 -0.01035626275497009 -0.022025140391434356
3400000000.0 -0.0295520081116368 -0.006622952701615105
3420000000.0 -0.002433220372083132 0.03102342144035513
3440000000.0 -0.029174883451284175 0.013554562500329208
3460000000.0 0.036037516861123005 0.02332830087564498
3480000000.0 0.03579173321876283 -0.05221892157068531
3500000000.0 -0.00460329690691657 0.08708425184498896
3520000000.0 0.06707922786880467 0.08659785968687224
3540000000.0 0.08921849852061618 -0.0873473002433596
3560000000.0 -0.008304450011782583 -0.13517403894107005
3580000000.0 0.1264541172793972 0.06837266488542007
3600000000.0 -0.09585097159790332 0.12004217277882065
3620000000.0 -0.003060132515606558 -0.1608941141914469
3640000000.0 -0.09851160331432325 0.1360597893785541
3660000000.0 0.0017074437721335523 -0.1790950821310424
3680000000.0 0.1519704141680082 0.11053019605144845
3700000000.0 0.04413476305624428 0.18890017484851643
3720000000.0 -0.018515464510386718 0.19797600693589917
3740000000.0 0.14705136894913795 0.13378309007888012
3760000000.0 -0.05000093244691684 0.185813568713614
3780000000.0 -0.17543426543976862 -0.0425084406053026
3800000000.0 0.1608078853783309 0.029715551271797237
3820000000.0 0.13858543101424164 0.05401711217954956
3840000000.0 -0.11737214279883051 -0.06869021835165194
3860000000.0 -0.13327089104076345 0.030844709242482716
3880000000.0 0.12645116639105872 -0.08018685016658954
3900000000.0 -0.10143151410693005 -0.12669143576398634
3920000000.0 0.17309422700673874 -0.020064723692098628
3940000000.0 0.18038553599441623 0.02319063242768445
3960000000.0 0.02877417491241264 -0.18273563110905713
3980000000.0 -0.1779478887977868 -0.027233120935662877
4000000000.0 0.1572724957065907 0.051150082889619065
