! Created with skrf (http://scikit-rf.org).
# Hz S RI R 50.0 
!freq ReS11 ImS11
400000000.0 -0.8050049161409345 0.3063680448416801
420000000.0 0.14552028187071794 0.8526488426059398
440000000.0 0.8256758360998572 -0.14043765082944398
460000000.0 0.3108659979636185 -0.7250753008066245
480000000.0 0.594340231199439 -0.41555173147306695
500000000.0 -0.4894531830568402 -0.279614700933974
520000000.0 -0.465230889693801 -0.15367867974086366
540000000.0 0.05484229310028807 -0.4071949556846154
560000000.0 -0.3172653139471973 -0.18773940613896226
580000000.0 0.11291792414780297 -0.2986812385582716
600000000.0 0.06584414743845386 -0.3216008252235904
620000000.0 0.3325622932808039 -0.014767824682200576
640000000.0 -0.34004245320135434 0.07891784130450591
660000000.0 -0.3184287782058761 0.2144700280454627
680000000.0 0.13018639391298878 -0.3839210525992646
700000000.0 -0.40908749494026764 0.1607100541111377
720000000.0 0.049047261228211694 0.4390712164553909
740000000.0 -0.3223123391531654 0.3211344489011281
760000000.0 -0.2507987988014606 -0.3560102080834811
780000000.0 0.3952555509385234 -0.06493424802427826
800000000.0 0.20530518479620466 0.297510548451506
820000000.0 0.03569970148605315 0.2938499284400945
840000000.0 -0.002280742355108235 -0.24485408040738513
860000000.0 0.17189415511049852 0.08678126853297839
880000000.0 0.09615929660384673 -0.11251215882877286
900000000.0 -0.06817299543986943 -0.0034830695268394506
920000000.0 0.02633410243537638 -0.02244543319998497
940000000.0 -0.03610905518096257 -0.015369748182086506
960000000.0 0.04542662106086049 0.02039885177086264
980000000.0 -0.044246903154344604 -0.033502303068726154
1000000000.0 0.05519071090845758 -0.03128703658877352
1020000000.0 0.06385722835571765 -0.03220426082702279
1040000000.0 -0.05523819738030219 0.062422414324302
1060000000.0 0.08769455918423344 0.07931645909234124
1080000000.0 0.13543923265121527 -0.0376111542677562
1100000000.0 -0.05212094826559151 -0.156378197669844
1120000000.0 -0.18454722477933314 -0.0732516429383955
1140000000.0 0.16156278339869917 -0.1815041159180776
1160000000.0 -0.10513986029596997 -0.26423633821903514
1180000000.0 -0.2267925106463833 0.2374995443650373
1200000000.0 -0.35200633167871265 0.07359010158423333
1220000000.0 -0.28107314396852295 -0.27605788382314944
1240000000.0 0.4048110653473787 0.08516836137797656
1260000000.0 -0.4200295374577435 0.12470856011250704
1280000000.0 0.4392517716443624 -0.05948345078330692
1300000000.0 -0.2717819542325238 -0.3540741697892289
1320000000.0 -0.3745022193492887 0.2182916480322694
1340000000.0 -0.34156773402673846 -0.2527062578245734
1360000000.0 -0.008124447752770294 -0.4206183517263668
1380000000.0 0.104518380440869 -0.40714892705588607
1400000000.0 -0.3509070443061925 -0.2049565119856576
1420000000.0 -0.39131438542026326 -0.03174828095374547
1440000000.0 -0.07313231871220055 0.3645525834879704
1460000000.0 0.07580716940659236 0.3372829489665176
1480000000.0 0.3241917013122545 -0.0008377182969546022
1500000000.0 -0.011888622129036446 -0.29811580809460336
1520000000.0 -0.26578575307975905 -0.05518526020591107
1540000000.0 0.09068066190023125 -0.2314833608514539
1560000000.0 0.04942531159467683 -0.20995599442427498
1580000000.0 -0.10763164952671582 -0.14871076422369633
1600000000.0 0.14326989575274912 0.04797739162754588
1620000000.0 -0.08210723327905377 0.08022633266726129
1640000000.0 0.013335576011490812 0.08459310298535977
1660000000.0 -0.025619806667170092 -0.05442574178322876
1680000000.0 0.023867133380675636 0.01878835194382495
1700000000.0 -0.010348044289484718 0.004751317626215939
1720000000.0 0.021805774488012332 0.004024211025458721
1740000000.0 -0.041897272806437895 -0.011484817883391283
1760000000.0 0.021646880400224916 0.05857891570431042
1780000000.0 0.01656665307227829 -0.08321419068554434
1800000000.0 0.08759235801288269 0.07696545083462922
1820000000.0 -0.09109676501823774 -0.10623270905101312
1840000000.0 -0.15773260408412879 0.04810090933151974
1860000000.0 0.08287257309239154 0.17211315789444523
1880000000.0 0.010626654902430928 0.2198371857963585
1900000000.0 -0.11086237420514757 0.23236156122538765
1920000000.0 0.25388045057546005 0.15132163612863156
1940000000.0 0.30033253259347703 -0.14684040666920853
1960000000.0 -0.32913254830142363 -0.17228048300190274
1980000000.0 0.10319033223513883 0.3850713309229453
2000000000.0 0.4020711742343429 -0.13202960859449145
2020000000.0 -0.3191365735574701 -0.3074930431131355
2040000000.0 -0.10103093300831635 0.441534032902932
2060000000.0 0.44298872376912246 -0.09836832142584909
2080000000.0 -0.29341841951461994 -0.34082090662459524
2100000000.0 -0.25519873731515824 0.3543127190587699
2120000000.0 -0.03908640711063653 0.4157800416332564
2140000000.0 -0.39282582023430607 0.061233161296149086
2160000000.0 -0.37759370850256124 -0.015850906329421915
2180000000.0 -0.2515655465254616 -0.2617838182393302
2200000000.0 -0.07602714847685385 -0.34125614863740483
2220000000.0 0.2034771304176511 -0.28138242193115887
2240000000.0 -0.034822425146394914 -0.347551985656906
2260000000.0 -0.284056005826099 -0.21692036208430815
2280000000.0 -0.12124031456128093 0.34561735416986705
2300000000.0 0.3819360035196817 -0.0002456476985473073
2320000000.0 -0.32933742591765797 -0.23441405049058442
2340000000.0 -0.033609844239278285 0.43134326517750043
2360000000.0 0.15023070637768368 -0.44269846005503305
2380000000.0 -0.42292466437082005 0.28726631645636297
2400000000.0 0.4645885394638484 -0.3122047573643042
2420000000.0 -0.3757060602683764 0.4800735728101134
2440000000.0 -0.025805453215722866 -0.6560745700337928
2460000000.0 0.43970466461982316 0.5380833421572329
2480000000.0 -0.6839790457135038 -0.23846482149077375
2500000000.0 0.7023860063310166 0.24522038905986338
2520000000.0 -0.6769380063111342 -0.3309544576614528
2540000000.0 0.4726615460555651 0.5879583165604256
2560000000.0 0.08058913312247575 -0.7432816561092878
2580000000.0 -0.627581414546306 0.37732431898056157
2600000000.0 0.6693721183783513 0.23002702290778493
2620000000.0 -0.17152532041076826 -0.6550686623443954
2640000000.0 -0.3950971277810733 -0.5036510582045165
2660000000.0 -0.27813871836909504 0.5268337689550466
2680000000.0 0.5407945633927997 0.10901612651820972
2700000000.0 -0.14775761694410927 -0.4862345215814692
2720000000.0 -0.11938048860907433 0.4496064617815529
2740000000.0 0.3428436194140224 -0.2516700908403686
2760000000.0 -0.3128674050392137 0.22937216735823768
2780000000.0 0.1519729251288727 -0.3218340434659704
2800000000.0 0.09019922621722308 0.3155845039365574
2820000000.0 -0.30480514958806393 -0.032404924450744554
2840000000.0 0.20963132447046282 -0.20195281228807008
2860000000.0 -0.08153854988463247 0.2706574239402419
2880000000.0 0.010540822142014567 -0.2781415211499059
2900000000.0 -0.169352081967718 0.21955865610269676
2920000000.0 0.2060149746916371 0.19446422752185755
2940000000.0 0.193892051940566 -0.2176732877432784
2960000000.0 -0.02252038802036205 -0.29948723746535444
2980000000.0 -0.23527287477105435 -0.2008322539673901
3000000000.0 -0.24730409642173298 -0.1958507733569556
3020000000.0 -0.17749071039033934 -0.26336608228015634
3040000000.0 0.15542035213489167 -0.27274478901605625
3060000000.0 0.24174687190717406 0.1970034292111911
3080000000.0 -0.30359526640767703 -0.021136203295076712
3100000000.0 0.25388466990803804 -0.15187934133503653
3120000000.0 -0.2289398716030571 0.16677215729312678
3140000000.0 0.1159536873450801 -0.24325432070354316
3160000000.0 -0.22288880473119677 0.11768174930537716
3180000000.0 -0.025577037661182193 0.23486121331592374
3200000000.0 0.05759097385282362 -0.2084314242791841
3220000000.0 -0.09233759089838474 0.17406058141216918
3240000000.0 -0.029685020117430717 -0.17206631808141826
3260000000.0 0.1499373689842029 0.006389765016590826
3280000000.0 0.11016995383627545 0.052730650392699197
3300000000.0 0.0037578956442530062 -0.09200524536783246
3320000000.0 0.06012675563290922 -0.005778112244942349
3340000000.0 0.027449997730666913 -0.015182348451703733
3360000000.0 0.008058958564329774 0.012928604816977407
3380000000.0 0.02387768556880439 0.008892218836026318
3400000000.0 0.033146398489900544 -0.017952113288491774
3420000000.0 0.013439582634357114 -0.044491669174679935
3440000000.0 -0.031663345067244206 0.033658594622544856
3460000000.0 0.015520911904944427 0.03881687472648341
3480000000.0 0.0464256156979606 0.005650289244517795
3500000000.0 -0.04926996036813569 -0.04296117864771975
3520000000.0 -0.033068734652795896 0.08607477523629486
3540000000.0 0.0074982717656166195 0.11563471570052677
3560000000.0 0.1359014958184152 -0.0013058061897747778
3580000000.0 0.14184949983164324 -0.04694971500145599
3600000000.0 0.06886797671613318 -0.1505001295829144
3620000000.0 -0.10419802141449462 -0.1358321222894589
3640000000.0 0.002264374797409034 -0.1751513787712801
3660000000.0 0.17694902196597012 -0.002415015749001753
3680000000.0 -0.1597356356910034 0.0783857266222304
3700000000.0 0.1407501355279707 -0.10729639263860345
3720000000.0 -0.17658958194870725 0.03465479885782169
3740000000.0 -0.05188174056621085 -0.1760878833265096
3760000000.0 0.11434348147348973 0.14583696958842812
3780000000.0 -0.16614076833007377 0.07772961033675607
3800000000.0 -0.08622161681496601 -0.1528005159515854
3820000000.0 0.13338987263660745 0.09538492193167782
3840000000.0 0.1478795553544217 0.009568996644936774
3860000000.0 -0.13252167989471994 0.03901042104932207
3880000000.0 0.1163517375392398 0.07619776715431718
3900000000.0 -0.14511005215733513 0.016859616520303933
3920000000.0 -0.15360207412723237 -0.039028183378410845
3940000000.0 0.08092695715069291 -0.15594810361250758
3960000000.0 -0.1566000530190988 -0.10356178883810013
3980000000.0 0.16977201287217197 -0.08584548356038374
4000000000.0 -0.14105928746404028 0.11169790179135938
