! Created with skrf (http://scikit-rf.org).
# Hz S RI R 50.0 
!freq ReS11 ImS11
400000000.0 0.2640071184366357 0.8309064198365578
420000000.0 0.6206729771180304 0.5936756394895577
440000000.0 0.7784805910811172 -0.2671547020675627
460000000.0 0.11862126067275217 -0.7771884286202136
480000000.0 0.6638996154867578 -0.22397592781793743
500000000.0 0.5486323806422206 -0.13313089008193368
520000000.0 0.35821427704227576 -0.3439132679412665
540000000.0 0.3371382662211648 0.26757534820375994
560000000.0 -0.2782890785332083 -0.23395764323857565
580000000.0 -0.32256276684726726 0.11272290987443416
600000000.0 0.3237771776652749 -0.10385399596095211
620000000.0 -0.34117875413318755 -0.09737067300827953
640000000.0 -0.2961888637766291 0.2459497937644938
660000000.0 0.05493197559042016 0.3952833916995912
680000000.0 -0.3463685620701986 -0.24490603659077828
700000000.0 0.3720990779867409 0.2402902693067869
720000000.0 0.21345964002045736 -0.3930633037256943
740000000.0 0.4242678726226876 -0.11376270310360082
760000000.0 -0.3892641284116204 -0.15309382438023855
780000000.0 0.07824962515114989 -0.3774287922181985
800000000.0 0.1801760311974298 0.29695868290504734
820000000.0 0.15623337911191063 0.23776406501151057
840000000.0 0.06829416822971762 0.2181604512753196
860000000.0 -0.15206367220406444 0.12027260898354851
880000000.0 0.12048491476404671 0.050032423943770075
900000000.0 0.06847309067253905 -0.020828802782224744
920000000.0 0.013533575930960088 0.03937335952769957
940000000.0 -0.001522172039173076 -0.02724750841834731
960000000.0 -0.027933919131120304 0.021950526630693724
980000000.0 -0.002164164500630816 -0.05137678391927983
1000000000.0 -0.04131327580415897 -0.041583754417414485
1020000000.0 0.04348525091264664 0.059771537328939486
1040000000.0 0.01486084132024279 0.08564446656198356
1060000000.0 -0.12670969517585726 -0.008470876075169952
1080000000.0 0.1394035344117809 -0.04896826624832272
1100000000.0 -0.028828742301475866 -0.17629350371775215
1120000000.0 -0.006460301870057561 0.20889257067959524
1140000000.0 -0.09471189684756799 -0.23076959193505048
1160000000.0 -0.2587673621786513 0.132940132363165
1180000000.0 -0.03820536366510686 0.32806068739137556
1200000000.0 -0.03705991407996834 0.3592099150069271
1220000000.0 -0.35380892612917586 -0.15625871950218695
1240000000.0 0.40738631208871856 -0.006532939855222231
1260000000.0 -0.413567692930693 -0.1163965160325401
1280000000.0 0.37310613900317796 0.23433162348618172
1300000000.0 -0.06153663187319175 -0.43935086576378013
1320000000.0 -0.4346541505454015 0.005976640129007174
1340000000.0 -0.3296232108532192 -0.26477218251718554
1360000000.0 0.1590248069912751 -0.38307825107751015
1380000000.0 0.3458946970603271 -0.2293139583863444
1400000000.0 0.24272873878818005 -0.3252221614214741
1420000000.0 -0.11564977592850696 -0.3782721123121267
1440000000.0 -0.3636900591365413 -0.10473876494339963
1460000000.0 -0.07343064127429949 0.3511839021939115
1480000000.0 0.27911552073589274 -0.18550882821028072
1500000000.0 -0.2556725603420292 0.16728272309192735
1520000000.0 0.2751582798980961 -0.030332451828700216
1540000000.0 0.24036453711316433 0.03152331688407317
1560000000.0 0.2004949408084898 0.001767531088992983
1580000000.0 0.13305315310375151 0.09674761231423588
1600000000.0 0.03100627158235425 -0.12577525293348013
1620000000.0 0.09256287243010236 0.004035929682111495
1640000000.0 -0.0510488288531511 -0.049429096105845644
1660000000.0 -0.03550115381195809 0.03042556747032097
1680000000.0 -0.020964797939333965 -0.013343508350562649
1700000000.0 -0.0023539557717466683 -0.011562635872771924
1720000000.0 0.007894650122831486 0.008969213217108151
1740000000.0 -0.028194929415821857 -0.003544439670902771
1760000000.0 0.024305520749929626 -0.036211604082708106
1780000000.0 -0.017201506761661132 -0.06824186257802423
1800000000.0 0.01430128391625429 0.09868751404653187
1820000000.0 -0.09892135496010594 0.07452959746536145
1840000000.0 0.03853256427651625 0.1536315673940187
1860000000.0 0.18275349917922737 0.05136539143086456
1880000000.0 0.17407041469757534 -0.14838299298644128
1900000000.0 -0.17336863160168692 -0.2098563476240509
1920000000.0 0.12281333798646589 0.2871176182648933
1940000000.0 0.1124786855752596 -0.33256111316600534
1960000000.0 -0.2864873486185334 0.25472360514806336
1980000000.0 0.37505927619398644 -0.15825208504478802
2000000000.0 -0.3206476468006034 -0.2785944136258365
2020000000.0 -0.08155882725022552 0.42749550382182877
2040000000.0 0.41977503597840143 0.12436220515192369
2060000000.0 0.2370830036065361 -0.3649832127342209
2080000000.0 -0.10501998086076832 -0.4122934710748365
2100000000.0 -0.1358745953410589 -0.39377613358242464
2120000000.0 -0.1272964328593225 -0.3861816158841732
2140000000.0 -0.16977082826930787 -0.35824222177342424
2160000000.0 0.27513530435375183 -0.2669414120527806
2180000000.0 0.10427648349519616 -0.35591415566373646
2200000000.0 -0.04804588285121726 -0.35716931047470774
2220000000.0 -0.34389064005886155 -0.08045739182893336
2240000000.0 -0.20529835382634543 0.28148835269727257
2260000000.0 0.11885289432183695 0.32623761064944246
2280000000.0 0.31977048331164243 0.14151137493505656
2300000000.0 0.23718460762883245 -0.2734665774324807
2320000000.0 -0.2164143153949215 -0.31708629760117185
2340000000.0 -0.35645523546127733 0.21307234315396498
2360000000.0 0.3871221001115909 0.24058652466128927
2380000000.0 -0.34421616436061736 -0.36790607258124347
2400000000.0 0.32807841656836434 0.4482997199390522
2420000000.0 -0.5217679583570944 -0.3127449386858717
2440000000.0 0.6502188178626187 -0.09492141542960578
2460000000.0 -0.4792794408695258 0.5075025809814143
2480000000.0 0.17680088407091032 -0.7075635468163547
2500000000.0 -0.11241058481253072 0.7412582502237086
2520000000.0 0.25871255783590896 -0.7152654727440102
2540000000.0 -0.5329708387350386 0.5465102515309407
2560000000.0 0.754850816439514 -0.06094831188656672
2580000000.0 -0.46250299538731837 -0.5810432480948212
2600000000.0 -0.12216452780389839 0.7074325815209732
2620000000.0 0.5827604974418484 -0.3648300403691245
2640000000.0 0.36310909164546196 -0.5398931643610007
2660000000.0 -0.5967458722193396 0.1089328261517948
2680000000.0 0.40303244813292244 0.38857574867951294
2700000000.0 -0.10950802466707373 -0.5011742281321426
2720000000.0 -0.15720094721367536 0.4368805525034848
2740000000.0 0.3331869994986001 -0.2553729174111218
2760000000.0 -0.3717913972299573 0.07879099698889751
2780000000.0 0.3250177674502457 -0.1294554680461505
2800000000.0 -0.22111202293659118 0.23867459874101185
2820000000.0 -0.0769914335412099 -0.2986098925118353
2840000000.0 0.28241798227553677 0.0940800542468911
2860000000.0 -0.1906471861045347 0.22468285235024607
2880000000.0 -0.14421946240380978 -0.25603872815402784
2900000000.0 0.19058043388287982 0.22536023745917538
2920000000.0 0.018848787474263325 -0.29927803172841816
2940000000.0 -0.3007280433922923 0.05718845370872482
2960000000.0 -0.07647852012384135 0.2975602625232834
2980000000.0 -0.19041416334705505 0.24610925187799584
3000000000.0 -0.3132633589030608 -0.028822253141301324
3020000000.0 -0.02684319460859852 -0.3156984713635307
3040000000.0 0.2542044695989135 0.18728927219907046
3060000000.0 -0.3116522229234793 0.03160715044193227
3080000000.0 0.2381927509891642 -0.19690866431020823
3100000000.0 -0.0737914832911634 0.29390351615331584
3120000000.0 0.013611684727143842 -0.29434691798499735
3140000000.0 0.15911324440396668 0.23475430145877818
3160000000.0 -0.2410015285949517 -0.11710456100531345
3180000000.0 -0.04621357813983321 0.2447294932895697
3200000000.0 -0.1810412429440761 -0.1362973043757446
3220000000.0 0.17483245610094506 -0.09457393219176782
3240000000.0 -0.023798870270945183 0.16808256560540305
3260000000.0 0.07099887028089309 -0.1179814988163697
3280000000.0 -0.09297537893462564 0.05398119353545311
3300000000.0 0.07536150837663254 0.02606255964620389
3320000000.0 -0.016017128918348014 -0.049690607882450784
3340000000.0 -0.008909923031210612 0.02574771670999673
3360000000.0 -0.0037290848316298636 0.004961880640894677
3380000000.0 -0.010453293726359909 0.001633124533022555
3400000000.0 0.005272247448541613 -0.024375206833864647
3420000000.0 -0.0072849920691652826 0.038025879602139386
3440000000.0 0.04879844738393587 -0.0076110218216260015
3460000000.0 0.05402118460627875 -0.014901454448553567
3480000000.0 -0.05494166762397632 0.03596522989341884
3500000000.0 -0.07926839866458688 -0.0005470308817409959
3520000000.0 -0.08027477612289236 0.05022493065060885
3540000000.0 0.10501929366786884 -0.0342970676355302
3560000000.0 -0.07007551789890092 0.10324438252846127
3580000000.0 0.069193870161288 -0.12015982311462822
3600000000.0 0.11728561763099175 0.10532880130528735
3620000000.0 0.10960823687490742 0.12976227311076385
3640000000.0 -0.09337407801720843 0.15374253209696348
3660000000.0 -0.17066868245720945 0.084109838323272
3680000000.0 -0.1808349510647988 -0.07239931482584253
3700000000.0 -0.12812217986847171 -0.14635054369110442
3720000000.0 0.07445191482097392 -0.1778986753685065
3740000000.0 0.13387324372900217 -0.13205629214817793
3760000000.0 -0.1239014353941484 0.1316575066150538
3780000000.0 0.15836867275997427 -0.06413611712126478
3800000000.0 -0.03112718865059775 -0.15844855362381474
3820000000.0 -0.05187530003959568 -0.14584438070443184
3840000000.0 0.10100563561506773 -0.11000234620921842
3860000000.0 0.043745849528515894 0.14422182297514485
3880000000.0 0.12651814262612104 0.09518073026703251
3900000000.0 0.015423742733418132 -0.1607441690575619
3920000000.0 -0.12135112333833384 0.11227105011866359
3940000000.0 0.05131092883930973 -0.16094258123154212
3960000000.0 0.17219052980286326 -0.005121873022063728
3980000000.0 0.15519235988022093 -0.0741018465347154
4000000000.0 0.1478717904863687 -0.07480164384474022
