! Created with skrf (http://scikit-rf.org).
# Hz S RI R 50.0 
!freq ReS11 ImS11
400000000.0 -0.6302915623031601 0.5806427852498395
420000000.0 -0.09633615328516197 0.8607928003224614
440000000.0 0.8384570728044306 0.03605792614902328
460000000.0 0.09388273552854637 -0.7947741071264193
480000000.0 0.1498842736201106 -0.713882278851908
500000000.0 -0.374238046388593 0.4243253079155099
520000000.0 -0.47471521143234485 -0.027704161506268993
540000000.0 0.41273785534638613 0.05500577453040275
560000000.0 -0.2687855029051971 -0.22872424493605242
580000000.0 0.3083747064240776 0.12085355196282563
600000000.0 0.010699714415075218 -0.32604809926258876
620000000.0 -0.13522761494132643 0.3106213107716801
640000000.0 -0.24322986424719553 0.2707274397591345
660000000.0 -0.294800629554241 0.24228010410303827
680000000.0 -0.0781859029541831 -0.403096870598138
700000000.0 -0.42087252920719814 0.10007218950333274
720000000.0 0.05720082765943529 0.4395320989627052
740000000.0 -0.2418905063320636 0.3742154848938261
760000000.0 0.1640892909386639 -0.396208590472846
780000000.0 0.38021983825547495 -0.12061185809262057
800000000.0 0.14933594857081986 0.3305377123754717
820000000.0 0.29631942435398856 0.05983036470268715
840000000.0 -0.23930566627826322 0.014811393253142473
860000000.0 0.18840776722953814 0.018192191799597874
880000000.0 0.10310770557962559 0.10044704083187452
900000000.0 -0.05588556664376849 0.03976282652136154
920000000.0 -0.031691278459024974 0.018340223988397943
940000000.0 -0.022207128834554273 0.014943988377209776
960000000.0 0.000738408692827878 -0.038244648227898775
980000000.0 -0.02236039452838068 -0.04954555442559947
1000000000.0 -0.054007609390914896 0.028990705752702385
1020000000.0 -0.053170248756302864 -0.05789622616458672
1040000000.0 -0.08706209877396043 -0.021578332326691436
1060000000.0 0.1296283117964719 -0.019510380116806145
1080000000.0 -0.13742184607401264 0.060996954830634775
1100000000.0 0.0004378717453810808 0.1778082743876876
1120000000.0 0.17686836479175522 -0.09822952455598476
1140000000.0 -0.17922537910091824 -0.1622733252120055
1160000000.0 -0.2585681458882325 0.11314191399472824
1180000000.0 -0.21429158636926135 0.2392413430466672
1200000000.0 -0.2612792852144944 0.23997006924625108
1220000000.0 -0.19595677630168776 -0.3289838071485572
1240000000.0 0.3742696948296946 0.15743532433808888
1260000000.0 -0.36533689478191117 -0.22211514272402777
1280000000.0 0.2424419909973409 0.36691372927315
1300000000.0 0.13053038874564152 -0.42570592151408887
1320000000.0 -0.3888158034702477 -0.20299078710446947
1340000000.0 -0.23093694294291328 -0.36619425079323403
1360000000.0 0.0933013478128841 -0.4180406606736467
1380000000.0 -0.19466915540895655 -0.38277388534411916
1400000000.0 -0.3347174289574046 0.24632166830343474
1420000000.0 0.015904882293667464 0.39580710363295346
1440000000.0 0.3311694779868281 0.16163099729044925
1460000000.0 0.3193127305963985 0.1141369617046513
1480000000.0 0.3126675881450657 0.034771148988938363
1500000000.0 0.2174076620248565 -0.19274120310927195
1520000000.0 -0.2684431439401521 0.020027359004834537
1540000000.0 0.22454593028890638 0.10233608979016978
1560000000.0 0.19843736224333608 0.08716777553792848
1580000000.0 0.14709267327118306 -0.11679680314931859
1600000000.0 0.08390396019613233 0.12665618794226238
1620000000.0 -0.10934749049051237 -0.027162024017453323
1640000000.0 -0.02604286507404863 0.07968723246977329
1660000000.0 0.03863073430757316 0.04300449360709251
1680000000.0 0.017618409040277744 0.022586974104523528
1700000000.0 0.0074267488004006 0.006725469093369137
1720000000.0 -0.012585201919135128 -0.010654752021505844
1740000000.0 -0.010850397259259237 0.034240447661298364
1760000000.0 0.036427158456239936 0.04089831785038529
1780000000.0 -0.08075568778350557 0.007894524333415786
1800000000.0 -0.11287023848099777 -0.002979798517978389
1820000000.0 0.13276478082017487 0.03684177512558658
1840000000.0 -0.09118406268480149 -0.14199601266945672
1860000000.0 -0.13927250620477857 0.14060242716993931
1880000000.0 0.0914350023074714 0.21198756512367228
1900000000.0 0.26277838534714504 -0.042962383608975606
1920000000.0 -0.046005324865625065 -0.2975500646826631
1940000000.0 -0.3004067897902487 -0.14668213797664084
1960000000.0 -0.2709706575790877 0.24971963415424603
1980000000.0 0.3132332893814689 0.2392159058615896
2000000000.0 0.3902059615322601 -0.1538673352059358
2020000000.0 -0.29729739840039054 -0.32613557214737376
2040000000.0 -0.1919642353956077 0.41081455265572875
2060000000.0 0.44771898279735295 -0.08246998098328001
2080000000.0 -0.24205096217759517 -0.37767725833384697
2100000000.0 -0.40360663004408676 0.1660037989580416
2120000000.0 -0.27578419849650365 0.31414821765560264
2140000000.0 -0.31915020766983776 -0.24155294992006326
2160000000.0 -0.3519006299362266 -0.15113004826800364
2180000000.0 -0.22857355501566504 -0.28589646545275554
2200000000.0 -0.22797161413145026 -0.27108539183500036
2220000000.0 -0.07760159079617096 -0.33800999420769023
2240000000.0 -0.32206311647547 -0.13480899863915902
2260000000.0 -0.3155793082572191 0.16052382040175922
2280000000.0 0.15492273505625842 0.32871075221873014
2300000000.0 0.1610321966173579 -0.3417222432598526
2320000000.0 -0.37964780800196835 0.12991663645521476
2340000000.0 0.3455659031011001 0.2558948798199011
2360000000.0 -0.24813886301459234 -0.3974975396522919
2380000000.0 0.16596444090997756 0.4850961846731973
2400000000.0 -0.22872037195680062 -0.5131797332008999
2420000000.0 0.4505372125197576 0.41259198616280496
2440000000.0 -0.652514720419188 -0.07405408360674655
2460000000.0 0.6236820275469347 -0.3035527823816682
2480000000.0 -0.5047543522045044 0.5156715427279112
2500000000.0 0.5398263939623308 -0.5047205627740672
2520000000.0 -0.6884658860021261 0.2909159978464136
2540000000.0 0.7261101908637434 0.17635876435407816
2560000000.0 -0.30925374424006713 -0.6716238672983075
2580000000.0 -0.513230725905433 0.5089600352715252
2600000000.0 0.6709640283451039 0.1893558335302007
2620000000.0 -0.1185612225078041 -0.6550694809979785
2640000000.0 -0.2932684765268451 -0.5553884530447611
2660000000.0 -0.3786455169947532 0.4445229268953964
2680000000.0 0.5022227705046352 0.19730631824059836
2700000000.0 -0.13032793732817466 -0.47755203592858414
2720000000.0 -0.1539458204369506 0.42195951569815215
2740000000.0 0.36985957942108916 -0.16938775607876128
2760000000.0 -0.3686667912487527 0.021447086190627983
2780000000.0 0.34000505211192483 -0.01156136145819437
2800000000.0 -0.25680388576585206 0.18612412295324834
2820000000.0 -0.03909783087373713 -0.2977940249454691
2840000000.0 0.2669394265858244 0.11266186770891995
2860000000.0 -0.24371040267836072 0.1492367170988931
2880000000.0 -0.02028972371698752 -0.2832413216613256
2900000000.0 0.00831761396690028 0.28541482988781763
2920000000.0 0.23307570371827255 -0.1724199597568654
2940000000.0 -0.20182895757114355 -0.21531863689065248
2960000000.0 -0.29863609497180416 0.0016724771619519845
2980000000.0 -0.30123776769722 -0.039957792786997036
3000000000.0 -0.20734980942272296 -0.22897774123660286
3020000000.0 0.05712339289860899 -0.30479421533709133
3040000000.0 0.28834995504239036 0.10837602602526052
3060000000.0 -0.2772438614712437 0.1283400202604715
3080000000.0 0.15759017208246057 -0.2558656208547851
3100000000.0 0.011650228661459703 0.29382379824264926
3120000000.0 -0.1418046328796078 -0.24671677947306447
3140000000.0 0.2119800053430863 0.1723219523168367
3160000000.0 -0.23807525024691356 -0.0993862498331328
3180000000.0 0.0052862738362810646 0.2412804974943164
3200000000.0 -0.19524438402417463 -0.10070445457863614
3220000000.0 0.14483663964309848 -0.1307872721252503
3240000000.0 -0.0020212590018326196 0.16743798713991687
3260000000.0 -0.07632789035431199 -0.11492767994959362
3280000000.0 0.08758203944593569 0.0642915138689512
3300000000.0 -0.027011182724526066 0.0778511040906438
3320000000.0 -0.0399593478444859 0.03465926564357102
3340000000.0 0.015437609240145655 0.022828891367484536
3360000000.0 0.005442361986347157 -0.00512669960707358
3380000000.0 -0.014171285426243614 -0.0009566876524724012
3400000000.0 -0.024494036499211388 0.010247244126977965
3420000000.0 -0.03528150657862743 0.010898981879814454
3440000000.0 -0.0409883517811871 -0.008747352605235079
3460000000.0 0.030331197578655 0.036422899700222396
3480000000.0 0.030731191391674312 0.047600779383907395
3500000000.0 -0.06441124993740527 -0.03249475200608332
3520000000.0 -0.010817648022620282 0.09128758034252492
3540000000.0 -0.10715218040917893 0.012710953828739052
3560000000.0 -0.07388454120574352 -0.09785205929344526
3580000000.0 0.13095926063993424 -0.03804406297000353
3600000000.0 0.07534698898308434 0.13282988499505358
3620000000.0 0.033850538272774636 0.15908410017593896
3640000000.0 -0.17388438743474838 -0.010460014073893823
3660000000.0 -0.16571466895623815 -0.07915155376570866
3680000000.0 -0.03671855881978674 -0.18466390142839847
3700000000.0 0.07091455948196719 -0.1752797531395991
3720000000.0 0.1540353820380017 -0.10781845937355485
3740000000.0 0.18197690874770284 0.003697950881319174
3760000000.0 -0.17471143257044916 0.02004783361548468
3780000000.0 0.16539826473266536 0.009746581241531835
3800000000.0 0.07482344390382843 -0.13881422308401764
3820000000.0 0.005109556468623177 -0.15111861887943764
3840000000.0 0.09310556015402384 -0.11310097922640418
3860000000.0 0.1377088650278318 0.05154255181108835
3880000000.0 0.14270453327512264 0.050578508899876806
3900000000.0 0.04397118653249203 -0.14800825265447248
3920000000.0 -0.14409912318939447 0.06588195444289055
3940000000.0 0.13779649141573752 -0.08877365312299353
3960000000.0 0.1645861991521824 0.03948061966620932
3980000000.0 0.16251894399295955 -0.05647792422159887
4000000000.0 0.07043778362992506 -0.15161694528347022
