! Created with skrf (http://scikit-rf.org).
# Hz S RI R 50.0 
!freq ReS11 ImS11
400000000.0 0.23635728113505064 0.8400146021038055
420000000.0 0.6649725196487718 0.5447190503224579
440000000.0 0.7733965486387927 -0.2823623643157949
460000000.0 0.2207214194207898 -0.7551330571172943
480000000.0 0.6657260469072974 -0.22248671231800546
500000000.0 0.5585025568860206 -0.08839494563679208
520000000.0 0.4260520047233431 -0.25010743608602815
540000000.0 0.34886383480483113 0.25647740475926434
560000000.0 -0.2953948452780207 -0.20992120883032866
580000000.0 -0.2506764558318713 0.23377392753368992
600000000.0 0.3345069978093595 -0.055951092803980806
620000000.0 -0.34680742104114665 -0.07735316261770868
640000000.0 -0.31393020039674013 0.22458116173425802
660000000.0 -0.051135312787424635 0.3960660462453049
680000000.0 -0.36512057401027426 -0.21686183763701722
700000000.0 0.30529770368374615 0.3208444675261485
720000000.0 0.17872922073116496 -0.40934882097525194
740000000.0 0.42896238403684184 -0.09679803711291506
760000000.0 -0.3924903131766032 -0.1445218486650179
780000000.0 0.08959835208792251 -0.3739246577115146
800000000.0 0.19135782978132534 0.29032430399692116
820000000.0 0.18684967873831204 0.2134775094731183
840000000.0 0.1481680670593371 0.17406387638253462
860000000.0 -0.11268189593629835 0.1577573746124507
880000000.0 0.12169107807358301 0.04647643294335069
900000000.0 0.05201654114994618 -0.04750036765747865
920000000.0 0.04099681499549161 -0.0004058362623176138
940000000.0 0.00645008591269437 -0.026134929186919176
960000000.0 -0.025369587254149305 0.025012394335734912
980000000.0 0.025096819157391002 -0.04442296248637045
1000000000.0 -0.05516788177552861 0.015471446354080333
1020000000.0 0.06485635732864276 0.03607082473842234
1040000000.0 0.08121961905291036 0.02998148892516925
1060000000.0 -0.12765130463631616 0.001728130310414061
1080000000.0 0.13875771973147488 -0.05240988309750956
1100000000.0 -0.05352192698005669 -0.17139792954331895
1120000000.0 0.0007774748886460832 0.20942397554897096
1140000000.0 -0.08479652481143053 -0.2354419348527403
1160000000.0 -0.26505677234544567 0.12203304678077967
1180000000.0 -0.07002005410597469 0.32284649526460846
1200000000.0 -0.0960934457330049 0.3481892115960327
1220000000.0 -0.3281809207977884 -0.2036755447760367
1240000000.0 0.4063292050304903 0.02119675531082921
1260000000.0 -0.4079147494491176 -0.13300691486540686
1280000000.0 0.357630926483353 0.257652420182308
1300000000.0 -0.05030982365296747 -0.44068329178381777
1320000000.0 -0.4337690174519693 0.018404997989338402
1340000000.0 -0.34432031298997484 -0.24574337057407872
1360000000.0 0.1447412860424263 -0.38827890211130006
1380000000.0 0.3324715604378805 -0.24910451032269404
1400000000.0 0.21121943366411305 -0.34655394051735683
1420000000.0 -0.13322046934988765 -0.372773812442717
1440000000.0 -0.3708221776417799 -0.07844181479898002
1460000000.0 -0.040567329391864096 0.3569905192487017
1480000000.0 0.24170714538808818 -0.23265362066698475
1500000000.0 -0.25986634726815633 0.16163823687311193
1520000000.0 0.27678834349652576 -0.005751414676812246
1540000000.0 0.2272840889085483 0.08475999444266132
1560000000.0 0.19787466757633856 0.031881551147039215
1580000000.0 0.11829476931980576 0.11390508853196549
1600000000.0 0.07252087106073561 -0.10759149980609406
1620000000.0 0.09089028658817425 0.020285824339422477
1640000000.0 -0.04170578924644946 -0.05748561433942346
1660000000.0 -0.044478552916017704 -0.014415342975582663
1680000000.0 -0.004115084936185199 -0.024541823169662264
1700000000.0 -0.008925729008552024 -0.008050397417715769
1720000000.0 0.012199178716297361 0.0020489753104929857
1740000000.0 -0.02804448966997884 -0.007839020085266076
1760000000.0 0.015953302262222933 -0.04135320870529889
1780000000.0 0.003959215082088594 -0.0702409388555919
1800000000.0 -0.02234918422760281 0.09694303691860286
1820000000.0 -0.1080573909193195 0.06103884808457695
1840000000.0 -0.018499791571024677 0.15658152465473002
1860000000.0 0.16980833063477233 0.08499553600391993
1880000000.0 0.19627215092740344 -0.11653758300152729
1900000000.0 -0.15854227573144514 -0.2212378398126705
1920000000.0 0.11384762716819884 0.2906759291133379
1940000000.0 0.11837604722778637 -0.330074242719912
1960000000.0 -0.27815933815377314 0.26338887464412486
1980000000.0 0.36062189167494435 -0.18848915850811013
2000000000.0 -0.34028861870337296 -0.25434857162510227
2020000000.0 -0.09221216692723619 0.4256243511647316
2040000000.0 0.41409227360614065 0.14314062962087504
2060000000.0 0.25239074267889616 -0.35477063326661895
2080000000.0 -0.09923741234396125 -0.4144930095397541
2100000000.0 -0.14340184400950487 -0.3922052375911397
2120000000.0 -0.1581043546877903 -0.37550659294912014
2140000000.0 -0.1994602696570673 -0.3434342288370703
2160000000.0 0.2760340897149044 -0.26783484840208555
2180000000.0 0.14989792953694583 -0.3399461174580813
2200000000.0 0.010912411480591765 -0.3607855540391782
2220000000.0 -0.308809662109278 -0.17210812235051265
2240000000.0 -0.2513478165586973 0.24154790235963958
2260000000.0 0.060880154590428746 0.3426982168711788
2280000000.0 0.2729390241962128 0.21798380875046902
2300000000.0 0.26541244376668727 -0.24613106101727641
2320000000.0 -0.16717313393931993 -0.3446986886208946
2340000000.0 -0.37100013788060027 0.18497463173539494
2360000000.0 0.3798184677021942 0.250322168160084
2380000000.0 -0.3237860969036456 -0.38496332930540783
2400000000.0 0.32947325126447513 0.4467221020857303
2420000000.0 -0.524192318774939 -0.3078304665191144
2440000000.0 0.6470412399841303 -0.11673691979724256
2460000000.0 -0.49478672207684565 0.49359982140116065
2480000000.0 0.2098185521178354 -0.6998981921447953
2500000000.0 -0.2218860174588408 0.7185794889000388
2520000000.0 0.3610150049251193 -0.6718779808158977
2540000000.0 -0.5906593441265603 0.48563176988143864
2560000000.0 0.7560423922572139 0.06311641409625883
2580000000.0 -0.43841590896067906 -0.6007143130587059
2600000000.0 -0.27233136790334406 0.6658548461667907
2620000000.0 0.647484518819106 -0.23438077721622708
2640000000.0 0.4524766019395286 -0.46859154753535426
2660000000.0 -0.6076460476768195 0.007328646539376795
2680000000.0 0.37526444392352326 0.4165204002207717
2700000000.0 -0.04308749294745756 -0.511381982821612
2720000000.0 -0.1607199748003991 0.43593498362852123
2740000000.0 0.33352740826959315 -0.25512756083690585
2760000000.0 -0.37289586491037185 0.0743197030278166
2780000000.0 0.31974895234675854 -0.14271354400245026
2800000000.0 -0.20266671618459198 0.2547912160696845
2820000000.0 -0.11190604067784767 -0.28798155743206905
2840000000.0 0.29469156528266777 0.049330761534863335
2860000000.0 -0.1619707376578203 0.2474129688429837
2880000000.0 -0.14710984385906692 -0.2557632757781144
2900000000.0 0.194852576534926 0.2230058169693723
2920000000.0 0.0517098388069488 -0.2959841291735727
2940000000.0 -0.301342123605447 0.05598199010472401
2960000000.0 -0.11379863645046588 0.2866240507262979
2980000000.0 -0.2403102793409554 0.1983989805807184
3000000000.0 -0.28617802820677735 -0.13083340672192603
3020000000.0 0.042804020574078235 -0.3136700353360091
3040000000.0 0.24354448449725183 0.19952386020950286
3060000000.0 -0.3097691773370881 0.049992392882239056
3080000000.0 0.276929556822361 -0.1388780898438797
3100000000.0 -0.13005687688038192 0.27417960802227
3120000000.0 0.04143329511440527 -0.2920679862850813
3140000000.0 0.11773317652935543 0.2576813121922522
3160000000.0 -0.22332782614839913 -0.1467542082077738
3180000000.0 -0.024615358632135095 0.24812479716978408
3200000000.0 -0.16515717898623028 -0.15442541930115783
3220000000.0 0.17665542034137582 -0.0917553394897009
3240000000.0 -0.04141888419727132 0.16384125926332022
3260000000.0 0.08979802544715847 -0.10410154062635119
3280000000.0 -0.09683405967795106 0.04483532033960852
3300000000.0 0.07569318875003354 0.021453898287449633
3320000000.0 -0.029437231633999843 -0.042044482958159955
3340000000.0 0.026022958067724318 0.005557979598881885
3360000000.0 0.001586486683101837 0.00535987257636391
3380000000.0 0.003723945100782824 0.009817810562988503
3400000000.0 0.02247496885365908 0.012295959231349284
3420000000.0 -0.037918189580783274 -0.00885519772630718
3440000000.0 0.01869702770760544 0.047005480842685146
3460000000.0 0.049664429571948644 0.028491872050082825
3480000000.0 -0.06547754104465661 -0.011766480260187137
3500000000.0 -0.04289945150613053 -0.06697013737029915
3520000000.0 -0.09555583122498648 -6.908757753946194e-05
3540000000.0 0.11143830291323362 0.0036740308998576914
3560000000.0 -0.09492172747856228 0.0822607116479685
3580000000.0 0.09520560631561009 -0.10186822556154192
3600000000.0 0.12473242472848556 0.09781786857353113
3620000000.0 0.04224435285571884 0.16451890467790542
3640000000.0 -0.1510833569699261 0.09824156244522807
3660000000.0 -0.18953381388119725 0.015081961043033438
3680000000.0 -0.1532537656265695 -0.11974026279109758
3700000000.0 -0.10626595097860118 -0.1622155983266783
3720000000.0 0.06847152038170759 -0.18070681645803327
3740000000.0 0.16687718201928048 -0.08869195324456444
3760000000.0 -0.16727684461621115 0.06967241633921309
3780000000.0 0.17000718273333948 -0.01111500901501996
3800000000.0 0.028912879347437782 -0.15844487829497028
3820000000.0 0.012315259125987438 -0.15305634467909318
3840000000.0 0.1410823371162447 -0.04694417566847442
3860000000.0 0.04477106469735854 0.14250228756409256
3880000000.0 0.08655320774644583 0.13018569195070928
3900000000.0 0.045761494871577685 -0.152963608943705
3920000000.0 -0.13855836384205536 0.08715579822406097
3940000000.0 0.11865316857702247 -0.11751948757249076
3960000000.0 0.15945964389319242 0.059325305046205375
3980000000.0 0.164058767417961 -0.04508336438509601
4000000000.0 0.16385122897372797 0.00230123878166144
