! Created with skrf (http://scikit-rf.org).
# Hz S RI R 50.0 
!freq ReS11 ImS11
400000000.0 -0.8180584314226037 0.2655336878003004
420000000.0 0.12703130096673798 0.8554488565605244
440000000.0 0.8095714298201477 -0.21478757379403715
460000000.0 0.24621544351164812 -0.7477837665589188
480000000.0 0.6356707395507386 -0.34677540979880594
500000000.0 -0.47988384780906485 -0.3037955151786815
520000000.0 -0.48140728197318206 -0.08144837623569436
540000000.0 0.09152894404563014 -0.39917422483811676
560000000.0 -0.2919243668454232 -0.22539689300742852
580000000.0 0.1087131483057504 -0.30302942704299446
600000000.0 0.0022026176467617913 -0.3272575313712373
620000000.0 0.3310565147749045 0.0006581096026143864
640000000.0 -0.34956879182493666 9.925032740380956e-05
660000000.0 -0.2998265460349261 0.2416717466582924
680000000.0 0.05714787664837926 -0.40148886543352
700000000.0 -0.4091822533618862 0.15818994139170642
720000000.0 0.06180285151789244 0.4380851720471935
740000000.0 -0.3275667505473154 0.3174797434548154
760000000.0 -0.25864348515662966 -0.35022687751679815
780000000.0 0.3930144492555343 -0.0758749074821012
800000000.0 0.22274900478017215 0.2837435665534005
820000000.0 0.04567889167547332 0.29210668489980746
840000000.0 0.050299413479047754 -0.23897554902699436
860000000.0 0.1692411831808037 0.09167029228803306
880000000.0 0.13294492344988232 -0.06382524865965285
900000000.0 -0.06598271053198188 -0.01338707316000036
920000000.0 0.033826586524553594 0.006998330951485863
940000000.0 -0.019601531928833092 -0.03419506495440711
960000000.0 0.042385200170557094 0.02511974337154985
980000000.0 -0.00838685243684248 -0.05472691550752656
1000000000.0 0.05738017689140077 -0.02611582814498912
1020000000.0 0.07031766540082646 -0.01279257922397184
1040000000.0 -0.05762433552587928 0.060439566587057965
1060000000.0 0.08560952767859178 0.08198108524354893
1080000000.0 0.13961574184080258 -0.01950402204110632
1100000000.0 -0.08171997541733597 -0.14344564586256625
1120000000.0 -0.178928630743987 -0.08651754421244388
1140000000.0 0.1584585830190831 -0.18426319142670752
1160000000.0 -0.11704017285155384 -0.25913820366376505
1180000000.0 -0.24678363794209382 0.21666103690006436
1200000000.0 -0.3565736633923404 0.044494274463436026
1220000000.0 -0.2544703659181124 -0.300390606409086
1240000000.0 0.40726949039601007 0.07213252700797648
1260000000.0 -0.4226781104868548 0.1148645546108432
1280000000.0 0.438329473981778 -0.06318324540892972
1300000000.0 -0.2510948314021758 -0.36883249648122945
1320000000.0 -0.3823643026386458 0.20387508357229997
1340000000.0 -0.3250670258052954 -0.2734943426364189
1360000000.0 0.02072547469584523 -0.4203514492006125
1380000000.0 0.1053354607141356 -0.4073064859153269
1400000000.0 -0.3584996771991264 -0.19207085739977567
1420000000.0 -0.3902576940651276 -0.048318016273132106
1440000000.0 -0.056551947145173906 0.36784663309803944
1460000000.0 0.09388422903690766 0.3327479628081533
1480000000.0 0.32415177904033915 -0.005776465628294982
1500000000.0 -0.011687521208842332 -0.29829834014396
1520000000.0 -0.26733987997397646 -0.0459465252806495
1540000000.0 0.08556834704079237 -0.2332567856479296
1560000000.0 0.06861094377215242 -0.204161080098333
1580000000.0 -0.08115830113473214 -0.16463783665223733
1600000000.0 0.13970391435864382 0.058344206448883
1620000000.0 -0.0981607462061311 0.059050100677703506
1640000000.0 -0.006046885581877593 0.08512292919421097
1660000000.0 -0.015089489873219187 -0.05791114379183885
1680000000.0 0.030062799742538535 0.0006832923067220611
1700000000.0 -0.0028869641664031227 0.010946886048216356
1720000000.0 0.022353036569758195 0.001261918365757253
1740000000.0 -0.03592512413005132 -0.024129805896384734
1760000000.0 0.02106674899969696 0.05808561019167551
1780000000.0 0.005915286812548804 -0.08411786728045942
1800000000.0 0.08514942663069468 0.07873645637607121
1820000000.0 -0.08055065476416519 -0.11352701936757696
1840000000.0 -0.16132780074973774 0.032787863648508164
1860000000.0 0.0700265886350963 0.17759995304089932
1880000000.0 -0.001448113481208496 0.2201984276140814
1900000000.0 -0.11688841475930367 0.2297851602863327
1920000000.0 0.2584499393048629 0.14376836332150783
1940000000.0 0.3022064159284015 -0.14330743455446965
1960000000.0 -0.33704520357505136 -0.1565704618113333
1980000000.0 0.12806203613370878 0.37750424284089323
2000000000.0 0.39168026442675263 -0.15946734684218503
2020000000.0 -0.28716860855814935 -0.3375542612937348
2040000000.0 -0.0861574770532406 0.44429078613073786
2060000000.0 0.4442124881367052 -0.09109306647985288
2080000000.0 -0.2649410665709323 -0.3628455617117441
2100000000.0 -0.2810097011034451 0.3337653394957248
2120000000.0 -0.03974167071998537 0.415351525795246
2140000000.0 -0.39671770598241635 0.02606546411964004
2160000000.0 -0.377086061492615 -0.02335928919974601
2180000000.0 -0.24168174705098872 -0.2713711631905148
2200000000.0 -0.0660894276830527 -0.3433467148291524
2220000000.0 0.17525621675813255 -0.29961417572671195
2240000000.0 -0.043739317593786915 -0.3467764170071456
2260000000.0 -0.2950702080364709 -0.2020794300237377
2280000000.0 -0.13916534244473255 0.3386447380066984
2300000000.0 0.3806839753257167 0.021213600036264227
2320000000.0 -0.3134849249714985 -0.25488689006756354
2340000000.0 -0.07433079370697299 0.426204428871479
2360000000.0 0.17720046841670917 -0.43237093202175336
2380000000.0 -0.44496303089617284 0.2520368793911808
2400000000.0 0.4928211612598179 -0.26529887568162835
2420000000.0 -0.43373402197182104 0.4285118432230321
2440000000.0 0.06651540756598562 -0.6534126251875076
2460000000.0 0.3882293775796462 0.5764717855202418
2480000000.0 -0.6561420683473467 -0.3076744701438172
2500000000.0 0.6795253799518166 0.3039669104934257
2520000000.0 -0.6362085343766507 -0.4047052826612412
2540000000.0 0.43052902361927564 0.6199458892334361
2560000000.0 0.09865470560247423 -0.7415285566803911
2580000000.0 -0.6582587564777457 0.3227007861274631
2600000000.0 0.635851425560798 0.313212056728284
2620000000.0 -0.04554209105023169 -0.6766802097633595
2640000000.0 -0.3648135873667911 -0.527472930868359
2660000000.0 -0.28588938898074284 0.5242688522318187
2680000000.0 0.5479560864361324 0.0747131709152936
2700000000.0 -0.15596981481581162 -0.4847370462185839
2720000000.0 -0.1325893601926938 0.4468096004690961
2740000000.0 0.33815046478755895 -0.25906533725996467
2760000000.0 -0.3197329885489789 0.22061804447625202
2780000000.0 0.1634759447415597 -0.31728847179938285
2800000000.0 0.09253999651926816 0.3157713918997911
2820000000.0 -0.30293811972592527 -0.05326788007824818
2840000000.0 0.2397918155066832 -0.16634781465648774
2860000000.0 -0.0684961251174984 0.2747907237017373
2880000000.0 0.00617376729855913 -0.2786246707040618
2900000000.0 -0.1605474848153845 0.22596103449706206
2920000000.0 0.20721487065345703 0.19337713320574196
2940000000.0 0.19562127658541767 -0.21620834209818762
2960000000.0 -0.05933065997901571 -0.29441171129426036
2980000000.0 -0.22782269943738054 -0.20868811843923782
3000000000.0 -0.20614103762635264 -0.23758503323797478
3020000000.0 -0.16238948041487025 -0.2725079942758857
3040000000.0 0.19092490022721958 -0.24872701363826893
3060000000.0 0.24626067996143117 0.19119432819032606
3080000000.0 -0.2991546720764769 -0.0570185213492002
3100000000.0 0.2403425766186454 -0.17306398839058845
3120000000.0 -0.21411721030305828 0.18516085978448782
3140000000.0 0.12577394616958626 -0.2378765749041674
3160000000.0 -0.21824568361476077 0.12637431324044823
3180000000.0 0.03471262722313966 0.2341794810131323
3200000000.0 0.01563464439232735 -0.21566467105189094
3220000000.0 -0.06294409748421712 0.18667733543546494
3240000000.0 -0.0614411916321986 -0.16401737730100585
3260000000.0 0.14747882225496906 -0.02977851606652747
3280000000.0 0.1212765043849744 0.013189839705697256
3300000000.0 0.0012649466405698598 -0.09264667964120678
3320000000.0 0.05943430932587733 -0.013191087073340766
3340000000.0 0.011293015445688812 -0.029980408045135673
3360000000.0 0.007474644291203567 -0.014731541753137626
3380000000.0 0.006609771525973026 0.023985861128243472
3400000000.0 0.03341757278918765 0.016153899829509714
3420000000.0 0.03210581344165892 -0.03301216361884106
3440000000.0 -0.04572888915930769 -0.00018558656728461653
3460000000.0 0.009194100374925759 0.04036471801267024
3480000000.0 0.04369292597828479 0.016586856717170546
3500000000.0 -0.007724738906971525 -0.06459411968065841
3520000000.0 -0.04137446836136461 0.08178987225733189
3540000000.0 -0.024604133506363663 0.11232614711730632
3560000000.0 0.13445223576936816 0.012452100032583747
3580000000.0 0.13657337413314063 -0.059827639011605406
3600000000.0 0.06460728602810742 -0.1520573373885794
3620000000.0 -0.09834629200678985 -0.13950044989113597
3640000000.0 0.011778183081982566 -0.17477683913762582
3660000000.0 0.17639890366787425 -0.015007859218051306
3680000000.0 -0.15525346174318994 0.086529811348848
3700000000.0 0.13019658626664174 -0.11995824678994801
3720000000.0 -0.16862828524305223 0.06290903067592364
3740000000.0 -0.08563059808409113 -0.16224082243453095
3760000000.0 0.13519293752249537 0.12607673520093796
3780000000.0 -0.15367747894218475 0.10002927969558961
3800000000.0 -0.10824954396839874 -0.1378031382506174
3820000000.0 0.1424150310692346 0.08050605357721446
3840000000.0 0.14778221120866533 -0.008806185203968099
3860000000.0 -0.12436272606993841 0.06032837193987636
3880000000.0 0.12622665875334624 0.06029695205193513
3900000000.0 -0.1380585437778329 0.047654341772388704
3920000000.0 -0.158482171387826 -0.0016070528813693194
3940000000.0 0.030406433115902597 -0.17326256412705562
3960000000.0 -0.17413035580913092 -0.07008827273714742
3980000000.0 0.15038857298119243 -0.116240229211909
4000000000.0 -0.13776195615188414 0.11582621579781395
