! Created with skrf (http://scikit-rf.org).
# Hz S RI R 50.0 
!freq ReS11 ImS11
400000000.0 -0.6154395989518895 0.5993819990095799
420000000.0 -0.0738698183429995 0.8633216135103305
440000000.0 0.8394045354608463 0.01480044630265385
460000000.0 0.05268623176350737 -0.7984097373106532
480000000.0 0.14045011028752424 -0.7153878151427199
500000000.0 -0.3511743438406757 0.443730581820906
520000000.0 -0.474261557775961 -0.014865589261405252
540000000.0 0.405469378645656 0.08852093413960446
560000000.0 -0.23421024801060195 -0.26282746530332796
580000000.0 0.2820558366670176 0.17318760819339793
600000000.0 0.052828752151337956 -0.3227007703888077
620000000.0 -0.15017718582876277 0.3043515355976818
640000000.0 -0.26538490182892943 0.24894283620452837
660000000.0 -0.2863340540622513 0.25197765172099423
680000000.0 -0.05940727394350557 -0.4070654365021523
700000000.0 -0.4244438738525627 0.08175131162868308
720000000.0 0.0724654993950266 0.43780765306574565
740000000.0 -0.23521666168122415 0.3786692539317295
760000000.0 0.15690822845803956 -0.39968530238869643
780000000.0 0.36865031407899845 -0.15007103807634514
800000000.0 0.16650197952818285 0.3228239734565076
820000000.0 0.2959389266092119 0.060041414451181906
840000000.0 -0.240044095954453 -0.0036321937064044962
860000000.0 0.1881711506582657 0.019085260213435803
880000000.0 0.10357490859565537 0.10049932303121836
900000000.0 -0.05815937394235597 0.03624782793180211
920000000.0 -0.029997793484730535 -0.021328726165819066
940000000.0 -0.022641527799126527 0.013658118568435507
960000000.0 -0.015274252350536232 -0.034579364644835325
980000000.0 -0.03397499069521384 -0.04245640082110786
1000000000.0 -0.04220811492702099 0.04437814008173418
1020000000.0 -0.04432022421039711 -0.06509992094491417
1040000000.0 -0.08411132062605643 -0.031287020407069654
1060000000.0 0.13129533231202686 0.005959247532072331
1080000000.0 -0.14158247992190606 0.05022579637214769
1100000000.0 -0.0076646216126742515 0.17779782792607773
1120000000.0 0.19174697710163538 -0.06489523041611701
1140000000.0 -0.1698149788145769 -0.17210178365003898
1160000000.0 -0.2628550602077067 0.10383024254620082
1180000000.0 -0.19449048921143383 0.25574433884596964
1200000000.0 -0.22762995701246247 0.27232775164703366
1220000000.0 -0.23574558175286214 -0.30170226753604573
1240000000.0 0.38390031147621995 0.131616692072069
1260000000.0 -0.3751938945856366 -0.2047378067072968
1280000000.0 0.2551769838408968 0.35805060393669713
1300000000.0 0.1359694845023957 -0.4238281193534512
1320000000.0 -0.37695129652083226 -0.22407477490549377
1340000000.0 -0.24085249499293654 -0.3598680232987132
1360000000.0 0.08280112663710568 -0.420562965891365
1380000000.0 -0.1877033667491333 -0.38631072170522457
1400000000.0 -0.33615287696236895 0.24396913988260696
1420000000.0 -0.014857579978429888 0.3960898721699721
1440000000.0 0.32781802304163155 0.16827656584161246
1460000000.0 0.31437974804560653 0.1277514876001119
1480000000.0 0.3102811649278524 0.05347751795345183
1500000000.0 0.22982073734925593 -0.17775333116258252
1520000000.0 -0.26905390926204376 0.0034178016346019095
1540000000.0 0.22673711336798216 0.09732205205610801
1560000000.0 0.1999152192226015 0.08381919057794761
1580000000.0 0.1491187312386637 -0.11389986336598806
1600000000.0 0.09664493812349989 0.11688021282483141
1620000000.0 -0.10951226396526433 -0.02409590905722433
1640000000.0 -0.027058915634951098 0.07916045964687066
1660000000.0 0.038597367906321504 0.04310729972935667
1680000000.0 0.01115245096190976 0.025802190685383388
1700000000.0 -0.009648275201762667 -0.003084723887526333
1720000000.0 -0.01441940065518998 0.006482940175078004
1740000000.0 0.011637750500240214 0.0339308967575824
1760000000.0 0.04731173826336226 0.02701493080288451
1780000000.0 -0.0761159950606526 0.028367868597433985
1800000000.0 -0.11253601346832243 0.0054685375331283825
1820000000.0 0.13445728540540644 0.030492909083497707
1840000000.0 -0.08968192216610074 -0.14315027225452737
1860000000.0 -0.14152708024601354 0.1384316917980732
1880000000.0 0.0862102759858565 0.21432097284032747
1900000000.0 0.2646766901388786 -0.032081541675728166
1920000000.0 -0.04532538227465451 -0.2977909508577662
1940000000.0 -0.2960947982217352 -0.1558241017055426
1960000000.0 -0.2734275932388845 0.24721579234195132
1980000000.0 0.307884249080452 0.24634438248997217
2000000000.0 0.3935606452447399 -0.14598536821287242
2020000000.0 -0.3082890163652881 -0.31608965243402687
2040000000.0 -0.16790705127159952 0.4211484153130886
2060000000.0 0.4506976245700152 -0.06657946773094975
2080000000.0 -0.22164499079855618 -0.3900428868925257
2100000000.0 -0.4038422737737671 0.16497429553169052
2120000000.0 -0.25926614547793203 0.3274912880938249
2140000000.0 -0.3053089650652503 -0.25851885161908944
2160000000.0 -0.35846062730230405 -0.13385278727135735
2180000000.0 -0.25726758995192167 -0.2602616764396905
2200000000.0 -0.23765412959114135 -0.2628029561994258
2220000000.0 -0.13510628709659203 -0.3194421334427701
2240000000.0 -0.31668409810522447 -0.14859201335195854
2260000000.0 -0.3094465855053935 0.1731224264764006
2280000000.0 0.15806938030375647 0.3278155923315707
2300000000.0 0.13582667036397036 -0.35336080149540117
2320000000.0 -0.37027371885392596 0.1562268970964428
2340000000.0 0.38181269653337147 0.20009474792124293
2360000000.0 -0.2856009347727122 -0.372751349735402
2380000000.0 0.19962862032162437 0.4729567764896374
2400000000.0 -0.28934282799422195 -0.48264646259475774
2420000000.0 0.5111461746088025 0.3364071065321664
2440000000.0 -0.6575991314700622 0.00636017063808339
2460000000.0 0.5749680009753059 -0.38890311255942134
2480000000.0 -0.40841270287471726 0.5948435596603898
2500000000.0 0.5425023069032862 -0.5024957152028511
2520000000.0 -0.6773742351645805 0.3160035228659177
2540000000.0 0.7432641349634481 0.07226314409804444
2560000000.0 -0.3593897639674814 -0.6457468852284032
2580000000.0 -0.3820621639500565 0.6124824630790401
2600000000.0 0.6873681203042333 0.11137979750097696
2620000000.0 -0.20929504049001185 -0.6305793725649098
2640000000.0 -0.36524096702666603 -0.5095257109405693
2660000000.0 -0.30426937071343957 0.4971903885232438
2680000000.0 0.5316618557249594 0.08553495763263258
2700000000.0 -0.2139695091309003 -0.44515457312599094
2720000000.0 -0.10433071597841213 0.4357386318191131
2740000000.0 0.3424793008666042 -0.21777948863691288
2760000000.0 -0.3645454277411395 0.052704270528375376
2780000000.0 0.3364265432545819 -0.04359395708913181
2800000000.0 -0.2545906010312929 0.18819323818094705
2820000000.0 -0.048001958332211415 -0.29585361647196656
2840000000.0 0.2705266188261463 0.10194390071206565
2860000000.0 -0.2342495167337707 0.16236925909880684
2880000000.0 -0.02403477875497018 -0.2826423663879193
2900000000.0 0.023380947302829077 0.28412709276060527
2920000000.0 0.21447084274253495 -0.19368627297940588
2940000000.0 -0.22085562864094985 -0.1944615980193322
2960000000.0 -0.29802011439024834 -0.007674109168093957
2980000000.0 -0.3033968969730954 -0.010625064733815545
3000000000.0 -0.22186421864050196 -0.21277015342676292
3020000000.0 0.10570118130725493 -0.2904096902644565
3040000000.0 0.2787995917516302 0.12910363475078912
3060000000.0 -0.26033886154349906 0.1587746698163879
3080000000.0 0.14298827702034644 -0.26304893932473516
3100000000.0 0.008342156125741743 0.293159169039202
3120000000.0 -0.12301133639153483 -0.2558328160518429
3140000000.0 0.22837757807903797 0.1486994260518631
3160000000.0 -0.24349245320048443 -0.08388998708499296
3180000000.0 0.054996614707386614 0.23556343876404137
3200000000.0 -0.21268109382031955 -0.05551331515190557
3220000000.0 0.12599354045300154 -0.1482299976107266
3240000000.0 0.014537365268922886 0.16676618927519066
3260000000.0 -0.07971665635667843 -0.11293492084521808
3280000000.0 0.10417060802762244 0.03152599555674922
3300000000.0 -0.05017614889722572 0.06563478904672482
3320000000.0 -0.05212678311693704 0.010816568642251851
3340000000.0 0.020508831672645986 0.01920563748827125
3360000000.0 0.006195871761867766 0.004861146193770576
3380000000.0 0.008430309462534908 0.010907224911840232
3400000000.0 -0.022913249065095027 0.011615563254374319
3420000000.0 -0.02575316766834807 0.025758272951089095
3440000000.0 -0.023596022425275948 0.034302357388731636
3460000000.0 0.03334965470501699 0.032653064004458415
3480000000.0 0.028748476628129363 0.047793225223409
3500000000.0 -0.07104540191884887 -0.010087478067953612
3520000000.0 0.007615731015339862 0.09103902335937294
3540000000.0 -0.09825619741584941 0.04471508269380731
3560000000.0 -0.0871359749461954 -0.08608392281568635
3580000000.0 0.12896330226893526 -0.04292752978150847
3600000000.0 0.07283334718279719 0.13321484601175465
3620000000.0 0.047908521001253306 0.1546132335460351
3640000000.0 -0.17334556545008423 0.015019682997228815
3660000000.0 -0.17434410124304828 -0.056897415028927104
3680000000.0 -0.07059544486299069 -0.1743779982244849
3700000000.0 0.040365162857845915 -0.1844312857562715
3720000000.0 0.13399210016921467 -0.1318440558625479
3740000000.0 0.18134457381413158 -0.01650510983692396
3760000000.0 -0.1736166346069864 0.02667290078765456
3780000000.0 0.1652328096462572 -0.013170907707876274
3800000000.0 0.05337842729772659 -0.14829179880138507
3820000000.0 0.005989441364281592 -0.15149968776433262
3840000000.0 0.07182467415020664 -0.1278173256640814
3860000000.0 0.14412599689006822 0.030708173214410422
3880000000.0 0.14849510959073878 0.03127637285832496
3900000000.0 -0.0006354788267943942 -0.15479352051186362
3920000000.0 -0.13578700172300795 0.08269653602483239
3940000000.0 0.12269612962448938 -0.10943465048739803
3960000000.0 0.16920981422303005 0.01412320610010732
3980000000.0 0.16199592165644425 -0.06017749388269794
4000000000.0 0.06651911708782292 -0.15413376973555895
