! Created with skrf (http://scikit-rf.org).
# Hz S RI R 50.0 
!freq ReS11 ImS11
400000000.0 -0.8109440033707063 0.29016425410841074
420000000.0 0.12400762817691918 0.8564741713810229
440000000.0 0.8053032636121862 -0.23020786874026278
460000000.0 0.2879870251176849 -0.7324907999421763
480000000.0 0.6562014620538669 -0.3075763189230382
500000000.0 -0.5065375355243907 -0.25707490012513157
520000000.0 -0.4834239606229059 -0.06104275184472549
540000000.0 0.13742123234480805 -0.3861062408274203
560000000.0 -0.2990013960634674 -0.21612301181120264
580000000.0 0.07246408838410734 -0.3135468084224621
600000000.0 0.028841814597240042 -0.3252870315561182
620000000.0 0.3303711844868581 0.0308771832772492
640000000.0 -0.34953070043450557 0.01612773157203149
660000000.0 -0.2995953651096182 0.2410005498936838
680000000.0 0.0940982412239789 -0.3946894299147024
700000000.0 -0.4096338152495147 0.1576233809663434
720000000.0 0.052859858626323045 0.43921641424632335
740000000.0 -0.3407693417786487 0.30293738012922966
760000000.0 -0.2466780586628662 -0.35874018789847806
780000000.0 0.3944955838082604 -0.06775878211808416
800000000.0 0.2282199819870548 0.2797974605274152
820000000.0 0.04397887373714861 0.2923077906808903
840000000.0 0.020526252279915155 -0.24352811788898093
860000000.0 0.1805679156998474 0.06710993655618516
880000000.0 0.11820436517412045 -0.08863471297678231
900000000.0 -0.06618319410665228 -0.013516053501457417
920000000.0 0.03445612288405091 0.003581123861251356
940000000.0 -0.031193420669457506 -0.02439724169534628
960000000.0 0.04550654866516444 0.019715831915021444
980000000.0 -0.023257387729773774 -0.050436391055246256
1000000000.0 0.04738305791480497 -0.041318966094341734
1020000000.0 0.06845785736727639 -0.021356848727433604
1040000000.0 -0.04560022603260082 0.06961206566565425
1060000000.0 0.09475818422028398 0.07093072499694683
1080000000.0 0.13760359636708722 -0.030179194671994775
1100000000.0 -0.07669039465954536 -0.14617001158113227
1120000000.0 -0.1816361007834186 -0.08091169582871398
1140000000.0 0.16157233270139162 -0.18153459296301988
1160000000.0 -0.10731193079564444 -0.26341237091347103
1180000000.0 -0.24244601901165938 0.221556763466893
1200000000.0 -0.35380997594000857 0.06417796841748472
1220000000.0 -0.27703616129981856 -0.27992319219349765
1240000000.0 0.4050063723183377 0.08342531839293664
1260000000.0 -0.42581992512974737 0.10242359799822937
1280000000.0 0.43875710813157964 -0.060917227903997444
1300000000.0 -0.2580930010452547 -0.3639967597452587
1320000000.0 -0.37706091933922325 0.21346248202039556
1340000000.0 -0.331999363992673 -0.2650564499236911
1360000000.0 0.012052146539269785 -0.42076591396901675
1380000000.0 0.09689560484751035 -0.40922827474481616
1400000000.0 -0.35950712506087673 -0.18988950173491298
1420000000.0 -0.39083729817924623 -0.04089469915931045
1440000000.0 -0.06474726400975968 0.3664944281223093
1460000000.0 0.10311916023598865 0.33006211873140917
1480000000.0 0.32395634575466276 -0.007068019075087936
1500000000.0 0.0045586969290225664 -0.2984426198574463
1520000000.0 -0.2614346765630212 -0.0754183248285238
1540000000.0 0.07724354621193903 -0.2363966754614271
1560000000.0 0.05860431358487512 -0.20726655625042806
1580000000.0 -0.05414372193948146 -0.17557445458673393
1600000000.0 0.14851057210878565 0.028918995296980436
1620000000.0 -0.09409211332219553 0.06536345387539376
1640000000.0 0.00835253796776768 0.08486917116340914
1660000000.0 -0.012761655296807325 -0.05859368234441145
1680000000.0 0.030524356157337233 -0.00012936367473450396
1700000000.0 -0.004465801341470727 -0.011174279192356073
1720000000.0 0.021749616331031438 0.005603969335491561
1740000000.0 -0.006671216516635669 -0.04273016350483923
1760000000.0 0.01801186046544885 0.0594038954705687
1780000000.0 0.005651798349169332 -0.08425827715172628
1800000000.0 0.0783425000378516 0.08545747554574536
1820000000.0 -0.08157914450310062 -0.11323612009118397
1840000000.0 -0.16214927825942765 0.029932852466694495
1860000000.0 0.07142207166808921 0.17718186680282677
1880000000.0 0.00025806950347517777 0.22025700012268
1900000000.0 -0.12123825898884587 0.22752261339934352
1920000000.0 0.2550535160275962 0.14927491750723146
1940000000.0 0.2994595634719292 -0.14885064055731262
1960000000.0 -0.3338786085559147 -0.1629639599254915
1980000000.0 0.1258222351563215 0.37826220087882567
2000000000.0 0.4029614931157506 -0.12927377330612078
2020000000.0 -0.2865647446244737 -0.3381878077875061
2040000000.0 -0.07100555526622652 0.4471360799727757
2060000000.0 0.44285497628220477 -0.0980633414373271
2080000000.0 -0.2463878806601309 -0.3764344844603109
2100000000.0 -0.2620112654119512 0.3493117771771594
2120000000.0 -0.03702384968285567 0.41583795576012306
2140000000.0 -0.39763271950969264 -0.013182737936425862
2160000000.0 -0.3780265089386683 -0.007889322418391163
2180000000.0 -0.256950801738624 -0.2567904458032403
2200000000.0 -0.06457987357859461 -0.3435939504146625
2220000000.0 0.19835045955941966 -0.28534037121635336
2240000000.0 -0.03715946330348539 -0.34783255428251425
2260000000.0 -0.2892599192183918 -0.21022994976727696
2280000000.0 -0.14023694406513887 0.3386491387692001
2300000000.0 0.38165271290790675 0.010540884989323355
2320000000.0 -0.3158189437723709 -0.25243768723739535
2340000000.0 -0.08256708137647004 0.42457284119719557
2360000000.0 0.16888641419509137 -0.4358024672673422
2380000000.0 -0.42727630313029974 0.28103825545170535
2400000000.0 0.4895705672105242 -0.27099141764367546
2420000000.0 -0.4066279270423068 0.4542093021296899
2440000000.0 0.03204028596530183 -0.6559890437277205
2460000000.0 0.42037472445468893 0.553283875882912
2480000000.0 -0.6510935267959123 -0.3190511641232276
2500000000.0 0.7080773495313707 0.22867244595046446
2520000000.0 -0.6705845720459236 -0.3445313286307706
2540000000.0 0.4275263875882932 0.622020477243003
2560000000.0 0.057949834313699905 -0.745887155688087
2580000000.0 -0.6745120712656734 0.2871839427721308
2600000000.0 0.6536658605774414 0.2731391709537006
2620000000.0 -0.1281415295086839 -0.6657069078174622
2640000000.0 -0.3725000413297224 -0.5215955724951241
2660000000.0 -0.2953415096546719 0.5183778504045309
2680000000.0 0.5462541746028289 0.0826812952133966
2700000000.0 -0.1595582818886695 -0.4831260272287985
2720000000.0 -0.12876251217763035 0.4475049201714038
2740000000.0 0.3420619051440744 -0.2532751266112526
2760000000.0 -0.3136529887676678 0.22859913433237947
2780000000.0 0.15666219532401335 -0.32019909668607
2800000000.0 0.0962428909968344 0.3143782338650906
2820000000.0 -0.3057021536010722 -0.02935132236430656
2840000000.0 0.22541733104270553 -0.18504937358266166
2860000000.0 -0.09393487054128485 0.26754189840451686
2880000000.0 0.015509153744625071 -0.2784912201277232
2900000000.0 -0.16515589460526225 0.2229782779534774
2920000000.0 0.2096297815801284 0.1907481836577705
2940000000.0 0.19574600621043758 -0.21629358045796265
2960000000.0 -0.042370265144319304 -0.29768752598723114
2980000000.0 -0.23076319311937543 -0.20597178805321414
3000000000.0 -0.23199759637036452 -0.21353597641510458
3020000000.0 -0.1814235885625292 -0.2607575743924002
3040000000.0 0.20774477123570606 -0.23543943468703132
3060000000.0 0.22792819140809098 0.21247278507683667
3080000000.0 -0.2973148577866961 -0.06473377110729689
3100000000.0 0.2582312865519776 -0.14517778355140185
3120000000.0 -0.20758072134556388 0.192589109144358
3140000000.0 0.14361439612181548 -0.2273215098225918
3160000000.0 -0.23059480264586785 0.10177757164541236
3180000000.0 -0.0013259736472280557 0.23644084092589343
3200000000.0 0.03385245081774537 -0.21348008942326993
3220000000.0 -0.08115506682122353 0.17941349788830646
3240000000.0 -0.04876806512086103 -0.16790255018154035
3260000000.0 0.1493480487540383 -0.017192713731652123
3280000000.0 0.11570902523748308 0.03926519594063245
3300000000.0 -0.014986527085146957 -0.09119709691857833
3320000000.0 0.058963305211245015 -0.0140217037801542
3340000000.0 0.029184373644823913 -0.012039316798860913
3360000000.0 -0.010489710276333752 0.01148664966452313
3380000000.0 -0.00708675866409639 0.02434127120724694
3400000000.0 0.03483865387604289 0.013479227467557779
3420000000.0 0.026080151818504923 -0.03818433912272793
3440000000.0 -0.04569018701977885 0.0001274113922351533
3460000000.0 0.01802685182530132 0.03761727511508938
3480000000.0 0.03771786397271915 0.02742264495110772
3500000000.0 -0.045224786946026795 -0.04716723151691797
3520000000.0 -0.0390821670197814 0.08317064422219912
3540000000.0 0.01688962193138245 0.11470821326055686
3560000000.0 0.13426751691041666 0.016264443452585528
3580000000.0 0.13882695448631088 -0.05410219124505701
3600000000.0 0.07995419832813784 -0.14453956764574688
3620000000.0 -0.10406569583462881 -0.13585780291599525
3640000000.0 0.014269324550187331 -0.1742389572621009
3660000000.0 0.17660933152696892 0.004526503926237
3680000000.0 -0.16378754981461394 0.06850146656079713
3700000000.0 0.13043148199997948 -0.11938432369523842
3720000000.0 -0.17286100547611546 0.05137067319469289
3740000000.0 -0.06106875529119667 -0.17305962065592498
3760000000.0 0.12676132949519642 0.13474051337401344
3780000000.0 -0.15532166620492446 0.0968465471979823
3800000000.0 -0.09364665539594602 -0.1481137520842986
3820000000.0 0.13950960901040638 0.08517933803501981
3840000000.0 0.14806050973995488 -0.00039015562857646637
3860000000.0 -0.12802887901920834 0.05055089772793109
3880000000.0 0.11202349031618558 0.08233682533653694
3900000000.0 -0.1441347008641588 0.021012904962307722
3920000000.0 -0.15630466998753123 -0.02538731949072441
3940000000.0 0.06105088635867466 -0.1641262432194146
3960000000.0 -0.16379446257114622 -0.09097568706631613
3980000000.0 0.17767770529397178 -0.06808183878520525
4000000000.0 -0.17122694004731745 0.054569083140834564
