! Created with skrf (http://scikit-rf.org).
# Hz S RI R 50.0 
!freq ReS11 ImS11
400000000.0 0.24696875525898132 0.8365970181971556
420000000.0 0.6682114386760194 0.5407883320737009
440000000.0 0.7818725650862444 -0.2588572928797813
460000000.0 0.21921192416419547 -0.7561547706258351
480000000.0 0.6643907658633683 -0.22669164259024455
500000000.0 0.5571622025853582 -0.09837089425419629
520000000.0 0.43025464102036665 -0.242064180759538
540000000.0 0.32594803648050313 0.28493144683325683
560000000.0 -0.3083106606255331 -0.19093605233824465
580000000.0 -0.23721926245123615 0.24665379309328797
600000000.0 0.3356735272803838 -0.048381270671767174
620000000.0 -0.34883208819828754 -0.06608573797045614
640000000.0 -0.29994355744568385 0.24287595451001928
660000000.0 -0.038647412479327646 0.39739902238646957
680000000.0 -0.3590343367680974 -0.22766677135322963
700000000.0 0.29287679660843163 0.33274428799582195
720000000.0 0.1778627461458872 -0.4098277748705958
740000000.0 0.4258940287327851 -0.10712108024316669
760000000.0 -0.3937442563384701 -0.14070052434169852
780000000.0 0.10481908128316936 -0.3702127396451299
800000000.0 0.1978647080522172 0.28589442147358907
820000000.0 0.1762717224497457 0.2222260359422226
840000000.0 0.1401897850982408 0.1803643606700803
860000000.0 -0.11856691032586862 0.1533275339920614
880000000.0 0.1236741031003912 0.04002445210718732
900000000.0 0.05277147132993186 -0.04708694922458293
920000000.0 0.040878824206614706 0.004590102631018818
940000000.0 0.024705419070666503 -0.010408154406478952
960000000.0 -0.028761878290534434 0.02093324224833311
980000000.0 0.03143137290887177 -0.040139200933504496
1000000000.0 -0.05724894112481426 0.0012746224713987714
1020000000.0 0.06459175095588648 0.03643421222227132
1040000000.0 0.08107572967342351 0.03038578986155669
1060000000.0 -0.12747574567190392 -0.0019868667627450623
1080000000.0 0.14104382417087388 -0.04542409468631768
1100000000.0 -0.05444308089718882 -0.17105926482677605
1120000000.0 -0.004362590328917935 0.2093755963230035
1140000000.0 -0.09796101283461803 -0.23042213091024316
1160000000.0 -0.26324681709070874 0.12569638229138158
1180000000.0 -0.06010170512727991 0.3250277689042401
1200000000.0 -0.08744855184316752 0.35051084981380076
1220000000.0 -0.3382456068380999 -0.1866594111982775
1240000000.0 0.40686332818514387 0.009047427221081768
1260000000.0 -0.40879392856537344 -0.13005208050877373
1280000000.0 0.3681760382090923 0.2421906215917026
1300000000.0 -0.0758522201016112 -0.43691699888062957
1320000000.0 -0.43380116837163474 0.01209282498018171
1340000000.0 -0.3454373170521422 -0.24390997919318957
1360000000.0 0.14798088041389781 -0.3869480423471003
1380000000.0 0.336836553817516 -0.24322609325530642
1400000000.0 0.2023312507396314 -0.3518564909869159
1420000000.0 -0.11584614959413704 -0.37881874339383176
1440000000.0 -0.37155101773154925 -0.07513369385773488
1460000000.0 -0.04948521775159638 0.35586791458005546
1480000000.0 0.25282544991527395 -0.22093342669051144
1500000000.0 -0.2547864208333024 0.1694603746923492
1520000000.0 0.27654557038341554 -0.004655104091276131
1540000000.0 0.22800138004271422 0.08180197240975373
1560000000.0 0.19852504292382478 0.026109559535302248
1580000000.0 0.12877407334856955 0.1016047311246636
1600000000.0 0.06991645735020931 -0.10888224209731008
1620000000.0 0.09101384523309576 0.019159391323716655
1640000000.0 -0.05101497269762966 -0.04929696836251067
1660000000.0 -0.046575316979866645 0.003443436100316554
1680000000.0 -0.019541179698794372 -0.015564837036898612
1700000000.0 0.0016743587537477456 0.012086276261945412
1720000000.0 -0.001075402432170867 -0.012130861888668952
1740000000.0 -0.010403804197089745 0.027268616357214785
1760000000.0 0.0003741034224431722 -0.04416654220975231
1780000000.0 -0.0188062273527974 -0.0677858771840326
1800000000.0 0.006644478221720672 0.09915886271803258
1820000000.0 -0.101113300901827 0.0718438465840764
1840000000.0 -0.005013496698890057 0.15768685426331364
1860000000.0 0.17266527897169257 0.07959365832570521
1880000000.0 0.1888938213072152 -0.12903353399452672
1900000000.0 -0.15878122950862122 -0.2214371245070776
1920000000.0 0.10738154107232874 0.29348808519108593
1940000000.0 0.12135742571242497 -0.3293727044343739
1960000000.0 -0.28365861842675627 0.2574491362917466
1980000000.0 0.3692144490866818 -0.17088233466428746
2000000000.0 -0.328859567491815 -0.2686942552330167
2020000000.0 -0.09649856331985619 0.42440809686608433
2040000000.0 0.41494002059880997 0.13923422697120477
2060000000.0 0.23567223323722947 -0.3654319964616905
2080000000.0 -0.12902187673169652 -0.40564475872676414
2100000000.0 -0.15848406781348304 -0.3859574675745329
2120000000.0 -0.16488381747840225 -0.37239984728850944
2140000000.0 -0.23918560414631757 -0.31655559336178196
2160000000.0 0.2604551843528497 -0.28256788135259864
2180000000.0 0.12327248560794886 -0.35025981418964125
2200000000.0 -0.01234020749326534 -0.36064029222685784
2220000000.0 -0.3205583696607762 -0.14905593765744138
2240000000.0 -0.23243291695953303 0.2603461236201931
2260000000.0 0.07306726422707073 0.34063687147436894
2280000000.0 0.2770993045902842 0.21339110547386322
2300000000.0 0.27223813512775424 -0.23873404887257452
2320000000.0 -0.16864229793268704 -0.3443983449493659
2340000000.0 -0.38242795785589134 0.15938041354410837
2360000000.0 0.36037791226226334 0.2772748910873573
2380000000.0 -0.31404061449959375 -0.39299210065810153
2400000000.0 0.2880212571386768 0.4742021256853664
2420000000.0 -0.5062559620108044 -0.33595848392595373
2440000000.0 0.6521651831092761 -0.0806283575342176
2460000000.0 -0.4984975590464556 0.48929570180281434
2480000000.0 0.2130297190479121 -0.6984415797975848
2500000000.0 -0.19244213641772698 0.7266225668975448
2520000000.0 0.33690053845372164 -0.6837128092332198
2540000000.0 -0.5965343122239801 0.4784047570173922
2560000000.0 0.7582943614001436 0.014501467400115086
2580000000.0 -0.385759938700373 -0.6360398085433248
2600000000.0 -0.2308309410257614 0.6815023593763858
2620000000.0 0.6476845487765772 -0.2340412220877972
2640000000.0 0.4467726368350743 -0.474621946309261
2660000000.0 -0.6078234073095877 0.014508792272239356
2680000000.0 0.39428046320907995 0.3991480147141065
2700000000.0 -0.053857900156538095 -0.5106672942224869
2720000000.0 -0.1778850692094846 0.42936384481502265
2740000000.0 0.35104288835355957 -0.2305098626819898
2760000000.0 -0.3723640432127198 0.07785368469374938
2780000000.0 0.32348765362673315 -0.1345773129034978
2800000000.0 -0.20447478754796136 0.2534069893082648
2820000000.0 -0.11337213299930739 -0.2872167910379998
2840000000.0 0.2944237114735186 0.05021660318147501
2860000000.0 -0.14346811505267265 0.25813084977102574
2880000000.0 -0.15270952530072598 -0.25240460233549866
2900000000.0 0.20082214972857673 0.21768420153654233
2920000000.0 0.042485089091024185 -0.29734667837490114
2940000000.0 -0.299366414136485 0.06606002981750443
2960000000.0 -0.09060502547906651 0.29480852156717446
2980000000.0 -0.23050581534622644 0.20944485486764505
3000000000.0 -0.27369296131596305 -0.15429808206230103
3020000000.0 0.05981566881308756 -0.3108320664895409
3040000000.0 0.27440118080523107 0.15454959513532407
3060000000.0 -0.3095828676704684 0.050947470461502366
3080000000.0 0.279913213902448 -0.13251742468932043
3100000000.0 -0.10742982148645482 0.2839881132423323
3120000000.0 0.02899956424309899 -0.29350757073425393
3140000000.0 0.1260738588469467 0.2537101053083097
3160000000.0 -0.2303083433653321 -0.13558378504345053
3180000000.0 -0.023480016991473743 0.24811521443151296
3200000000.0 -0.17432110518024388 -0.14427362319715067
3220000000.0 0.1725184170391261 -0.09883756140011024
3240000000.0 -0.030257908513149488 0.16640326477418357
3260000000.0 0.09130020077606622 -0.10305456945119262
3280000000.0 -0.07892621526661021 0.07182016612077519
3300000000.0 0.07464318178079779 0.02625724381886612
3320000000.0 -0.016807970890029965 -0.048850737148634193
3340000000.0 0.025540254338201108 0.008672492520608348
3360000000.0 0.0032409072723751263 0.005489789060845866
3380000000.0 0.01013292596754448 -0.0021725412040921087
3400000000.0 0.01777234526202053 0.01797707958051919
3420000000.0 -0.03520794830078662 0.016246822252489256
3440000000.0 0.044140019979834196 0.02374337310795705
3460000000.0 0.04974962509964057 0.027386549395269865
3480000000.0 -0.0661212702632129 -0.004133662868794453
3500000000.0 -0.05587471205034712 -0.0562256327007912
3520000000.0 -0.09395689588302522 0.017163138735674065
3540000000.0 0.10887782987474678 -0.023693751277872745
3560000000.0 -0.08511828662812157 0.09195018462717741
3580000000.0 0.056553692106395756 -0.12776288687721038
3600000000.0 0.13808894914312375 0.07773318637291199
3620000000.0 0.07984829166847154 0.15008685688889772
3640000000.0 -0.13413799991601205 0.12068428212506488
3660000000.0 -0.18473536706625937 0.04570955473539207
3680000000.0 -0.16699133506174255 -0.10096728989467428
3700000000.0 -0.12119129590009718 -0.15201387238615802
3720000000.0 0.06412791380980697 -0.1827114437498305
3740000000.0 0.16412236746100223 -0.0946929333013791
3760000000.0 -0.16804590747309478 0.06911294721648728
3780000000.0 0.171163323931502 -0.0042579028395725495
3800000000.0 0.03904961629578301 -0.15694035189960873
3820000000.0 0.03538759562178099 -0.15011932499080297
3840000000.0 0.1431875808414331 -0.04242066080914916
3860000000.0 0.029031308871969967 0.14715731683839792
3880000000.0 0.06357715617311305 0.1435470773436336
3900000000.0 0.05681422128192523 -0.1499176972797452
3920000000.0 -0.15069631738006714 0.06487516146969212
3940000000.0 0.14004470433294652 -0.09171206071690817
3960000000.0 0.13891472962898668 0.09840016815148547
3980000000.0 0.17023294096122704 -0.004248327957038303
4000000000.0 0.16129097338777504 0.028552206726671844
