! Created with skrf (http://scikit-rf.org).
# Hz S RI R 50.0 
!freq ReS11 ImS11
400000000.0 0.24929521623386147 0.8364591464627045
420000000.0 0.6609465559935089 0.5487682486338327
440000000.0 0.7743883203605397 -0.27947501421673837
460000000.0 0.23450751053833171 -0.7505416019609665
480000000.0 0.660287826989255 -0.2373904468516997
500000000.0 0.537200648539944 -0.1751588200912181
520000000.0 0.41716710116837435 -0.26439580697992277
540000000.0 0.3099461988404065 0.30315749621324517
560000000.0 -0.2813601278592747 -0.2281420902993518
580000000.0 -0.23472456138541134 0.24944149466176666
600000000.0 0.3391463527733952 0.007008627408237241
620000000.0 -0.35171125883875626 -0.057048117932203525
640000000.0 -0.29747816426146206 0.2458126147143373
660000000.0 -0.007639396742930298 0.39865043584958326
680000000.0 -0.38378176019647897 -0.18039969142211482
700000000.0 0.3259282197396769 0.30014657501967423
720000000.0 0.15576031739587573 -0.41855088200494606
740000000.0 0.43136933469105126 -0.08558921460964942
760000000.0 -0.3823967513877738 -0.17032349413090644
780000000.0 0.09206260171438843 -0.3734852278065505
800000000.0 0.18391933503578947 0.29507340646626495
820000000.0 0.16527062085321687 0.2311930727958557
840000000.0 0.12784658708180782 0.1897706237445456
860000000.0 -0.12660451373434312 0.14652860833691814
880000000.0 0.11395125693588169 0.06468011685923448
900000000.0 0.0653794000425703 -0.029950795513617567
920000000.0 0.04161146163019942 0.002485460929827456
940000000.0 -0.002124768185149714 -0.026912371512561803
960000000.0 -0.01308071844390874 0.034137278442507
980000000.0 -0.004218887968728095 -0.05184022615854947
1000000000.0 -0.058122820042212864 -0.0032267866659369602
1020000000.0 0.020441662509148188 0.07178771274075126
1040000000.0 0.05374960757568903 0.0678990524342167
1060000000.0 -0.12586444232126545 -0.01813237907714354
1080000000.0 0.1360457880017725 -0.05913314895270537
1100000000.0 -0.036102939631767014 -0.17560253989172797
1120000000.0 -0.0072275927380825045 0.20873938724690352
1140000000.0 -0.09914399904567085 -0.2292301691677062
1160000000.0 -0.27127194388572584 0.10533343725288988
1180000000.0 -0.07105875606343395 0.3221696338977659
1200000000.0 -0.07584853134087084 0.3530744215043752
1220000000.0 -0.333215460148556 -0.19601000632019097
1240000000.0 0.4066724080973895 0.024263277475808885
1260000000.0 -0.40182257435804636 -0.15121145683218656
1280000000.0 0.361916416647017 0.25123169973152976
1300000000.0 -0.06869083061418939 -0.43824752408966733
1320000000.0 -0.4339964364390106 0.020641126642427503
1340000000.0 -0.3444027903624129 -0.24545594307961685
1360000000.0 0.1528498187402131 -0.3851066705942187
1380000000.0 0.34089514236001583 -0.2367151695209126
1400000000.0 0.2185877480683765 -0.3416015505193781
1420000000.0 -0.11141313660883406 -0.37984566308207124
1440000000.0 -0.36768449565076267 -0.090569708475626
1460000000.0 -0.06295070716028231 0.3535710674007391
1480000000.0 0.28332471562145567 -0.17914400875419584
1500000000.0 -0.2612250854539832 0.15957331963056082
1520000000.0 0.2769470427303356 0.014196264854169669
1540000000.0 0.2254449905409624 0.09133419695636358
1560000000.0 0.1906978905538441 0.06390280104570802
1580000000.0 0.11181783517724822 0.12122037224131667
1600000000.0 0.08558086101304067 -0.09777571985479395
1620000000.0 0.08479636771361472 0.03835449198262944
1640000000.0 -0.053256013456555014 -0.04657778638945137
1660000000.0 -0.041888272385145565 0.0200216081938573
1680000000.0 -0.015178993448694176 -0.019041027691312797
1700000000.0 0.011431196819255921 -0.0006806364438835279
1720000000.0 0.005785367539925517 -0.010550293428321719
1740000000.0 -0.009948957601052789 -0.026995465620339425
1760000000.0 0.04350226309658755 -0.00017277961773148526
1780000000.0 0.023410705350053553 -0.06628160784282722
1800000000.0 -0.015585783258862652 0.09808728832929806
1820000000.0 -0.10439634837355403 0.06704147514581539
1840000000.0 0.04430154594831019 0.15151794790896672
1860000000.0 0.1881468195924264 0.020162442512934503
1880000000.0 0.16343324291242678 -0.15855343311317532
1900000000.0 -0.17293658985561458 -0.20895752638476128
1920000000.0 0.11849452015705635 0.28807439901783094
1940000000.0 0.11483922253534073 -0.3313662366417317
1960000000.0 -0.284036926040269 0.25742193405365227
1980000000.0 0.37010015277863667 -0.17035325874900153
2000000000.0 -0.30807079933385106 -0.2940904919197719
2020000000.0 -0.017682045250830548 0.4356562704518697
2040000000.0 0.413355437550708 0.14716685320549244
2060000000.0 0.2160510513830426 -0.37838069407951475
2080000000.0 -0.12439334813082374 -0.40767877174570744
2100000000.0 -0.09513965107080988 -0.40638922006883105
2120000000.0 -0.0956873676139665 -0.3956929694068282
2140000000.0 -0.15244548720446538 -0.36663959209192964
2160000000.0 0.31261416043303564 -0.22339516047121405
2180000000.0 0.15439454707800812 -0.3381686754273177
2200000000.0 0.014727687060940398 -0.36088780218777283
2220000000.0 -0.32170624628570915 -0.14725754139487734
2240000000.0 -0.2547706673372483 0.23744593025818933
2260000000.0 0.05563368625633167 0.34242391452344234
2280000000.0 0.29914973620804797 0.18044357934007024
2300000000.0 0.25850035600871757 -0.25360957184985145
2320000000.0 -0.17542205287055565 -0.34080181241231255
2340000000.0 -0.36537437457381167 0.19730378145772443
2360000000.0 0.3754573326975151 0.2579562045238983
2380000000.0 -0.3188904162750051 -0.3895323350808541
2400000000.0 0.33314228711813887 0.4445751387980232
2420000000.0 -0.5392762199143882 -0.2815530595104351
2440000000.0 0.6456796414516839 -0.12265587816081971
2460000000.0 -0.4998274658369027 0.4880803396754415
2480000000.0 0.21302261189766517 -0.6981633852622059
2500000000.0 -0.1555353442328025 0.734208269240763
2520000000.0 0.28569671006004604 -0.7054817236235834
2540000000.0 -0.5551666291314183 0.5250042106297094
2560000000.0 0.7576436811315493 -0.026716811435850134
2580000000.0 -0.44136959924901287 -0.5983374807694717
2600000000.0 -0.16392782741765544 0.6999054900034882
2620000000.0 0.6267469674076719 -0.28538856665568
2640000000.0 0.3772995852690521 -0.5310134377739217
2660000000.0 -0.6063185976045622 0.03476881856863705
2680000000.0 0.4038787003257351 0.38897787594938316
2700000000.0 -0.07436798056129502 -0.5080887220034792
2720000000.0 -0.18409994840345328 0.4267441906967863
2740000000.0 0.34803992886601437 -0.23521903839875213
2760000000.0 -0.3773469988288586 0.04642355399049431
2780000000.0 0.333959256790728 -0.10497037663511768
2800000000.0 -0.2260232815424676 0.23440228313882033
2820000000.0 -0.06382374835557446 -0.3020357032305986
2840000000.0 0.2806466354519606 0.10133645704754475
2860000000.0 -0.1840700858478198 0.23090782160131673
2880000000.0 -0.15262389148565078 -0.25172914265693713
2900000000.0 0.19354222165516224 0.22363607298081203
2920000000.0 0.020365541530817155 -0.2994054647638599
2940000000.0 -0.2941275348244082 0.0854703470746686
2960000000.0 -0.08238764008052335 0.29649286884747716
2980000000.0 -0.21017467411909876 0.22909137731287058
3000000000.0 -0.3062898800256181 -0.07552785636341217
3020000000.0 0.019138074186478712 -0.31716627301523237
3040000000.0 0.26458332012043484 0.17312969523338612
3060000000.0 -0.313844999694564 0.0004074788466181702
3080000000.0 0.2523306885480694 -0.1795026914017494
3100000000.0 -0.11007960268616476 0.28270523498072664
3120000000.0 0.027688295605448388 -0.293194582175615
3140000000.0 0.13709096774226132 0.24798282668958563
3160000000.0 -0.22932167824076038 -0.13839776334049275
3180000000.0 -0.059445725692108285 0.24107632589605918
3200000000.0 -0.15878183606889598 -0.16051155677004
3220000000.0 0.17709867675549984 -0.08962421044486543
3240000000.0 -0.030329476147514956 0.16640905429161326
3260000000.0 0.07081564409195346 -0.11759843582907291
3280000000.0 -0.03868648879215081 0.09948984734824397
3300000000.0 0.07903494862708488 -0.0035200152812441625
3320000000.0 -0.0499661779964258 -0.013297991144306971
3340000000.0 0.006412438940449795 -0.025766796351949624
3360000000.0 -0.005170420265945616 0.0003070892821857403
3380000000.0 0.010355410499993096 -0.004371699150977541
3400000000.0 0.006593285939513349 0.024516301413858604
3420000000.0 -0.03838271446159077 0.006518866507424485
3440000000.0 -0.02241731485997273 0.04407292470155919
3460000000.0 0.025596453679619265 0.050262552134360365
3480000000.0 -0.057038591729216916 -0.033722561400174905
3500000000.0 -0.03882449819564438 -0.06993892080209649
3520000000.0 -0.09472639803440966 -0.012517984959872682
3540000000.0 0.10704384794424354 0.028157348027272322
3560000000.0 -0.10053246116847285 0.07460400385670601
3580000000.0 0.11991375040723606 -0.06999826413942299
3600000000.0 0.05693232799909151 0.14680477166681621
3620000000.0 0.02245181737116049 0.16777607518751098
3640000000.0 -0.14920984482656777 0.10027959835221938
3660000000.0 -0.18941799522203215 0.0070852032650173214
3680000000.0 -0.14177411889064648 -0.13267071817328854
3700000000.0 -0.07531618419409429 -0.1787460605580202
3720000000.0 0.1137906257846346 -0.15483275979188768
3740000000.0 0.15685716293295418 -0.10187673794342317
3760000000.0 -0.14554479243436444 0.10517598732144026
3780000000.0 0.16705991963292566 -0.030428871750322092
3800000000.0 -0.005471302171721474 -0.16019562224768746
3820000000.0 -0.01001102696688681 -0.15324500815278252
3840000000.0 0.1343757433844329 -0.06250878066889566
3860000000.0 0.0052032957582303875 0.14933997369451835
3880000000.0 0.08673693618123854 0.13072151920717187
3900000000.0 0.06112358722609464 -0.14830809448353788
3920000000.0 -0.1382470798919674 0.08842879202111079
3940000000.0 0.09221226854597736 -0.14021612826435895
3960000000.0 0.1686102709096753 0.02779821907877949
3980000000.0 0.16630828891586455 -0.038590170524784535
4000000000.0 0.16258899566458523 -0.02307261504022307
