! Created with skrf (http://scikit-rf.org).
# Hz S RI R 50.0 
!freq ReS11 ImS11
400000000.0 -0.8046804425730268 0.305151456816317
420000000.0 0.10882455006092803 0.858781018555375
440000000.0 0.8122672247245225 -0.20415492074208666
460000000.0 0.3090536930055684 -0.7241858885607068
480000000.0 0.6455949096284194 -0.32905151229171087
500000000.0 -0.5061732916988665 -0.2572056571397713
520000000.0 -0.4812529346769836 -0.07656560958990924
540000000.0 0.16355287246194147 -0.3764565214983117
560000000.0 -0.3042077598246805 -0.20861952911984116
580000000.0 0.0960498051543984 -0.30696757716172174
600000000.0 0.06205215227344987 -0.3206868551397909
620000000.0 0.33202769470383514 -4.2801657741885783e-05
640000000.0 -0.3480991523704584 0.03670215172672275
660000000.0 -0.3018846178383211 0.23788833121745304
680000000.0 0.11458093546561182 -0.3896419727940315
700000000.0 -0.4099212779566584 0.15735156283488158
720000000.0 0.054494725263947656 0.4391453803937619
740000000.0 -0.3275137340409651 0.31661242356268954
760000000.0 -0.24792276733844024 -0.35803078437621755
780000000.0 0.39395545703262336 -0.070779942542885
800000000.0 0.22621524353768724 0.28139178147300126
820000000.0 0.04574211917888696 0.29186514475143377
840000000.0 0.045596083626238515 -0.24015988010700887
860000000.0 0.17511321681610786 0.08008429226159523
880000000.0 0.12289036667082064 -0.0819601220539848
900000000.0 -0.06571961541624703 -0.014901229629991498
920000000.0 0.034297397874744694 0.004284054219882712
940000000.0 -0.024324649922625455 -0.031158905403181548
960000000.0 0.04509766196509363 0.01984613119492497
980000000.0 -0.025457338717302158 -0.04921386760243625
1000000000.0 0.04631837272169433 -0.04232521144210933
1020000000.0 0.06781161647875225 -0.022923113792497098
1040000000.0 -0.04856413579399822 0.06774595939182379
1060000000.0 0.08733499855636666 0.08002799986417605
1080000000.0 0.13685596915795056 -0.03362069749598341
1100000000.0 -0.07845038599405525 -0.14518269489727195
1120000000.0 -0.1859972126474227 -0.0702372272398918
1140000000.0 0.17039799995808663 -0.17299799127961124
1160000000.0 -0.11938054880448945 -0.258185357707448
1180000000.0 -0.23876563515624896 0.22546885199434857
1200000000.0 -0.35467350530707376 0.05905559672606241
1220000000.0 -0.2782841942192605 -0.27876823173479354
1240000000.0 0.4042580689022988 0.08738993860867439
1260000000.0 -0.4237081108563171 0.11107593401182488
1280000000.0 0.4389551607859547 -0.0594055291790082
1300000000.0 -0.2563222001299463 -0.3651440358328761
1320000000.0 -0.3824467451071668 0.20330586650477384
1340000000.0 -0.32705789955037873 -0.2710752373485104
1360000000.0 0.012130445040048603 -0.4207178162184721
1380000000.0 0.09995538164222165 -0.40856142717375826
1400000000.0 -0.35768324224924547 -0.19357924389418318
1420000000.0 -0.3916720501926349 -0.030269965501590963
1440000000.0 -0.0647786873076065 0.36659203344858554
1460000000.0 0.10839784980274736 0.3283599696037964
1480000000.0 0.32415055055308134 -0.008258611851960961
1500000000.0 -0.0053620083267683265 -0.2985664297636535
1520000000.0 -0.2672237128426924 -0.048768419468826124
1540000000.0 0.08979837324555204 -0.2321366717374934
1560000000.0 0.04328737879197046 -0.21097279630355528
1580000000.0 -0.07645448177113857 -0.16701001356603182
1600000000.0 0.14804976526755242 0.031231532612182807
1620000000.0 -0.08182436082740258 0.08016780940798114
1640000000.0 -0.018101755903942945 0.08310138911426995
1660000000.0 -0.013743704854864315 -0.05834747614984518
1680000000.0 0.029747656429490916 0.005069961661844331
1700000000.0 -0.007425892482043965 0.008930189357224637
1720000000.0 0.022304696689831684 0.0030371284471797377
1740000000.0 -0.006159306509825349 -0.04281749645910182
1760000000.0 0.015227073334650966 0.0600395492539815
1780000000.0 0.020499109096486192 -0.08187148552019609
1800000000.0 0.07284529327201206 0.09003015055964342
1820000000.0 -0.08368595421796673 -0.1115742775516657
1840000000.0 -0.16272136207587484 0.025085122235217014
1860000000.0 0.07836864245221963 0.17413610153137188
1880000000.0 0.0055302786180688795 0.22001910441740985
1900000000.0 -0.11218176119832873 0.23216871374814996
1920000000.0 0.2599810423896882 0.1407858305055731
1940000000.0 0.2943061012088147 -0.15924167916744103
1960000000.0 -0.3369236643099343 -0.15684914897916238
1980000000.0 0.1301820252082077 0.37695029999994556
2000000000.0 0.3896578593704602 -0.16442511819162356
2020000000.0 -0.294932017344415 -0.3307524301638753
2040000000.0 -0.10325762497430746 0.4409165752004828
2060000000.0 0.4495743783993509 -0.061800890161599786
2080000000.0 -0.2713751911978367 -0.3585472393885531
2100000000.0 -0.2933317709428693 0.3234655720974969
2120000000.0 -0.043451661115622174 0.41522657405029295
2140000000.0 -0.3977132489388799 -0.012283603575483793
2160000000.0 -0.37770536726814224 -0.015639632047758402
2180000000.0 -0.23789071892154426 -0.27463677388523977
2200000000.0 -0.06939996298696656 -0.3427611557143275
2220000000.0 0.20915456344003272 -0.2776081235554997
2240000000.0 -0.06823849612371632 -0.3427883359065642
2260000000.0 -0.3028811591467227 -0.19032984340540962
2280000000.0 -0.1432986448603108 0.33709735323467205
2300000000.0 0.38145813242815196 0.007763648232430279
2320000000.0 -0.3258495443694643 -0.23946234351324627
2340000000.0 -0.06313790870686227 0.42815602070343883
2360000000.0 0.16255761383056014 -0.43843270776360477
2380000000.0 -0.4313989403395321 0.27466273218810394
2400000000.0 0.47778511698586246 -0.29156298971297806
2420000000.0 -0.4030365052015974 0.45740592609879716
2440000000.0 0.04176617496438783 -0.655564193619296
2460000000.0 0.40899452159674 0.5619851747981285
2480000000.0 -0.6701395872239185 -0.27578102775206076
2500000000.0 0.7008340914372478 0.2501122980570949
2520000000.0 -0.6639570879561588 -0.35695564175489547
2540000000.0 0.4618035713794265 0.5968359908486617
2560000000.0 0.07161344625193086 -0.7444957902653802
2580000000.0 -0.656696146111825 0.3256330685117242
2600000000.0 0.6394381122080696 0.30461549853693737
2620000000.0 -0.15046020583208095 -0.6609761989608712
2640000000.0 -0.3630512744110574 -0.5281286391054532
2660000000.0 -0.29318881980076816 0.5196716691161288
2680000000.0 0.5407251721968136 0.11347803413357603
2700000000.0 -0.15580310388149482 -0.48461839622972547
2720000000.0 -0.13160102858809714 0.4467386166792918
2740000000.0 0.342503783798653 -0.25273381041228804
2760000000.0 -0.32156431609572056 0.21743173093501816
2780000000.0 0.16724864165282355 -0.31492932212288416
2800000000.0 0.08082508011653129 0.3186826920832966
2820000000.0 -0.30316377974871256 -0.04874482637235026
2840000000.0 0.22880648780959983 -0.1809350245514689
2860000000.0 -0.09075978531509621 0.2683404191652214
2880000000.0 0.019341923362363164 -0.27795896308838713
2900000000.0 -0.17623287624139988 0.21416140332699138
2920000000.0 0.2003974393627105 0.20079669651758017
2940000000.0 0.20064319965917254 -0.21184384008792861
2960000000.0 -0.05072193764585611 -0.295748284688002
2980000000.0 -0.23059955783791347 -0.20638809338721092
3000000000.0 -0.22828230073663067 -0.21730999419495473
3020000000.0 -0.1930652714266835 -0.2520243152122232
3040000000.0 0.17645925880698193 -0.25913979930164344
3060000000.0 0.2331370743062604 0.2068416115227667
3080000000.0 -0.3009493804272812 -0.04678248654814407
3100000000.0 0.25702675097760536 -0.14666910499475233
3120000000.0 -0.19636825397047084 0.20396346217092473
3140000000.0 0.13258966872451625 -0.234374381907319
3160000000.0 -0.21975561976535787 0.1239787903401247
3180000000.0 0.011917082031802648 0.2360183808938995
3200000000.0 0.04159518908662777 -0.21191535167131634
3220000000.0 -0.08561450105151758 0.17735400820494418
3240000000.0 -0.0538241191380131 -0.16643903433614865
3260000000.0 0.148907652641241 -0.02063953075584008
3280000000.0 0.12078261981340721 0.017230578065871117
3300000000.0 0.00872930797829851 -0.09198792817557785
3320000000.0 0.060305392669293446 -0.007351380704815806
3340000000.0 0.020950857208267937 -0.02428646009936691
3360000000.0 -0.015691419743687894 0.0006817501300587916
3380000000.0 0.022549589179951056 0.011315472692984612
3400000000.0 0.03643094196158666 0.0075887915748509
3420000000.0 0.013815607043519994 -0.04394510259566095
3440000000.0 -0.0457598274711704 0.0006798022482393332
3460000000.0 0.027306717393686043 0.031589189033975076
3480000000.0 0.041179124738589534 0.021851330136816276
3500000000.0 -0.05048608271898576 -0.04173165565838385
3520000000.0 -0.04058228120733994 0.08239666460073952
3540000000.0 -0.009949252498338059 0.11529040047380386
3560000000.0 0.1339883707721102 0.017227680285718534
3580000000.0 0.14285025567907578 -0.04301318008045304
3600000000.0 0.07016437634949589 -0.14964507266093352
3620000000.0 -0.09334037101438214 -0.1431762786828719
3640000000.0 0.02360824908769628 -0.17320129526733485
3660000000.0 0.17658060610878223 0.0021447277188545557
3680000000.0 -0.16148399493874419 0.07402974908803736
3700000000.0 0.13234804882595697 -0.11704220935025149
3720000000.0 -0.17437789315618982 0.04473305772742001
3740000000.0 -0.06572488712036195 -0.1709248152244412
3760000000.0 0.1301715077811994 0.1313185979762268
3780000000.0 -0.14900626439035486 0.10591519525775403
3800000000.0 -0.09296288760736302 -0.14843610660861817
3820000000.0 0.12957137838970104 0.09977728845019182
3840000000.0 0.14793654074400342 -0.0037779723693707017
3860000000.0 -0.11838798446273775 0.07043963679813355
3880000000.0 0.12205989251716642 0.06673341637869902
3900000000.0 -0.14097527876396812 0.03768400180747451
3920000000.0 -0.15816561535652143 -0.011929154919655778
3940000000.0 0.0456673763166226 -0.16985617490030694
3960000000.0 -0.16167838186368835 -0.09577925795652174
3980000000.0 0.18135147320491268 -0.058057291046730485
4000000000.0 -0.1751747187054357 0.04042326072545126
