! Created with skrf (http://scikit-rf.org).
# Hz S RI R 50.0 
!freq ReS11 ImS11
400000000.0 0.1937436044395869 0.848935014192445
420000000.0 0.6293306112366447 0.5856196587864241
440000000.0 0.7975971610532736 -0.20621691828037086
460000000.0 0.22504157476141684 -0.752883571368735
480000000.0 0.6593230897923031 -0.23992530850254334
500000000.0 0.5452068171386991 -0.15059710128871331
520000000.0 0.396457350754331 -0.29350738015386124
540000000.0 0.3358783334423073 0.2733526829060896
560000000.0 -0.29138552360572306 -0.21582830090733898
580000000.0 -0.22631783539279446 0.2575560375662729
600000000.0 0.33947124016386016 0.0031398937063472437
620000000.0 -0.3429284888665514 -0.09703956586843604
640000000.0 -0.31626174219189174 0.22219894587700148
660000000.0 0.013895577572543552 0.3981301953759312
680000000.0 -0.37082960012445715 -0.20660817852189942
700000000.0 0.3077295833316185 0.3176272674872281
720000000.0 0.16818607746340944 -0.4137086565596188
740000000.0 0.4342915878810536 -0.06653845360861153
760000000.0 -0.39319586775318044 -0.14340128390548362
780000000.0 0.09325543252824822 -0.3730300344235817
800000000.0 0.1916012377763937 0.2903754688011383
820000000.0 0.17825363698393004 0.22181808380057805
840000000.0 0.11773664882677622 0.19618269167878036
860000000.0 -0.1271563301220917 0.1465910462659906
880000000.0 0.10624850979950307 0.07686379013743787
900000000.0 0.05980310686370201 -0.03999018927661056
920000000.0 0.03195609649075525 0.02704575342401602
940000000.0 -0.0052517095553149965 -0.027010913860282353
960000000.0 0.014935602526020716 0.03348562772624515
980000000.0 -0.032900835652283335 -0.04006390335988093
1000000000.0 -0.05694835792969004 0.010616088020068606
1020000000.0 0.041576248721400984 0.062044759308758406
1040000000.0 0.0676254674694849 0.05395361713566626
1060000000.0 -0.12643511916467878 -0.01484332958671114
1080000000.0 0.13988209851440264 -0.05010037622724282
1100000000.0 -0.052633718362096044 -0.17172260064440495
1120000000.0 -0.020613449552657925 0.2077438636779178
1140000000.0 -0.08538331544763648 -0.23461473966541393
1160000000.0 -0.2718069476145361 0.10360452040054074
1180000000.0 -0.09764194520300372 0.3149488947099415
1200000000.0 -0.0984222166939416 0.34710958461658864
1220000000.0 -0.31782513553185987 -0.2198797475174495
1240000000.0 0.4044384086993135 0.04882985205420461
1260000000.0 -0.4021395158348621 -0.15094962776554777
1280000000.0 0.36028252673342204 0.2539706410767414
1300000000.0 -0.06934068928392761 -0.438311978464176
1320000000.0 -0.4329500351220821 0.03731023391671259
1340000000.0 -0.354731765662445 -0.23034325617721976
1360000000.0 0.13499834351124698 -0.391667437644473
1380000000.0 0.33220518078314665 -0.24860896712489408
1400000000.0 0.2177398195933005 -0.34234513146738094
1420000000.0 -0.12219811604703056 -0.3765165986295796
1440000000.0 -0.3685060805476291 -0.08852525099930889
1460000000.0 -0.048496492482999955 0.35575092202746045
1480000000.0 0.2572118963402081 -0.21511678816055474
1500000000.0 -0.26175320449313716 0.15953538265741474
1520000000.0 0.276003180941766 0.03167181334339512
1540000000.0 0.21453778949665792 0.1154642484448496
1560000000.0 0.19771589056795535 0.03743500805526466
1580000000.0 0.12025746534864144 0.11344906756902541
1600000000.0 0.07838243744924392 -0.10371638599227476
1620000000.0 0.07178886494633974 0.0594018508178896
1640000000.0 -0.04286476106038276 -0.05650648501012714
1660000000.0 -0.04614801944616362 0.005234610834443762
1680000000.0 -0.014371222503928279 -0.019597802622857645
1700000000.0 -0.011481759788592812 -0.0003840241549167375
1720000000.0 -0.001871811649472317 -0.011979304536953382
1740000000.0 0.014596421869039115 -0.024595536334041955
1760000000.0 0.03735795138297576 0.02243217738357146
1780000000.0 0.04627050698993662 -0.05308973514183541
1800000000.0 -0.04109273423308425 0.09032643498276184
1820000000.0 -0.11140066899557745 0.05474233734413853
1840000000.0 0.03221817050137886 0.15470295276672366
1860000000.0 0.1884936786590712 0.014983756382003615
1880000000.0 0.1542740230465465 -0.16675675881863566
1900000000.0 -0.17474124730142362 -0.20639518184775774
1920000000.0 0.1152165020481389 0.2886512203785387
1940000000.0 0.1189368679688784 -0.32948530569139844
1960000000.0 -0.28030963785458135 0.26125851310787945
1980000000.0 0.37099373277848263 -0.16884481846311297
2000000000.0 -0.3380119625033674 -0.2589273766145737
2020000000.0 -0.02613344353658574 0.4356234929087396
2040000000.0 0.42145525012271895 0.12419924055934708
2060000000.0 0.21770322574333345 -0.37817253194005473
2080000000.0 -0.1333696104717814 -0.4055137857972078
2100000000.0 -0.06705982130040669 -0.41257120810329667
2120000000.0 -0.1091615178429483 -0.39265631862585276
2140000000.0 -0.1276061575388247 -0.3764285470030091
2160000000.0 0.3368594991917387 -0.18549781536176804
2180000000.0 0.20099026913193205 -0.3130693225681459
2200000000.0 0.04482312585472705 -0.3585430433633271
2220000000.0 -0.3047948347478889 -0.17950389361975463
2240000000.0 -0.25090765131479387 0.24127568042757533
2260000000.0 0.06416481450734225 0.3408604276330037
2280000000.0 0.299125913980884 0.17960840238435152
2300000000.0 0.25174995210801654 -0.2593634054386752
2320000000.0 -0.19197549351628937 -0.33118831736091864
2340000000.0 -0.3659330523758912 0.19461244543725675
2360000000.0 0.384475790521767 0.2432549993072755
2380000000.0 -0.3477991614575604 -0.3638756366546931
2400000000.0 0.3447968868551882 0.43529987870984665
2420000000.0 -0.5351637722461959 -0.28925964083447225
2440000000.0 0.6434997919971635 -0.13451153699146856
2460000000.0 -0.4708264657785067 0.5160744152585393
2480000000.0 0.1802127616657754 -0.7078348560319353
2500000000.0 -0.21012514972793495 0.721239446603868
2520000000.0 0.26482732417469346 -0.7142831360301696
2540000000.0 -0.5699403145284989 0.5096485982536353
2560000000.0 0.7583231961427809 0.01365186473524882
2580000000.0 -0.4185187438593813 -0.6148907506384925
2600000000.0 -0.1964666462269317 0.6914527783420892
2620000000.0 0.6487884631181847 -0.2303307865652922
2640000000.0 0.4332954807465615 -0.48607276939613275
2660000000.0 -0.6061864508939407 0.03375500660839051
2680000000.0 0.40476949081230096 0.38757250514473734
2700000000.0 -0.08520787805654208 -0.5061544782517784
2720000000.0 -0.18041079229940657 0.4278896927676295
2740000000.0 0.33132391973673414 -0.25801728032875326
2760000000.0 -0.37328883963695203 0.07066605571933879
2780000000.0 0.3288673157778469 -0.11966055312207421
2800000000.0 -0.2254860867849976 0.2348346932201003
2820000000.0 -0.06963180877451386 -0.3008629992967178
2840000000.0 0.2811885277722774 0.10032026352997972
2860000000.0 -0.1781435757263935 0.23577703464608318
2880000000.0 -0.13937665469975197 -0.259949639113016
2900000000.0 0.21560470954807046 0.20246710388350742
2920000000.0 0.010214896397251818 -0.300130179548464
2940000000.0 -0.2979814003327504 0.07213091303990316
2960000000.0 -0.08062572546131358 0.29739309991470436
2980000000.0 -0.19989914582171156 0.23876917785852242
3000000000.0 -0.3071595831799154 -0.07156724223725194
3020000000.0 0.036632979955648015 -0.3159465305477029
3040000000.0 0.22871333054825846 0.21942616403460666
3060000000.0 -0.31420280283246027 -0.0028262342662776366
3080000000.0 0.27849405067943966 -0.1365712989985641
3100000000.0 -0.18641867324646227 0.24016355854954793
3120000000.0 0.01846132381310063 -0.2945688730544669
3140000000.0 0.1333861570729839 0.2504943046318233
3160000000.0 -0.21517180783237394 -0.15942722968488893
3180000000.0 -0.09538573247952588 0.22928067108443154
3200000000.0 -0.13722718286230945 -0.17876208991628084
3220000000.0 0.1925897581088085 -0.045714696937131455
3240000000.0 -0.06398815619426554 0.15587854129046422
3260000000.0 0.08434136452239938 -0.10770007591770656
3280000000.0 -0.07718875933283316 0.07348724430205347
3300000000.0 0.07588852374301298 -0.020462017772861156
3320000000.0 -0.051069844176138614 0.0019395931263464156
3340000000.0 -0.009261555600940366 -0.024295092671902836
3360000000.0 -0.004480010489351861 -0.0026313241617675976
3380000000.0 -0.0056147670700858006 -0.010462913165432852
3400000000.0 -0.014933976320791893 0.02156735636502057
3420000000.0 -0.037182174055861154 -0.013483508769037651
3440000000.0 -0.025490787509644605 0.04257278196651348
3460000000.0 -0.006760392428129025 0.05624249115996983
3480000000.0 -0.030581815276941576 -0.05881983687492284
3500000000.0 0.002981321207534935 -0.07978359611382507
3520000000.0 -0.09611637088918482 0.002233760795280184
3540000000.0 0.0976399582606275 0.05279430141517414
3560000000.0 -0.1237111975396468 0.016487999501763998
3580000000.0 0.13570653295329396 -0.027837983675867543
3600000000.0 0.012059102072910678 0.156756706012187
3620000000.0 -0.004613597125238243 0.16917334588132354
3640000000.0 -0.1670075665178995 0.06522659425519313
3660000000.0 -0.18694333101798435 -0.026806746281917045
3680000000.0 -0.12200222602039068 -0.15066701924679146
3700000000.0 -0.05599505875569537 -0.18523625055727927
3720000000.0 0.12048964748360408 -0.14945578246024896
3740000000.0 0.16341561298065363 -0.09035084904955398
3760000000.0 -0.13861778460239887 0.11287963840657399
3780000000.0 0.16697443143695118 -0.02731963703538515
3800000000.0 0.005524133120203504 -0.15983040973659166
3820000000.0 -0.009379487805024839 -0.15268058649048377
3840000000.0 0.12893920155504127 -0.07142361311913878
3860000000.0 0.0015104634676340806 0.1487645898217399
3880000000.0 0.09325288963582615 0.12559730609141667
3900000000.0 0.047573809994406545 -0.1525417474124416
3920000000.0 -0.12972203325421763 0.09951181361516824
3940000000.0 0.07835541567009677 -0.1483006754684922
3960000000.0 0.1700607347169133 -0.012024751362728427
3980000000.0 0.14256209041249213 -0.09273493584735057
4000000000.0 0.1288896294597009 -0.10124647512540072
