! Created with skrf (http://scikit-rf.org).
# Hz S RI R 50.0 
!freq ReS11 ImS11
400000000.0 -0.7989647856635078 0.32392632388085685
420000000.0 0.16018530501601758 0.8500991624500259
440000000.0 0.8063466136810733 -0.2268851358341606
460000000.0 0.31052533630283585 -0.7236939576506123
480000000.0 0.6136633365637089 -0.3862017541405727
500000000.0 -0.48485003135655075 -0.29150526731316
520000000.0 -0.4571088751866406 -0.17232770487318957
540000000.0 0.05543364706185186 -0.40757740320565244
560000000.0 -0.33248350501990337 -0.15642514201411864
580000000.0 0.16341080454122428 -0.27632958500779714
600000000.0 0.0523655397604928 -0.3233535653416199
620000000.0 0.3264485465364482 -0.06159844289396157
640000000.0 -0.34728378635543217 0.03629161995743601
660000000.0 -0.2943988903116497 0.24767379496306752
680000000.0 0.10542831305089913 -0.3915978318434617
700000000.0 -0.4107018504576337 0.15742407955660803
720000000.0 0.0900972350921032 0.4325218557801326
740000000.0 -0.33675496439615216 0.3076861532897829
760000000.0 -0.2082110746894718 -0.38268815611061385
780000000.0 0.39652143430456577 -0.05770886573969458
800000000.0 0.207501343590521 0.29523785253625207
820000000.0 0.04427783973935469 0.29274204215412436
840000000.0 -0.0050056175968524515 -0.24439367669548645
860000000.0 0.19045964840414203 0.027003842500506844
880000000.0 0.10700349269407036 -0.10204550509240794
900000000.0 -0.05562217674295317 0.03834772937277905
920000000.0 0.007302447758950975 -0.033950535714222435
940000000.0 -0.03985990276850612 -0.0008054111145416776
960000000.0 0.04265483717181135 0.025392071208911335
980000000.0 -0.03560537304097132 -0.04297936028066916
1000000000.0 0.02833066257666053 -0.05676068469614825
1020000000.0 0.06656748383755562 -0.025320808690166546
1040000000.0 -0.03893896244836242 0.0732804102112304
1060000000.0 0.09231804129018657 0.0735920255508086
1080000000.0 0.1345044731163823 -0.04027576690030431
1100000000.0 -0.06010968817318186 -0.1534960899201411
1120000000.0 -0.17648241587172586 -0.09096086988762982
1140000000.0 0.1656810227884433 -0.17835824822338112
1160000000.0 -0.1039538850549296 -0.26508888612624903
1180000000.0 -0.23703015368478975 0.2274544075192679
1200000000.0 -0.35522655741544695 0.05496133799687681
1220000000.0 -0.2702456757976945 -0.2869559275723421
1240000000.0 0.4077488691403721 0.06898215833985757
1260000000.0 -0.4279279959213067 0.0938905351695135
1280000000.0 0.4396635045828944 -0.05475910294675183
1300000000.0 -0.26631680775704863 -0.3582467014703332
1320000000.0 -0.36564892838061736 0.23275239527370253
1340000000.0 -0.3488945550837562 -0.24201557637433488
1360000000.0 -0.008117634067996404 -0.42034379608502304
1380000000.0 0.0792915980431407 -0.41257146845075643
1400000000.0 -0.35819602486779945 -0.19146312819397962
1420000000.0 -0.38835364458386845 -0.058153843217064224
1440000000.0 -0.09233327566603919 0.36021387941307403
1460000000.0 0.0845074444394637 0.3351510024391704
1480000000.0 0.32428839162977274 -0.005792140276349493
1500000000.0 0.007277347500279257 -0.29846832066004675
1520000000.0 -0.26071943310150836 -0.0773749629386064
1540000000.0 0.07388606327947642 -0.2378020614881662
1560000000.0 0.04849606340108244 -0.2098316905366862
1580000000.0 -0.059741786509403316 -0.17363283273495672
1600000000.0 0.1502227363287175 0.014899374075280783
1620000000.0 -0.07871525170278199 0.08278467695862163
1640000000.0 0.0057480311434667895 0.0850375471626271
1660000000.0 -0.02232920138954527 -0.05545109698921425
1680000000.0 0.028878959429734022 0.008651447630283558
1700000000.0 -0.011511146656865182 0.0007881571051248972
1720000000.0 -0.003055766987838528 0.022274797867205872
1740000000.0 -0.019909186377923566 -0.03860060965566784
1760000000.0 0.039815319712675046 0.04808431240961137
1780000000.0 -0.006230269567016263 -0.08445284105007256
1800000000.0 0.08977274855870605 0.07429016421640305
1820000000.0 -0.1026466610304633 -0.09482484519230326
1840000000.0 -0.1539167636731703 0.059061264296149336
1860000000.0 0.09372189030015585 0.16642706933853246
1880000000.0 0.022425843716860336 0.21897472858529574
1900000000.0 -0.10981199334317938 0.23305924351070142
1920000000.0 0.2561785939215555 0.14783609528038355
1940000000.0 0.30098485472762304 -0.14608112011678687
1960000000.0 -0.32968358721194235 -0.17169990561569892
1980000000.0 0.12184061695783407 0.3798054874160556
2000000000.0 0.3904121462681284 -0.16245395533991594
2020000000.0 -0.3029895564935514 -0.32318726830738415
2040000000.0 -0.11480273480508227 0.43812553328229575
2060000000.0 0.4486068746390698 -0.06950969682712783
2080000000.0 -0.2749173024534971 -0.3558317977631999
2100000000.0 -0.2645895455501696 0.3474767527957638
2120000000.0 -0.017080637637531877 0.41694555890019086
2140000000.0 -0.3957812380689533 0.03951297579417304
2160000000.0 -0.3778835139833999 0.003182222791340003
2180000000.0 -0.2506397955896444 -0.26288966631284943
2200000000.0 -0.08495219495637488 -0.3390667544969613
2220000000.0 0.2010586710343803 -0.28290621480840666
2240000000.0 -0.06910160683686403 -0.34237288156095835
2260000000.0 -0.29998338930502966 -0.19509818533559115
2280000000.0 -0.12812809916367343 0.3433498653990982
2300000000.0 0.38188518007101546 -0.0028957095000636205
2320000000.0 -0.329067524740275 -0.23538124110863975
2340000000.0 -0.024689098589882226 0.43234269299777306
2360000000.0 0.14597844850396363 -0.4442291813679306
2380000000.0 -0.4215623655853712 0.2894623891956385
2400000000.0 0.4547681971099918 -0.3264756096285699
2420000000.0 -0.3501826701174108 0.49890900656030085
2440000000.0 -0.056003035602708376 -0.6541238369085023
2460000000.0 0.4636238116548683 0.5174239083318967
2480000000.0 -0.6899710648935266 -0.2207606997991701
2500000000.0 0.7170264794235902 0.197997830015724
2520000000.0 -0.6817403826325176 -0.32114572421611487
2540000000.0 0.47769875038598403 0.5836746714022149
2560000000.0 0.054958139292703934 -0.7454474403916334
2580000000.0 -0.6190378285001559 0.39087864428943425
2600000000.0 0.6697552623127189 0.22819037788220714
2620000000.0 -0.1651116980951351 -0.6564590940966027
2640000000.0 -0.38421313510695176 -0.5114776210172532
2660000000.0 -0.3015384169877672 0.513102208210843
2680000000.0 0.535629365045873 0.12950208342174488
2700000000.0 -0.14768713274022702 -0.4856900328830713
2720000000.0 -0.137478341880976 0.44391707651190265
2740000000.0 0.34505902392918997 -0.24773681076237394
2760000000.0 -0.3141230103465501 0.22646454191284107
2780000000.0 0.13114430932048632 -0.33045241044587575
2800000000.0 0.11796845236257932 0.3058121435588438
2820000000.0 -0.30616025364260274 -0.013355438455411085
2840000000.0 0.2020739410886547 -0.20926616655565153
2860000000.0 -0.05976825628696724 0.2761077509358873
2880000000.0 -0.0020456757912782277 -0.278012530115247
2900000000.0 -0.15708469099904548 0.2282352809301072
2920000000.0 0.20643157336839021 0.19437647562134652
2940000000.0 0.19981794865246535 -0.21240909335560113
2960000000.0 -0.01951449913077644 -0.29977920757209237
2980000000.0 -0.22236233968795527 -0.2150900103100275
3000000000.0 -0.21440231168730517 -0.23208298221071053
3020000000.0 -0.1416733457350751 -0.2844513130868549
3040000000.0 0.18514199691401192 -0.2532771719832758
3060000000.0 0.2017898790167398 0.23767053091994442
3080000000.0 -0.3015084200164107 -0.040325873084015966
3100000000.0 0.255946554028483 -0.1473241560361037
3120000000.0 -0.22960718920511122 0.16534061634009795
3140000000.0 0.13065693273858806 -0.2350798565938383
3160000000.0 -0.22944386431147537 0.10309364033210477
3180000000.0 -0.027213498818491028 0.23406494071682982
3200000000.0 0.06391346599016512 -0.2061257541301239
3220000000.0 -0.10479616874259261 0.16650171782206277
3240000000.0 -0.0332013219002954 -0.171446257426736
3260000000.0 0.14925769788104287 0.015441684355951722
3280000000.0 0.11514038540549745 0.04062658818186032
3300000000.0 0.004704201523569285 -0.09244381514091396
3320000000.0 0.06044720351751832 0.0057283096870827666
3340000000.0 0.002564113260346082 -0.0317725663332671
3360000000.0 -0.010999853385187521 -0.012507616484155873
3380000000.0 0.024459128731553058 0.007219613546508814
3400000000.0 0.0352643844647374 -0.013319035699648285
3420000000.0 0.00797401254918091 -0.04605237464196477
3440000000.0 -0.03839556549638725 0.025321776978814083
3460000000.0 0.028999275383569466 0.029763812955625402
3480000000.0 0.046651041284888915 -0.0014941974061521567
3500000000.0 -0.014228801779507319 -0.06349277357006014
3520000000.0 -0.03553377319575982 0.08513354937103167
3540000000.0 -0.03395097639619232 0.11046657253709832
3560000000.0 0.135859984422435 -0.008576935750392712
3580000000.0 0.12485919941703447 -0.08336893428816998
3600000000.0 0.07452378378983798 -0.14754127031720826
3620000000.0 -0.10280243107144933 -0.1366539389762054
3640000000.0 0.0031140655998006315 -0.1753211900002693
3660000000.0 0.17664699035496248 -0.004934996137137391
3680000000.0 -0.16259327692792394 0.07160293255896179
3700000000.0 0.15347875994806923 -0.08726514799174874
3720000000.0 -0.17906527135420097 0.02224251251297464
3740000000.0 -0.024792613567356507 -0.18181658291172684
3760000000.0 0.10865011620106745 0.15035852862789953
3780000000.0 -0.1624395985401636 0.08483129663353291
3800000000.0 -0.09859532907683397 -0.14524183220132686
3820000000.0 0.13374874441609888 0.09467174258447215
3840000000.0 0.14787523113691503 0.008162007329199973
3860000000.0 -0.12674436569843264 0.05375910923791375
3880000000.0 0.12149954041489791 0.0674836237229741
3900000000.0 -0.1456783820443562 -0.0008786749670316508
3920000000.0 -0.1483020712841316 -0.05570604510909787
3940000000.0 0.08480683864372253 -0.15343295125665493
3960000000.0 -0.1514481175924368 -0.11079076682264925
3980000000.0 0.1808063689235666 -0.06006146063131421
4000000000.0 -0.16267696965267647 0.07712838257078515
