! Created with skrf (http://scikit-rf.org).
# Hz S RI R 50.0 
!freq ReS11 ImS11
400000000.0 -0.793096438272802 0.3415978076503307
420000000.0 0.1717735062963038 0.8474868487544949
440000000.0 0.8275134428914097 -0.1391240896533433
460000000.0 0.3384265497916171 -0.7137948881187526
480000000.0 0.5575063313892671 -0.46267778906391815
500000000.0 -0.387768758582535 -0.40851117085582483
520000000.0 -0.4452521276951144 -0.20788841121517632
540000000.0 -0.08596386173008003 -0.4030019135033231
560000000.0 -0.3390594292039978 -0.1345540725200219
580000000.0 0.2709979315085202 -0.17316460402697328
600000000.0 -0.02822281062010654 -0.328627325243864
620000000.0 0.28828216308880383 -0.16524179281551554
640000000.0 -0.3488957594859188 -0.016553224778792078
660000000.0 -0.30351722666979775 0.23686486739814963
680000000.0 0.14616603174771073 -0.3795596791270027
700000000.0 -0.3829779688735027 0.21698861686945967
720000000.0 0.0617748091369793 0.4375739362291656
740000000.0 -0.36546246432650703 0.2726167874980924
760000000.0 -0.25329268141868627 -0.3539302547332952
780000000.0 0.391236802635905 -0.07974567776118299
800000000.0 0.20481919675736288 0.2967025889767413
820000000.0 0.03343749733478669 0.2935840393339848
840000000.0 0.0551298300581533 -0.23756833220328422
860000000.0 0.1538348871422415 0.11401242052967343
880000000.0 0.11393650865109528 -0.09379703291092534
900000000.0 -0.0641610783407867 -0.02321924744633561
920000000.0 0.0335719870117293 0.012226830102049177
940000000.0 0.016777570676485977 -0.0344874042003224
960000000.0 0.03548385989916416 0.033151459410078014
980000000.0 -0.025899384523556217 -0.04850559038461549
1000000000.0 0.05983725609924539 -0.021193947081480972
1020000000.0 0.06890829204569186 0.0184469789019739
1040000000.0 -0.07218975817421597 0.04202383859181147
1060000000.0 0.0884660669386148 0.07911895957031263
1080000000.0 0.12632047261585283 -0.06328511398782433
1100000000.0 -0.09060228248021764 -0.1386686458903452
1120000000.0 -0.18615602757998426 -0.07075315483616114
1140000000.0 0.18298416810740983 -0.161153694138357
1160000000.0 -0.09732022322204047 -0.26778644001857205
1180000000.0 -0.23738739886938337 0.22744500310365112
1200000000.0 -0.3578773329917053 0.0409146877884574
1220000000.0 -0.2561368389146707 -0.3000800346039787
1240000000.0 0.39730376880346085 0.11493097875251013
1260000000.0 -0.42513879970803675 0.10580854856844289
1280000000.0 0.4360940726794943 -0.07399923311030104
1300000000.0 -0.2524960531499421 -0.3673913967051596
1320000000.0 -0.3708342325535863 0.2232225988354929
1340000000.0 -0.3286789025874729 -0.2691257545763212
1360000000.0 0.03200063583950642 -0.41919462561176757
1380000000.0 0.08246776540512891 -0.4125042467020627
1400000000.0 -0.366199431182492 -0.17673552251985736
1420000000.0 -0.39259096006725025 -0.019724503329793766
1440000000.0 -0.053994080382469216 0.3685495284133957
1460000000.0 0.12092609518425841 0.3239034725228318
1480000000.0 0.3237466823874021 -0.01839751102484282
1500000000.0 -0.005031704615205004 -0.2982090808592957
1520000000.0 -0.26697643662020737 -0.04985778730626272
1540000000.0 0.07814640246633134 -0.2357927649816862
1560000000.0 0.08447926265672143 -0.19792583816021078
1580000000.0 -0.07434299060930974 -0.16816754933515052
1600000000.0 0.14463872391855792 0.04426551113658619
1620000000.0 -0.09470414865596856 0.06402061166781817
1640000000.0 0.0394899758098156 0.07570513262285548
1660000000.0 -0.03135392175362604 -0.05165862274478468
1680000000.0 0.028811588392388794 0.010730652406712152
1700000000.0 -0.0010955287250853213 0.011692327075623897
1720000000.0 0.020501897552593972 -0.009110907586231917
1740000000.0 -0.001682447497641135 -0.043461485386736255
1760000000.0 0.022974778210363856 0.05785384008246788
1780000000.0 -0.0023950630357878694 -0.08410582542845095
1800000000.0 0.07788924449688682 0.08608160737620216
1820000000.0 -0.101568128351977 -0.09595272676527461
1840000000.0 -0.16011526350793753 0.04130369080334721
1860000000.0 0.04603456425234135 0.18561658543306506
1880000000.0 -0.005864680744360764 0.2201939270251107
1900000000.0 -0.122274474045108 0.22665434784661023
1920000000.0 0.25617669148478706 0.1482157875239641
1940000000.0 0.2949766019913652 -0.1579901501921785
1960000000.0 -0.33122756318342106 -0.16870402136153087
1980000000.0 0.1268672061539137 0.377722109124988
2000000000.0 0.38739464975606785 -0.16926377138200913
2020000000.0 -0.31275093938171533 -0.31355410989168253
2040000000.0 -0.06417541086089776 0.44778351635949154
2060000000.0 0.44163846586206557 -0.10480269432022409
2080000000.0 -0.2864284914733056 -0.3468863354639495
2100000000.0 -0.2902243164629963 0.326077936560343
2120000000.0 -0.10839740066651747 0.40328202698968263
2140000000.0 -0.3966392447320828 -0.02938536496932941
2160000000.0 -0.37777329383893343 -0.01134657056704907
2180000000.0 -0.24503356295327317 -0.2690735424692787
2200000000.0 -0.07912577857584699 -0.34121568132254315
2220000000.0 0.20871942717265324 -0.27865135530583923
2240000000.0 -0.08054159675982213 -0.34024117265185844
2260000000.0 -0.3124672756201814 -0.17516138865041517
2280000000.0 -0.1371280263948615 0.33995638252365357
2300000000.0 0.38202786553847173 -0.006344435991704976
2320000000.0 -0.3257795085819656 -0.23964903437824156
2340000000.0 -0.09901871536096 0.4212454426092155
2360000000.0 0.21617040614897368 -0.41406962229862043
2380000000.0 -0.44828482380939794 0.24607393890421483
2400000000.0 0.49253559861784607 -0.26580232866698505
2420000000.0 -0.4288572192162248 0.4333265307743713
2440000000.0 0.03586180200428202 -0.6557366426573666
2460000000.0 0.3800847272877127 0.5823525368339381
2480000000.0 -0.6460238849820192 -0.33016924007813037
2500000000.0 0.7014616338528483 0.24783857740421417
2520000000.0 -0.6624600952044554 -0.35957467426448264
2540000000.0 0.4165978351279841 0.6295760482268346
2560000000.0 0.07381621029351607 -0.7448980658988485
2580000000.0 -0.6639246111043935 0.31222562734802367
2600000000.0 0.6371939355029367 0.31143678315188034
2620000000.0 -0.08211945804436352 -0.6736939890770947
2640000000.0 -0.37288413882312493 -0.521615251032217
2660000000.0 -0.3137455493873823 0.5072770645267987
2680000000.0 0.5501839911934009 0.05259916559919817
2700000000.0 -0.1880803179794811 -0.47373977458429356
2720000000.0 -0.13972999134721162 0.44402103190122766
2740000000.0 0.3482993315731515 -0.2440510505603773
2760000000.0 -0.3289678276599575 0.20497857306007197
2780000000.0 0.13522965961521716 -0.32929210353814004
2800000000.0 0.10685910496222276 0.31054450346601287
2820000000.0 -0.3063052138136806 -0.026740274883590168
2840000000.0 0.20630331221303752 -0.2069835361379261
2860000000.0 -0.059011644334808086 0.2768725479426759
2880000000.0 -0.0010367211743197414 -0.27909592650907367
2900000000.0 -0.16396184086252483 0.22434868146480966
2920000000.0 0.22016577796722517 0.17920207686354098
2940000000.0 0.22889812122734526 -0.18073761292547097
2960000000.0 -0.02038768443956231 -0.2993067128857511
2980000000.0 -0.2350348327787874 -0.20115672831570464
3000000000.0 -0.2533875835969498 -0.1874412173219417
3020000000.0 -0.18963932454134466 -0.2552225136326912
3040000000.0 0.23012137469740032 -0.2144180374756528
3060000000.0 0.21050449187070935 0.23030332675295118
3080000000.0 -0.30241541294882557 -0.02439537313023889
3100000000.0 0.26754948629498093 -0.12387239128344718
3120000000.0 -0.1940509887562781 0.20686660967643167
3140000000.0 0.12449042887284924 -0.23871104502004836
3160000000.0 -0.20091343936388203 0.15203852074589175
3180000000.0 0.021719396259324147 0.23511569603854757
3200000000.0 0.03425546489211037 -0.21350110949864234
3220000000.0 -0.04251614252973001 0.19264530348427783
3240000000.0 -0.0878392670768932 -0.1510343223471324
3260000000.0 0.14199390220959593 -0.049518108513846505
3280000000.0 0.12195130344643546 0.01285547632810286
3300000000.0 0.011432415064824977 -0.09239538316064214
3320000000.0 0.060447386323234556 0.0021455833225904252
3340000000.0 0.010060921326848651 -0.02957692902538597
3360000000.0 -0.009697035639361312 -0.013101381158032941
3380000000.0 0.024661241146206513 0.007142972380402949
3400000000.0 0.018572250378384256 0.03281690604153288
3420000000.0 0.043206445716117384 -0.01746132719366601
3440000000.0 -0.042161035511011746 0.019315197163966815
3460000000.0 0.009394608579225168 0.0414785467251351
3480000000.0 0.04244658105333457 -0.021842263354484557
3500000000.0 -0.04308986149288247 -0.05032411421926328
3520000000.0 -0.022051570399253782 0.09046109440862436
3540000000.0 -0.00041323380237745896 0.11660110360167324
3560000000.0 0.12612183524383255 0.05159497728854573
3580000000.0 0.14307501811002343 -0.044291131723762346
3600000000.0 0.05135158146911729 -0.15805416370752307
3620000000.0 -0.06379892301762098 -0.15958997640944203
3640000000.0 -0.007528788851137511 -0.176696111591764
3660000000.0 0.17755245160872923 -0.013466410777715323
3680000000.0 -0.17476630897638837 0.038264184764594235
3700000000.0 0.14902622998763343 -0.09621584395761092
3720000000.0 -0.18006993258720103 0.019908496810648296
3740000000.0 -0.01790162864529683 -0.18206627116070606
3760000000.0 0.10653341218657277 0.15050524614106897
3780000000.0 -0.1681615030404885 0.06996661017074028
3800000000.0 -0.0636312472736311 -0.1629624798905747
3820000000.0 0.08246592379589848 0.14079637553781627
3840000000.0 0.1458644102397727 0.022884290158268386
3860000000.0 -0.1378325373313792 0.003310029576281985
3880000000.0 0.09470981274842412 0.10154139279261463
3900000000.0 -0.14515514534060567 -0.01257228463672333
3920000000.0 -0.14745442762439173 -0.059140191804169205
3940000000.0 0.04730415954534111 -0.168244759709202
3960000000.0 -0.1638503879906854 -0.09053223598903598
3980000000.0 0.19050437747976243 -0.008479751612439074
4000000000.0 -0.18079463060382941 -0.0038644077484936592
