! Created with skrf (http://scikit-rf.org).
# Hz S RI R 50.0 
!freq ReS11 ImS11
400000000.0 0.23778377392145794 0.8367258746642154
420000000.0 0.6331594464893848 0.5812238075576606
440000000.0 0.7735610547042678 -0.28062106822295496
460000000.0 0.18932346432328667 -0.7622144566816725
480000000.0 0.6639974632588934 -0.22514650776294884
500000000.0 0.5429477345995536 -0.1601864740510917
520000000.0 0.3880534099897997 -0.3050700536837671
540000000.0 0.3157663991308024 0.29604150386285594
560000000.0 -0.26342558631184876 -0.24930577243568527
580000000.0 -0.1982643454951007 0.2796855891775675
600000000.0 0.33761218597773957 -0.029806253003701242
620000000.0 -0.345507856085919 -0.08277550830418454
640000000.0 -0.31025070979421265 0.2301339031567813
660000000.0 -0.009004082069647042 0.3986704676809857
680000000.0 -0.372763082423773 -0.2036209356805059
700000000.0 0.33120688983126223 0.293507659304704
720000000.0 0.14877450584370802 -0.42163572012551787
740000000.0 0.4342310568971228 -0.07233027321615312
760000000.0 -0.3952840343190784 -0.13650214268291685
780000000.0 0.09156040857582175 -0.373924701697954
800000000.0 0.19774760221290036 0.2861528911076044
820000000.0 0.16684085787571398 0.22978570688616512
840000000.0 0.11167873570571954 0.1998476688930558
860000000.0 -0.12700450762287557 0.14644289137316607
880000000.0 0.11538157671498744 0.06058945967659321
900000000.0 0.06627389828778492 -0.026167359809727144
920000000.0 0.03298075335627327 0.025454371559185656
940000000.0 0.020837270808930067 -0.017411827058922677
960000000.0 0.013799659597407725 0.03349230561283615
980000000.0 0.011471343462517693 -0.05068868876344567
1000000000.0 -0.04804325230216968 -0.03273772540566093
1020000000.0 0.008570946432479208 0.07442763792322042
1040000000.0 0.054140677709409606 0.06769935823385106
1060000000.0 -0.12569171843387378 -0.0173962397235733
1080000000.0 0.14230770536877227 -0.040700103016531285
1100000000.0 -0.0362760566190437 -0.17571783471180896
1120000000.0 -0.03196417422653667 0.2063821484525418
1140000000.0 -0.09749504952403434 -0.22990078246287496
1160000000.0 -0.2644390514157277 0.1217811834303646
1180000000.0 -0.06913850807681537 0.3227266212156852
1200000000.0 -0.06285594371287122 0.35565580384866274
1220000000.0 -0.3419662449362827 -0.18015182315036252
1240000000.0 0.406941113928899 0.01208380073293172
1260000000.0 -0.4059145025663624 -0.14022117023477948
1280000000.0 0.369353021274219 0.2400119384316064
1300000000.0 -0.05134316718546471 -0.4405983106152182
1320000000.0 -0.43417185636256367 0.015274129698165493
1340000000.0 -0.3361480227446203 -0.2568703196587404
1360000000.0 0.15549118609640342 -0.38420800171975866
1380000000.0 0.34153894804011586 -0.2359164507813686
1400000000.0 0.2294819230185813 -0.3347493003302285
1420000000.0 -0.11995928711380308 -0.3770673240326425
1440000000.0 -0.3668229670926072 -0.09453810510897166
1460000000.0 -0.06122737492135757 0.3536558313680051
1480000000.0 0.26655767769118155 -0.20325973624174878
1500000000.0 -0.25814293385813636 0.16487293265754127
1520000000.0 0.2772681215260772 -0.0011719001257752104
1540000000.0 0.23150154548346366 0.07318077281975187
1560000000.0 0.1967091074110166 0.03983812626751588
1580000000.0 0.12832139341286244 0.10361868450211222
1600000000.0 0.05101022179370078 -0.11902217741730702
1620000000.0 0.08439980730494451 0.03847473920817002
1640000000.0 -0.024226683742372964 -0.06632279610018744
1660000000.0 -0.04213298711198524 0.01990564512560905
1680000000.0 -0.022810080770165376 -0.009000947958401614
1700000000.0 -0.01068978151458874 0.004299529152181932
1720000000.0 -0.01169020124369361 0.0027937066370663046
1740000000.0 -0.00603788493985778 -0.027588435126224532
1760000000.0 0.04296493616067318 -0.007061593525981569
1780000000.0 0.017607387297909734 -0.06817869236762514
1800000000.0 0.007027191520918055 0.09871396760472283
1820000000.0 -0.09762985349597124 0.07613928133550153
1840000000.0 0.031419602660380616 0.15463445533478223
1860000000.0 0.18590280628813413 0.03665431598386922
1880000000.0 0.17320071519313684 -0.14828723526263038
1900000000.0 -0.17148711263289695 -0.21061144523817854
1920000000.0 0.1244298965261043 0.2859118662803759
1940000000.0 0.1212429372228224 -0.32932104138841006
1960000000.0 -0.28092651005853886 0.26081049122352074
1980000000.0 0.3697010838230115 -0.17079211640811934
2000000000.0 -0.3229804866747705 -0.27639882832699686
2020000000.0 -0.06537660745562729 0.4306815653573468
2040000000.0 0.4117291100404939 0.15096351706533095
2060000000.0 0.2556781316102541 -0.35266762067777596
2080000000.0 -0.09975300421035588 -0.41410125007739695
2100000000.0 -0.08256027317759308 -0.4088292868242142
2120000000.0 -0.12218300223501154 -0.3880381958453995
2140000000.0 -0.1660918090326916 -0.36047092367369066
2160000000.0 0.30615500890254427 -0.2315763153484696
2180000000.0 0.14606064267095484 -0.34154753761502393
2200000000.0 0.007933457082386408 -0.3607960346897146
2220000000.0 -0.33254450863941465 -0.1192826564580558
2240000000.0 -0.24802817335361488 0.2442793658688785
2260000000.0 0.07281685698938142 0.3394528392115022
2280000000.0 0.299810013407272 0.1797346832202134
2300000000.0 0.2669792547348916 -0.24430750489278072
2320000000.0 -0.18450752592277006 -0.3362286616843603
2340000000.0 -0.37805243907007674 0.17068326734645575
2360000000.0 0.3695528686368883 0.26617853411889697
2380000000.0 -0.3121011986765885 -0.39524208058933785
2400000000.0 0.31608039061258564 0.4565986454780884
2420000000.0 -0.5027535481908001 -0.34246599699245245
2440000000.0 0.6519718943254754 -0.08274545532421432
2460000000.0 -0.5079306793385726 0.47922395696762665
2480000000.0 0.19154243503185306 -0.7039105499700364
2500000000.0 -0.1258680999434671 0.7394879506565752
2520000000.0 0.3133757925688754 -0.6938422906293229
2540000000.0 -0.5652629602294903 0.5139082416998405
2560000000.0 0.7580768827617889 -0.01416636314236633
2580000000.0 -0.4186761983537269 -0.6145655375963743
2600000000.0 -0.18351567028751553 0.6951496077367545
2620000000.0 0.6203393505136884 -0.29927791377696306
2640000000.0 0.36612201097953967 -0.5393123106578096
2660000000.0 -0.6043839478142723 0.06271597666836055
2680000000.0 0.4201202369987935 0.37236543543470163
2700000000.0 -0.10048326450504752 -0.5044106179600935
2720000000.0 -0.1779479319622694 0.4300074247444026
2740000000.0 0.359971832690767 -0.21786120652230892
2760000000.0 -0.37565501025497594 0.06346983908294102
2780000000.0 0.33068388918376773 -0.11681760259005497
2800000000.0 -0.22974602503559882 0.23140173014004312
2820000000.0 -0.06701489694166901 -0.3017568479822341
2840000000.0 0.27376956289093646 0.12007235133096521
2860000000.0 -0.2001893094055207 0.2170153537975069
2880000000.0 -0.12386233821468326 -0.2670972527532294
2900000000.0 0.19029831148935292 0.2261256104092273
2920000000.0 0.0037527413441119095 -0.29991895471598684
2940000000.0 -0.2997676555712078 0.062228778895509144
2960000000.0 -0.11086602717037809 0.2870351047181258
2980000000.0 -0.19117695389545647 0.24584258988549204
3000000000.0 -0.31003757193361187 -0.05625047633118973
3020000000.0 -0.02051474282328552 -0.3164351813709867
3040000000.0 0.2711725934455708 0.1624532198332232
3060000000.0 -0.30761336657678284 0.062280805891317445
3080000000.0 0.23372250885880325 -0.20229446780287072
3100000000.0 -0.14360814598173638 0.26670347742898387
3120000000.0 -0.0072392995911809465 -0.29482869801089934
3140000000.0 0.1630202843392527 0.23215545160851025
3160000000.0 -0.2433663161384534 -0.11182473760034452
3180000000.0 -0.04597154372957471 0.24428823693623855
3200000000.0 -0.18114995598894792 -0.13548683572665465
3220000000.0 0.15878491967186417 -0.11927824738614075
3240000000.0 0.002188782550097122 0.16925764371151136
3260000000.0 0.04516691417338091 -0.12969994240896324
3280000000.0 -0.05477187273502466 0.09196093525723789
3300000000.0 0.07915335137242288 -0.007983620872456784
3320000000.0 -0.04941953187550246 -0.016192003176040276
3340000000.0 0.011255089890089281 -0.0245143069253488
3360000000.0 -0.004269838948968135 -0.004730249046217642
3380000000.0 0.009163365950522013 0.005331178895758678
3400000000.0 -0.003650308473216083 0.02471361014205369
3420000000.0 -0.03768236788235315 -0.009473597952407046
3440000000.0 0.019865243366045483 0.0453423445682773
3460000000.0 0.027822933253593644 0.04867803196163735
3480000000.0 -0.047699606110575804 -0.04512467445590141
3500000000.0 -0.05824309140020609 -0.05432656239642489
3520000000.0 -0.09474346161872424 -0.005699808121406775
3540000000.0 0.11065270104812369 0.006565542149253703
3560000000.0 -0.10454420710523846 0.06806947333074365
3580000000.0 0.11488596331718219 -0.07754626902154521
3600000000.0 0.08958231647387453 0.12984471565453523
3620000000.0 0.03393135377187187 0.16557595163062758
3640000000.0 -0.13854371609505917 0.11413185165425098
3660000000.0 -0.1869495606003257 0.03237981640001114
3680000000.0 -0.153720488790456 -0.11800698007752877
3700000000.0 -0.09345327211786994 -0.16994883667013488
3720000000.0 0.09655604789231444 -0.16566815054442782
3740000000.0 0.14932587334345415 -0.11270570760423455
3760000000.0 -0.12915400153622492 0.12459381962422468
3780000000.0 0.1572956335753232 -0.06457799412657085
3800000000.0 -0.039304569913383866 -0.15575936593063458
3820000000.0 -0.03542364622390497 -0.14979369536057266
3840000000.0 0.12060490534512054 -0.08653634457076631
3860000000.0 0.031537604411123986 0.1466371837157881
3880000000.0 0.10673695828597336 0.1154917998743211
3900000000.0 0.035376276194460494 -0.15658668550656424
3920000000.0 -0.130998092507832 0.09957499291657208
3940000000.0 0.08289805251900711 -0.14710508921555215
3960000000.0 0.17117253962792253 -0.00012565097634651833
3980000000.0 0.16260434821645403 -0.053816478015742554
4000000000.0 0.16318508165766496 -0.025283009070199133
