! Created with skrf (http://scikit-rf.org).
# Hz S RI R 50.0 
!freq ReS11 ImS11
400000000.0 0.23369232340300247 0.8377971563837325
420000000.0 0.6851468655079853 0.516141366760415
440000000.0 0.7535652186703413 -0.32908966586917643
460000000.0 0.18033518581077404 -0.7649162422461085
480000000.0 0.6545201347339817 -0.2520404766688507
500000000.0 0.5529501482996614 -0.11862796589190122
520000000.0 0.4188287311239327 -0.2603314138232564
540000000.0 0.3323056576193283 0.2770281330791659
560000000.0 -0.3088499771924324 -0.19095687693206925
580000000.0 -0.18734612345439272 0.2863526920933283
600000000.0 0.3393193863800311 -0.022410610049349685
620000000.0 -0.34986452606014073 -0.07248686990270037
640000000.0 -0.312115976653539 0.2296060215061319
660000000.0 -0.1353523674556817 0.3767796733917337
680000000.0 -0.3023441525143256 -0.29933683958767393
700000000.0 0.21771229632592012 0.3860995088494371
720000000.0 0.236016066723072 -0.378722045359822
740000000.0 0.43805370035518737 -0.03384323271612869
760000000.0 -0.3750330566962784 -0.18413191624716294
780000000.0 0.09331021097810965 -0.3720731953098072
800000000.0 0.21670979592791595 0.2709902069115188
820000000.0 0.21754298295273408 0.18157968543336242
840000000.0 0.20070809693207015 0.10949518714276962
860000000.0 -0.01574931726020703 0.19362890398732982
880000000.0 0.12446178805843021 -0.043215235847083984
900000000.0 0.020248522739439775 -0.0702838944548967
920000000.0 0.039129317495522224 0.018834670068115664
940000000.0 -0.026186408579395654 -0.005093962865082521
960000000.0 -0.030613012437846938 -0.014709561348337098
980000000.0 0.016575083099504163 -0.046477933540445535
1000000000.0 -0.02424965369911725 0.05028107898404192
1020000000.0 0.06754536374956109 -0.027847439086648187
1040000000.0 0.06580759801438604 -0.05535543382406966
1060000000.0 -0.08904376964634736 0.09145255975440392
1080000000.0 0.08897953951516736 -0.11982214008387149
1100000000.0 -0.11342120672560241 -0.14128915921862165
1120000000.0 0.014261776524660198 0.21104757577360714
1140000000.0 -0.08135746855919772 -0.23909210104569192
1160000000.0 -0.2852883976832496 0.06966052403411088
1180000000.0 -0.14645091265762447 0.2980597172432502
1200000000.0 -0.18980805032807802 0.30870551399110313
1220000000.0 -0.27321439594262714 -0.2742134726466608
1240000000.0 0.3922578658355065 0.1091903592668061
1260000000.0 -0.38179988262705605 -0.1957506856020308
1280000000.0 0.3237210446349493 0.29833729692131594
1300000000.0 -0.015507596199685005 -0.442645906808482
1320000000.0 -0.433126417849955 -0.012263642711113736
1340000000.0 -0.3399183470180922 -0.250481541232815
1360000000.0 0.1358178464058063 -0.3909119363614065
1380000000.0 0.32154035075793513 -0.26226208800251766
1400000000.0 0.1794059745537379 -0.36377859688242703
1420000000.0 -0.15750151215159874 -0.36313233799762645
1440000000.0 -0.37647286828045173 -0.04480996865728469
1460000000.0 -0.023917623524576367 0.35866806219760416
1480000000.0 0.24025185542498056 -0.23497463144335445
1500000000.0 -0.24539602620470025 0.18449687813746005
1520000000.0 0.27759259297465166 -0.007637088360586022
1540000000.0 0.2241560624963 0.09488648667950936
1560000000.0 0.1947658491221526 0.05046612801550132
1580000000.0 0.11014625075251008 0.12252907697395714
1600000000.0 0.10501201107221858 -0.07637075920420841
1620000000.0 0.06664961740578774 0.0650813473278266
1640000000.0 -0.010674869812019296 -0.07006661670997172
1660000000.0 -0.039609883329177274 -0.02378546512684006
1680000000.0 -0.017760784910740877 -0.01673377285886778
1700000000.0 -0.007553000520086217 -0.008869381214603947
1720000000.0 -0.005725356018691827 0.010930715978991111
1740000000.0 -0.02530170993788762 -0.014824493113176936
1760000000.0 0.037220009580474805 -0.023974818101258656
1780000000.0 0.015273887194405169 -0.06851717738338872
1800000000.0 -0.021967349977636056 0.09677022372083814
1820000000.0 -0.11147043648394725 0.05346105301241356
1840000000.0 0.0014289555770797937 0.15728025784500135
1860000000.0 0.1752836238505779 0.07194675103014606
1880000000.0 0.17774776240540305 -0.14297346466465805
1900000000.0 -0.17075436225703822 -0.21174997107885868
1920000000.0 0.12184905961364792 0.28744100181793303
1940000000.0 0.10857085319223098 -0.3338980776891947
1960000000.0 -0.27193293496989007 0.2701560586908609
1980000000.0 0.36120102077361366 -0.18806358674924767
2000000000.0 -0.3359254408116202 -0.260603756037323
2020000000.0 -0.08498424217985533 0.42733524026937936
2040000000.0 0.41014272140071917 0.1547402401268247
2060000000.0 0.2594131944260374 -0.34970073191958195
2080000000.0 -0.09342914863594405 -0.4158134951434654
2100000000.0 -0.08019867867795645 -0.41002482890598285
2120000000.0 -0.16969689481969277 -0.37022038909725796
2140000000.0 -0.1950495680797989 -0.34540067658952617
2160000000.0 0.30413663527565754 -0.23471591297661024
2180000000.0 0.16895358802041102 -0.3300750171462222
2200000000.0 0.023616583817645535 -0.3594290926700889
2220000000.0 -0.30501816424998485 -0.17816329486982752
2240000000.0 -0.23518261854449474 0.2563405422260913
2260000000.0 0.08008767011356328 0.33801380195767033
2280000000.0 0.2941616410160992 0.18769970702860583
2300000000.0 0.24357678796767668 -0.2670465325506752
2320000000.0 -0.20484974252082364 -0.3235934164730905
2340000000.0 -0.36255827084001035 0.20006094507093455
2360000000.0 0.39219953144825237 0.23045585693152817
2380000000.0 -0.33771796354829814 -0.3732316072788653
2400000000.0 0.3223948262406091 0.4521545394559439
2420000000.0 -0.521049562046607 -0.3140552106343913
2440000000.0 0.6541168707290158 -0.07115476192921814
2460000000.0 -0.5040738188055804 0.48455168377115315
2480000000.0 0.2293402681345784 -0.6935232816705765
2500000000.0 -0.21545503466517998 0.7202903612567184
2520000000.0 0.38178117412512175 -0.6596613160576233
2540000000.0 -0.6162044613032017 0.4517237510746577
2560000000.0 0.7509237764331202 0.10164388768618675
2580000000.0 -0.35724723679866927 -0.6511551054574617
2600000000.0 -0.2594109847076712 0.6696292185216169
2620000000.0 0.6491454680183845 -0.22502137357696858
2640000000.0 0.462071170380714 -0.45705350369245556
2660000000.0 -0.6061470513963411 0.005307216739525709
2680000000.0 0.4090646168041059 0.3814973272640461
2700000000.0 -0.05859101542074943 -0.5086172120286137
2720000000.0 -0.1515804522300338 0.438104525775672
2740000000.0 0.3414462306545834 -0.2429634274882393
2760000000.0 -0.368200399692572 0.0922186602689567
2780000000.0 0.3117805723747749 -0.15893620901215452
2800000000.0 -0.17613578379931938 0.27385060316762094
2820000000.0 -0.14319555401011225 -0.27393054988522103
2840000000.0 0.2979087474765665 0.027137215149889586
2860000000.0 -0.14015793040677643 0.26070544365216364
2880000000.0 -0.15180454619559877 -0.25397028127268895
2900000000.0 0.18668919369157777 0.23080586073267584
2920000000.0 0.07544581348303164 -0.29133956552635687
2940000000.0 -0.30701302868983305 -0.005940871955425298
2960000000.0 -0.16327349752153247 0.2619773867777347
2980000000.0 -0.26853314365275366 0.15824362619392776
3000000000.0 -0.22411317899207425 -0.22114802375313783
3020000000.0 0.12855551732545226 -0.2892891336167445
3040000000.0 0.24095650054273685 0.20278715742644382
3060000000.0 -0.311041962859818 -0.03648339631244418
3080000000.0 0.29975146946660414 -0.07350261100832735
3100000000.0 -0.14182618502483604 0.2675308634171938
3120000000.0 0.06028861626043107 -0.28773414127272146
3140000000.0 0.12059990363104109 0.255275084401511
3160000000.0 -0.21215042500674605 -0.16062397303851753
3180000000.0 -0.019919415248355714 0.24761230868435508
3200000000.0 -0.17738583690599832 -0.1389245050775373
3220000000.0 0.16045172207489902 -0.11653926289087968
3240000000.0 -0.0003530255777683128 0.168392527531417
3260000000.0 0.057041323622312984 -0.12467567826212245
3280000000.0 -0.04443108589706867 0.09656524987873345
3300000000.0 0.07631357765728511 -0.01955017989805622
3320000000.0 -0.050798816314055736 -0.0074439617745301785
3340000000.0 0.0011161548617162587 -0.027057570002283697
3360000000.0 0.0067038834220771466 0.0015146969101761483
3380000000.0 -0.008883118880121567 -0.0052744232723279565
3400000000.0 -0.022219774607121635 -0.011377673700673203
3420000000.0 -0.017202611188670898 -0.03416501505228087
3440000000.0 -0.016306657497977228 0.04684514900980189
3460000000.0 0.001952744118016138 0.05623096630915206
3480000000.0 -0.01854880709418665 -0.06269732148395053
3500000000.0 0.00019148899634219673 -0.0784058836295469
3520000000.0 -0.0851896588048076 -0.04090272037488693
3540000000.0 0.11071579466785499 0.00916353207033567
3560000000.0 -0.10725494143824799 0.06312018949325246
3580000000.0 0.09774286792931855 -0.09861948867782001
3600000000.0 0.11812456960167736 0.1041038065919811
3620000000.0 0.052753695502617784 0.16011155674582048
3640000000.0 -0.1347882826332912 0.11880574289344926
3660000000.0 -0.18429236968039434 0.04426986246068551
3680000000.0 -0.16556242424642145 -0.1007061322660309
3700000000.0 -0.12950254136268788 -0.1433496839273798
3720000000.0 0.04380598943092489 -0.1875630094119301
3740000000.0 0.14069630280962475 -0.12505130173471177
3760000000.0 -0.14479813978952738 0.1077438190770884
3780000000.0 0.16497502664819425 -0.04297012655648585
3800000000.0 -0.030865414747000754 -0.15733093490416503
3820000000.0 -0.022930725375138693 -0.15202040991020185
3840000000.0 0.08724722088377669 -0.1192496595668406
3860000000.0 0.09260255277862911 0.11670481880116011
3880000000.0 0.12204926416698438 0.0966776908087876
3900000000.0 -0.0075300836628307 -0.15922296650853968
3920000000.0 -0.09481990823335106 0.13294062965512873
3940000000.0 0.08365405031468749 -0.14468912398773773
3960000000.0 0.1694836827643638 -0.010585504259013398
3980000000.0 0.12072530360273039 -0.11952652548647374
4000000000.0 0.1429866986465177 -0.07993978020072919
