! Created with skrf (http://scikit-rf.org).
# Hz S RI R 50.0 
!freq ReS11 ImS11
400000000.0 -0.8150595581642175 0.2741757600633093
420000000.0 0.15388422549641192 0.8503563128044889
440000000.0 0.7915148102874141 -0.2747987885696888
460000000.0 0.25857302264809945 -0.7432354879373092
480000000.0 0.6440544132185048 -0.3311655651880608
500000000.0 -0.47479991756834783 -0.31046473040030664
520000000.0 -0.48307036791424796 -0.07365871765430061
540000000.0 0.0980057795745283 -0.39765609561710236
560000000.0 -0.33429185999413547 -0.15486265827189863
580000000.0 0.07843329236860629 -0.31220859114029814
600000000.0 -0.0805757517207529 -0.31944974943885285
620000000.0 0.3270899800352139 -0.06290641320349605
640000000.0 -0.34498707868114864 -0.06923843340374294
660000000.0 -0.3525065437973982 0.16038638233502703
680000000.0 0.11837975647006513 -0.3896264761461141
700000000.0 -0.43508422778624595 0.06561031117051645
720000000.0 -0.053248901259854674 0.4390638592008614
740000000.0 -0.3932390822067025 0.22944024066497634
760000000.0 -0.2034484790877539 -0.3835992233477443
780000000.0 0.39430032946891336 -0.05923089321275137
800000000.0 0.2637778436644925 0.2439531010726544
820000000.0 0.0963320135267738 0.2787768816057363
840000000.0 -0.0019070890396716376 -0.24375564088081025
860000000.0 0.19183296490773116 -0.008959033882627605
880000000.0 0.0849960186058472 -0.12192016446244067
900000000.0 -0.06986134494383432 0.002535351865171586
920000000.0 -0.027600445926862085 0.024895587245240044
940000000.0 0.0005607273898203383 0.037823203180619824
960000000.0 0.040671210931863586 0.023611484696747603
980000000.0 -0.035853228626621325 -0.039539779543235724
1000000000.0 0.014726101950211038 -0.06006745055255014
1020000000.0 0.04187297222167982 -0.05683782207876241
1040000000.0 -0.006469503126194437 0.08279979707875498
1060000000.0 0.11779696018827865 -0.015852253956877164
1080000000.0 0.09785862277034729 -0.10286816621593217
1100000000.0 -0.12949431632757177 -0.10529675324014448
1120000000.0 -0.18572403808825697 -0.07537875820536853
1140000000.0 0.20325161081845122 -0.1372658931336472
1160000000.0 -0.03310850907912612 -0.2842603419426344
1180000000.0 -0.2863930202552644 0.16396928301696026
1200000000.0 -0.3603117576265304 -0.024591870098099086
1220000000.0 -0.18220531036468623 -0.3500842759081178
1240000000.0 0.37340458888784606 0.17839244177056354
1260000000.0 -0.43476072951146516 0.05634545730089599
1280000000.0 0.43799702298263976 -0.06059280645811032
1300000000.0 -0.23073750813526617 -0.38115497301372997
1320000000.0 -0.38124349473115476 0.20479639614192172
1340000000.0 -0.3330822899171682 -0.2631891519747065
1360000000.0 0.017929234706586132 -0.4201525278323593
1380000000.0 0.07904005829367186 -0.4127023002833537
1400000000.0 -0.36755587665674355 -0.1744699329074588
1420000000.0 -0.3931399423406628 -0.012002147975459666
1440000000.0 -0.027413446872649013 0.3716074927501502
1460000000.0 0.12288600170548097 0.32301325676405884
1480000000.0 0.31817004449491143 -0.0645151956481737
1500000000.0 -0.011296219736140433 -0.2987033670398842
1520000000.0 -0.2686736093970624 -0.041607622651047727
1540000000.0 0.09927778840229612 -0.22842960103451274
1560000000.0 0.10039538490611812 -0.19078038054457286
1580000000.0 -0.06781674282530913 -0.17122656966493696
1600000000.0 0.1459982005502698 0.04002564239032585
1620000000.0 -0.09940680575193019 0.056296854799083744
1640000000.0 0.02401869377802124 0.0817698470373861
1660000000.0 -0.011648496363888499 -0.05892259548203516
1680000000.0 0.029125436305893104 -0.009750817999598045
1700000000.0 -0.012159807142224153 0.0008468288806664065
1720000000.0 0.019425993145760677 0.012148718053422082
1740000000.0 -0.0030036791100504566 -0.043467699831449
1760000000.0 0.0010522115832105178 0.061888265193198205
1780000000.0 -0.0018233590235765265 -0.08418813679169852
1800000000.0 0.09053537870848877 0.07286567377825147
1820000000.0 -0.09813833986414207 -0.09858257349041959
1840000000.0 -0.16089630589668982 0.036871774487005717
1860000000.0 0.05805913415304257 0.18214699861541744
1880000000.0 -0.0028267013036438918 0.2200205548677275
1900000000.0 -0.11593955607138724 0.22973975382326306
1920000000.0 0.26824554617435076 0.12532799870890685
1940000000.0 0.29468828860484986 -0.15833854853615825
1960000000.0 -0.33826856245607895 -0.15462964709629884
1980000000.0 0.11746050570621926 0.38116124418687863
2000000000.0 0.389374091847116 -0.165451106866341
2020000000.0 -0.3000072060818262 -0.32612711965581365
2040000000.0 -0.0854270711630884 0.4445217327283098
2060000000.0 0.45039359885585 -0.05788127328659195
2080000000.0 -0.2498918788119533 -0.3740073188049349
2100000000.0 -0.3169417824198813 0.30026268465678024
2120000000.0 -0.09030121340419789 0.4073164911229566
2140000000.0 -0.39726191070226136 -0.004003371361024146
2160000000.0 -0.3724611664563992 -0.06150771547090329
2180000000.0 -0.2418463074783723 -0.2711852058815683
2200000000.0 -0.0724150902259698 -0.34200874230283856
2220000000.0 0.19866961071296005 -0.28458407181358797
2240000000.0 -0.08256270574260628 -0.33890368653033137
2260000000.0 -0.3220705105993216 -0.15512770201059142
2280000000.0 -0.10668016541619177 0.3501556285422965
2300000000.0 0.3787479900201752 -0.04779608724495281
2320000000.0 -0.3421250206321743 -0.21526764924915517
2340000000.0 -0.05154820063358938 0.4298773909375565
2360000000.0 0.17853121024409366 -0.43190972395516236
2380000000.0 -0.4421523155363091 0.25718033958703473
2400000000.0 0.48672581331875636 -0.2767923014094142
2420000000.0 -0.41618982838638297 0.44579204155507446
2440000000.0 0.07751123109883827 -0.652622329730399
2460000000.0 0.37139846395483894 0.5882309366961679
2480000000.0 -0.6465605479449911 -0.32894883356609933
2500000000.0 0.6696527972648784 0.3248824927183762
2520000000.0 -0.6370539941150615 -0.4029611761002537
2540000000.0 0.40166567600511466 0.6391115329270469
2560000000.0 0.14492347522541102 -0.7339990351050342
2580000000.0 -0.670715463741177 0.2961012946446038
2600000000.0 0.6287054031201583 0.3269289772187147
2620000000.0 -0.05296676251391637 -0.6759211391987238
2640000000.0 -0.32018444125996637 -0.5544409478540131
2660000000.0 -0.3327570736114756 0.4939402650664473
2680000000.0 0.5456400521220979 0.08213617806099038
2700000000.0 -0.1868551580482368 -0.4733845417651703
2720000000.0 -0.1267414129911616 0.4474743650895505
2740000000.0 0.3115371506796672 -0.288733966566431
2760000000.0 -0.30753967243565467 0.23541482888466891
2780000000.0 0.1182107594660125 -0.33592813518727904
2800000000.0 0.14401962718654562 0.29560114071466503
2820000000.0 -0.3076721523370734 0.00552446746246323
2840000000.0 0.21169337622668677 -0.20211378090479218
2860000000.0 -0.08582604918236192 0.2708570902209436
2880000000.0 -0.006334226752092121 -0.27960490592697107
2900000000.0 -0.16858573486725162 0.22144272801289808
2920000000.0 0.15708974026457498 0.23706324729804618
2940000000.0 0.24907942689328422 -0.15360787144181304
2960000000.0 0.02270410453520571 -0.29996829764376953
2980000000.0 -0.21442163561516372 -0.22301705553643295
3000000000.0 -0.18803299381460364 -0.2525780143104323
3020000000.0 -0.12633099550080662 -0.29209296587423966
3040000000.0 0.24250994632325182 -0.19969085839859102
3060000000.0 0.1666918602978582 0.2625269068008877
3080000000.0 -0.28154265761609637 -0.11234486682463764
3100000000.0 0.2747896291058646 -0.10669957200218476
3120000000.0 -0.23415401572185437 0.15741209552945118
3140000000.0 0.16018951884162935 -0.21516037176904626
3160000000.0 -0.21340062371816804 0.13282774391392582
3180000000.0 0.02245515008419862 0.23438716007042448
3200000000.0 0.016465780078482702 -0.21471139209661588
3220000000.0 -0.027502198813336227 0.19513812947580886
3240000000.0 -0.1069564062879317 -0.13758749736773718
3260000000.0 0.12566564417524362 -0.08214657985926702
3280000000.0 0.12190449282544961 0.00900410120581148
3300000000.0 -0.04165379379151281 -0.08368005452629214
3320000000.0 0.03987212796336172 -0.04633209346510413
3340000000.0 -0.02768447005098811 -0.015737529931507708
3360000000.0 -0.006653238282725895 -0.015383113139240092
3380000000.0 -0.017007882665977688 0.019002863658000406
3400000000.0 0.009348125703745106 0.036283882415267546
3420000000.0 0.03816003732590934 0.025944891101724096
3440000000.0 -0.04491824314927377 -0.008610430659643127
3460000000.0 -0.015169476020615445 0.03912059237638115
3480000000.0 0.031056398968925373 0.03528539801351211
3500000000.0 -0.013698578600830794 -0.06437227419645258
3520000000.0 -0.06424484827161465 0.0668276783701898
3540000000.0 -0.031021424548754357 0.11189217040868227
3560000000.0 0.10809038286418093 0.08188514883003703
3580000000.0 0.148723615540125 -0.008026446374543708
3600000000.0 0.07780738215889639 -0.14579439802040683
3620000000.0 -0.0505713644836059 -0.16253020784579833
3640000000.0 0.028986070689495564 -0.17305773506141087
3660000000.0 0.17606038139241556 -0.015143169154797251
3680000000.0 -0.1713298407467414 0.04702198742393202
3700000000.0 0.14806704844209018 -0.09610038434513518
3720000000.0 -0.17629938416622118 0.035084995542433654
3740000000.0 -0.0472099672601696 -0.1759581030245793
3760000000.0 0.12548182470207145 0.13410980077567358
3780000000.0 -0.15510587667016784 0.0935734264636441
3800000000.0 -0.09155747443642158 -0.14821904112165984
3820000000.0 0.10994546260832137 0.12012976989804122
3840000000.0 0.1454672326288893 -0.019683346950033466
3860000000.0 -0.13171010274234846 0.03886149858662898
3880000000.0 0.11560240360154976 0.07638618392829562
3900000000.0 -0.14550174525019594 0.007858444539846405
3920000000.0 -0.15520040905908486 -0.03187308279576904
3940000000.0 0.036407061521728706 -0.17133792582542667
3960000000.0 -0.17243607161889546 -0.07193231342082078
3980000000.0 0.19005633545957384 -0.017364133087594113
4000000000.0 -0.18092793105528995 0.00018247492639940284
