! Created with skrf (http://scikit-rf.org).
# Hz S RI R 50.0 
!freq ReS11 ImS11
400000000.0 -0.8089416738696901 0.2957775118448378
420000000.0 0.11466723757314778 0.8576411194142783
440000000.0 0.8162742753467516 -0.19035410584169693
460000000.0 0.27531045349148336 -0.7379469167241645
480000000.0 0.6431805098104982 -0.3326848753664556
500000000.0 -0.44791062866988984 -0.34863764764606914
520000000.0 -0.4876226696833507 -0.025135525873928758
540000000.0 0.07967261663316778 -0.401978061606972
560000000.0 -0.2654153354027084 -0.2545964236703718
580000000.0 0.15110533840244522 -0.2855245541751919
600000000.0 -0.05008230820535671 -0.32308461645447595
620000000.0 0.33040683395307385 -0.015451221998968825
640000000.0 -0.3502809571770069 0.013634265168689999
660000000.0 -0.28281386884844945 0.260220431398195
680000000.0 0.07792535732950373 -0.39806193611760426
700000000.0 -0.41522356227339563 0.1411753664169466
720000000.0 0.07109599008099342 0.4368125453254926
740000000.0 -0.32112504273995907 0.3234523419126127
760000000.0 -0.2462060950753545 -0.359392856428171
780000000.0 0.3923628469789758 -0.07966142303356986
800000000.0 0.2130081930742989 0.2915173962245433
820000000.0 0.035081465523563636 0.29348583887416735
840000000.0 0.03398529855781347 -0.24211335980280257
860000000.0 0.17700923015235917 0.07663079648392661
880000000.0 0.11828115690860004 -0.08903558247177168
900000000.0 -0.05919597252723297 -0.03362220320789535
920000000.0 0.026163118719545138 0.022922907978469582
940000000.0 -0.016498864157092414 -0.03557301028105275
960000000.0 0.04485606244220271 0.020973760910418755
980000000.0 -0.023720843278892675 -0.05025972373065593
1000000000.0 0.05607465960798485 -0.028591092126809263
1020000000.0 0.07148402064876187 -0.004784572790062813
1040000000.0 -0.058437581802430645 0.06000486353312471
1060000000.0 0.07387536623424981 0.09263438371910933
1080000000.0 0.1376067303197351 -0.03040404989018646
1100000000.0 -0.07068181079703006 -0.1489570687901925
1120000000.0 -0.18157411535927148 -0.08178915433266272
1140000000.0 0.1471062053520025 -0.1931334007869871
1160000000.0 -0.11232965474010072 -0.26102726691022754
1180000000.0 -0.24340053694522948 0.2205082629870549
1200000000.0 -0.3533899834634498 0.06564090726073656
1220000000.0 -0.2582411133055099 -0.29699287417069997
1240000000.0 0.40323737051514025 0.09167739535935757
1260000000.0 -0.4228047596351372 0.11423334110495038
1280000000.0 0.43883842744050894 -0.06003913776535082
1300000000.0 -0.24943074814253968 -0.36994112935196855
1320000000.0 -0.38456916519431267 0.19909568048559256
1340000000.0 -0.32369617377760307 -0.2753302452361169
1360000000.0 0.012508123286636745 -0.4206594440700439
1380000000.0 0.10082212708211812 -0.408560666336933
1400000000.0 -0.351599588554227 -0.20419311729856598
1420000000.0 -0.3913392941573474 -0.035852951354064765
1440000000.0 -0.060543078205052635 0.36709602181872264
1460000000.0 0.09366823289918697 0.33260388662763235
1480000000.0 0.3242460653434058 -0.002895783574767977
1500000000.0 -0.018437052226386266 -0.29779069497210015
1520000000.0 -0.26687092518669664 -0.05008292623373677
1540000000.0 0.09310915716415052 -0.23060968665973994
1560000000.0 0.051129340061199145 -0.2094635842999738
1580000000.0 -0.07661507187707205 -0.1667777111172977
1600000000.0 0.14549109843322738 0.04136592450859655
1620000000.0 -0.08162462914641384 0.08044716872852463
1640000000.0 0.00021595240401948572 0.08549723693708991
1660000000.0 -0.005023599472952589 -0.05963628912272514
1680000000.0 0.02774691943603878 0.011920001210329101
1700000000.0 0.00013928194964090096 0.011285221717441587
1720000000.0 0.020815582986232487 -0.008366929396436018
1740000000.0 -0.03652669645912383 -0.0233826470817797
1760000000.0 0.019513912734188982 0.05897597283058467
1780000000.0 0.028490138265760964 -0.07931145758963015
1800000000.0 0.08273403223645137 0.08134352964361523
1820000000.0 -0.08377963973556728 -0.11135919067276498
1840000000.0 -0.16270385929503256 0.025258015642131315
1860000000.0 0.07809526867865721 0.17408838877113958
1880000000.0 0.0029182792488859893 0.21980690689148172
1900000000.0 -0.12656677877097489 0.2247693677328056
1920000000.0 0.25831366362614694 0.14365342499327374
1940000000.0 0.29743860065796834 -0.15323522376938112
1960000000.0 -0.3328565930703315 -0.16470772114321167
1980000000.0 0.13168612330055396 0.3762640747300222
2000000000.0 0.3884894888834683 -0.16671974349346236
2020000000.0 -0.29435252576279486 -0.3313754384609974
2040000000.0 -0.07691630663734292 0.4462642694115279
2060000000.0 0.44810940393451243 -0.07186272707079798
2080000000.0 -0.2782125070446342 -0.3532360284784231
2100000000.0 -0.2971609627580561 0.31993737886943424
2120000000.0 -0.04187082500402932 0.4153663027464381
2140000000.0 -0.3975509787106078 -0.015140343442999086
2160000000.0 -0.3765212362273418 -0.03253105348075978
2180000000.0 -0.2210152959895063 -0.288396157181873
2200000000.0 -0.0736784514542476 -0.3417299838682517
2220000000.0 0.19478534912424977 -0.28777126544243603
2240000000.0 -0.059408954263888016 -0.34402342163033023
2260000000.0 -0.3047767111952223 -0.18739184959445454
2280000000.0 -0.11991117956672535 0.3460941722727175
2300000000.0 0.380745890380459 0.015942566995631836
2320000000.0 -0.32298198569230724 -0.24294630808774642
2340000000.0 -0.07128239010262516 0.426566860766337
2360000000.0 0.17681162464339117 -0.4326230788393956
2380000000.0 -0.42614745219109007 0.2828665827697195
2400000000.0 0.49053880455744 -0.2693016774808736
2420000000.0 -0.4254424190254942 0.43660350567621564
2440000000.0 0.03652583022396805 -0.6557540268245019
2460000000.0 0.39277154275770615 0.5734071666390032
2480000000.0 -0.6614310157811134 -0.2959620840342932
2500000000.0 0.7129451930460271 0.21278171138816818
2520000000.0 -0.6610739627034187 -0.3621311079513097
2540000000.0 0.39721722176463864 0.6418171168581595
2560000000.0 0.08097863736606019 -0.74357308041486
2580000000.0 -0.6766881015503738 0.2817228917932198
2600000000.0 0.6467618384692052 0.2888976970406905
2620000000.0 -0.10596821050749233 -0.669691498276833
2640000000.0 -0.38374085395794305 -0.5134747930767147
2660000000.0 -0.3031305864369194 0.5142081676748698
2680000000.0 0.5375886203037766 0.12772537257810537
2700000000.0 -0.13500196161147818 -0.49061206619600256
2720000000.0 -0.13941276951237513 0.444557136857151
2740000000.0 0.3240117710306312 -0.27635414624427707
2760000000.0 -0.3124564783535396 0.23088058034967668
2780000000.0 0.1664642818520347 -0.315488151554609
2800000000.0 0.08825917025170613 0.31695438113442775
2820000000.0 -0.30417276736306886 -0.04299370497147988
2840000000.0 0.22886808161393632 -0.18085078782314082
2860000000.0 -0.09244156556886128 0.26808771860051883
2880000000.0 0.0012878551470938632 -0.27878579355499045
2900000000.0 -0.16590303803640197 0.22207828370871607
2920000000.0 0.19774142972571912 0.20296865460319505
2940000000.0 0.20466617237172907 -0.20799971705036208
2960000000.0 -0.0287092446629925 -0.29885047313329755
2980000000.0 -0.2202150190879482 -0.21662994053155812
3000000000.0 -0.21256493756417316 -0.23330897224376856
3020000000.0 -0.13524748795015468 -0.2877680053631582
3040000000.0 0.1684184908468789 -0.26486950284326494
3060000000.0 0.21399940441141285 0.22656469523288453
3080000000.0 -0.30188897461517855 -0.0392218216058903
3100000000.0 0.24322668329203212 -0.16855459618645904
3120000000.0 -0.21519384823448467 0.1847250701741775
3140000000.0 0.12054602605241387 -0.24079696537989545
3160000000.0 -0.22180203417560124 0.11970248964808579
3180000000.0 -0.005604588050835275 0.23651760080432022
3200000000.0 0.03594549265625342 -0.21325872095079168
3220000000.0 -0.06906543472703403 0.18503956034949334
3240000000.0 -0.05124253951648454 -0.1669717952377174
3260000000.0 0.15003305536575667 -0.009251920159372307
3280000000.0 0.1152240546311778 0.041539307676615185
3300000000.0 -0.021913458483233787 -0.08978429620719915
3320000000.0 0.05875383923922348 -0.015063301938307697
3340000000.0 0.031109536315073263 -0.007382771991798752
3360000000.0 -0.01395542958696465 -0.007385439475907733
3380000000.0 0.017938035393715857 0.017718719087728842
3400000000.0 0.03666361150174201 -0.007854738822646399
3420000000.0 0.015158811757535695 -0.043695902495528495
3440000000.0 -0.04600901056721974 0.0022688523166392604
3460000000.0 0.0016294798046516137 0.04177117300383518
3480000000.0 0.04033235698207685 0.02376514920258785
3500000000.0 -0.04337306719141758 -0.04899325598099803
3520000000.0 -0.04487002315835701 0.0801843904564654
3540000000.0 -0.03262661433494091 0.11079191334876631
3560000000.0 0.13413485958113147 0.017694557561702587
3580000000.0 0.13699285124011584 -0.060008313338816836
3600000000.0 0.07798430038812317 -0.1455808754878655
3620000000.0 -0.08570513125061775 -0.1482377324317941
3640000000.0 0.012235469360639952 -0.1749176131805885
3660000000.0 0.17679030269186558 0.0011575833709913086
3680000000.0 -0.16076698545344764 0.07541097177026478
3700000000.0 0.139511061232364 -0.10863663824805303
3720000000.0 -0.17264038879022178 0.050525387294712315
3740000000.0 -0.07566291400675224 -0.16681053570648863
3760000000.0 0.13648362579683843 0.1240838049139682
3780000000.0 -0.14796847382729927 0.10791136749195289
3800000000.0 -0.10626042184377603 -0.13906660428768772
3820000000.0 0.1425872433058818 0.07922875089286617
3840000000.0 0.14720933847668374 -0.013982607584898691
3860000000.0 -0.12732657053841143 0.053497892901663686
3880000000.0 0.12368878687900815 0.06316244894620081
3900000000.0 -0.1389670285913882 0.043865863254189105
3920000000.0 -0.1572670917229664 -0.021654978218473023
3940000000.0 0.04310876334996304 -0.17049968407540247
3960000000.0 -0.16244939245745102 -0.09388465435362194
3980000000.0 0.1727982975594443 -0.0795022700947905
4000000000.0 -0.16284904150984097 0.07588163917855162
