! Created with skrf (http://scikit-rf.org).
# Hz S RI R 50.0 
!freq ReS11 ImS11
400000000.0 -0.6032467643987742 0.610211453113151
420000000.0 -0.06384573658389611 0.8632007871196358
440000000.0 0.837671376558403 0.046940122839945274
460000000.0 0.06144684909765513 -0.7984229955868881
480000000.0 0.11355304492559476 -0.7202713457724252
500000000.0 -0.34125956109581324 0.4513251659712525
520000000.0 -0.4744454718144998 -0.02891020660573271
540000000.0 0.414659290033416 0.03215025262770905
560000000.0 -0.25799487033313606 -0.24019229453810448
580000000.0 0.30477882554656194 0.12749048850910108
600000000.0 0.023507529437417154 -0.32591429137100514
620000000.0 -0.10986654798592028 0.3202388693773431
640000000.0 -0.2510667239135941 0.26253473947997363
660000000.0 -0.2795164199484236 0.2590929178366357
680000000.0 -0.09219996592200581 -0.40023055564697435
700000000.0 -0.41549765156448204 0.11772483437862745
720000000.0 0.04615193476594127 0.44124440008501753
740000000.0 -0.21847289012496612 0.38810083150494384
760000000.0 0.17902307564918138 -0.3906566604288806
780000000.0 0.36995684634359294 -0.14701229204647284
800000000.0 0.15196159996004288 0.3303619282314869
820000000.0 0.2927769764541605 0.07336196805077644
840000000.0 -0.2403073104447884 -0.0035905680450203305
860000000.0 0.18659712063240771 0.0283716861917884
880000000.0 0.09673447201372327 0.10666038468138193
900000000.0 -0.04166104422324472 0.0541038355054816
920000000.0 -0.02959910227400915 0.02181321720897485
940000000.0 0.0024016016026183304 0.027326855353484808
960000000.0 0.0012362332081691451 -0.03856576095576831
980000000.0 -0.025378327250132632 -0.048458464377252666
1000000000.0 -0.04617160607629937 0.04037870286796138
1020000000.0 -0.04676999851922287 -0.06351434070496162
1040000000.0 -0.08464349880076145 -0.029646868975641335
1060000000.0 0.13094564060944028 0.008018011385742098
1080000000.0 -0.13769499460447293 0.05887588989788136
1100000000.0 -0.021823916813283602 0.17628070889468278
1120000000.0 0.17307605321516414 -0.10404490165117251
1140000000.0 -0.19081500291256667 -0.1479290079690893
1160000000.0 -0.24995637188608047 0.13125555120838814
1180000000.0 -0.18884802771019296 0.2598441242583022
1200000000.0 -0.2172101761085601 0.28094920777609406
1220000000.0 -0.2506431636523089 -0.2901469665557551
1240000000.0 0.38757980742036613 0.12190305217427866
1260000000.0 -0.3710438642233983 -0.21261498667690673
1280000000.0 0.2513998480509803 0.36117124319283955
1300000000.0 0.12337848201824946 -0.4279698598297521
1320000000.0 -0.37669983257947043 -0.22505815237280108
1340000000.0 -0.2179480011440612 -0.3745007303471835
1360000000.0 0.08533302217498358 -0.4201767475082741
1380000000.0 -0.17611537116724055 -0.3917691707724531
1400000000.0 -0.3442618961407159 0.23248439588678985
1420000000.0 -0.015504331514664524 0.3958214527072938
1440000000.0 0.3270539613606091 0.16866439635934694
1460000000.0 0.3132128285424956 0.1295340743295113
1480000000.0 0.3061276729808318 0.07102287407885828
1500000000.0 0.23333459968632358 -0.17208529292523336
1520000000.0 -0.2683396711273566 0.011884488216744423
1540000000.0 0.2267462871218354 0.09688427350547009
1560000000.0 0.2098380447369604 0.05243352727891585
1580000000.0 0.10922035507309336 -0.152488590324753
1600000000.0 0.120342476334829 0.0923608802324578
1620000000.0 -0.11235854011421524 0.0033506391402063243
1640000000.0 -0.0015497514577095747 0.08384032508278573
1660000000.0 0.043327638382199135 0.03852850195514496
1680000000.0 -0.0038514646021948723 0.027967997815130173
1700000000.0 0.0027805536273949956 -0.009205945718545534
1720000000.0 -0.013642136336223213 -0.007378238562839199
1740000000.0 0.03549606205625023 -0.0024868292492006396
1760000000.0 0.05140929803181335 0.0171101127378419
1780000000.0 -0.07425871059090765 0.03297899918701291
1800000000.0 -0.112822833500653 -0.005123175198012983
1820000000.0 0.1266689362401456 0.05553686169221873
1840000000.0 -0.06740090986948971 -0.15556703339542224
1860000000.0 -0.14588948920026523 0.1352307199728648
1880000000.0 0.08794468595873138 0.2144288332041706
1900000000.0 0.2617691700438497 -0.054316485221638865
1920000000.0 -0.060762983657184216 -0.2953778703218742
1940000000.0 -0.3069395384043899 -0.13299884119721822
1960000000.0 -0.25982780370025216 0.26080936387146
1980000000.0 0.30455010265844906 0.24933015907300704
2000000000.0 0.3949014731856763 -0.1399246683103635
2020000000.0 -0.30360722465509765 -0.31974134702907137
2040000000.0 -0.16964403640170567 0.4200534737823639
2060000000.0 0.45003894575833664 -0.06861684120842138
2080000000.0 -0.24220598019474388 -0.3775176338305646
2100000000.0 -0.4091880648749087 0.15215408034147204
2120000000.0 -0.21856015564402642 0.3562338489893497
2140000000.0 -0.36014805760174046 -0.17392595763350185
2160000000.0 -0.3712492555942769 -0.09362037927020644
2180000000.0 -0.2828843478712012 -0.23205817792675873
2200000000.0 -0.2580512878585896 -0.24301501300532483
2220000000.0 -0.13908068179417069 -0.31756618734744585
2240000000.0 -0.3339476005064058 -0.10266713808823084
2260000000.0 -0.293395842179891 0.19927449309088938
2280000000.0 0.18066289427767962 0.31616129306049834
2300000000.0 0.1172968674886617 -0.3603211918178403
2320000000.0 -0.367047717950815 0.16472597964559893
2340000000.0 0.3903198943761716 0.18455148599499474
2360000000.0 -0.3037377586799858 -0.3589377285694335
2380000000.0 0.22400406214236204 0.4624071770254802
2400000000.0 -0.2999210621293941 -0.4764030847060608
2420000000.0 0.5144040999219676 0.33082209053268713
2440000000.0 -0.657198229761174 0.006656616662564387
2460000000.0 0.5581675774079686 -0.4118974150006494
2480000000.0 -0.3492245807234604 0.6306441349531519
2500000000.0 0.4896468940049205 -0.552919083705647
2520000000.0 -0.6348884650538392 0.3922557087384191
2540000000.0 0.7446097370764109 -0.040724528442975146
2560000000.0 -0.44788561304958513 -0.5864932539258599
2580000000.0 -0.27974199961098895 0.6643261779805905
2600000000.0 0.6932117344500843 0.05366247296344167
2620000000.0 -0.2366035408348941 -0.6198971551300101
2640000000.0 -0.4097514882195669 -0.47353946367711913
2660000000.0 -0.24156888250290962 0.5295133910852967
2680000000.0 0.531087953335021 0.08397298904244407
2700000000.0 -0.21623138592426164 -0.4434145407601054
2720000000.0 -0.08161801570881376 0.4401048099177248
2740000000.0 0.3347237568958154 -0.2290284231339595
2760000000.0 -0.36509629113994174 0.04550455114730865
2780000000.0 0.33571807230380574 -0.0457044715434418
2800000000.0 -0.2531186314055372 0.18883792801732294
2820000000.0 -0.03701549222299749 -0.29656023629982303
2840000000.0 0.26672698634856296 0.10927844575367757
2860000000.0 -0.23613030488635006 0.15773436782668
2880000000.0 -0.0018963297384229966 -0.2828888596691855
2900000000.0 0.009318772591861401 0.2838578457537428
2920000000.0 0.2031416220711703 -0.2041493605981228
2940000000.0 -0.21802836164948305 -0.19712923884762756
2960000000.0 -0.2952357934026719 0.037947974411776594
2980000000.0 -0.2995595646655609 0.047861831936943676
3000000000.0 -0.26042718330763825 -0.16335378162203898
3020000000.0 -0.020274827405650175 -0.3080977213801896
3040000000.0 0.29847003384171933 0.07184408116964641
3060000000.0 -0.24399437677408503 0.18195337273426593
3080000000.0 0.12536687075051245 -0.272164753944919
3100000000.0 -0.02795043279567958 0.29211871536342626
3120000000.0 -0.16755958628987386 -0.2298163801953533
3140000000.0 0.23048184514339298 0.14663139473034045
3160000000.0 -0.24835133174383436 -0.07091434566464053
3180000000.0 0.06237927778478058 0.23375012832336248
3200000000.0 -0.21127159316393868 -0.059699230780698394
3220000000.0 0.14503339726349757 -0.12943627171190938
3240000000.0 -0.015473544803244066 0.16636825772480132
3260000000.0 -0.05410395560498036 -0.1268138030326798
3280000000.0 0.08416789239812408 0.06838275948245434
3300000000.0 -0.07844021395226843 0.02560502450529422
3320000000.0 -0.04288535563034933 -0.03139194191091874
3340000000.0 -0.016966726580819876 0.02206198099292278
3360000000.0 0.002128428875815734 0.0070179397602343
3380000000.0 0.009431025988383024 -0.010109059572620517
3400000000.0 -0.014316177139401587 0.022019859514039355
3420000000.0 -0.01289653061470336 0.03473198085633659
3440000000.0 -0.006376782054555641 0.041605656031787466
3460000000.0 0.04326892596705067 -0.019048214174345
3480000000.0 0.05468266717959409 0.012611325546914671
3500000000.0 -0.07001670736969615 0.016298818248177072
3520000000.0 0.07249466900206014 0.05612578765688409
3540000000.0 -0.09980826765908106 0.04014081350101682
3560000000.0 -0.09329028515788229 -0.07955128842629557
3580000000.0 0.10598606135874826 -0.08659336416419175
3600000000.0 0.10224583072482525 0.11307027628602394
3620000000.0 0.07535059864579588 0.144410401121229
3640000000.0 -0.1734430505624679 0.01733677944409066
3660000000.0 -0.17798582586533815 -0.04813855250362191
3680000000.0 -0.06728837153674067 -0.17616806407286947
3700000000.0 0.04992852904785719 -0.1827412242532553
3720000000.0 0.14516130919821266 -0.12006998203706691
3740000000.0 0.18230008431236525 0.007624958348183554
3760000000.0 -0.1761105857059959 -0.008159326132668608
3780000000.0 0.1642042006022482 0.024715085368755645
3800000000.0 0.09290745950614318 -0.12817647642998645
3820000000.0 0.029639989493380554 -0.1493815988476806
3840000000.0 0.10483451773091942 -0.10346731823060351
3860000000.0 0.13508647469677157 0.06051366043720654
3880000000.0 0.13997066848859718 0.05947720595541538
3900000000.0 0.06326143295763263 -0.1416979636516725
3920000000.0 -0.15491980819729295 0.036352759650843176
3940000000.0 0.15209939212960363 -0.0627627021459666
3960000000.0 0.14762418121386697 0.08421079756189723
3980000000.0 0.1721135616763818 -0.013428883934703284
4000000000.0 0.11108184014561062 -0.12556666463604763
