! Created with skrf (http://scikit-rf.org).
# Hz S RI R 50.0 
!freq ReS11 ImS11
400000000.0 0.2438280610315037 0.8363676253970898
420000000.0 0.619576127931311 0.5944069678958578
440000000.0 0.7880358993538626 -0.23969168864948126
460000000.0 0.14428759063652602 -0.7729436117150065
480000000.0 0.6477665627517409 -0.2682741067262715
500000000.0 0.5643626390821698 -0.006460999348427526
520000000.0 0.31059512669430706 -0.38570650033660897
540000000.0 0.33098446354921884 0.2775336512277256
560000000.0 -0.2942805588493565 -0.21332583839761846
580000000.0 -0.2980194995590881 0.16828391889385053
600000000.0 0.3251344553034392 -0.100363689617984
620000000.0 -0.33652105910676794 -0.11254932063890903
640000000.0 -0.28215735940147235 0.26208654980942614
660000000.0 -0.03736163045216683 0.39722818268936194
680000000.0 -0.38118717297633514 -0.18626494725708856
700000000.0 0.3318633400988761 0.294194710198595
720000000.0 0.21903729958356039 -0.38910599007875524
740000000.0 0.42315749144972625 -0.11524338340702453
760000000.0 -0.399463313358842 -0.12484166149285915
780000000.0 0.08685960893846273 -0.3752413914383683
800000000.0 0.17360939506197534 0.30152835802557054
820000000.0 0.1602647122219743 0.23477922984041275
840000000.0 0.08004641226632757 0.21430975580588515
860000000.0 -0.1428047708681804 0.13112913274502436
880000000.0 0.11966942676186706 0.05201270922115688
900000000.0 0.05958555755169 -0.039680583367870864
920000000.0 0.03630687214029112 0.021164951244242263
940000000.0 0.02509401595099809 -0.009656999249603086
960000000.0 -0.0029881834431818542 0.03597047786499036
980000000.0 -0.0020860819267876553 -0.05128868997055283
1000000000.0 -0.05784574526478669 -0.00695938106337241
1020000000.0 0.025675536890243218 0.06974288548525638
1040000000.0 0.03711714982488772 0.07832858583588578
1060000000.0 -0.12288021001693646 -0.032474733075531725
1080000000.0 0.13761850084089233 -0.05434004505752822
1100000000.0 -0.02521064532976155 -0.17712879710648055
1120000000.0 0.0009130005472062968 0.2089901458440031
1140000000.0 -0.08030145355579078 -0.23637994334781104
1160000000.0 -0.264382677865458 0.12155035601757427
1180000000.0 -0.07037321690352984 0.3224572566210615
1200000000.0 -0.06966150789252204 0.3542199996686085
1220000000.0 -0.33067522273229044 -0.20013632922075672
1240000000.0 0.40713546753063623 0.01049451535033386
1260000000.0 -0.40674161034856116 -0.1374380890813621
1280000000.0 0.36525283109766227 0.2462332229689902
1300000000.0 -0.059052804112139076 -0.43945680516715807
1320000000.0 -0.43406201048598386 0.018455359369283168
1340000000.0 -0.33477024787865145 -0.25797081211599315
1360000000.0 0.14825971594563606 -0.3870690706587035
1380000000.0 0.33774301038934557 -0.24116607658702427
1400000000.0 0.21990911006031197 -0.3410405348991164
1420000000.0 -0.12476463135367062 -0.37552446965580333
1440000000.0 -0.36662277842863156 -0.09475225744928392
1460000000.0 -0.04778263291081306 0.35580524800273083
1480000000.0 0.2709259100149582 -0.19724514643837399
1500000000.0 -0.2615099270095311 0.15919379043804077
1520000000.0 0.27729257755631237 -0.004010940256036691
1540000000.0 0.23080177274131472 0.07564557376921428
1560000000.0 0.19098621826957096 0.06269011606564581
1580000000.0 0.12043739268504566 0.1125291566270872
1600000000.0 0.07936136799821045 -0.10275363012255861
1620000000.0 0.08111887857933815 0.04489719926298647
1640000000.0 -0.044197560026996 -0.05502607430591603
1660000000.0 -0.03921915868079556 0.024920182534415542
1680000000.0 -0.01535443969047201 -0.018754253875686012
1700000000.0 -0.008486031944996635 -0.007157727343304447
1720000000.0 -0.011715188075631322 -0.0029867809579307287
1740000000.0 0.0007602429048776927 -0.028110499212065123
1760000000.0 0.04106350048436888 -0.013666878484679082
1780000000.0 0.012914933652989007 -0.06912459069683141
1800000000.0 0.009647081318807758 0.09860604064756492
1820000000.0 -0.09917607411174298 0.07388459234136371
1840000000.0 0.040671837326929715 0.15237684171179303
1860000000.0 0.18573832391579925 0.0364234646261763
1880000000.0 0.1681023262119119 -0.15373262245594596
1900000000.0 -0.17293290454305837 -0.20938702746834686
1920000000.0 0.12600850871598446 0.2852189165421278
1940000000.0 0.11575547463556769 -0.3314731553713891
1960000000.0 -0.28082595988431885 0.26123442195526275
1980000000.0 0.37298443670107045 -0.16395696249488168
2000000000.0 -0.32674933437801595 -0.2720580815403475
2020000000.0 -0.06941704859489921 0.4300941803014104
2040000000.0 0.4138338640886387 0.14464274362278332
2060000000.0 0.22821812523637522 -0.3707900530513299
2080000000.0 -0.09690474803726279 -0.4147047118244648
2100000000.0 -0.11662924635078005 -0.4002066827133025
2120000000.0 -0.1145888687279753 -0.39057762253057515
2140000000.0 -0.17959974248410923 -0.3537566712841471
2160000000.0 0.28183788927494485 -0.26048378297698516
2180000000.0 0.14770605984722704 -0.34061595934399297
2200000000.0 0.006776087942905899 -0.3607207591571486
2220000000.0 -0.3270320065590695 -0.13358625096371018
2240000000.0 -0.23874916275772198 0.2538298979906131
2260000000.0 0.0921135208443724 0.3349180976423214
2280000000.0 0.301306986965023 0.1772593449048189
2300000000.0 0.266182024925481 -0.24538394916069312
2320000000.0 -0.184564066301152 -0.3364937572647627
2340000000.0 -0.3759999100433775 0.17601011267085637
2360000000.0 0.36467600141652906 0.27325868539486503
2380000000.0 -0.30083433361885586 -0.40399933806951294
2400000000.0 0.30806645226681467 0.46224434598588565
2420000000.0 -0.49847441756449845 -0.34861175512898535
2440000000.0 0.6542767454853623 -0.06253464529261892
2460000000.0 -0.49659631341532146 0.4906775409635006
2480000000.0 0.2301228595828468 -0.6925291967843252
2500000000.0 -0.16505776265092062 0.7316960704850223
2520000000.0 0.2643639382344644 -0.7133427565800061
2540000000.0 -0.5071492412919864 0.5711964051531433
2560000000.0 0.7582149781367845 -0.004904394918645343
2580000000.0 -0.4768975231445855 -0.5706430511493166
2600000000.0 -0.1812272283323521 0.6959232950860793
2620000000.0 0.6167579606372765 -0.30691665324525796
2640000000.0 0.40586407613039427 -0.51022636909893
2660000000.0 -0.6049369040859336 0.06165800292583994
2680000000.0 0.4290749122201416 0.36203054365118814
2700000000.0 -0.09990192216967729 -0.5045766365440223
2720000000.0 -0.19432830499546128 0.4227554164394709
2740000000.0 0.34509744808477977 -0.24068074357190336
2760000000.0 -0.37770233396479813 0.047948625508217456
2780000000.0 0.3310920418218769 -0.11472957813243953
2800000000.0 -0.23545078572907627 0.22529717939989563
2820000000.0 -0.06197070338079066 -0.30267258989580936
2840000000.0 0.2820486853068864 0.09709871190695786
2860000000.0 -0.17367845492921985 0.23848304647702576
2880000000.0 -0.13588230770992646 -0.26118148030734006
2900000000.0 0.20779810156454676 0.2100223756220476
2920000000.0 0.007675056408479167 -0.2999348095040844
2940000000.0 -0.2938533471910377 0.08599112451033256
2960000000.0 -0.10190044218290038 0.29038317597595303
2980000000.0 -0.22300700679068522 0.21669545056259623
3000000000.0 -0.3098299079805981 -0.054583489552481525
3020000000.0 -0.0023032175264480342 -0.31675247705031667
3040000000.0 0.2856361524422451 0.13504452633827682
3060000000.0 -0.3094653164455334 0.05158137469134968
3080000000.0 0.2473975311527245 -0.18545834817713833
3100000000.0 -0.10176558869378854 0.2853760104603534
3120000000.0 0.023592821292467123 -0.2935430765339461
3140000000.0 0.1656794751780594 0.22982244797985624
3160000000.0 -0.24109792895228596 -0.11610564959781033
3180000000.0 -0.017722916896273262 0.24821779022792476
3200000000.0 -0.18375578110714214 -0.1314239058083715
3220000000.0 0.1610700567281025 -0.11672214745256644
3240000000.0 0.01062220673564996 0.16890619069769025
3260000000.0 0.027359131286344006 -0.1346249103811282
3280000000.0 -0.05436206457345815 0.09255280389861105
3300000000.0 0.06994475934573528 -0.03816491533739587
3320000000.0 -0.05018417638683796 -0.013571388237234068
3340000000.0 0.013964052689243113 -0.02330860149865788
3360000000.0 -0.006222353066487255 0.002285535061429725
3380000000.0 0.003959972570756121 0.009779664471845355
3400000000.0 0.008268813500867623 0.02300270899605682
3420000000.0 -0.036482661970361666 -0.011225413460176102
3440000000.0 0.018903946693974664 0.04520998222306879
3460000000.0 0.03751748131951407 0.04127032868416495
3480000000.0 -0.05947233086325723 -0.02747531942338527
3500000000.0 -0.05391622253048903 -0.05777834199440895
3520000000.0 -0.09386894261484215 0.012519444937727912
3540000000.0 0.10986278330950743 -0.007840675080349212
3560000000.0 -0.09810147442555538 0.07629127729537179
3580000000.0 0.10308255056131363 -0.0923890070188996
3600000000.0 0.08863395179601873 0.12964907096095873
3620000000.0 0.07595153143092355 0.15126265103661068
3640000000.0 -0.11915988827991715 0.13424584308335905
3660000000.0 -0.18217779983092586 0.052994773336584096
3680000000.0 -0.1691122223313819 -0.09572728846640143
3700000000.0 -0.11955100679668212 -0.15328441926036346
3720000000.0 0.07899966476786872 -0.17549641290051135
3740000000.0 0.14162379307412767 -0.12303360488763569
3760000000.0 -0.13900491695275027 0.11474393526159639
3780000000.0 0.16274924930071333 -0.05000952557033279
3800000000.0 -0.014007654220099993 -0.16043780743582303
3820000000.0 -0.03230895841634984 -0.15066686931899154
3840000000.0 0.12084793199359788 -0.08688128770396122
3860000000.0 0.011014797806684462 0.14992242755527305
3880000000.0 0.10459090167854425 0.11789976280934349
3900000000.0 0.04208022062526431 -0.15530709551545704
3920000000.0 -0.13942914017887925 0.08787049382355647
3940000000.0 0.07824291622018019 -0.14906698136622532
3960000000.0 0.17062212507716315 0.01674007506344778
3980000000.0 0.15891220748426158 -0.06341744613936223
4000000000.0 0.14727131688584635 -0.07393160735454875
