! Created with skrf (http://scikit-rf.org).
# Hz S RI R 50.0 
!freq ReS11 ImS11
400000000.0 -0.803363026007657 0.30945505685478414
420000000.0 0.07743257130191208 0.8615250556612989
440000000.0 0.8179831819953886 -0.1854600740167106
460000000.0 0.24569047142655343 -0.7482379394155012
480000000.0 0.6157778560391151 -0.3790164416094742
500000000.0 -0.3930879181188074 -0.40637942175825087
520000000.0 -0.48191992777801146 -0.09709022827434789
540000000.0 -0.055922822677247824 -0.4054843887152137
560000000.0 -0.26841395590677386 -0.24934433709597695
580000000.0 0.26836180483985034 -0.1780005045951911
600000000.0 -0.023910936435548764 -0.32857033940192026
620000000.0 0.31463267256331706 -0.10231547891246338
640000000.0 -0.3470479840793704 -0.01944595217127176
660000000.0 -0.3161130785224376 0.2202411058285826
680000000.0 0.052922177195822755 -0.40278737063888254
700000000.0 -0.383412370186766 0.21446479635334487
720000000.0 0.07501900400144752 0.4350353312090383
740000000.0 -0.33597976757051856 0.3092295772871122
760000000.0 -0.2691808005552495 -0.3429022804222095
780000000.0 0.39220215764535465 -0.07818017906939194
800000000.0 0.20948659542291473 0.29377721797061446
820000000.0 0.027457518059027748 0.29495263250853726
840000000.0 0.029995963673522207 -0.24169897928475959
860000000.0 0.16847715068465294 0.09373245100293953
880000000.0 0.13440139957918384 -0.061649714656206
900000000.0 -0.060191648837271974 -0.030486104730766496
920000000.0 0.020157862786393508 0.028283685183519428
940000000.0 -0.004922757673286709 -0.03879920425012597
960000000.0 0.04409306384978998 0.02199830750605231
980000000.0 0.005448619779697547 -0.05504896825932276
1000000000.0 0.060975762909591155 -0.017585914147648693
1020000000.0 0.07098660345200812 -0.008442023140203904
1040000000.0 -0.06566578453679786 0.05174044614222473
1060000000.0 0.07810505063819362 0.08897330867086743
1080000000.0 0.1386224614178064 -0.025419926180287898
1100000000.0 -0.07935917665195569 -0.14454897050171042
1120000000.0 -0.18681160382223622 -0.06787921649027616
1140000000.0 0.14988593200797354 -0.19112010110780642
1160000000.0 -0.11290941453459678 -0.2609395555557165
1180000000.0 -0.23456122326555431 0.2297575257563466
1200000000.0 -0.3487112009062765 0.0870927872174954
1220000000.0 -0.29174061190383244 -0.2646660870455939
1240000000.0 0.40730845994324194 0.07049723009676474
1260000000.0 -0.421237607729633 0.11941856784082418
1280000000.0 0.43847181069985364 -0.0622217858018552
1300000000.0 -0.25829549938413043 -0.3636632435515904
1320000000.0 -0.3883611684929356 0.19150815031153456
1340000000.0 -0.31725482240126734 -0.2826222851292057
1360000000.0 0.019031215842488184 -0.42050127019018385
1380000000.0 0.1077663736866165 -0.4066567756860135
1400000000.0 -0.3538559290615019 -0.20081740960733394
1420000000.0 -0.3902710037638258 -0.04647363392468274
1440000000.0 -0.07189419315828119 0.3652860369652078
1460000000.0 0.08638200299840174 0.33457019671124905
1480000000.0 0.3196300298524251 -0.052067618556563444
1500000000.0 -0.010137368876598878 -0.2982851282725908
1520000000.0 -0.26629943908894493 -0.050934782166666304
1540000000.0 0.11093650174066216 -0.22233257238825213
1560000000.0 0.07733684241146974 -0.20110927155083
1580000000.0 -0.06494925519546632 -0.17173175570449858
1600000000.0 0.1334588716789718 0.07120756548513751
1620000000.0 -0.08958105474487135 0.07126229924880065
1640000000.0 0.00622301601578826 0.0853536529640165
1660000000.0 -0.019120677940520362 -0.056832405796240555
1680000000.0 0.02771337195739392 0.01059772864824724
1700000000.0 -0.011397995520950338 0.0011866760809074463
1720000000.0 0.014769620178652621 0.016645029984273908
1740000000.0 -0.04041530816801067 -0.01564492230920269
1760000000.0 0.04120096688644547 0.04655724569866673
1780000000.0 0.007265238767300465 -0.08400450975731498
1800000000.0 0.07082668844200184 0.0910609284885649
1820000000.0 -0.07663615034505675 -0.11654858625574122
1840000000.0 -0.16109544643714974 0.034721909310453436
1860000000.0 0.07023589606680386 0.1775814464418002
1880000000.0 0.0029265889072333244 0.22013963325357025
1900000000.0 -0.11768927176657201 0.22961022737673753
1920000000.0 0.2559939461840236 0.14809968617450425
1940000000.0 0.3014524212363595 -0.14526478069403598
1960000000.0 -0.33772932109754844 -0.15502049584396585
1980000000.0 0.13226872868247536 0.37584014833799223
2000000000.0 0.3940567792804023 -0.1532870348423102
2020000000.0 -0.2985982261914306 -0.3275237001715542
2040000000.0 -0.055238937334080904 0.4490356927610166
2060000000.0 0.44385330478861884 -0.09263007548490607
2080000000.0 -0.25956073980681366 -0.3669482753973977
2100000000.0 -0.2884628582201733 0.3272736888054445
2120000000.0 -0.021948148478818708 0.4166931976645291
2140000000.0 -0.39652009788185827 0.02863633035673368
2160000000.0 -0.3773549209455458 -0.015294316592205773
2180000000.0 -0.2444753845417833 -0.2685628194569431
2200000000.0 -0.07267855817585685 -0.34207173460545015
2220000000.0 0.16560664547771348 -0.30503434130479934
2240000000.0 -0.05374031207228194 -0.3448378654508063
2260000000.0 -0.3053231787031498 -0.18653160264557667
2280000000.0 -0.1060144408455828 0.3506981075740534
2300000000.0 0.38159191415785326 0.0025366457681490744
2320000000.0 -0.32062176632105266 -0.24619930422822445
2340000000.0 -0.061446472391566295 0.42795649230962846
2360000000.0 0.17314086619113966 -0.4339677563360847
2380000000.0 -0.4355268801929458 0.2681416798582781
2400000000.0 0.4945916685831003 -0.26207766797387805
2420000000.0 -0.4345530046706756 0.42752715092231697
2440000000.0 0.10067832469443798 -0.6493397631402379
2460000000.0 0.4058975658199384 0.5644599476215005
2480000000.0 -0.6524342175205186 -0.315404332607866
2500000000.0 0.6892696551154827 0.2810593311898102
2520000000.0 -0.669291540448543 -0.34708776394100416
2540000000.0 0.42772848306245337 0.6217478076907681
2560000000.0 0.12404089627725579 -0.7377928268536227
2580000000.0 -0.6511846501387323 0.33620765986838186
2600000000.0 0.6441424821136491 0.29479509916960206
2620000000.0 -0.10321570594998286 -0.6702299504670202
2640000000.0 -0.35676180753118847 -0.5325252622664569
2660000000.0 -0.27643194803936233 0.5289683211829487
2680000000.0 0.5466502812125041 0.0811595227462267
2700000000.0 -0.18355009082717416 -0.47479555450741484
2720000000.0 -0.1288063110429856 0.4477473999450127
2740000000.0 0.3166614034986082 -0.2851589020956536
2760000000.0 -0.3134938288871836 0.2295551444236778
2780000000.0 0.1613005543974687 -0.3183158040602404
2800000000.0 0.06909150511925599 0.32184386063997683
2820000000.0 -0.3022517258758826 -0.056517542229982495
2840000000.0 0.24032988962381727 -0.16673706752797093
2860000000.0 -0.0819833018416126 0.27109459525485435
2880000000.0 0.00598168678642779 -0.2786423911672465
2900000000.0 -0.17458978986861864 0.2157697100537314
2920000000.0 0.21181489108916032 0.18812880445767619
2940000000.0 0.20084403645468515 -0.21133260490152145
2960000000.0 -0.015887723842134913 -0.29984854790845344
2980000000.0 -0.22996767542852162 -0.2063441428227992
3000000000.0 -0.23040661832621773 -0.21470203040038385
3020000000.0 -0.1798162815872868 -0.2611168333570055
3040000000.0 0.21415656959804133 -0.22909250174289794
3060000000.0 0.24780868454459581 0.1892812978491031
3080000000.0 -0.3008471999425405 -0.04581409556756219
3100000000.0 0.2366704314929962 -0.1776218424516064
3120000000.0 -0.20658913549121297 0.1934564551079836
3140000000.0 0.10964405869141733 -0.24577355017128766
3160000000.0 -0.2035390559309593 0.14936655034114416
3180000000.0 0.026420845176546033 0.23491030117112496
3200000000.0 0.015473257167365029 -0.2157605703922274
3220000000.0 -0.07672310397361774 0.18163464930909698
3240000000.0 -0.06714825179255667 -0.1618953321730957
3260000000.0 0.14567583807783271 -0.0373821613327816
3280000000.0 0.1215043155205134 0.011891887817713791
3300000000.0 -0.0009102529046887336 -0.09277574566922965
3320000000.0 0.05563747565566377 -0.025612619236105645
3340000000.0 0.01877438196649452 -0.026348502812760247
3360000000.0 -0.01445802710310498 0.006005667953835698
3380000000.0 0.016939091608483125 0.018153672115553427
3400000000.0 0.03693206552007811 0.003380311452185991
3420000000.0 0.020539293971008014 -0.040994112630294496
3440000000.0 -0.041441085802349314 0.02004707944976092
3460000000.0 0.02807007725980665 0.03142096197419556
3480000000.0 0.0412103886643592 0.021078474127629976
3500000000.0 -0.03846155579286145 -0.05249833827993113
3520000000.0 -0.026867421634593516 0.08792355447677942
3540000000.0 0.029475549846209894 0.1115814177980248
3560000000.0 0.13441014621845748 -0.01418707784008944
3580000000.0 0.13167762707624933 -0.06964048476560884
3600000000.0 0.07104064643014966 -0.14887328774768105
3620000000.0 -0.10388445807332529 -0.1356678762931024
3640000000.0 -0.0014201061222099112 -0.1751120772606754
3660000000.0 0.17619946166537198 -0.009324315033556236
3680000000.0 -0.1513257101438168 0.0931483363887949
3700000000.0 0.12625623053056226 -0.12446111952148203
3720000000.0 -0.15711530774742932 0.0890201860323401
3740000000.0 -0.09170187706657407 -0.15888195614058773
3760000000.0 0.14534176681072325 0.11488032584637659
3780000000.0 -0.1299872771581931 0.12886677910920888
3800000000.0 -0.12604141122904938 -0.12161691802221378
3820000000.0 0.14951978742842142 0.06592468637329772
3840000000.0 0.14859801941459336 -0.0027779417921918333
3860000000.0 -0.1185660159655285 0.07091741464508255
3880000000.0 0.13183553340391743 0.046031604439437365
3900000000.0 -0.1312884633387334 0.06437079126450827
3920000000.0 -0.15850450795083906 0.006847176598839813
3940000000.0 0.023494306813878228 -0.17386411356246417
3960000000.0 -0.1767108436870542 -0.06198816986782559
3980000000.0 0.168266829531235 -0.08860162487897195
4000000000.0 -0.16265461893454916 0.0763674537828748
