! Created with skrf (http://scikit-rf.org).
# Hz S RI R 50.0 
!freq ReS11 ImS11
400000000.0 -0.8083520721925103 0.2972006506574484
420000000.0 0.1356411211904668 0.855594906089777
440000000.0 0.8146018168025221 -0.20035504948077212
460000000.0 0.3188353323716936 -0.7204612864494327
480000000.0 0.65940780174407 -0.3014011988085306
500000000.0 -0.48524111019819316 -0.294242683375641
520000000.0 -0.48747561191499467 -0.009423937471285265
540000000.0 0.20909857538513996 -0.35318752272082526
560000000.0 -0.2983121878566731 -0.21600132348963524
580000000.0 0.02141469482302809 -0.3224402032834259
600000000.0 -0.014313825453161795 -0.3258409431383309
620000000.0 0.3312068182860828 0.015459149941330484
640000000.0 -0.3514898379518803 0.006928771438042466
660000000.0 -0.24398036918878435 0.29751961737881355
680000000.0 0.0656460086114323 -0.4003075694741899
700000000.0 -0.4196858649218224 0.12980694310418053
720000000.0 0.06320417025936642 0.4390530471983472
740000000.0 -0.3288723003375254 0.3149895740123513
760000000.0 -0.19584883008522322 -0.38806157526061036
780000000.0 0.3955047084421513 -0.05804471406957989
800000000.0 0.24251686815244047 0.26731104514420634
820000000.0 0.047774067673741843 0.2912181961569885
840000000.0 0.06709172262613067 -0.234350694246916
860000000.0 0.15835086168767887 0.10860675262706591
880000000.0 0.10939018499849681 -0.0987032698780327
900000000.0 -0.05905913504743002 -0.03381240641833293
920000000.0 0.030522404808021125 0.018225897550567305
940000000.0 0.007899547964626384 -0.0374136491555854
960000000.0 0.04735207846882285 0.011163090407045637
980000000.0 -0.002999643584185656 -0.05503059512125403
1000000000.0 0.050244890666629516 -0.037890126478601696
1020000000.0 0.06889422885762894 0.018611419952942052
1040000000.0 -0.07552377918014555 0.03567758173063119
1060000000.0 0.09703728620388954 0.06834449636199987
1080000000.0 0.12716699322496142 -0.061415932070661296
1100000000.0 -0.09313179587420731 -0.13656662556618404
1120000000.0 -0.18201425297155274 -0.081041836236555
1140000000.0 0.19336417038277376 -0.14833680801104732
1160000000.0 -0.0914112012536757 -0.2697384443282176
1180000000.0 -0.23677682793684718 0.22803309639254302
1200000000.0 -0.35863795795785336 0.033173170247333
1220000000.0 -0.2557511498217387 -0.3003259586063462
1240000000.0 0.39365752620554384 0.1277667636740881
1260000000.0 -0.42104556577145563 0.12080653274313358
1280000000.0 0.4378386405665594 -0.06364921135081593
1300000000.0 -0.2578327331073433 -0.3639303812433291
1320000000.0 -0.37970401176897894 0.20748668571991044
1340000000.0 -0.32509254155191475 -0.27351656303787936
1360000000.0 0.027843056797247325 -0.41978545715071597
1380000000.0 0.09973297375153457 -0.40868117083555844
1400000000.0 -0.3587573332444423 -0.19181048193996425
1420000000.0 -0.39236372145594983 -0.02517500855082073
1440000000.0 -0.05181992537645657 0.3686213105321649
1460000000.0 0.10498651745725186 0.32944217415181704
1480000000.0 0.3168040605997387 -0.06927650399653569
1500000000.0 -0.00836362296059174 -0.29821778648594943
1520000000.0 -0.2658621713306942 -0.05499494424676297
1540000000.0 0.09886806298428395 -0.22775252094719645
1560000000.0 0.07502913959173964 -0.20210271300263416
1580000000.0 -0.09856987334578234 -0.15460632455251133
1600000000.0 0.1412719844614458 0.05370187337443224
1620000000.0 -0.09244998414858557 0.06767757123022641
1640000000.0 0.05454641244957777 0.0661725492665833
1660000000.0 -0.02843596938627832 -0.05327658760866256
1680000000.0 0.027900695877760583 0.012520695442335007
1700000000.0 -0.010143924698281436 0.005636749652657649
1720000000.0 0.021406281988434438 -0.006897102348194082
1740000000.0 -0.03947924023713947 -0.018482489463639208
1760000000.0 0.01786232382654576 0.0596086628535514
1780000000.0 -0.007140479091018207 -0.08398208666289457
1800000000.0 0.07524803233314646 0.08774008487354394
1820000000.0 -0.09870325969546019 -0.09880514868141668
1840000000.0 -0.16374673835164869 0.024132531585268964
1860000000.0 0.06034281613390207 0.18152081840737416
1880000000.0 -0.003556291803733701 0.22030598851058253
1900000000.0 -0.12295919071977253 0.2263616230503233
1920000000.0 0.25508602231447314 0.1500376325240897
1940000000.0 0.29561667564402166 -0.15723419709636208
1960000000.0 -0.3296052001966693 -0.17172831698271207
1980000000.0 0.11926120060412296 0.38035128908053134
2000000000.0 0.38741579923506153 -0.16909171597038924
2020000000.0 -0.3325559194288098 -0.292358573605352
2040000000.0 -0.06587791039447659 0.44749433696268803
2060000000.0 0.43767439108386863 -0.12004138745714238
2080000000.0 -0.2894624209895515 -0.34434698055359186
2100000000.0 -0.3111444200088593 0.3061514976794719
2120000000.0 -0.07892893349637028 0.40993918488304226
2140000000.0 -0.39731504707579 -0.018716686289883124
2160000000.0 -0.37716348898525787 -0.024171772620550425
2180000000.0 -0.2593435443005049 -0.2553362974864706
2200000000.0 -0.07233980198002904 -0.3426262778295705
2220000000.0 0.21306308906531815 -0.2755494552207339
2240000000.0 -0.07795022274748263 -0.34088454839546345
2260000000.0 -0.3157305596023597 -0.16897492948940349
2280000000.0 -0.13248641779011114 0.3416835081192335
2300000000.0 0.38160075869329146 -0.021307255661087803
2320000000.0 -0.3354289763322137 -0.22577895628943825
2340000000.0 -0.072345776611701 0.4270860814280765
2360000000.0 0.21829991357825546 -0.4130794538738362
2380000000.0 -0.4578887345342162 0.22778040912370615
2400000000.0 0.49666247992814466 -0.2582193867653953
2420000000.0 -0.39889980027162986 0.4609391697855264
2440000000.0 0.0318113009143181 -0.6559546216710695
2460000000.0 0.41616889096582327 0.5568686332339516
2480000000.0 -0.6547433822417339 -0.31211178439934717
2500000000.0 0.7073572273988504 0.23023604201756048
2520000000.0 -0.6543940636315692 -0.37431525558585294
2540000000.0 0.4212525678261235 0.6264112941096598
2560000000.0 0.05960678393317509 -0.7459614488489356
2580000000.0 -0.6608508854600945 0.31843690476626935
2600000000.0 0.6423586175486963 0.3001708979732345
2620000000.0 -0.10656656404819574 -0.6702033871456627
2640000000.0 -0.3754097359396634 -0.5194176943456544
2660000000.0 -0.29782088910248117 0.5167513361651802
2680000000.0 0.5475022934751562 0.0734750288636733
2700000000.0 -0.15583142597788768 -0.4850653716713203
2720000000.0 -0.16824633528452623 0.4338907823331108
2740000000.0 0.33790452894531 -0.25766984323861275
2760000000.0 -0.32749032299994224 0.20730348636271864
2780000000.0 0.14344705614174708 -0.3259120888826004
2800000000.0 0.09745320656543782 0.3137260459790401
2820000000.0 -0.30603949365863287 -0.025497342279457477
2840000000.0 0.21664282305585628 -0.19606582635855133
2860000000.0 -0.08790439730593443 0.26937961776927616
2880000000.0 -0.003968798768606975 -0.27880929409278155
2900000000.0 -0.17398311208445935 0.21642668178070848
2920000000.0 0.20218205597818767 0.19897493206312494
2940000000.0 0.22993214111933422 -0.17984070733682542
2960000000.0 -0.030353552688569308 -0.29854168915453544
2980000000.0 -0.24602130207071154 -0.1863379724847683
3000000000.0 -0.2240933100582815 -0.22186576104235683
3020000000.0 -0.14353677203284837 -0.28427835749609043
3040000000.0 0.19214218183908224 -0.2489029707879452
3060000000.0 0.21591344134783355 0.2239832325208118
3080000000.0 -0.2976599731935755 -0.05985875364902091
3100000000.0 0.2767191778413119 -0.10287469307047943
3120000000.0 -0.19692081923540225 0.2035862719828019
3140000000.0 0.15628194928924555 -0.21866933368722924
3160000000.0 -0.22533956405712954 0.11277083337499848
3180000000.0 -0.004042953622647289 0.23601466895004528
3200000000.0 0.01002070142654534 -0.21547559989929707
3220000000.0 -0.06364766109622154 0.1862590058008886
3240000000.0 -0.06578969611381814 -0.16207939768113055
3260000000.0 0.13828355489282051 -0.05925139091978963
3280000000.0 0.12234596641846562 0.00014446895573916026
3300000000.0 0.02222514660328957 -0.09000247935182674
3320000000.0 0.05945007154586326 0.011179715377500447
3340000000.0 -0.0040728346221664095 -0.03141161880799896
3360000000.0 -0.016480679624694454 -0.0027186158432405253
3380000000.0 0.022886512789235782 0.011875281118770408
3400000000.0 0.02196336994987142 0.030567485940863212
3420000000.0 0.044562411999744 0.012436763030022252
3440000000.0 -0.04629743064777129 0.005290490418899502
3460000000.0 0.012821566998132954 0.040779430491204686
3480000000.0 0.04734108166937937 -0.004728133298466353
3500000000.0 -0.0410709751943128 -0.05178244622044194
3520000000.0 -0.017401368314079495 0.09149091691211649
3540000000.0 -0.007155089574797021 0.11645272813297462
3560000000.0 0.12344528550968879 0.057527277584588796
3580000000.0 0.14871348698140502 -0.016707314910981826
3600000000.0 0.029030067407792192 -0.163835203452637
3620000000.0 -0.053407559325769315 -0.1628980691338399
3640000000.0 0.007013917581482978 -0.1754552015253383
3660000000.0 0.17646633828408978 -0.023327728305432813
3680000000.0 -0.16845414362989375 0.05876237114614485
3700000000.0 0.14172664225400516 -0.10689926095251685
3720000000.0 -0.17201833302038236 0.05598975541772982
3740000000.0 -0.04609400334994152 -0.17680302676849782
3760000000.0 0.12688241606638254 0.13397915752657502
3780000000.0 -0.15361116038879083 0.09734343026533149
3800000000.0 -0.07643732420705134 -0.15737800669552043
3820000000.0 0.10252758673546657 0.12669980111012957
3840000000.0 0.14707171152259907 0.01633168397683911
3860000000.0 -0.13816904635970054 0.0012466123260121758
3880000000.0 0.08831698402736687 0.10814556619378532
3900000000.0 -0.14645492377883684 0.0019811721097542172
3920000000.0 -0.15004994784410686 -0.05400634363927266
3940000000.0 0.04808060559317665 -0.1684833867867997
3960000000.0 -0.15781867931666732 -0.10183124370263638
3980000000.0 0.19152894026531855 0.0034247515119330703
4000000000.0 -0.17096345004755054 -0.060457484771241285
