! Created with skrf (http://scikit-rf.org).
# Hz S RI R 50.0 
!freq ReS11 ImS11
400000000.0 0.23460274398737793 0.8401244585735855
420000000.0 0.6368969766815384 0.5761672749921702
440000000.0 0.7874860242681372 -0.24048843528519395
460000000.0 0.17861141834717129 -0.7656696164636113
480000000.0 0.6585954942811449 -0.2390488560109938
500000000.0 0.5533161639038036 -0.11402103933574564
520000000.0 0.40896275884686634 -0.2797836269416306
540000000.0 0.3547040506696063 0.24674101035078938
560000000.0 -0.28470412134556866 -0.22482708874377957
580000000.0 -0.2929784863055833 0.17837290142193243
600000000.0 0.3315256786781372 -0.07362524003254588
620000000.0 -0.3487614999837954 -0.06527061529513183
640000000.0 -0.32661786420451316 0.20460840271396566
660000000.0 -0.020674138365395764 0.39831440882857727
680000000.0 -0.3793670661650072 -0.19065888675515757
700000000.0 0.3103594733691105 0.31510046420052795
720000000.0 0.1628883835607237 -0.4162769353355603
740000000.0 0.4306260422545871 -0.08998559811848197
760000000.0 -0.4014984976702058 -0.11669685320717174
780000000.0 0.11160131134994775 -0.36873728339573936
800000000.0 0.18207428102627368 0.2962760333420763
820000000.0 0.1678480062787325 0.22896649553356588
840000000.0 0.09365398710241071 0.20863748446421707
860000000.0 -0.13119742683957242 0.1431494757323957
880000000.0 0.12081814047280581 0.0497987493863221
900000000.0 0.0677467166919993 -0.022063629760384226
920000000.0 0.018442824442819673 0.03768643057527304
940000000.0 -0.0071345555629323 -0.026143985570772684
960000000.0 -0.015179411413207871 0.03259045552342305
980000000.0 -0.002887051777332505 -0.05189458461141018
1000000000.0 -0.056207453883684644 -0.015932654544835008
1020000000.0 0.007808570154015982 0.07429337464223229
1040000000.0 0.03965733749453142 0.07723983160664959
1060000000.0 -0.1248056440744794 -0.02499530565239756
1080000000.0 0.14314675474818842 -0.037836441238762515
1100000000.0 -0.03813239335723555 -0.17484484129610633
1120000000.0 -0.028739434479499747 0.20701117944338582
1140000000.0 -0.08856520884196549 -0.2333907153215712
1160000000.0 -0.26352794200330404 0.12325596625608817
1180000000.0 -0.05969001385052545 0.32439204183562675
1200000000.0 -0.06431391779055814 0.35541785462469205
1220000000.0 -0.34643293478013604 -0.17171286346166617
1240000000.0 0.40711618357480067 0.007819878986128502
1260000000.0 -0.4088134097447488 -0.13127414591270645
1280000000.0 0.36070432403704766 0.2527054162048142
1300000000.0 -0.06116352423066777 -0.43931679872179236
1320000000.0 -0.43437637350641906 0.011526898260683507
1340000000.0 -0.3372183481773499 -0.25489597876733244
1360000000.0 0.15821524735056391 -0.38316669742139037
1380000000.0 0.3428136375283669 -0.2342717487512284
1400000000.0 0.23166561809030728 -0.33304256004754085
1420000000.0 -0.10386372045563831 -0.38210274444198655
1440000000.0 -0.36599167188991005 -0.09693617742151497
1460000000.0 -0.05750472506574345 0.35446961446982866
1480000000.0 0.27579256417711384 -0.19033550793057566
1500000000.0 -0.2587278071543285 0.16330144265812993
1520000000.0 0.2769640355809133 0.01945870638384648
1540000000.0 0.2330604398018202 0.06827534915028041
1560000000.0 0.19367960236376325 0.0524962449497753
1580000000.0 0.09258051612874821 0.13656155432902464
1600000000.0 0.05242758974832161 -0.11855837453130028
1620000000.0 0.07868322253728041 0.04903732221499229
1640000000.0 -0.029208561304978446 -0.06416913753336245
1660000000.0 -0.046085069705641725 0.005785978002002816
1680000000.0 -0.009224307741102172 -0.022566192899303006
1700000000.0 0.002326071109476838 -0.011118858959039008
1720000000.0 -0.003984060062160764 -0.011416005245668576
1740000000.0 -0.02072580053185133 -0.01957476393149434
1760000000.0 0.04171519352426942 -0.011779726938484425
1780000000.0 0.02126611778030563 -0.06694945684439854
1800000000.0 -0.004740476759932655 0.09881894036800555
1820000000.0 -0.1036489211275325 0.06744572896578244
1840000000.0 0.03464691649319109 0.15387701192904166
1860000000.0 0.1860673135755303 0.03407900014939929
1880000000.0 0.16590155645364027 -0.1563328430724701
1900000000.0 -0.17690703991285026 -0.20599007812262654
1920000000.0 0.1336069131584954 0.28157533724850736
1940000000.0 0.1028801642516151 -0.33554537886943653
1960000000.0 -0.2816478396380437 0.25993867568491613
1980000000.0 0.36906331249245555 -0.17268079332979336
2000000000.0 -0.33251274706494166 -0.26496115829608313
2020000000.0 -0.06482098198092341 0.4309706189061189
2040000000.0 0.4171994049018591 0.13529652847242232
2060000000.0 0.2392701499546839 -0.364125751188265
2080000000.0 -0.09442784738040849 -0.4154750293942924
2100000000.0 -0.10457377117339636 -0.4036672173270776
2120000000.0 -0.09872211968011577 -0.39472988429523664
2140000000.0 -0.15437846230227772 -0.3654650116246323
2160000000.0 0.30110191193466723 -0.23807833291548094
2180000000.0 0.15193851058684615 -0.33872333989750125
2200000000.0 -0.00843142771105902 -0.3607824689048586
2220000000.0 -0.32778957469727754 -0.13269597667536864
2240000000.0 -0.23470641089163657 0.25705287135260513
2260000000.0 0.08835836248924475 0.3356798136826753
2280000000.0 0.3071953597595553 0.16663418899608093
2300000000.0 0.2530362294881639 -0.2588047500046183
2320000000.0 -0.18856751905413754 -0.3340009737321258
2340000000.0 -0.3691216101057999 0.1894685933654413
2360000000.0 0.38280411291674493 0.24710606275529387
2380000000.0 -0.32506862774815193 -0.38502203609654356
2400000000.0 0.3238588543288137 0.4514564310343673
2420000000.0 -0.5175352418495911 -0.32001228948582067
2440000000.0 0.6524318704956278 -0.07965743756574802
2460000000.0 -0.5108099368405834 0.47611702472089523
2480000000.0 0.20414803555731703 -0.7006072706276896
2500000000.0 -0.15861785517307758 0.7332043314356833
2520000000.0 0.28948883985722645 -0.7037004387726039
2540000000.0 -0.5834457231462765 0.49316562956488724
2560000000.0 0.7569280192787909 -0.034603418580842385
2580000000.0 -0.41235907787803205 -0.6184193344554295
2600000000.0 -0.1895388678028343 0.6932853028555118
2620000000.0 0.630947257241222 -0.2751518006679837
2640000000.0 0.36587321241468385 -0.5390053016069404
2660000000.0 -0.6038289348704756 0.0670346837223747
2680000000.0 0.45064593803428943 0.3345218206497655
2700000000.0 -0.10976366788961468 -0.5021734779450702
2720000000.0 -0.18078940712934297 0.4286645445118244
2740000000.0 0.3398872346967681 -0.24826008076675032
2760000000.0 -0.37495318779867765 0.06684989574024726
2780000000.0 0.3341380936366853 -0.10638820259612922
2800000000.0 -0.23847350810598383 0.22259023914790071
2820000000.0 -0.05244757619188666 -0.3046561041587319
2840000000.0 0.27878246579437765 0.10659287942725264
2860000000.0 -0.20153168467143467 0.21519205795258886
2880000000.0 -0.1263519463452435 -0.26594924610736775
2900000000.0 0.20053304144481984 0.21711742320297786
2920000000.0 0.015520912029214379 -0.29925515826692944
2940000000.0 -0.29895104920329135 0.06493907450790669
2960000000.0 -0.09508900660710241 0.29261169477172305
2980000000.0 -0.18185571617567287 0.2530830309131641
3000000000.0 -0.3124227840416407 -0.03876163412569629
3020000000.0 0.01818624160238865 -0.3165977182248346
3040000000.0 0.2652527243122089 0.17250226792439546
3060000000.0 -0.28995886091012296 0.12055457489180098
3080000000.0 0.2458715138620456 -0.18669736778365295
3100000000.0 -0.11560862327006835 0.28032558322430173
3120000000.0 -0.043801469232822285 -0.29204625007488355
3140000000.0 0.148330836590029 0.24112628719108797
3160000000.0 -0.22977515855126573 -0.13725142143388955
3180000000.0 -0.04554470955877381 0.24450232798980379
3200000000.0 -0.18307310295253343 -0.1324410812355151
3220000000.0 0.16181322905734133 -0.11531927453927295
3240000000.0 -0.013782734617332681 0.1684595506629046
3260000000.0 0.0480099315004127 -0.1287114448691909
3280000000.0 -0.02420137623255332 0.10401427515559261
3300000000.0 0.07401744131208583 -0.027847044654518916
3320000000.0 -0.05193750928988415 -0.0031091632122685394
3340000000.0 0.011328413919549085 -0.02467649279124274
3360000000.0 -0.0013520832693240498 0.00617731781136167
3380000000.0 -0.010184704127479021 0.0036896849746321735
3400000000.0 0.012830203438533274 0.02128605511832766
3420000000.0 -0.03854935579904421 -0.0028876733948214497
3440000000.0 -0.005821869276009243 0.048954187674382796
3460000000.0 0.03018795869584995 0.047127909828332044
3480000000.0 -0.05699405666589609 -0.032534310861057375
3500000000.0 -0.05206587412733246 -0.05979636056412446
3520000000.0 -0.09395169600197623 -0.010951390876724613
3540000000.0 0.10631605887031252 0.027862768874713124
3560000000.0 -0.09899763085462805 0.07565945942669507
3580000000.0 0.11541025305950944 -0.07585324978582515
3600000000.0 0.07265358974381386 0.13899264307135034
3620000000.0 0.06789443728298883 0.15456451859154008
3640000000.0 -0.12174653363488151 0.13178013394230265
3660000000.0 -0.17899488896099616 0.06253610979778626
3680000000.0 -0.16575918392699407 -0.10059913625302976
3700000000.0 -0.11511051387197863 -0.15610353639541674
3720000000.0 0.08855141208650189 -0.17055231564703188
3740000000.0 0.13713738468821188 -0.12748362236061694
3760000000.0 -0.12257673490423152 0.13145616626930806
3780000000.0 0.15805117453997347 -0.06290486965374532
3800000000.0 -0.04879204865784612 -0.15317238848365106
3820000000.0 -0.05763609612629291 -0.14263644802214248
3840000000.0 0.11265212534503223 -0.09712793644400605
3860000000.0 0.042723415120670086 0.14359708918329894
3880000000.0 0.11016990446619726 0.11248060595974092
3900000000.0 0.029698694130405233 -0.15820790635769827
3920000000.0 -0.12344497631569445 0.10916030057914548
3940000000.0 0.06588806473655544 -0.15508183111161047
3960000000.0 0.17140157063886188 0.002939119539940766
3980000000.0 0.1670493892190543 -0.03878660392123662
4000000000.0 0.15751002086780996 -0.04928864195935797
