!Created with skrf (http://scikit-rf.org).
# Hz S RI R 50.0 
!freq ReS11 ImS11
400000000.0 -0.6722154337622545 0.5526098754748688
420000000.0 0.586170518474155 0.6401211839620085
440000000.0 0.5336861553789916 -0.642334673760797
460000000.0 -0.3798842668312962 -0.683681726721673
480000000.0 0.6790907780469775 0.1772535399174346
500000000.0 0.3638685404310345 -0.45778997233836854
520000000.0 -0.4717810367645775 -0.14274138650694268
540000000.0 0.11233757716622149 0.40766375847611824
560000000.0 -0.3346415765460938 -0.1879336991398753
580000000.0 0.2982739689153743 -0.18769895303581632
600000000.0 0.17806122396270807 -0.3063984983372553
620000000.0 0.109391765255045 0.3519043070588679
640000000.0 0.38625762944213854 -0.09977260837030778
660000000.0 -0.26848583075494414 -0.3087657427197102
680000000.0 0.41002467522524877 -0.10445049589203242
700000000.0 -0.17342423381043512 -0.3905727432824019
720000000.0 -0.41777479629963266 -0.08080280022905204
740000000.0 0.2277624530452476 -0.34692543162540224
760000000.0 -0.36404724097374375 -0.1422785939701305
780000000.0 0.26096659373175035 0.2454665510979971
800000000.0 0.11672206516618992 -0.3012512328939958
820000000.0 -0.21773347493009804 0.1708984732504251
840000000.0 0.004022885141964666 0.23662266619979433
860000000.0 -0.18314795811874712 -0.08421590417404379
880000000.0 0.1538515577857876 -0.047171430845787524
900000000.0 0.045354342987750984 -0.10388544666273825
920000000.0 0.034195046013351875 0.06649713872556379
940000000.0 -0.019293577089660393 -0.03957513453611574
960000000.0 0.0480780083538677 0.006636029782217835
980000000.0 0.03827803035379654 0.05456296703324917
1000000000.0 -0.048644002229616096 -0.06808507064360023
1020000000.0 -0.07031417618521629 -0.07313541465967685
1040000000.0 0.09093477310273215 -0.07635256685396602
1060000000.0 0.1535958801427068 0.03473516369192551
1080000000.0 0.1735253674170167 0.037323134749161574
1100000000.0 -0.14863875643636287 -0.1381889171799418
1120000000.0 0.2228520784725106 0.031210602654045887
1140000000.0 -0.01201300141433687 -0.25533883898348364
1160000000.0 -0.20165255416669112 -0.19437189851078865
1180000000.0 0.10372074686282097 -0.29732952415711417
1200000000.0 0.33902378893366686 0.014725931231320108
1220000000.0 -0.363430300093748 0.040964448052147016
1240000000.0 0.2611533046746847 0.28357169327255605
1260000000.0 0.03919933226245428 -0.40780439678531916
1280000000.0 -0.42244543896471093 -0.045234917876374944
1300000000.0 0.23992002985386235 0.364636985511547
1320000000.0 0.4115553882362695 0.14972745871069149
1340000000.0 0.437899422612061 0.011819200059442285
1360000000.0 0.44025896408178394 -0.01971723683355401
1380000000.0 0.1778613267840294 -0.39902722018220804
1400000000.0 -0.4211561296002998 -0.07859563019325659
1420000000.0 0.14982799773156547 0.3817569141951819
1440000000.0 0.33274498989163903 -0.1903644812029785
1460000000.0 -0.1388780823209309 -0.32426531085498855
1480000000.0 -0.29190541258226743 0.1322564285294311
1500000000.0 -0.010492191611277612 0.28646889280783
1520000000.0 0.12683955354439705 0.22427659800469685
1540000000.0 -0.10638088329568168 -0.2024644362121909
1560000000.0 0.16051818254564493 -0.11016106188697336
1580000000.0 0.0018712989861117213 0.16664574058052425
1600000000.0 0.11716024117179627 0.06274171304169163
1620000000.0 0.01978989225923594 0.101479236729041
1640000000.0 -0.06643776777810592 -0.039376031433486815
1660000000.0 0.03740315597496723 0.03797547097098131
1680000000.0 -0.03323217286820193 0.00805787699020813
1700000000.0 0.019735223858835943 0.005471474378627068
1720000000.0 0.003938362473862871 -5.646893123410746e-05
1740000000.0 -0.011365009517491075 0.010619832460866317
1760000000.0 -0.017275825052884202 0.027122574625130447
1780000000.0 -0.04903035797394537 0.034556859799590875
1800000000.0 -0.00544133367228681 -0.09203780107507095
1820000000.0 -0.09741449092288346 -0.07598772817561454
1840000000.0 0.15969164516104856 -0.02546909079780424
1860000000.0 -0.1978640767487118 -0.012936501149810794
1880000000.0 0.2374239937635125 -0.018769089377190143
1900000000.0 -0.27771783632680713 0.049822329560984945
1920000000.0 0.27929112847858145 -0.14943117565162023
1940000000.0 -0.34987391254117006 0.03475674429164168
1960000000.0 0.3379607233015342 0.1704628465453585
1980000000.0 -0.05715999974852681 -0.3929602195382394
2000000000.0 -0.3738090265366339 -0.17737543904494846
2020000000.0 -0.26431003749672344 0.3333019493895482
2040000000.0 0.0630227989656608 0.4279829230083808
2060000000.0 0.40976029995472546 0.1455359143350412
2080000000.0 0.3713324518153616 -0.21999562175288728
2100000000.0 0.2302475002906114 -0.3549838310957176
2120000000.0 0.09716606323373884 -0.40194127552400666
2140000000.0 -0.014274958974768598 -0.4030426486854156
2160000000.0 0.34528476541106906 -0.17922853959668786
2180000000.0 0.13078170460720515 -0.3511192593736286
2200000000.0 -0.1253580301337159 -0.3370464037583103
2220000000.0 -0.23090665794947504 -0.2589709396638743
2240000000.0 -0.3407924723791653 -0.03163844851214655
2260000000.0 -0.31250643729068417 0.13695080888623432
2280000000.0 -0.09028805042179991 0.33251569414585186
2300000000.0 0.3067918018952672 0.179344716475103
2320000000.0 0.3306009834173714 -0.18116511062963309
2340000000.0 -0.17624088672316854 -0.3700280232108258
2360000000.0 -0.19717225584303288 0.40596858552502846
2380000000.0 0.33518519655215245 -0.3708271566486496
2400000000.0 -0.39341274913427116 0.3860912514359253
2420000000.0 0.2261641805817626 -0.5608055575078934
2440000000.0 0.1562493903848773 0.636315887624668
2460000000.0 -0.5674075463319154 -0.40688186217314015
2480000000.0 0.7258509730103146 0.09619765378069733
2500000000.0 -0.7539271938994009 -0.03749626573300896
2520000000.0 0.7611597600133287 0.10191745038382126
2540000000.0 -0.6690200801845967 -0.384455757765824
2560000000.0 0.3016812493225321 0.7065890592273012
2580000000.0 0.3743286414119914 -0.6558298402865947
2600000000.0 -0.7154612750445498 0.15999263703326783
2620000000.0 0.587573195203239 0.387415077791924
2640000000.0 0.6667181928015098 -0.035394761364614495
2660000000.0 -0.4955793111531412 -0.37780040877337995
2680000000.0 0.12916388163509 0.5613898272577432
2700000000.0 0.16956223289464267 -0.5002525584947686
2720000000.0 -0.31000523016154025 0.3659766009047965
2740000000.0 0.4185126018626468 -0.11453797312907345
2760000000.0 -0.3893450376678555 0.0573797716214358
2780000000.0 0.3429975607646021 -0.11631306702130023
2800000000.0 -0.23807464119772864 0.23596736827514245
2820000000.0 -0.043510481396065746 -0.3143515734050148
2840000000.0 0.23215833915577072 0.1988974876043831
2860000000.0 -0.2959216202960549 0.060686715961634344
2880000000.0 0.11474250585546597 -0.2787180286793776
2900000000.0 -0.009887028701628244 0.30225057222847385
2920000000.0 0.20515708906538652 -0.22670418827810526
2940000000.0 -0.27207574533682005 -0.14893362506378252
2960000000.0 -0.30499321379908845 0.07360434078957172
2980000000.0 -0.31263024250481025 0.0577190121240874
3000000000.0 -0.3141427680528606 -0.06576985127704982
3020000000.0 -0.1540407126808595 -0.2813835812481431
3040000000.0 0.31589273353958136 -0.003924293141631652
3060000000.0 -0.23232699665197776 0.20871313356538643
3080000000.0 0.18038864278467398 -0.24857740688094893
3100000000.0 -0.18803236924027628 0.23419846800501462
3120000000.0 0.047802995820526537 -0.29032430780647617
3140000000.0 0.10859201238545561 0.26284010335344027
3160000000.0 -0.2607595942963723 -0.06621112892992868
3180000000.0 0.09080516168213255 0.23578852805885298
3200000000.0 -0.2288272765643425 0.018552425761607014
3220000000.0 -0.008204071319886503 -0.20316511646313987
3240000000.0 0.17163479673204252 0.02795831373171265
3260000000.0 -0.06982323908255823 0.12281595513038926
3280000000.0 0.08036777023875165 -0.07489691411855219
3300000000.0 0.001473960830004654 0.0801075078975534
3320000000.0 -0.01651741387226729 -0.05048569952471408
3340000000.0 0.010264802168501787 0.026862600470271517
3360000000.0 -0.009120691095822898 -0.001289801862649933
3380000000.0 0.006542097379535913 0.005465590567589812
3400000000.0 -0.002918999145556327 0.021233238520951846
3420000000.0 -0.03313810063394827 -0.00857728950672715
3440000000.0 0.01188366528622378 0.04376275268133353
3460000000.0 0.03287400188628355 0.04415528586158136
3480000000.0 -0.03605539617028281 0.05603910202847988
3500000000.0 0.08082763531737225 -0.006930209325512603
3520000000.0 -0.08469670475658563 -0.044628972391345355
3540000000.0 0.10769277420972363 0.026652550674757698
3560000000.0 -0.1037194217450976 0.0696725355022356
3580000000.0 0.06259729957885876 -0.12354010773785183
3600000000.0 0.14894448358881196 0.04284350830760141
3620000000.0 0.08331401619219106 0.1439730008522517
3640000000.0 -0.09222252604962553 0.15146849313004715
3660000000.0 -0.18621986485145564 0.0034313296294984762
3680000000.0 -0.15759229585803797 -0.10880266571556133
3700000000.0 -0.14928489208219387 -0.12281992829568747
3720000000.0 -7.456246148160279e-05 -0.19162077634863134
3740000000.0 0.07442478875744483 -0.16975964302265323
3760000000.0 -0.12731321074042423 0.12511691337143177
3780000000.0 0.1553247457830116 -0.06732108358928224
3800000000.0 -0.12795673288627138 -0.09894811568166709
3820000000.0 -0.14233458742568375 0.05926498748608363
3840000000.0 -0.13870179593700668 0.042354496062397606
3860000000.0 0.1307645960453796 -0.06309983209704183
3880000000.0 0.14975963743724147 -0.011849169343125512
3900000000.0 0.026563072319259563 -0.15444824074151525
3920000000.0 -0.12818111612256483 0.09856202590432468
3940000000.0 0.017267417250457134 -0.1649280995957724
3960000000.0 0.16704038059625598 -0.039017455489040426
3980000000.0 0.04874201012999627 -0.16521562046050617
4000000000.0 0.06711752546211723 -0.1520511883866083
