!Created with skrf (http://scikit-rf.org).
# Hz S RI R 50.0 
!freq ReS11 ImS11
400000000.0 -0.6841940456530126 0.5392780787870886
420000000.0 0.5346568063830835 0.684696095358994
440000000.0 0.5663357810147077 -0.6138489800507588
460000000.0 -0.36724221746875857 -0.690761917623168
480000000.0 0.6731097568750908 0.19883523961288005
500000000.0 0.36509412639472616 -0.4570901015003154
520000000.0 -0.47486288926836195 -0.13276980911998792
540000000.0 0.0929061945602308 0.41296635962129463
560000000.0 -0.3220757993761467 -0.20977857737527736
580000000.0 0.31407380976178106 -0.15909960805149845
600000000.0 0.22773440576621207 -0.2697993817942486
620000000.0 0.09317860402232439 0.3556372589950087
640000000.0 0.37977509546232735 -0.11773769572133755
660000000.0 -0.3039726370956853 -0.27128188064347764
680000000.0 0.3917219556066322 -0.15768715435821434
700000000.0 -0.25964632594474857 -0.33887309279661365
720000000.0 -0.4255985462799858 0.012278197901792076
740000000.0 0.16704304172538997 -0.38103199653062475
760000000.0 -0.3786006664906582 -0.10158442212064991
780000000.0 0.285805803376077 0.21785416411671243
800000000.0 0.11905142057006776 -0.3012092028307057
820000000.0 -0.23966407916955126 0.14026444067443325
840000000.0 -0.027898333974041276 0.2358921948640577
860000000.0 -0.1502770119088921 -0.13593182117592226
880000000.0 0.1497046157322265 0.056654228761412795
900000000.0 0.106339154090826 -0.03393465638546162
920000000.0 0.02605174624099073 0.06714005531588482
940000000.0 -0.015457469530368204 0.039603429685517576
960000000.0 -0.038099042602655266 -0.031214025970790538
980000000.0 0.06800221456923784 0.007990660024930644
1000000000.0 -0.03420095712407717 -0.07810998857271118
1020000000.0 -0.015900440978549302 -0.10178713088978891
1040000000.0 0.11583729534276224 0.03152934161234907
1060000000.0 0.0667298819386601 0.142623522337037
1080000000.0 0.11552865627659396 0.13259933991824768
1100000000.0 -0.0631640043142678 -0.1906777039055604
1120000000.0 0.21742111757645702 0.04463118709568904
1140000000.0 -0.05571716130713567 -0.2458105416172869
1160000000.0 -0.2501772940355582 -0.11878534821700863
1180000000.0 0.016214988734207347 -0.3112774028124939
1200000000.0 0.32142203531039903 -0.10036548872621794
1220000000.0 -0.3280511005351024 0.15683698428155127
1240000000.0 0.3491980459065196 0.1606073641639588
1260000000.0 -0.07710834467994407 -0.40220210994509
1280000000.0 -0.42178912228005633 0.053839282880083786
1300000000.0 0.29442902224893164 0.3232925674681774
1320000000.0 0.43142387471973553 0.08163126000086711
1340000000.0 0.4377899537957548 -0.03853024636943954
1360000000.0 0.44157413938422896 -0.015729865334698872
1380000000.0 0.2153215301691057 -0.38166892931879687
1400000000.0 -0.40229542616847797 -0.14961143461162973
1420000000.0 0.05078133414752456 0.4074750681365507
1440000000.0 0.37184310837881585 -0.09271524031963041
1460000000.0 -0.04478441135169273 -0.34887427555692124
1480000000.0 -0.3192306066467534 -0.010603432112182128
1500000000.0 -0.12061637349997571 0.25806891874719734
1520000000.0 0.06290578933969847 0.247016692844964
1540000000.0 -0.09948594302418315 -0.20275417473614396
1560000000.0 0.1521298833235632 -0.11701046951177962
1580000000.0 0.049487906683087106 0.15699002424538158
1600000000.0 0.1307256052350255 -0.009053623373240421
1620000000.0 0.08301831734469373 0.05966454830641284
1640000000.0 -0.04326681654427248 0.06389911024929794
1660000000.0 0.036863097482839426 -0.039180541958992524
1680000000.0 0.034723380915935714 0.00798261506869264
1700000000.0 0.001776120225173413 -0.021696595966416512
1720000000.0 -0.004055288267235604 -0.0033858924775450284
1740000000.0 -0.009993918362471972 0.010125905370709445
1760000000.0 0.018420754525331 -0.02568012510933175
1780000000.0 0.019372738319731724 0.0564518472164514
1800000000.0 -0.08421107715883706 -0.03795768223872262
1820000000.0 -0.12396671075942825 -0.003933114419185
1840000000.0 0.13060419711324334 -0.09603126773691588
1860000000.0 -0.19668875216603746 0.03246563169432914
1880000000.0 0.2359008740074889 -0.03949044693644405
1900000000.0 -0.2787351640880682 0.05048766139104819
1920000000.0 0.2910110653536297 -0.12766875611100312
1940000000.0 -0.3512248221485578 -0.024341300064137553
1960000000.0 0.3050829470512313 0.22438267918838264
1980000000.0 0.0017876764765790481 -0.3966296399565132
2000000000.0 -0.3468707114096444 -0.22464226015507957
2020000000.0 -0.30060034554987874 0.29964059751472527
2040000000.0 0.0003464723372530114 0.4311782650266119
2060000000.0 0.40517731917347083 0.1533534464987797
2080000000.0 0.37292479497923064 -0.21411992100829558
2100000000.0 0.2349451197199132 -0.3500460114068495
2120000000.0 0.06443416506917327 -0.4070172370680453
2140000000.0 -0.0828872006502894 -0.3929063414551337
2160000000.0 0.2931900290914638 -0.2534900869949383
2180000000.0 0.04041904783978593 -0.3713421349590811
2200000000.0 -0.2112962987142582 -0.2898611643182033
2220000000.0 -0.2986674786951893 -0.17509901492134122
2240000000.0 -0.34161277550209734 0.01736307433392491
2260000000.0 -0.2716957778542529 0.20716984047782214
2280000000.0 -0.05862788518346854 0.34031388005850133
2300000000.0 0.3093352847930396 0.1752905762046364
2320000000.0 0.3104512708557217 -0.21427596914786443
2340000000.0 -0.20912707791997415 -0.3529387991789098
2360000000.0 -0.15533225415483798 0.42442492592991715
2380000000.0 0.33314479319484824 -0.3730354538954117
2400000000.0 -0.3711492273205876 0.40810188990383656
2420000000.0 0.20246126229503655 -0.569384651562318
2440000000.0 0.13843441089014144 0.6400123254849395
2460000000.0 -0.5576520835850484 -0.41836795298324647
2480000000.0 0.7285591690984097 0.05909845163103498
2500000000.0 -0.7512772275377209 0.06096848996020951
2520000000.0 0.7628028674789276 0.08122602656215594
2540000000.0 -0.6988766330439282 -0.32539933440675073
2560000000.0 0.38630776387787547 0.663026940485343
2580000000.0 0.33005942350110556 -0.6782850447190057
2600000000.0 -0.6813332163691111 0.2685374484573275
2620000000.0 0.6291594622787637 0.31436066247150174
2640000000.0 0.6512895654010746 -0.14619259261106973
2660000000.0 -0.5204162893781191 -0.34242779169428694
2680000000.0 0.1411569464792148 0.5583442900758719
2700000000.0 0.20635338002144712 -0.4855644606225063
2720000000.0 -0.33279039035964136 0.34471032190394846
2740000000.0 0.42311404246798845 -0.09512831601486905
2760000000.0 -0.39189565847725943 0.025802257017373934
2780000000.0 0.3533137168115421 -0.0755119791077972
2800000000.0 -0.27821105676198 0.18524034063734593
2820000000.0 0.002407121818237106 -0.31622084217722735
2840000000.0 0.23502773499025933 0.19323805278583614
2860000000.0 -0.29674856496868873 0.04769675682903873
2880000000.0 0.08628304486444496 -0.28758544005932146
2900000000.0 0.02872286125735504 0.300217246508035
2920000000.0 0.1764818117857163 -0.2486282228397495
2940000000.0 -0.28985078235880224 -0.10745327429098256
2960000000.0 -0.25187429042920323 0.18581214639987748
2980000000.0 -0.2564304469889482 0.1877946004317245
3000000000.0 -0.3207665268654895 -0.005956212614268671
3020000000.0 -0.1703676655989024 -0.2716643191326292
3040000000.0 0.306662740108982 -0.07870384099230987
3060000000.0 -0.20661414282002685 0.23471487478522068
3080000000.0 0.16111855575601258 -0.26163127363191135
3100000000.0 -0.12535841796158698 0.2747587568749712
3120000000.0 0.05839274000851177 -0.28911708132420094
3140000000.0 0.15503116295814517 0.2398882518157708
3160000000.0 -0.2633361371024261 -0.05990694162338478
3180000000.0 0.061650675054701225 0.24620516159100755
3200000000.0 -0.2304609948503899 0.00128455488330986
3220000000.0 0.016693426662147202 -0.20373418019278386
3240000000.0 0.16173661318970134 0.0682603180035771
3260000000.0 -0.11784219355068817 0.0798717808152739
3280000000.0 0.10855523520050206 -0.023214315968857733
3300000000.0 -0.08093595408123412 -0.0004502247437683425
3320000000.0 0.052744455141965185 0.006209533670173636
3340000000.0 -0.00248502976149328 -0.02814041534261458
3360000000.0 0.005720021525368616 0.0071146628891605845
3380000000.0 0.0070597472872689195 -0.0019955316638705497
3400000000.0 0.0021817225116109603 0.020825079090264032
3420000000.0 0.031164928753788165 -0.012279021187539088
3440000000.0 -0.006389274090623856 -0.04427309705186825
3460000000.0 0.020324454906844404 -0.051113328708920894
3480000000.0 0.06096095919000363 0.02619879245655046
3500000000.0 0.05227118855463046 -0.062356450322931974
3520000000.0 -0.08666821647397022 -0.04026975300830405
3540000000.0 0.1097084543538213 -0.014155088730853922
3560000000.0 -0.0664311838918696 0.10552294875817475
3580000000.0 -0.006585160737188035 -0.13893559792047855
3600000000.0 0.1515304394897374 -0.03660479030865208
3620000000.0 0.14549839990563312 0.0825473023881956
3640000000.0 -0.03920207787592905 0.1730451276809582
3660000000.0 -0.17755758634465404 0.058102536439500474
3680000000.0 -0.17400810089580065 -0.08257201127102988
3700000000.0 -0.16206753722330622 -0.10641277766245208
3720000000.0 -0.043329264916219995 -0.18760629577331334
3740000000.0 0.07539883960862129 -0.1699770576798415
3760000000.0 -0.14238649929138453 0.1098342449658101
3780000000.0 0.15228251263922044 -0.07692254392659487
3800000000.0 -0.11830417059066647 -0.11256099297761823
3820000000.0 -0.1519817409943661 0.03415535870516365
3840000000.0 -0.14418271997688423 -0.03097255027370337
3860000000.0 0.14503251017056026 -0.02533104103923425
3880000000.0 0.15013790158434073 0.027115517332033327
3900000000.0 0.06195369785941259 -0.14615907385304025
3920000000.0 -0.13511540806946315 0.0922281982253495
3940000000.0 0.06860626206304109 -0.15319345318830097
3960000000.0 0.1712924680735397 0.021633913041353467
3980000000.0 0.07574627974973448 -0.15592392557765708
4000000000.0 0.0894373293971445 -0.14072141963623172
