!Created with skrf (http://scikit-rf.org).
# Hz S RI R 50.0 
!freq ReS11 ImS11
400000000.0 -0.6588202697378618 0.5712751811301067
420000000.0 0.5693874965210557 0.6570012787158309
440000000.0 0.5485054538479689 -0.6310950449484246
460000000.0 -0.36425091229764606 -0.6925853894211886
480000000.0 0.6710484130999641 0.20659733472529282
500000000.0 0.37268671844727724 -0.45160903165848426
520000000.0 -0.47672955225462776 -0.12430855203474081
540000000.0 0.09807980742464188 0.4110306951969336
560000000.0 -0.3148028323063152 -0.21950895894852318
580000000.0 0.3082656062456398 -0.17071630679222266
600000000.0 0.16917595681230146 -0.31018420666381447
620000000.0 0.09476506635058154 0.3546534729194658
640000000.0 0.3816950923919913 -0.11091192620624496
660000000.0 -0.33407316051684727 -0.234126427280348
680000000.0 0.383207663934851 -0.17836577493883998
700000000.0 -0.24274163382873112 -0.351147297213969
720000000.0 -0.4261314951539484 -0.007659564576797092
740000000.0 0.1972485767041961 -0.3661480145387266
760000000.0 -0.3786896992452062 -0.10036634021488358
780000000.0 0.27193415433448526 0.23485222595963665
800000000.0 0.13829542620555393 -0.29286470669027576
820000000.0 -0.2505796233310961 0.11940797258365449
840000000.0 -0.06820928139414958 0.22697429914397071
860000000.0 -0.12681718813203866 -0.15676275891199776
880000000.0 0.1537523568980039 0.04350044066429068
900000000.0 0.09075911816884474 -0.06483952486035308
920000000.0 0.022746872749325964 0.068848519486571
940000000.0 -0.01919752851612358 0.03854788903530522
960000000.0 -0.04145383146346602 -0.026603973236229938
980000000.0 0.06804528966547592 0.007221453621044673
1000000000.0 -0.04324902931269654 -0.0738865887237195
1020000000.0 -0.006589699057270762 -0.10267184146709314
1040000000.0 0.11509122990251312 0.03221442488323942
1060000000.0 0.09632177288648788 0.12446712342755444
1080000000.0 0.12927022749526942 0.11922901568980677
1100000000.0 -0.07306859027679793 -0.18698814733517116
1120000000.0 0.21560251403466424 0.053737200671591136
1140000000.0 -0.054785312911992325 -0.24662004549315472
1160000000.0 -0.24730704032203765 -0.12527458222608173
1180000000.0 -0.015288281614588282 -0.3121279735533294
1200000000.0 0.31284716279157593 -0.12618681252059882
1220000000.0 -0.303421687059359 0.2017584328894383
1240000000.0 0.35522121846704496 0.14827917344474711
1260000000.0 -0.10084474065065148 -0.3973081455698257
1280000000.0 -0.4171243246430674 0.08332966551241672
1300000000.0 0.30607761435343855 0.31249544784968364
1320000000.0 0.4303125750107284 0.08817034884176196
1340000000.0 0.4386567235669571 -0.02703193605243388
1360000000.0 0.44185165512556857 0.00032430173769178004
1380000000.0 0.2074397575491756 -0.3855456353162349
1400000000.0 -0.40771148387044187 -0.13329081326287534
1420000000.0 0.07574308368825028 0.4032867347935457
1440000000.0 0.3639653246452181 -0.11957245811892094
1460000000.0 -0.05602527847424502 -0.3473444686524137
1480000000.0 -0.319128809618788 0.010113710799095026
1500000000.0 -0.09160411184630406 0.2698786686953263
1520000000.0 0.09199279145345242 0.2384892225544585
1540000000.0 -0.11651310732957472 -0.19376961992002953
1560000000.0 0.1365493430075443 -0.13538523741216849
1580000000.0 0.05539557065471937 0.15526663589137293
1600000000.0 0.13115495535546523 -0.010389097470669413
1620000000.0 0.09030546587414028 0.04828403664283993
1640000000.0 -0.042519177396181884 0.06452959741055432
1660000000.0 0.03373120071355274 -0.04237718985100045
1680000000.0 0.01608001817008488 0.031547876958482865
1700000000.0 -0.002224978859889069 -0.021741483582588317
1720000000.0 -0.00013366756485329125 0.00477325414257333
1740000000.0 -0.004483605409826773 0.0141605105398374
1760000000.0 0.01752582620218755 -0.026202882460749546
1780000000.0 0.027993581355059433 0.05289640586675679
1800000000.0 -0.07476285869596742 -0.055057573606172784
1820000000.0 -0.12435922871531122 -0.003921062227464983
1840000000.0 0.1420872436630478 -0.07941286401890199
1860000000.0 -0.19890694543778464 0.01634021581981305
1880000000.0 0.23805258320866168 -0.02486264452871957
1900000000.0 -0.28142880907218826 0.03216582444051266
1920000000.0 0.2931649088333422 -0.12197674694455837
1940000000.0 -0.3513326354265407 -0.019953537025342465
1960000000.0 0.31037917667505516 0.21659988486317203
1980000000.0 -0.00999721649643361 -0.396433988427904
2000000000.0 -0.34977904963545464 -0.21958580035560205
2020000000.0 -0.28818472472212864 0.31124109785410603
2040000000.0 0.033085194051160734 0.4300205263891544
2060000000.0 0.41428509381705453 0.12659645591313154
2080000000.0 0.3621273490302266 -0.23203697407983714
2100000000.0 0.20657617821451174 -0.36736635883772023
2120000000.0 0.06861839597836517 -0.4064222633399475
2140000000.0 -0.07784158798594541 -0.3941330578536264
2160000000.0 0.2992418798760177 -0.2471477099695967
2180000000.0 0.06788546168898328 -0.3676942001922979
2200000000.0 -0.20677165534185166 -0.293578099294788
2220000000.0 -0.2909523154979504 -0.18925194752955968
2240000000.0 -0.33877902095860496 0.05098974893398601
2260000000.0 -0.28252251982889615 0.1925058346519436
2280000000.0 -0.04911856177466774 0.3417022310385735
2300000000.0 0.314206917104797 0.16675293550047574
2320000000.0 0.314274987779375 -0.20986808032985843
2340000000.0 -0.20098623572863886 -0.3583641298911505
2360000000.0 -0.2146786830010028 0.39745711919909193
2380000000.0 0.34646084318683706 -0.36065635696824255
2400000000.0 -0.42105629124244803 0.3555446620919842
2420000000.0 0.2471561911001697 -0.5514176656065077
2440000000.0 0.13567409505352382 0.6401601949161659
2460000000.0 -0.569151557548361 -0.4028878573164449
2480000000.0 0.7218878967687268 0.1163940103693851
2500000000.0 -0.7529255843145524 0.02886583736850661
2520000000.0 0.7659377002536725 0.03302323406737954
2540000000.0 -0.7080753116926886 -0.3043781840345864
2560000000.0 0.3456703553248737 0.6854409928435751
2580000000.0 0.27811580559210664 -0.7014764398467799
2600000000.0 -0.7002772422477649 0.21539951819826736
2620000000.0 0.6555852198907933 0.2555489091666712
2640000000.0 0.649400601403947 -0.15496025155121382
2660000000.0 -0.541587808705611 -0.309005186599528
2680000000.0 0.21297873666102934 0.5357394569187559
2700000000.0 0.14302814063200917 -0.5090582761193019
2720000000.0 -0.318750159401244 0.35888917234244694
2740000000.0 0.4019137568996562 -0.16520467599124403
2760000000.0 -0.38729377031667767 0.07243141745839132
2780000000.0 0.3486340829346875 -0.09997931446499525
2800000000.0 -0.2615453809923651 0.21023871803525335
2820000000.0 -0.01712012473446165 -0.3166716204190251
2840000000.0 0.21313996650035139 0.21830445810197976
2860000000.0 -0.3011146499650518 0.01517279196824715
2880000000.0 0.13741772471785565 -0.2672898628990663
2900000000.0 -0.014536139517622075 0.30095138421931
2920000000.0 0.20743626900038542 -0.22305357153723843
2940000000.0 -0.27568667403730035 -0.13946517355144772
2960000000.0 -0.2845597542331584 0.13009559497152384
2980000000.0 -0.2899056113367508 0.12842913671489886
3000000000.0 -0.31897137040363344 0.001869527561909261
3020000000.0 -0.22056111497476313 -0.23159390980127367
3040000000.0 0.2641683404081565 -0.17292730814997226
3060000000.0 -0.14858431216936074 0.27436039443255805
3080000000.0 0.09689587391170135 -0.29151031872834204
3100000000.0 -0.06438085197220315 0.29417994158381494
3120000000.0 -0.02715101720114228 -0.2934258232095395
3140000000.0 0.19195986525568431 0.21129127493403285
3160000000.0 -0.26999834200748707 -0.009063908360372967
3180000000.0 0.1328844031315159 0.2163949547508456
3200000000.0 -0.2251447171191926 0.05102145538906761
3220000000.0 -0.016743682194714386 -0.20426531484678148
3240000000.0 0.17052679115463049 0.0391968041302819
3260000000.0 -0.11656313087334275 0.08221591314896468
3280000000.0 0.10822764231703652 -0.023963468373499084
3300000000.0 -0.06506188825939722 0.04804227960825088
3320000000.0 0.0515300487581795 -0.015367043186931259
3340000000.0 -0.005302786730942877 -0.02868509405031872
3360000000.0 0.003534511967631471 0.00814871931344121
3380000000.0 -0.0003695666639812852 -0.00765419683024209
3400000000.0 -0.018687792171577525 -0.010125708128894096
3420000000.0 0.024552687091916554 0.023592795354829835
3440000000.0 0.015126166386743111 -0.04308046276750245
3460000000.0 0.051035548762712275 -0.020393738574286314
3480000000.0 0.06157905415848614 0.026379662592291565
3500000000.0 0.037589840450397406 -0.07182215309107963
3520000000.0 -0.09579319087640055 -0.0024729262348096555
3540000000.0 0.09881604665418371 -0.05137095504916482
3560000000.0 -0.034909876660688975 0.12082280859545134
3580000000.0 0.02435179853377208 -0.13636451823468612
3600000000.0 0.15517552935781603 -0.011600975757213505
3620000000.0 0.12909241166751675 0.10600412634671749
3640000000.0 -0.04631339676123728 0.17191019515959485
3660000000.0 -0.180272827173269 0.05269806872171839
3680000000.0 -0.17825524507587906 -0.07336315891830292
3700000000.0 -0.16294575922572058 -0.1058298317548595
3720000000.0 -0.030434082220399766 -0.18995946931283497
3740000000.0 0.07442620064504359 -0.17129662430975626
3760000000.0 -0.12796889210452148 0.12643426861764426
3780000000.0 0.15022276281886265 -0.080272522730209
3800000000.0 -0.11960408915869129 -0.11138549473119505
3820000000.0 -0.14939865976896755 0.0432011505135531
3840000000.0 -0.14701776492962587 -0.0057651082178899965
3860000000.0 0.13576605978605802 -0.055447844475977864
3880000000.0 0.1514172865170823 0.00845844127641232
3900000000.0 0.05555194063195183 -0.14851674090052852
3920000000.0 -0.133365244901931 0.093347008395103
3940000000.0 0.04319560771649295 -0.16204273544569398
3960000000.0 0.17285353108432336 -0.008191834675603138
3980000000.0 0.06741016522876866 -0.15987692612466023
4000000000.0 0.1045052172269425 -0.13065295881008326
