!Created with skrf (http://scikit-rf.org).
# Hz S RI R 50.0 
!freq ReS11 ImS11
400000000.0 -0.7053482630873767 0.5106474853073512
420000000.0 0.4999996063123227 0.7109475179624904
440000000.0 0.5838720103402263 -0.5972377073077998
460000000.0 -0.38769729269142067 -0.6797217199406871
480000000.0 0.6749426666374084 0.19145739886604235
500000000.0 0.3682949047654534 -0.45414734630585796
520000000.0 -0.46881607471893905 -0.15320732383377314
540000000.0 0.11241257295148444 0.40870190916925775
560000000.0 -0.3390901676747143 -0.18072561233618817
580000000.0 0.32100396494579986 -0.14415992343539077
600000000.0 0.24557480096419265 -0.2550754781563915
620000000.0 0.09000087254183013 0.3561969489583202
640000000.0 0.3847474693646434 -0.09896010671943035
660000000.0 -0.3181961409730023 -0.2543625864921364
680000000.0 0.4037122003953775 -0.12514379609724563
700000000.0 -0.2291913748409039 -0.36007298591806414
720000000.0 -0.4254531462925762 0.001540393894157574
740000000.0 0.14745057884061913 -0.38804587342026803
760000000.0 -0.38136043202285214 -0.09141883271073269
780000000.0 0.2766288543269776 0.22935657579750243
800000000.0 0.13588298792051873 -0.2945535900859745
820000000.0 -0.2374698565548417 0.14427531749657888
840000000.0 -0.037329869649475024 0.23462196610213384
860000000.0 -0.1445659256685943 -0.14188768616410805
880000000.0 0.14683568805646952 0.06380108138038759
900000000.0 0.1103761633733553 -0.016159957611435783
920000000.0 -0.009491706101051333 0.07132015676742516
940000000.0 -0.030400286621587558 0.02967741255993789
960000000.0 -0.04586576627802184 -0.01648144133368949
980000000.0 0.06579145109768651 -0.017115592947535365
1000000000.0 -0.052076393118777396 -0.06775229599955523
1020000000.0 -0.030366562866643746 -0.09858605566539938
1040000000.0 0.11963784682181064 0.010426234534324058
1060000000.0 0.06836449349942908 0.14230180281158716
1080000000.0 0.10633061655140177 0.1407788848736973
1100000000.0 -0.061186099883514734 -0.19130696740509825
1120000000.0 0.2047964766644457 0.08597593559133314
1140000000.0 0.010533423296120538 -0.25220299428093235
1160000000.0 -0.23398585200677188 -0.14757036511606436
1180000000.0 0.022558634131923275 -0.3108346267183809
1200000000.0 0.3172581811057456 -0.1129113368103927
1220000000.0 -0.3260544872997714 0.16136427489949154
1240000000.0 0.34614709435353397 0.16619680563190245
1260000000.0 -0.08918193937127376 -0.39889688131034484
1280000000.0 -0.4157804521833062 0.08587558269703408
1300000000.0 0.31130564884808043 0.3067334182455223
1320000000.0 0.43321313565102587 0.0693985209731492
1340000000.0 0.43601336599475726 -0.053394391415543786
1360000000.0 0.44075949662690467 -0.031052138724921644
1380000000.0 0.19658989813317201 -0.3918787446851649
1400000000.0 -0.40522287718247796 -0.1430267183557189
1420000000.0 0.032104020803470294 0.4103018395894069
1440000000.0 0.37123335205727204 -0.09826028642108746
1460000000.0 -0.006866519151845969 -0.3527775135208501
1480000000.0 -0.3191616344989246 0.021567041552669503
1500000000.0 -0.1251809440974462 0.25697767690305584
1520000000.0 0.029748118467598773 0.25435318730843615
1540000000.0 -0.08252793449510412 -0.2110802773022359
1560000000.0 0.18271817696029263 -0.05961873409450861
1580000000.0 -0.029488571365969163 0.16205521812304544
1600000000.0 0.12155435970397818 0.04923677497077836
1620000000.0 0.07048839397310083 0.07429134590507507
1640000000.0 -0.06644496283459657 0.03819586689486641
1660000000.0 0.04734338385234504 -0.024592217785250833
1680000000.0 0.02334524465870015 0.02535544116288677
1700000000.0 -0.019410678590727853 -0.009547434858992974
1720000000.0 0.003455871387713753 -0.0029744705837898896
1740000000.0 0.012625122996872011 -0.00680061570810651
1760000000.0 0.03155748433250037 0.0001615764418505157
1780000000.0 -0.006077522453629326 0.05865457553873933
1800000000.0 -0.07064666061989888 -0.05868631861897291
1820000000.0 -0.12180224266499574 -0.018742642523186713
1840000000.0 0.1421820433137882 -0.07759945978249617
1860000000.0 -0.1964568523435095 0.030369974166917956
1880000000.0 0.23614205334701546 -0.0377151734550657
1900000000.0 -0.2766345867250913 0.06091944649380217
1920000000.0 0.2887684040285167 -0.1320611682580445
1940000000.0 -0.3518685319774336 -0.00047812225515827855
1960000000.0 0.31292069934943817 0.21255919146142738
1980000000.0 -0.005607381246192665 -0.3968518745300458
2000000000.0 -0.3569424980022972 -0.20892588807406579
2020000000.0 -0.26950668897294616 0.32818775231451364
2040000000.0 -0.012850621081583578 0.431654477825487
2060000000.0 0.4087457944983878 0.14594159026770287
2080000000.0 0.3747252062712838 -0.21306116549617593
2100000000.0 0.22445032895597428 -0.3577944303524617
2120000000.0 0.04245119259552148 -0.41097643469424466
2140000000.0 -0.05181571779483972 -0.39996243816822974
2160000000.0 0.3162237712799044 -0.22710687010893355
2180000000.0 0.10103029398997795 -0.361110846379833
2200000000.0 -0.13391927670702666 -0.3342614943830779
2220000000.0 -0.2666023392748633 -0.22282348409496147
2240000000.0 -0.33685626705838106 -0.06523740681846284
2260000000.0 -0.3156210039013446 0.13302430682364977
2280000000.0 -0.12263290940012335 0.32348966641521765
2300000000.0 0.2790961021593877 0.2218694183951118
2320000000.0 0.3487813480719287 -0.1454561470952601
2340000000.0 -0.1509708636773588 -0.38228188740453145
2360000000.0 -0.23689782691926806 0.3846388599843274
2380000000.0 0.3604227252284352 -0.3475158667667061
2400000000.0 -0.4352620821719558 0.33908395989447093
2420000000.0 0.26632967138552516 -0.5431660100771915
2440000000.0 0.1338537765458443 0.6410882503400153
2460000000.0 -0.5713986633742335 -0.3994290337660295
2480000000.0 0.7238323000273694 0.10396111982352316
2500000000.0 -0.7532921845481245 0.017722852729863674
2520000000.0 0.7629967457411957 0.08009319575695473
2540000000.0 -0.6695669933462418 -0.38303940633971684
2560000000.0 0.3343333818581781 0.6913597330961652
2580000000.0 0.3725519333330859 -0.6571341198208498
2600000000.0 -0.7068467156017335 0.19499035619748956
2620000000.0 0.6050615291007547 0.36122787123702776
2640000000.0 0.6601411193900194 -0.11032295578142061
2660000000.0 -0.5026426971270972 -0.37137149555705656
2680000000.0 0.11758037421126322 0.5660340839876447
2700000000.0 0.23297791273324994 -0.4769727461816076
2720000000.0 -0.34261244019837256 0.3392416990388525
2740000000.0 0.432549753083499 -0.057521889267443886
2760000000.0 -0.39483195957674616 -0.023851700651213194
2780000000.0 0.36233309688890364 -0.03406101542220289
2800000000.0 -0.29568694985380506 0.1605417881117184
2820000000.0 0.06879871361996914 -0.31053949669281933
2840000000.0 0.1743348925678305 0.2511695705118528
2860000000.0 -0.3011196198355399 -0.015380573067818941
2880000000.0 0.1685419978792596 -0.2494219859873737
2900000000.0 -0.04541124755514038 0.2979194533061109
2920000000.0 0.21797184032468644 -0.21309286531199226
2940000000.0 -0.26560670711176976 -0.15786709717193706
2960000000.0 -0.29056980164944785 0.11523229157719894
2980000000.0 -0.29381234716579996 0.12000495707723545
3000000000.0 -0.3183821208074921 0.025035093702778493
3020000000.0 -0.22372458970528977 -0.22820740145778565
3040000000.0 0.27364738523179577 -0.15744042265671437
3060000000.0 -0.15620770611842122 0.2694040754967131
3080000000.0 0.0941609900745798 -0.29163360985012865
3100000000.0 -0.11652872400575455 0.27729205996666634
3120000000.0 -0.10005799475280784 -0.27736695688891116
3140000000.0 0.22992056963572838 0.16936294211151126
3160000000.0 -0.2674583315786689 0.03692964892040849
3180000000.0 0.1879593504224907 0.1706323601511809
3200000000.0 -0.19738240196996387 0.11924901899788844
3220000000.0 -0.09787404605997697 -0.17992912122030058
3240000000.0 0.1725797672871156 -0.033783139458301616
3260000000.0 -0.04248050103695106 0.13673812721310608
3280000000.0 0.0417186103674192 -0.1034990454930446
3300000000.0 -0.025577449500003988 0.07785213266931809
3320000000.0 0.025922480888750838 -0.04753825074231832
3340000000.0 -0.009572547455994918 0.027921323999210875
3360000000.0 -0.008530247168473278 -0.005612191534481214
3380000000.0 -0.005750495877098994 -0.004144138004166385
3400000000.0 -0.00502482069491091 -0.020056451130842503
3420000000.0 -0.0017483927077024842 0.03326314181397028
3440000000.0 0.032145475585929346 -0.030608667746776664
3460000000.0 0.0538603694589486 -0.0034839443408975143
3480000000.0 0.045076700289493746 0.04829795379268758
3500000000.0 0.06624119933998368 -0.04589203434859241
3520000000.0 -0.05808774692656323 -0.07510987567488173
3540000000.0 0.10823997629772923 0.018509456759656366
3560000000.0 -0.08735301448641532 0.0879924382725477
3580000000.0 0.022627009044941183 -0.1358960992675532
3600000000.0 0.15387273091764977 -0.014598379694867344
3620000000.0 0.10888208097887649 0.12515535673323863
3640000000.0 -0.08315090539295122 0.1554052240785768
3660000000.0 -0.1820491541950796 0.0407216267206705
3680000000.0 -0.1523701101479172 -0.11653640809475058
3700000000.0 -0.1392793003259308 -0.13331345392918803
3720000000.0 0.009584690434702656 -0.1907824447668891
3740000000.0 0.09803580090333365 -0.1567214673101385
3760000000.0 -0.14030823687665572 0.10990896307051548
3780000000.0 0.15628823412087353 -0.06526508931066398
3800000000.0 -0.10511946562991906 -0.12334422470010134
3820000000.0 -0.1422333831657037 0.05871975173977575
3840000000.0 -0.14478479923906182 -0.016935868011413346
3860000000.0 0.13693968091922074 -0.049398130194337045
3880000000.0 0.15057928293664535 0.012390235592980185
3900000000.0 0.053804917422100196 -0.14788040662232033
3920000000.0 -0.12703338711776369 0.10079859310690477
3940000000.0 0.00647538883999771 -0.16598499924545787
3960000000.0 0.15785908351356268 -0.0673955545142131
3980000000.0 0.007277868509472243 -0.1722303808573869
4000000000.0 -0.017698569435759898 -0.16575379031346105
