!Created with skrf (http://scikit-rf.org).
# Hz S RI R 50.0 
!freq ReS11 ImS11
400000000.0 -0.7134367642018966 0.5005431983831401
420000000.0 0.5302788409784303 0.6882076305192563
440000000.0 0.5821454732593945 -0.5990391392481409
460000000.0 -0.350725053256885 -0.7001446735867327
480000000.0 0.676655399617626 0.18600580591738652
500000000.0 0.37413766227050993 -0.4481096282451135
520000000.0 -0.46183447943189326 -0.17422334795472935
540000000.0 0.129285867154179 0.4041980254164993
560000000.0 -0.34232625442767517 -0.17279762408719346
580000000.0 0.33369773104526285 -0.11047942611640192
600000000.0 0.22070669150272895 -0.2771656563534492
620000000.0 0.09276082840727111 0.3559479982951822
640000000.0 0.39098473636957587 -0.0680537139712011
660000000.0 -0.32696052491116934 -0.24268374197954007
680000000.0 0.4059905574578797 -0.11498518020830098
700000000.0 -0.2524694067208324 -0.3438537803560658
720000000.0 -0.4257085343919809 0.006681248086781989
740000000.0 0.16333729864721327 -0.3817642537391805
760000000.0 -0.3782031558911263 -0.10124011149093955
780000000.0 0.29097733727656744 0.21030037047204228
800000000.0 0.12979500953248874 -0.2973914090258332
820000000.0 -0.23651993024182397 0.14591909717936058
840000000.0 -0.05554350036165284 0.23093765558814733
860000000.0 -0.09974588972115996 -0.17614875659974177
880000000.0 0.1414216902365328 0.07472806376647283
900000000.0 0.10459707439072975 -0.037976133466622236
920000000.0 0.019280093330177894 0.06969616242137887
940000000.0 -0.042064456857264135 0.007593425816300997
960000000.0 -0.027891015169357356 -0.04016113683703575
980000000.0 0.06781629728786696 0.005787702850829017
1000000000.0 -0.04551456230107788 -0.07271384023330711
1020000000.0 -0.03145668625491073 -0.09814973902477132
1040000000.0 0.11973429936125293 0.0057221527514434494
1060000000.0 0.06396495551177618 0.144117323942848
1080000000.0 0.1265465346779358 0.12282613192422276
1100000000.0 -0.05757410085910269 -0.19236224701765436
1120000000.0 0.2153088342717137 0.05283407245636502
1140000000.0 0.004666406176621797 -0.25253769674132165
1160000000.0 -0.23943474709421714 -0.13914807928599504
1180000000.0 0.04444291407652284 -0.30835351425719215
1200000000.0 0.318311867317009 -0.1098374606808073
1220000000.0 -0.3201969751015683 0.17169965678320298
1240000000.0 0.3360690885808194 0.1866552709862912
1260000000.0 -0.10074434371524382 -0.396768732417342
1280000000.0 -0.4207431892560742 0.06030901600591979
1300000000.0 0.31299654782101866 0.3050816322082349
1320000000.0 0.43491121039317365 0.059225855156872016
1340000000.0 0.43678068654504754 -0.04755758901958447
1360000000.0 0.44136591020392574 -0.012473910842670764
1380000000.0 0.18950353324962096 -0.39520558468086303
1400000000.0 -0.40778405462801276 -0.13451086690354944
1420000000.0 0.06510491601262754 0.40585013747148
1440000000.0 0.37026377572472585 -0.10098465045061569
1460000000.0 -0.04214017340005854 -0.3498992524951684
1480000000.0 -0.3197754363896823 0.0005789078073646208
1500000000.0 -0.11874788797590732 0.25942526581485725
1520000000.0 0.03453094441662134 0.25328543727330816
1540000000.0 -0.08339331423112585 -0.21007126241706744
1560000000.0 0.17007464155046764 -0.08962257423047251
1580000000.0 0.028022612186254257 0.16210028537201368
1600000000.0 0.13024517900187219 0.01612978774267713
1620000000.0 0.06745228660999437 0.0765724513787706
1640000000.0 -0.06266005901883728 0.0443813353799621
1660000000.0 0.04143561602937552 -0.03431188197147508
1680000000.0 0.022901796842831366 0.027146878070554104
1700000000.0 -0.019193134385312345 -0.010248438887725028
1720000000.0 0.004768798088164041 -5.806279697858482e-05
1740000000.0 -0.0012922108219185946 0.014250842739620065
1760000000.0 0.019740408537990306 -0.024546202917847645
1780000000.0 0.02074506922456457 0.05601309523739035
1800000000.0 -0.0683818307468307 -0.06174160430388515
1820000000.0 -0.12371342360356553 -0.006674355868787021
1840000000.0 0.1422813642252258 -0.07776808398502943
1860000000.0 -0.198600001891822 0.0167159686533347
1880000000.0 0.2370903789979485 -0.03205123315401453
1900000000.0 -0.27786225123094654 0.05553324330161627
1920000000.0 0.2881537129677251 -0.13406220555604986
1940000000.0 -0.35192456729611177 -0.0012631309479294334
1960000000.0 0.30966480753004216 0.217766897478123
1980000000.0 -0.004475241097690779 -0.3968419201564719
2000000000.0 -0.35235842905722387 -0.21628243272495828
2020000000.0 -0.3002239278681973 0.30023279782856266
2040000000.0 -0.0017101731859586618 0.4317380221867227
2060000000.0 0.403624703748902 0.15886972662584026
2080000000.0 0.373776565138278 -0.21368957238352604
2100000000.0 0.2180163065844079 -0.36121975217389507
2120000000.0 0.04414208709122019 -0.41010975328584964
2140000000.0 -0.05055655513174245 -0.3992141254842743
2160000000.0 0.3102791715450277 -0.23300112032300246
2180000000.0 0.0948542657251891 -0.3617703936977874
2200000000.0 -0.17788821585915912 -0.3120062329484631
2220000000.0 -0.2660159343941188 -0.22276034360547364
2240000000.0 -0.3423446553884746 -0.021679855797721796
2260000000.0 -0.28908619825458975 0.18280924604483537
2280000000.0 -0.09992193247194604 0.33032152985737695
2300000000.0 0.29477631238766744 0.19952144786777407
2320000000.0 0.3247409936012168 -0.19240121067044483
2340000000.0 -0.18575070279521497 -0.3660126598048076
2360000000.0 -0.19468777098997858 0.40776511613745253
2380000000.0 0.34343412265198114 -0.36370659384389603
2400000000.0 -0.377963961294473 0.401777336842504
2420000000.0 0.22868743865680458 -0.5597013740653233
2440000000.0 0.12753312275047943 0.6422232492973483
2460000000.0 -0.5784073882871645 -0.38960480347341225
2480000000.0 0.729565416071916 0.05002141695197115
2500000000.0 -0.7541020862372303 -0.02221551820293744
2520000000.0 0.7625214445941826 0.0884646543052373
2540000000.0 -0.6881452946279915 -0.3481844879681841
2560000000.0 0.34334822987749836 0.6864265514823373
2580000000.0 0.31962360168126214 -0.6834563875008483
2600000000.0 -0.7128931790927241 0.166574927326877
2620000000.0 0.6123927392382756 0.346103044947639
2640000000.0 0.6669176742717344 -0.033703061160725
2660000000.0 -0.5207560101763552 -0.3420964704793843
2680000000.0 0.14631244079996603 0.5575878163727397
2700000000.0 0.19008885112130697 -0.49313284134507007
2720000000.0 -0.3433932665655582 0.33505947809619047
2740000000.0 0.4292331956467368 -0.06404067394704045
2760000000.0 -0.3932523110964417 -0.006585708992771381
2780000000.0 0.3566203138871528 -0.06157281720690579
2800000000.0 -0.28433214595034034 0.17712008705140658
2820000000.0 0.005639992698852628 -0.3169752983572809
2840000000.0 0.21708597556614453 0.21371608992007696
2860000000.0 -0.3001265093183324 0.026187246488006067
2880000000.0 0.13902018623219292 -0.2666718423476032
2900000000.0 -0.01971709960354177 0.3017282162868714
2920000000.0 0.20967511429387184 -0.22185594775404482
2940000000.0 -0.27489996899136454 -0.14185952321254713
2960000000.0 -0.29206632265189497 0.11290633419822863
2980000000.0 -0.2975660086889887 0.1103893429751659
3000000000.0 -0.31778846381949044 -0.023397752716608017
3020000000.0 -0.18955199938905853 -0.25719672172795127
3040000000.0 0.30052288955580814 -0.09495400725518147
3060000000.0 -0.1617647944407372 0.2662373991471438
3080000000.0 0.11321190914428161 -0.28505903307791525
3100000000.0 -0.08093138683955102 0.2899360283698983
3120000000.0 -0.07953533272459602 -0.28413373873997155
3140000000.0 0.17447479808219704 0.2252015140286128
3160000000.0 -0.2690542494875008 -0.009096667300735902
3180000000.0 0.11743026822089794 0.22487508500054115
3200000000.0 -0.21968533057245831 0.0688901212574855
3220000000.0 -0.047245200294522186 -0.19945404248717577
3240000000.0 0.17460851793476215 0.017324973478357483
3260000000.0 -0.09917846661478096 0.10294133639474323
3280000000.0 0.10255532442171678 -0.04353885675905588
3300000000.0 -0.035518693021995264 0.07320797152903884
3320000000.0 0.042967788844780176 -0.03171583462691496
3340000000.0 -0.028605330877872877 -0.002360572896738688
3360000000.0 -0.009340714628203862 0.0012946345544166144
3380000000.0 0.006155335818056564 -0.004503236016799158
3400000000.0 -0.006897011072449874 -0.020416061266594114
3420000000.0 0.018114525780957087 0.029035511208893666
3440000000.0 0.0281656743492572 -0.035133537575307204
3460000000.0 0.055056083187785834 0.003214006887029592
3480000000.0 0.009046336786336633 0.06622305933157369
3500000000.0 0.06701992995369341 -0.04682425277923195
3520000000.0 -0.0673161803537442 -0.06855227561264852
3540000000.0 0.10947411684198649 0.020384165634874045
3560000000.0 -0.09631340494598274 0.08063405161770164
3580000000.0 0.04715604391735049 -0.1311102341504279
3600000000.0 0.14629660168299521 0.054845394046576595
3620000000.0 0.07768500074942666 0.1487820418251059
3640000000.0 -0.1323999507356672 0.11700804500502004
3660000000.0 -0.18613234188729402 0.018572120441454197
3680000000.0 -0.13526335992959687 -0.1363352717211319
3700000000.0 -0.12448876044490258 -0.14820522505999303
3720000000.0 0.020450440040020706 -0.19007168982175862
3740000000.0 0.13016737304588488 -0.13221285450136672
3760000000.0 -0.1688443866198546 0.0584090577728157
3780000000.0 0.16816296126739338 -0.02054469988489406
3800000000.0 -0.06592994204468232 -0.14821521301791177
3820000000.0 -0.14629311157661865 0.04824431532718881
3840000000.0 -0.14357795416297142 0.02294156482351665
3860000000.0 0.13935152779821905 -0.040491620082929766
3880000000.0 0.14998209044654046 -0.014055435251228921
3900000000.0 0.04297363356811047 -0.15127198306081016
3920000000.0 -0.11817296625358388 0.11093284447575018
3940000000.0 0.002450728527778282 -0.1665281702029314
3960000000.0 0.16024487748432842 -0.061126362572004725
3980000000.0 0.0023074216991453454 -0.17309390484277237
4000000000.0 0.020211505927398125 -0.1657317090582211
