!Created with skrf (http://scikit-rf.org).
# Hz S RI R 50.0 
!freq ReS11 ImS11
400000000.0 -0.6702353482299803 0.5551683200178037
420000000.0 0.564810385683299 0.6603940388209454
440000000.0 0.5400975292140404 -0.6377827760254047
460000000.0 -0.37409781375069584 -0.6870092788642082
480000000.0 0.6743698384013955 0.19517128749926294
500000000.0 0.3833702087127418 -0.44201211223648756
520000000.0 -0.47171865627056053 -0.14299670071578394
540000000.0 0.10781415539477916 0.408826652012903
560000000.0 -0.321823626687643 -0.20906977037271773
580000000.0 0.3174568380307204 -0.15279613656324448
600000000.0 0.2158821260129038 -0.27956330657122774
620000000.0 0.11642865710679597 0.34824236142633797
640000000.0 0.38431023558500343 -0.10205595364382519
660000000.0 -0.341356955928082 -0.22288019047388685
680000000.0 0.3948187145228054 -0.15005995140281334
700000000.0 -0.22317804730551538 -0.36401607235106576
720000000.0 -0.4252275147961906 0.00978110451280817
740000000.0 0.18415944514106763 -0.3726930951611787
760000000.0 -0.3762223942821281 -0.11047147622831022
780000000.0 0.2765092085998527 0.22952662692481873
800000000.0 0.13483661220485255 -0.2947833992680551
820000000.0 -0.24666386533442597 0.12732877893456918
840000000.0 -0.043373571566094525 0.2331271330424241
860000000.0 -0.1453484568392524 -0.14021366535574697
880000000.0 0.15185134359880742 0.04964536573406169
900000000.0 0.10910545038386726 -0.02329158284353431
920000000.0 0.01968537471418261 0.06925520194739607
940000000.0 -0.014105984781009563 0.0401424179773486
960000000.0 -0.03962455348024163 -0.029523556674451938
980000000.0 0.06805541316832724 0.007131360648658105
1000000000.0 -0.03282527071650916 -0.07890160065096113
1020000000.0 -0.006626956795163211 -0.10283759749475174
1040000000.0 0.11841578829387747 0.017998779956806123
1060000000.0 0.0812525664937853 0.13463130432801432
1080000000.0 0.11078998283023243 0.13646380186061252
1100000000.0 -0.05846800049571175 -0.19191893437376087
1120000000.0 0.22032818609385701 0.024925307037299463
1140000000.0 -0.07525758216507095 -0.24056918835894953
1160000000.0 -0.27210084761129366 -0.05251415835764186
1180000000.0 -0.04594046739665031 -0.3086624252375433
1200000000.0 0.29932181647021694 -0.1553372790754714
1220000000.0 -0.305463919190231 0.19769982854366397
1240000000.0 0.36078947529723127 0.13273817707443242
1260000000.0 -0.10325275986791607 -0.39607390256598096
1280000000.0 -0.419299502230883 0.07076779014787994
1300000000.0 0.3039617615532988 0.3146615185564682
1320000000.0 0.4319115894579439 0.07950377134904037
1340000000.0 0.43725747831914213 -0.04254544423834677
1360000000.0 0.4418513758287279 -0.0029486600772888403
1380000000.0 0.20959083051175853 -0.3847850192400351
1400000000.0 -0.4054008318404931 -0.141354482823608
1420000000.0 0.05059033971483545 0.4078053378753626
1440000000.0 0.36834223912525005 -0.10499448066027234
1460000000.0 -0.04704702895223423 -0.3484370754037336
1480000000.0 -0.3168161539954361 0.04039585875949689
1500000000.0 -0.054304324857688546 0.27986325301067955
1520000000.0 0.10583849131727344 0.23222974905197133
1540000000.0 -0.12434245787428483 -0.18862470156638958
1560000000.0 0.1329703700464807 -0.13869279940271767
1580000000.0 0.04151065619569628 0.15909333300318548
1600000000.0 0.12530199224551042 -0.03966833859675026
1620000000.0 0.09367775037959773 0.04262297558286473
1640000000.0 -0.0565474380156322 0.05284161408338993
1660000000.0 0.040671480154229736 -0.035815750267933114
1680000000.0 0.015189620237249572 0.03183130265266291
1700000000.0 0.018933547024298423 -0.011132829481206453
1720000000.0 0.0018616925325887124 -0.005002241044478379
1740000000.0 0.011246745197697494 0.009991653215456068
1760000000.0 0.00022883497936900934 -0.03216414046297585
1780000000.0 0.02795210656676812 0.053158760778809246
1800000000.0 -0.08012534128817018 -0.04666385012236128
1820000000.0 -0.12330006765477945 -0.014697999283725236
1840000000.0 0.14801460091737706 -0.06717572414146063
1860000000.0 -0.1979886492319952 0.021369496165599564
1880000000.0 0.2388539006885234 -0.011020610818797202
1900000000.0 -0.2771399927686846 0.05883814704009444
1920000000.0 0.2922361669075771 -0.12458445692051304
1940000000.0 -0.3519018538848047 -0.006913597425206904
1960000000.0 0.3138280450613846 0.21158773091520022
1980000000.0 0.008871514564359265 -0.3963426273806671
2000000000.0 -0.35329113523763306 -0.2141461434472886
2020000000.0 -0.2931802574017123 0.3071132144606399
2040000000.0 0.027617830615855793 0.4305913504403169
2060000000.0 0.4101414380621641 0.13981054257604492
2080000000.0 0.3652486968944014 -0.22676479162272647
2100000000.0 0.19728022568625414 -0.3722679606749374
2120000000.0 0.04349807061963023 -0.409792092596454
2140000000.0 -0.1195339700145734 -0.38383479911667046
2160000000.0 0.2692458829492631 -0.2796517601431482
2180000000.0 0.04480118839497288 -0.37175208044588204
2200000000.0 -0.22387200472230312 -0.280949253519728
2220000000.0 -0.30278372010886945 -0.16932742068846704
2240000000.0 -0.3408344941502118 0.030492432438266052
2260000000.0 -0.28700064707203127 0.18581114988802686
2280000000.0 -0.06913014698176352 0.338549505946877
2300000000.0 0.31172939836486335 0.17295593814772903
2320000000.0 0.3229733347865925 -0.19604244499330975
2340000000.0 -0.15913964587212184 -0.37826835124521846
2360000000.0 -0.19185737430335406 0.40904074711980815
2380000000.0 0.3478810191322368 -0.3594425086483816
2400000000.0 -0.3925639354763083 0.3871303749273613
2420000000.0 0.237565507532747 -0.5561795898898473
2440000000.0 0.1489490823477774 0.637811282918823
2460000000.0 -0.5633538834472855 -0.41114992428373426
2480000000.0 0.7288174659050495 0.05892510107309159
2500000000.0 -0.7539274225832553 -0.002122951142309319
2520000000.0 0.7645252994764803 0.05749029857402551
2540000000.0 -0.708823342654875 -0.30286915995186653
2560000000.0 0.39722284001819713 0.6559828950126566
2580000000.0 0.29084647914058775 -0.696010856791257
2600000000.0 -0.6824916247347741 0.26381115623553064
2620000000.0 0.632818075953911 0.30476251578060926
2640000000.0 0.6351895984409514 -0.20378826295424848
2660000000.0 -0.560035691214931 -0.2741463782378352
2680000000.0 0.18565479603898072 0.5457730640903286
2700000000.0 0.14188517423990848 -0.5102019447904759
2720000000.0 -0.3065001009117491 0.37041708410158264
2740000000.0 0.419625182355071 -0.11497529825433342
2760000000.0 -0.39195512891614437 0.038075071554195115
2780000000.0 0.3535520976158304 -0.07938239210949129
2800000000.0 -0.27925488934907783 0.18540262318543876
2820000000.0 0.02304446020853718 -0.31596938643851435
2840000000.0 0.2140797513990823 0.21663458345745668
2860000000.0 -0.30086318564199493 -0.0032617075538577817
2880000000.0 0.13983286753058635 -0.2656420311065736
2900000000.0 0.003659314280151326 0.3016178587500017
2920000000.0 0.17283126323996395 -0.2505641220090162
2940000000.0 -0.29235769404814693 -0.0987902347143711
2960000000.0 -0.2468244834236115 0.1917247454062931
2980000000.0 -0.23482585655739271 0.2125062153687125
3000000000.0 -0.3186764822036604 0.03548432010362704
3020000000.0 -0.22617145373452346 -0.22662122914339058
3040000000.0 0.2507687631726614 -0.19358581813219544
3060000000.0 -0.1710248611901216 0.2614539121960007
3080000000.0 0.10674449590644074 -0.28789551483886827
3100000000.0 -0.08168364134776562 0.2906849554271528
3120000000.0 -0.023427255467995303 -0.29481677958631014
3140000000.0 0.19840227455234632 0.20650550836290987
3160000000.0 -0.2620934186608792 -0.06637682896843354
3180000000.0 0.06970865637941356 0.24449529495565195
3200000000.0 -0.23020930289084962 0.017782452317830235
3220000000.0 -0.006524866751340861 -0.20481420278042758
3240000000.0 0.16130840047194475 0.06857761166026281
3260000000.0 -0.12004859622445688 0.07720635881950844
3280000000.0 0.10228463106741931 -0.042385272433214785
3300000000.0 -0.08046774896143827 0.004145013205543852
3320000000.0 0.04848908910040536 0.020782838252109
3340000000.0 -0.015803633657383326 -0.02307164529614041
3360000000.0 0.00784895400895875 -0.0037668291183847657
3380000000.0 0.008299954413870254 -0.0001943135138256589
3400000000.0 -0.0027724626192283035 -0.021453379721457434
3420000000.0 0.024069898821251105 0.024611857797543803
3440000000.0 0.0007571483267927505 -0.045371962043462576
3460000000.0 0.05300441227215348 0.012845400303489468
3480000000.0 0.055429245506674746 0.03727012887123441
3500000000.0 0.059361873956191344 -0.05605772423576537
3520000000.0 -0.07100437427791001 -0.0649940175302803
3540000000.0 0.11184430670736575 0.00409417278168521
3560000000.0 -0.08429729807643677 0.0933023771638916
3580000000.0 0.07098250365156179 -0.11916817181499824
3600000000.0 0.15491214426792974 0.007760865829540727
3620000000.0 0.1124478681884351 0.12292442407308242
3640000000.0 -0.05829667409591617 0.16752501540993392
3660000000.0 -0.18102167562649893 0.04715538871434334
3680000000.0 -0.17396410615053548 -0.08309107350205319
3700000000.0 -0.16920853138104586 -0.0942329121351544
3720000000.0 -0.032898239558742014 -0.18940711146243477
3740000000.0 0.08688635614058686 -0.16396376494868
3760000000.0 -0.1323603062888547 0.12123331147667778
3780000000.0 0.15486610851698115 -0.0701206832026573
3800000000.0 -0.12052551898069912 -0.10918772353841574
3820000000.0 -0.1479141987369728 0.044071601833248014
3840000000.0 -0.14594482826922098 0.009550327133968858
3860000000.0 0.13173223735016254 -0.06336124624347612
3880000000.0 0.1512360045431568 -0.009065265660823269
3900000000.0 0.025821017806273466 -0.15566216327950377
3920000000.0 -0.10619720363593027 0.1236925725038157
3940000000.0 0.021216438373240498 -0.16634148512927405
3960000000.0 0.1702699881014345 -0.0326946359623084
3980000000.0 0.084464105301268 -0.1531772486339776
4000000000.0 0.09712769227334728 -0.13829938286251497
