!Created with skrf (http://scikit-rf.org).
# Hz S RI R 50.0 
!freq ReS11 ImS11
400000000.0 -0.6658231229783766 0.560381663838809
420000000.0 0.562646468368175 0.6608867763739295
440000000.0 0.5345142420245598 -0.6412056103023965
460000000.0 -0.37338875528542415 -0.6868573364520865
480000000.0 0.6743884997339864 0.19428299614262964
500000000.0 0.34371697818748886 -0.4730927712603544
520000000.0 -0.47482396345671846 -0.13255377000930396
540000000.0 0.08732325992649638 0.41398587768353196
560000000.0 -0.3322285715038123 -0.19287870358453382
580000000.0 0.2918617179688795 -0.19701253257123832
600000000.0 0.2049163429960852 -0.2885668411455174
620000000.0 0.11914307036530371 0.34950225690206743
640000000.0 0.38338873311280774 -0.11018206001213396
660000000.0 -0.29646543538504444 -0.2808483070000177
680000000.0 0.40591235075895515 -0.11993554739699183
700000000.0 -0.19157289460068838 -0.38196822189361007
720000000.0 -0.42464547025663424 -0.030146767994658534
740000000.0 0.2317834844392305 -0.34480673936000045
760000000.0 -0.36924990891091175 -0.12928632326260636
780000000.0 0.2729313764197881 0.23228784881019757
800000000.0 0.12471444797133917 -0.2982061450297779
820000000.0 -0.23011252912659885 0.15396138208747642
840000000.0 0.004081491552471952 0.23694844235810691
860000000.0 -0.18474454742145524 -0.08182645249642183
880000000.0 0.1594291682848772 -0.020230650627283284
900000000.0 0.07153315639573835 -0.08790902766519977
920000000.0 0.024887667664721242 0.07012598037725438
940000000.0 -0.027475097828609258 -0.0344927269654033
960000000.0 0.048523451908705315 -0.006384637107479663
980000000.0 0.04149551300610247 0.05265215898223749
1000000000.0 -0.04108920805528231 -0.07329242144107383
1020000000.0 -0.0458134621561775 -0.09079535989259468
1040000000.0 0.10419081330924505 -0.05702968708162329
1060000000.0 0.14585167088356357 0.05985948353330375
1080000000.0 0.1733753897091266 0.03618049897631114
1100000000.0 -0.13508801995200567 -0.15129690239656735
1120000000.0 0.22423736601771552 0.012622616729727112
1140000000.0 -0.0015176733575975477 -0.25512377280936177
1160000000.0 -0.2148988921886967 -0.1795084929964612
1180000000.0 0.13869675318060373 -0.2827160281215064
1200000000.0 0.33862192158099463 0.022110139006045353
1220000000.0 -0.36250530575454604 0.04754033865656388
1240000000.0 0.24902648136951377 0.29446068922058893
1260000000.0 0.04661303737865837 -0.4071328969205702
1280000000.0 -0.4221938103387914 -0.04584972367410051
1300000000.0 0.23140036685342386 0.36990315866480483
1320000000.0 0.4121457338056163 0.1472220409904578
1340000000.0 0.4379528478405597 -0.011289109189936636
1360000000.0 0.4402718613762647 -0.014376821305814849
1380000000.0 0.17280694315112097 -0.4014454851780464
1400000000.0 -0.4188976060574301 -0.08993148377098242
1420000000.0 0.13045587461573238 0.38950809338164305
1440000000.0 0.33402659354763004 -0.1886294478423459
1460000000.0 -0.1318109946169957 -0.32748471896597275
1480000000.0 -0.3100973262659577 0.08285712558963704
1500000000.0 -0.03091930994356312 0.2861103684381319
1520000000.0 0.07012944238136325 0.24908220505730563
1540000000.0 -0.09924910131409655 -0.20621928863313876
1560000000.0 0.1880800144772518 -0.051218871992009786
1580000000.0 -0.06698765052851309 0.15342626266171847
1600000000.0 0.08230527177814294 0.10416516110493354
1620000000.0 -0.005161067976948455 0.10300185759324545
1640000000.0 -0.06725704321062988 -0.03745122054663834
1660000000.0 0.029494711634325804 0.043867697341852856
1680000000.0 -0.027307081212504823 0.01984017660317916
1700000000.0 0.0025294338084975118 -0.01994247960253603
1720000000.0 0.001989493487416542 -0.0026988297083772204
1740000000.0 -0.014787801092118006 -0.0039327647765998236
1760000000.0 -0.031493585147718134 -0.005849949097530072
1780000000.0 -0.059524450576555116 -0.0010199560334672297
1800000000.0 0.030309580001977438 -0.08658325553142601
1820000000.0 -0.08701353906356916 -0.08702519347030793
1840000000.0 0.16118786349189548 -0.004912470531342668
1860000000.0 -0.19779762032763482 -0.009758288969032126
1880000000.0 0.23709034636964293 -0.017698152923813572
1900000000.0 -0.27313726575762204 0.07012335303759377
1920000000.0 0.26707098970499665 -0.1700254334343679
1940000000.0 -0.3486998600125107 0.0435636789770659
1960000000.0 0.34634721660251494 0.1525617149833159
1980000000.0 -0.06490017343651276 -0.3915945157345376
2000000000.0 -0.38179867992585065 -0.15933443536265665
2020000000.0 -0.26499230069170937 0.3330836400560621
2040000000.0 0.057573905264287344 0.4285976579632566
2060000000.0 0.4131002935885467 0.13687375293485013
2080000000.0 0.3523632887741921 -0.25028529384636644
2100000000.0 0.22341752701257483 -0.3597446211770367
2120000000.0 0.09943667917808334 -0.4019851430084415
2140000000.0 -0.011005990314408695 -0.4038844837384064
2160000000.0 0.3361732381841019 -0.19712490179042058
2180000000.0 0.16365741535224002 -0.33835635637592043
2200000000.0 -0.09666766283410369 -0.3475809155456567
2220000000.0 -0.17792469816505807 -0.2992502920790448
2240000000.0 -0.33212471397256604 -0.08731301592654743
2260000000.0 -0.32652691682106677 0.10175507584338805
2280000000.0 -0.15383381983332556 0.3093125080217709
2300000000.0 0.25269841740981225 0.2510890650055216
2320000000.0 0.3485530582823905 -0.14523022688044057
2340000000.0 -0.11981120060417036 -0.39232312089627186
2360000000.0 -0.23206026032114815 0.38749094503787357
2380000000.0 0.3663102793546401 -0.34056416464184197
2400000000.0 -0.40956088454110506 0.36939384325859903
2420000000.0 0.2651751084717866 -0.5433887977397485
2440000000.0 0.1625659886860954 0.6344571626704891
2460000000.0 -0.5869598369904766 -0.37746225469471323
2480000000.0 0.727302362097698 0.08466226016050585
2500000000.0 -0.754441012177905 0.020097345958500167
2520000000.0 0.7618430929129728 0.09708130929495146
2540000000.0 -0.6908179344998395 -0.34403064651210025
2560000000.0 0.32104053406089356 0.6983103143358084
2580000000.0 0.3848229992023285 -0.6510577913053792
2600000000.0 -0.7114279091906687 0.18112878967355137
2620000000.0 0.5832523824408035 0.3974241233301405
2640000000.0 0.6693430221354294 -0.01992441402592762
2660000000.0 -0.46525907324099486 -0.4169518292721854
2680000000.0 0.09824662310612856 0.5694379182553392
2700000000.0 0.22036789903295637 -0.48201537033886693
2720000000.0 -0.3499990888803674 0.3306680195672553
2740000000.0 0.4317262979677186 -0.056818304557229
2760000000.0 -0.39427752382750597 0.01731837738883258
2780000000.0 0.35796327578851383 -0.06096195654687248
2800000000.0 -0.2759921991814745 0.19137958784593048
2820000000.0 0.00896907157521443 -0.3181269149213598
2840000000.0 0.22822503508495165 0.20399939128193628
2860000000.0 -0.29942069722382086 0.04075217535828357
2880000000.0 0.16890153756611545 -0.250467295522388
2900000000.0 -0.032914850862186776 0.3012611867975552
2920000000.0 0.2142353312048704 -0.21866224811457674
2940000000.0 -0.24153089289130464 -0.19470968769606908
2960000000.0 -0.3127521626899154 0.01691231773507435
2980000000.0 -0.312479241890597 0.06038319263662671
3000000000.0 -0.3034639412443754 -0.10162424243006721
3020000000.0 -0.10558603950400569 -0.30247329277960766
3040000000.0 0.31606895899164594 -0.006655254679978291
3060000000.0 -0.24301232048820898 0.19429356795685013
3080000000.0 0.16536589503618399 -0.2577193999973815
3100000000.0 -0.13699702562349333 0.267342574179817
3120000000.0 0.03664956862764015 -0.2916054390199568
3140000000.0 0.1844308411356793 0.21658260536595428
3160000000.0 -0.26784629143453764 -0.016034850374319874
3180000000.0 0.1433206287963659 0.20857245810088126
3200000000.0 -0.21675250041111394 0.07610927039025138
3220000000.0 -0.05791805348845454 -0.19547575742977005
3240000000.0 0.17175444085379812 -0.030204744833520796
3260000000.0 -0.026072375572739392 0.13944780570487517
3280000000.0 0.0046688039224914634 -0.11011270522562336
3300000000.0 0.022571553777390733 0.07747386383979339
3320000000.0 -0.025925795857454657 -0.046571923282233335
3340000000.0 0.024475960352801026 0.015467081252751492
3360000000.0 -0.008839073604514538 0.00416173596240047
3380000000.0 -0.001720744172173901 -0.008347477785602226
3400000000.0 -0.019340542257151934 0.010859682620859451
3420000000.0 -0.02979903145717453 -0.01757972072163823
3440000000.0 -0.00010249636499395774 0.04567785886683692
3460000000.0 -0.0033462378163460716 0.05517504176865124
3480000000.0 -0.054496924861513134 0.03876765938594533
3500000000.0 0.081531279908253 -0.0021778308341794473
3520000000.0 -0.01834928147501451 -0.09383591484527144
3540000000.0 0.10364053921827426 0.04129178553340356
3560000000.0 -0.12448765235466219 0.013190996885443581
3580000000.0 0.09138700186368295 -0.10444233538822237
3600000000.0 0.11599227382033263 0.10289392101919066
3620000000.0 0.016082250583763093 0.16566648713439183
3640000000.0 -0.16082807395925075 0.07263455569279437
3660000000.0 -0.17455324418739576 -0.06322022468973743
3680000000.0 -0.09167875358846649 -0.16755151762752624
3700000000.0 -0.07693260341651206 -0.17602497299159736
3720000000.0 0.08415280446670964 -0.17110566510469571
3740000000.0 0.1452901192025109 -0.11250458580091245
3760000000.0 -0.17072722503103824 0.04767760509128038
3780000000.0 0.16414542727934456 -0.034354923019132746
3800000000.0 -0.07623343602615584 -0.14090305450629387
3820000000.0 -0.14983070645781862 0.028493778320558202
3840000000.0 -0.14322023133236766 -0.006887719548005409
3860000000.0 0.1362171859359733 -0.046474295994998735
3880000000.0 0.1462745084225277 0.030452011732169527
3900000000.0 0.09195995964346566 -0.12594365832717794
3920000000.0 -0.13420353774660435 0.08849376035107576
3940000000.0 0.05931465497665714 -0.15438171407765267
3960000000.0 0.16288983988674088 -0.046776020526419625
3980000000.0 0.041459025702516576 -0.16552426913810145
4000000000.0 0.05784161317457243 -0.15500134818743472
