!Created with skrf (http://scikit-rf.org).
# Hz S RI R 50.0 
!freq ReS11 ImS11
400000000.0 -0.6748625711613734 0.5474176540205657
420000000.0 0.5294573498451653 0.6877999354133781
440000000.0 0.5591868487046512 -0.6196252639001167
460000000.0 -0.40586782160445845 -0.6678722188902584
480000000.0 0.6803021261847781 0.17145897684312664
500000000.0 0.35358305589310407 -0.46598303839757615
520000000.0 -0.47399255821258046 -0.1349082097208659
540000000.0 0.09474508997110859 0.4121952047909468
560000000.0 -0.3397674927405798 -0.17925940552615224
580000000.0 0.2925290731316152 -0.19692678723614312
600000000.0 0.2073014529523979 -0.28717926561329044
620000000.0 0.08290176751242782 0.35951969901014696
640000000.0 0.3922092532663992 -0.07146193043672247
660000000.0 -0.2703893626153551 -0.30680136406824066
680000000.0 0.41632984950048985 -0.074938545834586
700000000.0 -0.17729138728015692 -0.3887147368686793
720000000.0 -0.4188405760709779 -0.07424556148555929
740000000.0 0.24031872218845093 -0.33903426877645354
760000000.0 -0.3694590167056639 -0.1279601703062601
780000000.0 0.27694165985935404 0.2273829551872664
800000000.0 0.1012250603578277 -0.306977292471447
820000000.0 -0.2196699997793371 0.1688422443395768
840000000.0 0.026227855261584058 0.23556451263314387
860000000.0 -0.18669155158244646 -0.07800595186976653
880000000.0 0.1592175413980823 -0.025152624958705582
900000000.0 0.0655868038178835 -0.09322021084558638
920000000.0 -0.011647616877383134 0.07360937671876444
940000000.0 -0.017112954171773616 -0.040451977877949435
960000000.0 0.048127026298268816 0.000995914888275465
980000000.0 0.053042535059929764 0.03983446211701062
1000000000.0 -0.058381729353136125 -0.06009065191329438
1020000000.0 -0.07865798702281493 -0.06418717144854162
1040000000.0 0.0823393476842838 -0.08601594497854644
1060000000.0 0.15408920568394457 0.034036559235435596
1080000000.0 0.17409903256363662 0.03467671986224087
1100000000.0 -0.12272261555694806 -0.1619837374805822
1120000000.0 0.22024628857288017 0.04527286991680377
1140000000.0 0.004090175958536242 -0.25533849295553507
1160000000.0 -0.20143741579848562 -0.1940654610124352
1180000000.0 0.13568283003125675 -0.28394816572791526
1200000000.0 0.33665553307461454 0.03919746014913853
1220000000.0 -0.3643624719416051 0.023917237747801037
1240000000.0 0.260515744545818 0.28396285072907856
1260000000.0 0.06133273981654459 -0.4050326749534016
1280000000.0 -0.4205854624475059 -0.05713184412550522
1300000000.0 0.23935774758006567 0.36458864727001145
1320000000.0 0.41657664784073095 0.13433398045905462
1340000000.0 0.4377955001090994 -0.01446901889705254
1360000000.0 0.43984646938381267 -0.026639697922762724
1380000000.0 0.16947184710655958 -0.4028227003566422
1400000000.0 -0.42148952413503044 -0.07781972724250882
1420000000.0 0.12109553122698621 0.3926992504173532
1440000000.0 0.3369641129788609 -0.18406577036483815
1460000000.0 -0.1243916358070774 -0.33040374243451165
1480000000.0 -0.3145825461125712 0.06406664446840513
1500000000.0 -0.03145720499796356 0.2855408069355775
1520000000.0 0.11076845220235904 0.23295948994886923
1540000000.0 -0.11607681036004175 -0.1970978546307692
1560000000.0 0.1665285528088982 -0.10089396318795088
1580000000.0 -0.03547143132559043 0.16307434895858122
1600000000.0 0.11518468951123141 0.06581881922934658
1620000000.0 -0.0068084106043656495 0.10302037774847687
1640000000.0 -0.06497578509579298 -0.04136768609321565
1660000000.0 0.03516006763490077 0.039878113848121136
1680000000.0 -0.033374771749931795 0.004973438097980277
1700000000.0 0.0055221971354590185 -0.019873431591487786
1720000000.0 0.0024721291603621424 0.0029034937661718426
1740000000.0 -0.015272307034896324 0.0026569791775529674
1760000000.0 -0.02794847752513345 0.015136500907865618
1780000000.0 -0.05774735881562702 0.014526492573272784
1800000000.0 0.01043106297107137 -0.09103607139525804
1820000000.0 -0.10359265899348848 -0.06665346038376335
1840000000.0 0.1609907978693097 -0.0034023704812032266
1860000000.0 -0.19798613691401468 -0.00030732691481661327
1880000000.0 0.23546188409450783 -0.03319430852615495
1900000000.0 -0.2754337356199254 0.06202659143528629
1920000000.0 0.2746645652570636 -0.15818688522216198
1940000000.0 -0.35024808675278557 0.02968072069390719
1960000000.0 0.3370708162166814 0.17174462845360688
1980000000.0 -0.06073141365033886 -0.3923458791693059
2000000000.0 -0.3763881849996843 -0.17207362415599384
2020000000.0 -0.23535650146812623 0.354576162566275
2040000000.0 0.006195527560818811 0.43257944666395015
2060000000.0 0.4218597563159259 0.10428752852546894
2080000000.0 0.3536255124327734 -0.24813036218118162
2100000000.0 0.24562224544257263 -0.3454599636350957
2120000000.0 0.10518834652356748 -0.40043673119106377
2140000000.0 -0.02439880174341124 -0.4026469441814687
2160000000.0 0.34408501579796047 -0.1827081514320068
2180000000.0 0.17160753359266337 -0.3335502364094228
2200000000.0 -0.12361602687665167 -0.3380528301298726
2220000000.0 -0.21486739666938365 -0.27296816050287
2240000000.0 -0.33629014896182746 -0.06616256425912483
2260000000.0 -0.3174864555101819 0.12524279913262862
2280000000.0 -0.11242595096381006 0.3262571244838706
2300000000.0 0.2825965818150999 0.21536272675751927
2320000000.0 0.3266012901589111 -0.18855838167811004
2340000000.0 -0.1639332134225548 -0.3753052635084194
2360000000.0 -0.21238747050208712 0.3981436618933818
2380000000.0 0.3380863554678108 -0.3682681428220625
2400000000.0 -0.3876564500880995 0.3922076041784416
2420000000.0 0.21385830792801244 -0.565803124071385
2440000000.0 0.17575668977292921 0.6310061819685815
2460000000.0 -0.5789397914905912 -0.3897283616843591
2480000000.0 0.7302199002975903 0.049225307496192416
2500000000.0 -0.7532131841295184 0.04548899568147059
2520000000.0 0.764375954610524 0.07324369576599925
2540000000.0 -0.6718354869597835 -0.379165588851142
2560000000.0 0.28177835353959557 0.7145184733459171
2580000000.0 0.3819822582586117 -0.6517272493081129
2600000000.0 -0.711750334421216 0.17718749476163118
2620000000.0 0.6002981847026008 0.36853961582369027
2640000000.0 0.668240406085543 0.0015379175341001597
2660000000.0 -0.4792240630878283 -0.39974780558567835
2680000000.0 0.12472849805469516 0.5631801934601774
2700000000.0 0.22043850704948123 -0.4807636299079229
2720000000.0 -0.34712653710903324 0.3311434095140555
2740000000.0 0.4314158710621345 -0.048325354452803726
2760000000.0 -0.39329560657860424 0.01076372210752667
2780000000.0 0.3512719188722078 -0.08755964879383676
2800000000.0 -0.255783888077767 0.21630316990316012
2820000000.0 -0.03799074010511791 -0.31477967638845533
2840000000.0 0.24651183099186086 0.17995118424896422
2860000000.0 -0.29391172896980106 0.06863051006417488
2880000000.0 0.11994484656318866 -0.2767868011905849
2900000000.0 0.02479940979789074 0.30190904764573706
2920000000.0 0.1874839828320995 -0.24179350255094098
2940000000.0 -0.27092831349287366 -0.1509430154693082
2960000000.0 -0.29638642586170877 0.103825415951327
2980000000.0 -0.31543276837784157 0.04373645788461046
3000000000.0 -0.3148308535036736 -0.06550716771029627
3020000000.0 -0.12122737680386624 -0.297846687604822
3040000000.0 0.30892573012076147 -0.07112527928508604
3060000000.0 -0.25918672672282084 0.17469251579703662
3080000000.0 0.19839912969532172 -0.23480272299648125
3100000000.0 -0.24209462822103495 0.1781141091655952
3120000000.0 0.08631439075979803 -0.2814701405199787
3140000000.0 0.09251460250792283 0.2687904213920359
3160000000.0 -0.24520781359794255 -0.10920347449155111
3180000000.0 0.057630358796702266 0.2459398451090776
3200000000.0 -0.22932320159599773 0.0033803690782755924
3220000000.0 -0.0025986888160134795 -0.20333929430168027
3240000000.0 0.1735896533568579 0.0032667423045545526
3260000000.0 -0.06727106124707073 0.12404240847931043
3280000000.0 0.0648966292488916 -0.08843915382557016
3300000000.0 0.008891862733258723 0.07939179728212396
3320000000.0 -0.02476815869159517 -0.04622323508144614
3340000000.0 0.025031531027684243 -0.013184681003308852
3360000000.0 0.007580529341968091 0.0062469682744847
3380000000.0 0.007574002863698738 0.0034498884176642573
3400000000.0 -0.020574980369859493 0.005804465896531912
3420000000.0 -0.02544867992192912 -0.02232584791440965
3440000000.0 0.015278889780370977 0.04248328814933822
3460000000.0 -0.01327430762258929 0.0530601579125688
3480000000.0 -0.031621485970871506 0.05812253183763887
3500000000.0 0.07571289313269827 0.02779428662277333
3520000000.0 -0.08031761128762004 -0.05199117869674306
3540000000.0 0.09663684655181551 0.05480919348117492
3560000000.0 -0.11451293773848825 0.04963775787213089
3580000000.0 0.07683970307185557 -0.11456028308031717
3600000000.0 0.13668234270153726 0.07230303988080954
3620000000.0 0.06035079051317934 0.15513609903483264
3640000000.0 -0.13416861130036759 0.114349660254081
3660000000.0 -0.18391897381447916 -0.028284918151779335
3680000000.0 -0.12168747939922502 -0.14722097456627653
3700000000.0 -0.12823229413050705 -0.14302393715723477
3720000000.0 0.04362174226464605 -0.18565941075593478
3740000000.0 0.12441453051404895 -0.1368515097576099
3760000000.0 -0.16450296700466976 0.068290179946371
3780000000.0 0.16063815367086026 -0.05153620728708154
3800000000.0 -0.10907857276425775 -0.11907744096722465
3820000000.0 -0.14625490212606712 0.04428252669787558
3840000000.0 -0.1403000667844267 -0.036470186314574826
3860000000.0 0.143653934855512 -0.02023271068282786
3880000000.0 0.1457842467191318 0.038931873069190666
3900000000.0 0.10000830276086622 -0.12092378041520865
3920000000.0 -0.14021002347060424 0.07969674459004428
3940000000.0 0.06527324186914539 -0.15224205118361825
3960000000.0 0.1709198968808907 -0.006403239075636197
3980000000.0 0.030354350608956932 -0.16926948600418043
4000000000.0 0.029354835227474917 -0.16328225050866357
