!Created with skrf (http://scikit-rf.org).
# Hz S RI R 50.0 
!freq ReS11 ImS11
400000000.0 -0.6519748052367752 0.5786540187797368
420000000.0 0.5487681528358609 0.6737890004343717
440000000.0 0.5900215491302719 -0.5920930293798913
460000000.0 -0.35634778147966956 -0.6968435668651674
480000000.0 0.679191011808189 0.1764966157913238
500000000.0 0.35987245295735043 -0.46136764613649894
520000000.0 -0.47254216698889334 -0.14129889989851444
540000000.0 0.09152283375522943 0.41330361700963225
560000000.0 -0.3215999171119778 -0.2097300521143615
580000000.0 0.31441976876061295 -0.15789526343139315
600000000.0 0.21248207293047944 -0.28198755404545484
620000000.0 0.13249821589402314 0.3432439732497123
640000000.0 0.37174492380160584 -0.1407440815442893
660000000.0 -0.3479008897722208 -0.21193284899783887
680000000.0 0.3703714228323367 -0.20380762359745527
700000000.0 -0.2635954010480625 -0.3363110026676482
720000000.0 -0.4237467311739094 0.04516341692428079
740000000.0 0.168636398738749 -0.3799001623132552
760000000.0 -0.3753391894758895 -0.11328518164923335
780000000.0 0.27814329612557515 0.22744630380504144
800000000.0 0.14617741217403304 -0.28906677312586665
820000000.0 -0.2504208779696966 0.11930247513347216
840000000.0 -0.056151382661945554 0.2302370758751314
860000000.0 -0.14102878743398367 -0.14424306870432302
880000000.0 0.15059866755929824 0.052332514224386
900000000.0 0.10025928506673386 -0.049148035148793234
920000000.0 0.03092064247841871 0.06540222483675624
940000000.0 0.02315440782449524 0.03627088512307227
960000000.0 -0.039548412360268737 -0.030372902421430002
980000000.0 0.0664637035715493 0.018479427627481858
1000000000.0 -0.009711326916531466 -0.08535086119385128
1020000000.0 0.027980675742708586 -0.09912649376157286
1040000000.0 0.11208207351746964 0.040656496672054884
1060000000.0 0.08377013237453079 0.13292948123553433
1080000000.0 0.12831836070812572 0.1197966049752587
1100000000.0 -0.08924906995956108 -0.17964827344862744
1120000000.0 0.2212909977336884 0.01635180685535819
1140000000.0 -0.059049613798484196 -0.2452768519598323
1160000000.0 -0.25353235352077114 -0.11189876139893924
1180000000.0 0.011431193049555645 -0.3122845444864626
1200000000.0 0.3168983664783618 -0.116628461530684
1220000000.0 -0.32050852146308373 0.17438363338860938
1240000000.0 0.3424199671645404 0.1771692754841815
1260000000.0 -0.09456341967059871 -0.3991700669444889
1280000000.0 -0.4206368360015865 0.06402835516654548
1300000000.0 0.29635741403302285 0.32168632508457995
1320000000.0 0.42537907143260956 0.10702095954345196
1340000000.0 0.43851248084035827 -0.023785009750294656
1360000000.0 0.4412799123959156 0.009024527509069628
1380000000.0 0.22571728720100148 -0.3748615402075206
1400000000.0 -0.39787037385442997 -0.15904533376284508
1420000000.0 0.03772677940892693 0.4088238746162497
1440000000.0 0.37048160964490734 -0.09753565214804391
1460000000.0 -0.032463444775527275 -0.35062304242155884
1480000000.0 -0.31934155638265843 -0.01700635510750459
1500000000.0 -0.10732696784947872 0.2648525123667691
1520000000.0 0.04379562847114749 0.25206507246450277
1540000000.0 -0.08412349994882042 -0.2102304925434162
1560000000.0 0.15979245723256238 -0.10686542096693046
1580000000.0 0.013842629937639071 0.16441692279224907
1600000000.0 0.13076929117487168 0.0086543539450541
1620000000.0 0.08471826565571511 0.056895250911657196
1640000000.0 -0.025813417049448603 0.07258198032466734
1660000000.0 0.013480303418700122 -0.0519112625477781
1680000000.0 0.034386208955897654 0.0071081068505283234
1700000000.0 -0.016629658685102282 0.014360232031392549
1720000000.0 0.004675222955650008 -0.0008615574490278701
1740000000.0 -0.01179354316470068 -0.007373909605892179
1760000000.0 0.030032887621606896 -0.008155744071485225
1780000000.0 0.02586879659461114 0.053353607800073706
1800000000.0 -0.07835483373633412 -0.04860177776940445
1820000000.0 -0.12236605994068576 0.018419581547797447
1840000000.0 0.13269164526227406 -0.09399669681656403
1860000000.0 -0.19274147063207422 0.05177097171625023
1880000000.0 0.23431264518859338 -0.04843671559677087
1900000000.0 -0.2742605154386011 0.07169561681541492
1920000000.0 0.2848422061569662 -0.14089896697673812
1940000000.0 -0.35211755784705956 -0.010071772961474436
1960000000.0 0.3137245600662487 0.2123696825223332
1980000000.0 0.01213470212921627 -0.39661234894271213
2000000000.0 -0.3437671470463172 -0.2290481576601937
2020000000.0 -0.2927439759822008 0.30725642445623275
2040000000.0 -0.030849523224784597 0.4297107947368004
2060000000.0 0.40783394706097614 0.14518942357342463
2080000000.0 0.3508438016514512 -0.24851587093250405
2100000000.0 0.18881480691297925 -0.376142010025692
2120000000.0 0.07123622884131818 -0.4055241355977361
2140000000.0 -0.1008088844944202 -0.38866624215852413
2160000000.0 0.26654983292882306 -0.281216812842258
2180000000.0 0.04720861182238778 -0.3707862337490387
2200000000.0 -0.21329842817642883 -0.2889664345250034
2220000000.0 -0.2872111627568369 -0.19490167657641908
2240000000.0 -0.34099589343114595 0.03647321690131291
2260000000.0 -0.26229809850359725 0.2195866831732535
2280000000.0 -0.04816522497637224 0.34231554113085183
2300000000.0 0.30898016229762915 0.17790459643324358
2320000000.0 0.31128372875809507 -0.21459064318941082
2340000000.0 -0.18329558050622222 -0.36774018983422346
2360000000.0 -0.21170938284878352 0.3994427853319893
2380000000.0 0.36852436620893686 -0.33807136491729894
2400000000.0 -0.39653067768453454 0.38345300074698335
2420000000.0 0.2507442273946792 -0.5498642635522785
2440000000.0 0.1461536030545796 0.6378459659146304
2460000000.0 -0.5679394769883404 -0.4040668767880362
2480000000.0 0.7224287297374048 0.11139518429494594
2500000000.0 -0.7532150374962402 0.017977392778524965
2520000000.0 0.7643530337722712 0.055840839236874246
2540000000.0 -0.7115712595682959 -0.2946785356625338
2560000000.0 0.37098776837807246 0.6713519955694575
2580000000.0 0.24106537833970954 -0.715022445973657
2600000000.0 -0.6747345605181786 0.2854093195095419
2620000000.0 0.6372759320049953 0.2996602225283846
2640000000.0 0.6535427801800864 -0.13870501335763888
2660000000.0 -0.5377872494138267 -0.3152496652433808
2680000000.0 0.20596810853979602 0.5385776967456518
2700000000.0 0.13197607952366178 -0.5123107360110007
2720000000.0 -0.31186432341693204 0.36528967674669377
2740000000.0 0.42652229017582277 -0.08218235313931538
2760000000.0 -0.39287909850137015 0.019359400340879487
2780000000.0 0.35527707599805686 -0.06822337045902153
2800000000.0 -0.2743247456564037 0.1916880381154827
2820000000.0 0.0023508426227983673 -0.3166258498440121
2840000000.0 0.2301050089253936 0.19956855521430097
2860000000.0 -0.2969355074247777 0.04794618053394962
2880000000.0 0.13309371413375115 -0.26969688591300195
2900000000.0 0.02356697361192636 0.3006109391003625
2920000000.0 0.1825024540109864 -0.24395000541204187
2940000000.0 -0.2778497126902957 -0.13537123530338957
2960000000.0 -0.2875341047758917 0.12251764046633207
2980000000.0 -0.2783050981408637 0.1529610792652705
3000000000.0 -0.3195218726745678 0.0039554554820480006
3020000000.0 -0.19312134339080755 -0.2555269683141246
3040000000.0 0.2978595097373346 -0.10658910030454066
3060000000.0 -0.1809974434818007 0.25350977716365625
3080000000.0 0.11918472582659631 -0.282621396305172
3100000000.0 -0.14656780641598155 0.2628814830988731
3120000000.0 0.016146634015172363 -0.29406797627115
3140000000.0 0.17412681386162607 0.22558230436544205
3160000000.0 -0.26828116396006296 -0.02324624804703464
3180000000.0 0.11247141009690152 0.22762982844331778
3200000000.0 -0.2269006575024774 0.04224000748543117
3220000000.0 0.014509130318016998 -0.20433703100665815
3240000000.0 0.16255473699676298 0.06558625502500878
3260000000.0 -0.11387650361790637 0.08581653430959336
3280000000.0 0.10886629347159944 -0.021371441118040298
3300000000.0 -0.06803428582599781 0.04434699468306664
3320000000.0 0.05054349908290177 0.017798808551627774
3340000000.0 0.022911617190006294 -0.01770510460821852
3360000000.0 0.00851921697085543 -0.002473275378534836
3380000000.0 -0.005573447159987968 0.005254577206918414
3400000000.0 -0.006385317128512362 0.020970970911227037
3420000000.0 0.02746161655396004 -0.020906744570440325
3440000000.0 0.023560183963548646 -0.03879413932640531
3460000000.0 0.00236359401773363 -0.05550842423979029
3480000000.0 0.06520721349187493 0.014773985324628904
3500000000.0 -0.0040350390028177354 -0.08141701650894322
3520000000.0 -0.09557923492672234 0.005240035069953878
3540000000.0 0.09212124053019687 -0.061933932638322815
3560000000.0 -0.04400274779680209 0.11751296113442758
3580000000.0 -0.040951176225958036 -0.13340107065773804
3600000000.0 0.1512542451491428 -0.03928978320187546
3620000000.0 0.12564064346623785 0.11059839990707301
3640000000.0 -0.08179089011776827 0.15793338509664792
3660000000.0 -0.18228299519662744 0.042919571492645026
3680000000.0 -0.1646867031184515 -0.09998713992203603
3700000000.0 -0.14777232270054944 -0.12588865565562912
3720000000.0 0.015924677968706422 -0.19197403265758564
3740000000.0 0.10950398478507448 -0.15025547114683904
3760000000.0 -0.15207063772068635 0.09531754663289144
3780000000.0 0.1585460391065688 -0.061353762280244195
3800000000.0 -0.08403523953273463 -0.13950159871309809
3820000000.0 -0.14832678148512782 0.0445905488518097
3840000000.0 -0.14454435026526 -0.021619211883959183
3860000000.0 0.14366195966726483 -0.030123826414182396
3880000000.0 0.14286282921342533 0.05179534160771015
3900000000.0 0.1036599345397463 -0.11956502160769447
3920000000.0 -0.15367116956679064 0.05486369710693847
3940000000.0 0.09266648491149136 -0.1393415643497254
3960000000.0 0.16784298574881454 0.03855461225212129
3980000000.0 0.1197609810430719 -0.12475234187681233
4000000000.0 0.14274562913186645 -0.0868486477083908
