!Created with skrf (http://scikit-rf.org).
# Hz S RI R 50.0 
!freq ReS11 ImS11
400000000.0 -0.6956318731327957 0.5256598940032307
420000000.0 0.5274082652333034 0.6902202063319568
440000000.0 0.5631496237939118 -0.616658432388421
460000000.0 -0.36588758389640874 -0.6908803752137065
480000000.0 0.6781118865492902 0.17996189832421872
500000000.0 0.3632721010747293 -0.4581849316506213
520000000.0 -0.4715153958406872 -0.14504786282960416
540000000.0 0.11079932451851222 0.4087902355727145
560000000.0 -0.3212298791993831 -0.2104148309233074
580000000.0 0.3252948922847723 -0.135333311148702
600000000.0 0.20739566309723667 -0.28642537118105926
620000000.0 0.10091525904571916 0.35328412000080744
640000000.0 0.38722362212843714 -0.08891042330768162
660000000.0 -0.29886340108745457 -0.2769962014259569
680000000.0 0.3867360846101167 -0.1687149530844015
700000000.0 -0.25368592992297073 -0.3432422354491038
720000000.0 -0.42508040163256694 0.012371467601783533
740000000.0 0.16240756876399812 -0.38289122818170007
760000000.0 -0.3799923403041676 -0.09569982803996735
780000000.0 0.28448726364931876 0.2192967338844791
800000000.0 0.12618016832496495 -0.2984719483234432
820000000.0 -0.23958238716042787 0.14054017554390746
840000000.0 -0.0435038474176852 0.23347294963443638
860000000.0 -0.13823485155605497 -0.14778540585166255
880000000.0 0.14848947731982468 0.06017471570779357
900000000.0 0.10481775801565381 -0.03879069509275232
920000000.0 0.008740166578012997 0.07193431607786283
940000000.0 -0.00957270010284998 0.04176965199653978
960000000.0 -0.039486589805210026 -0.02943636757025372
980000000.0 0.06763862840941699 -0.010700782418894316
1000000000.0 -0.04326716333939915 -0.07397818437928164
1020000000.0 0.0004329817484917269 -0.10300721392019392
1040000000.0 0.1171060577162077 0.02485591043887317
1060000000.0 0.07477028661061863 0.13856251075929904
1080000000.0 0.1126453637489484 0.13508562955526898
1100000000.0 -0.07232368956729557 -0.18715771030305778
1120000000.0 0.21140614705616545 0.06707053269534329
1140000000.0 -0.04018167726839291 -0.2490126466334121
1160000000.0 -0.24151625412551497 -0.13504636395785455
1180000000.0 -0.003232397520829173 -0.31181622894713
1200000000.0 0.3121013211844915 -0.12722567157712011
1220000000.0 -0.3167975391411145 0.17923899732162313
1240000000.0 0.3494409239793353 0.16120923621494976
1260000000.0 -0.08373816500038178 -0.4006175243393993
1280000000.0 -0.4216264302546564 0.05281269192411501
1300000000.0 0.30854764112559757 0.31017795599518666
1320000000.0 0.4306133998427835 0.08454089451878641
1340000000.0 0.43805980043103065 -0.03259965249487063
1360000000.0 0.4417946313776896 -0.004654329200127946
1380000000.0 0.2129721709139206 -0.3827263641319181
1400000000.0 -0.4050587339893944 -0.14192453323064924
1420000000.0 0.04839721252551588 0.4083311550114831
1440000000.0 0.3693870369093647 -0.10258341073124039
1460000000.0 -0.03759619585027714 -0.3500693145458484
1480000000.0 -0.319404303175057 0.0041004715707579145
1500000000.0 -0.1292269885601643 0.25445778417068177
1520000000.0 0.028326119809900924 0.25456950955685026
1540000000.0 -0.08168490611595011 -0.21101172759567463
1560000000.0 0.17607336995180095 -0.07770708032031255
1580000000.0 -0.014054876342128519 0.16404979149435028
1600000000.0 0.1309667127374301 0.00021919626989657366
1620000000.0 0.09572180994375627 0.035945473252772274
1640000000.0 -0.057972324881909704 0.05066232270788583
1660000000.0 0.04531711904554168 -0.028750228581977424
1680000000.0 0.024776239767586663 0.024582213587504773
1700000000.0 -0.017619118579453853 -0.012973884636492104
1720000000.0 9.94376569364604e-05 0.004569879990273002
1740000000.0 -0.014451217216956653 0.0008101401451257716
1760000000.0 0.029404402154567487 -0.01130981365056856
1780000000.0 0.020537524072437804 0.05584169678897903
1800000000.0 -0.0849749207730322 -0.03532579752163774
1820000000.0 -0.12351661858951433 0.004267226004782845
1840000000.0 0.12872140919791317 -0.0986439103956194
1860000000.0 -0.19590493759071942 0.03656366089751409
1880000000.0 0.23408712042052798 -0.050385629402804624
1900000000.0 -0.27502541570585215 0.06862565221158054
1920000000.0 0.28598713565552925 -0.13886425595349286
1940000000.0 -0.3522521870371593 -0.0006690397829420296
1960000000.0 0.3077722986089231 0.22043489460779847
1980000000.0 -0.0011239194546840865 -0.3968422910874714
2000000000.0 -0.3465846575677938 -0.22513323228281756
2020000000.0 -0.28963845210872285 0.3105338165416021
2040000000.0 0.018406752278724108 0.4312160074559742
2060000000.0 0.3971658789099957 0.17424921380168265
2080000000.0 0.38433697568132974 -0.19334934368706871
2100000000.0 0.2411929869197719 -0.3455747025046946
2120000000.0 0.051164420490774166 -0.40863492281306035
2140000000.0 -0.08971704145635706 -0.3911345848449152
2160000000.0 0.31065302406516876 -0.23161202650357915
2180000000.0 0.06680675575340918 -0.3675627458455495
2200000000.0 -0.19054064195124684 -0.3041899717795993
2220000000.0 -0.2919548067130655 -0.18698085889985075
2240000000.0 -0.34221587826796923 -0.0013124044634402815
2260000000.0 -0.2847221439164199 0.18900718835068905
2280000000.0 -0.05833971580958804 0.34025789456797445
2300000000.0 0.31939154171578066 0.15718973839499528
2320000000.0 0.311301712663714 -0.21322347061504807
2340000000.0 -0.20749884170254995 -0.35395863397908545
2360000000.0 -0.18991076365157905 0.40962177447136155
2380000000.0 0.3247115012053248 -0.38036238377806925
2400000000.0 -0.4014148066794219 0.3778706859606569
2420000000.0 0.2437971078370069 -0.5530674065761293
2440000000.0 0.1574165636679915 0.6353744361292019
2460000000.0 -0.5743143072608784 -0.3953486148811873
2480000000.0 0.7279553911774636 0.06930536725173982
2500000000.0 -0.7532363997764647 0.029935997653502088
2520000000.0 0.7633445851701064 0.07328186840694237
2540000000.0 -0.6856249443783352 -0.35177498884371916
2560000000.0 0.33946456151463694 0.687782318809139
2580000000.0 0.3231692200493695 -0.6813623793139568
2600000000.0 -0.6889398279358412 0.24584936715341887
2620000000.0 0.6241653961707051 0.32405454310382875
2640000000.0 0.6588107374369078 -0.10506351110484763
2660000000.0 -0.53795879583074 -0.3138492871797908
2680000000.0 0.18295305963764877 0.5452544078159394
2700000000.0 0.16378615854256606 -0.5020715772693917
2720000000.0 -0.3405513448545144 0.3371307099476862
2740000000.0 0.420050298814867 -0.1078107441550343
2760000000.0 -0.39176890323050284 0.029586276529595057
2780000000.0 0.3558357477312339 -0.06533205749430401
2800000000.0 -0.2723059312241226 0.1940316712816728
2820000000.0 -0.015245195437536121 -0.3160806584824376
2840000000.0 0.2284049352966315 0.20156413761768222
2860000000.0 -0.29749939098947137 0.044739478178732583
2880000000.0 0.10418979273347251 -0.2818934912993055
2900000000.0 0.014840640110704175 0.3013876986084039
2920000000.0 0.2038307761654062 -0.22689580504253593
2940000000.0 -0.27933698658387196 -0.13287062267009556
2960000000.0 -0.2872267207333335 0.1239490258935479
2980000000.0 -0.29471643770728856 0.11883618864336794
3000000000.0 -0.3157971785542888 -0.0545123250737983
3020000000.0 -0.17342776861683343 -0.2692665150521638
3040000000.0 0.2663302170444562 -0.16984078362443947
3060000000.0 -0.20116239372211356 0.238286356346838
3080000000.0 0.13030233481390172 -0.27775031250952004
3100000000.0 -0.10588026095739372 0.28178137479304977
3120000000.0 -0.04141038937127701 -0.29248386114825004
3140000000.0 0.15805834463628757 0.23808715419326504
3160000000.0 -0.2638109394420778 -0.05662146885418674
3180000000.0 0.08538883156817767 0.2388406544104094
3200000000.0 -0.229934463843465 0.014961829346648954
3220000000.0 -0.001968271690955727 -0.2049591800239425
3240000000.0 0.1595969715762987 0.07232835879172389
3260000000.0 -0.12037946522868058 0.0765908456195165
3280000000.0 0.1095238791526162 -0.017734123876994797
3300000000.0 -0.07298328266112862 0.03429111250332874
3320000000.0 0.052790428564964624 -0.006746556627813073
3340000000.0 -0.0047692643274808155 -0.02817154095660639
3360000000.0 0.009226063621795365 -0.0005448484918710271
3380000000.0 -0.002966703995960985 -0.006862202951812849
3400000000.0 -0.0054812527838149425 0.02057812916791775
3420000000.0 0.032176542825990216 0.011618198822201843
3440000000.0 0.019211176574483214 -0.04113692013514903
3460000000.0 0.05330080412339266 -0.013243381723990352
3480000000.0 0.06336497721012273 0.02065537135965898
3500000000.0 0.0587320081901964 -0.0559351973359891
3520000000.0 -0.07573836277572978 -0.058401723571440814
3540000000.0 0.10545039832484376 -0.034824331658107534
3560000000.0 -0.05026356534937668 0.1151466421233207
3580000000.0 0.01324759063321507 -0.13850355734381892
3600000000.0 0.1546535070434813 -0.01454569355436529
3620000000.0 0.15118317816166543 0.07319398701816293
3640000000.0 -0.04931160992252669 0.17144677300545647
3660000000.0 -0.18117123355908338 0.046941781523652186
3680000000.0 -0.1706977380105609 -0.08874051302392302
3700000000.0 -0.15482397754467994 -0.11587673657886714
3720000000.0 -0.00713445575699233 -0.19262757031370226
3740000000.0 0.08974385409816277 -0.16296166654078204
3760000000.0 -0.1473677198072036 0.10238672114585227
3780000000.0 0.15614151423454095 -0.06843892829803587
3800000000.0 -0.1197841064716298 -0.11036653569640435
3820000000.0 -0.14952376581424762 0.04106216729222841
3840000000.0 -0.146168397468918 -0.00016875818526947153
3860000000.0 0.13863857859851814 -0.0478100614605856
3880000000.0 0.1516028924938134 0.012200638375132905
3900000000.0 0.04525585778989465 -0.1514159973339326
3920000000.0 -0.10798408252773756 0.12195019499359894
3940000000.0 0.044797212315073595 -0.16135113819249425
3960000000.0 0.17053246517945253 0.02741216384274286
3980000000.0 0.09809104557939216 -0.14302343547417762
4000000000.0 0.12476740149504977 -0.11165287990844149
