!Created with skrf (http://scikit-rf.org).
# Hz S RI R 50.0 
!freq ReS11 ImS11
400000000.0 0.6871781424812671 0.5258925451591949
420000000.0 0.8401190747117732 -0.09333440967403583
440000000.0 0.779375886940926 -0.16999763791915845
460000000.0 0.7241894529198191 -0.17942180658924542
480000000.0 -0.020534969545404298 -0.6859441053589495
500000000.0 0.1335104944832227 0.5914436361311951
520000000.0 0.4712263130526114 -0.180886884224508
540000000.0 -0.2714306612663056 -0.3428216291580518
560000000.0 0.3552953014719376 0.19268798566870238
580000000.0 0.0244957533084234 0.3602402306021851
600000000.0 -0.15679272889823864 -0.3144657556547745
620000000.0 -0.3405800134039319 -0.08635071834704662
640000000.0 -0.16943873721032476 -0.36230494300956084
660000000.0 -0.29661038176060417 0.27995429169587893
680000000.0 -0.254357853932235 -0.3655046557009189
700000000.0 0.26344806638561824 0.37325537769337547
720000000.0 -0.3272691636012089 -0.32488035633621876
740000000.0 -0.4316204432403609 -0.033252107355727055
760000000.0 -0.4094545536707831 -0.07062954263219412
780000000.0 -0.2534094437478051 0.2909042327358911
800000000.0 0.2737653990334545 0.19569912972862696
820000000.0 0.2775485851930548 -0.020563144033815497
840000000.0 -0.1860729854247628 0.08072005702714127
860000000.0 -0.13943085660036364 0.09462171420266849
880000000.0 0.0034567503225483593 0.14214018423410832
900000000.0 -0.08649450756838686 -0.03660618367327691
920000000.0 0.020571232105829323 -0.04478771506110848
940000000.0 0.030334958875919457 0.003429216164858507
960000000.0 -0.02112237765645772 0.020200030269382673
980000000.0 0.019564724522352642 0.04969819783221238
1000000000.0 -0.04924688063284603 0.07732407460733742
1020000000.0 -0.09332921079742529 0.07107641586409716
1040000000.0 -0.09084368334169292 -0.09857288833391983
1060000000.0 -0.06228671075140918 0.14765530085303902
1080000000.0 -0.10028277055390632 -0.1575031079824294
1100000000.0 0.04211024313854034 -0.20929898078176587
1120000000.0 0.2255851709821728 -0.07614853310325786
1140000000.0 -0.21826894829065047 0.1410404069431877
1160000000.0 -0.16653327421592665 0.23566911746004654
1180000000.0 -0.25561024145677325 0.18955742493326297
1200000000.0 0.12081024355010782 -0.32264963766363497
1220000000.0 -0.14516501470505633 0.34155632836840866
1240000000.0 0.26476569646452547 -0.2844327946288342
1260000000.0 -0.20237438984355632 -0.34494898699222126
1280000000.0 -0.4190080330510551 -0.023467114890873126
1300000000.0 -0.029744236284546085 0.4299871946696242
1320000000.0 0.208136306352416 0.38509081579856774
1340000000.0 0.3841766436944336 0.22647999290287285
1360000000.0 0.4151136798340944 -0.1739766592691716
1380000000.0 -0.27773162330622553 -0.34194231570462347
1400000000.0 -0.29711072543861017 0.3078085381547359
1420000000.0 0.40347548415255136 -0.013379223708779236
1440000000.0 0.06349828440543222 -0.3635018815572048
1460000000.0 -0.02982417695103413 -0.3341809642751816
1480000000.0 -0.29313484274751306 -0.09391884893904955
1500000000.0 -0.23587816864958747 0.14860725507757488
1520000000.0 -0.22707849464287677 -0.1052226270873443
1540000000.0 0.12975774394681083 0.1849461625770515
1560000000.0 -0.17831662250664457 0.09329384262538948
1580000000.0 -0.062095337392019716 0.16679201887449183
1600000000.0 0.046789015836148515 -0.13513236583797983
1620000000.0 -0.1077175094237769 0.0028164535351862564
1640000000.0 -0.06942451920569502 0.04112946993695853
1660000000.0 0.012323424926198265 0.06033372627054207
1680000000.0 0.009855371040221815 0.03448435507063984
1700000000.0 0.011183739597067898 0.0058678098229721035
1720000000.0 0.0031896152789643176 0.0063117550998811325
1740000000.0 0.026199458541783127 0.0036495248298784046
1760000000.0 -0.036932102228507666 0.02325967841785414
1780000000.0 -0.04095257770536076 0.045252542961014705
1800000000.0 -0.015122174428581834 -0.08803506804673364
1820000000.0 0.07185886986191996 0.08959865587507948
1840000000.0 -0.009026927725403543 0.15273737644621815
1860000000.0 -0.08607206887678277 -0.17367084305948638
1880000000.0 -0.1941626821720212 0.1400582502636931
1900000000.0 0.06772113939796286 -0.28231156449770684
1920000000.0 0.3311557556369863 0.03275033432730842
1940000000.0 -0.2872706499842527 0.21308372937885128
1960000000.0 0.3670322268768671 0.08863212575906416
1980000000.0 0.033363501322168136 -0.40102333595765416
2000000000.0 -0.39808284532411337 0.12038588419375688
2020000000.0 -0.17370574933411567 0.3848656165533423
2040000000.0 0.018584708839107306 0.4281316118031735
2060000000.0 0.2156933852702754 0.37353403782527433
2080000000.0 0.4287141604930369 0.05093174228397493
2100000000.0 0.18808142563861246 -0.38341263732572584
2120000000.0 -0.17389699556941055 -0.37793482229525743
2140000000.0 -0.3319552642716312 -0.2229054374198273
2160000000.0 0.28864348527109246 -0.2579186632561168
2180000000.0 -0.038318464107242135 -0.37220803648283857
2200000000.0 -0.32149226491968985 -0.16295604661809152
2220000000.0 -0.3137889402275327 0.15571200565897875
2240000000.0 -0.22759823976264362 0.2571911141953294
2260000000.0 -0.00830467586278665 0.34101951667244884
2280000000.0 0.15988117328497892 0.3056377185715784
2300000000.0 0.3270174060963535 0.14290568302362297
2320000000.0 0.2605024544062802 -0.2815834122239277
2340000000.0 -0.36213477298721986 -0.20542869656447496
2360000000.0 -0.052799681138609895 0.45356857372651016
2380000000.0 0.09112286659334871 -0.5016001919147427
2400000000.0 0.20453705842567765 0.5256843552390336
2420000000.0 -0.5556546790120288 -0.26494297448093124
2440000000.0 0.6334343881790292 -0.19230425469009294
2460000000.0 -0.4635997909046386 0.5268679312641844
2480000000.0 0.08637911612588697 -0.7272416478208781
2500000000.0 -0.0770823074193095 0.7481564233567831
2520000000.0 0.2229785537728497 -0.7297408943382889
2540000000.0 -0.48132920076546376 0.594189842773371
2560000000.0 0.7437246554134266 -0.15043740267244265
2580000000.0 -0.5017585545071056 -0.550338313831238
2600000000.0 -0.05847447271701194 0.7174839563041169
2620000000.0 0.577278015657024 -0.3800220511713943
2640000000.0 0.23511628154986755 -0.6110389891279283
2660000000.0 -0.5709646307566613 0.21950896000163125
2680000000.0 0.553687189275277 0.11058981593051898
2700000000.0 -0.3807290563268984 -0.3494863119821357
2720000000.0 0.3292276065383714 0.33394791094788967
2740000000.0 -0.23982816397566567 -0.34296262845489156
2760000000.0 -0.07278196191126252 0.37044869767949473
2780000000.0 0.10608784976448024 -0.32662292764116946
2800000000.0 -0.09903403444571218 0.30117504166272774
2820000000.0 0.16630704445359146 -0.249250541161139
2840000000.0 -0.027652222514362643 0.2939275401884258
2860000000.0 -0.2698917000853594 -0.11422972871300593
2880000000.0 0.14209390371657593 -0.25741700490248076
2900000000.0 -0.0647805192915911 0.28833020702017204
2920000000.0 0.251403324490408 -0.16388769222714766
2940000000.0 -0.2865258615840554 -0.11472975571208867
2960000000.0 -0.09788096074700191 0.29559779615129705
2980000000.0 -0.02152227249391304 0.3091845963083033
3000000000.0 -0.30907649022109507 -0.029531674374935042
3020000000.0 0.12027249744924408 -0.2937802588475847
3040000000.0 0.31504102938120226 -0.042712379685960825
3060000000.0 0.0016410168911697208 0.3144383605766999
3080000000.0 -0.043486369591934734 -0.29952752307001257
3100000000.0 -0.06904152018030671 0.28608191878658706
3120000000.0 0.09944483192376777 -0.27060643911031346
3140000000.0 0.11741262066782612 0.2518666721221937
3160000000.0 -0.21752403915518717 -0.14629775590244495
3180000000.0 -0.1268655163627861 0.20903643622064633
3200000000.0 -0.0936969220664213 -0.2025773090381329
3220000000.0 0.1885672368151387 -0.05905276131141115
3240000000.0 0.05532084262649034 0.1590155681179479
3260000000.0 -0.11326846131295977 0.073668918814895
3280000000.0 0.09740102635678768 0.024493452684483163
3300000000.0 -0.047155034536724434 0.05642176053175093
3320000000.0 0.024023591652657304 0.03386419276588344
3340000000.0 -0.018107571114239288 0.0065645628454596055
3360000000.0 -0.0012428714382829384 0.003641341536156424
3380000000.0 -0.011436905737633566 0.0028804805931114236
3400000000.0 -0.014761758697211544 -0.015621511956278372
3420000000.0 0.02067796774051869 0.027984143107635258
3440000000.0 -0.020504332559844497 0.04219012239678323
3460000000.0 -0.05606601099271194 -0.01516487160622882
3480000000.0 -0.0393552068195938 -0.06087844826400592
3500000000.0 0.03322680269324367 0.08669607017032795
3520000000.0 0.09923726984545259 0.038557210101498075
3540000000.0 -0.013282765912009735 0.11744684905059184
3560000000.0 -0.07710651125387491 -0.09927137729483121
3580000000.0 -0.0655090715630807 0.11951121305224686
3600000000.0 0.022632667525612018 -0.14677096035569698
3620000000.0 -0.10026327172663549 0.12703850305257078
3640000000.0 -0.16934613601823653 -0.05471285126180355
3660000000.0 0.0011382798578107923 -0.1881536606364107
3680000000.0 0.06435780419061345 -0.18701653177855979
3700000000.0 -0.12766002836453152 -0.15399692365873469
3720000000.0 -0.15729050284663965 -0.12165559708355798
3740000000.0 -0.05797765463346396 -0.17824336782695865
3760000000.0 -0.09056316426335052 0.1543175136854042
3780000000.0 0.16639916713778072 0.03534547204635752
3800000000.0 0.014510040881762309 -0.16133527765531383
3820000000.0 -0.025302736255629635 -0.15516470771666352
3840000000.0 0.10904800520921615 -0.1058015103407398
3860000000.0 0.028416845636894214 -0.15115301640513987
3880000000.0 -0.05987560088623699 -0.14066743038995244
3900000000.0 0.10016610040960884 -0.11429267558439911
3920000000.0 0.05062056529228847 -0.14965200564181932
3940000000.0 -0.050448205448165584 0.15796413914029467
3960000000.0 -0.15178174123668214 0.08397827277499932
3980000000.0 -0.07885290120090217 0.15529512419981292
4000000000.0 0.14995317298432742 0.07940801695914027
