!Created with skrf (http://scikit-rf.org).
# Hz S RI R 50.0 
!freq ReS11 ImS11
400000000.0 0.6669274920120177 0.5536849966955588
420000000.0 0.8402022781725791 -0.08979531529241358
440000000.0 0.788573954157078 -0.12387189599238042
460000000.0 0.7378100541761924 -0.10581642600145455
480000000.0 0.10659803572146444 -0.6777792263423221
500000000.0 0.07170434526395839 0.6021995419189548
520000000.0 0.47477898376993355 -0.16845631124625432
540000000.0 -0.2837937981692923 -0.3318364491273344
560000000.0 0.37108452275239756 0.15857365949380456
580000000.0 0.07061922468869866 0.35539669612797653
600000000.0 -0.11754713534150676 -0.33173949345269466
620000000.0 -0.33716291941923715 -0.10135262595821859
640000000.0 -0.04338599483937262 -0.40023517447016194
660000000.0 -0.37984994832633595 0.14912440384783215
680000000.0 -0.18676364740122642 -0.40459365298598016
700000000.0 0.1673050750666091 0.4256477502487537
720000000.0 -0.27995916774529245 -0.36433017904464876
740000000.0 -0.42785710508605235 -0.0601019571285115
760000000.0 -0.4066729217680593 -0.08001308083149779
780000000.0 -0.2167571394319297 0.3176339035177485
800000000.0 0.3160232859854718 0.11367909816454977
820000000.0 0.25882524863547113 -0.10101833310190338
840000000.0 -0.1280448029434704 0.15865087941673653
860000000.0 -0.10979726053707592 0.1294005089857623
880000000.0 0.0928229703323173 0.10891007473040999
900000000.0 -0.08905840334580553 -0.03526620035066125
920000000.0 0.032244623469747144 -0.03932300011657678
940000000.0 -0.030564759046435207 0.007458093301779285
960000000.0 0.024258877329446284 0.014224944609341103
980000000.0 0.021897967071380448 0.046726535656433234
1000000000.0 -0.0024997660267351103 0.08996297213857003
1020000000.0 -0.02489951244919662 0.11438189906559955
1040000000.0 -0.12842612996633734 -0.03958166809694828
1060000000.0 -0.006096542774289568 0.16161457563555023
1080000000.0 -0.13168528101395532 -0.1347512763069869
1100000000.0 0.08426310299522857 -0.19825339862364796
1120000000.0 0.23912714763777856 0.018816111065046746
1140000000.0 -0.2603116033067801 0.01741201155947517
1160000000.0 -0.25167302300722416 0.14224690332832507
1180000000.0 -0.3130764625996199 0.05554268540006369
1200000000.0 0.23612535113474853 -0.24934669781439311
1220000000.0 -0.24020371831412035 0.2814873155559146
1240000000.0 0.3308879392737385 -0.20054147408740172
1260000000.0 -0.1251777355823331 -0.3780974708061222
1280000000.0 -0.41381007516039825 -0.0577029492596709
1300000000.0 -0.04014645032255112 0.42726276326148793
1320000000.0 0.23128373528974341 0.3701668840883025
1340000000.0 0.4006598761021049 0.19388867383646272
1360000000.0 0.39165777781000877 -0.220327480054931
1380000000.0 -0.3220149275754224 -0.30067812705593894
1400000000.0 -0.2545443045684679 0.34464335282604286
1420000000.0 0.40183724528946246 -0.04924041977243869
1440000000.0 0.04741818178375634 -0.3674606544239724
1460000000.0 -0.04367586451652119 -0.33414783111577495
1480000000.0 -0.2583934791013568 -0.17125966726275424
1500000000.0 -0.25895950388215333 0.10820539904191567
1520000000.0 -0.20029353540181957 -0.15327995589066115
1540000000.0 0.06114326839243845 0.21991750112355307
1560000000.0 -0.20334430086880567 -0.0020012691382777907
1580000000.0 -0.17363501172922965 0.04613978980721765
1600000000.0 0.13972655891327623 -0.032160243181102666
1620000000.0 -0.03378591861430247 -0.10206923605864307
1640000000.0 -0.05900751164092981 -0.05378893678308518
1660000000.0 -0.036370892436180136 0.04778128292060297
1680000000.0 0.02924775400951864 0.018189871790260142
1700000000.0 -0.0005121312639063204 -0.010960974734392668
1720000000.0 -0.006656602428940627 -0.0033395806016048397
1740000000.0 0.011652451098615827 0.023550997355036667
1760000000.0 0.023317585953996082 -0.035726930100594
1780000000.0 -0.041065906050489605 -0.043186733587370046
1800000000.0 0.04737991861320415 -0.07269701753794537
1820000000.0 0.04759492005549211 0.10272400247147191
1840000000.0 -0.026556707950930337 0.14853600063050115
1860000000.0 -0.10015227190669618 -0.1635380443969917
1880000000.0 -0.1782905068605497 0.15610755199199453
1900000000.0 0.032905918907035286 -0.28686067440662794
1920000000.0 0.33104516949293983 -0.020376424906062323
1940000000.0 -0.22746626275393028 0.2757067570993892
1960000000.0 0.37816210660951155 -0.0012670996084896203
1980000000.0 -0.03190021144805911 -0.4025746554175224
2000000000.0 -0.3753425947799152 0.1840589823929919
2020000000.0 -0.0950579305880656 0.41386773510243824
2040000000.0 0.05427956848964545 0.4280109264146079
2060000000.0 0.204627727576334 0.3831079316564546
2080000000.0 0.4236918218749783 0.09812550221209532
2100000000.0 0.3233536308099254 -0.2841426498628379
2120000000.0 0.03818882987471916 -0.4173915665672697
2140000000.0 -0.11743506064098243 -0.38511018144511266
2160000000.0 0.388351563202031 -0.026993408864773163
2180000000.0 0.23065569266164446 -0.2964333867714802
2200000000.0 -0.06663478894560244 -0.3547457899471081
2220000000.0 -0.30917759332885186 -0.16350659924574432
2240000000.0 -0.34063912742725205 0.020318365750796083
2260000000.0 -0.21922653953328336 0.25788894802799883
2280000000.0 -0.036863421124421245 0.33965403905297686
2300000000.0 0.25021188958781887 0.24807393007944709
2320000000.0 0.30183427397857726 -0.2316424973219804
2340000000.0 -0.35547052222161696 -0.2106318718223057
2360000000.0 0.024706551128920718 0.4535473440544535
2380000000.0 -0.0165713141968087 -0.5080984382446384
2400000000.0 0.3298632540568619 0.457307607540807
2420000000.0 -0.603404991437287 -0.12929360764711792
2440000000.0 0.5754931114520762 -0.33244399117675555
2460000000.0 -0.3647926407163194 0.6033513644770883
2480000000.0 0.06207646618136505 -0.7344015994711997
2500000000.0 -0.1594684230670956 0.7405905938327437
2520000000.0 0.3763151759781313 -0.6693246737722338
2540000000.0 -0.6209958188515075 0.45364494945163186
2560000000.0 0.7446094143190494 0.16483306937346168
2580000000.0 -0.23754464536236705 -0.7080647137365838
2600000000.0 -0.4470412301376203 0.5665621196148143
2620000000.0 0.6905332427204792 0.0025470569765713505
2640000000.0 0.5248614095896305 -0.38827904715686834
2660000000.0 -0.6024767292011672 -0.08976982402420858
2680000000.0 0.49424139807924694 0.26704329306057306
2700000000.0 -0.26433662772333405 -0.440185327762285
2720000000.0 0.2751573657225082 0.3750755737567564
2740000000.0 -0.23582318767267405 -0.341739868116772
2760000000.0 -0.0031962373235875 0.3744195296050296
2780000000.0 -0.058480124235805044 -0.33649046536805827
2800000000.0 0.08670270953940633 0.30451695625079256
2820000000.0 -0.00432694879832033 -0.300677781071811
2840000000.0 0.13780117630968086 0.26344266596180965
2860000000.0 -0.2960773062911985 0.00022675697791880192
2880000000.0 0.12383598914742416 -0.27123577496953033
2900000000.0 -0.07868465673498325 0.28887916392097535
2920000000.0 0.2950351563944814 -0.07564532230386477
2940000000.0 -0.17417190596495677 -0.25972868733699805
2960000000.0 -0.27448044731250615 0.15460526332432198
2980000000.0 -0.2336164542618823 0.20916086997626473
3000000000.0 -0.1681334551750718 -0.26380116019975164
3020000000.0 0.30911906349495966 -0.07919206751916177
3040000000.0 0.23159034184404248 0.21945909260985266
3060000000.0 -0.2725000550592525 0.15467609428120843
3080000000.0 0.2009101467989933 -0.2259830986214612
3100000000.0 -0.2588832206211971 0.13803679439215216
3120000000.0 0.267783164633916 -0.10303375256482547
3140000000.0 -0.11146222270425041 0.2529333436622744
3160000000.0 -0.06573306540535866 -0.2517918939108283
3180000000.0 -0.2197016328707619 0.10208354302348303
3200000000.0 0.002599041189594583 -0.21997487235167015
3220000000.0 0.19381534390994018 -0.014594769098557718
3240000000.0 0.058907806496925535 0.15453448777804193
3260000000.0 -0.06467348848105411 0.11446319526213153
3280000000.0 0.07660395337244237 -0.059752395168790495
3300000000.0 0.06722897517028889 0.020537700983953983
3320000000.0 -0.03315940446101105 0.019046335864488444
3340000000.0 0.010860934839072337 -0.011582026518380778
3360000000.0 0.0002273497404702513 -0.002165490477288411
3380000000.0 -0.013951154018837545 0.002302227935672939
3400000000.0 -0.005142419834812323 0.02311330133917396
3420000000.0 0.029349324502219484 0.023002380040601244
3440000000.0 0.04884852561918672 0.003113385690765104
3460000000.0 0.05854312345965625 0.014153795666156425
3480000000.0 0.07006227434305612 0.025875024050515144
3500000000.0 -0.094453233923612 -0.0017176214979346504
3520000000.0 -0.09266426198560031 0.056563703500964325
3540000000.0 -0.04089906865383883 -0.1117294159883081
3560000000.0 0.12109973989452702 0.03481022050730033
3580000000.0 -0.07034625988058921 -0.11692971198210891
3600000000.0 0.13383688684687492 0.0624380853813037
3620000000.0 -0.11252902070184402 -0.11465378941572611
3640000000.0 -0.005292058500103852 -0.17641372268625083
3660000000.0 0.18318054137084008 -0.029809125273367886
3680000000.0 0.1943016604964696 0.0011937334329804729
3700000000.0 0.03398538148565677 -0.19288645520906006
3720000000.0 -0.026444689031042957 -0.19257963473064724
3740000000.0 0.04316724481716228 -0.17743095461386296
3760000000.0 -0.13006859090793435 0.1152192779943532
3780000000.0 0.15979496984007094 0.044256123997850116
3800000000.0 -0.011878620030984907 -0.15615829014127341
3820000000.0 -0.07570211666286726 -0.1309271936379291
3840000000.0 0.10278482913477954 -0.10357424998563446
3860000000.0 0.026705126813516594 -0.14546738236228124
3880000000.0 -0.1019339709212729 -0.1059212877632492
3900000000.0 0.01307906014059779 -0.14502940538009948
3920000000.0 -0.037129157146743905 -0.14688433960648858
3940000000.0 0.10937232838690224 0.11585230088630567
3960000000.0 0.02200700300498298 0.16576732621786122
3980000000.0 0.1532504508278896 0.07185331872780452
4000000000.0 0.06639695488819833 -0.1527371216282186
