!Created with skrf (http://scikit-rf.org).
# Hz S RI R 50.0 
!freq ReS11 ImS11
400000000.0 0.6713052338104684 0.5470423979596104
420000000.0 0.831204972588678 -0.1465822249849398
440000000.0 0.7758468634057437 -0.18580916140991915
460000000.0 0.7281720643425285 -0.15755306142482836
480000000.0 -0.0379540632908787 -0.6864229400585433
500000000.0 0.1433415112634107 0.5892714582482165
520000000.0 0.5015018913850142 -0.04719545541508853
540000000.0 -0.2748268184039967 -0.34089826154054004
560000000.0 0.3582415444331867 0.18542286988501003
580000000.0 0.02263611276958418 0.36149504025856866
600000000.0 -0.09835214411797827 -0.3372692881513341
620000000.0 -0.34532183862435645 -0.056072177491247106
640000000.0 -0.16135544550462733 -0.3668567710500284
660000000.0 -0.289258357200222 0.286430371648642
680000000.0 -0.2872938907220844 -0.34085928540189236
700000000.0 0.24512347847520202 0.38632538358546087
720000000.0 -0.33856953993673494 -0.3118398849640061
740000000.0 -0.43215995870014146 -0.027972238890674277
760000000.0 -0.4117302589249282 -0.0575944630525577
780000000.0 -0.2631164746748776 0.2817442769076265
800000000.0 0.2789006319312661 0.1891730606170027
820000000.0 0.27612411271048753 -0.03537967709212551
840000000.0 -0.18482592127157868 0.08489491105607239
860000000.0 -0.14937103134636148 0.0781504113161857
880000000.0 0.046734275763087106 0.13361857705839128
900000000.0 -0.06149016558921641 -0.07067351180123232
920000000.0 -0.0020973061977453593 -0.04898191174083459
940000000.0 0.030628620160383025 0.0024283054667703793
960000000.0 -0.02370415833534745 0.01669274577776339
980000000.0 0.04097794071177747 0.03439729856381658
1000000000.0 -0.06336658754228666 0.0658416253677495
1020000000.0 -0.08954046317502298 0.07610216036145466
1040000000.0 -0.0868551830105947 -0.10205169210718408
1060000000.0 -0.04966607861753155 0.15191524367535966
1080000000.0 -0.0853071459429639 -0.16581572027325064
1100000000.0 0.06075518011766504 -0.20459777740425225
1120000000.0 0.23176921006452575 -0.05236628776630976
1140000000.0 -0.23687627499765404 0.10559878792166946
1160000000.0 -0.15913064918913508 0.24021514476037115
1180000000.0 -0.2511409059466661 0.19553427133582532
1200000000.0 0.12745323139189824 -0.31996354031566415
1220000000.0 -0.13593569584039508 0.34513434638739754
1240000000.0 0.2543932895011804 -0.29420128033058174
1260000000.0 -0.22661900359303233 -0.33001357369673723
1280000000.0 -0.41966413178108 0.0019601171314486197
1300000000.0 -0.03577710822361922 0.4297402902487959
1320000000.0 0.22644517288588284 0.3748598299509679
1340000000.0 0.3762766929942933 0.239797538558121
1360000000.0 0.4223039869836785 -0.15560657168977146
1380000000.0 -0.2830242010725108 -0.3380288671632178
1400000000.0 -0.3153953202812587 0.2895674124334755
1420000000.0 0.4037709989168424 0.0010246973601499081
1440000000.0 0.08045354440471869 -0.3599019582189433
1460000000.0 -0.019125431109861802 -0.33481980827176316
1480000000.0 -0.2696147389500184 -0.14814156096719558
1500000000.0 -0.23809283269007983 0.14324318120652801
1520000000.0 -0.22869728708498807 -0.10029278455667734
1540000000.0 0.14385004259682022 0.17363653108269697
1560000000.0 -0.17410834951509724 0.099805788960229
1580000000.0 -0.07387131927664164 0.16193228815838218
1600000000.0 0.018500067786096988 -0.14179230856543584
1620000000.0 -0.10422830593391116 0.027373449445895058
1640000000.0 -0.02894431229556895 0.07587352335423132
1660000000.0 0.045409224265590624 0.04237217181514811
1680000000.0 0.032243071929158484 0.017510451042783023
1700000000.0 -0.01166263064589618 -0.0068557002061180585
1720000000.0 -0.002387758034284184 0.00640803349377133
1740000000.0 0.011218581100974755 -0.02373137644999424
1760000000.0 -0.027175527799148304 0.03425506098283425
1780000000.0 -0.020001997644284605 0.05836448276201214
1800000000.0 -0.05135645893769748 -0.07385457884363156
1820000000.0 0.09969826420165843 0.05811443031211606
1840000000.0 0.012020170973707233 0.15277764943761432
1860000000.0 -0.10278108482387392 -0.16496641172899218
1880000000.0 -0.19714941858129417 0.1361692219610354
1900000000.0 0.08549337259016732 -0.27766363311685527
1920000000.0 0.3249795916412425 0.07326025969280175
1940000000.0 -0.30490832504715976 0.18745958580994088
1960000000.0 0.3569017296856175 0.1231157469082195
1980000000.0 0.05258403056994623 -0.3989152520651476
2000000000.0 -0.4016363678910746 0.10668435084987711
2020000000.0 -0.19804309298461267 0.37231876459262675
2040000000.0 0.010100651152390764 0.4275920145318121
2060000000.0 0.22627913660770865 0.36610954148415814
2080000000.0 0.42949675393287534 0.030925438902419975
2100000000.0 0.18252849324176418 -0.3853152123532384
2120000000.0 -0.2083070056939509 -0.35894589272000216
2140000000.0 -0.3391470894663087 -0.2107145973183626
2160000000.0 0.24886021727514984 -0.295710215265598
2180000000.0 -0.10973619704745637 -0.35727236443060423
2200000000.0 -0.3419464075905147 -0.11283710073292094
2220000000.0 -0.29309851507032303 0.19168565773731608
2240000000.0 -0.156587726146743 0.3053249002958824
2260000000.0 0.04989573049030205 0.3378472171578393
2280000000.0 0.163519306601153 0.30387241027902484
2300000000.0 0.3359242758750179 0.12028574264837437
2320000000.0 0.24971530687460552 -0.2921412793632215
2340000000.0 -0.36378212240017005 -0.2029722815318872
2360000000.0 -0.05434872510657546 0.4534058186753245
2380000000.0 0.08795533083992382 -0.5025167767963508
2400000000.0 0.18084426131926648 0.5342829854901586
2420000000.0 -0.5405580604520381 -0.29392923286383316
2440000000.0 0.6421252179901163 -0.1602271378585193
2460000000.0 -0.4659842051140885 0.5238605945943587
2480000000.0 0.13217562940797492 -0.7196946786284816
2500000000.0 -0.07887419848545044 0.7477114691698049
2520000000.0 0.2554046083083434 -0.7188402714982705
2540000000.0 -0.496490667886452 0.5812719306969174
2560000000.0 0.7420967268370426 -0.15616143742902514
2580000000.0 -0.5231208589434342 -0.5295546809045145
2600000000.0 -0.007798466430754435 0.7199445413741234
2620000000.0 0.5662954762273338 -0.39542008208703494
2640000000.0 0.20672671050505143 -0.6211320619746566
2660000000.0 -0.5576628342392027 0.25132408131768363
2680000000.0 0.5624876596402872 0.05003106461719055
2700000000.0 -0.42440388305386256 -0.29532001115973366
2720000000.0 0.3650419730814979 0.2946340892876707
2740000000.0 -0.24336207193209428 -0.34073135758918127
2760000000.0 -0.04483488979194318 0.3751502541481333
2780000000.0 0.06517308763375229 -0.3375808486231715
2800000000.0 -0.07525371578249533 0.30820332133148143
2820000000.0 0.16383390846318072 -0.25118959708497995
2840000000.0 -0.015849586939345437 0.29484910895758926
2860000000.0 -0.25714270086984636 -0.1415728405334345
2880000000.0 0.167779015802511 -0.24148816273877946
2900000000.0 -0.07842617960508375 0.2847022365158246
2920000000.0 0.2609408251358641 -0.1481674184326672
2940000000.0 -0.27410329315731213 -0.14138892637927325
2960000000.0 -0.13263440837025406 0.28127069393771187
2980000000.0 0.0028924421804190433 0.3096785132436195
3000000000.0 -0.3063930786501015 -0.04150801864875311
3020000000.0 0.13777244545428774 -0.28464167026344844
3040000000.0 0.3162963513621431 -0.025777432346318303
3060000000.0 -0.027797995224529966 0.31200980444763626
3080000000.0 -0.08202450068150005 -0.29081058060475257
3100000000.0 -0.040774069931681096 0.2910272680092552
3120000000.0 0.06912487718012464 -0.27969211112684844
3140000000.0 0.14428332440526911 0.23722151169095904
3160000000.0 -0.23900371209560284 -0.10740415944054875
3180000000.0 -0.07694700461477262 0.23242978522050278
3200000000.0 -0.13384876281705282 -0.17891340504461878
3220000000.0 0.1712629483086462 -0.09944091212127056
3240000000.0 0.07796723308180172 0.14994287764732658
3260000000.0 -0.11150106107467787 0.07762159939859865
3280000000.0 0.0970040596040182 0.02866036546915986
3300000000.0 -0.05235995491820693 0.05255718369546395
3320000000.0 0.009918191310014906 0.041033541343888875
3340000000.0 -0.011824376028360787 -0.01603039323986773
3360000000.0 -0.0026044303098953555 -0.003987961140293198
3380000000.0 0.010207656905292626 0.0056095385717305065
3400000000.0 -0.020638465693704977 -0.0042543907692553715
3420000000.0 0.03395680158717836 0.0064733944490666575
3440000000.0 0.009039114045093562 0.04589682593560043
3460000000.0 -0.050585632281504714 0.0277928370052241
3480000000.0 -0.06765762352409908 -0.025193399045763044
3500000000.0 0.06502766897901703 0.0658726702853734
3520000000.0 0.10468478715573896 0.02001857925296734
3540000000.0 0.03436004660285387 0.11333752023716795
3560000000.0 -0.1066325554487831 -0.0672135687909689
3580000000.0 -0.05192451183103072 0.12590632656018547
3600000000.0 0.013045879719002704 -0.1479263220951805
3620000000.0 -0.0965405006198349 0.12959200930993459
3640000000.0 -0.17819554362779866 -0.012339294288636442
3660000000.0 -0.019878112852125047 -0.18781035510804697
3680000000.0 0.04065415029429987 -0.19433032176123927
3700000000.0 -0.14623640661440937 -0.13771965779289524
3720000000.0 -0.16230765314046214 -0.11507648432333849
3740000000.0 -0.06912601447862196 -0.17527544749973364
3760000000.0 -0.08404718271369431 0.15850804698012558
3780000000.0 0.1690516812889599 0.02372255179089527
3800000000.0 0.0012615524464072501 -0.16252838446103374
3820000000.0 -0.03621936450825926 -0.15329947922126622
3840000000.0 0.09901413015836355 -0.11544948836534107
3860000000.0 0.016064838688802277 -0.1534614922520615
3880000000.0 -0.05699463597015748 -0.14253923656063716
3900000000.0 0.0891983466632277 -0.12352185664783816
3920000000.0 0.04640231136049057 -0.1512616003116686
3940000000.0 -0.032241413378157294 0.16254519903766665
3960000000.0 -0.15335774897926632 0.0814549492366875
3980000000.0 -0.08106366638060165 0.1546475771269913
4000000000.0 0.12519211930979066 0.1153986999408603
