!Created with skrf (http://scikit-rf.org).
# Hz S RI R 50.0 
!freq ReS11 ImS11
400000000.0 0.6564287986247254 0.5645511500631061
420000000.0 0.8369251779123059 -0.10787761302655421
440000000.0 0.7909899179953264 -0.10536991136522054
460000000.0 0.7355964139904098 -0.11741622582572989
480000000.0 -0.03149999093786189 -0.6866134231937591
500000000.0 0.14240259529677607 0.5898488735243768
520000000.0 0.5002376888916036 -0.06071029721053431
540000000.0 -0.26161910151099654 -0.35131853538673896
560000000.0 0.3578093504348969 0.18603122712039277
580000000.0 0.024918441463229465 0.3615830952709883
600000000.0 -0.08828490298303691 -0.34006652013309313
620000000.0 -0.3498420743426789 -0.01638714163535253
640000000.0 -0.14373692595784507 -0.374190279413758
660000000.0 -0.296378312866632 0.279030639296871
680000000.0 -0.27747302514082234 -0.34894764238137244
700000000.0 0.27400667538419493 0.36690352928517606
720000000.0 -0.32963071810038347 -0.321136979317633
740000000.0 -0.42770631831526945 -0.06628771626479531
760000000.0 -0.4090772580903766 -0.0752191780583174
780000000.0 -0.24324557887303316 0.2988335230937951
800000000.0 0.2642695657489538 0.2092437728458021
820000000.0 0.2787895435743206 -2.6068609010595458e-05
840000000.0 -0.1915264683687222 0.06934243071247835
860000000.0 -0.14763299787927953 0.08211851223645726
880000000.0 0.0626253829313221 0.12707380117744568
900000000.0 -0.03639791657756158 -0.0868740712956567
920000000.0 0.024042126451149906 -0.042988323641817455
940000000.0 0.018210579847110917 0.024467266379326582
960000000.0 -0.028636285176406897 0.001560326125947516
980000000.0 0.05168242323223137 0.01555240432613192
1000000000.0 -0.05054765999581547 0.07619174293210708
1020000000.0 -0.08960741421532877 0.07638724391308084
1040000000.0 -0.07959010834941141 -0.10737984408664109
1060000000.0 -0.05578387687855364 0.15013828068395688
1080000000.0 -0.08034218861876288 -0.16887206705435395
1100000000.0 0.043390384956784545 -0.20942892767597934
1120000000.0 0.23717057020885027 -0.021263760759746855
1140000000.0 -0.24101226876250284 0.09588825417967342
1160000000.0 -0.15016769522791146 0.24593309618033546
1180000000.0 -0.24536483727072916 0.2022831196822137
1200000000.0 0.09875661860038293 -0.3291478360547022
1220000000.0 -0.12431846765662073 0.3487169249228993
1240000000.0 0.24727543646675265 -0.2992203874869632
1260000000.0 -0.2425976725543977 -0.31787376284133756
1280000000.0 -0.41819641485957426 0.02740394603950726
1300000000.0 -0.03440481784604695 0.4293411779753206
1320000000.0 0.2146348835447803 0.38172183500918894
1340000000.0 0.370111507931009 0.24904182697716243
1360000000.0 0.4230339104177493 -0.15396896786789716
1380000000.0 -0.28470589034326427 -0.3361857803727278
1400000000.0 -0.3097214645906766 0.29484754564409144
1420000000.0 0.40280004852611073 -0.01392955347274764
1440000000.0 0.10462407165881465 -0.35345417562108417
1460000000.0 -0.013087656813133258 -0.33497955936815904
1480000000.0 -0.2601653969686742 -0.16353751963307225
1500000000.0 -0.21749252575175856 0.17279334126225246
1520000000.0 -0.23929448137236028 -0.0702002866955482
1540000000.0 0.1601885727768991 0.15912760176543903
1560000000.0 -0.13902440013420564 0.1441704020999594
1580000000.0 0.02127029005678457 0.17626042744962653
1600000000.0 -0.0444235551382159 -0.1362180580677158
1620000000.0 -0.07107497373713673 0.08069867695888774
1640000000.0 0.02065871785314643 0.07872930753487316
1660000000.0 0.056960962288890755 0.024771388036196378
1680000000.0 0.03575842180079645 -0.010855892824345311
1700000000.0 0.010528606764604133 -0.008236148987245612
1720000000.0 -0.0015678861345270146 -0.00675736522604184
1740000000.0 -0.01898328107651211 -0.018366959213330123
1760000000.0 0.010740214070956312 0.04274979864103787
1780000000.0 0.02117776827737031 0.05863942232280944
1800000000.0 -0.08685507295364574 -0.02497242702109577
1820000000.0 0.11268471074895538 0.027724665260303212
1840000000.0 0.044753592105331357 0.14750942382938625
1860000000.0 -0.11878177063472965 -0.15424025637890004
1880000000.0 -0.19003330678591132 0.14609294022929153
1900000000.0 0.09186337558671549 -0.2760578214673185
1920000000.0 0.3207210484900401 0.09118915119609627
1940000000.0 -0.3238437663755266 0.15266084111210915
1960000000.0 0.34866322459403437 0.144770735845024
1980000000.0 0.06846242504387462 -0.3962560437413848
2000000000.0 -0.4096297162898582 0.07057723385757998
2020000000.0 -0.1572919595695886 0.39040840641762936
2040000000.0 -0.03119101311595131 0.42635464079654645
2060000000.0 0.2554900038578749 0.3458241984134446
2080000000.0 0.4299483311059877 0.0012001368860378929
2100000000.0 0.18548766959112142 -0.383864242712854
2120000000.0 -0.2203820210062118 -0.3513339938705287
2140000000.0 -0.3692735410275278 -0.15160495952832007
2160000000.0 0.20291434558077381 -0.3289959184406713
2180000000.0 -0.18471021152653497 -0.32522299508872116
2200000000.0 -0.3514843891744256 -0.07927119349453371
2220000000.0 -0.2827348742888572 0.20698776474241268
2240000000.0 -0.12095961144457752 0.32103653276159644
2260000000.0 0.05637887747699677 0.33707872226966773
2280000000.0 0.1977398122246891 0.2835884788827328
2300000000.0 0.3421467547944547 0.10537517181852217
2320000000.0 0.25261890348556826 -0.2906591294119888
2340000000.0 -0.35536501260989073 -0.21770880922559507
2360000000.0 -0.04260971059042994 0.45478242020247783
2380000000.0 0.10597782079368702 -0.4988640611920999
2400000000.0 0.17291085918245602 0.5367484170436023
2420000000.0 -0.5380760180740631 -0.2989145752455741
2440000000.0 0.6392234728798063 -0.17082765018800375
2460000000.0 -0.44976356797452227 0.5373232902357477
2480000000.0 0.07271719958784317 -0.7278741539684941
2500000000.0 -0.009693279454136259 0.7514427453547364
2520000000.0 0.17731464227494886 -0.7420197439899574
2540000000.0 -0.45341696496964123 0.6160666421751599
2560000000.0 0.7359880186300141 -0.1827857866103802
2580000000.0 -0.5374544526362044 -0.5138887570966778
2600000000.0 -0.015409533791874725 0.7191391873806525
2620000000.0 0.5695201323735104 -0.3906723261114899
2640000000.0 0.12608763603372036 -0.6417709935280527
2660000000.0 -0.542327972489758 0.28253290338333004
2680000000.0 0.5611352509460104 0.0678540913735213
2700000000.0 -0.39659578229249276 -0.3314929874075726
2720000000.0 0.3645396017146852 0.2942894148931711
2740000000.0 -0.256984206961588 -0.3302213737329502
2760000000.0 -0.03786708290989434 0.3756780223966723
2780000000.0 0.06868605241648842 -0.336484229573454
2800000000.0 -0.08038732647364809 0.3067459408391066
2820000000.0 0.1591632910345298 -0.2539456696983516
2840000000.0 -0.004094612319343781 0.29514645177438914
2860000000.0 -0.26765008727500367 -0.12052445819473648
2880000000.0 0.15997772819556258 -0.24701674830054715
2900000000.0 -0.09177280321503174 0.2809632128934792
2920000000.0 0.27553203639342666 -0.11930632393700837
2940000000.0 -0.25609063737842985 -0.1721306748669829
2960000000.0 -0.11425752196036808 0.2896753931839739
2980000000.0 0.006526274107451375 0.3094573036147478
3000000000.0 -0.29408262387556744 -0.09983727940712203
3020000000.0 0.15542095017668622 -0.27604875108853955
3040000000.0 0.31077171962334177 0.06565049274874116
3060000000.0 -0.06899780128741513 0.3046280873783174
3080000000.0 -0.043095233738073176 -0.2996734149609627
3100000000.0 -0.0912469425728916 0.27945351090295106
3120000000.0 0.04598484843662823 -0.28449323060111
3140000000.0 0.14957177962672297 0.23397447682616165
3160000000.0 -0.2271540208146887 -0.1309473101132809
3180000000.0 -0.08814992889889454 0.22829817573473743
3200000000.0 -0.13642545546087023 -0.17633264498990786
3220000000.0 0.175498345140402 -0.08967847663157631
3240000000.0 0.08213979632709602 0.14769443075146588
3260000000.0 -0.10418209038132668 0.08711798787842412
3280000000.0 0.10119807653894951 0.0031639031789514865
3300000000.0 -0.04574124092682935 0.058171376494259595
3320000000.0 0.020658445428246273 0.03621562754113191
3340000000.0 -0.008299700047849275 -0.018215410303141385
3360000000.0 -0.0043231690690205046 -0.00016235768309251126
3380000000.0 0.008776680536432668 0.007382593221555773
3400000000.0 -0.00469402361822496 0.019642529520654775
3420000000.0 -0.005252728280524422 -0.033460885811708786
3440000000.0 0.04601908972656466 -0.007855042727427078
3460000000.0 -0.03695887632248503 0.04461457917695793
3480000000.0 -0.07225431520537046 0.009014011384567753
3500000000.0 0.0851841614410853 0.03690886918972665
3520000000.0 0.09725786706750411 -0.045948306718108595
3540000000.0 0.013968999971855012 0.11745885452589634
3560000000.0 -0.10323558574467502 -0.07257069456916601
3580000000.0 0.017125513128434782 0.13591209479775226
3600000000.0 -0.07012733590463151 -0.13198876242264793
3620000000.0 -0.01562828902503088 0.16224439636484217
3640000000.0 -0.1791284100748625 -0.009078636668304475
3660000000.0 -0.0022152990002095854 -0.18926560499230158
3680000000.0 0.05007740362609219 -0.19165068452315207
3700000000.0 -0.1544236539479497 -0.12860368869593564
3720000000.0 -0.17252797269989023 -0.09853068461489682
3740000000.0 -0.06333364791390775 -0.17793152587868333
3760000000.0 -0.09307596948602968 0.15417602460222132
3780000000.0 0.16389649594392752 0.04910339511656603
3800000000.0 0.04700615544092575 -0.1559040467364764
3820000000.0 -0.027048101595436764 -0.15508013218379935
3840000000.0 0.11274391719713567 -0.10185292567616197
3860000000.0 0.05848441589044017 -0.14269006626937467
3880000000.0 -0.0684438699256582 -0.13740226813209833
3900000000.0 0.09375640879824708 -0.119854883093192
3920000000.0 0.08331971253377028 -0.13464424453652046
3940000000.0 -0.06715781115244306 0.15183224844820462
3960000000.0 -0.1726460666524296 0.01705334680839989
3980000000.0 -0.12701263687899075 0.11977366263917623
4000000000.0 0.09350135271972773 0.1409725934856702
