! Created with skrf (http://scikit-rf.org).
# Hz S RI R 50.0 
!freq ReS11 ImS11
400000000.0 -0.09107499813090272 0.8664841957551835
420000000.0 0.3730883158192891 0.7777994824810017
440000000.0 0.8216326685676288 -0.12242608380075354
460000000.0 0.3396264823114787 -0.7160426685069383
480000000.0 0.666589194396637 -0.25980098699310744
500000000.0 -0.056194749342120535 -0.5696831378776883
520000000.0 -0.1581599097197427 -0.46643458038473085
540000000.0 0.31069189360655597 -0.3017676294852559
560000000.0 -0.32032726031540243 0.16164838125195946
580000000.0 0.028113338182437688 0.3380269685888645
600000000.0 0.2671152740020551 -0.20655772184999185
620000000.0 -0.3422808393379765 0.1035913651099919
640000000.0 0.10267032466997884 0.3751544719298898
660000000.0 0.39654360601703603 -0.06221460930240419
680000000.0 -0.006516524238167797 0.4199742646294457
700000000.0 0.24305679148537976 -0.3571369377970622
720000000.0 -0.25915604163170824 -0.33978091342377087
740000000.0 0.3914188036722131 0.14780223812497367
760000000.0 0.09836773875294313 -0.3895811761667284
780000000.0 0.09948179859293223 0.3584417158418733
800000000.0 0.12345059650867214 -0.32141732604402024
820000000.0 0.2807965675702394 -0.08860225709176625
840000000.0 -5.537264134464481e-06 -0.24811580524422835
860000000.0 0.16645745983137405 -0.13508647018953632
880000000.0 -0.0650874500899188 0.14460654047433594
900000000.0 -0.03845696356229583 0.08649416797082399
920000000.0 -0.06302305018266706 -0.002786801226323885
940000000.0 0.001587999399493902 0.04769879096772513
960000000.0 0.00883261153931113 -0.05320408206757598
980000000.0 0.04848713446876404 0.051674229208685606
1000000000.0 0.006767894315132747 -0.07989196675400538
1020000000.0 -0.0024457839995100507 0.09874117351215381
1040000000.0 0.10669577256513257 0.02842810637761536
1060000000.0 -0.05164883704939775 0.13572119192432205
1080000000.0 -0.14705460354557526 -0.0619590511280816
1100000000.0 -0.13706861918153887 0.11773503570925903
1120000000.0 0.15054766537201958 0.13531525540878322
1140000000.0 0.21352960835505283 -0.09443081812926851
1160000000.0 0.2682302255073682 -0.034589316477154956
1180000000.0 0.23844322855914013 0.1933876939138814
1200000000.0 -0.059613126520102214 0.334624038587162
1220000000.0 0.06580930370989412 -0.36078676328552856
1240000000.0 -0.16708242171476048 0.35766686445606016
1260000000.0 0.40773961243577406 -0.1109762528670568
1280000000.0 -0.438422223284917 0.07421909628367308
1300000000.0 0.42636622947193065 0.1629937424028438
1320000000.0 -0.20603195844145705 -0.4043608138507921
1340000000.0 -0.3768774657233705 -0.2346423957245789
1360000000.0 -0.3363226225630252 -0.2740503340909908
1380000000.0 -0.35723986014387477 -0.2355225585516523
1400000000.0 -0.3949411679826115 0.12512555806764608
1420000000.0 0.013606087529785255 0.3968498396979418
1440000000.0 0.3119671123799504 0.20137703533695817
1460000000.0 0.21844838654784873 -0.2650431729496869
1480000000.0 -0.10263213352815513 -0.296608953583948
1500000000.0 -0.26821020777413096 -0.08886852746998833
1520000000.0 -0.25457937176125767 -0.02165706892318842
1540000000.0 0.2130363194472886 -0.08299813521344818
1560000000.0 -0.009800475092297605 0.19617972427600336
1580000000.0 -0.16417380129631692 -0.055222688799005756
1600000000.0 -0.05201278907676517 0.13644729966768857
1620000000.0 0.11855666346859783 0.004510121742803072
1640000000.0 0.08823247688888854 -0.03645021668404825
1660000000.0 -0.06865521566890619 0.01935320250958211
1680000000.0 0.035175123065579156 0.03181073866903524
1700000000.0 -0.02741704808474399 -0.007040326690945861
1720000000.0 0.002959011424754298 0.012407514202180614
1740000000.0 -0.020299166869285675 -0.005301422247670637
1760000000.0 0.0373114000344453 -0.021301901019665646
1780000000.0 -0.04166249748539031 0.06415382845901317
1800000000.0 0.047151800939789656 -0.10340718424068275
1820000000.0 0.09644516002237401 -0.11053231517001966
1840000000.0 0.10767313154093404 0.14310627282204882
1860000000.0 -0.20793213837334504 -0.029380660965075647
1880000000.0 0.05919497170095774 0.23271094658027117
1900000000.0 0.22874760643810743 -0.15096218531684513
1920000000.0 -0.19289810694063514 -0.23545814412913338
1940000000.0 -0.32915384343787046 0.07186683358546032
1960000000.0 -0.011720405861518604 0.3666636707738851
1980000000.0 0.3886460896965045 -0.056051029336335635
2000000000.0 0.07317075854544067 -0.4077463547560333
2020000000.0 -0.4301690474791486 0.022078703911566962
2040000000.0 -0.057600139913073514 0.4339040874595875
2060000000.0 0.4359175326517551 0.05211881726798639
2080000000.0 0.3149608563447464 -0.2996927230703467
2100000000.0 0.0870365706496022 -0.41931587363504036
2120000000.0 -0.16943568792546604 -0.3833439475445415
2140000000.0 -0.37253676077831555 -0.16637924556981604
2160000000.0 -0.12390111806648299 -0.37285596261645193
2180000000.0 -0.35177015941675366 -0.13309326637372654
2200000000.0 -0.3363603465033417 0.13117410834616539
2220000000.0 -0.24183788787988153 0.2484385132389044
2240000000.0 -0.12881562117144893 0.31591370810518654
2260000000.0 -0.04515470699019047 0.33800173422680263
2280000000.0 0.027253633733238455 0.3451331259034024
2300000000.0 0.3427808110212059 0.11699122572548781
2320000000.0 0.032295816571002896 -0.3870722632374319
2340000000.0 -0.3912039295004563 0.15916478456647673
2360000000.0 0.4626049727343802 0.03443394700711741
2380000000.0 -0.5103757881741873 -0.004130943244542755
2400000000.0 0.5594828832768352 0.017150846321790373
2420000000.0 -0.5562938576672064 0.25200426316264946
2440000000.0 0.31036506206348036 -0.5810830640875551
2460000000.0 0.11582100237338995 0.6886321327885602
2480000000.0 -0.39998029386602146 -0.6089026322762753
2500000000.0 0.4257930089534363 0.6155538165064683
2520000000.0 -0.3268671745368795 -0.6840308171073122
2540000000.0 -0.022990171137791626 0.759607830490207
2560000000.0 0.5893803494027371 -0.46972766703563434
2580000000.0 -0.7077919298562824 -0.21067253739072964
2600000000.0 0.2147928325206199 0.6817177229874143
2620000000.0 0.3140377952849698 -0.6069082189134042
2640000000.0 0.009836475447886553 -0.645819794788004
2660000000.0 -0.47682266960085085 0.3657526206229667
2680000000.0 0.5330428513437115 0.14557510925308337
2700000000.0 -0.1590915652403409 -0.4798082928635912
2720000000.0 -0.28936277175632324 0.354990114332049
2740000000.0 0.41632399626357514 0.002956649949519737
2760000000.0 -0.30721626946236136 -0.22376547125416812
2780000000.0 0.32516080173225415 0.13509279316250794
2800000000.0 -0.32054086089147954 0.07518253976440989
2820000000.0 0.005336840830768767 -0.31260463433650737
2840000000.0 0.2939046694282561 0.06763057345121198
2860000000.0 -0.13658977824491586 0.2626530186654096
2880000000.0 -0.20277534596485378 -0.21191990089869797
2900000000.0 0.2532614418949603 0.14521617778032075
2920000000.0 0.003418857739441208 -0.2939834353605438
2940000000.0 -0.29474008067540347 0.04842549751812938
2960000000.0 -0.1825419738294584 0.23918450819538145
2980000000.0 -0.2687808548069629 0.1439250838154629
3000000000.0 -0.24108201795670242 -0.1960233965335523
3020000000.0 0.04832145479246592 -0.30890553209667226
3040000000.0 0.2990320462558751 0.08581877042705473
3060000000.0 -0.29832421989818764 0.0818404393959277
3080000000.0 0.23385513431737678 -0.19652066029320334
3100000000.0 0.0038410660035416936 0.2996903701053147
3120000000.0 -0.021102463453278878 -0.2895060330162843
3140000000.0 0.1844224464344287 0.21196526863628512
3160000000.0 -0.2642466895069537 -0.0449236724049688
3180000000.0 0.1813086809226195 0.17289170071780255
3200000000.0 -0.15165009963465065 0.17040340861449557
3220000000.0 -0.18350299876931192 -0.0794440581781593
3240000000.0 0.10469546922093914 -0.13289854571919454
3260000000.0 -0.0741920514065602 0.11198346514079022
3280000000.0 0.09795805178206303 0.03150317335325094
3300000000.0 0.06511932532920925 -0.03867830400846203
3320000000.0 0.050332954933797476 -0.009549318748926136
3340000000.0 0.030242355342131096 0.0006450409220572977
3360000000.0 0.008746374069451423 0.009933192042756658
3380000000.0 -0.0022968474680970636 -0.004194830801372824
3400000000.0 0.004371171393879087 -0.019012628844673668
3420000000.0 -0.01876930091509007 0.030762877438691588
3440000000.0 -0.01280912675560789 0.048480993432659984
3460000000.0 -0.0570117170822318 -0.013361394699394439
3480000000.0 -0.06364609925060796 0.025187562329322108
3500000000.0 -0.03554787055491608 0.069869292832641
3520000000.0 0.007047617720726498 0.0904801564649074
3540000000.0 0.1006372636027497 -0.026650713067695102
3560000000.0 -0.11744037368569654 -0.016374330794093506
3580000000.0 0.058420804166290974 0.12087425873662803
3600000000.0 -0.13492046167872465 0.07693292874613389
3620000000.0 -0.15510016978787847 0.06856062256907461
3640000000.0 -0.1726021453291402 0.05676512669846197
3660000000.0 -0.15626146271685598 0.10866269255429309
3680000000.0 -0.1824912124018766 0.06126330367718445
3700000000.0 -0.18190391763848976 -0.05813719356418388
3720000000.0 -0.011316535205122484 -0.18845271725352444
3740000000.0 0.1621579102866063 -0.08462279170019238
3760000000.0 -0.1765175070061345 -0.008257765956576216
3780000000.0 0.16464092796163396 0.03716412745445908
3800000000.0 0.026168612001705626 -0.15879407809935164
3820000000.0 -0.12087102075069979 -0.09531300970462363
3840000000.0 0.0021581416883885273 -0.14757943944339036
3860000000.0 0.14058499387116616 0.045001297569493
3880000000.0 0.1532094293385853 0.009995218137334942
3900000000.0 0.014679485410619947 -0.15529374480449767
3920000000.0 -0.12911749948634552 0.09581013445449715
3940000000.0 0.0750535823708456 -0.14718216471037204
3960000000.0 0.1708349001098051 -0.004196755079507445
3980000000.0 0.12502255346941077 -0.11755219351151397
4000000000.0 0.11490298737271873 -0.1194918172935211
