!Created with skrf (http://scikit-rf.org).
# Hz S RI R 50.0 
!freq ReS11 ImS11
400000000.0 0.8315622536889465 0.24081842459318215
420000000.0 0.7737739268163062 -0.3259296373147868
440000000.0 0.7783430895303053 -0.14309591074710157
460000000.0 0.7092924771769602 0.22629826926824595
480000000.0 0.05980317386273634 -0.6888442460130559
500000000.0 0.27995501083923924 0.5406065874920901
520000000.0 0.33539182412142576 -0.38410026248768536
540000000.0 -0.3741895160685109 0.21349868117035525
560000000.0 0.16497507455650384 0.3470775965993428
580000000.0 -0.24517080670598262 -0.2489559305177014
600000000.0 0.31383896512391785 0.14624109163283347
620000000.0 0.309153750627164 -0.16652236287549282
640000000.0 0.3298832891640994 0.25162246813827194
660000000.0 -0.4005117137481213 0.16300513829982916
680000000.0 -0.060146497309153696 0.4646599053385769
700000000.0 -0.4185229239098793 -0.18829851170823012
720000000.0 0.2049732219436349 0.39765967639883765
740000000.0 -0.3563535824951837 0.19838623721202533
760000000.0 0.31204769644430863 -0.24814295404208814
780000000.0 0.2662395887822165 -0.2821466024137977
800000000.0 -0.2728662704329818 0.21957978015732454
820000000.0 0.27143661401106983 -0.10265684212800143
840000000.0 0.21079464966271258 -0.002507985475570169
860000000.0 -0.09482582548053575 0.12803839564440647
880000000.0 -0.131362788567201 0.016821850741424397
900000000.0 -0.09470943342951436 -0.0009745422513534318
920000000.0 -0.016082847042171885 -0.05153532452468927
940000000.0 -0.026658122073106978 -0.02397109428549542
960000000.0 0.022641152389395545 -0.02985475794534615
980000000.0 0.06362832201289038 0.017881892429029298
1000000000.0 -0.03855657316534397 0.09485072504533516
1020000000.0 0.10309293271594497 0.08022208400841624
1040000000.0 0.14066587275444253 -0.013173612932765921
1060000000.0 -0.1576466107232841 -0.03602330171453632
1080000000.0 0.15980200737642153 0.07704669018603989
1100000000.0 -0.09884608633743103 -0.17541415354438128
1120000000.0 0.19394336724642347 0.11851449167012351
1140000000.0 -0.24468396589978741 -0.067948091112718
1160000000.0 -0.2380454819371157 0.15322355179179079
1180000000.0 -0.31186490374017206 0.014443688353086162
1200000000.0 0.32882591802653854 -0.10067414598746596
1220000000.0 -0.29584919163128803 0.22804962639819573
1240000000.0 0.3341371516876608 -0.2107461550714421
1260000000.0 -0.3293679293836786 -0.2406440161415195
1280000000.0 -0.3075531163282292 0.2926915047128776
1300000000.0 0.24944518213321212 0.35481867173211595
1320000000.0 0.4347118589695489 0.06648031012969534
1340000000.0 0.3472460340193238 -0.2769480260794196
1360000000.0 0.11886077077623364 -0.42501349159182794
1380000000.0 -0.22292110095372478 -0.36638738544024785
1400000000.0 -0.3372040550452082 -0.2464920150859818
1420000000.0 -0.250477740778065 0.3129571660297137
1440000000.0 0.21788756964852643 0.3079620642804245
1460000000.0 0.29973019919378263 -0.1841706362926417
1480000000.0 -0.27133459676177657 0.1744894377425115
1500000000.0 0.28160591171442606 0.04155284567090048
1520000000.0 0.19331716914159908 0.15448679905348361
1540000000.0 -0.05676107936654285 -0.2103484983584538
1560000000.0 0.07411954019266052 0.17406631088368582
1580000000.0 -0.09135780656377787 0.1361028609714862
1600000000.0 -0.058795825037102394 0.1182433193533414
1620000000.0 -0.0824276594919112 0.06308930798899845
1640000000.0 -0.08287793255776653 -0.006399442096627876
1660000000.0 -0.017180739864128904 0.06531964738237596
1680000000.0 -0.02275534464540764 0.03717024509655858
1700000000.0 -0.020995764703681575 -0.0054920315142280435
1720000000.0 -0.005211606591408438 0.0005138295489050204
1740000000.0 0.015850335696965326 -0.002322708534901086
1760000000.0 0.02605884039744062 -0.018520123131631153
1780000000.0 0.0036114018968225457 -0.05233654107194987
1800000000.0 0.037781423191068766 0.08011427389318165
1820000000.0 0.12471737185493835 0.006546857648442012
1840000000.0 -0.13760849467852646 0.09849486253237574
1860000000.0 -0.14103531185825147 0.153354856312528
1880000000.0 0.1332175372176983 -0.20771290949369017
1900000000.0 -0.04295005926033998 0.28542327254673844
1920000000.0 -0.1616770790192226 -0.2789281813533543
1940000000.0 -0.10787503397032217 0.32489502776751805
1960000000.0 0.1512721340481712 0.33206779702241274
1980000000.0 0.38326820904351916 0.09665673607630643
2000000000.0 -0.10448175466529713 -0.40420261871480595
2020000000.0 -0.4293508579641726 0.0030024578358535635
2040000000.0 -0.12927420342996349 0.42010652050650893
2060000000.0 0.4174333164566304 0.14509588008157592
2080000000.0 0.1966056759372849 -0.39031959957015694
2100000000.0 -0.31262452486004066 -0.291339522138789
2120000000.0 -0.4032189392944505 -0.0853396552622586
2140000000.0 -0.3909188812035954 -0.05112970850481775
2160000000.0 0.33775535147619284 -0.1782400908152571
2180000000.0 0.21234176358022336 -0.3054891740916625
2200000000.0 -0.06461263754589071 -0.35667981182490055
2220000000.0 -0.3343776658895498 -0.11948770296503161
2240000000.0 -0.30426596605699263 0.17245161682077542
2260000000.0 -0.007886970243254117 0.3502519451240909
2280000000.0 0.3276704317371874 0.1277339692282906
2300000000.0 0.3132624583050517 -0.1776879538223839
2320000000.0 0.10655008900587948 -0.3696422261344341
2340000000.0 -0.39140171061237516 -0.14344468128356921
2360000000.0 -0.019563728024982813 0.4577212731362157
2380000000.0 0.10860922670941114 -0.49841975600144267
2400000000.0 0.15355914131492973 0.5423666778391814
2420000000.0 -0.5250623520476071 -0.32032648286191373
2440000000.0 0.6319204353659977 -0.19776181396185316
2460000000.0 -0.3341654575883807 0.6165971206669021
2480000000.0 -0.12494359933790362 -0.7210731349831838
2500000000.0 0.1811895059221601 0.7287411125753889
2520000000.0 -0.12128328640789812 -0.7518057856945565
2540000000.0 -0.14024781716817025 0.7505382411566287
2560000000.0 0.5980971977549806 -0.4662284639151057
2580000000.0 -0.7134548996057644 -0.21266108694175687
2600000000.0 0.255777376349546 0.6746423042075258
2620000000.0 0.3433728790342641 -0.6022025553392422
2640000000.0 -0.11847417406415901 -0.6460703048420946
2660000000.0 -0.33877434481755314 0.5115554543584843
2680000000.0 0.5400027968957571 -0.1717140252105584
2700000000.0 -0.43343070071931145 -0.2846617892035752
2720000000.0 0.29559275302562393 0.3662383136707665
2740000000.0 -0.01931117412118157 -0.42103688763793484
2760000000.0 -0.3172670006456401 0.21243937614018463
2780000000.0 0.32003931047586415 -0.14027243425022168
2800000000.0 -0.2836353640232998 0.1576880674121586
2820000000.0 0.23365554206720263 -0.20013370832027866
2840000000.0 0.16100648590803487 0.25404647075169223
2860000000.0 -0.1992873187572372 0.21466595580480413
2880000000.0 -0.1318668809229661 -0.25480337914256096
2900000000.0 -0.10069917219684746 0.26534500302411623
2920000000.0 0.23551043299991678 0.1684562161807816
2940000000.0 0.14230318010640958 -0.2661217231607582
2960000000.0 -0.2735638778747305 -0.14820663420970284
2980000000.0 -0.2387217446401295 0.20565353366791447
3000000000.0 -0.3125852218196111 0.05083404867886039
3020000000.0 -0.24826057158339485 -0.20056286877865223
3040000000.0 -0.013897338213307308 -0.31669115488040356
3060000000.0 0.30339163516016027 0.062453770483132554
3080000000.0 -0.2948430126952281 -0.044545203807590805
3100000000.0 0.12216249820569068 0.26141312385423876
3120000000.0 -0.055013450352407234 -0.27753867781415054
3140000000.0 0.02190150988340946 0.2739639086008286
3160000000.0 -0.06425244294243793 -0.25612765921038533
3180000000.0 -0.15081199195042816 0.20117250928244013
3200000000.0 -0.23142460424667077 -0.002232407111681617
3220000000.0 -0.1943622008254228 -0.06314439443947252
3240000000.0 -0.058030873313959105 -0.16263839988335776
3260000000.0 0.018446652106885637 -0.13539222547204946
3280000000.0 -0.05579572183337633 0.0817043678803822
3300000000.0 0.021446838068377213 0.06597702346667814
3320000000.0 0.037193094119793234 -0.016000629825649797
3340000000.0 -0.008300557275764852 0.022267864275578496
3360000000.0 0.011440453708949559 -0.0001047578591619233
3380000000.0 -0.0011452020152249564 -0.002652365305255163
3400000000.0 -0.005738049659551541 0.013392869555078202
3420000000.0 0.0068348286109016455 0.03221938335667139
3440000000.0 0.010211871499784761 0.04690266476022039
3460000000.0 -0.06031304595426935 0.013429591886923867
3480000000.0 0.06742310361519846 0.024202313529128164
3500000000.0 0.023063008278851216 -0.08378458625804135
3520000000.0 0.10004587562945627 0.006972407272607305
3540000000.0 -0.10727007763377565 0.03393153206438261
3560000000.0 0.06987511748237134 -0.0986840460812862
3580000000.0 -0.09504111615809123 -0.09187828742729164
3600000000.0 0.143349223855501 0.03784725761616542
3620000000.0 -0.11733107266937554 0.11427959203404058
3640000000.0 -0.14545149013595127 0.10636525712605527
3660000000.0 -0.18812184074948982 -0.011755149660767183
3680000000.0 -0.1940436513638589 0.017603333367111933
3700000000.0 -0.13750912131725984 0.1369846750935621
3720000000.0 -0.19029930963478628 0.003036869545341298
3740000000.0 0.05423099566361744 -0.172991198160691
3760000000.0 -0.13760792047329476 -0.11271168554873708
3780000000.0 0.031666644814780855 0.17174354378702641
3800000000.0 -0.10550738302503487 -0.13372506099632445
3820000000.0 -0.025111725946446912 0.16006014186856482
3840000000.0 0.008140131407763275 0.1497432971545818
3860000000.0 -0.1394383226290514 0.04154319304595974
3880000000.0 0.06975674374529914 -0.12730462264850675
3900000000.0 0.04068688818161877 0.14502901425683304
3920000000.0 0.1614398340419703 -0.01974280398549593
3940000000.0 0.00031570241978039865 0.1737973737458107
3960000000.0 0.17126035329323688 0.05478827308019168
3980000000.0 -0.0074505579078967665 -0.17699023170962708
4000000000.0 -0.14118047458681965 -0.08815535481292414
