!Created with skrf (http://scikit-rf.org).
# Hz S RI R 50.0 
!freq ReS11 ImS11
400000000.0 0.8067290918713862 0.31541878470085116
420000000.0 0.7883011635755328 -0.28761163625456243
440000000.0 0.7831360229088353 -0.10897139522305324
460000000.0 0.7076095297330994 0.22900943942681237
480000000.0 0.06361303125841064 -0.6882078220411334
500000000.0 0.29196645729610293 0.5341307804650176
520000000.0 0.34693946908449347 -0.3743482944041479
540000000.0 -0.3585063659816208 0.2397895605258806
560000000.0 0.18651933290746744 0.3364251945627747
580000000.0 -0.26123611669693425 -0.23286781109951474
600000000.0 0.3142756239290181 0.14608813546103877
620000000.0 0.31044912374953787 -0.16067974171759605
640000000.0 0.3055804379666301 0.27797807147978615
660000000.0 -0.4166944343093576 0.10997481238680054
680000000.0 -0.1712995582539064 0.4359449636863297
700000000.0 -0.41334410344070954 -0.2025570217964235
720000000.0 0.22681820716075388 0.3862074360189558
740000000.0 -0.3420790160877378 0.2215704691728043
760000000.0 0.29800962282472365 -0.26497795391576207
780000000.0 0.268126715828138 -0.2795933363584313
800000000.0 -0.300130103842316 0.17990253167873546
820000000.0 0.288557724755963 -0.03623469281285466
840000000.0 0.20934496579819656 0.03029322492023631
860000000.0 -0.0938542563327508 0.12901187541572545
880000000.0 -0.12453421901487068 0.044723141156333135
900000000.0 -0.09352545258072315 -0.007216787841209938
920000000.0 0.01200669161633169 -0.052138700337576005
940000000.0 -0.030765442174110886 -0.01844739630508156
960000000.0 -0.009984468095714101 -0.036522167282249524
980000000.0 0.06536324435700776 -0.009323059853081161
1000000000.0 -0.018052643539464883 0.10022930293847263
1020000000.0 0.08381877344146361 0.09942081856040043
1040000000.0 0.14042486052616282 0.015814079395360885
1060000000.0 -0.13523733755038855 -0.08970093310760109
1080000000.0 0.15328181150312947 0.09071266475367624
1100000000.0 -0.12994969970095788 -0.15407302661307395
1120000000.0 0.21653952369056112 0.06879628631883067
1140000000.0 -0.25097259500621105 -0.0311095471009203
1160000000.0 -0.21431480229817623 0.18432360274791829
1180000000.0 -0.3122104513123071 0.009406076065455956
1200000000.0 0.32951926302360635 -0.09925398439843096
1220000000.0 -0.2680410125196655 0.2603831232547076
1240000000.0 0.30804184651578675 -0.24658688076552904
1260000000.0 -0.35286978016047066 -0.20295711580327708
1280000000.0 -0.2898076329517237 0.30963998877384064
1300000000.0 0.24706557001857285 0.35644660779136184
1320000000.0 0.42935606870789916 0.09719270105225294
1340000000.0 0.35190868432597006 -0.27154317392723576
1360000000.0 0.10755831717841076 -0.4282986083378093
1380000000.0 -0.24753099806075612 -0.3505972896837322
1400000000.0 -0.3553429888313898 -0.21932875544156102
1420000000.0 -0.23117174149627992 0.3269073452186884
1440000000.0 0.203718242400936 0.3167029672300736
1460000000.0 0.31249035871362824 -0.1605657266915238
1480000000.0 -0.28871844207734765 0.14461213864479397
1500000000.0 0.2850465096184815 -0.0030681104600689384
1520000000.0 0.22603407619482885 0.10070221137651095
1540000000.0 -0.1165355992372193 -0.18346848824164189
1560000000.0 0.06893509183572802 0.1756140367657861
1580000000.0 -0.0878184085264288 0.13731622357477272
1600000000.0 -0.06227815331038498 0.1154756961403615
1620000000.0 -0.07480992360359803 0.07168788940616659
1640000000.0 -0.0813331346860629 -0.018457983420275707
1660000000.0 -0.029590140203984042 0.061759024130741275
1680000000.0 -0.027781354874822976 0.03483347640068384
1700000000.0 0.004453786039958472 -0.02157376144920635
1720000000.0 0.00423085309978898 -0.0033027476830986987
1740000000.0 4.654137303539886e-05 0.01558162352951035
1760000000.0 -0.022222450215712206 -0.023705161142984012
1780000000.0 -0.03648246099956616 -0.03842633855159274
1800000000.0 0.08824503965016618 0.013227047616738749
1820000000.0 0.12054383829163097 -0.034152272001706424
1840000000.0 -0.12670874006261168 0.11334338629159081
1860000000.0 -0.1549472366224683 0.1407310538377234
1880000000.0 0.1748740934703746 -0.1752545589204515
1900000000.0 -0.0963287494162261 0.2730157900571394
1920000000.0 -0.12098968816374897 -0.29942666286832487
1940000000.0 -0.1545873867112149 0.3059181051966281
1960000000.0 0.11304308454716298 0.3468852141880726
1980000000.0 0.37699743733299784 0.11749791577934693
2000000000.0 -0.10443681401952039 -0.4032799423437555
2020000000.0 -0.4282018130715463 0.007369607024692071
2040000000.0 -0.1278153398822464 0.419329022350108
2060000000.0 0.42108364741129883 0.13070189885670574
2080000000.0 0.14021309135342805 -0.41309942808534267
2100000000.0 -0.34593293163106814 -0.2505967587097952
2120000000.0 -0.412245806144763 0.010222441122407229
2140000000.0 -0.39285422677464416 0.03988465659419265
2160000000.0 0.286125185414118 -0.25361082815701863
2180000000.0 0.14185418050534443 -0.34453537554083496
2200000000.0 -0.0971568775861402 -0.34994220685851357
2220000000.0 -0.3473356210794197 -0.07592947920467452
2240000000.0 -0.3197583340863891 0.14485064167354916
2260000000.0 -0.002903176389375008 0.3519279816014705
2280000000.0 0.3299474054668237 0.1253576583755644
2300000000.0 0.32885571580934686 -0.1489080465610745
2320000000.0 0.11655965115538978 -0.3672030995417048
2340000000.0 -0.38461024956930895 -0.16121975680628195
2360000000.0 -0.03360696863532963 0.45686785995519325
2380000000.0 0.09242575203423227 -0.5018411987406098
2400000000.0 0.1467429174956405 0.5440533395947633
2420000000.0 -0.5273114093621728 -0.31676264166498797
2440000000.0 0.623291114291581 -0.22330929869008032
2460000000.0 -0.303084616319923 0.6321733002669369
2480000000.0 -0.11177511390883414 -0.7236293349659314
2500000000.0 0.2283449875724218 0.7154569161451789
2520000000.0 -0.113369355321956 -0.7534660816615462
2540000000.0 -0.19129124796570177 0.7395687867984662
2560000000.0 0.6117010349092866 -0.4478336695458655
2580000000.0 -0.6996766923424171 -0.25152220129635683
2600000000.0 0.3251499968938521 0.64179626607163
2620000000.0 0.31180152918441245 -0.6174481130060145
2640000000.0 -0.15628042387028482 -0.6362436345169206
2660000000.0 -0.32976327509848397 0.5154663609356249
2680000000.0 0.5502895115068888 -0.12769416983937412
2700000000.0 -0.44032919068635457 -0.2710482786760663
2720000000.0 0.32906274592541523 0.33493649931308933
2740000000.0 -0.08323454109035988 -0.4120650700489323
2760000000.0 -0.28870112470438825 0.24950301265983887
2780000000.0 0.3131566513074778 -0.15464551783271074
2800000000.0 -0.2789109870273241 0.16636691110622256
2820000000.0 0.2526382989206515 -0.17630989610074857
2840000000.0 0.12691786973370195 0.2727077051838668
2860000000.0 -0.22895762370694328 0.1826645525995714
2880000000.0 -0.10028133844465022 -0.2682843878396743
2900000000.0 -0.13953441659106128 0.24675822547571433
2920000000.0 0.2121075118160577 0.19691014599958845
2940000000.0 0.20755321498680618 -0.21769067133987333
2960000000.0 -0.2784836917664154 -0.1345108727764939
2980000000.0 -0.21657261579083226 0.22766568959446645
3000000000.0 -0.3018032039614917 0.08743917900290729
3020000000.0 -0.270818428168521 -0.16533975861905814
3040000000.0 -0.039339824595539134 -0.3125737292717659
3060000000.0 0.30645442633492737 0.03404924678649005
3080000000.0 -0.2962983734494602 0.022358316545015418
3100000000.0 0.24771441899102448 0.14723018246582192
3120000000.0 -0.1047294960192243 -0.2620785272914967
3140000000.0 0.1071581703298875 0.25314156865040854
3160000000.0 -0.14470533774184094 -0.22157781181322853
3180000000.0 -0.044879443286731394 0.24824370666237924
3200000000.0 -0.22582707818297013 0.0571846466981923
3220000000.0 -0.20622908482237143 -0.016466028989188305
3240000000.0 -0.08791853982099679 -0.15051605270324375
3260000000.0 0.05734627387160852 -0.1260055530601662
3280000000.0 -0.09963166087085984 0.01745199766579809
3300000000.0 -0.03111303767589159 0.06462931565907419
3320000000.0 0.016352134721022794 0.03926356275994672
3340000000.0 -0.015648871416808232 -0.02079063959978451
3360000000.0 -0.013569747055502755 -0.0021552350505866158
3380000000.0 -0.0006457181284715356 -0.0042612769289418545
3400000000.0 0.002196901386599242 -0.012540721160432262
3420000000.0 -0.02651832565569054 -0.01710961280762866
3440000000.0 -0.004349470106897309 -0.04711674519018269
3460000000.0 0.00040600831321347964 0.060771921947356616
3480000000.0 0.003184652216486397 -0.07068672164708084
3500000000.0 -0.07461675928540325 -0.04391082700205657
3520000000.0 0.037969297378825866 -0.09297831833717654
3540000000.0 -0.01539412788197296 0.11152966329584008
3560000000.0 -0.045527372989443385 -0.11223917289906087
3580000000.0 -0.13040467032046146 0.026020459172432814
3600000000.0 0.13237248849451033 -0.06842131510210939
3620000000.0 -0.053669911711966896 0.1556991720648728
3640000000.0 -0.082819060722513 0.16134912977555557
3660000000.0 -0.18765667743204267 0.020502174020251174
3680000000.0 -0.18983703089685422 0.045987124107126416
3700000000.0 -0.14648845459056922 0.12883200993852673
3720000000.0 -0.18800779886239138 -0.037135550767487244
3740000000.0 0.06066671919069253 -0.17135216611181073
3760000000.0 -0.13928029044475093 -0.11184934059262748
3780000000.0 0.03979013178444372 0.17140059154288328
3800000000.0 -0.09979207085637025 -0.13785266783020342
3820000000.0 -0.023474923203923227 0.1604752986545027
3840000000.0 0.06912992204141831 0.1324106355982798
3860000000.0 -0.1260076172247795 0.07129721656342015
3880000000.0 0.06193471143150545 -0.13102696456744356
3900000000.0 0.003344665458064782 0.1507244759577571
3920000000.0 0.16206203631794702 0.014211114755491779
3940000000.0 0.004036204183313952 0.17344483275907457
3960000000.0 0.1732787362598329 0.050361267877167264
3980000000.0 0.030961477017392807 -0.17528171574866197
4000000000.0 -0.07855707433610933 -0.1482596114971917
