!Created with skrf (http://scikit-rf.org).
# Hz S RI R 50.0 
!freq ReS11 ImS11
400000000.0 0.823769635584256 0.2658225207526664
420000000.0 0.7659928699343799 -0.343306392275926
440000000.0 0.7828994217114433 -0.11652033781532115
460000000.0 0.7112620215798168 0.22039964387269376
480000000.0 0.043923041918110556 -0.6899979339281885
500000000.0 0.26830636826125004 0.5465533387160398
520000000.0 0.3333724435480277 -0.38573824978972576
540000000.0 -0.37147514898282274 0.21789405081237287
560000000.0 0.1644884804133364 0.3472546410596197
580000000.0 -0.23691586689844274 -0.25670452799180804
600000000.0 0.307285145714428 0.15923145380889803
620000000.0 0.3133838785043511 -0.1584459481453704
640000000.0 0.33392918452024883 0.24632636811327183
660000000.0 -0.3900514382840018 0.18662034972702032
680000000.0 -0.029198740632301146 0.4671892171296675
700000000.0 -0.4144114795920474 -0.19656321568879506
720000000.0 0.1895441290421781 0.40505625963288616
740000000.0 -0.3646678406999371 0.18285153044000754
760000000.0 0.3130652164308971 -0.2471632238362969
780000000.0 0.25613405009718265 -0.29156252286647283
800000000.0 -0.26804385361888633 0.22562063985175052
820000000.0 0.2703265184571085 -0.10609640757256576
840000000.0 0.21050916638100692 0.00642320221096607
860000000.0 -0.10773985770685562 0.11729802162252846
880000000.0 -0.13245206278022784 0.0053713723090151036
900000000.0 -0.09480909046512775 -0.0035091067345098714
920000000.0 -0.014659551778251893 -0.05207218376919215
940000000.0 -0.01811991562568467 -0.03104022423923829
960000000.0 0.03509617221012172 -0.012910174579676442
980000000.0 0.060278449545250266 0.026962387454304168
1000000000.0 -0.03988079450010654 0.0944306373434166
1020000000.0 0.11058337919849784 0.07021146595048545
1040000000.0 0.13996814087676027 -0.02079247633327546
1060000000.0 -0.15572710432806813 -0.04411191856630674
1080000000.0 0.16072591227228178 0.07488020002252133
1100000000.0 -0.09083561020716352 -0.17955701957207895
1120000000.0 0.1954790134111638 0.11602250976954132
1140000000.0 -0.2372798164622739 -0.08981197009456053
1160000000.0 -0.22364502964336552 0.17388627694456846
1180000000.0 -0.3116361171299858 0.017457409847602565
1200000000.0 0.32585888609228175 -0.1092596944639441
1220000000.0 -0.29719757686595477 0.22621322844348737
1240000000.0 0.3343257596767262 -0.21032547497370682
1260000000.0 -0.33858620829690944 -0.22764196726558464
1280000000.0 -0.3043797094818186 0.29606258353213033
1300000000.0 0.26452157708056845 0.3439159965525576
1320000000.0 0.4347885392288106 0.06605564542694209
1340000000.0 0.34899029522185065 -0.27481744899520977
1360000000.0 0.11563051482516076 -0.42586827013106315
1380000000.0 -0.22368637666703364 -0.3658321551244324
1400000000.0 -0.33500184429991087 -0.249641534174491
1420000000.0 -0.2547424983546697 0.30963629722224334
1440000000.0 0.20934018766486917 0.3140855859847246
1460000000.0 0.2944153590791747 -0.1924457498310027
1480000000.0 -0.27731633173368153 0.16453054255353816
1500000000.0 0.281202316725399 0.041604123363271774
1520000000.0 0.19381826791009557 0.1533635992256706
1540000000.0 -0.04681167052061233 -0.212772685274088
1560000000.0 0.07091157478350231 0.17550380347334127
1580000000.0 -0.0956972150116531 0.13313257920677782
1600000000.0 -0.07429401371932565 0.10920233316497052
1620000000.0 -0.08403990587425797 0.06069975885305872
1640000000.0 -0.08251802611493542 -0.008431783159161798
1660000000.0 6.423289906027472e-06 0.06753714627520302
1680000000.0 -0.016778662907754472 0.03997456397594429
1700000000.0 0.0004130911545591529 -0.02131846291205527
1720000000.0 -0.00437648172763511 0.0029926940182583364
1740000000.0 0.010507358372992055 0.011416977921894136
1760000000.0 0.008728487018344808 -0.030881990965885644
1780000000.0 -0.003384397116117277 -0.052324801982542676
1800000000.0 0.04167745896870099 0.07829694146281292
1820000000.0 0.1250221327909356 0.003639651252688033
1840000000.0 -0.13981374170503777 0.09556136989720641
1860000000.0 -0.1410865405192358 0.15340408014411014
1880000000.0 0.13865548295983793 -0.20425362971051803
1900000000.0 -0.057577538550442946 0.28296648181913486
1920000000.0 -0.15605243958494824 -0.282263718482692
1940000000.0 -0.11215703057343818 0.32338464893822705
1960000000.0 0.15186304061001615 0.3316602579832273
1980000000.0 0.3801648747603206 0.10795344727884044
2000000000.0 -0.10365401844595541 -0.40433083412409393
2020000000.0 -0.42935640685891857 -0.000855326568812255
2040000000.0 -0.13873938412999864 0.417295620761092
2060000000.0 0.41964054022708186 0.1387577087374827
2080000000.0 0.16496995103631423 -0.4045194161518991
2100000000.0 -0.3167932677048246 -0.28669549909125497
2120000000.0 -0.4066962101630716 -0.06562159392819311
2140000000.0 -0.38690008696279005 -0.07554979747831292
2160000000.0 0.3373558255786363 -0.17873532033065312
2180000000.0 0.2305780894267148 -0.29219500644551716
2200000000.0 -0.056402373083908455 -0.3579714980954626
2220000000.0 -0.34133147610038234 -0.09627758046348718
2240000000.0 -0.3149238526472847 0.1517357084531294
2260000000.0 -0.01339310875806894 0.349799936244833
2280000000.0 0.3272174777282294 0.12844460519991868
2300000000.0 0.3157370090929661 -0.17303257889738285
2320000000.0 0.09893662066300728 -0.3717274711767713
2340000000.0 -0.38766388864126317 -0.15259801819325824
2360000000.0 -0.01221449796455915 0.45779268598411166
2380000000.0 0.09689862870815802 -0.5007206612350367
2400000000.0 0.1420414502896751 0.5453423609573561
2420000000.0 -0.5127775512666878 -0.3397582157475296
2440000000.0 0.6375805087137897 -0.17853945595561585
2460000000.0 -0.34124689464327757 0.6127131677733072
2480000000.0 -0.09459494079484314 -0.7257660287840918
2500000000.0 0.2130294270867941 0.7198562793820702
2520000000.0 -0.0919370985725443 -0.7559946015261289
2540000000.0 -0.16648125122611054 0.7451449194638748
2560000000.0 0.6047260275456365 -0.4578020649950968
2580000000.0 -0.7022651941088077 -0.24692557206097604
2600000000.0 0.26716607175783935 0.6694888608020089
2620000000.0 0.3505391089406683 -0.5980989449719787
2640000000.0 -0.11905322638898212 -0.6458430144118201
2660000000.0 -0.34387644580618115 0.5078797607656116
2680000000.0 0.5551204952689122 -0.11227673556980826
2700000000.0 -0.4318045203229636 -0.28717541143563674
2720000000.0 0.304306974354588 0.35948422097825095
2740000000.0 -0.0578229649265337 -0.4179060688264534
2760000000.0 -0.3052143273513336 0.2301657732962088
2780000000.0 0.32091916489195804 -0.1389828030409803
2800000000.0 -0.28790142797125 0.1503374609248214
2820000000.0 0.24335841936792757 -0.1883387399266756
2840000000.0 0.15402845271137883 0.25825958835402774
2860000000.0 -0.22511105831476158 0.18782022162046075
2880000000.0 -0.11780552362257288 -0.261642118303549
2900000000.0 -0.09874598799470857 0.26601555048965336
2920000000.0 0.23010608304703173 0.17580423394858144
2940000000.0 0.1656415820233185 -0.2522572122761469
2960000000.0 -0.27000354946181293 -0.15412896572339643
2980000000.0 -0.22700346476453595 0.21947794704192783
3000000000.0 -0.3116977618938049 0.05512346666469274
3020000000.0 -0.2629878917656854 -0.18102287813491702
3040000000.0 -0.002981861751470109 -0.31701450126287817
3060000000.0 0.2971179604297765 0.08712689911247908
3080000000.0 -0.29234008643962806 -0.05886259907300248
3100000000.0 0.19273033462412864 0.21553709368402563
3120000000.0 -0.04128247262400403 -0.2798460915920265
3140000000.0 0.020500624593464956 0.2741337992260525
3160000000.0 -0.0531517557983578 -0.2585787631181473
3180000000.0 -0.14823922472091117 0.20313347447178937
3200000000.0 -0.23127407813500098 -0.012491997393883158
3220000000.0 -0.19529761854226546 -0.060858702202673524
3240000000.0 -0.05206635727072894 -0.16484857147082999
3260000000.0 0.02751118425441427 -0.1338474021712851
3280000000.0 -0.05928575461876319 0.0792556925598484
3300000000.0 0.012523260300006132 0.0681200317299705
3320000000.0 0.03487561433205979 -0.020498277254268508
3340000000.0 -0.017615370303546832 0.015724833978847545
3360000000.0 0.008388623819135488 0.0078787616686575
3380000000.0 0.00010706462166021044 -0.003328008263566833
3400000000.0 -0.012764867298213729 0.007183512290889857
3420000000.0 -0.0006674849574415982 0.03300437356576054
3440000000.0 0.03223213456924862 0.03617179873933602
3460000000.0 -0.06170696133474014 0.003536927732367105
3480000000.0 0.060308668776864416 0.038674298589397756
3500000000.0 0.03686012654783427 -0.07862342272874737
3520000000.0 0.10063779159459113 0.003374196343995238
3540000000.0 -0.10997953079042569 0.023468664689370172
3560000000.0 0.05957414408940365 -0.10573702730352737
3580000000.0 -0.10040104342255293 -0.08690910335732079
3600000000.0 0.12978058914927126 0.07106037350311963
3620000000.0 -0.13012637435775276 0.0993384433392333
3640000000.0 -0.14371592133343772 0.10887122661399957
3660000000.0 -0.18706572680276135 -0.021774803879800464
3680000000.0 -0.19389893167198027 0.02194629278265063
3700000000.0 -0.1434815778250633 0.13085855452922734
3720000000.0 -0.19066785152477106 0.010192139517235611
3740000000.0 0.04489244118859906 -0.17539180644483662
3760000000.0 -0.1290809966711743 -0.12242839744209827
3780000000.0 0.009732217051468503 0.17463735492942442
3800000000.0 -0.11255810754034362 -0.12713405173682854
3820000000.0 -0.020246739398657367 0.1607673066425615
3840000000.0 0.03539395977709314 0.14504797857488327
3860000000.0 -0.13729229584832425 0.04745109873150724
3880000000.0 0.059937889951411825 -0.13179656505486248
3900000000.0 0.03459326075101298 0.14672853864329508
3920000000.0 0.16129605306637299 -0.019509256765041953
3940000000.0 -0.007189145033253705 0.1734609671672122
3960000000.0 0.16467478050126275 0.07215158024175782
3980000000.0 0.0045175488522728275 -0.17700125972433933
4000000000.0 -0.13307803390632025 -0.09977072844645976
