!Created with skrf (http://scikit-rf.org).
# Hz S RI R 50.0 
!freq ReS11 ImS11
400000000.0 0.8050155700114466 0.3147687163901804
420000000.0 0.8031330156484994 -0.24321964525537249
440000000.0 0.784646652893507 -0.0959021027729454
460000000.0 0.7140083803595556 0.20810060556298723
480000000.0 0.03855569992131214 -0.6899012412768029
500000000.0 0.2922932733747776 0.5340621608115639
520000000.0 0.33971128257258126 -0.38098570078906463
540000000.0 -0.3635612080013029 0.2318845606731042
560000000.0 0.1806479876588993 0.33954938972421306
580000000.0 -0.2436944521034262 -0.2510588638720482
600000000.0 0.30918325711131284 0.15637339888007587
620000000.0 0.3165682002272683 -0.1488695812105707
640000000.0 0.3074161526414093 0.2766056213173707
660000000.0 -0.41153247743152527 0.12962139575637735
680000000.0 -0.1269904719602887 0.45049514571661037
700000000.0 -0.41670659337938176 -0.19437681663358433
720000000.0 0.2275240350277665 0.38551472929996206
740000000.0 -0.3442418531002392 0.21753180380417317
760000000.0 0.3118801314359129 -0.24864211562470775
780000000.0 0.2591458475382505 -0.28851154364255327
800000000.0 -0.29039308351297033 0.19556528965074232
820000000.0 0.28509196352179333 -0.05550037945594035
840000000.0 0.210579042448271 0.01322818073042909
860000000.0 -0.10274046470151868 0.12174863742723302
880000000.0 -0.13059700119549122 0.02129112237644348
900000000.0 -0.09248897170173823 -0.015803791859925625
920000000.0 0.014082895288111677 -0.051515636108241405
940000000.0 -0.025755158187985863 -0.024415202939715865
960000000.0 -0.01559651917472175 -0.0346107006213234
980000000.0 0.06612879001174873 0.0021373942483404592
1000000000.0 -0.024327895806182796 0.0992439537892612
1020000000.0 0.08499739670353634 0.09870730666689108
1040000000.0 0.1411752539250593 0.00523867971738775
1060000000.0 -0.1500280969312524 -0.06061635151087226
1080000000.0 0.15301323768855643 0.09057227424652117
1100000000.0 -0.13250242413557742 -0.15167662592002323
1120000000.0 0.20566375472595913 0.09630958610715591
1140000000.0 -0.2518376559811972 -0.02653847276427108
1160000000.0 -0.20954388542079377 0.18990084606340182
1180000000.0 -0.3118236332003957 0.015394149980011337
1200000000.0 0.3340061934046798 -0.08077453028102224
1220000000.0 -0.2887391182926498 0.23651936574779805
1240000000.0 0.31945084691587927 -0.23163215193624465
1260000000.0 -0.34699257997585786 -0.21305357027295377
1280000000.0 -0.29541320885328065 0.30472422499208784
1300000000.0 0.24725650724286635 0.35653758111057976
1320000000.0 0.43250853380031806 0.08297760357668706
1340000000.0 0.3549932140756091 -0.26744593850297854
1360000000.0 0.11505860222118633 -0.4263869151315907
1380000000.0 -0.22883244246538118 -0.36292819906601176
1400000000.0 -0.3444836823072885 -0.23611046911879097
1420000000.0 -0.2447655817912374 0.31705087679805444
1440000000.0 0.2010859527310058 0.3186080404020566
1460000000.0 0.3077193011597768 -0.16981261470310277
1480000000.0 -0.29023864951123035 0.1411480175485972
1500000000.0 0.2844448671442108 0.010867037552733674
1520000000.0 0.2190402078111927 0.11479403662256572
1540000000.0 -0.0942680425988578 -0.1959738668249487
1560000000.0 0.072631545826318 0.17413171220484103
1580000000.0 -0.084122340515385 0.13993935997803103
1600000000.0 -0.06275164953043445 0.11544443810086587
1620000000.0 -0.07418368505665691 0.07239425894407682
1640000000.0 -0.08230475465022079 -0.011971707791369796
1660000000.0 -0.03208975863571848 0.06009278456986417
1680000000.0 -0.015973087399983557 0.04136597690030818
1700000000.0 0.008727117347177422 -0.019949152807223793
1720000000.0 -0.0014292766524294225 0.005139746884001632
1740000000.0 0.015791849178143306 0.001536273076399178
1760000000.0 -0.0177822064769401 -0.026910283973170458
1780000000.0 -0.027823595128895758 -0.04476595628909432
1800000000.0 0.0829356499763544 0.03173466287253634
1820000000.0 0.12240033835936577 -0.02542073076416285
1840000000.0 -0.12446765343185356 0.11567516468410066
1860000000.0 -0.14903879928935404 0.14690863224157147
1880000000.0 0.16658405145004782 -0.18305594776906622
1900000000.0 -0.08470865615497723 0.27679342788594313
1920000000.0 -0.13073001931534142 -0.295095090338776
1940000000.0 -0.14625334275093915 0.3099659666276979
1960000000.0 0.11601436692986479 0.345895966005954
1980000000.0 0.37213304121928115 0.13265655709843852
2000000000.0 -0.05582692060480503 -0.4133932990823364
2020000000.0 -0.4282281646608387 -0.014263722444770179
2040000000.0 -0.15828997995664018 0.40908987286566273
2060000000.0 0.4183043576431963 0.13980428906190023
2080000000.0 0.1416188135460852 -0.41256495077093086
2100000000.0 -0.3200132261288516 -0.2828677681614182
2120000000.0 -0.41199251259997166 0.001138864114919415
2140000000.0 -0.3921664346110433 0.04228180961123856
2160000000.0 0.2963041590001294 -0.24135503454171187
2180000000.0 0.16184000986226987 -0.33536915670472334
2200000000.0 -0.09106935495575393 -0.3514059458772345
2220000000.0 -0.33619960387439424 -0.11471454600396393
2240000000.0 -0.30400673050275706 0.17490624266974228
2260000000.0 0.002187191305069541 0.3515623707191765
2280000000.0 0.3278612724898565 0.12957540923122102
2300000000.0 0.3328625026908172 -0.13851598508292434
2320000000.0 0.10875621122058797 -0.3696943007169701
2340000000.0 -0.382294166831445 -0.1664482974718323
2360000000.0 -0.026818930969260295 0.45741893415277307
2380000000.0 0.09872071575027011 -0.5009073468331667
2400000000.0 0.14847275001412438 0.5438934264204797
2420000000.0 -0.5269026311696448 -0.31752634645852773
2440000000.0 0.6344228905526522 -0.1897137335646956
2460000000.0 -0.32437757830030717 0.6216107966216889
2480000000.0 -0.13881609735908362 -0.7183802515877393
2500000000.0 0.16079980913733258 0.7336254156899806
2520000000.0 -0.07977724888131453 -0.7575637878565252
2540000000.0 -0.14790051359244563 0.7489188028589592
2560000000.0 0.6169150260919362 -0.4406688601729593
2580000000.0 -0.7118450200885367 -0.21439931843815083
2600000000.0 0.30430917767153737 0.6521164406200288
2620000000.0 0.28656492053933463 -0.6293081797423027
2640000000.0 -0.20675613629492817 -0.6219650090559133
2660000000.0 -0.3222910326564189 0.5206023846810894
2680000000.0 0.5308819954759405 -0.19481739389446143
2700000000.0 -0.4514061473346364 -0.2529629705367476
2720000000.0 0.3204603467546298 0.34375448610467574
2740000000.0 -0.07722611189562975 -0.413501487639144
2760000000.0 -0.2892097986790922 0.24927155864256964
2780000000.0 0.3110209902131444 -0.15923682812226234
2800000000.0 -0.28452884106786536 0.15639914292570548
2820000000.0 0.2604161491306861 -0.1643806179233749
2840000000.0 0.099611748697512 0.28430175047220985
2860000000.0 -0.24105077587873075 0.16659025587849724
2880000000.0 -0.0697972213910301 -0.2779843263532174
2900000000.0 -0.12406266571596078 0.25442065988606943
2920000000.0 0.22400042125976083 0.18256847879605959
2940000000.0 0.18814069686041426 -0.23432104767139106
2960000000.0 -0.2886863757085019 -0.11110081574800253
2980000000.0 -0.20787277736970713 0.2347334575711214
3000000000.0 -0.30321766220990864 0.08590288007118015
3020000000.0 -0.2931769248147692 -0.1214916216462534
3040000000.0 -0.08925911073698066 -0.30224965489343814
3060000000.0 0.30862606062831677 -0.002310533909536289
3080000000.0 -0.2935440131187167 0.04799640637841735
3100000000.0 0.20686464282462522 0.2005199215002629
3120000000.0 -0.1422124822514291 -0.24447526215417156
3140000000.0 0.1269077830334155 0.24415720123603873
3160000000.0 -0.1495185100340792 -0.21856237431074987
3180000000.0 -0.048098662454820494 0.24762349734857755
3200000000.0 -0.22794239135230324 0.04849439436906793
3220000000.0 -0.20409004044062137 -0.031599470544209085
3240000000.0 -0.073319653188532 -0.15816342698594743
3260000000.0 0.07132480491349914 -0.11871323310993045
3280000000.0 -0.09225797863947872 0.04097419069926686
3300000000.0 -0.04946624195004774 0.051863460707882544
3320000000.0 0.006401936719475559 0.04164444196087253
3340000000.0 -0.025879994555220002 -0.0016586162872451664
3360000000.0 0.009016784992276726 0.009985782378529722
3380000000.0 -0.004240226842465225 0.001386377199877473
3400000000.0 -0.0011998660794118774 0.012505568416393059
3420000000.0 -0.0006362907117575264 -0.031361940690964527
3440000000.0 0.010866034789458827 -0.045974497339558655
3460000000.0 -0.011843623633853662 0.059355088884510396
3480000000.0 0.03865398390660898 -0.05855842313001974
3500000000.0 -0.06867918081685347 -0.05198068850428793
3520000000.0 0.05354457278064164 -0.08387883319979741
3540000000.0 -0.03777312228964753 0.10517661410975332
3560000000.0 -0.049855625194483125 -0.10992041844094955
3580000000.0 -0.12768725399146966 0.03598373185866296
3600000000.0 0.13907059685041076 -0.051084009034634406
3620000000.0 -0.05407714844221982 0.1547966992193912
3640000000.0 -0.09575854354728085 0.15275947067690773
3660000000.0 -0.1858797168335701 0.02862615560826502
3680000000.0 -0.1819854754129098 0.07034756766624765
3700000000.0 -0.13181610591433127 0.1434214053242696
3720000000.0 -0.19037632170035887 -0.013429572219379448
3740000000.0 0.04257517450945028 -0.17689090569552718
3760000000.0 -0.16032924082395905 -0.0777071381252077
3780000000.0 0.07195883323544179 0.16044883787658867
3800000000.0 -0.11199846338937024 -0.12870460276707207
3820000000.0 -2.0222790547211634e-05 0.16233515158747805
3840000000.0 0.05049002527237718 0.14144374052275221
3860000000.0 -0.12841392239655752 0.0682166298856802
3880000000.0 0.05031356459746721 -0.1362975359265914
3900000000.0 0.03424111146476463 0.14693920640788302
3920000000.0 0.1622598958180845 -0.016276622661484847
3940000000.0 0.03286353347174985 0.17034388331529698
3960000000.0 0.177288293925822 0.03765316667192651
3980000000.0 0.020276206279858454 -0.17727559683441352
4000000000.0 -0.09121080695133531 -0.14168501971458228
