!Created with skrf (http://scikit-rf.org).
# Hz S RI R 50.0 
!freq ReS11 ImS11
400000000.0 0.8340843583194454 0.2350486075684982
420000000.0 0.7600393585378397 -0.35724019197126095
440000000.0 0.7781894686377183 -0.14617622197758806
460000000.0 0.7088104973640222 0.22856939723564887
480000000.0 0.07582107052691242 -0.6871792475900278
500000000.0 0.27660644534979817 0.5424533666123107
520000000.0 0.32568429111643515 -0.3918218616775685
540000000.0 -0.34829690464393415 0.2531949900664331
560000000.0 0.20389216150178852 0.325338281811513
580000000.0 -0.26658931359696886 -0.225753827644486
600000000.0 0.3402984917189359 0.06602331455844672
620000000.0 0.2673699268418259 -0.2273779824742448
640000000.0 0.3399804554900557 0.23840040075079777
660000000.0 -0.41212643009661926 0.130880262330188
680000000.0 -0.11119627804679182 0.45540613816042663
700000000.0 -0.41223990425494883 -0.20345118052727842
720000000.0 0.21677030729170446 0.3920292871724253
740000000.0 -0.3280644250923799 0.24123312769697333
760000000.0 0.3057339867955087 -0.2559187706329603
780000000.0 0.287011308092393 -0.26154686666214527
800000000.0 -0.2976416380456777 0.18512935683568435
820000000.0 0.28334547163278934 -0.0667603860244585
840000000.0 0.2113886778324529 0.0006797562613666408
860000000.0 -0.08423981821923499 0.13496187219726344
880000000.0 -0.12902385679433212 0.029373362145289336
900000000.0 -0.09412237533690575 -0.008456257088586008
920000000.0 -0.02798676791881627 -0.04656330481427348
940000000.0 -0.027912233237726562 -0.023046727164437692
960000000.0 -0.01742237159007548 -0.03353778687832891
980000000.0 0.06351014656412966 -0.019706827753908817
1000000000.0 -0.03802643062449646 0.09523776715699747
1020000000.0 0.09147051957624434 0.09295379198282615
1040000000.0 0.1406352001680387 0.008819216566220207
1060000000.0 -0.15543875073108812 -0.044163175856761785
1080000000.0 0.16868808784665335 0.05553606500056441
1100000000.0 -0.12607425620374618 -0.15735432387827067
1120000000.0 0.21670904764498936 0.06895261171985803
1140000000.0 -0.24513931142368983 -0.0660557806464133
1160000000.0 -0.2270478352960048 0.16931084134497326
1180000000.0 -0.31211042688968127 0.01392988612730054
1200000000.0 0.3286418865845763 -0.10061286018950968
1220000000.0 -0.2865231731899906 0.23955377099800101
1240000000.0 0.33155462555230086 -0.21399022240412152
1260000000.0 -0.3290716292677627 -0.24035087970665153
1280000000.0 -0.3048444728650128 0.29481962796881694
1300000000.0 0.24696601546052463 0.3562239795248121
1320000000.0 0.43429166011485937 0.06844433065954765
1340000000.0 0.35189773927340573 -0.2708776854855599
1360000000.0 0.11050220906798251 -0.4275352276922537
1380000000.0 -0.22998883183864705 -0.3618781053603404
1400000000.0 -0.34457279770708066 -0.23616215602163473
1420000000.0 -0.249978611640296 0.31290329787895826
1440000000.0 0.20682816663702544 0.3154301473669762
1460000000.0 0.3047444056151638 -0.17560258610417567
1480000000.0 -0.27710119957883234 0.1657223571653793
1500000000.0 0.2816051763433406 0.04264940963268617
1520000000.0 0.2043336532887352 0.13994053595537553
1540000000.0 -0.05995257982123367 -0.20932560350092516
1560000000.0 0.06051336841846594 0.17936903551908726
1580000000.0 -0.11760867916516131 0.11411829762152167
1600000000.0 -0.08248887882909804 0.10317317437026043
1620000000.0 -0.09056579297151006 0.05053802927946672
1640000000.0 -0.07969649176432293 -0.0230123818756765
1660000000.0 -0.010310402857034157 0.06692946873271147
1680000000.0 -0.01843057877151338 0.039587824432924044
1700000000.0 -0.021764443263000175 0.0026793839125894255
1720000000.0 0.004312439928944637 0.0024071354097353545
1740000000.0 0.008744501779972767 0.013728574534266742
1760000000.0 0.024905228627345816 -0.020686124153188237
1780000000.0 -0.000849726325723471 -0.052698784908535884
1800000000.0 0.039542077400449134 0.07962829857114968
1820000000.0 0.12519885559106977 0.001898049619677842
1840000000.0 -0.13945437547849077 0.09577952855750428
1860000000.0 -0.1495866715688554 0.1449332039955384
1880000000.0 0.14899639457692798 -0.19663326530105374
1900000000.0 -0.05308893483198858 0.28378263354261224
1920000000.0 -0.16504799813120824 -0.2768090484584318
1940000000.0 -0.10928543495628713 0.324348730116572
1960000000.0 0.15900981119465094 0.32822819844722034
1980000000.0 0.3830797953780415 0.09705638161556453
2000000000.0 -0.10807860395875658 -0.40321576361945316
2020000000.0 -0.42940767660998985 0.006400209494740865
2040000000.0 -0.13250389295985918 0.41919861942606135
2060000000.0 0.4104486237099608 0.16416143947651737
2080000000.0 0.1690272432959605 -0.4031802259920854
2100000000.0 -0.3008123237395832 -0.303926185009962
2120000000.0 -0.4082418468719981 -0.056568598754105026
2140000000.0 -0.39060868113293734 -0.054250853489256026
2160000000.0 0.32571471304193345 -0.19897984365965732
2180000000.0 0.21101618487837615 -0.30628732344492177
2200000000.0 -0.05540237730903482 -0.358252828578349
2220000000.0 -0.3240673096991167 -0.145522630957958
2240000000.0 -0.30101993765885854 0.17843637751315009
2260000000.0 -0.013565858223142577 0.3501622929684064
2280000000.0 0.3284616039983355 0.12585631270956807
2300000000.0 0.313721686608571 -0.17673019549765995
2320000000.0 0.09104301369831268 -0.3736519368077891
2340000000.0 -0.3898524366992463 -0.14701182280865385
2360000000.0 -0.011905792672223787 0.458116733334038
2380000000.0 0.11419222798355437 -0.49721677656094493
2400000000.0 0.15613305774558753 0.5415196276129386
2420000000.0 -0.5290730701634081 -0.31349259246985484
2440000000.0 0.6269642519645482 -0.21258461287701697
2460000000.0 -0.317804074076395 0.6249295758960366
2480000000.0 -0.14501726574622345 -0.7170088085949321
2500000000.0 0.20841682568145875 0.7211619809946617
2520000000.0 -0.1830191447670924 -0.7389311023069488
2540000000.0 -0.10160970386793543 0.756586272350218
2560000000.0 0.599451767819321 -0.46471097291147817
2580000000.0 -0.7243875965211342 -0.17134367546618662
2600000000.0 0.298784771200712 0.6564931025256076
2620000000.0 0.2923575626238224 -0.6285714503364999
2640000000.0 -0.1607325797747814 -0.6368121895645391
2660000000.0 -0.3345776076317845 0.5140217058122096
2680000000.0 0.5473502743092294 -0.1453930606013479
2700000000.0 -0.44483240399821605 -0.26627429598749686
2720000000.0 0.2995004777121254 0.362997758716061
2740000000.0 -0.03160667010725493 -0.42015083293323413
2760000000.0 -0.3053342322990063 0.22929249019806056
2780000000.0 0.32067259462270414 -0.1384439445325137
2800000000.0 -0.28772582631607474 0.1497728110098536
2820000000.0 0.2348520403270674 -0.1984608192023331
2840000000.0 0.1673911741245787 0.24957777153721436
2860000000.0 -0.1916444538571039 0.22090245157470173
2880000000.0 -0.13575768145072073 -0.2527853121000146
2900000000.0 -0.09096706401726276 0.2686674558646959
2920000000.0 0.24384501861415855 0.1557234430687886
2940000000.0 0.1531882908138061 -0.2600499977542688
2960000000.0 -0.2844024682994762 -0.12587828839599205
2980000000.0 -0.2174452422136972 0.22875822115867855
3000000000.0 -0.3101754596580157 0.06712834427463502
3020000000.0 -0.26107000641547357 -0.18421200009465954
3040000000.0 -0.021106639562352817 -0.316552362353011
3060000000.0 0.3010166008004935 0.07379620439906705
3080000000.0 -0.2924928527068142 -0.05811597563690352
3100000000.0 0.19283810724383138 0.21538146234811953
3120000000.0 -0.018886400682729933 -0.2819934451711069
3140000000.0 0.014241311384489325 0.2746855735608432
3160000000.0 -0.04618764081896774 -0.25980739329488395
3180000000.0 -0.16629749665375265 0.18842240971590055
3200000000.0 -0.23109735569494183 -0.012913354557957352
3220000000.0 -0.19142964781580152 -0.07216968744905716
3240000000.0 -0.05537963557550324 -0.16359435334487352
3260000000.0 0.00919897886316649 -0.13618098419337926
3280000000.0 -0.07655546400025398 0.06259850702292452
3300000000.0 0.03529432992724036 0.0596603215846695
3320000000.0 0.03774187450881435 -0.014601968553608598
3340000000.0 -0.020827077861105384 0.011470667334504685
3360000000.0 0.004301746220345359 0.010451343284990323
3380000000.0 -0.0003251765805626399 -0.0033319786064703737
3400000000.0 -0.00047087741016418893 0.014646400427874798
3420000000.0 0.008051728509933995 0.03208651939337009
3440000000.0 0.03498086985899001 0.03357519167581941
3460000000.0 -0.05536929164658296 0.02794089658629606
3480000000.0 0.07171590779854521 0.0070334531302249995
3500000000.0 0.012133609695459891 -0.08640876855894336
3520000000.0 0.10050419176430941 0.001993855246538627
3540000000.0 -0.10620598035378871 0.03820049275971388
3560000000.0 0.06690456552703405 -0.10099146750790998
3580000000.0 -0.1010057599983236 -0.08589666833780561
3600000000.0 0.14063702494292513 0.04869034064305535
3620000000.0 -0.12459317431872623 0.10675015535950046
3640000000.0 -0.13425136778956293 0.12139058412869212
3660000000.0 -0.18764301058346974 -0.01834371420704444
3680000000.0 -0.1942377428115151 0.01655963076262568
3700000000.0 -0.13942687126886683 0.1353868797333356
3720000000.0 -0.19080093886407878 0.0032390592382183854
3740000000.0 0.06041647790410635 -0.17071426839610554
3760000000.0 -0.13092537806167043 -0.12019251837552626
3780000000.0 0.02597357306901202 0.17229212776736066
3800000000.0 -0.09743105699359969 -0.1393077116062759
3820000000.0 -0.03008758850104597 0.1588388659387889
3840000000.0 0.0021373545188209755 0.14982878224387228
3860000000.0 -0.14533073109472971 0.007861299445824033
3880000000.0 0.07995298954466566 -0.12091665691225326
3900000000.0 0.024319400620565392 0.14862501876570872
3920000000.0 0.1625112312597389 0.006345302227552074
3940000000.0 -0.023082000511034064 0.17183059347320706
3960000000.0 0.14244769595541398 0.11068956160372734
3980000000.0 0.04886799533519762 -0.1701952635730468
4000000000.0 -0.09182762621870032 -0.13831393719737353
