!Created with skrf (http://scikit-rf.org).
# Hz S RI R 50.0 
!freq ReS11 ImS11
400000000.0 0.8267267240420201 0.2568640173958105
420000000.0 0.7683033035293951 -0.3388464074707626
440000000.0 0.7831901960067292 -0.11570825665671956
460000000.0 0.7111079487753619 0.22174500266861177
480000000.0 0.03045943155309515 -0.6905421842802358
500000000.0 0.28959167405559616 0.535338846918206
520000000.0 0.3307479259160975 -0.38806744527718895
540000000.0 -0.3703400853999553 0.21991159807871508
560000000.0 0.15560615191566596 0.3513185746142787
580000000.0 -0.23442232710269975 -0.2588564159405808
600000000.0 0.3024250319735924 0.16832055931871193
620000000.0 0.31141949054521645 -0.16235079456782675
640000000.0 0.33640354820678153 0.2431854191124471
660000000.0 -0.38995528509527627 0.1873627686339482
680000000.0 -0.029712155318407728 0.46728522063835043
700000000.0 -0.4144166749861363 -0.19577479090837985
720000000.0 0.18416052988156276 0.40753859273916754
740000000.0 -0.3548774701206562 0.2008578901070694
760000000.0 0.3077065774063357 -0.2535767074153647
780000000.0 0.2668350080452346 -0.28192665547412443
800000000.0 -0.2698105685582325 0.223643791058821
820000000.0 0.26921462299076465 -0.108395907804575
840000000.0 0.21032593671544655 -0.01077486422532447
860000000.0 -0.0963734592211425 0.1268401147276154
880000000.0 -0.13088892086719942 0.022502590483589536
900000000.0 -0.0939347969028394 0.01507297802371422
920000000.0 -0.02154613976567107 -0.04979216539652055
940000000.0 -0.009074027193893037 -0.03477303306674649
960000000.0 0.03275380497417727 -0.01803163327271205
980000000.0 0.06252929121017699 0.021827210622485372
1000000000.0 -0.03667166890715621 0.09610840791198348
1020000000.0 0.10905527147485444 0.07321678993928372
1040000000.0 0.1404925246758167 -0.017131514320201956
1060000000.0 -0.15763192294409278 -0.036210261199621056
1080000000.0 0.16193656511314608 0.07170261874618557
1100000000.0 -0.08494397187968955 -0.18234574100512801
1120000000.0 0.1976568503866247 0.11237930372165598
1140000000.0 -0.23956392338239046 -0.08426393463243861
1160000000.0 -0.22236624650714745 0.17574321321036537
1180000000.0 -0.31115754831579706 0.023885478445881826
1200000000.0 0.32660372830498774 -0.10681841084334942
1220000000.0 -0.29640039136627294 0.2271819113334447
1240000000.0 0.3386704759844903 -0.20302609076437772
1260000000.0 -0.325752760784802 -0.24547489966185113
1280000000.0 -0.3080265292920555 0.2921813567517656
1300000000.0 0.2575723841663183 0.3490698661203463
1320000000.0 0.43563515761387067 0.058960197743854366
1340000000.0 0.3446676349956113 -0.27987628069726633
1360000000.0 0.12608143803922336 -0.4228018885982713
1380000000.0 -0.2094247572456496 -0.3741349023159052
1400000000.0 -0.33151566720109316 -0.2542925812897299
1420000000.0 -0.26137386968326554 0.3041426589621068
1440000000.0 0.21077789741140737 0.3131298501154923
1460000000.0 0.2991062824581531 -0.1855459524583416
1480000000.0 -0.2720533065597876 0.1731318034710709
1500000000.0 0.2793137609854248 0.05274742854824041
1520000000.0 0.18434274552836047 0.16459640644849544
1540000000.0 -0.03337798115045172 -0.2152347454018799
1560000000.0 0.060387714387349925 0.17929418421324225
1580000000.0 -0.09316490833495389 0.1348597050138285
1600000000.0 -0.07297689755831942 0.10987574219558102
1620000000.0 -0.07289982633168296 0.07355788246329381
1640000000.0 -0.08236864902637679 -0.007279677528870622
1660000000.0 0.012586726585387262 0.06627651820055842
1680000000.0 -0.02201863140442363 0.03745715423327931
1700000000.0 -0.0031732057299485032 -0.02115083440825593
1720000000.0 -0.002889003329543173 0.004608270307552851
1740000000.0 0.013452990588130598 0.007471042732071686
1760000000.0 0.006631279146344856 -0.031110714119321054
1780000000.0 -0.0108988821327134 -0.05118011557559441
1800000000.0 0.03871660910887795 0.07950915596277504
1820000000.0 0.12494140226207107 -0.0013880458906972795
1840000000.0 -0.13191648279924917 0.10622073339733674
1860000000.0 -0.1298452782330207 0.16312478415686052
1880000000.0 0.13192335046213657 -0.2088713667734153
1900000000.0 -0.049130863415315994 0.284595015254921
1920000000.0 -0.15862739908569592 -0.2807600140231366
1940000000.0 -0.11282294055933471 0.32324573660235517
1960000000.0 0.153048975407836 0.33110860139685866
1980000000.0 0.3804478600161647 0.1068983618990227
2000000000.0 -0.08595365393141359 -0.4085467611415834
2020000000.0 -0.42910988027125385 -0.016177973789573665
2040000000.0 -0.13078893058119376 0.41962951453848546
2060000000.0 0.41492926217159154 0.15173677742926853
2080000000.0 0.17413309824448386 -0.40040921006348534
2100000000.0 -0.3128077556650605 -0.290467618003899
2120000000.0 -0.40789660022269886 -0.05435884973923864
2140000000.0 -0.3840107127376216 -0.08721878041550893
2160000000.0 0.338496020106704 -0.17585821514433095
2180000000.0 0.22505921111249994 -0.2962869176025577
2200000000.0 -0.08784711999257729 -0.3514326627531878
2220000000.0 -0.3461127086833588 -0.07713164260320368
2240000000.0 -0.31089912598155356 0.15959289007745128
2260000000.0 -0.012041372606439444 0.349794150095406
2280000000.0 0.327422406764696 0.12832163026873306
2300000000.0 0.3167511673416744 -0.17132229941869276
2320000000.0 0.10280085231888383 -0.3707773335668153
2340000000.0 -0.3820885195103643 -0.16568890532189992
2360000000.0 -0.03260082727765273 0.45658223207696563
2380000000.0 0.10464480428619634 -0.49912576992250035
2400000000.0 0.1352730457843964 0.5469633985018101
2420000000.0 -0.5092430941635481 -0.34477345328532905
2440000000.0 0.6353191109600194 -0.18597651487029987
2460000000.0 -0.35075022650294896 0.6070382804487815
2480000000.0 -0.12352329908844141 -0.7210138254766869
2500000000.0 0.23666759230135453 0.7123221391888781
2520000000.0 -0.10847872740646525 -0.7535108126297921
2540000000.0 -0.19673917785266576 0.7376127269262556
2560000000.0 0.6139639955657347 -0.4452300192035219
2580000000.0 -0.7011469625846463 -0.24989338283152893
2600000000.0 0.24874215376245443 0.6767708555987975
2620000000.0 0.3253022497901987 -0.6117465026239797
2640000000.0 -0.09384571523001191 -0.6498371827464503
2660000000.0 -0.34768778877753165 0.5050112664167867
2680000000.0 0.5426052227079393 -0.16228556714914205
2700000000.0 -0.44137937471580885 -0.27207994048379025
2720000000.0 0.3017798056079655 0.36126028761170836
2740000000.0 -0.03843716552741628 -0.41979001568829116
2760000000.0 -0.3037571767184973 0.2315686525876608
2780000000.0 0.31616088976367457 -0.1489483194313568
2800000000.0 -0.28234489907836047 0.16024382059901726
2820000000.0 0.23259557276616846 -0.20159528363417312
2840000000.0 0.16326461202333722 0.2528289503708775
2860000000.0 -0.21518318184339955 0.19932566786257627
2880000000.0 -0.12269998355753269 -0.25962298394930455
2900000000.0 -0.11909278354253637 0.25792941789402857
2920000000.0 0.2180134853694148 0.19092100089170724
2940000000.0 0.18233863000628459 -0.24042442529507413
2960000000.0 -0.27148466408959604 -0.1517086397319001
2980000000.0 -0.23110848682332646 0.2147825968179725
3000000000.0 -0.31285274787210016 0.047783118718528216
3020000000.0 -0.23515743559472047 -0.2157320380763092
3040000000.0 0.06198259229107991 -0.31054067071903746
3060000000.0 0.3064416624562496 0.04300691274133599
3080000000.0 -0.29406691050209693 -0.04601420167690312
3100000000.0 0.19481047271113275 0.21296456597634114
3120000000.0 -0.05396035207236726 -0.2772241955054706
3140000000.0 0.04860656108500426 0.270152561004955
3160000000.0 -0.08518188626180699 -0.24982201628162967
3180000000.0 -0.11911677217392634 0.22154851557513314
3200000000.0 -0.23058546295142235 0.02170774546010092
3220000000.0 -0.20257167345264343 -0.0294205462902472
3240000000.0 -0.07037971103672834 -0.15821433566137377
3260000000.0 0.013985232223523535 -0.1363356797717296
3280000000.0 -0.051207939585393984 0.08511999108768331
3300000000.0 0.012034686841637823 0.06870832549922866
3320000000.0 0.037452645618811786 -0.01618363676378683
3340000000.0 -0.007133158915854636 0.022973915567183707
3360000000.0 0.011959730526460911 0.0016355442180692726
3380000000.0 -0.0008455756757446615 -0.0035016330012623085
3400000000.0 0.00287932775279785 0.01394306497918349
3420000000.0 0.013378491169265214 0.02987938966189758
3440000000.0 0.02961365226286291 0.037806148482708433
3460000000.0 -0.05448432810063539 0.028711182409210573
3480000000.0 0.06520816144538416 -0.030248975276904583
3500000000.0 0.0444061267090758 -0.07415413875300002
3520000000.0 0.0998362958796293 -0.010094703025434582
3540000000.0 -0.11089147693872557 0.015441332161169653
3560000000.0 0.05645380302893209 -0.10657335848075018
3580000000.0 -0.11416140504731986 -0.06718750121102199
3600000000.0 0.146969869605881 0.02088913824738182
3620000000.0 -0.10260307008758555 0.12790066918268098
3640000000.0 -0.13389963157032497 0.1208004702102406
3660000000.0 -0.18852392011618246 -0.006520506007464722
3680000000.0 -0.19269617633959057 0.03154297475240247
3700000000.0 -0.13167465519939897 0.1429822726643659
3720000000.0 -0.1896552012736439 0.018926603559780607
3740000000.0 0.0448333277290473 -0.17582198867249374
3760000000.0 -0.14102452010550567 -0.1083210058691815
3780000000.0 0.03743644885582769 0.17065992880386244
3800000000.0 -0.11311638496987553 -0.12729596714740207
3820000000.0 -0.006503906143219428 0.1617919317576443
3840000000.0 0.006205366851441663 0.14987858805489082
3860000000.0 -0.14086442473914118 0.03737544812200442
3880000000.0 0.08262126256429855 -0.11979714522195829
3900000000.0 0.01752840349859278 0.15032738693614026
3920000000.0 0.16314918001067882 -0.004684363445682236
3940000000.0 0.005695053477174779 0.17371959824269093
3960000000.0 0.15745145194173296 0.08865701195045161
3980000000.0 0.01401823386565688 -0.17691260057049535
4000000000.0 -0.13476507618653108 -0.09800043913686404
