!Created with skrf (http://scikit-rf.org).
# Hz S RI R 50.0 
!freq ReS11 ImS11
400000000.0 0.826162039672248 0.2612874864555893
420000000.0 0.7704354012700654 -0.33405440252516533
440000000.0 0.7775085048144647 -0.14876969593982287
460000000.0 0.7140295879726254 0.21132948247229755
480000000.0 0.06388339879778826 -0.6884824414241528
500000000.0 0.2768042695492988 0.5421483547111378
520000000.0 0.33180742175302846 -0.38696042804992864
540000000.0 -0.3715845543922953 0.21728584909850057
560000000.0 0.15839991412865645 0.35006361861128393
580000000.0 -0.20738327888575833 -0.28099491372760427
600000000.0 0.3014660006101405 0.17017572540042963
620000000.0 0.3068232846058706 -0.1716244461009966
640000000.0 0.33635568266765414 0.24441176232276782
660000000.0 -0.3717295146178302 0.22179939515285169
680000000.0 -0.02145546139525659 0.46787647348236383
700000000.0 -0.40052777794902367 -0.22253138551746382
720000000.0 0.1867623370510223 0.40645704795808857
740000000.0 -0.372244378726542 0.16724331476555643
760000000.0 0.3128407503079598 -0.2472874017435573
780000000.0 0.25690855836093357 -0.2906830716993783
800000000.0 -0.26439692314679436 0.22984298597398833
820000000.0 0.26397673391754806 -0.12044570873341154
840000000.0 0.21029837434829446 0.007192204658847408
860000000.0 -0.11099027095402011 0.11426252093812966
880000000.0 -0.131598973872664 0.018248752631113828
900000000.0 -0.093578825441877 0.018129020294791836
920000000.0 -0.030789278107346323 -0.044647672543256016
940000000.0 -0.009072544540693827 -0.0349517131744814
960000000.0 0.034601380609327506 0.01379821501411197
980000000.0 0.04733338446190074 0.04566058669780443
1000000000.0 -0.040083505693016004 0.09428741794123331
1020000000.0 0.11807654776269888 0.056861674205517396
1040000000.0 0.1354178820656369 -0.04146248502704501
1060000000.0 -0.16140533733406548 -0.012505210923214048
1080000000.0 0.16291289326650735 0.07021818763125563
1100000000.0 -0.06729446305310188 -0.1898817280982018
1120000000.0 0.18487371938324632 0.13293840853093453
1140000000.0 -0.22974397823535392 -0.10882763810161178
1160000000.0 -0.2297534364475899 0.16659347105724526
1180000000.0 -0.31214227701265773 0.0017166494257729314
1200000000.0 0.33237025069283127 -0.08702897226154879
1220000000.0 -0.3131762713067388 0.20311517030009948
1240000000.0 0.3468353888206547 -0.18853597676162845
1260000000.0 -0.32774541243559907 -0.24253082014968513
1280000000.0 -0.3091511421967651 0.2907130381661097
1300000000.0 0.26750810798791097 0.34129898076796117
1320000000.0 0.436326277831035 0.05100490457352934
1340000000.0 0.3409481187144546 -0.2841465175526382
1360000000.0 0.10899453220766069 -0.4272802406557608
1380000000.0 -0.22702344989722884 -0.3636156049187509
1400000000.0 -0.3331386682437484 -0.2524870785490517
1420000000.0 -0.24977785814458056 0.3140309681711207
1440000000.0 0.22224891692632942 0.30557206090586964
1460000000.0 0.2932609115463912 -0.1954141200563344
1480000000.0 -0.2733521390175821 0.17156587783953836
1500000000.0 0.2796322642862187 0.051624720419272956
1520000000.0 0.17074875476817727 0.17885560358925442
1540000000.0 -0.01930810629327642 -0.21715763265114757
1560000000.0 0.041015477250270355 0.1850152006255079
1580000000.0 -0.11141651466458259 0.1204327099026174
1600000000.0 -0.0879276979591004 0.09843379593225546
1620000000.0 -0.08426247963596743 0.05998438965999943
1640000000.0 -0.08017852881914576 -0.01946974538265943
1660000000.0 0.008821466988459904 0.0665058229826972
1680000000.0 -0.02009190450613147 0.03788598744922792
1700000000.0 -0.021128939114761523 0.003041253717043427
1720000000.0 -0.003987786170664816 0.0032066815048978343
1740000000.0 0.013934833684167577 -0.007174868780865777
1760000000.0 0.024572224724110192 -0.01942374263919654
1780000000.0 0.0007332442490028452 -0.05215991511007534
1800000000.0 0.035549888646928623 0.08110851367048633
1820000000.0 0.1247858084537578 0.004089494179020243
1840000000.0 -0.13626556246319355 0.10031813428424034
1860000000.0 -0.12970105372364213 0.16317001003594736
1880000000.0 0.12469143500819324 -0.21316872571129572
1900000000.0 -0.04123552810190024 0.28580489530625064
1920000000.0 -0.16912811474756134 -0.27467681462551413
1940000000.0 -0.10519675921993653 0.32594493440674144
1960000000.0 0.1568955620429292 0.32955672211104414
1980000000.0 0.3804575808759731 0.10779561206701949
2000000000.0 -0.08525419009978054 -0.40886867828549717
2020000000.0 -0.4294770475837087 -0.011578235518346221
2040000000.0 -0.14718649715652632 0.41485147241606596
2060000000.0 0.4025487892578549 0.18367690437066655
2080000000.0 0.21685499505682732 -0.379625231694785
2100000000.0 -0.283447692972836 -0.31977188950492597
2120000000.0 -0.40064857753977695 -0.09558010888959302
2140000000.0 -0.3881848348381535 -0.06720884351456803
2160000000.0 0.3515542570975636 -0.14894974240306466
2180000000.0 0.2276897562230756 -0.29450284931774023
2200000000.0 -0.06475422434963643 -0.3565471853702739
2220000000.0 -0.3303485681287398 -0.12982341220993995
2240000000.0 -0.3098283889650986 0.16155461018882286
2260000000.0 -0.033985931946500535 0.3482202370076645
2280000000.0 0.30862599560621495 0.16748370352465308
2300000000.0 0.3319265208172802 -0.13886927144080227
2320000000.0 0.11929490566583396 -0.36552813018788727
2340000000.0 -0.38295427074534893 -0.16368703311072533
2360000000.0 -0.01648895880985533 0.4576193712263146
2380000000.0 0.10629845664182001 -0.4988279553655705
2400000000.0 0.13819916068958393 0.5462436169243229
2420000000.0 -0.5221806936268106 -0.32490383777099086
2440000000.0 0.6337549806390269 -0.19211798980341468
2460000000.0 -0.34159144182589035 0.6127698512040635
2480000000.0 -0.13712489702719724 -0.7189717240556166
2500000000.0 0.14232387062735216 0.7380248443688474
2520000000.0 -0.04782350391333204 -0.7605367951509343
2540000000.0 -0.179627889614442 0.7424732759500035
2560000000.0 0.6349596404626541 -0.4154725849150592
2580000000.0 -0.7066832460144898 -0.2350862909582027
2600000000.0 0.21648191929608745 0.6881506572180196
2620000000.0 0.37274228950412674 -0.58426394834354
2640000000.0 -0.09077553587547132 -0.6502508044361128
2660000000.0 -0.3789057763135265 0.4818422707194711
2680000000.0 0.5559650436548024 -0.10591398704751477
2700000000.0 -0.4312050562126263 -0.2872646675524943
2720000000.0 0.30236052893816645 0.3603051581990999
2740000000.0 -0.04074872669112475 -0.4191526540378747
2760000000.0 -0.2947964734077696 0.24237922347390764
2780000000.0 0.3075245753098461 -0.16578142177845487
2800000000.0 -0.2719500214522808 0.1770443850016778
2820000000.0 0.21791939760604442 -0.21724705686984697
2840000000.0 0.18100596144484887 0.24040557162734416
2860000000.0 -0.20627106494779268 0.2088553382322651
2880000000.0 -0.13249734275097627 -0.2551396962454364
2900000000.0 -0.10641084446003056 0.26380160070692465
2920000000.0 0.22319235361259496 0.18543082196344146
2940000000.0 0.17091655500468508 -0.24940147981784
2960000000.0 -0.26001443984993067 -0.1712113294678666
2980000000.0 -0.23263056882407265 0.21237400140493767
3000000000.0 -0.3169552330812223 0.013384847623098165
3020000000.0 -0.23629334756733436 -0.21448926806984378
3040000000.0 0.06063335958202225 -0.3108872710185796
3060000000.0 0.2854690872571434 0.11883411709894605
3080000000.0 -0.2870583519258521 -0.07865422452262176
3100000000.0 0.17895412610572703 0.2263729704173084
3120000000.0 -0.039133953894034026 -0.27964930973814095
3140000000.0 0.02154415538342705 0.2733188379152074
3160000000.0 -0.05625013874584617 -0.25735956472745514
3180000000.0 -0.11557475786777434 0.22326027925381206
3200000000.0 -0.23121626587419414 0.006422826154194239
3220000000.0 -0.20142455701186224 -0.036788054910572125
3240000000.0 -0.07386364078527585 -0.15625179599420952
3260000000.0 0.004209435999456242 -0.13666789344006233
3280000000.0 -0.05072126550260786 0.08504885512765512
3300000000.0 0.025300880691641058 0.06480009479255494
3320000000.0 0.03529173176536914 -0.020341068749369026
3340000000.0 0.00951714007348072 0.021945915823043994
3360000000.0 0.00031031371745813874 -0.011668674328994415
3380000000.0 -0.000805431872533585 0.003144387346256934
3400000000.0 -0.013720076935600073 0.0047093751125333325
3420000000.0 0.012005984588637737 0.03071135464918179
3440000000.0 0.013770410765888566 0.046172021942413634
3460000000.0 -0.06145865355876631 0.0066426840575736935
3480000000.0 0.07119579784843717 -0.011471867094432552
3500000000.0 0.060275753405392575 -0.06225393537999565
3520000000.0 0.10020037291617882 0.0065093177582669064
3540000000.0 -0.111325650646932 -0.012170854439522856
3560000000.0 0.08021087731237206 -0.09031710478538135
3580000000.0 -0.09879716257919721 -0.0885807600474285
3600000000.0 0.145122041781731 0.03310732245824279
3620000000.0 -0.13326351325845573 0.09485717794868696
3640000000.0 -0.14890172245720115 0.10163674924656207
3660000000.0 -0.1858556771239152 -0.03268933759135987
3680000000.0 -0.19474131946555712 0.005051297346605339
3700000000.0 -0.1518621327689333 0.12078094366865655
3720000000.0 -0.18996541551874904 -0.00936432925170368
3740000000.0 0.059560226947496756 -0.1708736376522462
3760000000.0 -0.12680746626152542 -0.12386772983065454
3780000000.0 0.029070208784615484 0.17136422867229945
3800000000.0 -0.10137147191986985 -0.1357170968018094
3820000000.0 -0.007741668855864219 0.16092555747584145
3840000000.0 -0.006753783275639928 0.14943202166304867
3860000000.0 -0.14117095658180248 0.03342832669172232
3880000000.0 0.06735583396148184 -0.12803387268402897
3900000000.0 0.036411687818538936 0.14546372245117553
3920000000.0 0.1603518938004314 -0.024345117978676563
3940000000.0 0.020591538269537506 0.17146632593716515
3960000000.0 0.17025680139557461 0.05727016747296341
3980000000.0 -0.004450651717044316 -0.176792149418429
4000000000.0 -0.13847606183116834 -0.09182691143827564
