!Created with skrf (http://scikit-rf.org).
# Hz S RI R 50.0 
!freq ReS11 ImS11
400000000.0 0.8139502700993929 0.29705067388248135
420000000.0 0.7708837293718209 -0.332160453476902
440000000.0 0.7794338302113777 -0.13752880457813949
460000000.0 0.7145073222584797 0.21033238092979933
480000000.0 0.045056692218592695 -0.6901606863161677
500000000.0 0.2868845705844434 0.5369438307869003
520000000.0 0.330543977853532 -0.3879809520802114
540000000.0 -0.37953297828835547 0.20288848020044728
560000000.0 0.15654095719739058 0.35064298634281593
580000000.0 -0.22510480654435233 -0.2666453006881794
600000000.0 0.30170827571105663 0.1700283189449375
620000000.0 0.322765319602427 -0.13881796542015626
640000000.0 0.3342037531545144 0.2471483668047345
660000000.0 -0.38512119163293995 0.19845374672105145
680000000.0 -0.010846482916514221 0.4679511526855659
700000000.0 -0.40546138522239 -0.21286530247935126
720000000.0 0.12415177349865492 0.42970519707917887
740000000.0 -0.37519627786643756 0.16093554159581047
760000000.0 0.3088294744437745 -0.2526290706366232
780000000.0 0.24936981563932223 -0.29730433539543616
800000000.0 -0.24939607742804737 0.24569483455054408
820000000.0 0.2557019335069709 -0.13583280696144756
840000000.0 0.2096954719737468 0.0014645225959417044
860000000.0 -0.1329979175687612 0.08747901230148276
880000000.0 -0.13303030348109504 -0.0001681994450693508
900000000.0 -0.08797758539798924 0.03601233549165155
920000000.0 -0.0429881987849278 -0.03238422869486245
940000000.0 -0.03413718240413803 -0.010109003283486838
960000000.0 0.037394012863735414 -0.0015867227711268241
980000000.0 0.03912777899041869 0.053365049247112724
1000000000.0 -0.05040297519472373 0.08956793148508489
1020000000.0 0.11797119126214503 0.0579651260695186
1040000000.0 0.1346207819874995 -0.043455042808779036
1060000000.0 -0.16116396077047526 0.008808879716441358
1080000000.0 0.16524757837114884 0.06269041769202949
1100000000.0 -0.099406758825342 -0.17534749355819704
1120000000.0 0.17082769853131288 0.1510600607422366
1140000000.0 -0.23024077219062258 -0.10895477876349934
1160000000.0 -0.23106303079700824 0.16475213776669329
1180000000.0 -0.31223926097349897 -0.004780758421972904
1200000000.0 0.33889537826794175 -0.05423984095490907
1220000000.0 -0.31972243430142966 0.19163319184325145
1240000000.0 0.361626739937741 -0.15792203753412923
1260000000.0 -0.31427218116333433 -0.25977879291419087
1280000000.0 -0.3188174701303358 0.2807070029005561
1300000000.0 0.28396872141038026 0.3277495749612072
1320000000.0 0.43649321822216647 0.05000890747873524
1340000000.0 0.3377810290331279 -0.2872962907020728
1360000000.0 0.11991155113173686 -0.42427442670942705
1380000000.0 -0.2179368184913831 -0.3690663819825559
1400000000.0 -0.33289226797497445 -0.25282645710824764
1420000000.0 -0.2578234847825631 0.3080168790302588
1440000000.0 0.24243737886016614 0.2894846845460278
1460000000.0 0.2654601715128933 -0.2314876680109004
1480000000.0 -0.26832492287613563 0.17813813872663806
1500000000.0 0.2799129431865698 0.047793326024846934
1520000000.0 0.15035566559750127 0.1964278231315469
1540000000.0 -0.0014739240239162242 -0.2181885720858175
1560000000.0 0.049549190711227285 0.1832916600207701
1580000000.0 -0.11468066993788797 0.11706975442917296
1600000000.0 -0.026335033612890846 0.12925623861494484
1620000000.0 -0.047081577363207144 0.0923328291088555
1640000000.0 -0.08042911629914759 0.017660862195872633
1660000000.0 -0.0015815915436037354 0.06696843584310423
1680000000.0 0.016064538726005606 0.040367573830183655
1700000000.0 -0.01710333594260947 -0.013456406034168514
1720000000.0 -0.005962005889508035 -0.00010247399511003994
1740000000.0 -0.015073887835772314 -2.1486472030315203e-05
1760000000.0 -0.018191356076810546 -0.02571157547697005
1780000000.0 -0.007699205553264369 -0.051591606052177066
1800000000.0 0.05786379963204225 0.06750122772615039
1820000000.0 0.12554498136418832 0.004204204884608624
1840000000.0 -0.13489145387294765 0.10406373648040085
1860000000.0 -0.13857522344329612 0.15670655416609433
1880000000.0 0.14213252805619803 -0.20250675394244425
1900000000.0 -0.06056828936394177 0.28267134754574746
1920000000.0 -0.14282278222115224 -0.28917033870941605
1940000000.0 -0.1436872102898611 0.31090525665963725
1960000000.0 0.12281624250507632 0.34321411427221254
1980000000.0 0.3740906617988123 0.12614866119049653
2000000000.0 -0.06338113075174638 -0.41203833957623004
2020000000.0 -0.4292291501447226 -0.0054924363128541695
2040000000.0 -0.1639947477793004 0.4076149270040876
2060000000.0 0.42821770441069257 0.10688654231558378
2080000000.0 0.09295705763384003 -0.42629898056542465
2100000000.0 -0.3226941165707471 -0.2793798778939043
2120000000.0 -0.40929514848820986 -0.04570219420516664
2140000000.0 -0.3930587030414425 -0.024775668476237266
2160000000.0 0.32149007542938407 -0.20674149971385955
2180000000.0 0.1638060610553352 -0.33601732849138904
2200000000.0 -0.10045951266547663 -0.349981569862236
2220000000.0 -0.331549609441625 -0.13053510579050037
2240000000.0 -0.30397581363407666 0.17489933783104636
2260000000.0 -0.040185047817724875 0.34811036004434
2280000000.0 0.2941372966947223 0.19224995346754978
2300000000.0 0.3499160179785529 -0.08685233624595018
2320000000.0 0.14254974929578632 -0.3576932542409762
2340000000.0 -0.3692019443837584 -0.19310291604356575
2360000000.0 -0.06951900790586821 0.45198210796508725
2380000000.0 0.1534313628341644 -0.48571889358456405
2400000000.0 0.10501789618792305 0.553024356450831
2420000000.0 -0.4933991482315731 -0.3667939743436718
2440000000.0 0.6458349833224876 -0.1452615879738564
2460000000.0 -0.35433439449205006 0.6053135326082398
2480000000.0 -0.1110786595607739 -0.7234857177039412
2500000000.0 0.17179130479915675 0.7319563975956058
2520000000.0 -0.11209291858847922 -0.7544314983691371
2540000000.0 -0.2036137113508238 0.736912049032988
2560000000.0 0.627525377910825 -0.4276904830708203
2580000000.0 -0.7070724057708332 -0.23455736203521863
2600000000.0 0.2366580624524804 0.6821224033923295
2620000000.0 0.38484900902128644 -0.5764198798050522
2640000000.0 -0.04111780072600283 -0.6555967132954525
2660000000.0 -0.3976049966349313 0.46765037901276807
2680000000.0 0.557185632095907 -0.10484397393995039
2700000000.0 -0.4419700986931409 -0.2715108762703526
2720000000.0 0.3028518967498299 0.36077502987385984
2740000000.0 -0.04082370260663899 -0.41957453053009136
2760000000.0 -0.3022081468468261 0.2336545939854729
2780000000.0 0.30748787625881685 -0.16633479912907476
2800000000.0 -0.27991787653599953 0.16522091650158505
2820000000.0 0.23981316684839918 -0.19411635597268745
2840000000.0 0.13662868842016992 0.26849491301699313
2860000000.0 -0.21541157867681418 0.1989647102714608
2880000000.0 -0.0880500622049629 -0.27331611138441403
2900000000.0 -0.12258759557042671 0.25627345896869486
2920000000.0 0.23506469273434974 0.16958322587577437
2940000000.0 0.19497607979614645 -0.23038041467496742
2960000000.0 -0.2705564124134477 -0.15340830355011584
2980000000.0 -0.2316492029366301 0.2133930742147004
3000000000.0 -0.3073785236369979 0.07202106490028704
3020000000.0 -0.2655832511392748 -0.1757588528254291
3040000000.0 0.030739005230664238 -0.3151080560383956
3060000000.0 0.2985672428430432 0.08175564846909578
3080000000.0 -0.2946328883134236 -0.04418068202314133
3100000000.0 0.16792894806128447 0.23477387313315273
3120000000.0 -0.02678171061568334 -0.2812942295799601
3140000000.0 0.004880965471749028 0.274506373652735
3160000000.0 -0.0623584848097146 -0.2568047075801435
3180000000.0 -0.08346958291989018 0.237631845984352
3200000000.0 -0.23075389985152897 0.02561714277317613
3220000000.0 -0.20124900160132508 -0.03914555265023879
3240000000.0 -0.07770265148166625 -0.15540119571748834
3260000000.0 0.040362963539551905 -0.13166334606959343
3280000000.0 -0.08389206099356086 0.054755216222566155
3300000000.0 -0.004471977544079941 0.07050648336930268
3320000000.0 0.036813615607184796 0.01812722905099871
3340000000.0 -0.012362940840933445 0.021504734157869063
3360000000.0 0.011265496898370194 -0.004647233572915787
3380000000.0 -0.0027207682635780515 -0.0021323497183317543
3400000000.0 -0.013587208910129852 0.0024412602154931943
3420000000.0 0.026076622644623612 0.02040800321764238
3440000000.0 0.04470260366495965 0.01826252947158248
3460000000.0 -0.05002631722579642 0.03583542182015376
3480000000.0 0.07133557275335901 0.005905717896760848
3500000000.0 0.01837200651781229 -0.08485229355099978
3520000000.0 0.09821105438573993 -0.0220874536691116
3540000000.0 -0.10440641410625155 0.041764077767941554
3560000000.0 0.04953558877663712 -0.11074757438743435
3580000000.0 -0.1194959536236757 -0.05971036206432426
3600000000.0 0.147621845304966 -0.022484548147750638
3620000000.0 -0.10867593778867927 0.12282034823208128
3640000000.0 -0.14115908166757243 0.11321458223644681
3660000000.0 -0.18681838508050527 -0.029619833695801373
3680000000.0 -0.19496863980012952 -0.012123440699201767
3700000000.0 -0.17321892876916417 0.08979111666961771
3720000000.0 -0.17748485798272043 -0.0701257574691734
3740000000.0 0.11415583018616869 -0.14119768725713694
3760000000.0 -0.10200860254361076 -0.1454241973958378
3780000000.0 -0.016505636828797923 0.17402438963194128
3800000000.0 -0.05495798128873444 -0.16031509609072947
3820000000.0 -0.06191627177802954 0.14891808131865086
3840000000.0 -0.047771165469957 0.14142139780173324
3860000000.0 -0.1443882285289571 -0.014411719820367166
3880000000.0 0.11368525068808134 -0.09046898207518947
3900000000.0 -0.013739514455228537 0.15008834380021455
3920000000.0 0.15546282391294802 0.04806446685042442
3940000000.0 -0.08496521391784478 0.15130873195063896
3960000000.0 0.11738916073897215 0.13747339606532336
3980000000.0 0.12804578060721242 -0.12271953987517735
4000000000.0 0.023426320487453814 -0.16521639643717972
