!Created with skrf (http://scikit-rf.org).
# Hz S RI R 50.0 
!freq ReS11 ImS11
400000000.0 -0.7034083036818234 0.5146577441334792
420000000.0 0.16353445604544903 0.8525148152258499
440000000.0 0.8023844445743165 -0.24937995181232328
460000000.0 -0.006958222753635014 -0.7967066026373021
480000000.0 0.7138656100322437 -0.07149508136379581
500000000.0 -0.1864211744231813 -0.5560440390746965
520000000.0 -0.49280382215562674 0.1074930911384279
540000000.0 0.12381335108870278 -0.40695102745867845
560000000.0 -0.2846571980947991 -0.23839773945919343
580000000.0 0.324956688192207 -0.1201126745458186
600000000.0 -0.09267826743720853 -0.3366649161271375
620000000.0 0.22682404142176332 0.2862656026573387
640000000.0 0.3120459922263133 -0.25022094485392965
660000000.0 -0.35270688988731247 -0.2097864862997801
680000000.0 0.21931712284517127 -0.3651807252510225
700000000.0 -0.42543760982191053 -0.029905307775797807
720000000.0 -0.1500392764609444 0.3921651538724038
740000000.0 0.3719857426581488 -0.16478249934485523
760000000.0 -0.3534183306836578 -0.16761457699296003
780000000.0 0.29454731551101565 0.19484086237302037
800000000.0 0.20967869429832942 -0.24161643633659913
820000000.0 -0.24781698525307136 -0.11443757288257574
840000000.0 -0.2355432970259618 0.024086357379670912
860000000.0 0.06180291365580988 -0.1906717158159058
880000000.0 0.06903964094126086 0.141919719665746
900000000.0 -0.10660112323049101 0.013472314779359557
920000000.0 0.05804490175133999 0.046865523393454026
940000000.0 0.030959720468646826 0.03017869992451126
960000000.0 0.046458061508851727 -0.011189209208186737
980000000.0 -0.06592305775852403 -0.009758481688456158
1000000000.0 -0.002149340420998381 0.08303903230938237
1020000000.0 0.016259749762791917 0.10097663726526532
1040000000.0 0.004360161968531534 0.11964697914198705
1060000000.0 -0.11526800912033325 0.10580704850503775
1080000000.0 -0.043400496138116695 0.16879791754825538
1100000000.0 0.1510784900315694 -0.13169824775022496
1120000000.0 0.07040097384616249 0.21119549558447998
1140000000.0 0.1596705853970163 -0.19925479628847534
1160000000.0 -0.2354224579291582 -0.15700578633701104
1180000000.0 -0.038466733879270486 -0.315747282854399
1200000000.0 0.22418701257493517 -0.25862044017126645
1220000000.0 -0.18766080468900376 0.3171506701795979
1240000000.0 0.3862400766066024 -0.039405671906789
1260000000.0 -0.32044048023912647 -0.25700961665694116
1280000000.0 -0.35588393078364355 0.23297343154055355
1300000000.0 0.3844758823093612 0.2059060873690699
1320000000.0 0.43632743499774607 -0.035375231279402584
1340000000.0 0.4133138036316314 -0.14275503551591312
1360000000.0 0.43778911710975577 0.023778846405923402
1380000000.0 0.3167131859424833 -0.29821288504175775
1400000000.0 -0.32288748910573617 -0.2811924871985208
1420000000.0 -0.07143477773572304 0.4048920388566335
1440000000.0 0.38371571725049874 -0.016361219603600593
1460000000.0 0.026954025882657433 -0.35169129735280824
1480000000.0 -0.31728224620162343 0.04550827554550036
1500000000.0 -0.1295495276134846 0.2566744356425651
1520000000.0 0.05524762667779811 0.25209410610412786
1540000000.0 -0.14838208853820845 -0.17411500259992144
1560000000.0 0.08217194318780752 -0.1767202516864855
1580000000.0 0.12778175822387533 0.10655417522827856
1600000000.0 0.12481930544711033 -0.04579446577359291
1620000000.0 0.10368210794500801 -0.0007345994630977758
1640000000.0 -0.019598431751000574 0.07531271519274595
1660000000.0 -0.002391948270428293 -0.054148590342914
1680000000.0 0.019244133265015836 0.028766984517236208
1700000000.0 0.015176751447915034 -0.01498843797186597
1720000000.0 0.005548706089112446 -0.00031648623733713545
1740000000.0 -0.015621753674142473 -0.0042388051730699655
1760000000.0 -0.025748871882522964 0.02084551856275843
1780000000.0 0.052203693715625936 -0.03129540715441927
1800000000.0 -0.08599234155031399 0.0346088478707611
1820000000.0 -0.08331548610714673 0.09335360039967126
1840000000.0 0.08131279332953673 -0.14120095102867708
1860000000.0 -0.165145386089948 0.11349832355955951
1880000000.0 0.2139851766917607 -0.10891419481589795
1900000000.0 -0.24363189148904144 0.1466237014096146
1920000000.0 0.22276689683600412 -0.22852160980766476
1940000000.0 -0.32161687898750424 0.14634626778754575
1960000000.0 0.3673870010482713 0.09956924014588356
1980000000.0 -0.17435987681227094 -0.3586487706749224
2000000000.0 -0.41351552204208586 -0.03847693912657699
2020000000.0 -0.07801668548196385 0.4183923864403317
2040000000.0 0.17041951753243784 0.3981498307087258
2060000000.0 0.4342044432423139 -0.03613707163195562
2080000000.0 0.2118908792485283 -0.3783272416931708
2100000000.0 -0.04018997414998964 -0.4241649383508336
2120000000.0 -0.24201657421317208 -0.3386840876189152
2140000000.0 -0.32088609228143417 -0.24816584783600215
2160000000.0 0.15314098319684982 -0.3617402534152286
2180000000.0 -0.1009170765479418 -0.3659792545170189
2200000000.0 -0.3427723844108039 -0.13347686282201462
2220000000.0 -0.3459046022432175 0.08562521231475413
2240000000.0 -0.16355277965687215 0.31101650720145074
2260000000.0 0.0035875900297582678 0.35092732963364265
2280000000.0 0.268162374105717 0.23300602495070025
2300000000.0 0.26877410066004165 -0.2513971344203994
2320000000.0 -0.2583566386273527 -0.2917856232704092
2340000000.0 -0.26262893510622737 0.32954270966950394
2360000000.0 0.4589988738208473 -0.053901949190333295
2380000000.0 -0.5048469858159358 -0.06869703179271237
2400000000.0 0.5593570064969356 -0.005763325271568272
2420000000.0 -0.4959678070283829 0.35511319842191286
2440000000.0 0.18666501583458153 -0.6285589390883223
2460000000.0 0.3204669495980323 0.6156171070988395
2480000000.0 -0.5580817647220162 -0.46058586026390486
2500000000.0 0.6231292346492747 0.4029329623996574
2520000000.0 -0.5383890757307161 -0.526177943832546
2540000000.0 0.24259921337837217 0.7134819089036057
2560000000.0 0.38341895841939466 -0.642075482455193
2580000000.0 -0.7278503165035353 0.087242564450374
2600000000.0 0.44568171146841085 0.5523683820809109
2620000000.0 0.2327371614984073 -0.6389153152687826
2640000000.0 -0.1724212170894162 -0.620764462430791
2660000000.0 -0.36927735941404777 0.47342645566069497
2680000000.0 0.5542188421637747 0.02528519624262794
2700000000.0 -0.2973476048161345 -0.41276288137730016
2720000000.0 -0.04945234147770619 0.45984724965008306
2740000000.0 0.3633272178770344 -0.20913685870805349
2760000000.0 -0.37897480489107366 0.03148150185347249
2780000000.0 0.34470993824021917 0.06286284946460136
2800000000.0 -0.32173579016559944 0.044994744718154914
2820000000.0 0.15117565978759848 -0.2680869269666681
2840000000.0 0.05479117415148132 0.2909983245004531
2860000000.0 -0.26598058477038616 -0.12151376681264812
2880000000.0 0.2424830706694096 -0.16122504384522784
2900000000.0 -0.07635413001009148 0.2818382668161252
2920000000.0 0.2290397821735473 -0.18545864895291397
2940000000.0 -0.27373710927519074 -0.11933639539630464
2960000000.0 -0.25190224352237517 0.16672161770926874
2980000000.0 -0.24898990119826822 0.17755328462052664
3000000000.0 -0.3045090696559236 0.04568012170034074
3020000000.0 -0.12490470759828219 -0.282893503684969
3040000000.0 0.29144404583798333 -0.09519836678540956
3060000000.0 -0.18378347851989274 0.2439825272609287
3080000000.0 0.09144346736745464 -0.28635242147269774
3100000000.0 -0.13780462823395148 0.26152843497284145
3120000000.0 -0.055751305018843914 -0.28450412342503667
3140000000.0 0.2084864107053926 0.1896013912976504
3160000000.0 -0.2626640248437088 0.05267015770383953
3180000000.0 0.19702792368375366 0.15738011280084765
3200000000.0 -0.17167503549971927 0.15079255223253354
3220000000.0 -0.10794972034898599 -0.17147843200958113
3240000000.0 0.1728779979491473 -0.005039383793599912
3260000000.0 -0.0857041933605075 0.11146921551084253
3280000000.0 0.10280787586602334 -0.03732942200328605
3300000000.0 -0.0791797567159524 -0.004042614187583637
3320000000.0 0.0027122699720257396 0.05288432551052282
3340000000.0 -0.0002459370971664256 0.029306898477861942
3360000000.0 0.010218984698748958 0.0013932427384706005
3380000000.0 -0.004844138634408077 -0.0028056782028948427
3400000000.0 -0.0026220850517261213 0.01918160250471015
3420000000.0 0.03172726957192356 0.004818415255690151
3440000000.0 -0.0004164047504001721 -0.04258035777849168
3460000000.0 0.05102562507547467 -0.007295905666237628
3480000000.0 0.05128853717940965 0.03593774582644771
3500000000.0 0.0775507089549699 0.003200884267417634
3520000000.0 -0.03123553707299387 -0.0865342864703441
3540000000.0 0.09536936920241923 0.04930471416413529
3560000000.0 -0.12085865613830946 0.015593770324518917
3580000000.0 0.12565611394574197 -0.04824898423821311
3600000000.0 0.10127484724188471 0.11278942590509257
3620000000.0 -0.054520412435384025 0.153726577519663
3640000000.0 -0.17249501483031784 0.016273342310899358
3660000000.0 -0.16986443652302544 -0.06976452005193125
3680000000.0 -0.07486708912789199 -0.17389296226308903
3700000000.0 -0.04244278723750364 -0.1864231019984281
3720000000.0 0.15151243678690962 -0.11487185503327645
3740000000.0 0.18189383884660532 -0.03158459586612895
3760000000.0 -0.17319674781314015 -0.043081307420270554
3780000000.0 0.16433538979493903 0.04299397369535433
3800000000.0 -0.008480062674669291 -0.1614876212034161
3820000000.0 -0.1266362952344577 -0.0874936441811609
3840000000.0 -0.0740704051742608 -0.12595560801789737
3860000000.0 0.11707482519571367 0.08874927995128755
3880000000.0 0.08916981310401409 0.12328538823678659
3900000000.0 0.15744009520810034 -0.013486991516213536
3920000000.0 -0.16024905944142206 -0.03101232137823511
3940000000.0 0.12526463948077632 -0.11232441591845088
3960000000.0 0.16510489986268845 0.051581259506082694
3980000000.0 0.14707711466724363 -0.09190138064613894
4000000000.0 0.16641783068227387 -0.019532445059333728
