!Created with skrf (http://scikit-rf.org).
# Hz S RI R 50.0 
!freq ReS11 ImS11
400000000.0 -0.7380514669168989 0.4639973118556212
420000000.0 0.10549842045147655 0.8620517329793634
440000000.0 0.7898423527839448 -0.2860745472513266
460000000.0 0.035726310295429414 -0.7945206658628011
480000000.0 0.712172759298486 -0.08602138128926673
500000000.0 -0.21672419982714913 -0.5469943884067541
520000000.0 -0.4758810210206514 0.16419259921438492
540000000.0 0.12372294211944183 -0.4068313752836353
560000000.0 -0.22863556748416375 0.29187574761533813
580000000.0 0.3159587239351867 -0.1475826025145811
600000000.0 -0.14851091301320238 -0.31379635403472733
620000000.0 0.1867347468082289 0.312403689609905
640000000.0 0.3314490276627381 -0.22262203192887944
660000000.0 -0.3996916660198414 -0.0913731402269847
680000000.0 0.14301178544063947 -0.400456845713057
700000000.0 -0.4265320074881061 -0.009521994763575084
720000000.0 -0.13777272483393377 0.39677311501986395
740000000.0 0.3720308904247978 -0.1658273716918605
760000000.0 -0.3599243559202631 -0.15429417290057953
780000000.0 0.29941846005808503 0.1878629800989346
800000000.0 0.2023115797358656 -0.2485344605788959
820000000.0 -0.22656516810315608 -0.15336676714108702
840000000.0 -0.23670707943002964 -0.009174687650656767
860000000.0 0.08751981889512248 -0.18022809600715703
880000000.0 0.04670130328320278 0.15070377063839147
900000000.0 -0.10524191100052929 -0.02211503441143146
920000000.0 0.0378922305144858 0.06395692470662423
940000000.0 0.04135380807354391 0.010263855940603901
960000000.0 0.021206840205392544 -0.042869096314500865
980000000.0 -0.06494294394728053 -0.019029063869635633
1000000000.0 -0.03321259619229464 0.07653879978032078
1020000000.0 -0.034879608663997974 0.09660153328690593
1040000000.0 -0.015343879545473333 0.11883594591973104
1060000000.0 -0.10861925673389441 0.11279628066307838
1080000000.0 -0.04518327701615597 0.1681012182070183
1100000000.0 0.1557347206049243 -0.12631407482407608
1120000000.0 0.0339420012932401 0.21998070277490592
1140000000.0 0.1599506070248612 -0.1981074947817948
1160000000.0 -0.2404539880070271 -0.14867642918848484
1180000000.0 -0.06390064716375114 -0.31094797362379295
1200000000.0 0.20809604603629078 -0.27118342495642467
1220000000.0 -0.1808010970394879 0.3205600438357319
1240000000.0 0.3821454761727985 -0.0632437154257968
1260000000.0 -0.34218264324684733 -0.22724087440721052
1280000000.0 -0.33212103433196055 0.2660043697811491
1300000000.0 0.38134498142564893 0.21192136833406813
1320000000.0 0.43661831456195144 -0.029768321462706946
1340000000.0 0.41521394714300836 -0.13734700076487577
1360000000.0 0.4370525142741149 0.03616725169614268
1380000000.0 0.3258392323252811 -0.28819050694798765
1400000000.0 -0.3173562493433719 -0.28777612786681317
1420000000.0 -0.09607944748811416 0.40000453346857673
1440000000.0 0.38365389195262056 0.015819921251609984
1460000000.0 0.047954275428105216 -0.34936804447295894
1480000000.0 -0.31503553376814436 0.060227307698421384
1500000000.0 -0.12954026963596438 0.25685202793656403
1520000000.0 0.05440977886114518 0.25251179189842565
1540000000.0 -0.14437356800136703 -0.17743312963736962
1560000000.0 0.09874530894053297 -0.1674610786989404
1580000000.0 0.1266097062220128 0.1071132808152332
1600000000.0 0.10584924234576852 -0.07902556221871464
1620000000.0 0.10193927668359472 -0.014226336367083047
1640000000.0 0.006607318755077097 0.07693896316227036
1660000000.0 -0.02404832203715916 -0.04877995438984869
1680000000.0 0.033027541193297115 0.010201773370192048
1700000000.0 0.004322958570598976 -0.021145640253109225
1720000000.0 0.004073461534226222 0.004203210303994984
1740000000.0 -0.014738289645956899 0.004125399325269027
1760000000.0 0.02988319976512509 0.012632209775247642
1780000000.0 -0.0014781789039959366 -0.06066016204429402
1800000000.0 -0.03991572173078531 0.08406323454684896
1820000000.0 -0.032939269083981135 0.12096770872741613
1840000000.0 0.06295027314910376 -0.15047110292769597
1860000000.0 -0.13999483486609438 0.1431212528868182
1880000000.0 0.1949195987869038 -0.14035749755148333
1900000000.0 -0.2325285625124058 0.16413682708569746
1920000000.0 0.21342968038833002 -0.23792092136925955
1940000000.0 -0.3307026720195356 0.1256260660758257
1960000000.0 0.3645985962498989 0.1097474656470916
1980000000.0 -0.15461983003237878 -0.367399621910361
2000000000.0 -0.40987740620795665 -0.06490267345622894
2020000000.0 -0.10447740123224145 0.41230434192470783
2040000000.0 0.1426816421331286 0.4085151380187742
2060000000.0 0.4347672189324059 -0.020989937495622373
2080000000.0 0.21365074142893925 -0.37640926555111365
2100000000.0 -0.012522125342539393 -0.42544035712376127
2120000000.0 -0.24076503953926617 -0.3388324783423484
2140000000.0 -0.32964999549150875 -0.2351391742884042
2160000000.0 0.07510297887116185 -0.3847097572920201
2180000000.0 -0.15496956135071155 -0.34650429769326324
2200000000.0 -0.35295863888462353 -0.10148051342532904
2220000000.0 -0.3378108470466756 0.11197698310732242
2240000000.0 -0.10739611003157111 0.33409628929151
2260000000.0 0.058233577809581126 0.3463715157437223
2280000000.0 0.32050971614485235 0.1542720571907186
2300000000.0 0.20367460187681313 -0.3080613295964417
2320000000.0 -0.30268103935414703 -0.24756106375986428
2340000000.0 -0.26543117834023844 0.3281906523414629
2360000000.0 0.45691214340287417 -0.0754128833609776
2380000000.0 -0.5091459984530924 -0.03199666660256141
2400000000.0 0.5582418694934317 -0.04323259953207318
2420000000.0 -0.4758690265561738 0.3813131849817069
2440000000.0 0.12746002437822856 -0.6429055388395488
2460000000.0 0.32370120801402547 0.6133344541878636
2480000000.0 -0.5968924170917603 -0.4069904110371761
2500000000.0 0.6595990981933375 0.33716345910389156
2520000000.0 -0.5847921864094087 -0.4722553305843379
2540000000.0 0.24183777803340456 0.7130854583135853
2560000000.0 0.2636744936077578 -0.6988119229238531
2580000000.0 -0.7222645868540867 0.12221406125386634
2600000000.0 0.5514296968371939 0.44510795738275444
2620000000.0 0.010487122054731833 -0.6787186336621573
2640000000.0 -0.18285836840986536 -0.6167035275091526
2660000000.0 -0.3609777598399538 0.47908068816084315
2680000000.0 0.5544191504008948 0.01873438584173107
2700000000.0 -0.3150903380891475 -0.39949860133978154
2720000000.0 -0.055025223418505895 0.45897383230950095
2740000000.0 0.3561645749038179 -0.2198681148940833
2760000000.0 -0.37809807239095844 0.038731859389997944
2780000000.0 0.3469329872391947 0.047005926240656755
2800000000.0 -0.3233695005649221 0.029469903531877322
2820000000.0 0.18929989070512163 -0.2427499664643102
2840000000.0 0.005925798257163971 0.2957766394668429
2860000000.0 -0.2531707398266493 -0.14421133261798072
2880000000.0 0.2568847493111935 -0.13550801135623067
2900000000.0 -0.11136622021624681 0.2692733255016641
2920000000.0 0.2300859440849619 -0.1827331647817082
2940000000.0 -0.28254589150353804 -0.09429793628187295
2960000000.0 -0.1994957836542678 0.22486949720335542
2980000000.0 -0.22348395628629017 0.2072982816652608
3000000000.0 -0.29999195652809446 0.0694476215254248
3020000000.0 -0.21765607916015758 -0.2185149621657416
3040000000.0 0.2855435896069223 -0.11054244287352175
3060000000.0 -0.16536827073631724 0.2548749586357417
3080000000.0 0.06467244623750953 -0.2929967574750368
3100000000.0 -0.0892164429552949 0.28089631363345013
3120000000.0 -0.06495561299622507 -0.2825183405060566
3140000000.0 0.21561141853499471 0.18125117804272056
3160000000.0 -0.26030335688872785 0.05983100080364723
3180000000.0 0.2248528547142566 0.11233412743570445
3200000000.0 -0.12495017288486016 0.19101107137221976
3220000000.0 -0.15923879679881062 -0.12492430293521214
3240000000.0 0.15920472911486402 -0.06803625161159196
3260000000.0 -0.052680515018239706 0.13109945618503058
3280000000.0 0.08492064806833038 -0.06977322423884416
3300000000.0 -0.07818813900570783 0.01707417055302521
3320000000.0 0.0303327646943184 0.044282584563891635
3340000000.0 0.02549188032410947 -0.015131885083862318
3360000000.0 -0.0006507571429810147 0.010955020888993779
3380000000.0 0.003861771833759083 0.002737253314990936
3400000000.0 0.014123002799535772 0.011097835358603213
3420000000.0 0.009267810463621733 -0.02962037535898207
3440000000.0 -0.035762392758679325 -0.01966936328339483
3460000000.0 0.03394156763875384 -0.03710600980017884
3480000000.0 0.047257653257730826 0.03898128541137322
3500000000.0 0.06676715373655977 -0.03668844062448266
3520000000.0 -0.06364537033848217 -0.0655566915077541
3540000000.0 0.10407929006933118 0.02035870461341041
3560000000.0 -0.10632294773580699 0.056317082262690304
3580000000.0 0.08106807335510317 -0.10751179634606232
3600000000.0 0.13769627963195724 0.06279479128728839
3620000000.0 0.07669122761544057 0.1437127882502922
3640000000.0 -0.10747739227682525 0.13661712244653593
3660000000.0 -0.18081629645163275 0.03591162373437372
3680000000.0 -0.14599321618191774 -0.12081328782465614
3700000000.0 -0.11128095996209864 -0.15426075627871932
3720000000.0 0.056118418670673686 -0.18146057346520844
3740000000.0 0.1574974142881533 -0.09756217438344111
3760000000.0 -0.16984890899149302 0.057130946800203565
3780000000.0 0.16457806677422454 -0.04530839875746831
3800000000.0 -0.05466396525281977 -0.1537952091328755
3820000000.0 -0.15488002875246606 0.0137168079409869
3840000000.0 -0.12370525445801639 -0.07976317699671859
3860000000.0 0.14755116394138676 0.009240506487281462
3880000000.0 0.14694214317511825 0.0424512728752921
3900000000.0 0.10689116412328066 -0.11881267236799892
3920000000.0 -0.1602792088566691 0.03875500938427046
3940000000.0 0.06176666449893574 -0.15882537173654462
3960000000.0 0.17501976730810478 0.005895932666260514
3980000000.0 0.10378359968734002 -0.14017730244182552
4000000000.0 0.13198123329007397 -0.10213761233140237
