!Created with skrf (http://scikit-rf.org).
# Hz S RI R 50.0 
!freq ReS11 ImS11
400000000.0 -0.7225066781410707 0.48326633256344975
420000000.0 0.16577376982288175 0.8517572960070785
440000000.0 0.8120858342895936 -0.2172642188072307
460000000.0 -0.049986135686548874 -0.7949602438389699
480000000.0 0.7103190244029042 -0.09735109026624686
500000000.0 -0.09980483643077157 -0.5780826538191446
520000000.0 -0.4803805857752697 0.15829209310541933
540000000.0 0.02924223589085992 -0.4233069122873573
560000000.0 -0.23761546782361354 -0.28359219259558716
580000000.0 0.34230238866747775 -0.06356131070628618
600000000.0 -0.20981677029361134 -0.27959181734393984
620000000.0 0.21555387531228723 0.293382439350549
640000000.0 0.3371635209377881 -0.21503200596058708
660000000.0 -0.36899012334523507 -0.17985924604158182
680000000.0 0.1984222340045587 -0.3771891490322287
700000000.0 -0.42606035555891253 0.00640285455746476
720000000.0 -0.15182454000846463 0.39147451219059853
740000000.0 0.3796335854923304 -0.14862147387053345
760000000.0 -0.3650436417441387 -0.14188195405025084
780000000.0 0.29027777393516546 0.20081309817106782
800000000.0 0.20220369425495865 -0.24756365227615634
820000000.0 -0.24910154055614375 -0.1121419466049592
840000000.0 -0.23610848701679107 0.017877969405471095
860000000.0 0.08882881178412555 -0.17939981259726076
880000000.0 0.0488695467003468 0.14965320544570593
900000000.0 -0.10584245240898871 0.01358115134229213
920000000.0 0.04463729663252097 0.05904634074958091
940000000.0 0.040726773928305454 0.013536946747328717
960000000.0 0.03821123906690684 -0.029050243835726398
980000000.0 -0.06662107007309503 0.0008897306603179013
1000000000.0 -0.011934910587305858 0.08209886153153417
1020000000.0 0.005737128658847285 0.10222917276387525
1040000000.0 0.008667804303245655 0.11940132005405464
1060000000.0 -0.11301108197867486 0.10840957461881999
1080000000.0 -0.044802880012485176 0.16832087787500744
1100000000.0 0.151355345725708 -0.13138650348308212
1120000000.0 0.06836917192524922 0.21178680578036246
1140000000.0 0.1462868002208484 -0.20942352892635646
1160000000.0 -0.2282989885073352 -0.16702777639883906
1180000000.0 -0.04125879045479241 -0.3152678217957299
1200000000.0 0.2315801648535226 -0.251796510647532
1220000000.0 -0.18447380835225705 0.3187253461580364
1240000000.0 0.3843119168052622 -0.0538700633927162
1260000000.0 -0.29037766398082476 -0.2901252947224978
1280000000.0 -0.35099857850995686 0.24040062380796393
1300000000.0 0.38271296659199433 0.20938583575847403
1320000000.0 0.43380061046755536 -0.060435823034636335
1340000000.0 0.4129788720935552 -0.14370840868987106
1360000000.0 0.43794086328395015 0.01697943791274875
1380000000.0 0.30276095830134386 -0.31246477950327406
1400000000.0 -0.3271558577865782 -0.2761274662589451
1420000000.0 -0.06361687911850744 0.40606841322128734
1440000000.0 0.38414204200896535 -0.010897476143488115
1460000000.0 0.0280416105006587 -0.3516669705200205
1480000000.0 -0.31490368471197716 -0.06147021557865527
1500000000.0 -0.13799913573183392 0.2522011051673776
1520000000.0 0.06345186392166607 0.25005175603254576
1540000000.0 -0.1412999304935589 -0.17985515269544514
1560000000.0 0.0919579492457915 -0.1717258278707896
1580000000.0 0.14122912980457258 0.08748416540173953
1600000000.0 0.12048825706230666 -0.05560345170992757
1620000000.0 0.10333486036605816 -0.00874258170603126
1640000000.0 -0.019132847098943483 0.07545068690149652
1660000000.0 -0.010753552830143688 -0.053393416542093515
1680000000.0 0.025234285940671473 0.02333187039476276
1700000000.0 0.020912545501613335 -0.0018656024902043982
1720000000.0 0.0036976473794793343 -0.003764501705734432
1740000000.0 -0.01214334796575418 -0.0105407390201825
1760000000.0 -0.014982408653398022 0.029711246377577254
1780000000.0 0.04637664017713442 -0.03963312048426166
1800000000.0 -0.08567140061973352 0.03544573974814823
1820000000.0 -0.07959572759757694 0.09669576141733385
1840000000.0 0.07105076459852426 -0.14683037488436523
1860000000.0 -0.1583319456716276 0.123268532478338
1880000000.0 0.21821743819107262 -0.10068435696465385
1900000000.0 -0.24457389522341247 0.14525225047954635
1920000000.0 0.21938379070553912 -0.23201896979562509
1940000000.0 -0.32633271258118923 0.13539618200373915
1960000000.0 0.3676093035868002 0.09871679396410564
1980000000.0 -0.17123841987457428 -0.3601656439628776
2000000000.0 -0.4136582728954868 -0.03798217702955854
2020000000.0 -0.08043769748132852 0.4180215274902217
2040000000.0 0.17145885326363858 0.3976776229278682
2060000000.0 0.4346376882084779 -0.029489143827312714
2080000000.0 0.20152366447067194 -0.38366666920496306
2100000000.0 -0.05186207480128196 -0.4226698138737965
2120000000.0 -0.2515331961343032 -0.331573917958284
2140000000.0 -0.33561708757429914 -0.2275875523404069
2160000000.0 0.11594952386716 -0.3752469888979232
2180000000.0 -0.11862038213440039 -0.3605235040556646
2200000000.0 -0.340731123334077 -0.13927538076436546
2220000000.0 -0.34970310287416045 0.06825712399023452
2240000000.0 -0.1611479078282255 0.31236007929879317
2260000000.0 0.025572778661598447 0.3503263410421019
2280000000.0 0.28868846409176596 0.20785580919987473
2300000000.0 0.24303333138128205 -0.27720145051959194
2320000000.0 -0.27184417736231936 -0.27991734846710703
2340000000.0 -0.28351462135885924 0.3116489235160408
2360000000.0 0.45835510054699674 -0.061755778383116675
2380000000.0 -0.5081664784329994 -0.04164159522352679
2400000000.0 0.5579260507158244 -0.0405518926025568
2420000000.0 -0.48086040974601574 0.3748667292643273
2440000000.0 0.12176293180963343 -0.644178089688086
2460000000.0 0.35108243876205075 0.5987689219822201
2480000000.0 -0.5784017762493819 -0.4347259825756482
2500000000.0 0.6420004896907346 0.3715780452264181
2520000000.0 -0.5542630601231017 -0.5090484009363404
2540000000.0 0.17223955065390234 0.7334647942191977
2560000000.0 0.31641061311905305 -0.6768960261241567
2580000000.0 -0.7300231317396096 0.06220380502972328
2600000000.0 0.5213500586305853 0.48083024304357797
2620000000.0 0.11990399806039115 -0.6690198323381563
2640000000.0 -0.10357614003395149 -0.6354302809154228
2660000000.0 -0.3830083177409256 0.4615515773093965
2680000000.0 0.5544378429623665 0.006326348224251522
2700000000.0 -0.3180927125821151 -0.3967506342062575
2720000000.0 -0.03805542521290118 0.46052025501118876
2740000000.0 0.34614449776240314 -0.23596702775522074
2760000000.0 -0.37667479845327684 0.0510853190220067
2780000000.0 0.3469632618468466 0.04710398857638367
2800000000.0 -0.32090900039348386 0.04978311692239472
2820000000.0 0.14840217110088819 -0.2694393974376524
2840000000.0 0.05307914178870392 0.2913228193098342
2860000000.0 -0.2707326807073057 -0.10913747584687583
2880000000.0 0.23864024596865205 -0.1666492331502485
2900000000.0 -0.09254176821345701 0.27674840112473004
2920000000.0 0.21115478004805688 -0.20456971482564262
2940000000.0 -0.2685284079584183 -0.130865402391471
2960000000.0 -0.24276318149763246 0.17953696575103684
2980000000.0 -0.2556073023023889 0.1668376532974004
3000000000.0 -0.30555856627748973 0.026909813004913408
3020000000.0 -0.1667251505675056 -0.25980815478007907
3040000000.0 0.2812099608619793 -0.12098597233654838
3060000000.0 -0.18309022712638048 0.24378093112058913
3080000000.0 0.07559139717371707 -0.2910843260757652
3100000000.0 -0.1175473730831926 0.27108074130052634
3120000000.0 -0.06853863216791824 -0.2817090663249618
3140000000.0 0.21248635111560935 0.1849992656617967
3160000000.0 -0.2618349442639962 0.056350129558525586
3180000000.0 0.20463064724211785 0.14772450994627737
3200000000.0 -0.1645326770645875 0.15855098633349385
3220000000.0 -0.10555108962357082 -0.17279521605399134
3240000000.0 0.17330855090573147 -0.0032763518302778875
3260000000.0 -0.0902708492869581 0.10784262431904369
3280000000.0 0.1055602629510475 -0.028753572554092055
3300000000.0 -0.07917623165170645 -0.004725164252427872
3320000000.0 -0.005128186414926624 0.05293868133595032
3340000000.0 -0.021783071513195845 0.01978519499813747
3360000000.0 0.004186154701314012 0.009566569104231565
3380000000.0 -8.598523008126487e-05 0.005545556724962505
3400000000.0 0.01426615501378845 0.013045536189333152
3420000000.0 0.027592721359129917 0.015763031098092996
3440000000.0 -0.0018973491906084702 -0.04239467710344258
3460000000.0 0.04747427544243189 -0.020069020850299567
3480000000.0 0.04153879718002423 0.04645669164281258
3500000000.0 0.07686597302832571 -0.010852906309344795
3520000000.0 -0.05569229804067084 -0.07342430643540424
3540000000.0 0.09289180318594197 0.05367062486812265
3560000000.0 -0.12165347781312245 0.003124953561347464
3580000000.0 0.12705183300971068 -0.044131122756201006
3600000000.0 0.10055131272263206 0.1136930758960078
3620000000.0 -0.051565663779363814 0.1545793101722706
3640000000.0 -0.17281178939602537 0.004989655145243158
3660000000.0 -0.1718568244864501 -0.06482496906154193
3680000000.0 -0.07131067514618153 -0.17516499965675675
3700000000.0 -0.04896690516043078 -0.18424001303897244
3720000000.0 0.14987307288110208 -0.11656201302704237
3740000000.0 0.17993815092544446 -0.04006140737816431
3760000000.0 -0.17195490443885242 -0.047675551064979796
3780000000.0 0.1674840818143485 0.02779428834763872
3800000000.0 -0.013423083184855042 -0.16122346085941988
3820000000.0 -0.13378970477065624 -0.07610038076576577
3840000000.0 -0.08664718466760267 -0.11762211090208631
3860000000.0 0.12953379736761012 0.0693352413688098
3880000000.0 0.11254749083967935 0.10212919567131083
3900000000.0 0.15444860044952424 -0.033041392266877155
3920000000.0 -0.1621554993288503 0.01670932109415783
3940000000.0 0.09890107451339923 -0.13611551905556396
3960000000.0 0.1729309931247473 -0.0037042045355953944
3980000000.0 0.08418387227357424 -0.15198085214336207
4000000000.0 0.13117562598970706 -0.10471738904291299
