!Created with skrf (http://scikit-rf.org).
# Hz S RI R 50.0 
!freq ReS11 ImS11
400000000.0 -0.7385478668036652 0.46097356223397445
420000000.0 0.09714035249681907 0.8632888398042384
440000000.0 0.7791902500326126 -0.31326341189906987
460000000.0 0.04158549249715753 -0.7941052406587542
480000000.0 0.7117891887283279 -0.08896176792867345
500000000.0 -0.20850132830356824 -0.5502284838916275
520000000.0 -0.4763965279049111 0.1625412282341899
540000000.0 0.13561000970403342 -0.4030373657213107
560000000.0 -0.22988313818154527 -0.2909412308014334
580000000.0 0.3127495381827131 -0.15426516658703235
600000000.0 -0.15010880869356677 -0.31292085941332354
620000000.0 0.19181671285566307 0.30971359615760513
640000000.0 0.3292344917847395 -0.22644377814625843
660000000.0 -0.39832172376549974 -0.09769897024903254
680000000.0 0.17665467473087915 -0.38745292254097147
700000000.0 -0.4264156011181511 -0.013791046395862051
720000000.0 -0.13972260653559138 0.39610387150453114
740000000.0 0.36799194228339394 -0.17408408054036562
760000000.0 -0.3616258681022658 -0.1508298806671336
780000000.0 0.30200863344934015 0.18380204045332676
800000000.0 0.20550634491434888 -0.24603004320571484
820000000.0 -0.2240682571370837 -0.15698211915223337
840000000.0 -0.23693959257946345 0.001304776001255554
860000000.0 0.07410221670639636 -0.1861759245054357
880000000.0 0.06102781892214107 0.1457089245650405
900000000.0 -0.10741679804144201 -6.934406967950843e-05
920000000.0 0.03339469539393473 0.06691274188548449
940000000.0 0.034468350373182785 0.02517962970536065
960000000.0 0.02360124427382627 -0.041538537139496144
980000000.0 -0.06732043560757431 -0.007145737039850861
1000000000.0 -0.030106731185053158 0.07795123276442083
1020000000.0 -0.0323270519895969 0.09753137971945332
1040000000.0 -0.014441517174305868 0.11900639815562136
1060000000.0 -0.11187120933461536 0.10984954163444595
1080000000.0 -0.049756971543801785 0.16693591209487096
1100000000.0 0.1557380670612842 -0.12643704117781668
1120000000.0 0.026204270803572238 0.22110512064559046
1140000000.0 0.14876737706175466 -0.20669631509252112
1160000000.0 -0.23237279927680174 -0.16067987385268168
1180000000.0 -0.058634674784082526 -0.31190340901791797
1200000000.0 0.21252221100667526 -0.2677019290768527
1220000000.0 -0.1820857651101214 0.3196991356863417
1240000000.0 0.3821248007719044 -0.06311130713273065
1260000000.0 -0.31447492060534143 -0.2637471116628055
1280000000.0 -0.32942380380829706 0.26899562861870774
1300000000.0 0.38402296785147494 0.20663674300246984
1320000000.0 0.43481501821017604 -0.05041678765952328
1340000000.0 0.4138005221767215 -0.14122438192833378
1360000000.0 0.43681691085007396 0.03651371037718542
1380000000.0 0.314659111577005 -0.30032880897587977
1400000000.0 -0.3269738188763721 -0.2767356545049707
1420000000.0 -0.07843992268430196 0.40363929337924087
1440000000.0 0.3835337933717467 0.019120766067737893
1460000000.0 0.052745363947186256 -0.3487871528162106
1480000000.0 -0.32010661244668637 -0.02063339239163904
1500000000.0 -0.1354114376384522 0.2532288677204924
1520000000.0 0.06495771127347684 0.24973485329648357
1540000000.0 -0.1356982497361336 -0.18397818333751814
1560000000.0 0.10952256630718764 -0.16073494567307775
1580000000.0 0.13343741297624628 0.09807525038326642
1600000000.0 0.12184400891372117 -0.051103034090971874
1620000000.0 0.09708967556910086 -0.03425112561827285
1640000000.0 -0.0006560216277546406 0.07710087994613923
1660000000.0 -0.01664202888113095 -0.051415752126441484
1680000000.0 0.03410684770952221 0.004690394011103362
1700000000.0 0.015966922956265034 -0.01434316986082333
1720000000.0 0.00436921913899275 -0.003740097564868282
1740000000.0 -0.007537390183936954 0.01327388510513383
1760000000.0 0.03152982736389698 0.007413207984444071
1780000000.0 -0.016541614925916406 -0.058314818540632925
1800000000.0 -0.03798693756102982 0.08502306026579806
1820000000.0 -0.033508129578244214 0.12090914210878818
1840000000.0 0.05651425757211219 -0.15303521956316984
1860000000.0 -0.1367047304162158 0.1464617768251709
1880000000.0 0.19640116901802593 -0.13842961913710383
1900000000.0 -0.2314858317926493 0.16584991226585394
1920000000.0 0.21741809743926177 -0.23436768069147307
1940000000.0 -0.33252863020618273 0.12069390696496293
1960000000.0 0.3606059659449009 0.12210285652065213
1980000000.0 -0.14953976512297362 -0.36943333339269546
2000000000.0 -0.4125822629861581 -0.03948998226030702
2020000000.0 -0.11113203443703974 0.4103258987143728
2040000000.0 0.1687265294745982 0.3982065252008751
2060000000.0 0.4355654713100218 0.001097660818348089
2080000000.0 0.23957973279277645 -0.3606589771556329
2100000000.0 -0.017322483409914147 -0.425281437282382
2120000000.0 -0.2398203338594773 -0.3394192922557508
2140000000.0 -0.30358516986132045 -0.26807075176519635
2160000000.0 0.09861765408256888 -0.3794795335318652
2180000000.0 -0.15687879667612722 -0.34585585159758675
2200000000.0 -0.3437152061241486 -0.1297985022183558
2220000000.0 -0.34350984246569477 0.09380675755807662
2240000000.0 -0.12344552071222477 0.3289434169694844
2260000000.0 0.04681255504661547 0.34805087919029815
2280000000.0 0.30761365777538724 0.17842822854662663
2300000000.0 0.23989918415131495 -0.279772305020512
2320000000.0 -0.27711507577678757 -0.2749587891024294
2340000000.0 -0.2519679343561881 0.3386949338423597
2360000000.0 0.45553627521346735 -0.08267166286218608
2380000000.0 -0.5096455300760939 -0.02235197210990816
2400000000.0 0.5587024874525767 -0.03409574647735188
2420000000.0 -0.48661826160746535 0.3676970073595617
2440000000.0 0.17387929702134136 -0.6320110395552841
2460000000.0 0.3444335919290939 0.6017491716313805
2480000000.0 -0.5886398922907488 -0.41912575096827814
2500000000.0 0.6271535297038392 0.39526157548244156
2520000000.0 -0.5560228693122097 -0.5059605989824808
2540000000.0 0.21264246487726393 0.7226557931938653
2560000000.0 0.28183610337206544 -0.6918061683581803
2580000000.0 -0.7148803074154665 0.16002942202851664
2600000000.0 0.5082479545055882 0.4943363871488351
2620000000.0 0.03197822056226263 -0.6777242610215088
2640000000.0 -0.1578305742525734 -0.6236733601716145
2660000000.0 -0.33841114430318003 0.4952527857329506
2680000000.0 0.5547021567050296 -0.0032508907670197504
2700000000.0 -0.3068501556630882 -0.4056099011247688
2720000000.0 -0.05742297760957439 0.4585843932454281
2740000000.0 0.35437217437203006 -0.22297585910115428
2760000000.0 -0.3779528587516687 0.04075735551426363
2780000000.0 0.34730171531567916 0.04529596274575545
2800000000.0 -0.32299622201787404 0.034858262317059144
2820000000.0 0.1835790320923903 -0.24714792400902605
2840000000.0 0.012846790083494104 0.29569671505812184
2860000000.0 -0.2546274049426257 -0.14294230604662
2880000000.0 0.24812090291635883 -0.15101445552974557
2900000000.0 -0.1173143381022549 0.2670798747502566
2920000000.0 0.23825282023698036 -0.17224426412800575
2940000000.0 -0.2826115651726463 -0.09436865670413241
2960000000.0 -0.22642984635953778 0.19816322334732175
2980000000.0 -0.23705426031810958 0.1921720677701035
3000000000.0 -0.3037356303600344 0.05181079983196755
3020000000.0 -0.19542826612427383 -0.23850324359056427
3040000000.0 0.28177297197725204 -0.11970509734578504
3060000000.0 -0.1674541104704924 0.2534028823612619
3080000000.0 0.06420764286328798 -0.2929499080150188
3100000000.0 -0.0801550943297354 0.2835516168974914
3120000000.0 -0.09272135653712978 -0.2747457404590282
3140000000.0 0.2344980604552976 0.15626334295489644
3160000000.0 -0.2575898493537348 0.07062841099949585
3180000000.0 0.2272144982682405 0.10755474953528757
3200000000.0 -0.11736983736250105 0.19573768279480858
3220000000.0 -0.161624332653443 -0.12215571785921127
3240000000.0 0.1549152639410489 -0.07758818670951023
3260000000.0 -0.045342183856800215 0.13401679884228707
3280000000.0 0.07951240731288386 -0.07614747780103896
3300000000.0 -0.07218115247324444 0.03487136497083935
3320000000.0 0.032434495323189164 0.04328024084366206
3340000000.0 0.027296150194427264 -0.012353454271789441
3360000000.0 -0.010440640293994895 0.004224804321185047
3380000000.0 -0.0017723114963923625 0.004141554641250414
3400000000.0 0.007845688646235716 0.01588157883311574
3420000000.0 0.020076888327627433 -0.023073204339640635
3440000000.0 -0.036642176738489546 -0.0171593619596832
3460000000.0 0.035406388315152665 -0.03532963846168653
3480000000.0 0.04740932842710725 0.038324347092333164
3500000000.0 0.06780355623877576 -0.034161736976156695
3520000000.0 -0.06293694467852641 -0.06611230940893902
3540000000.0 0.10511418888278903 0.014850535643856725
3560000000.0 -0.10388857410245757 0.05997272252828607
3580000000.0 0.08003136013698094 -0.10793995678324228
3600000000.0 0.14230390104232749 0.050959621946478656
3620000000.0 0.0897186059601844 0.13590196063114027
3640000000.0 -0.10488470578298784 0.13824269540379663
3660000000.0 -0.18080276302477685 0.03459325702315704
3680000000.0 -0.14962942870506693 -0.11620755486959766
3700000000.0 -0.11695151989761397 -0.14965567559920498
3720000000.0 0.049921361323830744 -0.18334177128670393
3740000000.0 0.15396877910963266 -0.10275981798614585
3760000000.0 -0.16809374679887779 0.06251974144310084
3780000000.0 0.1609177135278606 -0.055979217153158886
3800000000.0 -0.06885212826031728 -0.14810651283798404
3820000000.0 -0.1532966578343761 0.027028566586881072
3840000000.0 -0.13449671594601698 -0.05995534675411629
3860000000.0 0.14799471802392253 -0.0050680784201067265
3880000000.0 0.1518825394367773 0.020267350817151145
3900000000.0 0.09736573448392784 -0.12706274690217031
3920000000.0 -0.15886968619242056 0.04526038035339178
3940000000.0 0.053237367391345825 -0.16212626359744767
3960000000.0 0.17490865993688864 -0.010706173228754605
3980000000.0 0.09218842169120044 -0.1479287923266995
4000000000.0 0.10651040872844704 -0.12843766850413219
