!Created with skrf (http://scikit-rf.org).
# Hz S RI R 50.0 
!freq ReS11 ImS11
400000000.0 -0.7174084518548697 0.4910472252594912
420000000.0 0.15802099024169083 0.8535607926471783
440000000.0 0.8041364309561118 -0.2436503399549961
460000000.0 0.019469136173941567 -0.7963600730167272
480000000.0 0.7121661075957646 -0.08701730358603293
500000000.0 -0.18252620762186952 -0.5577201793778496
520000000.0 -0.48780846009203827 0.1292821693180754
540000000.0 0.10192751573509551 -0.4135900790014666
560000000.0 -0.27296197975191855 -0.25103954488694386
580000000.0 0.33500864840879574 -0.08943296665198992
600000000.0 -0.12220075699445881 -0.32722356174204303
620000000.0 0.2342399760113384 0.27971809857576035
640000000.0 0.3163280384484622 -0.24479332376363522
660000000.0 -0.3618950343506216 -0.19361723638467795
680000000.0 0.2112724801260817 -0.3699619112197062
700000000.0 -0.42607659837981077 -0.020643474646641752
720000000.0 -0.14817332572302255 0.39294483191440366
740000000.0 0.3733476108302186 -0.1627615929593729
760000000.0 -0.3602637677319387 -0.15294955120338
780000000.0 0.28760212395032103 0.20449755153226767
800000000.0 0.2117123338825527 -0.23963688743571657
820000000.0 -0.2444655120612959 -0.1217629467909886
840000000.0 -0.23635416770639828 0.010789757616268691
860000000.0 0.06800602677262506 -0.18828101560525792
880000000.0 0.0656138607804069 0.1433886171384005
900000000.0 -0.10365257433938445 0.027318882941119543
920000000.0 0.059775256258922216 0.044424514237341374
940000000.0 0.029802325031209536 0.0314229058007748
960000000.0 0.043116759644336256 -0.02077742299365037
980000000.0 -0.06556146441885662 -0.012044597322982926
1000000000.0 -0.012566963668055335 0.08184042021484432
1020000000.0 0.005209008685928308 0.10220106231359155
1040000000.0 -0.003528340337725668 0.11956093339562095
1060000000.0 -0.1232242110598775 0.09660488997497511
1080000000.0 -0.03983703138933559 0.16948270376066066
1100000000.0 0.14332769555735853 -0.13997625045480905
1120000000.0 0.06882051371033582 0.2116490999744282
1140000000.0 0.1543604078533205 -0.2035895854569897
1160000000.0 -0.23722413159685793 -0.15438863413347803
1180000000.0 -0.048307328277225746 -0.3143901734000476
1200000000.0 0.2268425328491167 -0.25627709675908233
1220000000.0 -0.19060286854668354 0.3154306062345474
1240000000.0 0.3850819558758587 -0.04860310807936845
1260000000.0 -0.2987280817002862 -0.2816674079275558
1280000000.0 -0.3543372092567975 0.23524327314103174
1300000000.0 0.38327870198611 0.20819913214645444
1320000000.0 0.43406459683503035 -0.05713447155385089
1340000000.0 0.4122210512820596 -0.14582653081613592
1360000000.0 0.43795478579923136 0.017363059767895733
1380000000.0 0.30620982734006785 -0.30888580312312147
1400000000.0 -0.3235521574981007 -0.2804695144705743
1420000000.0 -0.06776321601881745 0.40553533080634174
1440000000.0 0.3839181002778388 -0.01192167050505478
1460000000.0 0.028721356659626985 -0.3516265909327906
1480000000.0 -0.3138961524241952 0.06439461197566741
1500000000.0 -0.13601279081318066 0.25334578817506165
1520000000.0 0.04445112930639215 0.254307286153308
1540000000.0 -0.153799414261403 -0.16924226664372236
1560000000.0 0.0786798351537718 -0.17805261789336257
1580000000.0 0.1303113837020193 0.10324356132589897
1600000000.0 0.12808600252134725 -0.035622747504950654
1620000000.0 0.10352175266064428 0.0013591042093625003
1640000000.0 -0.006948388112251584 0.07754243904584754
1660000000.0 -0.010869855733473143 -0.05335488091228833
1680000000.0 0.024144908538409074 0.024649781521702534
1700000000.0 0.017266123994130855 -0.012604560129432023
1720000000.0 0.0054218152349411386 0.0011058076615274794
1740000000.0 -0.005973713641085849 -0.01485315352133172
1760000000.0 -0.016325621257836813 0.02903517089127345
1780000000.0 0.04282851165530932 -0.043625420690862206
1800000000.0 -0.0865380239934838 0.033660580649430956
1820000000.0 -0.08361511068090068 0.09333758432568624
1840000000.0 0.07849747034741204 -0.14293444267089822
1860000000.0 -0.16347509931166065 0.11590513330692064
1880000000.0 0.21755717964757007 -0.10164643535261492
1900000000.0 -0.24121867881782044 0.15063946442688161
1920000000.0 0.22174862813020635 -0.22968944729659227
1940000000.0 -0.3231261699128156 0.1427338881727967
1960000000.0 0.3687392944919104 0.09418111556515261
1980000000.0 -0.18545107056219468 -0.3529097749426828
2000000000.0 -0.41384912171242916 -0.03382431308780682
2020000000.0 -0.0763673708049596 0.4186936383571129
2040000000.0 0.17600350601240117 0.3956812005317646
2060000000.0 0.4347169236093488 -0.027678664011126234
2080000000.0 0.2098008582169598 -0.3791538856737755
2100000000.0 -0.06290823582462916 -0.4213180127697952
2120000000.0 -0.27274605437004695 -0.31452137271149333
2140000000.0 -0.3174642228459403 -0.25265518434042566
2160000000.0 0.1466339483895394 -0.364373454152625
2180000000.0 -0.1007882410304796 -0.36601151606595883
2200000000.0 -0.34897460932917296 -0.11623043178810773
2220000000.0 -0.34732840394108655 0.07867247740559678
2240000000.0 -0.16783159194888553 0.30874134791020275
2260000000.0 0.024730674115854553 0.3504414381591828
2280000000.0 0.2876181073920971 0.20921086836067745
2300000000.0 0.2509688619630546 -0.2696402775187795
2320000000.0 -0.27559890127911824 -0.2758921803510406
2340000000.0 -0.28087165786237417 0.31396972793706346
2360000000.0 0.4586231558131129 -0.05825629614861074
2380000000.0 -0.5068301517081591 -0.054971365352884986
2400000000.0 0.5589055588809908 -0.02090049767973077
2420000000.0 -0.48631911177241655 0.36760878992269536
2440000000.0 0.1405346292702009 -0.6403692953334283
2460000000.0 0.32352248240553405 0.6140643484547467
2480000000.0 -0.5663197517592145 -0.45031589919141685
2500000000.0 0.6293732291713924 0.39298335493471265
2520000000.0 -0.5192354866219957 -0.5451624320102544
2540000000.0 0.1379348828722381 0.7411147081581637
2560000000.0 0.3421827299811519 -0.6646797054967531
2580000000.0 -0.7307870210679032 0.05599550302430866
2600000000.0 0.4969385333473801 0.506473146806149
2620000000.0 0.15324277108082604 -0.6623584413829441
2640000000.0 -0.07622619243606318 -0.639343125559169
2660000000.0 -0.39074028256163545 0.455375624056127
2680000000.0 0.5545431933153698 0.011859326660516225
2700000000.0 -0.3051075216841833 -0.40684128898727834
2720000000.0 -0.04187918987751576 0.4602005317984493
2740000000.0 0.35241862662232376 -0.22679778830911412
2760000000.0 -0.37804435494330296 0.04117283088312257
2780000000.0 0.34550756042394526 0.057997376405950284
2800000000.0 -0.32035514556377015 0.05286152755192107
2820000000.0 0.15127736944467454 -0.26786535996800254
2840000000.0 0.055180900525459785 0.29111274526906084
2860000000.0 -0.27433009733123614 -0.09932097591203815
2880000000.0 0.23650734318984282 -0.16970662983113158
2900000000.0 -0.09729140987532303 0.27555285083397385
2920000000.0 0.2114638659967581 -0.2051139208475847
2940000000.0 -0.2758491976418233 -0.1143324619979974
2960000000.0 -0.2498464253389996 0.16951620322422756
2980000000.0 -0.26018532125733557 0.16005410883488497
3000000000.0 -0.3077613056705946 0.014614562852781234
3020000000.0 -0.1448730544034695 -0.27281829076049596
3040000000.0 0.29031439234387013 -0.09826749343115099
3060000000.0 -0.2026496817292161 0.22853338108491977
3080000000.0 0.09990557533040656 -0.2834723881817005
3100000000.0 -0.13561467112190612 0.262549010959848
3120000000.0 -0.01954750120595267 -0.2890903020109422
3140000000.0 0.208193425826131 0.19001892518528624
3160000000.0 -0.2641789847491646 0.042991902273741764
3180000000.0 0.18971257276720344 0.16615050790129704
3200000000.0 -0.17198039729691333 0.1506705764541587
3220000000.0 -0.11839612557576992 -0.16411153850399798
3240000000.0 0.17276121416245466 -0.0026932941421869785
3260000000.0 -0.09501466250849826 0.10365951763719869
3280000000.0 0.10722220287211987 -0.022257059982493235
3300000000.0 -0.077981096532281 0.014008864410296905
3320000000.0 0.002200108720724188 0.05309376434218282
3340000000.0 -0.013710460627850309 0.026072351888014513
3360000000.0 0.010330980313511562 0.0020019085880796806
3380000000.0 -0.0022578208162089652 -0.004886230565067066
3400000000.0 0.009411432173209841 0.016838433989657252
3420000000.0 0.030762806374185186 -0.008198626991380619
3440000000.0 -0.0024564739598202786 -0.042215515513252276
3460000000.0 0.04679873880686964 -0.021583792545066094
3480000000.0 0.04692145600787281 0.04084272881144312
3500000000.0 0.07725859466919624 -0.0074007395863074504
3520000000.0 -0.039761060497325765 -0.08298687438925781
3540000000.0 0.0801074613506189 0.0711546461792045
3560000000.0 -0.12158855470139593 0.003983443149454856
3580000000.0 0.12057177818395756 -0.060445040145178784
3600000000.0 0.10663326455880999 0.10788657666095572
3620000000.0 -0.03900503559199737 0.15883882899280088
3640000000.0 -0.1719458907012626 0.022966083465629953
3660000000.0 -0.1741233603308276 -0.05947117908986679
3680000000.0 -0.074954174529877 -0.1741200933768151
3700000000.0 -0.04691114469426753 -0.18510654039660895
3720000000.0 0.1507372201844757 -0.11557938239310361
3740000000.0 0.18259788052194453 -0.0267913829251697
3760000000.0 -0.17262256271696555 -0.04440883887089636
3780000000.0 0.1657399090917435 0.03466517952565209
3800000000.0 -0.015614296853169684 -0.16082632865139276
3820000000.0 -0.13133061382148006 -0.08005384671880283
3840000000.0 -0.09514643737603865 -0.11058739645707288
3860000000.0 0.12462393889862747 0.07745895507682612
3880000000.0 0.10825418287036358 0.10660745172319443
3900000000.0 0.15248795572091567 -0.03972718504217975
3920000000.0 -0.16269074171205375 0.0005704506802851331
3940000000.0 0.09889505448466565 -0.13586314149449963
3960000000.0 0.17266588510474493 -0.0020488635394096512
3980000000.0 0.10437926794587853 -0.13861340962827173
4000000000.0 0.149074382553277 -0.0762726994346296
