!Created with skrf (http://scikit-rf.org).
# Hz S RI R 50.0 
!freq ReS11 ImS11
400000000.0 -0.7129503319733932 0.49735763196639127
420000000.0 0.14459135304417964 0.8558759005809644
440000000.0 0.8045615181713947 -0.24365526687361555
460000000.0 -0.01931826286116116 -0.7965958083777779
480000000.0 0.7090344235413059 -0.10490097878863604
500000000.0 -0.12208973700777824 -0.5733545361858708
520000000.0 -0.4790600577720508 0.1618766091888567
540000000.0 0.0403441638823692 -0.4227134934244871
560000000.0 -0.24287214620661368 -0.27892389093964115
580000000.0 0.34541893869436735 -0.04342616670585806
600000000.0 -0.19844717022672254 -0.28768579770754404
620000000.0 0.22646029362254605 0.284564425243453
640000000.0 0.3344543625554395 -0.21922280082810516
660000000.0 -0.37124953059334687 -0.17597479954327597
680000000.0 0.19983899726774537 -0.37583696439540915
700000000.0 -0.4259808206291708 0.008651699480524619
720000000.0 -0.13814953844411146 0.39637755969782607
740000000.0 0.3655398018729422 -0.17894365997038822
760000000.0 -0.3627606406565455 -0.14830720347982065
780000000.0 0.29475029844000206 0.19459670837309145
800000000.0 0.20898217942483638 -0.2420275971811235
820000000.0 -0.24520546443376506 -0.12031269845693322
840000000.0 -0.23639493387999072 0.01048691728929989
860000000.0 0.07880843125220537 -0.18399449937587362
880000000.0 0.062437120163008605 0.14486806790394505
900000000.0 -0.10633898017419004 0.014493022804950595
920000000.0 0.04191233987571991 0.06144169975113899
940000000.0 0.03823951940807333 0.019649078447831383
960000000.0 0.04477908013550869 -0.017470412416094226
980000000.0 -0.0665546013349537 0.0010189822837372313
1000000000.0 -0.007658634551605762 0.08271490164418917
1020000000.0 0.00046623660621813475 0.10252992134505214
1040000000.0 -0.0019115650532927591 0.11970814739161839
1060000000.0 -0.1179091742109384 0.10336455593966677
1080000000.0 -0.04586765046879401 0.1680622280572268
1100000000.0 0.15158211062692387 -0.13087731652810383
1120000000.0 0.07019376811438915 0.21125344512210173
1140000000.0 0.1561231125773186 -0.20246978949445074
1160000000.0 -0.23758737100770416 -0.15389094563433087
1180000000.0 -0.04741796885827815 -0.31432310341970054
1200000000.0 0.2265089614480645 -0.2565952249913443
1220000000.0 -0.174374831734454 0.3244704834920583
1240000000.0 0.38409083082214535 -0.05520155391919078
1260000000.0 -0.3218702650598988 -0.2550109873973566
1280000000.0 -0.35123152228681376 0.23985017681206608
1300000000.0 0.3760297240430675 0.22095003492946722
1320000000.0 0.4337907978227676 -0.059728379155190046
1340000000.0 0.4129114291557668 -0.14373508145706257
1360000000.0 0.4378270333671528 0.01887578813789479
1380000000.0 0.30467418055172163 -0.31041095631738197
1400000000.0 -0.33012433870177676 -0.2723017666706582
1420000000.0 -0.06447281588378286 0.4058826212519506
1440000000.0 0.38396304867868764 -0.009307085612805044
1460000000.0 0.040309863343926236 -0.35070226039651087
1480000000.0 -0.31362931981339137 -0.06660825467628377
1500000000.0 -0.12518085208900734 0.2587002318232812
1520000000.0 0.0594354098511649 0.251349296954704
1540000000.0 -0.1316687536953207 -0.18736928959066876
1560000000.0 0.07775490162721035 -0.17851894183516315
1580000000.0 0.11537989539515531 0.11989095040313204
1600000000.0 0.1259678163789305 -0.04241749544112738
1620000000.0 0.10033665974850473 0.0258411858221505
1640000000.0 -0.03674667748233138 0.06841553204552685
1660000000.0 -0.002459974289814904 -0.054282526224986034
1680000000.0 0.01894339052789886 0.028841632622385278
1700000000.0 -0.0016482774147636866 -0.021213208515527555
1720000000.0 0.005318573693420968 0.001399576481155074
1740000000.0 -0.010348893970198178 -0.012054669183984302
1760000000.0 -0.01751025965401107 0.028337268391612262
1780000000.0 0.05133807590760766 -0.03326307362603986
1800000000.0 -0.08870558535866392 0.027061905370723994
1820000000.0 -0.08777644343322952 0.0893040250414449
1840000000.0 0.0800066768547732 -0.14209383128559636
1860000000.0 -0.16090405895574647 0.11947402012690188
1880000000.0 0.21372281063995158 -0.10949664969879384
1900000000.0 -0.24537911103563925 0.14333723432247042
1920000000.0 0.2138550435597697 -0.2369009703704472
1940000000.0 -0.3181167471333153 0.15359050974178942
1960000000.0 0.3713577875645613 0.08356668353051876
1980000000.0 -0.18639792018967957 -0.35248556647898865
2000000000.0 -0.4150413328489408 -0.0011188164701838304
2020000000.0 -0.07704770901470498 0.4186629790370035
2040000000.0 0.17514282450186006 0.39597616316629314
2060000000.0 0.4352847779808735 -0.025909258873729628
2080000000.0 0.19920962349948515 -0.38508993697934973
2100000000.0 -0.07414290904529391 -0.4194898505760017
2120000000.0 -0.24427902337569016 -0.3370732784507949
2140000000.0 -0.28834368553724843 -0.2857349356768406
2160000000.0 0.16418950349728928 -0.35695966867800044
2180000000.0 -0.1235630889562052 -0.358980863010614
2200000000.0 -0.34025897784671155 -0.13996189073241982
2220000000.0 -0.35077267170592547 0.06197199377346715
2240000000.0 -0.14577644750938376 0.32012176087436034
2260000000.0 0.03493713066079886 0.3496364014785142
2280000000.0 0.283971756361568 0.2143411317304286
2300000000.0 0.25733270552065535 -0.263620476035138
2320000000.0 -0.27081259837457666 -0.28074003811467113
2340000000.0 -0.2736302696130808 0.3205033632386047
2360000000.0 0.45704881588900803 -0.07288547244920465
2380000000.0 -0.5071763711097701 -0.05251639297372216
2400000000.0 0.5540363033918903 -0.07931752423161716
2420000000.0 -0.46072068520773096 0.3999598624727012
2440000000.0 0.13889119333575944 -0.6410522177413331
2460000000.0 0.341826662453611 0.6041904021295467
2480000000.0 -0.557321434677468 -0.46202520066482705
2500000000.0 0.5917194656932463 0.4479709628689266
2520000000.0 -0.5390860073832188 -0.5246945629453502
2540000000.0 0.17345375829842252 0.7331701866262329
2560000000.0 0.31804871905466825 -0.6760089526795012
2580000000.0 -0.720039583260278 0.13413386961386742
2600000000.0 0.4841127135304337 0.5181262749520645
2620000000.0 0.19462185963398743 -0.6508858398903749
2640000000.0 -0.10621509460639643 -0.6346391130606357
2660000000.0 -0.37588664349725115 0.4671382554757575
2680000000.0 0.5534372646832029 -0.029013139130066253
2700000000.0 -0.3447074038122774 -0.37381517138020365
2720000000.0 -0.008144194220375304 0.4620393090719539
2740000000.0 0.35894901281190555 -0.21582074617851688
2760000000.0 -0.379115185077317 0.02503341910726641
2780000000.0 0.34721915290576 0.0457618462220833
2800000000.0 -0.3215866790052313 0.04320251998601421
2820000000.0 0.15024863914724326 -0.26825461380802007
2840000000.0 0.04817586097267925 0.2920232284473957
2860000000.0 -0.2704187993196729 -0.10980053574730173
2880000000.0 0.22965644955621367 -0.1780506226097956
2900000000.0 -0.08928595579768038 0.27758809946549484
2920000000.0 0.20776241029965514 -0.20821538913083934
2940000000.0 -0.28605918561959376 -0.08436645882116517
2960000000.0 -0.24236557483687765 0.17927646142333262
2980000000.0 -0.24437497076451511 0.18270901669598527
3000000000.0 -0.30547914692928874 0.03646087488439773
3020000000.0 -0.16413823945870665 -0.2616542367419841
3040000000.0 0.28582244496598896 -0.11055475923179511
3060000000.0 -0.190834147990858 0.23803824941173846
3080000000.0 0.08143806239836827 -0.28910073128814867
3100000000.0 -0.10840963559960103 0.2749718731553907
3120000000.0 -0.04838404470408096 -0.2854910832976446
3140000000.0 0.22128922954019892 0.17436658992521498
3160000000.0 -0.25996108926524414 0.06376552313005841
3180000000.0 0.19808422297296138 0.15524334801257292
3200000000.0 -0.17215003889467953 0.1500494818020039
3220000000.0 -0.12128304629042214 -0.16213510766309405
3240000000.0 0.17250616883780623 -0.014072272567219199
3260000000.0 -0.08085614633430903 0.11484090122401638
3280000000.0 0.10164026732483065 -0.04068520469852983
3300000000.0 -0.07821281525002914 0.012996202938586963
3320000000.0 0.0027837645736973143 0.05295981323376616
3340000000.0 -0.000916652665480845 0.029394521306597587
3360000000.0 0.005366794829626859 -0.009301009943168468
3380000000.0 0.0024131824471529924 -0.004807572801537463
3400000000.0 0.004569672091491378 0.01871333529486809
3420000000.0 0.031661091376532106 -0.0037262515794202083
3440000000.0 -0.0006795334546573099 -0.04231680931091593
3460000000.0 0.04977552988569016 -0.012223814195525338
3480000000.0 0.04957677905688224 0.03758455480278545
3500000000.0 0.07729175727908759 -0.005199392977518629
3520000000.0 -0.06150179483863454 -0.06848194424220501
3540000000.0 0.0914922463124313 0.05560957537278577
3560000000.0 -0.12120163938453041 0.007423310070336719
3580000000.0 0.12560972409674348 -0.047351143924983144
3600000000.0 0.10262220966741693 0.11119907079667336
3620000000.0 -0.044887888583880965 0.15639692095865104
3640000000.0 -0.17172927769775936 0.017059624921720168
3660000000.0 -0.1736138079747662 -0.05821818795836141
3680000000.0 -0.0760645017488605 -0.1732591332639863
3700000000.0 -0.06055163064537299 -0.18093529070518855
3720000000.0 0.14043980663068528 -0.12724442530688468
3740000000.0 0.18035424216236473 -0.03888230091774982
3760000000.0 -0.17514859782695935 -0.03334662127964218
3780000000.0 0.16653722983567074 0.03079033305234224
3800000000.0 -0.012684018456776308 -0.16103288455388357
3820000000.0 -0.13325349359688388 -0.07740544476475097
3840000000.0 -0.07776435575472714 -0.12421887265217307
3860000000.0 0.12312434811320931 0.08090438392385228
3880000000.0 0.11138926174034217 0.10385439677335216
3900000000.0 0.15213348850659703 -0.04401541092418747
3920000000.0 -0.16319935341593292 -0.007728339516855382
3940000000.0 0.12314726526724538 -0.11548136701148429
3960000000.0 0.16833171619839665 0.04169374156213374
3980000000.0 0.13896475748219567 -0.10436438449674405
4000000000.0 0.1658001578670913 -0.024831692019844302
