!Created with skrf (http://scikit-rf.org).
# Hz S RI R 50.0 
!freq ReS11 ImS11
400000000.0 -0.7180717731707691 0.492394952204466
420000000.0 0.1416482049531253 0.8564745869118895
440000000.0 0.7951639492099872 -0.27286175473075797
460000000.0 0.036153906559162695 -0.7952577333799269
480000000.0 0.7139320380943445 -0.07095704083424594
500000000.0 -0.2143518226691876 -0.5469707532658138
520000000.0 -0.48242080067084253 0.14482452323140424
540000000.0 0.10729678034212886 -0.4116827182671268
560000000.0 -0.23393031293932162 -0.2874856563109752
580000000.0 0.31989176526353313 -0.13755824391358842
600000000.0 -0.15936909414401246 -0.30928844523947996
620000000.0 0.18601086308602624 0.3132705549982661
640000000.0 0.3336674192221593 -0.22084127756988683
660000000.0 -0.37316034710735246 -0.17135254037712264
680000000.0 0.21283368039268832 -0.3687203451202652
700000000.0 -0.4256160899112613 -0.0276445582988174
720000000.0 -0.14438179745773452 0.3942534263328731
740000000.0 0.36289509772760353 -0.18379122780479573
760000000.0 -0.3456482722194572 -0.18352284213869208
780000000.0 0.2938951455948596 0.1953385799408192
800000000.0 0.1975910207440865 -0.2513238635635137
820000000.0 -0.25110146786746523 -0.10700177449559925
840000000.0 -0.23569115484824998 0.021668089100133923
860000000.0 0.07083996529484053 -0.1871471829792447
880000000.0 0.06892142436923332 0.1414911845839363
900000000.0 -0.10721457226605469 -0.0024412383397403076
920000000.0 0.06318724634122412 0.03908463705049057
940000000.0 0.03110079294293291 0.029711397725144605
960000000.0 0.04643060330433274 -0.011189304323650723
980000000.0 -0.0646975296056381 -0.015716360302046203
1000000000.0 -0.002096927586254386 0.08264172918119166
1020000000.0 0.011975676015633726 0.10143728823554145
1040000000.0 0.0063389500681375124 0.11949298819637778
1060000000.0 -0.11228428978435277 0.10917711206398828
1080000000.0 -0.03429417234747773 0.17075451753007034
1100000000.0 0.15290460129824876 -0.12975462611348137
1120000000.0 0.061762335948525815 0.21377358940299296
1140000000.0 0.1464468291067475 -0.20901855082294746
1160000000.0 -0.23145031690958823 -0.1627488889763784
1180000000.0 -0.02266003331042257 -0.3169896685312695
1200000000.0 0.21226424435600622 -0.26883177901609806
1220000000.0 -0.19245418449828336 0.3142390031841001
1240000000.0 0.38570383915551787 -0.04328194034027873
1260000000.0 -0.31599306405443217 -0.262375625139351
1280000000.0 -0.3553324118376049 0.23389558309600664
1300000000.0 0.38347630055736015 0.20798431818994384
1320000000.0 0.43409896903522527 -0.057945288425931295
1340000000.0 0.4127752573225949 -0.1445479987843038
1360000000.0 0.4372896859840925 0.029095830118441652
1380000000.0 0.311897572971916 -0.3032865548445184
1400000000.0 -0.3234565189126801 -0.2805778988971657
1420000000.0 -0.06679356280678597 0.4057749157617277
1440000000.0 0.3836019111106639 -0.019552203803749422
1460000000.0 0.02016727197186578 -0.35243840515509023
1480000000.0 -0.3138127495738765 0.06622045902443983
1500000000.0 -0.13214091832614416 0.25523514691298815
1520000000.0 0.057045433178028244 0.2517277560310384
1540000000.0 -0.12675005601621964 -0.19088645137418558
1560000000.0 0.06795626670743994 -0.18240256044492867
1580000000.0 0.12209742591527503 0.11278770062246533
1600000000.0 0.13241325515294924 -0.011534672111457575
1620000000.0 0.10283489114139142 -0.012728140190901092
1640000000.0 -0.032668379022866637 0.07040238999399709
1660000000.0 -0.006586876384836869 -0.0538038236007574
1680000000.0 0.034054346330695984 -0.004831940596036161
1700000000.0 0.017166796661561727 0.012135008243883862
1720000000.0 0.004593165562112698 -0.0025587394096350316
1740000000.0 0.009608181477065221 -0.012587003010755674
1760000000.0 -0.030217096287043638 0.013290185802690197
1780000000.0 0.04837028165657602 -0.03699781721305806
1800000000.0 -0.08619056436023506 0.03364769226487545
1820000000.0 -0.07732272078651607 0.0982546001143803
1840000000.0 0.07586884785991396 -0.14397779294564791
1860000000.0 -0.1602950466090568 0.1202243402313479
1880000000.0 0.2164546961967585 -0.10352305343657947
1900000000.0 -0.23900058642926789 0.15378231236621057
1920000000.0 0.21890599655136064 -0.23218008421873643
1940000000.0 -0.3202837609010472 0.14891954541061958
1960000000.0 0.37150449383754214 0.08305974198189565
1980000000.0 -0.1837799607681311 -0.354006436815378
2000000000.0 -0.4139539697453278 -0.03503563578252658
2020000000.0 -0.08286599535555532 0.41772397497643293
2040000000.0 0.17503707330433263 0.3962809434292552
2060000000.0 0.43579583060149163 -0.013306913290981276
2080000000.0 0.21781886659272787 -0.3749030337189468
2100000000.0 -0.010152194564839769 -0.426117585081969
2120000000.0 -0.24331164689184331 -0.33771319258313093
2140000000.0 -0.3304273311576186 -0.2348995393418848
2160000000.0 0.20837877295573812 -0.33306333390839493
2180000000.0 -0.06661054828364488 -0.3737988061980098
2200000000.0 -0.33289339907762666 -0.15625138425008864
2220000000.0 -0.34350279753303065 0.09338925349834508
2240000000.0 -0.16554601413940248 0.3098717601586382
2260000000.0 0.022794888352639903 0.3502403950286906
2280000000.0 0.28278902208398815 0.21531950182647025
2300000000.0 0.2584272953414006 -0.26176005354549214
2320000000.0 -0.26343364319022583 -0.28702498278807886
2340000000.0 -0.26695797757407785 0.3259970275668687
2360000000.0 0.46019126903309027 -0.04272913110892694
2380000000.0 -0.5034911023538127 -0.07785348836497993
2400000000.0 0.5592852871299272 -0.0015166016324440808
2420000000.0 -0.5092334779594341 0.33552580558301576
2440000000.0 0.16574674928089486 -0.6344241660159524
2460000000.0 0.30825464093989424 0.6219698760152396
2480000000.0 -0.55001679851381 -0.47034497043530105
2500000000.0 0.5985621298556854 0.4391084214573907
2520000000.0 -0.4925609882670528 -0.5692182207529085
2540000000.0 0.12472600274269877 0.7434477720307117
2560000000.0 0.3604093985105116 -0.6550194862012072
2580000000.0 -0.7260828768005185 0.1004322881288
2600000000.0 0.4622464497959927 0.5386860938816251
2620000000.0 0.17051731986527227 -0.6582862297197655
2640000000.0 -0.09885136225000057 -0.6367620657768134
2660000000.0 -0.41031813579035703 0.4383222351680592
2680000000.0 0.5546259835253903 0.01902467077892262
2700000000.0 -0.30035287659365273 -0.4109736879144071
2720000000.0 -0.05448771783064799 0.4593880870177003
2740000000.0 0.3555192086421495 -0.22225731458751796
2760000000.0 -0.3787127487291793 0.03506353806124675
2780000000.0 0.34542018492903864 0.05929348627851714
2800000000.0 -0.32029201982390615 0.05362304415316544
2820000000.0 0.15745267599948512 -0.2647810091680212
2840000000.0 0.05581762836292982 0.2909084746603698
2860000000.0 -0.270096939734974 -0.11143734467878987
2880000000.0 0.2309603843356102 -0.1770710781402933
2900000000.0 -0.06567543055545799 0.2844856735710715
2920000000.0 0.22361593596340096 -0.19207628766413395
2940000000.0 -0.27803453137263345 -0.10972713923823255
2960000000.0 -0.24764389228999864 0.17298032968650198
2980000000.0 -0.2617455134451595 0.15755287292865133
3000000000.0 -0.3079899655545556 0.01600201398682476
3020000000.0 -0.16145977817491614 -0.26386597223487135
3040000000.0 0.2832168213632764 -0.11788472804176264
3060000000.0 -0.1849450981394036 0.24317880196354624
3080000000.0 0.10162881893163482 -0.2832083486020638
3100000000.0 -0.14479072736321402 0.25759152171127364
3120000000.0 -0.009962984161316343 -0.2894806287945486
3140000000.0 0.19796308761106096 0.20043157284099627
3160000000.0 -0.2613165966536618 0.059128223954480606
3180000000.0 0.18348441981579086 0.17233234134432962
3200000000.0 -0.17452585204290044 0.14726847804970133
3220000000.0 -0.10730979910231782 -0.17151595210824366
3240000000.0 0.17292955049422848 -0.0017012466731542053
3260000000.0 -0.08761005654317136 0.10978931755542531
3280000000.0 0.10726620667076853 -0.02176342656936255
3300000000.0 -0.07742044749172096 0.017260897162651712
3320000000.0 0.006983108037183435 0.052723252625733616
3340000000.0 0.009482124699203764 0.027698377887732942
3360000000.0 0.010168244016898509 0.0021175247785377017
3380000000.0 -0.005011908383596055 0.002632193179645133
3400000000.0 0.0011233242283336486 0.01943625380789235
3420000000.0 0.02037266910009834 0.02453835548443057
3440000000.0 0.0040809900572041195 -0.042239541805266664
3460000000.0 0.05035686482616802 -0.011637226814234814
3480000000.0 0.04045917019108681 0.04747479094075807
3500000000.0 0.07762131255070556 0.0017886444877107546
3520000000.0 -0.047853923908225265 -0.07902886897358789
3540000000.0 0.09012782281378623 0.058257649145532185
3560000000.0 -0.12056649258821944 -0.015449043546256048
3580000000.0 0.1256965172789733 -0.04870347918466299
3600000000.0 0.09753037665050546 0.11608425986619199
3620000000.0 -0.05790845934852417 0.1524575243509597
3640000000.0 -0.17315533567821753 0.005196194721135562
3660000000.0 -0.1695726071868474 -0.07024946856403101
3680000000.0 -0.0741981236515701 -0.17426377782326102
3700000000.0 -0.0413483569255394 -0.18614522681456153
3720000000.0 0.14574141528914647 -0.12136508405340288
3740000000.0 0.18107268303802454 -0.035700515786559195
3760000000.0 -0.1748359395752745 -0.03351571365253594
3780000000.0 0.16532376374354446 0.03724612694461778
3800000000.0 -0.009681015871161032 -0.16136922387865782
3820000000.0 -0.12975536720490563 -0.08270252130867223
3840000000.0 -0.07987447497594867 -0.12225195463571603
3860000000.0 0.11924855973424313 0.0856517475774104
3880000000.0 0.09125021755881 0.1218994040890384
3900000000.0 0.15691680321126683 -0.015607944919615743
3920000000.0 -0.1624744120565859 -0.010460245686973443
3940000000.0 0.10694362613607869 -0.1298795482460265
3960000000.0 0.17187498212244373 0.01622127844524536
3980000000.0 0.10733585751269055 -0.1360162959439515
4000000000.0 0.14071850993019833 -0.09087344994920704
