!Created with skrf (http://scikit-rf.org).
# Hz S RI R 50.0 
!freq ReS11 ImS11
400000000.0 -0.7397244394660861 0.45938302053426666
420000000.0 0.11783346929935926 0.859996997611371
440000000.0 0.8030816138895288 -0.24534558051244304
460000000.0 0.022085057559491254 -0.7958865736816567
480000000.0 0.7055037072339353 -0.1272672062441399
500000000.0 -0.13159515298205868 -0.5715079694830246
520000000.0 -0.4823534370566616 0.15103891187102417
540000000.0 0.04245104115620845 -0.42274158515001425
560000000.0 -0.25937772400010034 -0.2640743394991359
580000000.0 0.3419417429876928 -0.06260139196248736
600000000.0 -0.13732519985957817 -0.32175008900236934
620000000.0 0.22910298487984304 0.28245893390678706
640000000.0 0.3205105700857131 -0.23742146637283654
660000000.0 -0.38313286479388875 -0.14615070644836486
680000000.0 0.18119143248268088 -0.38572271080127574
700000000.0 -0.42609218685821787 0.013597661582008477
720000000.0 -0.13187583830523686 0.3985490540867737
740000000.0 0.3805001457992604 -0.14520174285171927
760000000.0 -0.3632114637677384 -0.14619265258732503
780000000.0 0.2937816688344282 0.19614574528566414
800000000.0 0.20003771615679689 -0.25017092458989265
820000000.0 -0.24179524290520343 -0.12823463908801375
840000000.0 -0.236770126984091 -0.005106978131511595
860000000.0 0.07484666082815461 -0.1861299529043191
880000000.0 0.04720132427956029 0.15085946219566945
900000000.0 -0.10614663507106367 -0.014380979303624803
920000000.0 0.036048782639408646 0.06483917612946795
940000000.0 0.04203530896123831 0.006514210350264898
960000000.0 0.01578403159927687 -0.04520738199056645
980000000.0 -0.06720747004763879 0.0023498963458461366
1000000000.0 -0.030611407486902872 0.07775697082704261
1020000000.0 -0.014385394741070399 0.10172933462448736
1040000000.0 -0.002646136711997751 0.1195380386413916
1060000000.0 -0.11061491828765925 0.11139082478223158
1080000000.0 -0.04359761635805836 0.16913138581778292
1100000000.0 0.1579575966758191 -0.12362063969935058
1120000000.0 0.018415500399415047 0.22207870333101262
1140000000.0 0.17666080191614875 -0.18388242739602698
1160000000.0 -0.23508106951560057 -0.15671078400718205
1180000000.0 -0.04421419935353579 -0.31411468937315845
1200000000.0 0.22256879901683638 -0.2592525854390769
1220000000.0 -0.19145699589024084 0.3139350165097943
1240000000.0 0.38192331312698363 -0.06298049068728095
1260000000.0 -0.3205299619467249 -0.2561209891456603
1280000000.0 -0.33609000214578966 0.26053686108476853
1300000000.0 0.37633785055017116 0.21989736214975703
1320000000.0 0.434719486375394 -0.050232971341334455
1340000000.0 0.41414242964223213 -0.1402279311710075
1360000000.0 0.43750941050603404 0.024911973417821625
1380000000.0 0.30642438931325605 -0.3088772682217322
1400000000.0 -0.3235768705408392 -0.2810008629609555
1420000000.0 -0.0707060902216148 0.4051461474975492
1440000000.0 0.3842464272449751 0.01040034052994117
1460000000.0 0.06040243429518834 -0.34820284797058126
1480000000.0 -0.3192897526522879 0.0320409680091541
1500000000.0 -0.14083162553079462 0.2509717975892549
1520000000.0 0.0531048508341403 0.2526705448279099
1540000000.0 -0.13107166417145022 -0.18746753459658785
1560000000.0 0.11927588437869847 -0.15361307835005006
1580000000.0 0.12074954011605749 0.11334136737453107
1600000000.0 0.1248713300917853 -0.042679751268325204
1620000000.0 0.09895425231917471 -0.028458356924103874
1640000000.0 0.024438316644337984 0.07307758263428596
1660000000.0 -0.026484451417176494 -0.04708335033472979
1680000000.0 0.02704046346774905 0.02106478979710735
1700000000.0 -0.020178021900343603 -0.00778341213895077
1720000000.0 0.0055926323044244676 0.0017361803569390366
1740000000.0 -0.014870931667197029 0.002947351440414695
1760000000.0 0.03218236086862543 0.003673017629741469
1780000000.0 -0.006024828633802163 -0.060058694006164884
1800000000.0 -0.034882578923463844 0.08608368543391638
1820000000.0 -0.02902223018361203 0.12186736954829888
1840000000.0 0.04444558992841235 -0.15696799923730154
1860000000.0 -0.12869088895990088 0.15349923602920723
1880000000.0 0.19314694415369651 -0.14289311544390113
1900000000.0 -0.23125409805871586 0.16599345228051327
1920000000.0 0.21551164853543592 -0.23629323884736875
1940000000.0 -0.32747115185185105 0.13418059884847622
1960000000.0 0.3607892504990057 0.12167584746723989
1980000000.0 -0.13250433191955843 -0.3762275857252109
2000000000.0 -0.40958055226071327 -0.0671892975679312
2020000000.0 -0.12193958161717396 0.4077108249203265
2040000000.0 0.14705406721711278 0.40683963723503497
2060000000.0 0.4353638631743443 0.00017771355259688201
2080000000.0 0.24016448213921876 -0.36026012402469276
2100000000.0 -0.007219803690275287 -0.4251570637198299
2120000000.0 -0.22327462030855408 -0.3504339044099492
2140000000.0 -0.32552437182757993 -0.24059011875937156
2160000000.0 0.09718446414931328 -0.37961074198481315
2180000000.0 -0.14740657154842102 -0.34983638629545954
2200000000.0 -0.3438317843754288 -0.1288499095234159
2220000000.0 -0.3435214850442176 0.0929430540095647
2240000000.0 -0.11088076019015138 0.333076112906996
2260000000.0 0.061724910335642855 0.3455237228839332
2280000000.0 0.3063597841467076 0.1803642259267489
2300000000.0 0.23084642786797915 -0.28738444538588787
2320000000.0 -0.26924951634882216 -0.28271419938456666
2340000000.0 -0.26024854662759916 0.3325086455650496
2360000000.0 0.45776646381420566 -0.07040794812765032
2380000000.0 -0.5091803398818442 -0.03283276989624575
2400000000.0 0.5591969236576473 -0.02652320236992117
2420000000.0 -0.5001916095407355 0.34910916035124157
2440000000.0 0.1416126715742409 -0.640057697907067
2460000000.0 0.32674034009613256 0.6118446959847287
2480000000.0 -0.5938042858609218 -0.4118497905322941
2500000000.0 0.6235964748116084 0.4013228451899186
2520000000.0 -0.5705194586571294 -0.48958066914565923
2540000000.0 0.19669246594256204 0.7273162174418997
2560000000.0 0.2822843558110588 -0.6918324597787926
2580000000.0 -0.7219501834594756 0.12559578834308188
2600000000.0 0.5068565623748938 0.4954267130905996
2620000000.0 0.13694810335583402 -0.6647331466716436
2640000000.0 -0.16597368223722464 -0.6214514014189689
2660000000.0 -0.3559066869203278 0.482446709391996
2680000000.0 0.5506657585793123 0.06367014628627204
2700000000.0 -0.33037845932635035 -0.3867353830496244
2720000000.0 -0.051405022740501766 0.45925213890976085
2740000000.0 0.3655768857260276 -0.2032804182655768
2760000000.0 -0.37840547399280183 0.03226096373128406
2780000000.0 0.34816658341099194 0.037504655554011536
2800000000.0 -0.3209254469264756 0.051106362595120934
2820000000.0 0.1679452533331543 -0.25815847645825757
2840000000.0 0.012265043294196911 0.2957723388846744
2860000000.0 -0.2573814422538094 -0.13752748527935987
2880000000.0 0.24032970203284 -0.16363227737481006
2900000000.0 -0.11658505401111612 0.26752857207248726
2920000000.0 0.23171005645872417 -0.1808007372706555
2940000000.0 -0.26617665727377665 -0.13489720664210642
2960000000.0 -0.2344601040045816 0.18932664326416745
2980000000.0 -0.2418908590245921 0.185770165735244
3000000000.0 -0.30298497078795567 0.05374920123096366
3020000000.0 -0.18537271746518447 -0.24666224096134576
3040000000.0 0.2891793901624809 -0.0993734418184265
3060000000.0 -0.1798688291245132 0.24402640120070612
3080000000.0 0.08384952135059114 -0.2879467204182225
3100000000.0 -0.06473636162167165 0.287427973537387
3120000000.0 -0.08365354107176705 -0.276955639870861
3140000000.0 0.22438947765739967 0.169791888764626
3160000000.0 -0.25510967764023934 0.07929134569869731
3180000000.0 0.23498568064876185 0.08937074661619157
3200000000.0 -0.10145067462923003 0.20435166741833224
3220000000.0 -0.16890972813245933 -0.11142204186110916
3240000000.0 0.15074372961975221 -0.08516829829381652
3260000000.0 -0.02508700190006738 0.1393457400084756
3280000000.0 0.07287733924190655 -0.08249064346783602
3300000000.0 -0.07867810374770176 0.01651518584904018
3320000000.0 0.031939053421217056 0.043679971771166184
3340000000.0 0.027912357575877112 -0.011437449333745202
3360000000.0 -0.009922616777495404 -0.005673449529476759
3380000000.0 -0.001281278452531077 0.0039052392100497875
3400000000.0 0.01326469272336235 0.011391125052618247
3420000000.0 -0.001185952030917126 -0.030247867956149876
3440000000.0 -0.03571533715138577 -0.01859420108678965
3460000000.0 0.0343002204211743 -0.03603247519561117
3480000000.0 0.05760174973799817 0.019821556609465007
3500000000.0 0.06906485603732239 -0.03092943607167712
3520000000.0 -0.07238779258436508 -0.05509394968374858
3540000000.0 0.10469453525775436 0.012306874759393887
3560000000.0 -0.09125224269430103 0.07777610916141371
3580000000.0 0.08273676856078037 -0.10525101758688504
3600000000.0 0.1378560162023934 0.06125473330739969
3620000000.0 0.08673521428047104 0.13795307031531232
3640000000.0 -0.09857067838359598 0.1424880940627394
3660000000.0 -0.18014863371535672 0.0366109372179967
3680000000.0 -0.15616527818329523 -0.10656791897849915
3700000000.0 -0.12172811746303033 -0.1460972312504613
3720000000.0 0.036170370836668755 -0.1861305282381326
3740000000.0 0.14475204063008645 -0.11550991966616515
3760000000.0 -0.16107572241547022 0.07840430292140878
3780000000.0 0.15987393484893775 -0.05955909540095575
3800000000.0 -0.07914276441837405 -0.14289055075492463
3820000000.0 -0.15223871036820735 0.03196872847637433
3840000000.0 -0.13138404653672484 -0.06716451659573826
3860000000.0 0.14646187204666183 -0.020208336873184518
3880000000.0 0.15148294807858226 0.022879087327989416
3900000000.0 0.09467341287790387 -0.12877170624799616
3920000000.0 -0.1526759654657352 0.06304283810553214
3940000000.0 0.026937330955291224 -0.16826272689372962
3960000000.0 0.16464679944042027 -0.06030227367564433
3980000000.0 0.02025370368053248 -0.17319163419250622
4000000000.0 0.013023763655537314 -0.1668473683884259
