!Created with skrf (http://scikit-rf.org).
# Hz S RI R 50.0 
!freq ReS11 ImS11
400000000.0 -0.7004252822703573 0.5189512787945876
420000000.0 0.1611400631141946 0.8533308117192965
440000000.0 0.8016876536869197 -0.25192265314526885
460000000.0 -0.005461862861637028 -0.7962818250732305
480000000.0 0.7147793691209394 -0.06313227500228075
500000000.0 -0.18810028334770354 -0.5558862971584129
520000000.0 -0.49095256065205906 0.11550708994705823
540000000.0 0.0995411948982957 -0.41421782173984495
560000000.0 -0.2825898460614139 -0.24047413998411532
580000000.0 0.32799890520038844 -0.1121137544095072
600000000.0 -0.08456673690499686 -0.3387438968164054
620000000.0 0.219876698561483 0.29171760278840647
640000000.0 0.3239552231625082 -0.2345095143863992
660000000.0 -0.3557684227813415 -0.20496494957972358
680000000.0 0.21640348706917625 -0.36695322036005573
700000000.0 -0.42486294404469993 -0.036249212096553345
720000000.0 -0.1470638140051406 0.3932548615200349
740000000.0 0.37447279210855466 -0.15904256751962054
760000000.0 -0.3607564491527745 -0.1519838698082958
780000000.0 0.2861095136822793 0.20684299862821526
800000000.0 0.20795859723498009 -0.24269997689792697
820000000.0 -0.24759695107980495 -0.11522694441534308
840000000.0 -0.23600536729640137 0.016261201957139596
860000000.0 0.05581932166951307 -0.19234913898530928
880000000.0 0.0758780538684136 0.1382941133296617
900000000.0 -0.10341918397934531 0.029389728821038567
920000000.0 0.05694265514097281 0.04825544054475583
940000000.0 0.021160218674822626 0.038003090359335245
960000000.0 0.044693738504175455 -0.017049832746322463
980000000.0 -0.06508484796502832 -0.01490244747577028
1000000000.0 -0.002845796315248204 0.0828657257585383
1020000000.0 0.01452422146288729 0.10136668107521916
1040000000.0 0.006943677506044008 0.11943855133380159
1060000000.0 -0.11251110711568922 0.10869551936688125
1080000000.0 -0.026566333604176907 0.1721152330811331
1100000000.0 0.14390547456307545 -0.1397174049514472
1120000000.0 0.10447721267745903 0.1967128599702959
1140000000.0 0.13926812477994424 -0.2142973417126905
1160000000.0 -0.22019582066332857 -0.1775788577762761
1180000000.0 -0.030546450777486855 -0.31659365329384975
1200000000.0 0.23387618695922388 -0.24990347498209697
1220000000.0 -0.19516048180274315 0.3126486065894181
1240000000.0 0.38567152985256453 -0.04354610214768435
1260000000.0 -0.2927244522481614 -0.28767084925234304
1280000000.0 -0.36014316511902433 0.2261209390464005
1300000000.0 0.38295985489122564 0.20863109141230146
1320000000.0 0.43446704417190984 -0.05373490464889335
1340000000.0 0.41219287230305307 -0.14558561316132432
1360000000.0 0.4375867294513656 0.02352155649087376
1380000000.0 0.3095595761647638 -0.30550897271602023
1400000000.0 -0.32398530032955564 -0.2799388655175005
1420000000.0 -0.06538311829155641 0.40581690720801133
1440000000.0 0.38379958720009805 -0.016105664771892236
1460000000.0 0.01797743156483633 -0.3521505904578296
1480000000.0 -0.31365853235445174 0.06614480466293905
1500000000.0 -0.12882617388966894 0.2571205404741604
1520000000.0 0.050135509333813055 0.25333158924053006
1540000000.0 -0.14975437572228928 -0.17306183774667777
1560000000.0 0.08403255577451192 -0.17586417235358526
1580000000.0 0.12763072836777972 0.10681260157203805
1600000000.0 0.12795184042399868 -0.03647486575519448
1620000000.0 0.10281826674493905 0.013331887913576076
1640000000.0 -0.02622401561831091 0.07316719029131713
1660000000.0 0.007305220203712847 -0.053557501099994714
1680000000.0 0.020720775478564747 0.027451551030522006
1700000000.0 0.00020697283178655625 -0.021287237806180866
1720000000.0 0.0044225214099229216 0.0029898624621387776
1740000000.0 -0.0034917492784691077 -0.015690994275792732
1760000000.0 -0.016239443974467454 0.029243283413087292
1780000000.0 0.05489420230865437 -0.026327055848694065
1800000000.0 -0.08683281022245107 0.032393927628750686
1820000000.0 -0.0853714357400463 0.0914868008885432
1840000000.0 0.07527328897970993 -0.14446362130707738
1860000000.0 -0.1594603592772077 0.12140399662460169
1880000000.0 0.21296497972014855 -0.11083767170071361
1900000000.0 -0.23823622443180822 0.15519710027164788
1920000000.0 0.21947677340605223 -0.23175238685542654
1940000000.0 -0.3210952199834904 0.14749879412946218
1960000000.0 0.3715270365832668 0.08289593309948133
1980000000.0 -0.18426302826416774 -0.3537097652291536
2000000000.0 -0.4141191410530359 -0.03279415585760694
2020000000.0 -0.08913280342675726 0.4162308577373906
2040000000.0 0.18163192310301765 0.39335980142401306
2060000000.0 0.43473486996513694 -0.03360974173102551
2080000000.0 0.1914784857779055 -0.3886175124925542
2100000000.0 -0.03919668383185641 -0.42426675977321804
2120000000.0 -0.2241380506883639 -0.35097929217458773
2140000000.0 -0.29372669255770945 -0.2798263921004541
2160000000.0 0.17467072810495868 -0.35174469118972645
2180000000.0 -0.11210199094887294 -0.36261429929469313
2200000000.0 -0.33600446925682326 -0.14978972551634467
2220000000.0 -0.3544104354935848 0.03627949194707888
2240000000.0 -0.1635417517076212 0.31091080561972206
2260000000.0 0.030818548346202863 0.34994769758147826
2280000000.0 0.2898278277707134 0.20609503280758984
2300000000.0 0.2525147431747316 -0.2680897571130743
2320000000.0 -0.27387884029573867 -0.27754013245308357
2340000000.0 -0.2805054133892154 0.3141277384413251
2360000000.0 0.45707116035588263 -0.07032398667035317
2380000000.0 -0.5073087506457363 -0.05108686433024968
2400000000.0 0.5588914889765417 -0.023666978972436914
2420000000.0 -0.4803642882644216 0.37547438134064465
2440000000.0 0.13717568225359753 -0.6411261038323464
2460000000.0 0.3291410429460269 0.611163771044153
2480000000.0 -0.5748540075357064 -0.4394379575276689
2500000000.0 0.6289110293883352 0.3935931660509951
2520000000.0 -0.5329248848721594 -0.5315873454882829
2540000000.0 0.13332812011661846 0.7417383128644374
2560000000.0 0.3468067691503904 -0.6620588583366311
2580000000.0 -0.731999874571281 0.03532390448458557
2600000000.0 0.4876420489141696 0.515321353293643
2620000000.0 0.13430455402718386 -0.6665560112416224
2640000000.0 -0.07093065294772748 -0.6401900215439935
2660000000.0 -0.38463797421437745 0.46062176657834697
2680000000.0 0.5546431527703173 -0.00030743126483129946
2700000000.0 -0.314454724050634 -0.39988495218623143
2720000000.0 -0.03685651033409138 0.460934882945426
2740000000.0 0.3534606174108982 -0.22525678524026316
2760000000.0 -0.37821952338079046 0.040334756653066545
2780000000.0 0.3435639083318998 0.06875273530882188
2800000000.0 -0.3214885914321958 0.04514981005503619
2820000000.0 0.15142302343155736 -0.26770978367206855
2840000000.0 0.04971356171395727 0.29176451747795207
2860000000.0 -0.2711368532063589 -0.10897793469976691
2880000000.0 0.23422504389638357 -0.17288763673726862
2900000000.0 -0.08016359433094963 0.28076928756601244
2920000000.0 0.19881336465057795 -0.21682106599679488
2940000000.0 -0.28851206934848694 -0.07716105840516585
2960000000.0 -0.2508028097273738 0.16865228397235424
2980000000.0 -0.26293920046980584 0.1555586758948586
3000000000.0 -0.3077981434538555 0.006513889937201511
3020000000.0 -0.16126052733502103 -0.26415703600150897
3040000000.0 0.28652572957228023 -0.10959302584292126
3060000000.0 -0.20703510254297294 0.2241902096083911
3080000000.0 0.1085903944426519 -0.2802738352768119
3100000000.0 -0.12853243502871017 0.266423618620508
3120000000.0 -0.05926013321308293 -0.2838588152562538
3140000000.0 0.20321483291485326 0.19487617198969456
3160000000.0 -0.26134905095645805 0.05853693081726808
3180000000.0 0.20449433422309934 0.14785722310275973
3200000000.0 -0.1701378248144004 0.15210913324403375
3220000000.0 -0.11081194163766782 -0.1690722362702239
3240000000.0 0.17259249327771323 -0.0107586676434026
3260000000.0 -0.0783476054082233 0.11666444627758385
3280000000.0 0.09869715848056902 -0.0467353177071005
3300000000.0 -0.07541802169521722 0.023703848104123838
3320000000.0 0.01405641628580721 0.051224748973517614
3340000000.0 0.014094172224107377 0.02585525492218061
3360000000.0 -0.010484637088999058 -0.0010505157249995358
3380000000.0 0.0012083076987471169 -0.005436311245844192
3400000000.0 0.004299666351123279 0.018885152032310247
3420000000.0 0.028049671552013614 0.015159978701073214
3440000000.0 -0.0004278399250096309 -0.04234073398093223
3460000000.0 0.050871883753618355 -0.007129489319688392
3480000000.0 0.03541286276009721 0.05114078488833506
3500000000.0 0.07742010623050766 -0.00014072251160152782
3520000000.0 -0.03750782533774451 -0.08416880112554818
3540000000.0 0.09390007708449215 0.05156987317631506
3560000000.0 -0.12139474112260634 0.0036058884067312665
3580000000.0 0.11595509720185651 -0.06842480005468117
3600000000.0 0.10782274375938218 0.10654582595629046
3620000000.0 -0.025231376325704845 0.16149250109307486
3640000000.0 -0.17181456261500921 0.02155292228017063
3660000000.0 -0.1761471406885189 -0.051258548928581955
3680000000.0 -0.07721268444550478 -0.1729513235865424
3700000000.0 -0.05528350163607167 -0.18268147541037744
3720000000.0 0.13928091856874994 -0.12937707667387416
3740000000.0 0.18013101659333666 -0.04032504827084866
3760000000.0 -0.17501659183446142 -0.034394134073167916
3780000000.0 0.1660393929899283 0.03586687087746103
3800000000.0 -0.018059652817259155 -0.161049636030912
3820000000.0 -0.13540743727352544 -0.0734590812677287
3840000000.0 -0.0697950095054321 -0.1288665433529873
3860000000.0 0.1213669489192495 0.08307663478161137
3880000000.0 0.10448273113028542 0.11064576259998309
3900000000.0 0.1573037909110262 -0.01661484855774103
3920000000.0 -0.16231699662659357 -0.018495036352092483
3940000000.0 0.1281004552770505 -0.10953408274727193
3960000000.0 0.16483086163907387 0.0524950496397968
3980000000.0 0.1488605795356532 -0.08967110462181763
4000000000.0 0.1646156503290431 -0.031173924035390505
