!Created with skrf (http://scikit-rf.org).
# Hz S RI R 50.0 
!freq ReS11 ImS11
400000000.0 -0.7201414496665169 0.4869912386365158
420000000.0 0.15251327728296002 0.8546483672202732
440000000.0 0.8048726831761022 -0.24118200965944145
460000000.0 0.012370153245658754 -0.7965201755430436
480000000.0 0.7118477783352467 -0.08930810897933034
500000000.0 -0.2061422181357152 -0.5486819365237433
520000000.0 -0.4957701329348822 0.09434286872961234
540000000.0 0.07537490554659565 -0.4194485754592267
560000000.0 -0.284011797036617 -0.2381624606099174
580000000.0 0.333948782737646 -0.09384116818887306
600000000.0 -0.119484523816643 -0.32857318201733476
620000000.0 0.2557383765758488 0.26046808314940734
640000000.0 0.329831941009438 -0.2261663324364287
660000000.0 -0.35678700331784263 -0.20307010195772043
680000000.0 0.21563645581240323 -0.3674871865870141
700000000.0 -0.4263957058869103 0.00513460226052003
720000000.0 -0.13701972768821566 0.39693491608311116
740000000.0 0.37761637586811575 -0.15302807516449962
760000000.0 -0.3557685987759168 -0.16361058139909695
780000000.0 0.2892193250725917 0.20213908811650821
800000000.0 0.20222409960665505 -0.24752250196894793
820000000.0 -0.2521474765011083 -0.10486173714469897
840000000.0 -0.23396341308413196 0.035384413745217065
860000000.0 0.050772147128900276 -0.19381727866604323
880000000.0 0.07315784578518389 0.1396401912599113
900000000.0 -0.10542625410878742 0.020225008078929293
920000000.0 0.05357799946324412 0.05140554107511319
940000000.0 0.03194244690854765 0.029198899948778258
960000000.0 0.027444969494656163 -0.03932285996099203
980000000.0 -0.06673603650934987 -0.004448674355492278
1000000000.0 -0.012513217296694095 0.08205600644266589
1020000000.0 0.008084779257243768 0.10208385820061279
1040000000.0 0.008589276901421077 0.11931004450841291
1060000000.0 -0.11788091455988929 0.1030649707911448
1080000000.0 -0.045233015028709675 0.16826430724756639
1100000000.0 0.12457622591542077 -0.15690396035300722
1120000000.0 0.08447304336336546 0.20587773222750022
1140000000.0 0.15667237254190894 -0.20175353708534166
1160000000.0 -0.24098401689200594 -0.14842580372704464
1180000000.0 -0.048548457126678636 -0.3142241588639613
1200000000.0 0.22570797336110723 -0.25720525479721923
1220000000.0 -0.18515456479129175 0.3186617018574023
1240000000.0 0.3852972823129739 -0.04666089845670898
1260000000.0 -0.29527464312124213 -0.2852846149782765
1280000000.0 -0.35754311294509145 0.23051522777346165
1300000000.0 0.3823233297840993 0.21022698035632054
1320000000.0 0.4345389440537776 -0.05533124169583538
1340000000.0 0.4133976555857797 -0.14280610585209005
1360000000.0 0.43687878325773044 0.03636344823488625
1380000000.0 0.3151615487770977 -0.29989877595276543
1400000000.0 -0.31576377956889673 -0.2893694312808569
1420000000.0 -0.06066554838178659 0.4064706346617373
1440000000.0 0.3840353983695185 -0.003975356115873817
1460000000.0 0.02374089999270567 -0.3520033845646987
1480000000.0 -0.3141634210172014 0.06331359067947825
1500000000.0 -0.13238083253206617 0.25531000728331216
1520000000.0 0.052026124707389945 0.25287031941618426
1540000000.0 -0.15578905111846728 -0.16754575870917354
1560000000.0 0.08738308189994408 -0.17409617037233044
1580000000.0 0.1309142507612303 0.10282648068176442
1600000000.0 0.12684546519907963 -0.0400538933647578
1620000000.0 0.1020407859148552 0.0182405601610171
1640000000.0 -0.00973775560015354 0.07744604870195221
1660000000.0 -0.007833154215545864 -0.05396758734420697
1680000000.0 0.018871740050308405 0.02895933705249208
1700000000.0 0.008929184528055033 -0.01950644553292498
1720000000.0 0.0036747905632001487 0.004112883155926696
1740000000.0 -0.004878443897704077 -0.01525878854747251
1760000000.0 -0.02232728341816089 0.024686327202092538
1780000000.0 0.047898928045032214 -0.03803413163143412
1800000000.0 -0.08831301181153746 0.028478011292896843
1820000000.0 -0.08786792943391046 0.08909886868483094
1840000000.0 0.07681846751205428 -0.14374755239278994
1860000000.0 -0.1704866808902934 0.10511042981094731
1880000000.0 0.22081589485504885 -0.09424110001493731
1900000000.0 -0.24509820018245718 0.1438653672164379
1920000000.0 0.2273714720927859 -0.22370452239970018
1940000000.0 -0.32253685950904987 0.1434550556721382
1960000000.0 0.37056094738532747 0.08661773725687066
1980000000.0 -0.18882007204719997 -0.3510891757693849
2000000000.0 -0.41390064348123823 -0.0323924207903411
2020000000.0 -0.07705838506110453 0.4185641103034662
2040000000.0 0.18372147951261197 0.39227023069121864
2060000000.0 0.43413975288891 -0.0369126196327812
2080000000.0 0.207440751125528 -0.3806650229153863
2100000000.0 -0.04938159129099378 -0.42331179956856985
2120000000.0 -0.24867692589193643 -0.3339277799870536
2140000000.0 -0.3088934196220288 -0.26315422330122173
2160000000.0 0.15828948784238706 -0.3594692585761927
2180000000.0 -0.1002252674562055 -0.3662830548215039
2200000000.0 -0.34562188433420044 -0.1263328168043345
2220000000.0 -0.3508094061000487 0.061863476140965046
2240000000.0 -0.15644489147719698 0.314978040719763
2260000000.0 0.019570671449882105 0.35058628133215447
2280000000.0 0.2772935943894345 0.22242847997879175
2300000000.0 0.26492582653280905 -0.25515494402219896
2320000000.0 -0.2697580425744416 -0.28153407766684224
2340000000.0 -0.28132331726741916 0.3135873329279671
2360000000.0 0.45890823268325154 -0.05573255949762319
2380000000.0 -0.5061570085713747 -0.058083764825870285
2400000000.0 0.556165908217271 -0.0597374090853871
2420000000.0 -0.48442505792519097 0.3704542596452782
2440000000.0 0.18405740737099283 -0.629253120030397
2460000000.0 0.3138100105184766 0.6191464367829266
2480000000.0 -0.5901316959857995 -0.41796332349173565
2500000000.0 0.6049915593429839 0.4301962710745842
2520000000.0 -0.5131134731613922 -0.5507088447688038
2540000000.0 0.19378885162880735 0.7284056726888083
2560000000.0 0.34465856434888426 -0.6634487044594235
2580000000.0 -0.7320919458850734 0.037700137028715004
2600000000.0 0.4960386904793127 0.5073716173687411
2620000000.0 0.10026386594757011 -0.6724978717066915
2640000000.0 -0.08684415040643935 -0.638105648940856
2660000000.0 -0.3939337932711126 0.4526848509323619
2680000000.0 0.5546967082204726 0.00797234050530948
2700000000.0 -0.3056992976172396 -0.4067880328809233
2720000000.0 -0.03208818260726146 0.4614194828611119
2740000000.0 0.36409442844028844 -0.20793215549721167
2760000000.0 -0.37851399578641 0.0387275191643111
2780000000.0 0.3451160197413262 0.06146503706740426
2800000000.0 -0.32196134572801777 0.04372816391803902
2820000000.0 0.15374634047546784 -0.26666174232486767
2840000000.0 0.0366555823165203 0.29400536442415337
2860000000.0 -0.26661264284500413 -0.11979711441858062
2880000000.0 0.24155934724214406 -0.1624562054002979
2900000000.0 -0.09097047167402728 0.2772067938450299
2920000000.0 0.22816696713763213 -0.18624222327595738
2940000000.0 -0.2828354959675968 -0.09566257258061131
2960000000.0 -0.22740142318814183 0.1983935941742394
2980000000.0 -0.25580821333477394 0.16752650250005488
3000000000.0 -0.3075234914926539 0.024898488242008358
3020000000.0 -0.17053704269650688 -0.2583342284210093
3040000000.0 0.2865172499681173 -0.10954788607241304
3060000000.0 -0.18807387416454222 0.24063544846177803
3080000000.0 0.08635018866758806 -0.28821886385141454
3100000000.0 -0.12004815877066163 0.27035778664609394
3120000000.0 -0.030013924716622394 -0.2881853076857548
3140000000.0 0.2050310323334875 0.19370079936504198
3160000000.0 -0.26533350977747266 0.038332858818686144
3180000000.0 0.18736248912978046 0.16882639539213679
3200000000.0 -0.18290881950090065 0.13712008165041553
3220000000.0 -0.09016703364937095 -0.18147950599754537
3240000000.0 0.17251313081763847 0.010548731639368196
3260000000.0 -0.09805734500196436 0.10063091863921768
3280000000.0 0.10854881344799701 -0.013219711159000816
3300000000.0 -0.07891766594483401 0.006188049963739664
3320000000.0 -0.0040641789897568415 0.05280321293727139
3340000000.0 -0.0069187088016546255 0.02841382713090433
3360000000.0 0.009424645012645798 0.004289524510697692
3380000000.0 -0.004556162023297389 0.0032996904913114634
3400000000.0 0.0003433184501048492 0.019598570927626447
3420000000.0 0.03199329185228185 -0.005132864943412332
3440000000.0 0.000992948537034238 -0.04262466938682166
3460000000.0 0.051506015515020834 -0.004170864023701492
3480000000.0 0.05429166330153269 0.03140341893314588
3500000000.0 0.0777345421895862 -0.0014649999604774465
3520000000.0 -0.042511662929529306 -0.08200750446889601
3540000000.0 0.09502007385011142 0.05047021729937703
3560000000.0 -0.12052275615634529 -0.015594548207662326
3580000000.0 0.11886260076139202 -0.06429428644331435
3600000000.0 0.09258366686039145 0.12007118651095516
3620000000.0 -0.058692295682208726 0.15206166972130727
3640000000.0 -0.1725539968930284 0.015766358690443814
3660000000.0 -0.17006856299564857 -0.06946926337178051
3680000000.0 -0.07985566747611413 -0.1719396896016769
3700000000.0 -0.04999727168444556 -0.18416758573198996
3720000000.0 0.1465656821213889 -0.12058374977693043
3740000000.0 0.18196783848483747 -0.03153484307562017
3760000000.0 -0.17321736401573243 -0.04185191195801706
3780000000.0 0.16481687376772816 0.039970551988829185
3800000000.0 -0.01320711636139463 -0.16112604772052863
3820000000.0 -0.12601070224645963 -0.08851502144466737
3840000000.0 -0.0814586131349462 -0.12137361910337782
3860000000.0 0.12103025213785779 0.08334324525853906
3880000000.0 0.08999812204446773 0.12268426908822283
3900000000.0 0.15798064628756894 -0.006706950238978678
3920000000.0 -0.16125287488881132 -0.02534454734615251
3940000000.0 0.12332122898630665 -0.11433505075812866
3960000000.0 0.16876812769855173 0.03754872234317527
3980000000.0 0.13240693540816834 -0.1123920222660886
4000000000.0 0.16026456693596836 -0.0484525843195251
