! Created with skrf (http://scikit-rf.org).
# Hz S RI R 50.0 
!freq ReS11 ImS11
400000000.0 0.23706821911220644 0.8411373670510129
420000000.0 0.617840121480901 0.5972143564826913
440000000.0 0.7956945334811099 -0.2165161557017973
460000000.0 0.25864331527753553 -0.7429695304780611
480000000.0 0.6592524250303541 -0.23803027950254263
500000000.0 0.5647370149841751 -0.013925160224418512
520000000.0 0.40057536318116677 -0.29192264693542924
540000000.0 0.37613549004838687 0.21302045915673043
560000000.0 -0.26637682348043223 -0.244686428084464
580000000.0 -0.2631472754945883 0.2206394617308613
600000000.0 0.32910724957503806 -0.08489857603919253
620000000.0 -0.34459728593885647 -0.08735462552595817
640000000.0 -0.3456458374688018 0.17121017051709128
660000000.0 -0.0495232123527475 0.3961479696015241
680000000.0 -0.3392507893394902 -0.2565416245347776
700000000.0 0.31482550141881777 0.31085835611964885
720000000.0 0.18594792239562977 -0.4057904584350174
740000000.0 0.43780799339725884 -0.038520752874189976
760000000.0 -0.40734301160349484 -0.0954528379706681
780000000.0 0.10009494130148401 -0.3711007675177342
800000000.0 0.21625467653445965 0.2722578850712816
820000000.0 0.18267774029440906 0.21728330095309184
840000000.0 0.12060411484327904 0.19429859195364904
860000000.0 -0.12729183851291323 0.1463536922940663
880000000.0 0.12076780018936309 0.04950111317600398
900000000.0 0.06640745306171102 -0.02628182756125203
920000000.0 -0.005646457306503087 0.04086342735402579
940000000.0 0.019662630597912772 0.01756111253517378
960000000.0 -0.02656612080710942 0.023245302565593397
980000000.0 0.016096985528081212 -0.04826815094088631
1000000000.0 -0.05112093627539143 -0.02696625805022561
1020000000.0 0.01030996616470013 0.07369412167394608
1040000000.0 0.051965268403584494 0.06937168127413577
1060000000.0 -0.12625989272642266 -0.017079859584185383
1080000000.0 0.14393030658660605 -0.037451071607911335
1100000000.0 0.010857225247213954 -0.17953289410513765
1120000000.0 -0.04697604706669964 0.20458945523293517
1140000000.0 -0.054261232884484194 -0.24438100952606587
1160000000.0 -0.27497125830732644 0.09787123957946088
1180000000.0 -0.08005197610050124 0.3208208183343368
1200000000.0 -0.10084296210886562 0.3464935284064271
1220000000.0 -0.33843690070275534 -0.18639306404501382
1240000000.0 0.40683724059523874 0.0077311037718483045
1260000000.0 -0.4106511950905293 -0.12334302804865398
1280000000.0 0.3691450204919242 0.23963106807658152
1300000000.0 -0.06091271099348115 -0.4389029263299281
1320000000.0 -0.4337455777215899 0.01938716415187061
1340000000.0 -0.32909097126714554 -0.26547056165324073
1360000000.0 0.1600905777173167 -0.3823720460582488
1380000000.0 0.3412030956670809 -0.2369785324990166
1400000000.0 0.23112800246481754 -0.33402637431370524
1420000000.0 -0.12670960577657528 -0.37560856866942527
1440000000.0 -0.3688272401313563 -0.08917058397744707
1460000000.0 -0.05033436353037346 0.3565652566351711
1480000000.0 0.24238798304717304 -0.23345184646933262
1500000000.0 -0.23959437253608656 0.1916802708568711
1520000000.0 0.27747016731230084 0.01568721563006549
1540000000.0 0.21795316156229427 0.10884986480434736
1560000000.0 0.1920793574732006 0.06042196101214131
1580000000.0 0.031872531845239756 0.16146307891831635
1600000000.0 0.10457564997222908 -0.07688077722302099
1620000000.0 0.059560412473557235 0.07127092528456484
1640000000.0 -0.006755920911568773 -0.06992731852899589
1660000000.0 -0.04406409205892994 -0.01259715173595838
1680000000.0 -0.00025580743210835066 -0.023845512019547207
1700000000.0 -0.009841555482561567 0.004779924006155782
1720000000.0 0.011153562126286213 -0.006021112576591142
1740000000.0 0.0040547900902838645 -0.02871229520872568
1760000000.0 0.04347214533888626 -0.003270539760291595
1780000000.0 0.0368247069496044 -0.058867602387815646
1800000000.0 -0.05734551263884596 0.0793650225131902
1820000000.0 -0.12078764426606936 0.020631344665580108
1840000000.0 -0.06415535981375199 0.14276890623785837
1860000000.0 0.15477108496406922 0.10835964897609673
1880000000.0 0.1914991557083542 -0.1229536073079918
1900000000.0 -0.16533211290272887 -0.21494007121458758
1920000000.0 0.14873252232374443 0.27371165879317433
1940000000.0 0.07201192984244234 -0.3426616980365263
1960000000.0 -0.24429411026649622 0.2947134338172838
1980000000.0 0.3466937238851908 -0.21250015803965053
2000000000.0 -0.34547611467562034 -0.24706951670930438
2020000000.0 -0.04128972139877748 0.4338870431882188
2040000000.0 0.4272951872789602 0.10136047786308837
2060000000.0 0.2519204530693317 -0.3572536537735658
2080000000.0 -0.047830598195474416 -0.4255336234878667
2100000000.0 -0.08586982159970703 -0.4102245877255363
2120000000.0 -0.06501701605546495 -0.4042034345342228
2140000000.0 -0.13036461283401446 -0.3770004468959009
2160000000.0 0.33053686613621475 -0.19992167831410512
2180000000.0 0.24148369924108673 -0.2849403233939859
2200000000.0 0.13051539918000318 -0.33821449121612457
2220000000.0 -0.25762385652837133 -0.24332688975914948
2240000000.0 -0.3204791981945078 0.1377304952167718
2260000000.0 -0.04824400678794892 0.34372150700104503
2280000000.0 0.20887740664705948 0.2792656123137539
2300000000.0 0.3278674125430511 -0.15131501939343792
2320000000.0 -0.07957842977323984 -0.3739080793968825
2340000000.0 -0.4032898359918003 0.09307520993166113
2360000000.0 0.323603069556364 0.3187088031552188
2380000000.0 -0.25918578991081886 -0.42987257353035124
2400000000.0 0.27807790955263134 0.47996868376979573
2420000000.0 -0.4978430852417236 -0.34872129828580123
2440000000.0 0.6567979413423379 -0.031850333735908856
2460000000.0 -0.5069560497032091 0.48118690593928926
2480000000.0 0.23223556684975116 -0.6928057416182046
2500000000.0 -0.2723827801303235 0.7011191211574228
2520000000.0 0.38024940172871136 -0.6622574319999526
2540000000.0 -0.6238866058660156 0.44479807381860237
2560000000.0 0.7524084919368147 0.11352791737207919
2580000000.0 -0.3487291568023108 -0.659340698408324
2600000000.0 -0.3274418961210558 0.6436924291053385
2620000000.0 0.6756171112021799 -0.14688346257367077
2640000000.0 0.4961213892603104 -0.4267556778473818
2660000000.0 -0.6037138809436499 -0.08866539597872118
2680000000.0 0.3611692269002738 0.43291107216654223
2700000000.0 0.027696143045317718 -0.5157721275788432
2720000000.0 -0.25141822784865575 0.3938081419346717
2740000000.0 0.39509537908282083 -0.15069709852910468
2760000000.0 -0.38229039823338223 -0.0058044772717427235
2780000000.0 0.34385715016173424 -0.07670701083305874
2800000000.0 -0.26433229554534504 0.19271674235547948
2820000000.0 -0.014761664326698907 -0.3099959333433402
2840000000.0 0.2682950705963258 0.13245454513990448
2860000000.0 -0.20181986390920842 0.21584116532197575
2880000000.0 -0.08277512095671533 -0.2836176263477079
2900000000.0 0.14993589157038215 0.2554357971433987
2920000000.0 0.09142869790618388 -0.286442684096101
2940000000.0 -0.30565733290313324 0.025956192526636966
2960000000.0 -0.13890384683503665 0.2759496311934144
2980000000.0 -0.21303642284347618 0.228133289338651
3000000000.0 -0.31124427709398317 -0.050790542957785664
3020000000.0 -0.029280261387222985 -0.3167713675262559
3040000000.0 0.26483179030518894 0.17435772458450768
3060000000.0 -0.31172333385961765 0.043393487724511806
3080000000.0 0.2646823071045669 -0.1612144734978761
3100000000.0 -0.17243082740779017 0.2507758445966938
3120000000.0 0.009767503958313254 -0.2953609013458313
3140000000.0 0.09767587338820657 0.2663768002828964
3160000000.0 -0.21306677936385157 -0.16285870586119672
3180000000.0 -0.05743391449181098 0.24246819381690626
3200000000.0 -0.18009418574421637 -0.13754272412420404
3220000000.0 0.1696037499557418 -0.1046525776624323
3240000000.0 -0.007552624319748751 0.16882443190921081
3260000000.0 0.03404355292883405 -0.13290109324745772
3280000000.0 -0.050267856085579876 0.09379049989236732
3300000000.0 0.07363725298661689 -0.027710367513521413
3320000000.0 -0.031193606359260634 0.040397306884666445
3340000000.0 -0.01964118210306908 -0.017937142600190976
3360000000.0 0.0026236104872438847 0.0052624273074439116
3380000000.0 -0.01184173609566867 0.0014592324148200396
3400000000.0 -0.009666123690495809 -0.0244155617025346
3420000000.0 0.030206407824988735 -0.025530999154525634
3440000000.0 -0.043384303157539016 -0.025960632927324503
3460000000.0 -0.020868325929271386 0.053169958295717044
3480000000.0 0.036177797173423856 -0.05576622028306797
3500000000.0 -0.005225732700706935 -0.07995674285729903
3520000000.0 -0.049185027235688086 -0.08225805567230736
3540000000.0 0.07777460447531467 0.0804988246850526
3560000000.0 -0.12245567520218921 -0.02956444940759701
3580000000.0 0.13486118662303354 0.03228228110716258
3600000000.0 -0.015849078629367 0.15656017101454806
3620000000.0 -0.055968423038162914 0.1597588368721591
3640000000.0 -0.17828480948363332 0.018292262979964082
3660000000.0 -0.1823699345887191 -0.04881671222047533
3680000000.0 -0.0899240546384915 -0.1709269037300958
3700000000.0 -0.027451487843740133 -0.19064912175137422
3720000000.0 0.13907671302327837 -0.13129108154803742
3740000000.0 0.17433618825477398 -0.06461716629207635
3760000000.0 -0.16500240323784515 0.06847942942109625
3780000000.0 0.16289026808615445 -0.04038437698398937
3800000000.0 0.05082858028230227 -0.15084637642061652
3820000000.0 0.0474294380535755 -0.1450555040882764
3840000000.0 0.14248090980583492 -0.03693842988601238
3860000000.0 -0.02489040019872445 0.14650168425213242
3880000000.0 0.07757288060383292 0.13468120849783713
3900000000.0 0.05064495691048312 -0.14994559134868946
3920000000.0 -0.1463438461795166 0.0702120607307198
3940000000.0 0.09440139190148655 -0.1361970708304817
3960000000.0 0.15418075582393256 0.06937399179539651
3980000000.0 0.1689923967380629 -0.010968871873733363
4000000000.0 0.16021454990061837 -0.029682071635285707
