! Created with skrf (http://scikit-rf.org).
# Hz S RI R 50.0 
!freq ReS11 ImS11
400000000.0 0.19747257564538037 0.8492805087668908
420000000.0 0.6147285649368744 0.600767836694346
440000000.0 0.8083351710997838 -0.16259088325362775
460000000.0 0.27425131934480146 -0.7372442516808572
480000000.0 0.6612681623424005 -0.23355178349615086
500000000.0 0.5611243825354119 -0.060256807143060295
520000000.0 0.42241538757676333 -0.25810225916006335
540000000.0 0.3696967516599642 0.22611408496060512
560000000.0 -0.29987160061617507 -0.2044942677394443
580000000.0 -0.23718998963102886 0.24723315481305538
600000000.0 0.33764880625509797 -0.039021263912910664
620000000.0 -0.3456483114293419 -0.08451939355827266
640000000.0 -0.32237082874032663 0.2122812683849274
660000000.0 -0.048159919299744954 0.39593187188502005
680000000.0 -0.35521722482456347 -0.23329107367146082
700000000.0 0.3094682991813529 0.31689465706905784
720000000.0 0.136803114073753 -0.42492567909697543
740000000.0 0.43094484739466604 -0.08549217298699023
760000000.0 -0.39585499190478163 -0.13585985657891667
780000000.0 0.08176252873831978 -0.3759266334304406
800000000.0 0.2160635529395656 0.2727154947589083
820000000.0 0.17577892075852303 0.22353714457639876
840000000.0 0.12574385156536408 0.1911144551669494
860000000.0 -0.11932950595381409 0.1531436922549816
880000000.0 0.12174570942798255 0.04793524662086498
900000000.0 0.07084242061102101 -0.012304870629447781
920000000.0 -0.014444687190904614 0.03896378939732032
940000000.0 0.025763701763155653 -0.0011893057848165367
960000000.0 -0.031031701464949935 0.016340877279864788
980000000.0 0.007340871798103571 -0.050551856582885864
1000000000.0 -0.048565028498567635 -0.031030790857877334
1020000000.0 0.008612390206926644 0.07393013228034931
1040000000.0 0.04754766429949119 0.072492982177917
1060000000.0 -0.1264068414630429 -0.0144998167332164
1080000000.0 0.14520496587533566 -0.030889820615904513
1100000000.0 -0.008479389213386538 -0.17959334980344116
1120000000.0 -0.0468859874094549 0.20434824354482703
1140000000.0 -0.06763161064361242 -0.24101113683333975
1160000000.0 -0.27761459322663884 0.08862887363957639
1180000000.0 -0.0684721154956858 0.3228467140874045
1200000000.0 -0.08041293874527837 0.351962492042262
1220000000.0 -0.3499389397856015 -0.16361601089245315
1240000000.0 0.40681755130161207 -0.01296913695873882
1260000000.0 -0.4158338066328434 -0.1047380103384768
1280000000.0 0.3742505739559507 0.23170043796502385
1300000000.0 -0.06040589478688115 -0.43884060354408644
1320000000.0 -0.4335496280792262 0.021079801639080395
1340000000.0 -0.32566182613053585 -0.2692158409207042
1360000000.0 0.1415624921832757 -0.3896116363953122
1380000000.0 0.33952866021960254 -0.23944724661303576
1400000000.0 0.23052808653236592 -0.3345059346694008
1420000000.0 -0.1190327672866368 -0.3778828621974343
1440000000.0 -0.3699364069437104 -0.08459540405407845
1460000000.0 -0.04570165137280313 0.35689913100886334
1480000000.0 0.23228689608320655 -0.24302143977717003
1500000000.0 -0.24362573748676572 0.18650926317774047
1520000000.0 0.27764206082012016 -0.009366286260673729
1540000000.0 0.21639890390846778 0.11167276792386834
1560000000.0 0.19507796008321168 0.048295459506663245
1580000000.0 0.0673583431229924 0.15021799778236453
1600000000.0 0.09648847119922034 -0.08631789289344947
1620000000.0 0.06516871782755443 0.06587636302186813
1640000000.0 0.002375769273754903 -0.07023926441919376
1660000000.0 -0.0457252151345266 -0.004439636942762548
1680000000.0 -0.011408005678283916 -0.021352202781549354
1700000000.0 0.010950697295436946 -0.0022592583717657585
1720000000.0 -0.011249967347571556 -0.005666513022931552
1740000000.0 -0.0019045308270380754 -0.028683854954647193
1760000000.0 0.04236641882695481 -0.009598463698693974
1780000000.0 0.03411201477664982 -0.06061638920286002
1800000000.0 -0.047439659313915424 0.08555140481313742
1820000000.0 -0.11976046893502457 0.025388151997314895
1840000000.0 -0.04832284408076287 0.1490770158823551
1860000000.0 0.15963729722471645 0.10081922026614318
1880000000.0 0.1891479067285749 -0.12626132851644936
1900000000.0 -0.16603511402987028 -0.2147693963528301
1920000000.0 0.14690691968243874 0.2745397935805967
1940000000.0 0.0743432791486469 -0.342340540792541
1960000000.0 -0.2535961204373009 0.28662911944985425
1980000000.0 0.3552703190514563 -0.19795360753225746
2000000000.0 -0.3220753619013106 -0.2768266203953988
2020000000.0 -0.03525491946891788 0.4341315655627394
2040000000.0 0.42103006805282855 0.12375110115320385
2060000000.0 0.23598731409299262 -0.3675288807282922
2080000000.0 -0.0534889304218623 -0.4244706745745367
2100000000.0 -0.09534470255112933 -0.40767580520251884
2120000000.0 -0.0422739148473253 -0.4068683050622311
2140000000.0 -0.10644819127332866 -0.38403259298925885
2160000000.0 0.312882512920791 -0.22544011890335386
2180000000.0 0.21360670794238112 -0.30534308726851145
2200000000.0 0.09213959843300343 -0.35000846778012007
2220000000.0 -0.2704860943987338 -0.2281278080893978
2240000000.0 -0.31095629570671396 0.15666176464853757
2260000000.0 -0.02792457739615599 0.34582804107290194
2280000000.0 0.23762647832096465 0.25533126166190906
2300000000.0 0.31550978631135607 -0.1755854688740585
2320000000.0 -0.08405829717786756 -0.3726623863344486
2340000000.0 -0.40242207824611714 0.09460113294298869
2360000000.0 0.3321099701085546 0.30951225773367447
2380000000.0 -0.2807645230685595 -0.41615078686855356
2400000000.0 0.25611586599418484 0.4916437671777656
2420000000.0 -0.4795766338828671 -0.3729149703985521
2440000000.0 0.6572553092701638 -0.009256391851685234
2460000000.0 -0.537759966823435 0.4463541748912448
2480000000.0 0.31103784029508186 -0.6611649478534931
2500000000.0 -0.2491706678043049 0.7090387545105826
2520000000.0 0.37524308760326575 -0.664713137051934
2540000000.0 -0.6533277543377867 0.40041934505334226
2560000000.0 0.7503348452032116 0.12450848903305084
2580000000.0 -0.2819030399191207 -0.6907772408536976
2600000000.0 -0.36826523001712264 0.6206452522089346
2620000000.0 0.6744785030550083 -0.1513026978673148
2640000000.0 0.507439316647596 -0.4126966455874792
2660000000.0 -0.6036507603946719 -0.08634604911208889
2680000000.0 0.3407390612312804 0.4489489263904488
2700000000.0 0.0063221736406796 -0.5164057958082192
2720000000.0 -0.2396946150121358 0.40136322213370074
2740000000.0 0.3799259245098104 -0.1862869330692564
2760000000.0 -0.38233402479715356 0.01654816766468325
2780000000.0 0.344435336728448 -0.07553326788296721
2800000000.0 -0.25889206200263676 0.20047068257334982
2820000000.0 -0.021948763016678714 -0.3096188860441108
2840000000.0 0.2656883239942783 0.13756141426213192
2860000000.0 -0.22310019778070922 0.19461726826555278
2880000000.0 -0.08841157671066337 -0.2818200707423613
2900000000.0 0.13748212775439286 0.2622379502261851
2920000000.0 0.09444540008023403 -0.2853772578272785
2940000000.0 -0.3067171499610172 0.007865727484930427
2960000000.0 -0.13374667250103145 0.2782222900233754
2980000000.0 -0.2069255649344325 0.23372759700472306
3000000000.0 -0.30730272523771285 -0.06797121529337181
3020000000.0 -0.026851688724675065 -0.31708569381813706
3040000000.0 0.2805252849698723 0.14722043832540177
3060000000.0 -0.3114976460673808 0.042315979272575376
3080000000.0 0.25375184981609117 -0.17782275803196435
3100000000.0 -0.1858650506644069 0.2407036301476172
3120000000.0 0.0079189179495664 -0.29486272312691164
3140000000.0 0.1363958915879806 0.2497279179044866
3160000000.0 -0.23761244986605928 -0.12591446431743009
3180000000.0 -0.016637188116165526 0.24900943394603964
3200000000.0 -0.18140854219403596 -0.13655651606537228
3220000000.0 0.16589507395242492 -0.11033172595339019
3240000000.0 -0.007448233984469925 0.1693160942021605
3260000000.0 0.05312221050054096 -0.12709252923651437
3280000000.0 -0.038396715167210396 0.09961432726100436
3300000000.0 0.07818579545551364 -0.011868083057788513
3320000000.0 -0.048045616190395025 0.018178288070918067
3340000000.0 -0.022947026247022332 -0.013930435884083906
3360000000.0 0.001744267727157814 -0.0063698699085743965
3380000000.0 0.0023748259769805382 0.01117925284451787
3400000000.0 0.0024297067072283347 -0.025740562743525108
3420000000.0 0.027178812739920497 -0.028316192721034347
3440000000.0 -0.050165584456286196 -0.0037508495261472995
3460000000.0 -0.01807259088421774 0.054099777967569124
3480000000.0 -0.007635182690273203 -0.06636073041301942
3500000000.0 -0.0017056374637935885 -0.0797756970478174
3520000000.0 -0.05135864501901036 -0.08045129038401362
3540000000.0 0.08163951271279953 0.07592161776966588
3560000000.0 -0.12551427431041237 0.0074118813661683035
3580000000.0 0.1368804297372727 0.02107700699248063
3600000000.0 0.03133391462394448 0.15451366733218272
3620000000.0 -0.026619506919368104 0.16720314836894268
3640000000.0 -0.1743557543824946 0.04036629445715337
3660000000.0 -0.18581623963194754 -0.03320833789925177
3680000000.0 -0.11681655050227921 -0.153921293966015
3700000000.0 -0.055440860943718286 -0.1846626306155352
3720000000.0 0.11385569769781725 -0.1539247216195369
3740000000.0 0.16283034991647902 -0.09031502227474343
3760000000.0 -0.15406220292992745 0.09093602902014306
3780000000.0 0.14487697645849348 -0.08490750578601444
3800000000.0 -0.0011389617005313757 -0.1594145056374229
3820000000.0 -0.007654073450873059 -0.15230431536332376
3840000000.0 0.1310682511429835 -0.06786285196956943
3860000000.0 0.0201124795133483 0.14745493882521804
3880000000.0 0.11490899786244592 0.1047262037877191
3900000000.0 -0.00010437077689286627 -0.15877853698929076
3920000000.0 -0.12484472801148479 0.10398322735332687
3940000000.0 0.05509232956230997 -0.15671826078297213
3960000000.0 0.16829264635887423 0.020699805650146435
3980000000.0 0.16317601860327674 -0.047388009947300073
4000000000.0 0.14872911259493587 -0.06792163813597347
