!Created with skrf (http://scikit-rf.org).
# Hz S RI R 50.0 
!freq ReS11 ImS11
400000000.0 0.5273094730883754 0.6886769774731478
420000000.0 0.8417985301619735 -0.07653685896747355
440000000.0 0.6023462481029893 -0.5280326104406745
460000000.0 0.6010493697336117 -0.425882881720667
480000000.0 -0.11819578721833991 -0.6602969077482512
500000000.0 -0.3846696218656925 0.45127927546065705
520000000.0 -0.3791613864629803 0.3327745157405799
540000000.0 0.24183790844111858 -0.3699978166724805
560000000.0 -0.23913998743628337 0.32544825772815383
580000000.0 -0.2086822356305572 -0.30483123229148723
600000000.0 0.36248378013384563 0.010306177272642589
620000000.0 -0.30124689821860506 -0.20511786218175188
640000000.0 0.3547698536682844 -0.21996494419078572
660000000.0 0.3564084336949816 0.22647230938675228
680000000.0 -0.4472626657511262 0.011342184458394475
700000000.0 0.4419061786650357 0.11268543152329236
720000000.0 -0.35269489739594806 0.28706354477655627
740000000.0 -0.2926994854301409 0.29806909365395495
760000000.0 -0.06153393161141947 -0.39101483902346285
780000000.0 0.11262179918848793 -0.3554455422717233
800000000.0 0.23309622879389716 -0.2525714507983068
820000000.0 -0.141263235706038 0.2592242752145237
840000000.0 -0.037138093293118346 0.21873896963645167
860000000.0 0.06022492458383724 0.16621828464548205
880000000.0 -0.072097954761962 -0.12179945270245382
900000000.0 -0.012554441340219158 0.0870925853709751
920000000.0 0.04051925841725899 -0.028114949114257888
940000000.0 -0.009444869713342852 -0.02815747730988662
960000000.0 0.025207459026169502 -0.02056230728869759
980000000.0 0.04199685914491629 0.03245819161178084
1000000000.0 -0.08485771790552112 0.03078961319838566
1020000000.0 -0.06235019443061672 0.10007875338043679
1040000000.0 -0.016586982915152024 -0.13179436927624294
1060000000.0 -0.1213577954157781 0.10865273969909908
1080000000.0 -0.18948900837262678 -0.025603880648633268
1100000000.0 -0.15947634617511255 -0.1458313617258605
1120000000.0 -0.037731801238558356 -0.2305186501452671
1140000000.0 0.20052271575835 0.15264918912940323
1160000000.0 -0.2410114191526936 0.12330972151764383
1180000000.0 0.13958502628403718 -0.26672994066576666
1200000000.0 -0.18130647645588416 0.29074951472518573
1220000000.0 0.05158020435000947 -0.375600288481856
1240000000.0 0.40092164331788865 0.05627965346869386
1260000000.0 -0.383107409539887 0.16052854234446717
1280000000.0 -0.04439012492948538 0.4221995102217682
1300000000.0 0.41872650326373045 -0.07963980872480647
1320000000.0 0.42350180113014324 0.03381135738564129
1340000000.0 -0.035060739903231865 0.43243042832325457
1360000000.0 0.2659689473191278 0.35598487075971497
1380000000.0 0.14757044595219923 -0.4140577719649482
1400000000.0 -0.22934462090460828 -0.36283192537612935
1420000000.0 0.03877649200829966 0.40726573753131484
1440000000.0 0.26155465083951074 -0.2746650626206916
1460000000.0 0.04202157980300804 -0.34306181772481487
1480000000.0 -0.31104082881484507 -0.030782008333405622
1500000000.0 -0.011378409848684544 0.27929522204313234
1520000000.0 -0.2073377580115488 0.13962462528902841
1540000000.0 0.03530300586709132 0.22011881848675102
1560000000.0 -0.17099181068686192 0.09373867072422061
1580000000.0 -0.1683092161997847 -0.045911676958952354
1600000000.0 -0.02451528822447664 0.1378488530261419
1620000000.0 0.07872622096883078 -0.06580847357713294
1640000000.0 -0.0635514328013398 -0.04777042269150073
1660000000.0 0.03875843408242663 0.053913135303119565
1680000000.0 -0.043818845005286926 -0.0023551469865897927
1700000000.0 0.007840797457591888 0.019785146438292368
1720000000.0 0.004854573837761363 0.002072463635656383
1740000000.0 0.012344725754044123 0.001273454220309982
1760000000.0 -0.027523685881677577 -0.005356540839454071
1780000000.0 0.040279834239773736 0.034360902229652095
1800000000.0 0.07174773556563778 0.06490055289776403
1820000000.0 -0.07458770899455094 -0.10315435821122876
1840000000.0 0.10931730005129427 0.11967677698519773
1860000000.0 0.12644811417275506 0.15449841405780343
1880000000.0 0.2331313234073348 -0.013808517150110706
1900000000.0 0.09675543451872268 -0.257074793998245
1920000000.0 0.3142699386988115 0.0525565390911831
1940000000.0 -0.11713277453599395 -0.3245124732190963
1960000000.0 -0.3728904819941 0.025955291905580376
1980000000.0 0.3707337352003461 -0.16006101463363018
2000000000.0 -0.29703512784810554 -0.2965301271021595
2020000000.0 -0.4062971704336959 -0.12584860553731617
2040000000.0 0.05003110010604038 0.42735638078943866
2060000000.0 0.05069693250857097 0.4302658301565629
2080000000.0 0.20950221408303799 0.3789816172263708
2100000000.0 0.0912863496973849 -0.41868508887236155
2120000000.0 -0.030722679737154104 -0.41492241496511434
2140000000.0 0.058646830803754414 -0.3937732497763279
2160000000.0 0.28977512027541813 -0.2511985536225703
2180000000.0 0.33653123246406824 -0.15849829328694742
2200000000.0 0.30411179377843695 -0.1935815199705833
2220000000.0 -0.2870595538503416 -0.20236838963769807
2240000000.0 -0.26139650114794133 -0.22801176538044665
2260000000.0 -0.3454785259991646 0.009873269128298178
2280000000.0 0.229065076203502 0.25960884424989933
2300000000.0 0.24841675734915314 0.2518375517464784
2320000000.0 0.2389117994953163 0.29048979007927883
2340000000.0 -0.12490819636847801 -0.3909381653870558
2360000000.0 -0.44264729766955285 -0.07634783595906836
2380000000.0 0.1539037019882068 0.47467245028445276
2400000000.0 -0.4771386659893176 0.29002165028910465
2420000000.0 0.5052933403762379 -0.3417831970064154
2440000000.0 -0.49774196161172163 0.42858292221710065
2460000000.0 -0.6868772519490747 -0.13846044522231007
2480000000.0 0.6925904282626917 0.23842064193543586
2500000000.0 -0.4335789164427646 -0.6167177750856012
2520000000.0 0.6994135543205129 -0.31457819880911253
2540000000.0 -0.6142824561106895 -0.4647637563017662
2560000000.0 -0.34462351700653865 0.6847533969278037
2580000000.0 -0.09469750432902416 -0.746863349212956
2600000000.0 -0.7248914571352307 0.09671993208493519
2620000000.0 0.1296110287196153 0.6930306155444933
2640000000.0 0.4553401192522478 -0.4871247536412182
2660000000.0 -0.4959197727124187 -0.3827971354054956
2680000000.0 -0.2015950244618945 0.5452516843102021
2700000000.0 -0.30634891126833796 -0.4329404363281017
2720000000.0 -0.10089742624994343 0.47239725784368997
2740000000.0 0.41110186251108816 -0.13966233528184474
2760000000.0 -0.2908248364960638 0.261146187546146
2780000000.0 0.35982463083646155 0.007324444875064749
2800000000.0 -0.28643815818799295 -0.17546466382545553
2820000000.0 0.08729952507508497 -0.3032244347619091
2840000000.0 0.07249351408109585 0.29785008224583465
2860000000.0 -0.22639666358000443 -0.1927290264372551
2880000000.0 0.12664087534208254 -0.26294295006674995
2900000000.0 -0.2347233916203586 -0.17192506419854292
2920000000.0 -0.27859666829716556 0.10685341302438643
2940000000.0 0.22548929492124967 -0.21338963773241262
2960000000.0 -0.14618144788606002 -0.28212402850553014
2980000000.0 -0.28963789891211283 -0.13291956826394938
3000000000.0 -0.302128881369683 0.09466807421160388
3020000000.0 0.3072558118799618 0.08437462952067742
3040000000.0 0.3046453323178134 0.09207264310891404
3060000000.0 0.21007110255968584 0.2286120059330707
3080000000.0 0.24312688842861596 -0.1770218565732518
3100000000.0 -0.20404368903663608 0.2086864823445601
3120000000.0 -0.033567404715366414 -0.2844654163008779
3140000000.0 -0.27216871095218975 0.05758000908298026
3160000000.0 0.043963399441631745 -0.26305109180647096
3180000000.0 -0.08824401100790766 0.23514804071676393
3200000000.0 0.09198763430963429 -0.2164604703961455
3220000000.0 -0.06763789801706238 -0.19643086993803333
3240000000.0 -0.09919902570177642 -0.1433158336692676
3260000000.0 0.14293315320206895 0.01895349462353382
3280000000.0 -0.09412330512323841 0.04215656096303718
3300000000.0 0.06342143918285521 0.0354650597968265
3320000000.0 0.046853955568973524 -0.0019885629155589114
3340000000.0 -0.010521417715432671 -0.023090580325144258
3360000000.0 -0.00639865700952741 0.006486283404893051
3380000000.0 0.0008465723400656127 0.0017605973455208266
3400000000.0 0.008516612940627217 0.011510185779778795
3420000000.0 -0.03191884008980864 0.005109635963233874
3440000000.0 0.02059787511453791 0.0421915911913176
3460000000.0 0.06165162209295171 0.008380243477742895
3480000000.0 -0.055761794449320175 0.0508239375789702
3500000000.0 0.08709300556704068 0.0044342272446825
3520000000.0 0.08169548885467129 0.05719400156047452
3540000000.0 -0.11111268477963825 -0.015375348260025186
3560000000.0 0.003510614302928727 0.11735161360193187
3580000000.0 0.11967600324507491 0.05811739553759975
3600000000.0 0.03999832785901723 0.1495970264151601
3620000000.0 -0.054889922934853 -0.15591162943643797
3640000000.0 -0.17838660117514088 0.03482572293208214
3660000000.0 -0.16393475849255593 0.09341748690007733
3680000000.0 -0.035391652312623756 -0.18599503223550243
3700000000.0 -0.005892956472093197 -0.19002641527264005
3720000000.0 0.15302499372652253 -0.11220339909555523
3740000000.0 0.09861262920662105 0.1558485968773119
3760000000.0 0.004617736013991102 -0.1814209778571248
3780000000.0 0.16129673062777514 0.07066477103517024
3800000000.0 -0.16405039653369308 -0.03534738255847798
3820000000.0 0.009292134560854998 0.15445186570424624
3840000000.0 -0.14221314754568715 -0.016206009956087643
3860000000.0 0.05147569733277378 -0.1306321122304816
3880000000.0 0.10558852431033201 0.09841956527278571
3900000000.0 -0.04034669904149217 0.14551705744737825
3920000000.0 0.15705562124162326 0.0051557165790024236
3940000000.0 0.03803956039718129 0.16401247922122983
3960000000.0 0.14084858004259 0.10106833100122649
3980000000.0 0.15949920061744116 0.060259747279152606
4000000000.0 0.09704059657136847 -0.12972807584851134
