!Created with skrf (http://scikit-rf.org).
# Hz S RI R 50.0 
!freq ReS11 ImS11
400000000.0 0.55407276058284 0.6684148228770447
420000000.0 0.8442919071343611 -0.07215494924130304
440000000.0 0.5873267860463829 -0.5453673529031899
460000000.0 0.6053888419032716 -0.42041210967455356
480000000.0 -0.12270725121096228 -0.659409775006306
500000000.0 -0.37485865771120397 0.4598230967187748
520000000.0 -0.3748490830294637 0.33810734809608406
540000000.0 0.25838070674875485 -0.3592960980944417
560000000.0 -0.28423746677139 0.2875947226941168
580000000.0 -0.1546950851324181 -0.335106463090444
600000000.0 0.3563059641047939 0.05825150771348819
620000000.0 -0.2915612317063344 -0.21493751399578323
640000000.0 0.3245442115302571 -0.258381406676898
660000000.0 0.4100854458877468 0.09119971452219842
680000000.0 -0.4328892383488041 0.10932861595256904
700000000.0 0.45511994461923516 0.009391666361400357
720000000.0 -0.2673754203001378 0.36791515744244313
740000000.0 -0.213487306478244 0.3593706842457965
760000000.0 -0.1172804990399638 -0.37907749098567256
780000000.0 0.11005873587484621 -0.35779684360876635
800000000.0 0.2524963955841196 -0.2350737015412837
820000000.0 -0.21149611049927042 0.20710664321263306
840000000.0 -0.11759124740805295 0.18855082870120332
860000000.0 -0.011190262799166186 0.1765199991896271
880000000.0 -0.015074284233327816 -0.1403379281708314
900000000.0 -0.05000112484152088 0.07109166317165684
920000000.0 0.04731021363571919 -0.008983299861830557
940000000.0 0.006140853462543448 -0.02822649843260608
960000000.0 -0.03176839269689558 -0.0055324544095313516
980000000.0 0.04178624038685504 -0.03427533861843819
1000000000.0 -0.0788039025671643 0.04629901803922536
1020000000.0 -0.09312511759397536 0.07439105605508527
1040000000.0 0.03856990445982422 -0.12765095923482192
1060000000.0 -0.1458263158178893 0.07239300454379964
1080000000.0 -0.1840537198109707 -0.050870516398646086
1100000000.0 -0.12798341042894748 -0.17338839572652834
1120000000.0 -0.0361881604108072 -0.23003621028364268
1140000000.0 0.20404538300467515 0.1470910984812747
1160000000.0 -0.21294651401525183 0.1669151487252306
1180000000.0 0.10397749333539469 -0.28229298313575835
1200000000.0 -0.11591572651937437 0.3227060848139669
1220000000.0 0.020819353605703764 -0.37875158288826366
1240000000.0 0.4024333142883486 0.047482019585217417
1260000000.0 -0.3821650589074177 0.1623046530272713
1280000000.0 -0.04717780286698015 0.42175578595497
1300000000.0 0.41585263604495093 -0.09169933175178457
1320000000.0 0.4228324905692253 0.03747280545894935
1340000000.0 -0.02684473188789633 0.4328619095459582
1360000000.0 0.2597687932516541 0.3605141554902054
1380000000.0 0.15855054476375377 -0.4098189026215301
1400000000.0 -0.22850968276351 -0.3630883059876872
1420000000.0 0.047815651429310144 0.40621587710540374
1440000000.0 0.2503575367997146 -0.2848793690382157
1460000000.0 0.026003900290334826 -0.3445134781283304
1480000000.0 -0.3119908832474011 -0.02723007376342994
1500000000.0 -0.02281788866777462 0.2787673069542896
1520000000.0 -0.21329770802570963 0.12990385314941097
1540000000.0 0.03265135373953766 0.22012106722747177
1560000000.0 -0.18196536879045286 0.0690772087335945
1580000000.0 -0.1701028935278106 -0.03769039129600189
1600000000.0 -0.03991033427626189 0.13398729076471055
1620000000.0 0.06652626837576203 -0.07826801992068881
1640000000.0 -0.07910127527190561 -0.0053552412898198514
1660000000.0 0.05454085862920251 0.037938893191272534
1680000000.0 -0.037904147338296355 -0.022606547281767756
1700000000.0 -0.004425905973822087 0.021025163135031773
1720000000.0 0.006017882410376467 6.952072221548006e-05
1740000000.0 -0.003459024254701068 0.012084957743543135
1760000000.0 0.012144184603574183 0.025337442447927655
1780000000.0 0.048548152555265255 0.02272961216630092
1800000000.0 0.08930567109897485 0.03903885078189656
1820000000.0 -0.09300588767698188 -0.08765721995288037
1840000000.0 0.1218168766154552 0.10745450855523135
1860000000.0 0.13372799845045177 0.14892135190810088
1880000000.0 0.2336262967442468 -0.01264152783791861
1900000000.0 0.10098247845243039 -0.2562760414484555
1920000000.0 0.3148587292687446 0.05332152110346059
1940000000.0 -0.09154366099344027 -0.33288419028710753
1960000000.0 -0.3737764479714978 -0.004437849891953352
1980000000.0 0.37672149252899223 -0.14445916147827578
2000000000.0 -0.28897111589164876 -0.3036073670679955
2020000000.0 -0.4120551986573322 -0.10274976116806751
2040000000.0 -0.005616364924566171 0.4299190314486986
2060000000.0 0.08296936220809274 0.4247520238219537
2080000000.0 0.25435600979987477 0.34963448745825754
2100000000.0 0.036621315202284434 -0.42622308656371694
2120000000.0 -0.1430109703075007 -0.3903827435993846
2140000000.0 -0.0017279569948719653 -0.39800648071402994
2160000000.0 0.2648939901279218 -0.2770059327313151
2180000000.0 0.30260520664125384 -0.2154853696056417
2200000000.0 0.2659258200090929 -0.24374456077761344
2220000000.0 -0.31529742007077377 -0.1534582154287021
2240000000.0 -0.29428867925947266 -0.1830721880156286
2260000000.0 -0.34457211632083157 -0.009659282869259435
2280000000.0 0.24493205961254944 0.2449429041062429
2300000000.0 0.2537783433204566 0.24643573827390422
2320000000.0 0.2593999627708879 0.2729418396384283
2340000000.0 -0.14367429023668 -0.38436224162140814
2360000000.0 -0.4420147947788845 -0.07884552623578972
2380000000.0 0.1548739423464093 0.47382219196171
2400000000.0 -0.4674003200962039 0.30490200444726
2420000000.0 0.5091612446967368 -0.3350913691830366
2440000000.0 -0.5003907630425519 0.4244626676224817
2460000000.0 -0.6911952355126597 -0.11018306811995482
2480000000.0 0.7026589049561882 0.20262788946241048
2500000000.0 -0.51668347467048 -0.5468747442848432
2520000000.0 0.6753513894484816 -0.3611118473134828
2540000000.0 -0.6815319726456028 -0.3586463116253561
2560000000.0 -0.23870711296089084 0.7283326979676127
2580000000.0 -0.12405421517812802 -0.7421073085905304
2600000000.0 -0.7054785919770811 0.19290026776522567
2620000000.0 0.1878507119347162 0.6797188275346818
2640000000.0 0.40959720813844536 -0.5262421576398324
2660000000.0 -0.5405899598304289 -0.3173314774376512
2680000000.0 -0.1003745888545324 0.5722991929119575
2700000000.0 -0.32401607566511126 -0.4192033618226655
2720000000.0 -0.109208570037609 0.4702552361767679
2740000000.0 0.4056807169554577 -0.15306609391474185
2760000000.0 -0.29515371531784645 0.25522009326649303
2780000000.0 0.35876236397006855 0.015501000244840076
2800000000.0 -0.2832182101660541 -0.1784672047192643
2820000000.0 0.06703301496209925 -0.30691178545607534
2840000000.0 0.11046504875239894 0.2845334246501641
2860000000.0 -0.24635042956779712 -0.16490477436871517
2880000000.0 0.06993200269793376 -0.2824059934378741
2900000000.0 -0.2641831678159683 -0.1198366263762923
2920000000.0 -0.2569639737664202 0.15137829132262276
2940000000.0 0.18454856216184018 -0.24982270573903728
2960000000.0 -0.1916747427510039 -0.2537882306042649
2980000000.0 -0.29232354110015296 -0.12876536976534708
3000000000.0 -0.3069862374060159 0.07966197752158805
3020000000.0 0.30018652585136457 0.10817310357775045
3040000000.0 0.28842477175039555 0.13589521107152847
3060000000.0 0.17166491682026624 0.2593986316119843
3080000000.0 0.25465164798246676 -0.1586443253651566
3100000000.0 -0.21300652756849542 0.19984951961348216
3120000000.0 -0.0002201171293452712 -0.286237882781883
3140000000.0 -0.27730303435671944 0.020087449817634623
3160000000.0 0.07114690388140193 -0.25683408833968835
3180000000.0 -0.10095330080753921 0.2294266838693554
3200000000.0 0.09104653447156938 -0.21661658044685156
3220000000.0 -0.04108098203284644 -0.20366622024812076
3240000000.0 -0.07959892440451341 -0.15522702127494664
3260000000.0 0.13975722694478573 0.032974239588644275
3280000000.0 -0.1009849143674918 0.01837766955927405
3300000000.0 0.037365333620965495 0.06163013235604148
3320000000.0 0.03389894430195303 0.031178991809630244
3340000000.0 0.022944451112244742 0.008488509473755004
3360000000.0 0.007594762741142099 0.004720245706710486
3380000000.0 -0.002634298925296458 -0.00018329790209246073
3400000000.0 -0.014867416452260116 -0.000857290333275283
3420000000.0 0.005309569375411831 0.032354541194665645
3440000000.0 0.02984827333568952 -0.03687249797185266
3460000000.0 0.028612012069021024 -0.055856670150878904
3480000000.0 0.05375383771233691 0.05413863536240871
3500000000.0 0.049652619233414005 -0.07194704121706123
3520000000.0 0.09254231665936936 -0.03998993393402053
3540000000.0 -0.10826036331624316 0.029141975223940596
3560000000.0 0.07701950320687745 0.09005254601754228
3580000000.0 0.12667300021249775 -0.04299056366484767
3600000000.0 0.09501216683054689 0.12322501262668513
3620000000.0 -0.14963840968745876 -0.07319758187704499
3640000000.0 -0.12192687158681054 0.13659862091806016
3660000000.0 -0.10846634464920647 0.1549972237583955
3680000000.0 -0.10903547693385124 -0.1558244305970697
3700000000.0 -0.08026313069174432 -0.1736040269050351
3720000000.0 0.0923988045366002 -0.16749465591445226
3740000000.0 0.10983422329319856 0.14906136054213215
3760000000.0 0.01830408103717203 -0.1820104878146702
3780000000.0 0.15801440923227922 0.08140377193432778
3800000000.0 -0.1606530095292842 -0.05365191073779449
3820000000.0 -0.03945986561369684 0.15157147215731281
3840000000.0 -0.13860259484269435 -0.04491660244148049
3860000000.0 0.08148518238063583 -0.11745636255830219
3880000000.0 0.07611890041787439 0.12626954486181394
3900000000.0 -0.05667762590532886 0.14341820347628534
3920000000.0 0.14479087258713577 0.06741961298655233
3940000000.0 -0.03764411162905999 0.16691603219572154
3960000000.0 0.0595872386707995 0.1664786846488523
3980000000.0 0.09601634310243487 0.14468637088555875
4000000000.0 0.1637590300954814 0.01826816733966355
