!Created with skrf (http://scikit-rf.org).
# Hz S RI R 50.0 
!freq ReS11 ImS11
400000000.0 0.5490929904649516 0.6741384537129719
420000000.0 0.8391175562895146 -0.1148621527064111
440000000.0 0.5759244127593017 -0.5577549765438328
460000000.0 0.6059809805682022 -0.4194279772978594
480000000.0 -0.11625504106905797 -0.6611134920545856
500000000.0 -0.35870484948837733 0.47254504247907275
520000000.0 -0.3753646289797115 0.33773695683357857
540000000.0 0.25466603718376246 -0.3621012148051248
560000000.0 -0.28005955351649575 0.2914964950561596
580000000.0 -0.1516464557253948 -0.33627095685318836
600000000.0 0.35788509115734074 0.04812541098068923
620000000.0 -0.29985920842348873 -0.20266220822571665
640000000.0 0.3235665531663459 -0.2595385106398675
660000000.0 0.4132749816103614 0.07704823927604312
680000000.0 -0.4260486097836179 0.13338479853471152
700000000.0 0.454993731507148 0.019562379284489777
720000000.0 -0.2610183215770595 0.3725155156874025
740000000.0 -0.19346944585578288 0.36918341706890145
760000000.0 -0.1324399481904739 -0.3740289452980925
780000000.0 0.11507742490047469 -0.3557732546604933
800000000.0 0.26142442350435446 -0.22482715767077968
820000000.0 -0.20490401122751697 0.21348873198118923
840000000.0 -0.12000240841335058 0.1865391328109148
860000000.0 -0.02319810471434981 0.1748093562306422
880000000.0 -0.0030064068912450947 -0.1403157886659984
900000000.0 -0.04715339339338042 0.07231708931410483
920000000.0 0.04713425696910463 -0.007747198998583476
940000000.0 -0.02317152971562951 -0.017014962400461776
960000000.0 -0.01538326319631486 -0.02837513417152078
980000000.0 0.05202553428969231 -0.012980127099819197
1000000000.0 -0.08691208116132394 0.027248339510928775
1020000000.0 -0.10129109702534864 0.06181908039176832
1040000000.0 0.040806378284206864 -0.1265425961434431
1060000000.0 -0.1432035424433863 0.07702347768633715
1080000000.0 -0.183786227689644 -0.05109583158723757
1100000000.0 -0.12241056662194069 -0.1774282754669292
1120000000.0 -0.05953467715554383 -0.22518321476717743
1140000000.0 0.21443142233461399 0.13005499490651537
1160000000.0 -0.20691183031231195 0.17384055631155593
1180000000.0 0.10734581728897355 -0.2806629324605509
1200000000.0 -0.11701071120220344 0.3222535800090276
1220000000.0 0.03818665429134183 -0.37707760222956266
1240000000.0 0.4038764747276327 0.03341954850640615
1260000000.0 -0.373800083815312 0.18092254995227636
1280000000.0 -0.02747604247416312 0.423387458456388
1300000000.0 0.4170413793197212 -0.08806207601399262
1320000000.0 0.42235146772300153 0.04288939776584733
1340000000.0 -0.03333968248959776 0.43245314818462116
1360000000.0 0.26270575795848305 0.3582477293652469
1380000000.0 0.15415452329881393 -0.41130900279012333
1400000000.0 -0.23951808541001043 -0.3557828221194547
1420000000.0 0.06213233353474302 0.40428021987691015
1440000000.0 0.24911220984238747 -0.28606747623344336
1460000000.0 0.02205265935011443 -0.34500354365097863
1480000000.0 -0.3096569368459896 -0.04626314742905828
1500000000.0 -0.034062347328571115 0.2775683069274308
1520000000.0 -0.20351432803066793 0.14346235458287285
1540000000.0 0.039377167330582726 0.21868878617395257
1560000000.0 -0.1574104858687581 0.11421466539360292
1580000000.0 -0.17393569340097198 0.006432780104658354
1600000000.0 -0.02544534058600029 0.13746421644032789
1620000000.0 0.05015100894011121 -0.0894832704420851
1640000000.0 -0.07762310351068673 0.018028075122572124
1660000000.0 0.06306114438149321 0.02238532382319205
1680000000.0 -0.0332163228740687 -0.02958619153792939
1700000000.0 -0.016687731147791034 0.014157753002541889
1720000000.0 -0.003001905852141953 -0.005625454989716753
1740000000.0 0.0007420993042915434 0.012123593383128071
1760000000.0 0.02498418858598678 0.013527502661539962
1780000000.0 0.030786744726559193 -0.04387883968149597
1800000000.0 0.09732575688062624 0.000814119265868682
1820000000.0 -0.11675154526939847 -0.052596967530338753
1840000000.0 0.1341143962427029 0.0917600678569856
1860000000.0 0.15054097812460446 0.13269235568168788
1880000000.0 0.23400820838743572 -0.015653184995706775
1900000000.0 0.1007499919655811 -0.25683676871613004
1920000000.0 0.3125651077083797 0.06813409013862796
1940000000.0 -0.07540348119844761 -0.3373664576363164
1960000000.0 -0.3728292331184194 -0.030334843993900098
1980000000.0 0.38533874344213004 -0.1203029889825743
2000000000.0 -0.2649091566801987 -0.32481013155050276
2020000000.0 -0.4029590076893284 -0.13230117656213927
2040000000.0 -0.0026441695098251977 0.42920224030540616
2060000000.0 0.058612657063340685 0.427918329876714
2080000000.0 0.19890544061101612 0.38324292769124946
2100000000.0 0.03604236634425373 -0.4256687083808218
2120000000.0 -0.12706776671744832 -0.39498760575322145
2140000000.0 -0.023586261303014507 -0.3964169664134374
2160000000.0 0.2335407011890201 -0.3031905800227997
2180000000.0 0.2583193339058732 -0.2660570903870311
2200000000.0 0.22470499117754464 -0.2809386065828035
2220000000.0 -0.3356438779812517 -0.10025612127324884
2240000000.0 -0.31703980123112196 -0.13906097295296885
2260000000.0 -0.339814239559841 0.06047335806341932
2280000000.0 0.2749624341317586 0.21156698782082062
2300000000.0 0.27914584019558353 0.21740785551160302
2320000000.0 0.29169241363386395 0.23762162810438672
2340000000.0 -0.19188456050164177 -0.3629321276060048
2360000000.0 -0.44850668034560986 -0.022851815428309993
2380000000.0 0.2067357981821485 0.45349690606361187
2400000000.0 -0.4392351935536845 0.3446671809723714
2420000000.0 0.49944062926216526 -0.34946634590853143
2440000000.0 -0.46730724045392696 0.46013137366219853
2460000000.0 -0.6916600619226466 -0.1088719175940144
2480000000.0 0.7154271839454752 0.15144666535679807
2500000000.0 -0.46792558846572047 -0.5899313248639743
2520000000.0 0.6622742555639792 -0.38562247645946063
2540000000.0 -0.6765225066685053 -0.3670017196817545
2560000000.0 -0.24802249944318927 0.7252093795203249
2580000000.0 -0.21230084141504701 -0.7213156321055668
2600000000.0 -0.7119588647174611 0.16320350251476806
2620000000.0 0.1434431728514027 0.6891664948344114
2640000000.0 0.40584039429697644 -0.5280143228081551
2660000000.0 -0.5524614634781566 -0.2935836818415667
2680000000.0 -0.11408446393818461 0.5691393432907779
2700000000.0 -0.2973716021333302 -0.4374301530893194
2720000000.0 -0.08641355409409164 0.47360047039148556
2740000000.0 0.4138944971388015 -0.1241452361707414
2760000000.0 -0.2862134717598726 0.2630555091836545
2780000000.0 0.3581689516143588 0.00029479104581780547
2800000000.0 -0.2957167373965782 -0.15520029892356071
2820000000.0 0.05832725159256682 -0.308264154502711
2840000000.0 0.13621400333258898 0.27256527881169956
2860000000.0 -0.25405516829894126 -0.1524501518927974
2880000000.0 0.030397614267606815 -0.2888673182358665
2900000000.0 -0.27790954432823556 -0.0825828980948502
2920000000.0 -0.2513881380461516 0.15993991288421422
2940000000.0 0.18195839787058476 -0.2512303929609386
2960000000.0 -0.19891876800579106 -0.24723018554855108
2980000000.0 -0.2933319255738601 -0.1241236289923069
3000000000.0 -0.28845862040223064 0.12959593830130717
3020000000.0 0.29118072282010543 0.1280299735615151
3040000000.0 0.30029501496872774 0.1035010969888292
3060000000.0 0.21956773325026252 0.2202093956579319
3080000000.0 0.23549848063848788 -0.18642402070175307
3100000000.0 -0.19180308397915677 0.2200752848367998
3120000000.0 -0.0437315566951689 -0.2836115589220077
3140000000.0 -0.2776040850779177 0.013960376250139355
3160000000.0 0.06242220626056701 -0.25927984983789965
3180000000.0 -0.1029774855170151 0.2285978361982791
3200000000.0 0.11438267743180677 -0.20525007195698317
3220000000.0 -0.017023804105070997 -0.20761922985466114
3240000000.0 -0.06733785942062304 -0.160483613557042
3260000000.0 0.12261951984043723 0.07547285956520168
3280000000.0 -0.09854289203971982 -0.028974098129414157
3300000000.0 0.03539852355216696 0.0629154919683553
3320000000.0 -0.009648788489363732 0.04540759903614904
3340000000.0 -0.015143723362409186 0.019943883709456798
3360000000.0 0.006926500506052521 -0.0067867521112500205
3380000000.0 0.0007165575762095257 -0.0030409383288626766
3400000000.0 0.013894915090226542 0.0032651720137678373
3420000000.0 0.029008116458756054 -0.014527491214951031
3440000000.0 -0.0009807668865166668 -0.046724326516738836
3460000000.0 -0.025787902866995803 -0.05674718830410725
3480000000.0 0.07229662826378083 0.022681621504032
3500000000.0 0.011040980336085882 -0.08634976206401687
3520000000.0 0.04365136607576101 -0.09001820756642072
3540000000.0 -0.020419572785278207 0.1103851502327565
3560000000.0 0.11627849579331781 0.021230638091480326
3580000000.0 0.10041321034038753 -0.08836558088050038
3600000000.0 0.1489284377618344 0.046215222394044714
3620000000.0 -0.16595128742901877 -0.01886198356698105
3640000000.0 -0.10001813911468302 0.15377131004741668
3660000000.0 -0.07772311298744908 0.17353579758543852
3680000000.0 -0.11702428863197363 -0.1512943387782079
3700000000.0 -0.09114387518536228 -0.16841791275969029
3720000000.0 0.11457746749381013 -0.15430044060858492
3740000000.0 0.11360430227100345 0.1479829861376048
3760000000.0 0.005041493100755744 -0.1839983475586452
3780000000.0 0.16209792540951515 0.07720382709708952
3800000000.0 -0.16207004149361842 -0.05308105136468358
3820000000.0 -0.02742121809437211 0.15511448978405662
3840000000.0 -0.1452891655809586 -0.018467877181818085
3860000000.0 0.030354006110779437 -0.14010622972700543
3880000000.0 0.11811024890531449 0.08751762312940994
3900000000.0 -0.02760639908851986 0.1515532821653632
3920000000.0 0.15551730371114791 0.037825756499524237
3940000000.0 -0.006494511365287156 0.17103731598695493
3960000000.0 0.10932123366818428 0.13873789134979847
3980000000.0 0.15338346280091758 0.08115622888849068
4000000000.0 0.14335113378987313 -0.08104007725456877
