!Created with skrf (http://scikit-rf.org).
# Hz S RI R 50.0 
!freq ReS11 ImS11
400000000.0 0.556453152201141 0.6650839612043593
420000000.0 0.8435917626927399 -0.07271235112480999
440000000.0 0.5785899826270943 -0.5545979733966466
460000000.0 0.5963740829635052 -0.4326645775449428
480000000.0 -0.10811799442352135 -0.6621020850708753
500000000.0 -0.36590487457237814 0.46655550469337403
520000000.0 -0.36942332930913635 0.34382436395045274
540000000.0 0.2612455011905257 -0.35713569672854734
560000000.0 -0.28383243081269965 0.2876472852401341
580000000.0 -0.13936529114706003 -0.34115430257451623
600000000.0 0.35238709510009575 0.07683082049033205
620000000.0 -0.2831600208356882 -0.22537047525207723
640000000.0 0.3423146726165829 -0.2333844182545947
660000000.0 0.39988495044903355 0.1276602193842561
680000000.0 -0.43175657391836664 0.11225616995432898
700000000.0 0.4546409315880681 -0.020806903025787412
720000000.0 -0.2761054686836093 0.3612386068841326
740000000.0 -0.2260406663035464 0.3519689124550241
760000000.0 -0.11337715625143774 -0.38003836423020404
780000000.0 0.09873372118193853 -0.36076618268295674
800000000.0 0.24617637529760458 -0.24124536423862947
820000000.0 -0.20762170300954652 0.21057717933482403
840000000.0 -0.1144401120805395 0.190237972382854
860000000.0 0.0034137888192997336 0.17666757166120542
880000000.0 -0.013904224868007012 -0.14014675138448873
900000000.0 -0.04292576776656501 0.07517279906339007
920000000.0 0.04649552582458207 -0.010806280273494716
940000000.0 -0.020545636539645976 -0.01969821855455245
960000000.0 -0.03214413995835237 -0.004065221884287447
980000000.0 0.04645466785026199 -0.027903258170867917
1000000000.0 -0.08114833097125755 0.04251718595668445
1020000000.0 -0.08804885742920956 0.08010517133341613
1040000000.0 0.04413747969848809 -0.12566855886578918
1060000000.0 -0.14252855536352346 0.07831339909857345
1080000000.0 -0.17989906948309164 -0.06341698054644139
1100000000.0 -0.14465353117990912 -0.15929731164508515
1120000000.0 -0.06322270513277836 -0.22379434497049264
1140000000.0 0.21875015912540616 0.12269190267078722
1160000000.0 -0.22743682727485345 0.14550899139037166
1180000000.0 0.11183765265924374 -0.2786914276350118
1200000000.0 -0.0992254006913195 0.3278670503776045
1220000000.0 -0.021709277527380593 -0.37835201222310666
1240000000.0 0.40462691916723603 0.016457080097786993
1260000000.0 -0.3721186809236939 0.18433604090010822
1280000000.0 -0.032200689211372834 0.4233475398379705
1300000000.0 0.4200983287333314 -0.06988786059968162
1320000000.0 0.42063442025092945 0.05759683364869644
1340000000.0 -0.03953170342431963 0.43190456315982073
1360000000.0 0.26249019027272863 0.35816531773615873
1380000000.0 0.15129186348960405 -0.4124523838486818
1400000000.0 -0.2360816674239031 -0.3582581278259674
1420000000.0 0.0384463298111834 0.40721804075366447
1440000000.0 0.26062591110503697 -0.2753957010794391
1460000000.0 0.035881795920476744 -0.3434712435032819
1480000000.0 -0.31142097594067475 -0.02817308040657148
1500000000.0 -0.04079434144077691 0.27654398179739875
1520000000.0 -0.21041408992682328 0.13320181961911182
1540000000.0 0.0369466273264536 0.21911326750439133
1560000000.0 -0.16943547520599034 0.09527620992498262
1580000000.0 -0.17244984148302467 -0.02181180491675929
1600000000.0 0.0002986890915092505 0.1394873562846203
1620000000.0 0.02725097102464749 -0.0989484314563025
1640000000.0 -0.0775838592579491 0.016965974707172718
1660000000.0 0.06312901137474955 0.02105076943043813
1680000000.0 -0.03887580731584605 -0.02164471263627525
1700000000.0 -0.007053656228036364 0.02098594350347329
1720000000.0 0.005625273727461658 0.0032861606363668496
1740000000.0 0.006640356613828038 0.010041151197287759
1760000000.0 0.024437720501781 0.014219695093400679
1780000000.0 0.051893776663538206 -0.012878653803287099
1800000000.0 0.08945969485251523 0.03769851507336029
1820000000.0 -0.1099931187518756 -0.06519896047405271
1840000000.0 0.13982075823089138 0.08302627651545529
1860000000.0 0.15539524974748234 0.12637355550045135
1880000000.0 0.23281498102045625 -0.026068098889770547
1900000000.0 0.09097873602758257 -0.26010854421346785
1920000000.0 0.3155531500616708 0.051687602406072154
1940000000.0 -0.08812414993598308 -0.3343071326853302
1960000000.0 -0.37351289110180635 -0.02190592586743234
1980000000.0 0.38492362983343736 -0.1217086500071107
2000000000.0 -0.2629632364786934 -0.3263681613903356
2020000000.0 -0.40081214374608853 -0.13942630795138058
2040000000.0 0.030463746355098964 0.42787326770973444
2060000000.0 0.024332013416032257 0.4310871186131122
2080000000.0 0.2089906181138674 0.37766134846062094
2100000000.0 0.07600568720905614 -0.4198916235713036
2120000000.0 -0.10583837281706132 -0.40057818124381656
2140000000.0 -0.014658045841320336 -0.39684269610573275
2160000000.0 0.2206252147116275 -0.3127965030879514
2180000000.0 0.26654319590569775 -0.25831802003782983
2200000000.0 0.22110433443149305 -0.2844678102593708
2220000000.0 -0.34089395963237445 -0.08541355313519335
2240000000.0 -0.3153235314407698 -0.14503557016311786
2260000000.0 -0.3421548037096796 0.05060243783157166
2280000000.0 0.2725315697891714 0.21513884185193036
2300000000.0 0.26606155150693245 0.2341400622414937
2320000000.0 0.2656199280551595 0.26781739488689943
2340000000.0 -0.14156676538165328 -0.3859099082122096
2360000000.0 -0.44238800280327895 -0.08024108775607051
2380000000.0 0.14958423024109466 0.47609701529237586
2400000000.0 -0.47667127789783614 0.2907239904548694
2420000000.0 0.5252018582953056 -0.30967997484026677
2440000000.0 -0.5082112369881686 0.4145451754322551
2460000000.0 -0.6852521410214559 -0.14046441955596412
2480000000.0 0.7010613468018085 0.20712038462613377
2500000000.0 -0.4650404195501018 -0.5915112535192969
2520000000.0 0.6629738581677076 -0.3824630947154898
2540000000.0 -0.6760353946438453 -0.366996490534079
2560000000.0 -0.25115812524592596 0.7238231011892344
2580000000.0 -0.24778491556671006 -0.7102090879354905
2600000000.0 -0.6975747214707457 0.21897206596553992
2620000000.0 0.22996538051025375 0.6663375906200383
2640000000.0 0.4109871132367602 -0.525130177803018
2660000000.0 -0.5789148026484009 -0.23942868755256982
2680000000.0 -0.05916706034010937 0.5789642944040037
2700000000.0 -0.34826901244915387 -0.4000293519997252
2720000000.0 -0.0646735271617684 0.47879903043053773
2740000000.0 0.41141604129862364 -0.1383840708817262
2760000000.0 -0.30676106426081867 0.2413036475230615
2780000000.0 0.3568993738924733 0.041197138938435546
2800000000.0 -0.2702150055609396 -0.19772219659003618
2820000000.0 0.10364027438316192 -0.29636927342871777
2840000000.0 0.0691341876298672 0.29747889316013515
2860000000.0 -0.2297982796689959 -0.18737442126874357
2880000000.0 0.08347382878957897 -0.2777830055201344
2900000000.0 -0.2628926643722233 -0.12141153146788011
2920000000.0 -0.26109744919431377 0.14256330802648937
2940000000.0 0.18561596373142467 -0.24791370716774302
2960000000.0 -0.24413364292624776 -0.2020734610412217
2980000000.0 -0.31661296464681193 -0.032601873693469334
3000000000.0 -0.2718012620662943 0.16117253715345073
3020000000.0 0.31663153701732333 0.031801317479019854
3040000000.0 0.3163393057959069 0.04004401339832007
3060000000.0 0.2280504036548096 0.21221631617666084
3080000000.0 0.2250009415535082 -0.1996665518203548
3100000000.0 -0.1755014199766085 0.23372935728919694
3120000000.0 -0.038077923746165455 -0.2846393631132077
3140000000.0 -0.2713673908954614 0.06250146929171985
3160000000.0 0.033973576411809925 -0.2648627814909435
3180000000.0 -0.06749640414118274 0.24300746194585562
3200000000.0 0.09908591194903338 -0.21391671091540432
3220000000.0 -0.041368710710843956 -0.20504361505746163
3240000000.0 -0.08089197820440237 -0.15485250404331485
3260000000.0 0.13376566758570374 0.053232047175025415
3280000000.0 -0.10174572593153028 -0.012873739134585512
3300000000.0 0.014159586865358304 0.07072959709391394
3320000000.0 0.010570640247240599 0.044897638306640265
3340000000.0 0.006625258042668245 0.024256135723367718
3360000000.0 -0.0013219516475506288 -0.00902623743589002
3380000000.0 0.002164987020358484 6.272035385221598e-05
3400000000.0 -0.013720011287571741 0.005442481802683052
3420000000.0 0.000669538192765843 0.03182964533966678
3440000000.0 0.03562310071315356 -0.030311532103123796
3460000000.0 0.035878785849476014 -0.05017447272582438
3480000000.0 0.046982418983982845 0.05897571758076357
3500000000.0 0.03323652448525045 -0.07966975215319681
3520000000.0 0.08017832235405546 -0.05879230844290041
3540000000.0 -0.08344481609471732 0.07413695283025686
3560000000.0 0.08752323724759611 0.07785455577734865
3580000000.0 0.11034910066865317 -0.07466642194585119
3600000000.0 0.12841243509182865 0.0863187077507489
3620000000.0 -0.15555717113847264 -0.0560338237948126
3640000000.0 -0.08363750004255124 0.16186224439756863
3660000000.0 -0.060512895614583284 0.17815619847782793
3680000000.0 -0.1567474576350844 -0.10577698997602011
3700000000.0 -0.15227572319324859 -0.11538042286679104
3720000000.0 0.02777575422788186 -0.18924817062447322
3740000000.0 0.16219426665161674 0.09069367678555207
3760000000.0 -0.08487292745590881 -0.16225744030240322
3780000000.0 0.1782887181991128 0.01318064974329096
3800000000.0 -0.1681760787896152 0.02735717594756555
3820000000.0 0.06766552851689427 0.1422883021480193
3840000000.0 -0.14555298263953806 0.016374580395326313
3860000000.0 0.039762239243171835 -0.13821431580569363
3880000000.0 0.11703003378715363 0.08949280712926938
3900000000.0 0.01874118562650172 0.15305931111852772
3920000000.0 0.1591417518638125 -0.021026308208314713
3940000000.0 -0.01687949656807787 0.17129523989096282
3960000000.0 0.07817872606239742 0.15981543771605392
3980000000.0 0.08015195965060525 0.15557261088538815
4000000000.0 0.1567152113732652 0.0582889196218153
