!Created with skrf (http://scikit-rf.org).
# Hz S RI R 50.0 
!freq ReS11 ImS11
400000000.0 0.5718530023879719 0.6554515095126872
420000000.0 0.8447546244226597 -0.0624044701146436
440000000.0 0.5719822383191895 -0.5617769970656665
460000000.0 0.6033389361397824 -0.42335302391784424
480000000.0 -0.12419635510624029 -0.6596478166144569
500000000.0 -0.3550410462987636 0.4753871429650158
520000000.0 -0.3694625414619689 0.3439999804654347
540000000.0 0.2505750280793381 -0.3650761139869771
560000000.0 -0.28061269207452266 0.2910134694269231
580000000.0 -0.15205506034166244 -0.3361083823641641
600000000.0 0.35674285282359247 0.05499799535527286
620000000.0 -0.29331042664188217 -0.21197742535224973
640000000.0 0.3268901167617107 -0.255464993832194
660000000.0 0.40650059137519745 0.106962022130348
680000000.0 -0.42769512389829456 0.1267227220996974
700000000.0 0.455463885919024 -0.007333120958026319
720000000.0 -0.2778988164712279 0.36043634615362996
740000000.0 -0.21081091250905812 0.3605564733323205
760000000.0 -0.10909967655499686 -0.3814855363584887
780000000.0 0.11354962123512473 -0.35647667580427106
800000000.0 0.2629929307944884 -0.22309317962570568
820000000.0 -0.2139472548854058 0.2041867913395775
840000000.0 -0.11788258901320763 0.18779087388227528
860000000.0 -0.02624863795309084 0.1742914209229068
880000000.0 -0.010190772969313254 -0.1399249676883945
900000000.0 -0.03894503982866927 0.07702878282563616
920000000.0 0.04015916488378573 -0.025967006742870752
940000000.0 -0.020367012019566495 -0.020571527522699744
960000000.0 -0.009607375013167314 -0.030910898360488576
980000000.0 0.05354553088518769 -0.0031660178918251057
1000000000.0 -0.08742440562234652 0.025965314213211098
1020000000.0 -0.10300258303519115 0.05884086689580998
1040000000.0 0.04239559979980933 -0.12589033738868977
1060000000.0 -0.1455572935582438 0.07250578004368984
1080000000.0 -0.18660458523670476 -0.039518562117982554
1100000000.0 -0.13191191236358554 -0.17070878303001788
1120000000.0 -0.04340045484267961 -0.22891296335785521
1140000000.0 0.2074757558711603 0.14136748620748402
1160000000.0 -0.22061683047489536 0.15648631987620923
1180000000.0 0.11097792282686443 -0.2795179534015009
1200000000.0 -0.10091991281431216 0.3279873261020401
1220000000.0 0.05889057623000772 -0.37448049266887334
1240000000.0 0.40180351439734824 0.05391720763637058
1260000000.0 -0.3803835011576915 0.16699088091586967
1280000000.0 -0.036279575982599954 0.4227527409247862
1300000000.0 0.4173815406504149 -0.08604333278842098
1320000000.0 0.42151399000259704 0.04929695643792684
1340000000.0 -0.03923996907370052 0.4318407462295231
1360000000.0 0.26026331875437897 0.35976233544344227
1380000000.0 0.1451456031517556 -0.4144629847764745
1400000000.0 -0.2439538709513021 -0.35258535006503966
1420000000.0 0.06362293944245143 0.4040621375598545
1440000000.0 0.24301690447058108 -0.29120948310120465
1460000000.0 0.017998982092525158 -0.34520001963907365
1480000000.0 -0.3116387939395114 -0.028959303089224415
1500000000.0 -0.03585462923873656 0.2772995105465325
1520000000.0 -0.20036345711887216 0.14819527211043815
1540000000.0 0.06616228668613107 0.2121621695144303
1560000000.0 -0.16390841490137512 0.10532042150972412
1580000000.0 -0.17393704663531007 -0.012319285783636108
1600000000.0 -0.031307170426664144 0.13637809192073921
1620000000.0 0.053142527829954996 -0.08784895928180497
1640000000.0 -0.07962212073585109 -0.002994173544229042
1660000000.0 0.05197049494037499 0.04201628232648764
1680000000.0 -0.03725896346381491 -0.02421239399877806
1700000000.0 -0.01865899025743296 0.011306286903354135
1720000000.0 0.002514113884999999 0.005779099425682492
1740000000.0 -0.006153972179803147 0.010805251497251447
1760000000.0 0.011074672559624585 0.026056065863506808
1780000000.0 0.03696767209000975 -0.03897279674165791
1800000000.0 0.09719427625816661 0.008984909185510162
1820000000.0 -0.10934219857266425 -0.06670873561718679
1840000000.0 0.13444109442273194 0.09094729645928369
1860000000.0 0.14729968126991796 0.1358959450195133
1880000000.0 0.23368382907846552 -0.014682776566188533
1900000000.0 0.0902510798083519 -0.260289135496346
1920000000.0 0.31559101455326505 0.05121733077476383
1940000000.0 -0.0901166839110303 -0.3335063492768306
1960000000.0 -0.3739551375904903 -0.009171396100619778
1980000000.0 0.3860417773784022 -0.11850911693260649
2000000000.0 -0.280064147135278 -0.3119650448009591
2020000000.0 -0.4124794491511808 -0.09984612812408657
2040000000.0 0.00332691860593387 0.4294269644711583
2060000000.0 0.052089378924160296 0.42910696147647387
2080000000.0 0.2155144452495124 0.3746563640415517
2100000000.0 0.06094937121663386 -0.4230889331121224
2120000000.0 -0.1378806479975755 -0.3915762003245831
2140000000.0 -0.004093992382097846 -0.39717017846735064
2160000000.0 0.23314762079482612 -0.3034364951840218
2180000000.0 0.2799953012451731 -0.2433012315764188
2200000000.0 0.2260146681849085 -0.2795600018169779
2220000000.0 -0.33742486229070057 -0.09273249888045228
2240000000.0 -0.31928719779425635 -0.13362630171103243
2260000000.0 -0.34191874908440756 0.04386615923086967
2280000000.0 0.28324585204159475 0.20003698115963145
2300000000.0 0.2891040485906302 0.20369931497872182
2320000000.0 0.2895066782956316 0.2397656013092003
2340000000.0 -0.20022326133704949 -0.35815149903955357
2360000000.0 -0.44890764956315415 -0.006242086690358808
2380000000.0 0.2526832753371648 0.4300944967282027
2400000000.0 -0.43829255643086 0.3457903808161576
2420000000.0 0.47905921556395653 -0.37701773926411075
2440000000.0 -0.4649821909644701 0.46272177931297537
2460000000.0 -0.6960100068370989 -0.07599079138653086
2480000000.0 0.7064194141540293 0.1915178759276955
2500000000.0 -0.4874574108539962 -0.5740116888911883
2520000000.0 0.6627603714946152 -0.38511817776568374
2540000000.0 -0.6739992034073226 -0.37187323377427617
2560000000.0 -0.2470082610160206 0.7255632239409231
2580000000.0 -0.19808920819833473 -0.7253527490524212
2600000000.0 -0.7138511602175448 0.15442186246935863
2620000000.0 0.19648055950619464 0.6760741627981414
2640000000.0 0.3999195337331081 -0.5325456694142122
2660000000.0 -0.5533863929999766 -0.2913166608192337
2680000000.0 -0.1320543509455189 0.5651816462080547
2700000000.0 -0.32589443062522355 -0.4167635310609594
2720000000.0 -0.10337499522181426 0.4702970909811682
2740000000.0 0.41167673899769336 -0.13113189183458857
2760000000.0 -0.2914415726374712 0.2567937946343092
2780000000.0 0.3578045446591666 0.008783320218959119
2800000000.0 -0.2894944611815143 -0.16612120592836
2820000000.0 0.05337031337688496 -0.30868999946667064
2840000000.0 0.1414066758536628 0.2696000625526167
2860000000.0 -0.2571780691356968 -0.1467044860200015
2880000000.0 0.011151319953459592 -0.29006286021955413
2900000000.0 -0.28177790837171407 -0.06860221462301765
2920000000.0 -0.24020708488343062 0.17637138829601812
2940000000.0 0.1612875195336921 -0.26500435957947793
2960000000.0 -0.2123706387768542 -0.2361248938780314
2980000000.0 -0.30523025466216486 -0.09374215620656509
3000000000.0 -0.29698878654560895 0.11219065232220878
3020000000.0 0.3007932605802273 0.10527197587579122
3040000000.0 0.2908010468560169 0.12931509623267395
3060000000.0 0.19135803108646976 0.24587586179106227
3080000000.0 0.2462229737230771 -0.172235822658617
3100000000.0 -0.2407066711311041 0.16520319408119316
3120000000.0 0.0063541011580208065 -0.2867933140410268
3140000000.0 -0.27828553538565665 0.0047037400143910635
3160000000.0 0.07858117442022379 -0.254985221911245
3180000000.0 -0.11701236500497615 0.22210360694405615
3200000000.0 0.14689173009696385 -0.18319289632233632
3220000000.0 0.022395767931478208 -0.20646933108832427
3240000000.0 -0.03802206381686997 -0.16923333978160882
3260000000.0 0.11052621598146498 0.0914895091853135
3280000000.0 -0.10129760183664979 -0.01205353479250689
3300000000.0 0.010262510897243522 0.07092040253583931
3320000000.0 -0.005973597045425196 0.04550690217706699
3340000000.0 0.0005643368577469385 0.024452756450503592
3360000000.0 0.007270991669286271 0.0049132001898881264
3380000000.0 0.0031686557187715907 0.0008953071383309967
3400000000.0 -0.014533216353403584 0.0011053581841201142
3420000000.0 0.03213441744249134 0.006187584806155394
3440000000.0 -0.009559031846067384 -0.0462617259089105
3460000000.0 0.02791377185932096 -0.055851926990268475
3480000000.0 0.05951079639446023 0.04727666024943741
3500000000.0 0.029648272455006907 -0.0820638144687997
3520000000.0 0.06713019772022304 -0.0744904379458436
3540000000.0 -0.01434633768843656 0.11209404208242225
3560000000.0 0.11554792253364567 0.02588406378321423
3580000000.0 0.1044563902253848 -0.08379171118784874
3600000000.0 0.1208369507671979 0.09705519088129898
3620000000.0 -0.16089716045166638 -0.04232896950848535
3640000000.0 -0.10802067919558371 0.1478829699186936
3660000000.0 -0.10082107681877635 0.16051417057091272
3680000000.0 -0.11197286118571179 -0.15466905752728546
3700000000.0 -0.09444393253697043 -0.16662466368949727
3720000000.0 0.11591235017397775 -0.15233159438704005
3740000000.0 0.10916097151310566 0.15112467575764257
3760000000.0 0.00959720083830098 -0.18346374732815182
3780000000.0 0.15605295208487918 0.08854220659785601
3800000000.0 -0.1545591935176189 -0.07237861090179769
3820000000.0 -0.01694813808226863 0.15641043367666868
3840000000.0 -0.14524882246205978 -0.017998161041725372
3860000000.0 0.034181649343332295 -0.139412865581211
3880000000.0 0.12319275623129432 0.07979463181179632
3900000000.0 -0.0070481709369156174 0.15364910971597304
3920000000.0 0.1585587580388416 0.019181674626499775
3940000000.0 0.008041401272802394 0.17076734767642948
3960000000.0 0.12780223138139526 0.12145440063734718
3980000000.0 0.16691941712831762 0.04653164964376066
4000000000.0 0.11302825344148995 -0.11944874747371918
