!Created with skrf (http://scikit-rf.org).
# Hz S RI R 50.0 
!freq ReS11 ImS11
400000000.0 0.5454909886022696 0.6752863073205875
420000000.0 0.8411302493124808 -0.09625565786387659
440000000.0 0.6034365949743605 -0.5281525486909429
460000000.0 0.6203903244100396 -0.3981166790733824
480000000.0 -0.1217409523018802 -0.6597540094227154
500000000.0 -0.362007610585051 0.4697813374292714
520000000.0 -0.375775931540832 0.3371575555738309
540000000.0 0.24929659199595725 -0.3657443767927059
560000000.0 -0.2853253025713363 0.28650680929478345
580000000.0 -0.14397824916279503 -0.33969597444683397
600000000.0 0.3586494316994429 0.0418093871682689
620000000.0 -0.30262326841494885 -0.19905435356787377
640000000.0 0.33009332582409345 -0.25129483004308717
660000000.0 0.3953104461698178 0.1432445860715518
680000000.0 -0.42590998242421146 0.1338995818389396
700000000.0 0.45546650575258585 -0.00034301840385190233
720000000.0 -0.27616951396122613 0.3616755980697329
740000000.0 -0.22212488698445784 0.3548157572136556
760000000.0 -0.11824053638971742 -0.3790653231360632
780000000.0 0.12134746250666356 -0.3538658621042924
800000000.0 0.2515881771552629 -0.23584172957116226
820000000.0 -0.20328657355196547 0.2150179025992073
840000000.0 -0.09790751996750494 0.1993018079587895
860000000.0 0.007674728872615603 0.17641443796191308
880000000.0 -0.01134129441739115 -0.14045885946477152
900000000.0 -0.04183816424565515 0.07597242926119395
920000000.0 0.047907212030685056 -0.0020404172884330644
940000000.0 -0.011258823544895463 -0.026273664677392162
960000000.0 -0.02505546077806153 -0.01998326692436915
980000000.0 0.049867591802130885 -0.01988144342764099
1000000000.0 -0.07770229455356799 0.04821132691591014
1020000000.0 -0.09673848539347615 0.0692595985730575
1040000000.0 0.038761869620175915 -0.1275066285088226
1060000000.0 -0.1483212472240109 0.06681693479244818
1080000000.0 -0.1805862279613597 -0.060704752790091694
1100000000.0 -0.13279482625304836 -0.1693526455307846
1120000000.0 -0.04576521504024718 -0.22789767395455057
1140000000.0 0.22323646339246456 0.11510720852774281
1160000000.0 -0.2245035122660517 0.15041897890027386
1180000000.0 0.10651631972576824 -0.2811910429696453
1200000000.0 -0.11837642026038019 0.3216285214132548
1220000000.0 -0.006615175650138083 -0.3792071605389867
1240000000.0 0.40515109738765703 0.01013700574602748
1260000000.0 -0.3743826411493028 0.18050011163768873
1280000000.0 -0.027573254794328896 0.4234694985048339
1300000000.0 0.4197116685610448 -0.07298532315860114
1320000000.0 0.4226240934692581 0.0411159784405971
1340000000.0 -0.04371974219083906 0.43153774963730446
1360000000.0 0.25367939142359514 0.3645429822588884
1380000000.0 0.161597750417258 -0.40858851235237825
1400000000.0 -0.23054276543475652 -0.361820783049043
1420000000.0 0.042214979755695096 0.40676915807639624
1440000000.0 0.25236406795097716 -0.28302078448924495
1460000000.0 0.02424461317249799 -0.34472149185529866
1480000000.0 -0.3116149628402733 -0.03171587178875801
1500000000.0 -0.030491830389897338 0.2777717083061504
1520000000.0 -0.20221637110268414 0.14578091614130476
1540000000.0 0.04279979406299325 0.2181440006843058
1560000000.0 -0.17104646938286647 0.09295697342785023
1580000000.0 -0.17384908088859338 -0.012359148863615697
1600000000.0 -0.023961682748447795 0.13822275488506225
1620000000.0 0.058250157046005564 -0.08456899595054206
1640000000.0 -0.07945210915277963 -0.00601594781736367
1660000000.0 0.06015089710047934 0.029222733987710504
1680000000.0 -0.03961846066104844 -0.020383638055138716
1700000000.0 -0.018386299217204062 0.01204664069968287
1720000000.0 0.0025661094541306025 -0.006051688409846334
1740000000.0 -0.011091362315488294 0.004983779417088447
1760000000.0 0.014218690189801878 0.02436611920056222
1780000000.0 0.05314457487525198 -0.005952333339407897
1800000000.0 0.08883026236553128 0.039861939643213266
1820000000.0 -0.10951574640199943 -0.06608068106865461
1840000000.0 0.14018336427610828 0.08276470928122792
1860000000.0 0.1552604996093418 0.12726879652667228
1880000000.0 0.23029050387732883 -0.044705466762761874
1900000000.0 0.08327936477155477 -0.2628026392962495
1920000000.0 0.31433456084395645 0.05717862266448452
1940000000.0 -0.08230459749246573 -0.3357680018151199
1960000000.0 -0.3736712410732341 -0.014532323147355693
1980000000.0 0.3838411470845742 -0.1241012009437256
2000000000.0 -0.2693368222958167 -0.3212431345491607
2020000000.0 -0.4075992013204687 -0.11808984796304184
2040000000.0 -0.021651269744034415 0.42887846372379357
2060000000.0 0.0713472861527903 0.42633380323105713
2080000000.0 0.19018504924142812 0.38776155817124647
2100000000.0 0.08511697483984547 -0.41887011427074755
2120000000.0 -0.11320972214312995 -0.3995169213868685
2140000000.0 0.05090366196586354 -0.3941250362142364
2160000000.0 0.25211943739923903 -0.28754153299812574
2180000000.0 0.2876819956885302 -0.23492457535382866
2200000000.0 0.22484407829082642 -0.28113718493362594
2220000000.0 -0.3400740198967079 -0.0858650329988151
2240000000.0 -0.3199708955316109 -0.13124337181809032
2260000000.0 -0.3377071257343779 0.07126120836419024
2280000000.0 0.27702156671048567 0.20814778326409322
2300000000.0 0.28507392603722587 0.2087543187808488
2320000000.0 0.2914585726740779 0.2377143447609817
2340000000.0 -0.18458566633071555 -0.36607149846098347
2360000000.0 -0.44825075097369216 -0.02377101892011955
2380000000.0 0.2069451823509698 0.4534313771094823
2400000000.0 -0.441126028211345 0.34149605667835636
2420000000.0 0.49127701668133955 -0.36116252806239074
2440000000.0 -0.47587094122780177 0.45171550596837073
2460000000.0 -0.6927148162079452 -0.10149834459539284
2480000000.0 0.7001235106461566 0.2127800681642207
2500000000.0 -0.4902482681070885 -0.5717114175653715
2520000000.0 0.6761120228074422 -0.3609396385104246
2540000000.0 -0.6244574143869142 -0.4505488430074829
2560000000.0 -0.2400640911870549 0.7274503455678856
2580000000.0 -0.1495408693725045 -0.7369806503392203
2600000000.0 -0.6997978888234162 0.21069091421894434
2620000000.0 0.17646430023755835 0.6817417870859404
2640000000.0 0.33956552089878606 -0.5729370154454263
2660000000.0 -0.5539600963226876 -0.29040164547177794
2680000000.0 -0.12214177849911315 0.5666406465782743
2700000000.0 -0.32778600223173504 -0.4142933486180222
2720000000.0 -0.043791070997955185 0.4798177526190513
2740000000.0 0.3956737815634948 -0.17432760701264005
2760000000.0 -0.2778151086126735 0.2723716687992646
2780000000.0 0.357890640423381 0.014310590610777
2800000000.0 -0.2930359111486922 -0.16044531281292698
2820000000.0 0.05756158551776096 -0.3087288615044395
2840000000.0 0.10873833688824569 0.28548342904332413
2860000000.0 -0.2627895779723322 -0.1359748690566254
2880000000.0 0.07441700869747703 -0.2810325280365374
2900000000.0 -0.2693049549185023 -0.1075493784540708
2920000000.0 -0.25432017904670784 0.15528252023048042
2940000000.0 0.1677869681811019 -0.2613420463348222
2960000000.0 -0.21025015150833884 -0.2383391465342868
2980000000.0 -0.30012136666202255 -0.10790668640267524
3000000000.0 -0.29628847983087014 0.11592005400078248
3020000000.0 0.2978659004117792 0.11399179337532042
3040000000.0 0.29987994128258477 0.10702545113568912
3060000000.0 0.20220762040042267 0.2371299989967959
3080000000.0 0.2616451325838326 -0.14696652846745692
3100000000.0 -0.24839450945254274 0.15293583423199356
3120000000.0 -0.0032378303083388607 -0.28665466591034766
3140000000.0 -0.27720433603758093 0.017366487882492947
3160000000.0 0.07424471054063317 -0.2557816018741336
3180000000.0 -0.11404755873191705 0.22352659096826824
3200000000.0 0.12926021164575502 -0.19592172465513616
3220000000.0 -0.015744180414569476 -0.2066079104820446
3240000000.0 -0.06613437135043622 -0.16059464415522107
3260000000.0 0.13267226974792143 0.05448209942281649
3280000000.0 -0.10253875477880506 -0.0015956909074000057
3300000000.0 0.014325698441901114 0.0705437895619071
3320000000.0 0.003843937834227903 0.04533238231885344
3340000000.0 -0.01854897026497785 0.015866267357108596
3360000000.0 0.002139557253800775 -0.007970042725118637
3380000000.0 -0.000529954071807122 0.0031469271058258102
3400000000.0 -0.011853029543445776 0.0094424325306873
3420000000.0 0.032137232295333155 0.004977090281416581
3440000000.0 0.016386060302745708 -0.04414163729123238
3460000000.0 0.017919636976819864 -0.060074191160845294
3480000000.0 0.07179601800923585 0.025177815481784604
3500000000.0 0.026525486533609605 -0.08327284734744395
3520000000.0 0.03239573940489814 -0.09564659789907973
3540000000.0 -0.046334431748709784 0.10291629537588143
3560000000.0 0.1137253021904716 0.03168068588812815
3580000000.0 0.08496392238790007 -0.1037528268200202
3600000000.0 0.13200359423735294 0.0824735293896307
3620000000.0 -0.15973264715078936 -0.04855491951303061
3640000000.0 -0.13803253692505413 0.11953400097777182
3660000000.0 -0.09597942372375233 0.1635527326228526
3680000000.0 -0.12523168881888963 -0.14332408713065883
3700000000.0 -0.09557128181440655 -0.16621966768035537
3720000000.0 0.10261163955821845 -0.1622941116459769
3740000000.0 0.10427991571432682 0.1540129066915824
3760000000.0 -0.00820437157627252 -0.18324811806198818
3780000000.0 0.16469213765081028 0.06941357941880108
3800000000.0 -0.16818043745849745 -0.027767954712114327
3820000000.0 -0.007611974133712286 0.15717279471564882
3840000000.0 -0.14480377321107 -0.01902714307165524
3860000000.0 0.06882540100419848 -0.1261684584522662
3880000000.0 0.09294677492501288 0.11303020856144515
3900000000.0 -0.01730202969677701 0.1522005149074663
3920000000.0 0.15503483672418833 0.03742357817783212
3940000000.0 -0.016765791843933595 0.16933889943969116
3960000000.0 0.09735967777313831 0.14621430955211204
3980000000.0 0.1330619540236661 0.11076419941135549
4000000000.0 0.1516101273360144 -0.06332884432908599
