!Created with skrf (http://scikit-rf.org).
# Hz S RI R 50.0 
!freq ReS11 ImS11
400000000.0 0.539047849359856 0.6801675112061778
420000000.0 0.84142129625152 -0.09434443305993916
440000000.0 0.6031672557256593 -0.528601791475383
460000000.0 0.6213178866398418 -0.39699190771366083
480000000.0 -0.11742212488910697 -0.6607414244754386
500000000.0 -0.3613399967336016 0.4701648935009675
520000000.0 -0.37727557768629494 0.33562153783425414
540000000.0 0.25511085494993846 -0.3616558300224283
560000000.0 -0.2796052824939767 0.29215500027167857
580000000.0 -0.16240757753464577 -0.33141355092284347
600000000.0 0.35923908894828765 0.03717769358517969
620000000.0 -0.30388598679372736 -0.19758088057891016
640000000.0 0.3336395326970741 -0.24667480654986004
660000000.0 0.39566562267890293 0.14278949819405168
680000000.0 -0.42853979284878446 0.12568616294994298
700000000.0 0.455465824308968 0.00787564114415031
720000000.0 -0.2783490601291557 0.3598972702421492
740000000.0 -0.2295183407082507 0.3498716481155104
760000000.0 -0.11889899586949176 -0.37866904800365475
780000000.0 0.11752398842928703 -0.35503265213176094
800000000.0 0.24997404111656527 -0.23730105361761228
820000000.0 -0.19985493695449075 0.2182912188296032
840000000.0 -0.10571546334609143 0.19518940708311366
860000000.0 -0.01410068270294777 0.1758823961301503
880000000.0 -0.004057175525755463 -0.14072725847436576
900000000.0 -0.05055955244664068 0.0704720172472881
920000000.0 0.04780166398567416 -0.0032316348839088777
940000000.0 -0.0030923810783597596 -0.028571879550442394
960000000.0 -0.008877559358991904 -0.030957850547371157
980000000.0 0.05264737976777375 -0.010141384943002436
1000000000.0 -0.07918432155328388 0.04517821086845633
1020000000.0 -0.0908755118843399 0.07649324156846087
1040000000.0 0.030694851800708547 -0.1296008327272904
1060000000.0 -0.14596008188322127 0.07177321439529272
1080000000.0 -0.18315890726634487 -0.05278244537418742
1100000000.0 -0.13112440320892776 -0.1707147051393102
1120000000.0 -0.05086317462495844 -0.22684765453968073
1140000000.0 0.2208194831314104 0.11975988772791092
1160000000.0 -0.22402860688714352 0.1512017410958381
1180000000.0 0.12071218183873568 -0.2752472314991541
1200000000.0 -0.14519619355157415 0.31014624519023054
1220000000.0 0.029125715239616354 -0.3777784587219181
1240000000.0 0.40427441901039496 0.02908898399168549
1260000000.0 -0.37968722768124546 0.1692409227443621
1280000000.0 -0.030740241239608706 0.4234041590577456
1300000000.0 0.42033513652984733 -0.06904047678853413
1320000000.0 0.42221398924097275 0.04384214496546512
1340000000.0 -0.039432463087379105 0.4317601498615182
1360000000.0 0.2600054561283849 0.35992268929630883
1380000000.0 0.15054485675955265 -0.41264029674095093
1400000000.0 -0.2404566722215233 -0.35508710605440763
1420000000.0 0.059009968416880304 0.40468172203183805
1440000000.0 0.24401587286941526 -0.29036686011956553
1460000000.0 0.009889814130740224 -0.34539360960196436
1480000000.0 -0.3125815867935674 -0.0206077609400509
1500000000.0 -0.028388450209725098 0.27831991761908786
1520000000.0 -0.2041884458078609 0.14353124400981765
1540000000.0 0.04946995813451863 0.216856012068091
1560000000.0 -0.1770013722675481 0.08192312406397223
1580000000.0 -0.1725388967674457 -0.026364813738954298
1600000000.0 -0.028628452108120424 0.13730888486084183
1620000000.0 0.05092601963770962 -0.0892818982258555
1640000000.0 -0.07731507338175665 -0.0193574125825461
1660000000.0 0.05451487265104523 0.03862437976562818
1680000000.0 -0.03532675952889761 -0.026815412269565634
1700000000.0 -0.019437931620515086 0.009749276502121242
1720000000.0 0.006040093384231382 0.0017458153310564884
1740000000.0 -0.01058847572823908 -0.0062459909379254585
1760000000.0 0.0012345186114644526 0.028249133026475217
1780000000.0 0.05335305892700225 0.004006122685856545
1800000000.0 0.08223913949177483 0.052553045697468
1820000000.0 -0.10326880509974888 -0.07571985348041117
1840000000.0 0.13393961773087293 0.09235656769666396
1860000000.0 0.14904611788133487 0.13405261048053976
1880000000.0 0.23059993867685646 -0.0420028817573529
1900000000.0 0.08190254571454879 -0.26293227100484784
1920000000.0 0.31673576624615457 0.039708410971961844
1940000000.0 -0.10064385651116231 -0.33067179223251686
1960000000.0 -0.3740277544348183 0.0008430639128878375
1980000000.0 0.37937129828444416 -0.13761149350187069
2000000000.0 -0.2796103829545018 -0.3126121413915023
2020000000.0 -0.40815262450542183 -0.11785230440737147
2040000000.0 0.03989950099939015 0.42769498980434356
2060000000.0 0.06469049738050515 0.42788067324046886
2080000000.0 0.19432176772266505 0.38627505951302754
2100000000.0 0.07636208862511044 -0.4209650534352646
2120000000.0 -0.11385892110113464 -0.39984751288209713
2140000000.0 0.04586543211437219 -0.3951094648423414
2160000000.0 0.27420763783710317 -0.26720524523024786
2180000000.0 0.2943582229876582 -0.22690459868551419
2200000000.0 0.24850805632478834 -0.2605679401749289
2220000000.0 -0.33222331541320554 -0.11222529676843068
2240000000.0 -0.3142717761615326 -0.14425378493635008
2260000000.0 -0.3392423280039974 0.06300326542691029
2280000000.0 0.2697111042356675 0.2171568321722445
2300000000.0 0.2869633267731834 0.20613221203813245
2320000000.0 0.28763718634542335 0.2421741887088568
2340000000.0 -0.1977349804360293 -0.35935179749259344
2360000000.0 -0.4487210618096124 -0.016517915714959606
2380000000.0 0.21399754376239408 0.4500466900840239
2400000000.0 -0.4334830149669005 0.35131498371336667
2420000000.0 0.4837131095272415 -0.3714391496414651
2440000000.0 -0.48984724443243916 0.43696962623715224
2460000000.0 -0.6920178156559749 -0.10783130647200696
2480000000.0 0.7108331885266993 0.17415291672946723
2500000000.0 -0.46223300695009484 -0.5951170060388857
2520000000.0 0.6873735026101611 -0.3392752637219488
2540000000.0 -0.6568046291482599 -0.4018571151170113
2560000000.0 -0.27106963232596837 0.7171144914572586
2580000000.0 -0.22418819836890105 -0.7180848894405801
2600000000.0 -0.7071960729306547 0.18624467745919332
2620000000.0 0.17827625971422667 0.6814702360092725
2640000000.0 0.37425143427788976 -0.5510991395671846
2660000000.0 -0.5466418449652141 -0.30467163265155556
2680000000.0 -0.10123085424768556 0.5710974551951141
2700000000.0 -0.327393400988914 -0.41492705765083027
2720000000.0 -0.06475507093933841 0.47747412884535595
2740000000.0 0.4082940480578605 -0.1420428351859996
2760000000.0 -0.28827237720004817 0.26101436829662106
2780000000.0 0.3578043687929892 0.012450278955706254
2800000000.0 -0.29197041538803387 -0.1622153076182704
2820000000.0 0.06035631591922681 -0.30785837418671974
2840000000.0 0.13157819609588475 0.27483947321496655
2860000000.0 -0.25585922744049355 -0.14919467353657104
2880000000.0 0.053252138494764144 -0.28574316203799455
2900000000.0 -0.27722396012741285 -0.08527581907220001
2920000000.0 -0.2419042677051915 0.17430413612764892
2940000000.0 0.17053686263211643 -0.26004312439627414
2960000000.0 -0.21352004791090903 -0.2357129830079095
2980000000.0 -0.2968571541569581 -0.11672808955815105
3000000000.0 -0.29630014408533983 0.11390659171332686
3020000000.0 0.2939435349133252 0.12471307520314236
3040000000.0 0.290837433811914 0.13066123211563463
3060000000.0 0.1833258766770093 0.2526065821299125
3080000000.0 0.2750616800046111 -0.12110758699521099
3100000000.0 -0.23987012608709404 0.166993063505139
3120000000.0 0.05264235258824243 -0.2818476511579702
3140000000.0 -0.27787368503664245 -0.010740353790861348
3160000000.0 0.11128318885602538 -0.24186456687419075
3180000000.0 -0.15190992146804289 0.1992194778947967
3200000000.0 0.15384057223456402 -0.1768904929602624
3220000000.0 0.0025039354699065873 -0.20713151264550445
3240000000.0 -0.06186059375810465 -0.16199127485147471
3260000000.0 0.13148710122182072 0.05624301584948363
3280000000.0 -0.09976445797709814 -0.022273311543099583
3300000000.0 0.03646272783766679 0.061427116995664714
3320000000.0 0.0320447940175379 0.03179895455256965
3340000000.0 -0.001904832847743338 0.023683011292652656
3360000000.0 -0.007637758570948527 0.00158221826178267
3380000000.0 0.0010549106039366774 0.002979279671068579
3400000000.0 -0.011152356281276008 -0.010783297244234682
3420000000.0 0.0174525057110066 0.027871218451434636
3440000000.0 0.045660094575279773 -0.012829859377335396
3460000000.0 0.03217237667112298 -0.05418860793570021
3480000000.0 0.07205268706008786 0.02563601181785125
3500000000.0 0.0730274122864457 -0.047870223920200766
3520000000.0 0.0931071947221363 -0.03777118999984865
3540000000.0 -0.09621236951924468 0.05787623496774075
3560000000.0 0.09212028136175235 0.07356165305668176
3580000000.0 0.12151368810031699 -0.05533841202120199
3600000000.0 0.10373332463716337 0.11553214356667096
3620000000.0 -0.14137301115590206 -0.08764052690112645
3640000000.0 -0.13942996622919798 0.11837644230378176
3660000000.0 -0.1062513988324642 0.15705515192196817
3680000000.0 -0.10470217127108866 -0.15874309528622024
3700000000.0 -0.07564281265877568 -0.17562114880429905
3720000000.0 0.1190809310155933 -0.1501628101718342
3740000000.0 0.08168255851100178 0.16655891195703884
3760000000.0 0.015250331545131416 -0.18248621474927315
3780000000.0 0.1575066091588583 0.08311183034129213
3800000000.0 -0.1655636198166153 -0.03695581443943782
3820000000.0 -0.011357429605233154 0.15644202524713915
3840000000.0 -0.1449943720251756 -0.012724910840686941
3860000000.0 0.05781309095772383 -0.13082782703824206
3880000000.0 0.09841661791401388 0.10778197724355017
3900000000.0 -0.01506593189493154 0.1519848282779244
3920000000.0 0.1575129096461343 0.018009112494150246
3940000000.0 0.018199064154242196 0.1685432432417571
3960000000.0 0.12206551113656601 0.1254278386405919
3980000000.0 0.1468073650411328 0.09084874055218162
4000000000.0 0.136225977368393 -0.09105798461308517
