!Created with skrf (http://scikit-rf.org).
# Hz S RI R 50.0 
!freq ReS11 ImS11
400000000.0 0.544494856591152 0.6765312947291755
420000000.0 0.8444154654944633 -0.06773133029808456
440000000.0 0.577835428805959 -0.5553663712640743
460000000.0 0.6248492858116778 -0.39061598674918946
480000000.0 -0.11575553661758366 -0.6608928004841643
500000000.0 -0.35626545189948877 0.4740966983414
520000000.0 -0.3725559296195697 0.34044909784280003
540000000.0 0.24577688918337892 -0.36784519056558734
560000000.0 -0.28658364871622616 0.28533270301311164
580000000.0 -0.16624052106391793 -0.3295119858193358
600000000.0 0.35567455771018897 0.061142933211031196
620000000.0 -0.2929190498372913 -0.21298281449108286
640000000.0 0.3261896565978748 -0.2561748330640948
660000000.0 0.4011854750664869 0.12443938796270453
680000000.0 -0.430902652895474 0.1160753546704659
700000000.0 0.4549409743200501 -0.018121213904134837
720000000.0 -0.28769279304916967 0.35213822520562876
740000000.0 -0.23399093349361902 0.34679821648941334
760000000.0 -0.11265504018823126 -0.3803927755074473
780000000.0 0.09306192209039751 -0.36234546221171626
800000000.0 0.24557815253747686 -0.24218477296436675
820000000.0 -0.21013441587739815 0.20844232887355355
840000000.0 -0.12104762886010577 0.18606087168542634
860000000.0 -0.017484686323144774 0.17587525899713477
880000000.0 -0.00509621681197225 -0.14092533167845023
900000000.0 -0.06296290689233446 0.06035452462500542
920000000.0 0.0479702768298385 0.003144205812320346
940000000.0 -0.000582483816137085 -0.02882412122460868
960000000.0 -0.02398946875614283 -0.021453598894341026
980000000.0 0.04758754666714354 -0.024844434703837764
1000000000.0 -0.07836391699614972 0.0469769521034189
1020000000.0 -0.0845883560928071 0.08360041322718581
1040000000.0 0.030165021712159654 -0.129845059322606
1060000000.0 -0.1401796468202551 0.08288732243464236
1080000000.0 -0.18084498346439729 -0.06181093704609593
1100000000.0 -0.13393466859622763 -0.16881238074457935
1120000000.0 -0.03499728852992275 -0.23020439838312354
1140000000.0 0.21708651448665017 0.12681858457438897
1160000000.0 -0.22739303719887177 0.14577712307051355
1180000000.0 0.10945339705674602 -0.2797829443771622
1200000000.0 -0.11630544991381982 0.32236499922010237
1220000000.0 0.010180867769283957 -0.3790728316988175
1240000000.0 0.40213682208337265 0.048518989423568484
1260000000.0 -0.3808798892874737 0.16500446331243002
1280000000.0 -0.03620059073684213 0.42268125406203366
1300000000.0 0.41336581028172065 -0.10238305676512324
1320000000.0 0.42422468435813143 0.018865868510775145
1340000000.0 -0.022168096320747052 0.4330539051190681
1360000000.0 0.2704874489648807 0.35252467954288097
1380000000.0 0.14282464435963252 -0.41567630293439445
1400000000.0 -0.2257884306989818 -0.36501971354951745
1420000000.0 0.046220025541793094 0.40649065520651595
1440000000.0 0.25218815161817293 -0.28340921833211025
1460000000.0 0.028385319725935467 -0.34437639667471176
1480000000.0 -0.31247918117617185 -0.012726636808425337
1500000000.0 -0.025836466686142482 0.27815837936480026
1520000000.0 -0.21907166520718296 0.1198507159970367
1540000000.0 0.03517186962923042 0.2194761275132202
1560000000.0 -0.18468679554198758 0.06115277419450229
1580000000.0 -0.16835567811901092 -0.043762699597973964
1600000000.0 -0.0056118984309502734 0.13944409773254765
1620000000.0 0.06100525297425051 -0.08251638524742273
1640000000.0 -0.07904263229418733 0.004090163218024112
1660000000.0 0.05546621863245548 0.03603981755591123
1680000000.0 -0.04305682207429559 0.010931270767661429
1700000000.0 0.021729205752114827 -0.0039010937140798673
1720000000.0 -0.0019642082778286276 -0.005768294048817041
1740000000.0 -0.003101808899196523 0.011828391996983803
1760000000.0 0.024810687629483984 0.013077910772597779
1780000000.0 0.05339805060123191 0.005277540292035396
1800000000.0 0.09145220660628092 0.03344774325026548
1820000000.0 -0.10182278866362106 -0.07801369617043162
1840000000.0 0.12432388023644264 0.10485674816392304
1860000000.0 0.13246871314990594 0.15026016100150336
1880000000.0 0.2334694313849887 -0.01736062163356084
1900000000.0 0.10381366841216093 -0.2551756221482641
1920000000.0 0.3134309085005534 0.061140951987362815
1940000000.0 -0.08740191557188745 -0.3340122097266041
1960000000.0 -0.37381367887345485 -0.006832537300237714
1980000000.0 0.3787650964515307 -0.139006459020894
2000000000.0 -0.28155769083837473 -0.3104908625092955
2020000000.0 -0.4069569382586741 -0.12173444157993221
2040000000.0 0.04533903098589853 0.427261979370724
2060000000.0 0.09395738984061064 0.42240106082124185
2080000000.0 0.24698326671979298 0.355010034955669
2100000000.0 0.04198847401064652 -0.4257972078288617
2120000000.0 -0.1549182735161004 -0.3857014506015589
2140000000.0 -0.007675532411346188 -0.3979942438814208
2160000000.0 0.27596825890822707 -0.2662315995726402
2180000000.0 0.3042115808409831 -0.21338080717951985
2200000000.0 0.26616983503146474 -0.24359495999571587
2220000000.0 -0.3216961155482826 -0.13959732704012623
2240000000.0 -0.2842103265377684 -0.19820840183445254
2260000000.0 -0.3449802460387912 -0.0010541170495947181
2280000000.0 0.24663178243629327 0.24305957535907344
2300000000.0 0.25825243206587467 0.24188335216904994
2320000000.0 0.2552679818734072 0.27650424875534985
2340000000.0 -0.1462288625946948 -0.3832263340648387
2360000000.0 -0.44533059399633373 -0.05713549420215966
2380000000.0 0.19407910328657818 0.4594303969184327
2400000000.0 -0.4606173248171329 0.31524953315836923
2420000000.0 0.5066511292724989 -0.33901571999243585
2440000000.0 -0.47233680154564495 0.4554356570909518
2460000000.0 -0.6891181916476922 -0.12305992203448905
2480000000.0 0.7052731553747668 0.19272064877355846
2500000000.0 -0.4672410411729863 -0.5899713400701266
2520000000.0 0.6459112529734418 -0.41123351294281596
2540000000.0 -0.6725232812775901 -0.3749373162239419
2560000000.0 -0.2726902658199591 0.7164889736874959
2580000000.0 -0.19014844949636764 -0.7279135504526556
2600000000.0 -0.7030294545546685 0.2010716778182981
2620000000.0 0.1836384470502531 0.6806983228256295
2640000000.0 0.4152082176104378 -0.5217467451420663
2660000000.0 -0.5452780171799794 -0.3092836735353684
2680000000.0 -0.11232673137237993 0.570116780275439
2700000000.0 -0.3386627860980006 -0.40742633617917556
2720000000.0 -0.06600167336117245 0.4783988099414396
2740000000.0 0.40930947945831814 -0.14308149883056265
2760000000.0 -0.28895866498395995 0.26230098515138633
2780000000.0 0.3589983245702775 0.014491901612720764
2800000000.0 -0.2837608530531624 -0.1780482116330691
2820000000.0 0.07599458767456956 -0.30507676012204765
2840000000.0 0.10529694330680199 0.28681521015427375
2860000000.0 -0.2524667817540604 -0.1552679485790233
2880000000.0 0.07940932249714262 -0.28001682992087124
2900000000.0 -0.2595778992611707 -0.1297087049634801
2920000000.0 -0.25638821714622406 0.1523095583254402
2940000000.0 0.17454346411339922 -0.25668132938830984
2960000000.0 -0.17544787401882625 -0.26504575651169865
2980000000.0 -0.28162541782310374 -0.14963234309214704
3000000000.0 -0.303986812935322 0.08874295650030771
3020000000.0 0.3000755772860809 0.10661230515106246
3040000000.0 0.30748967145749245 0.0821376383417143
3060000000.0 0.17586376475549503 0.2562551202472686
3080000000.0 0.25219648100054737 -0.16204253732072302
3100000000.0 -0.20288653995853145 0.20986020475792058
3120000000.0 -0.005712433268086449 -0.2859453043770171
3140000000.0 -0.2758323525228019 0.03341140832162885
3160000000.0 0.06319726686917522 -0.2588157650039637
3180000000.0 -0.09288404806517961 0.23270499985815019
3200000000.0 0.0736950272260598 -0.22323891911940333
3220000000.0 -0.04866422725055162 -0.20233602497382552
3240000000.0 -0.08247434660382581 -0.15417579990834238
3260000000.0 0.14068994566310472 0.030247761575474937
3280000000.0 -0.10179820433740121 0.015237429403636994
3300000000.0 0.04205740228824807 0.05877412823183382
3320000000.0 0.02066548746277364 0.0414161867665423
3340000000.0 0.01726211424148686 0.01772270874789704
3360000000.0 -0.007783697705062744 -0.004507089352042637
3380000000.0 -0.002389171145034441 0.0014201560725198316
3400000000.0 0.00025868398848308 -0.014540156319341493
3420000000.0 0.0011294268215751289 0.03253846400247443
3440000000.0 0.020860018524357787 -0.04256450612487602
3460000000.0 0.03048280865537479 -0.054736647385124695
3480000000.0 0.03766606858371159 0.06601282791303442
3500000000.0 0.0373347456875789 -0.07897782682179937
3520000000.0 0.09103366662012952 -0.04271740387435992
3540000000.0 -0.09638776015427178 0.05814426453252636
3560000000.0 0.09367970662481001 0.07294908191478572
3580000000.0 0.12738536803200334 -0.04043324867529222
3600000000.0 0.0849025789283751 0.1300505387914922
3620000000.0 -0.14567177920565139 -0.08036923355925998
3640000000.0 -0.13663050800223503 0.12098789440481196
3660000000.0 -0.10568080305236996 0.15686977894911755
3680000000.0 -0.1110844402615641 -0.15456401552859791
3700000000.0 -0.0885368720822375 -0.16946552163072579
3720000000.0 0.08886304449840139 -0.16943105786203674
3740000000.0 0.1166552051397274 0.14391041547849218
3760000000.0 0.0034317159408450686 -0.1825874160777289
3780000000.0 0.16221179382864465 0.07277955347390992
3800000000.0 -0.16319570756314802 -0.04526496940441806
3820000000.0 -0.03201901767438547 0.1532370134443555
3840000000.0 -0.1409424075036005 -0.03768221663180413
3860000000.0 0.08131565036578679 -0.1179052309694881
3880000000.0 0.0888373170348034 0.11779370682051424
3900000000.0 -0.03465216823969376 0.15033980836313462
3920000000.0 0.14879837684638422 0.05806640713287756
3940000000.0 -0.03400607231363077 0.16804513707000987
3960000000.0 0.05418532058746522 0.16841446301834836
3980000000.0 0.0767961998502774 0.15620659276244986
4000000000.0 0.15286890157455763 0.06219716637873435
