!Created with skrf (http://scikit-rf.org).
# Hz S RI R 50.0 
!freq ReS11 ImS11
400000000.0 0.5373607915210188 0.6827036488772322
420000000.0 0.8447278368758425 -0.06180237249223083
440000000.0 0.6196020600428734 -0.5092354112346864
460000000.0 0.6189317663539752 -0.4006153299433431
480000000.0 -0.12458323434647892 -0.6593608405161648
500000000.0 -0.36862648307489637 0.4646044902296752
520000000.0 -0.37171722853743566 0.3416611627693523
540000000.0 0.2544187910491208 -0.3619480171052807
560000000.0 -0.2756888029350508 0.2955122035627267
580000000.0 -0.15942797432370157 -0.33261911332729815
600000000.0 0.35687354516814096 0.05553651325833287
620000000.0 -0.2939995253811618 -0.2118454685622529
640000000.0 0.33149355184891266 -0.24980905802320272
660000000.0 0.40137484000474766 0.1251206413797755
680000000.0 -0.4295591166840083 0.12110253539007786
700000000.0 0.45557881880680023 -0.0028190136700843326
720000000.0 -0.27526975416990346 0.36210791195614656
740000000.0 -0.2358868899863605 0.34581137937793505
760000000.0 -0.10229921085466878 -0.3833243536287358
780000000.0 0.10691238587711391 -0.3582667402032455
800000000.0 0.25157635426575375 -0.2357624345904486
820000000.0 -0.2010708726031459 0.2171706191757197
840000000.0 -0.12288934228766968 0.1851644240934983
860000000.0 -0.03780606981754311 0.17244921689419698
880000000.0 0.01617082726255111 -0.1399475279566936
900000000.0 -0.05720127785381916 0.06484378329288919
920000000.0 0.04688007820009406 -0.008257326255328627
940000000.0 -0.024028907379967882 -0.015061748777335173
960000000.0 -0.03177233126688855 -0.004902208077835512
980000000.0 0.04382753461195766 -0.030975372309055393
1000000000.0 -0.07812254029649722 0.04722109824807055
1020000000.0 -0.08868038195185847 0.07950047116719028
1040000000.0 0.04613143652387312 -0.12520380462103026
1060000000.0 -0.15741154772168348 0.04151632457803869
1080000000.0 -0.17617840303350818 -0.07249277369041034
1100000000.0 -0.13291520071850677 -0.1689378694897192
1120000000.0 -0.06140969946027406 -0.22415534189043831
1140000000.0 0.21032243221435604 0.13632292481901973
1160000000.0 -0.21635804773998368 0.1611100176866417
1180000000.0 0.09113954647958582 -0.28614673370949567
1200000000.0 -0.13703958060545618 0.31354545027869896
1220000000.0 0.0055752396849093585 -0.378905393781742
1240000000.0 0.4049090173155948 0.00464200272488037
1260000000.0 -0.3755457606972999 0.17796125141180028
1280000000.0 -0.027606960132150533 0.4240059939431345
1300000000.0 0.41741525778100647 -0.08810281310110517
1320000000.0 0.4237780382077725 0.03431520205524474
1340000000.0 -0.05506902010500749 0.43045663118277283
1360000000.0 0.2582969237284561 0.3616085142081409
1380000000.0 0.14663546052622614 -0.41425385063293463
1400000000.0 -0.22542297194671249 -0.36504513611179734
1420000000.0 0.04976805344411231 0.40567948486045646
1440000000.0 0.2602482411492506 -0.27552105757391665
1460000000.0 0.04223233684356503 -0.3428098722944084
1480000000.0 -0.31153491528239213 -0.025852786014650693
1500000000.0 -0.007650871898289504 0.2790523808155079
1520000000.0 -0.18841023911256352 0.1631205474749414
1540000000.0 0.0531973186898112 0.21597295927892513
1560000000.0 -0.1633245012148861 0.10616044041150415
1580000000.0 -0.1742510843534787 -0.0026043094259853503
1600000000.0 -0.015653983054387123 0.13935888199334392
1620000000.0 0.06314949301754717 -0.0811034591940124
1640000000.0 -0.07247675474488352 -0.03364879668354395
1660000000.0 0.05002988282005775 0.04430833763469811
1680000000.0 -0.04015719089966 -0.01841275503703321
1700000000.0 -0.010364264454796707 0.018980596805097304
1720000000.0 0.0007704727063149721 -0.00582727189201816
1740000000.0 0.011932707581695795 -0.0030638094912285607
1760000000.0 -0.018290410814815517 0.02189502701773389
1780000000.0 0.04479664838202636 0.02920985180255065
1800000000.0 0.07077879182767938 0.06682941612841684
1820000000.0 -0.06921943457693554 -0.10726380580499291
1840000000.0 0.10016270127420449 0.12809373147759534
1860000000.0 0.1066753746001561 0.1691234900798175
1880000000.0 0.233685285711041 0.003669359118684486
1900000000.0 0.10992243345673551 -0.25185178873111597
1920000000.0 0.3116518475767146 0.06627947654243323
1940000000.0 -0.10312486079785198 -0.3290781616304433
1960000000.0 -0.37335782263899353 0.014085056474845977
1980000000.0 0.37431861057087146 -0.1507794643893729
2000000000.0 -0.29559925836296363 -0.2975602749487013
2020000000.0 -0.4136754887152805 -0.09615848454228877
2040000000.0 0.0563301300567871 0.4262557297176646
2060000000.0 0.08281441034194578 0.42481702005812544
2080000000.0 0.23699741746570488 0.36209437407135914
2100000000.0 0.06491933186463075 -0.4235700411386147
2120000000.0 -0.07099876339142448 -0.4100524603328784
2140000000.0 0.026242713451642787 -0.39753057775482814
2160000000.0 0.26830493718566256 -0.27473310786286287
2180000000.0 0.3218843508956185 -0.18714568481745666
2200000000.0 0.28470165279383425 -0.2221452250851361
2220000000.0 -0.2952225349047155 -0.1915642472854617
2240000000.0 -0.27157340609526454 -0.21638597836386034
2260000000.0 -0.3462290150202009 -0.007084296462244464
2280000000.0 0.22519786695252644 0.2641273178217473
2300000000.0 0.22978014910627692 0.2695823847606363
2320000000.0 0.22503018071933986 0.3017454599224528
2340000000.0 -0.1093675961151912 -0.3957972682547922
2360000000.0 -0.4379994011715339 -0.09956852065793555
2380000000.0 0.16241026471578737 0.47149747987834406
2400000000.0 -0.49367177153309916 0.260408419346481
2420000000.0 0.5238806886356447 -0.3123398489038782
2440000000.0 -0.500168504077505 0.4250046591189262
2460000000.0 -0.687270995176991 -0.13342064975314297
2480000000.0 0.6859946995178915 0.25598853619218737
2500000000.0 -0.47761805620903475 -0.5824428492599455
2520000000.0 0.6788749724448273 -0.3553825898429253
2540000000.0 -0.6418408435125069 -0.4255033638703231
2560000000.0 -0.30740066461651117 0.7020191772511165
2580000000.0 -0.1543758567339275 -0.7365614240694035
2600000000.0 -0.724556664017202 0.10092867454387251
2620000000.0 0.1736089573955647 0.6836494648387833
2640000000.0 0.4325329402852161 -0.5078931074083738
2660000000.0 -0.5315849982107781 -0.3321010579337916
2680000000.0 -0.13491334077691616 0.5660283630511488
2700000000.0 -0.32744766298949457 -0.417974396021402
2720000000.0 -0.10749832107421488 0.47155978776919394
2740000000.0 0.4036263628621575 -0.16176944972092908
2760000000.0 -0.2918213001899449 0.2611126563167483
2780000000.0 0.35916496777996265 0.02860753723870423
2800000000.0 -0.26536916373451774 -0.2062783188233053
2820000000.0 0.12603052357176214 -0.2891261329233476
2840000000.0 0.046821903584044394 0.30240720603930704
2860000000.0 -0.19318160393418227 -0.22547772357160528
2880000000.0 0.12233197091493374 -0.26395873238191037
2900000000.0 -0.23240884993359717 -0.17366292643409245
2920000000.0 -0.2800551670707836 0.10095903141031401
2940000000.0 0.22306441251777073 -0.21476417246455637
2960000000.0 -0.18731605405213317 -0.25564875202535675
2980000000.0 -0.3081680961885449 -0.07809366512170361
3000000000.0 -0.28040690070728674 0.14850062252474805
3020000000.0 0.3185868097138789 0.00595551020738482
3040000000.0 0.31636720086442083 -0.03631637377539767
3060000000.0 0.24092046764572989 0.19637418582086894
3080000000.0 0.19735989946817048 -0.22758314149279504
3100000000.0 -0.2007253131242947 0.2123563883826415
3120000000.0 -0.09676092261688107 -0.27058928601155363
3140000000.0 -0.2561385028043381 0.11103174826823736
3160000000.0 -0.0032831173640576515 -0.2679849570542194
3180000000.0 -0.06713098010192285 0.24327121125572798
3200000000.0 0.0928665080358303 -0.21735340908327022
3220000000.0 -0.04308663941637199 -0.20439814806817966
3240000000.0 -0.06743369828709377 -0.16178540617648263
3260000000.0 0.1255855028924029 0.07189639397220847
3280000000.0 -0.10222890278945193 -0.016128586081503176
3300000000.0 0.01592726404480052 0.07110485440896333
3320000000.0 0.02063716688950076 0.04218292944451931
3340000000.0 0.023348217139804256 0.010608611422499897
3360000000.0 -0.008539293660959905 0.00346831678149916
3380000000.0 -0.001642701615656484 -0.002122409908095746
3400000000.0 0.0012194942165666177 -0.014419833113369139
3420000000.0 0.0018130778234794248 0.03243303768683578
3440000000.0 0.04347463238080544 -0.018481959677524275
3460000000.0 0.046103535835574604 -0.04233664268408066
3480000000.0 0.001010597666542948 0.0760508667954839
3500000000.0 0.08052166351330337 -0.034883852347729005
3520000000.0 0.09781116692284557 0.022119666398820854
3540000000.0 -0.11153986580892473 0.016519886228710666
3560000000.0 0.04752482937695695 0.10845942161981663
3580000000.0 0.13394059525012275 0.007416994875940926
3600000000.0 0.0340691535146013 0.1510583521857958
3620000000.0 -0.08238572940775614 -0.14409304419059699
3640000000.0 -0.17509421044530254 0.05090027752793642
3660000000.0 -0.15984440428664975 0.10070598457734105
3680000000.0 -0.05088065004639244 -0.18330275771259177
3700000000.0 -0.024078605747058685 -0.18929648230193502
3720000000.0 0.1526004657747805 -0.11396774154126536
3740000000.0 0.08954547564794517 0.16224868986123664
3760000000.0 0.01879115224017279 -0.18102148295600062
3780000000.0 0.1532506098722197 0.08847056768351996
3800000000.0 -0.1587229967098495 -0.05662151783649378
3820000000.0 -0.008785227411564218 0.155095293246735
3840000000.0 -0.13978685834721533 -0.034979127330432944
3860000000.0 0.05930817893334454 -0.1282157936607306
3880000000.0 0.10698858188190934 0.09776797224677458
3900000000.0 -0.03393501235449238 0.14769526988283851
3920000000.0 0.15768229718096285 0.007196107835339119
3940000000.0 0.036329381835737855 0.1648226754502191
3960000000.0 0.14360882170231593 0.09798336618582046
3980000000.0 0.1655989487292451 0.04214005130970761
4000000000.0 0.06766606124272556 -0.14785392411541892
