!Created with skrf (http://scikit-rf.org).
# Hz S RI R 50.0 
!freq ReS11 ImS11
400000000.0 0.5381864005453811 0.680574755621738
420000000.0 0.8436689467313028 -0.04776955699413483
440000000.0 0.6082783369200203 -0.5216974431419706
460000000.0 0.6046555930412497 -0.42044111356782843
480000000.0 -0.11342150567581984 -0.6612344779051271
500000000.0 -0.37989850615076487 0.45553157824167007
520000000.0 -0.38159856365705835 0.3300628434146249
540000000.0 0.23524332103598028 -0.37442992284967813
560000000.0 -0.23971994697824534 0.3252214083979931
580000000.0 -0.21298960880714907 -0.30162797815358633
600000000.0 0.3626110054870091 -0.008906133875213353
620000000.0 -0.2995693588178031 -0.2075266319773492
640000000.0 0.362167171107757 -0.2068144973331868
660000000.0 0.359349132983457 0.22206480313659588
680000000.0 -0.44716284773363435 0.013112749444445078
700000000.0 0.4304735230341813 0.14963923427221465
720000000.0 -0.3588477820734625 0.2789559387008899
740000000.0 -0.2951525108136283 0.2948536256217163
760000000.0 -0.07320463412321776 -0.3885633849144185
780000000.0 0.10963826680726782 -0.35610647602252565
800000000.0 0.22755463179474206 -0.25767366198662844
820000000.0 -0.144182344792228 0.2578389745555355
840000000.0 -0.02180058030737331 0.22095989101104566
860000000.0 0.09435303230691282 0.14985513716685867
880000000.0 -0.09477964769583759 -0.10591301206960456
900000000.0 0.006257198432775204 0.08830354446064337
920000000.0 0.046938597111937756 -0.01646747460511778
940000000.0 0.029988747909172372 -0.005401455906415409
960000000.0 0.03202970244233428 0.005808032112468244
980000000.0 0.030056785549958023 0.04334165117889838
1000000000.0 -0.08312267953853512 0.033873173037970244
1020000000.0 -0.05366019369958569 0.10467532707322501
1040000000.0 -0.03798752240341679 -0.12680964801489444
1060000000.0 -0.08908306756636611 0.1363790819502448
1080000000.0 -0.19167339745803716 0.011138698876166852
1100000000.0 -0.17588673458457615 -0.12707052156807322
1120000000.0 -0.041013219603705055 -0.23087262380291645
1140000000.0 0.1990620871287113 0.15543270049227198
1160000000.0 -0.24769425379556662 0.11150174751218218
1180000000.0 0.18499998881189586 -0.238015432600336
1200000000.0 -0.19529463737499103 0.2826152092934488
1220000000.0 0.08637893792708558 -0.3696890581349391
1240000000.0 0.3918250139921978 0.10418450399273123
1260000000.0 -0.39953221962839464 0.11344138700300249
1280000000.0 -0.07651246004531294 0.4172229904507293
1300000000.0 0.4203408729810958 -0.0660981503573796
1320000000.0 0.4196103112324187 0.06016441574280813
1340000000.0 -0.045821432099553076 0.4307232191693711
1360000000.0 0.2723420306563447 0.35046492174640587
1380000000.0 0.12788902019102055 -0.42011720441577444
1400000000.0 -0.25290543715139613 -0.34643399469454145
1420000000.0 0.09532455404100397 0.397480658449618
1440000000.0 0.23925026225563142 -0.294576510434625
1460000000.0 -0.008870899106072595 -0.3456125878448536
1480000000.0 -0.3124567442309665 0.017843531155740295
1500000000.0 0.011289123933201528 0.27998838392036335
1520000000.0 -0.19897961192132135 0.152115999543868
1540000000.0 0.049434535921571994 0.2176869623244887
1560000000.0 -0.1683295869638425 0.09898838578297071
1580000000.0 -0.17050000465549925 -0.038864331812793036
1600000000.0 -0.024549465841434946 0.13795348091661833
1620000000.0 0.07167445446395071 -0.07376378451307972
1640000000.0 -0.0665057990220082 -0.043723156198052865
1660000000.0 0.03063147017077521 0.059083482345183576
1680000000.0 -0.03155786242157943 -0.030963209349153156
1700000000.0 0.017741226810098442 0.012999353133516044
1720000000.0 0.0014557084048591525 0.005780784559558525
1740000000.0 -0.00917460297619743 -0.00812301227340745
1760000000.0 -0.018216578607386333 0.021256418706103845
1780000000.0 0.04738634313255247 0.025180347132371307
1800000000.0 0.08570040138495023 0.045574117702341294
1820000000.0 -0.10202822001543904 -0.0771694928798638
1840000000.0 0.1333518528938525 0.09214381017439391
1860000000.0 0.1597947030269276 0.12015042911425425
1880000000.0 0.22860432978456147 -0.049511836377204896
1900000000.0 0.0688503647173559 -0.2665511119316607
1920000000.0 0.3175370784700631 0.03438478838720643
1940000000.0 -0.1161374563036466 -0.3256490405826004
1960000000.0 -0.3741272904739627 0.012987696344670872
1980000000.0 0.3798108139136552 -0.13798632124277566
2000000000.0 -0.2728297389945485 -0.31906935848586326
2020000000.0 -0.40019175063872126 -0.14290414498428256
2040000000.0 0.025854854057360963 0.4288994960327086
2060000000.0 0.030147176556604205 0.43173946019229814
2080000000.0 0.2142860247523193 0.3757250395427064
2100000000.0 0.11173054294703473 -0.41271246436698056
2120000000.0 -0.08056832844125231 -0.40729824817441573
2140000000.0 0.045481080657897244 -0.3950665373084888
2160000000.0 0.29375360125973893 -0.24528331519027885
2180000000.0 0.3113679746192858 -0.2012334316361785
2200000000.0 0.2714445178092566 -0.23513702066446937
2220000000.0 -0.31241536705382916 -0.1571791975015102
2240000000.0 -0.30173492451203343 -0.16751536656600854
2260000000.0 -0.33943547009554065 0.05489212500288402
2280000000.0 0.2898523756272751 0.18826491182014857
2300000000.0 0.3036524491327073 0.1800521397907405
2320000000.0 0.30152119182702636 0.2238556222242553
2340000000.0 -0.22118739666563697 -0.3450723060330253
2360000000.0 -0.4468169626486287 0.04460333580387698
2380000000.0 0.26871940190017646 0.42024638003287806
2400000000.0 -0.4130085892075999 0.3758004437752447
2420000000.0 0.4678866470651603 -0.39160835623591067
2440000000.0 -0.47335409625224945 0.455395906659442
2460000000.0 -0.6926938489399384 -0.10684780532665177
2480000000.0 0.7015045195618272 0.2103218310096419
2500000000.0 -0.4159668322425813 -0.6287284357276547
2520000000.0 0.7092836291214555 -0.29013550394048737
2540000000.0 -0.6414857305628625 -0.4256992407584801
2560000000.0 -0.3158588384977926 0.698003914680533
2580000000.0 -0.09892764050017007 -0.7451975506171895
2600000000.0 -0.719279249013035 0.12255353808052637
2620000000.0 0.14400400114804743 0.6880359352395212
2640000000.0 0.43140323726676305 -0.5059835649381559
2660000000.0 -0.5298876339417147 -0.32963547404724536
2680000000.0 -0.14245175182703593 0.5606291538568894
2700000000.0 -0.3325391488432147 -0.40929775346473785
2720000000.0 -0.06230818343728279 0.4762075727143149
2740000000.0 0.40266774689785184 -0.15437025553694533
2760000000.0 -0.2784915767398999 0.27042472664174255
2780000000.0 0.3570604447026643 -0.020164172844149546
2800000000.0 -0.300382491143265 -0.1446750950900527
2820000000.0 0.040771680932207774 -0.31106592726014803
2840000000.0 0.13645755550809385 0.2729589446836785
2860000000.0 -0.2672208471212341 -0.12770272654982412
2880000000.0 0.05416221377788213 -0.28603768286087033
2900000000.0 -0.2773792933139983 -0.08457962094920328
2920000000.0 -0.23699178391507023 0.18106408506821617
2940000000.0 0.16334469230008783 -0.26432248695954896
2960000000.0 -0.23386064255570002 -0.2155025742008104
2980000000.0 -0.297001526268706 -0.11774250662247741
3000000000.0 -0.30582088066466534 0.08592606367227072
3020000000.0 0.3077127845030623 0.08651058811301858
3040000000.0 0.3020271089295274 0.10332794692854255
3060000000.0 0.16495818734698958 0.26529959760088084
3080000000.0 0.2761999483952996 -0.121092296658256
3100000000.0 -0.25720244532544506 0.13922002247291132
3120000000.0 0.04926657832403428 -0.2828222899801233
3140000000.0 -0.27434683497944445 -0.048151379942590174
3160000000.0 0.14481003566286443 -0.22410441333006884
3180000000.0 -0.16213753119151872 0.19199824555781506
3200000000.0 0.1769298558484231 -0.1536101831338504
3220000000.0 0.04067672694580926 -0.2029167115944526
3240000000.0 -0.02290610972710051 -0.17122550966566985
3260000000.0 0.10225249959763161 0.09903717186547653
3280000000.0 -0.10050929967222162 -0.011302467789195669
3300000000.0 0.04193062283630268 0.05711083788161618
3320000000.0 0.037218951632967394 0.02499566137146165
3340000000.0 0.02144284696665541 -0.009243183650715145
3360000000.0 -0.0007996560504999833 -0.007303553816459581
3380000000.0 -0.0024698142075161365 0.0018742106687079272
3400000000.0 0.013750010385088487 0.008248435467992912
3420000000.0 -0.03063818285486363 0.013346148490320734
3440000000.0 0.04810790613309838 0.005963878705108223
3460000000.0 0.05671205628793677 0.027996848698677603
3480000000.0 -0.03960059101937854 0.06547303961471714
3500000000.0 0.07417422273066818 -0.047737291085627416
3520000000.0 0.10016117635137273 0.006720727359399623
3540000000.0 -0.11201733563291055 0.0121013832326118
3560000000.0 0.04713806737979261 0.10804038607079093
3580000000.0 0.12874394455555038 0.036322371904830224
3600000000.0 0.05126045825240377 0.14617926467557565
3620000000.0 -0.08715673450199458 -0.14104010314397808
3640000000.0 -0.17077067486982006 0.0627319278582737
3660000000.0 -0.14061666642421883 0.12506549311082438
3680000000.0 -0.06648032249713116 -0.17749992367573422
3700000000.0 -0.05584526403356869 -0.18169713153091538
3720000000.0 0.1331888231154836 -0.13431844652099875
3740000000.0 0.09566602252662607 0.1583154103643192
3760000000.0 -0.009703947237906164 -0.1823523940593481
3780000000.0 0.1665645834743472 0.061312185005303936
3800000000.0 -0.16575443596212255 -0.03316121841916822
3820000000.0 0.025860052236045424 0.15330304576371834
3840000000.0 -0.13536685477530327 0.049147416143502466
3860000000.0 -0.003388858730973443 -0.14152965959450065
3880000000.0 0.13296721107998766 0.05940189438723348
3900000000.0 0.019037765850945257 0.15151801080070915
3920000000.0 0.15139312320959789 -0.04918208872836264
3940000000.0 0.0717292632258432 0.15481088387562883
3960000000.0 0.15675637677420964 0.08132323864044265
3980000000.0 0.17296770251507038 0.018575599700971154
4000000000.0 0.11628002894221685 -0.11809988659772372
