!Created with skrf (http://scikit-rf.org).
# Hz S RI R 50.0 
!freq ReS11 ImS11
400000000.0 0.5478846008511656 0.6748065238102232
420000000.0 0.8437967326848941 -0.07395387692236806
440000000.0 0.5764350358801766 -0.5569944430594667
460000000.0 0.6112201389380248 -0.411278055621599
480000000.0 -0.10099042991901142 -0.663233525042077
500000000.0 -0.36691274456181905 0.4660998542833641
520000000.0 -0.36461297011178073 0.3490624808876431
540000000.0 0.2504662340451692 -0.3650617427713373
560000000.0 -0.2834105137211916 0.28837593171687836
580000000.0 -0.14951105618039953 -0.3372822966623357
600000000.0 0.3555555896950899 0.06318417159147853
620000000.0 -0.2861485363925431 -0.22209836808444575
640000000.0 0.34240459757770353 -0.2337746733720975
660000000.0 0.3996383771153624 0.12895141444441452
680000000.0 -0.4314373883465843 0.1129475951820952
700000000.0 0.4549913498779782 -0.0072364644472758585
720000000.0 -0.27366285445369076 0.3631704286194622
740000000.0 -0.23239481788900804 0.3479040863187225
760000000.0 -0.12305540054482489 -0.3770088289930828
780000000.0 0.09384057610929038 -0.36197944051783293
800000000.0 0.2461305446494918 -0.24153991108397213
820000000.0 -0.20497469640826171 0.21359306120442337
840000000.0 -0.11495248385274258 0.19026315039987968
860000000.0 0.0031697539158601555 0.17684781079624873
880000000.0 -0.013281618867583172 -0.14038625355092282
900000000.0 -0.04859431926608287 0.07184693955538139
920000000.0 0.04768869683222992 -0.000531984733285059
940000000.0 -0.014394852943122247 -0.02465825376220927
960000000.0 -0.03085436272967031 -0.009654899170328884
980000000.0 0.05130461930424287 -0.016815847169720295
1000000000.0 -0.08505243864141449 0.0333697754453985
1020000000.0 -0.09070470621727787 0.0769613376367839
1040000000.0 0.034472980011536834 -0.12859093803759253
1060000000.0 -0.14054081507372823 0.08185004446732701
1080000000.0 -0.18519077024966804 -0.04633125135283552
1100000000.0 -0.13624952529305623 -0.16677722696980626
1120000000.0 -0.07901284133579495 -0.21899290030718302
1140000000.0 0.2209068878528335 0.11902375879611515
1160000000.0 -0.23205276797596758 0.137939368119612
1180000000.0 0.11556929216772939 -0.27727045734609856
1200000000.0 -0.1152538060998896 0.3225729973174886
1220000000.0 -0.009609051839698911 -0.37889015811664745
1240000000.0 0.4043624425938253 0.02416498716636846
1260000000.0 -0.38018661727975905 0.1670197199353175
1280000000.0 -0.036001780037792114 0.42311528561504747
1300000000.0 0.4204444288578508 -0.06736545378294859
1320000000.0 0.41955861934974936 0.06476646033137584
1340000000.0 -0.04786670312861315 0.4310954902234755
1360000000.0 0.2638470345640768 0.35730416360259537
1380000000.0 0.15188696861032247 -0.41225239397651686
1400000000.0 -0.2320963543669481 -0.360855084537459
1420000000.0 0.057658288862804837 0.4047405928649069
1440000000.0 0.2549580603743878 -0.28081891901970435
1460000000.0 0.0274971953414223 -0.34433487015046704
1480000000.0 -0.311671850071286 -0.025313445985677814
1500000000.0 -0.04085080383101334 0.2762955071832484
1520000000.0 -0.20841952396379282 0.13670441670059152
1540000000.0 0.05818391268829563 0.21458880522977422
1560000000.0 -0.16909696473283334 0.09615445891693337
1580000000.0 -0.16984671545453078 -0.03799999605799157
1600000000.0 0.02482867785758667 0.1373753650429333
1620000000.0 0.033571360446990765 -0.09727449341851552
1640000000.0 -0.07930176486076568 0.006909391014415535
1660000000.0 0.06219800494232509 0.02439234214443487
1680000000.0 -0.044155878073021064 -0.008066940935073645
1700000000.0 -0.009195830574133097 0.020062256037937393
1720000000.0 0.004252355572684199 0.004620447434707779
1740000000.0 0.006792112937896997 0.010064232447347778
1760000000.0 0.022249112212773002 0.017849827854510687
1780000000.0 0.05295674780597059 -0.009010914640771561
1800000000.0 0.09050763985032587 0.03522715811149251
1820000000.0 -0.1070763294621107 -0.07008873862956856
1840000000.0 0.13402721823688774 0.09193840724651914
1860000000.0 0.15170189682670282 0.13096898750580774
1880000000.0 0.23260904685582842 -0.026469050806493914
1900000000.0 0.08437903139536992 -0.2622383554284181
1920000000.0 0.3157239714135841 0.05027176088515979
1940000000.0 -0.09607706604953628 -0.33206319201706347
1960000000.0 -0.37395151665835324 -0.01133163919803796
1980000000.0 0.3819672136281322 -0.13085286919408867
2000000000.0 -0.2669178037246618 -0.3232420009919756
2020000000.0 -0.40423374940884477 -0.1286719535238075
2040000000.0 -0.005293650232027424 0.42923735575660643
2060000000.0 0.02679646614044236 0.43107877680334405
2080000000.0 0.19829859218460905 0.3835089635787174
2100000000.0 0.07247576907108147 -0.4204413064667884
2120000000.0 -0.1077330981526112 -0.4002572801173151
2140000000.0 -0.026547922672325207 -0.3962028438799354
2160000000.0 0.23042389843603078 -0.3057193214036738
2180000000.0 0.27715064012818985 -0.24682154453241917
2200000000.0 0.214513123954177 -0.2893903290858212
2220000000.0 -0.3399385480596838 -0.08845333134002496
2240000000.0 -0.3211307257135345 -0.13071984656336802
2260000000.0 -0.338586959549032 0.06936301341367136
2280000000.0 0.2873293832433906 0.19460163988333204
2300000000.0 0.27460465383354554 0.22353037926817132
2320000000.0 0.28701459256726936 0.24451868441321017
2340000000.0 -0.14724434249013627 -0.3831864391588276
2360000000.0 -0.44627104314781946 -0.05272235336277011
2380000000.0 0.18331940375369177 0.4641424416418268
2400000000.0 -0.4694869086177205 0.3021378208234248
2420000000.0 0.5086385126728167 -0.33631054385719417
2440000000.0 -0.488973216871912 0.4371319839275988
2460000000.0 -0.6862716337162499 -0.13633317941244616
2480000000.0 0.7081903786250415 0.18200936160040496
2500000000.0 -0.5077449114331475 -0.5553963659147466
2520000000.0 0.6452034748843922 -0.41188617100862795
2540000000.0 -0.661920759585254 -0.39219888420277843
2560000000.0 -0.223002180909833 0.7329179579212888
2580000000.0 -0.18510100479116767 -0.72895395265583
2600000000.0 -0.701647460331099 0.2040896367745147
2620000000.0 0.1978033740640568 0.6758225884118919
2640000000.0 0.3883351325909834 -0.5414796038418259
2660000000.0 -0.5717085459753326 -0.25448257769161686
2680000000.0 -0.06326356306976229 0.5778639593334656
2700000000.0 -0.35761099290568604 -0.39078023282536994
2720000000.0 -0.06952278025083844 0.47747420170915067
2740000000.0 0.4062640188160247 -0.15111698678727128
2760000000.0 -0.2999570486193001 0.24896283515644274
2780000000.0 0.357627982067782 0.02722295264690989
2800000000.0 -0.27860274288494585 -0.1845925154689808
2820000000.0 0.08336626377667877 -0.3021993115731428
2840000000.0 0.09334858864498197 0.29046061891327807
2860000000.0 -0.2542043670354643 -0.15161716001447337
2880000000.0 0.05564065561504365 -0.2845059219524741
2900000000.0 -0.2702402621420935 -0.10377400118513253
2920000000.0 -0.22758844508814935 0.19106902971937892
2940000000.0 0.14594139442249907 -0.27319752569866085
2960000000.0 -0.24484092070283411 -0.20179071295229392
2980000000.0 -0.3172215181353306 -0.02850656843469774
3000000000.0 -0.2788960875862607 0.15066582521283134
3020000000.0 0.31559056602349334 0.044836339740969115
3040000000.0 0.31780282981135616 0.030156783676088643
3060000000.0 0.21080151359455807 0.2298326524277049
3080000000.0 0.23277836075050565 -0.1907681760608679
3100000000.0 -0.23050290589912778 0.1795588492727848
3120000000.0 -0.03224952442489797 -0.2853526419362007
3140000000.0 -0.2706236874934825 0.06642583592912439
3160000000.0 0.034272921562585476 -0.2648352376237811
3180000000.0 -0.10954172527586231 0.22655394119488242
3200000000.0 0.11740522768337827 -0.20417055694085956
3220000000.0 -0.009855215369413113 -0.20828691577159003
3240000000.0 -0.06118224667703889 -0.1630988377099586
3260000000.0 0.1219721627107614 0.07568609155910393
3280000000.0 -0.0985414725807499 -0.027114823938217916
3300000000.0 -0.009419079858670774 0.07105662217249296
3320000000.0 0.004185437163681603 0.045688768965948985
3340000000.0 0.004178006639070345 0.024489533488341972
3360000000.0 -0.002420700617483761 0.008372906743753275
3380000000.0 -0.0019358389278338948 -0.0019716255866133307
3400000000.0 -0.007183481149586351 -0.01307886707253958
3420000000.0 0.008294059155895749 0.030973135301640906
3440000000.0 0.030769921638292303 -0.03561981282449812
3460000000.0 0.03862362055799469 -0.048411876997396575
3480000000.0 0.06133704585364657 0.04452363439950932
3500000000.0 0.03612415077912917 -0.07859957434051215
3520000000.0 0.043623913428706085 -0.09050153726775466
3540000000.0 -0.07854810359135826 0.0799829562285693
3560000000.0 0.08944853306062142 0.07640304921777845
3580000000.0 0.11872293272861786 -0.0608933494183406
3600000000.0 0.11493050030444561 0.10396225451034137
3620000000.0 -0.15595592994555735 -0.05740625877747837
3640000000.0 -0.10806233726602994 0.1469444669041498
3660000000.0 -0.08851743479758126 0.16647272092656631
3680000000.0 -0.13659241427309382 -0.1309092052865695
3700000000.0 -0.13628906429769705 -0.1339654214093404
3720000000.0 0.05593865705690645 -0.18287876820858515
3740000000.0 0.1410790028992127 0.12093059058389977
3760000000.0 -0.04776348753295124 -0.17697749655130432
3780000000.0 0.17493712156432795 0.03579100060442903
3800000000.0 -0.1702227372750064 0.006600478616789312
3820000000.0 0.035740273356662564 0.15351923709075035
3840000000.0 -0.14649210876136085 0.00016284967223237424
3860000000.0 0.03429622772219168 -0.13957049943598615
3880000000.0 0.11576772933606891 0.09088329325247817
3900000000.0 0.01137548689273123 0.1535311160709221
3920000000.0 0.15964187458558537 -0.013408889064965408
3940000000.0 -0.004448430964918827 0.17162278118239419
3960000000.0 0.09395703864182572 0.15059710257538078
3980000000.0 0.12408251461895571 0.12288950959963352
4000000000.0 0.16552517607016637 -0.02240031174661775
