!Created with skrf (http://scikit-rf.org).
# Hz S RI R 50.0 
!freq ReS11 ImS11
400000000.0 0.5456505683816781 0.6758447393871436
420000000.0 0.8448674594779354 -0.06107690823550223
440000000.0 0.5798506989331507 -0.5528554969150361
460000000.0 0.6237448253207154 -0.39198353691842525
480000000.0 -0.12456858902611406 -0.6590947124539276
500000000.0 -0.3637356348453478 0.46847824274761185
520000000.0 -0.3689466724176975 0.3446088786990337
540000000.0 0.24488121686207404 -0.3686125325936486
560000000.0 -0.2841958894014335 0.2875996678315935
580000000.0 -0.15304832403045157 -0.3358983479965355
600000000.0 0.3542905025970148 0.06864972523967466
620000000.0 -0.2848444263982438 -0.22366687850503494
640000000.0 0.3274311636542627 -0.25425973103321897
660000000.0 0.40928989270437083 0.09346228874514255
680000000.0 -0.4307900802527231 0.11702555695685223
700000000.0 0.45519988928259153 -0.0049073311723624455
720000000.0 -0.26209980238973263 0.3716418933255336
740000000.0 -0.22549410669985634 0.35248901100316676
760000000.0 -0.12270700110441003 -0.3777443431261294
780000000.0 0.09806679243068384 -0.36125991008500025
800000000.0 0.2516350623272488 -0.23606757360533234
820000000.0 -0.2107024372817666 0.20800613972347876
840000000.0 -0.1068171985106597 0.19470227501586482
860000000.0 -0.002263456815086241 0.1768239725851973
880000000.0 -0.009009962714837914 -0.14094810604508404
900000000.0 -0.05678861584116946 0.06626425974156767
920000000.0 0.048122584532125055 -0.0005891735467244953
940000000.0 -0.00738012433912243 -0.027770900743383863
960000000.0 -0.03182974464583618 0.004247329023606526
980000000.0 0.03561698147430895 -0.04085076441644851
1000000000.0 -0.07870536845513555 0.04689030355649285
1020000000.0 -0.09349622138970652 0.0738407080109646
1040000000.0 0.041539482629485563 -0.1266519124991598
1060000000.0 -0.14446618485440554 0.07473999955751404
1080000000.0 -0.18082621166789037 -0.061367878245074406
1100000000.0 -0.1377352896845288 -0.16550894656617218
1120000000.0 -0.04672798561514892 -0.22805796953838392
1140000000.0 0.22386431810936086 0.1142033628977235
1160000000.0 -0.22243354105272026 0.15330245390923922
1180000000.0 0.10006455287250882 -0.2833976771590614
1200000000.0 -0.10130168907585509 0.3275255480523762
1220000000.0 -0.0028884676842878872 -0.379219648034795
1240000000.0 0.4024518502502047 0.04634516585982346
1260000000.0 -0.3780260447752533 0.17164781852212976
1280000000.0 -0.04528099191927723 0.42187191710119454
1300000000.0 0.41643604194012634 -0.08891311635816268
1320000000.0 0.4237000415050676 0.028479059221462197
1340000000.0 -0.03347504015182599 0.43247495216964793
1360000000.0 0.26018847071918266 0.360240208283985
1380000000.0 0.15581641646617575 -0.4109502257915004
1400000000.0 -0.22324346020562538 -0.36637807155833274
1420000000.0 0.054799627912156194 0.4051966439230114
1440000000.0 0.2504309093028152 -0.2846931339686522
1460000000.0 0.031418201760501925 -0.34409579394951145
1480000000.0 -0.3124665570586587 -0.020077536222305487
1500000000.0 -0.023742775154076284 0.27858208427524545
1520000000.0 -0.2113626128096652 0.13270891367297788
1540000000.0 0.032605464203179696 0.21998283902839708
1560000000.0 -0.18216299361961225 0.06795870947974532
1580000000.0 -0.171388386528485 -0.030321938012031497
1600000000.0 -0.02277265753261498 0.13785666184683165
1620000000.0 0.04246493387901937 -0.09363277957904327
1640000000.0 -0.07927375549332513 0.0012875574296835847
1660000000.0 0.056538502522802285 0.03489931646375111
1680000000.0 -0.03715846208231144 -0.024037560782845167
1700000000.0 0.011912295926281263 0.01835126974877598
1720000000.0 0.004575666946861809 -0.004028504071846415
1740000000.0 -0.01034389417898875 0.006655329940326658
1760000000.0 0.019896632932293334 0.01985439031781433
1780000000.0 0.05291761303634943 0.00818927176950998
1800000000.0 0.08956791179778084 0.038134119386313295
1820000000.0 -0.1003018592377157 -0.07966238307638228
1840000000.0 0.12769385130473856 0.10059636014828179
1860000000.0 0.14149544663425895 0.14183804020356963
1880000000.0 0.23267101583497748 -0.02577247425047666
1900000000.0 0.0958436540591883 -0.2582556034233556
1920000000.0 0.3146891952654392 0.053744145642328246
1940000000.0 -0.08487569142025454 -0.334714185522639
1960000000.0 -0.3738265432000488 -0.0029760019119503037
1980000000.0 0.3825074200907535 -0.12891962916323807
2000000000.0 -0.2835115004261338 -0.30881948167131806
2020000000.0 -0.41108501071314835 -0.10605562009832957
2040000000.0 0.029028153416044172 0.42870128269283836
2060000000.0 0.07374546192915192 0.4262845467985929
2080000000.0 0.236589783886017 0.3617157685502151
2100000000.0 0.06749663296578855 -0.4223580082086322
2120000000.0 -0.12060914196368087 -0.3977264346519061
2140000000.0 -0.01278724586819321 -0.3976246595724958
2160000000.0 0.27304583875036026 -0.26887089691876576
2180000000.0 0.3014577593772034 -0.21685990197123992
2200000000.0 0.27328144503316026 -0.2353008991879642
2220000000.0 -0.3314621016698475 -0.1141128185966559
2240000000.0 -0.2907466572608814 -0.18821054643400767
2260000000.0 -0.34477901562306007 -0.004327245390349763
2280000000.0 0.2560765649142527 0.23316519365204605
2300000000.0 0.26207259215583406 0.23805128061290193
2320000000.0 0.2604895304198157 0.271845096616517
2340000000.0 -0.14744030510333694 -0.3829121977741067
2360000000.0 -0.44403890704780935 -0.06818120898706799
2380000000.0 0.1817266092068419 0.46463769507908226
2400000000.0 -0.46880778332391776 0.3029643836240015
2420000000.0 0.5268842779672408 -0.3066244720259562
2440000000.0 -0.49771829917337534 0.4275515168725669
2460000000.0 -0.6892657523898938 -0.1212931648626475
2480000000.0 0.6963972263762543 0.22332628495669807
2500000000.0 -0.48366130621145276 -0.5762428032796719
2520000000.0 0.6439459490873328 -0.413778149855097
2540000000.0 -0.6746343844626244 -0.3711403216988176
2560000000.0 -0.25721666952895733 0.7219599447706095
2580000000.0 -0.19006964101185195 -0.7277841542852657
2600000000.0 -0.6936215307498753 0.23105539767087568
2620000000.0 0.25430403599881596 0.6576335538202235
2640000000.0 0.39815642886062164 -0.534986105741993
2660000000.0 -0.5543043466865465 -0.29324172296067236
2680000000.0 -0.09759903911223278 0.5730871566475413
2700000000.0 -0.34118778321555226 -0.405735922897516
2720000000.0 -0.07693897761962158 0.4770867911856477
2740000000.0 0.4089249531507034 -0.14497629983693539
2760000000.0 -0.295207475941308 0.2555159129740713
2780000000.0 0.3592348025486187 0.014486958401517196
2800000000.0 -0.27844511603271893 -0.1863483055477427
2820000000.0 0.08008721682454632 -0.30397540681431057
2840000000.0 0.10495056112524731 0.28670985866512627
2860000000.0 -0.2503609596011497 -0.15809281193748354
2880000000.0 0.10013675726868287 -0.27337949845026865
2900000000.0 -0.2608198247380775 -0.12611301265423716
2920000000.0 -0.26632771096274355 0.13386743965924258
2940000000.0 0.18369829850981595 -0.24979804308315487
2960000000.0 -0.18888411502861951 -0.25530232205509207
2980000000.0 -0.2928110431461894 -0.1267766287794494
3000000000.0 -0.2977812191096489 0.10884694911006601
3020000000.0 0.31047716731917335 0.07192416183274965
3040000000.0 0.2904091661094938 0.13122840802846172
3060000000.0 0.22424139950406438 0.21579310339000118
3080000000.0 0.2522347529031905 -0.16193404074087756
3100000000.0 -0.1932804662059769 0.21885185817067623
3120000000.0 -0.020111567340485376 -0.2853049543085442
3140000000.0 -0.2737760267801464 0.04721261451880278
3160000000.0 0.038108420607248145 -0.26395911001636424
3180000000.0 -0.07319377600742963 0.2398457471643042
3200000000.0 0.06506772422734045 -0.2259848877101611
3220000000.0 -0.056312634220921774 -0.20012801620777224
3240000000.0 -0.09103535491075584 -0.14902924850540572
3260000000.0 0.14164508005328602 0.025921910446409145
3280000000.0 -0.0963419087263117 0.036193754384827755
3300000000.0 0.04940574738491482 0.05287738826357046
3320000000.0 0.0302126005558616 0.03527794581180923
3340000000.0 0.024942745489696 -0.0006126061594915938
3360000000.0 -0.007212798131483783 0.005771392027964588
3380000000.0 -0.0016879583286186948 -0.001745898012537727
3400000000.0 -0.00039616000992808494 -0.014332111560162834
3420000000.0 -0.01333402146327135 0.029336807671248966
3440000000.0 0.03082596343029562 -0.035503665206627816
3460000000.0 0.016746551431168738 -0.060177542875231846
3480000000.0 0.05299132702559235 0.05420890546870529
3500000000.0 0.040000130725268215 -0.07712684796532808
3520000000.0 0.08789770658244961 -0.04799508673088834
3540000000.0 -0.09730432938467076 0.055419844393724195
3560000000.0 0.0929984047342962 0.0724726650449727
3580000000.0 0.11935024364854496 -0.05911133199239448
3600000000.0 0.11638615167067283 0.10314069649452548
3620000000.0 -0.15268357098360338 -0.06516416152532921
3640000000.0 -0.12160668967403478 0.13569437925698716
3660000000.0 -0.08025354753653266 0.17136009889062676
3680000000.0 -0.12960561136239446 -0.13886318724790986
3700000000.0 -0.1175953011365773 -0.15092498919202868
3720000000.0 0.057817195840736635 -0.18236617161644492
3740000000.0 0.14267078791201793 0.1184327409419669
3760000000.0 -0.02800732208034957 -0.18080210525434573
3780000000.0 0.17105075084758076 0.05010505941331343
3800000000.0 -0.16820388820505244 -0.022945236004692376
3820000000.0 -0.0037254258461516102 0.15677165946957242
3840000000.0 -0.14602627302446156 -0.0042042213265945155
3860000000.0 0.0661825267557023 -0.12720463126815285
3880000000.0 0.10414824764650883 0.10475099917468157
3900000000.0 -0.019990425816034624 0.15352386794410486
3920000000.0 0.15497986993771465 0.040504399815117664
3940000000.0 -0.008385461719486998 0.17153920872301265
3960000000.0 0.07502445039221631 0.16067112139248033
3980000000.0 0.08495409082163449 0.15284158584967492
4000000000.0 0.15446425032337516 0.05972985432985609
