! Created with skrf (http://scikit-rf.org).
# Hz S RI R 50.0 
!freq ReS11 ImS11
400000000.0 -0.8612528353800655 0.048230727576529804
420000000.0 -0.020461443715229295 0.8656255403686667
440000000.0 0.8384837804446019 0.03203147086115285
460000000.0 0.5809692788608583 -0.5362958240504652
480000000.0 0.7276784740262622 0.09273737962106472
500000000.0 -0.5757178950403017 -0.07757587270542994
520000000.0 -0.3944083771673146 0.30241948651965095
540000000.0 -0.39901975841966486 -0.12373396194284914
560000000.0 -0.17590045879952895 0.3249647108210992
580000000.0 -0.2544114148730174 -0.19657662656300484
600000000.0 -0.32745647362344726 -0.002924617533716687
620000000.0 -0.1556441576050578 -0.29099911610939166
640000000.0 0.002839882507455857 0.3461176558626045
660000000.0 -0.0356292467350797 0.37692957200433147
680000000.0 -0.13208424802023003 -0.37548644533740405
700000000.0 -0.38706589136090824 0.1926136707767819
720000000.0 0.07364080151756389 0.42946618837309236
740000000.0 -0.4149203337653452 0.175320236391988
760000000.0 -0.04832006975369632 -0.42576592392942636
780000000.0 0.26032629110615463 0.29573912615177844
800000000.0 -0.3368909880825395 0.12308963529396674
820000000.0 -0.2632787890023964 -0.1417020559572302
840000000.0 0.24032357555656397 0.0731691642355439
860000000.0 0.02068976155438104 0.1962794256951548
880000000.0 0.0039913688055634245 -0.15741510750295348
900000000.0 0.047436566183948495 -0.06744435080909333
920000000.0 0.04207242642408972 -0.020129065328438802
940000000.0 0.020758638038064388 0.04013199485902494
960000000.0 -0.008251264815060024 0.05299773947585824
980000000.0 0.06191248100398649 -0.017733854069349055
1000000000.0 -0.05857603388664414 -0.04188464793406234
1020000000.0 0.0449049632436038 0.06641857371745397
1040000000.0 0.04785073401601353 0.08062175167080687
1060000000.0 -6.59910219940819e-06 -0.1239112416405167
1080000000.0 -0.145271741408462 -0.015651210415116062
1100000000.0 -0.006125105161245972 0.16996835125794502
1120000000.0 0.08687709378916422 0.18103780995678917
1140000000.0 -0.23171489271025605 0.07078473709189037
1160000000.0 -0.2394607327402938 0.1459527254364479
1180000000.0 0.13585310345391183 0.29204800000678677
1200000000.0 -0.2109072628006285 0.28131545582496414
1220000000.0 -0.29523293133826506 -0.24629495942246746
1240000000.0 0.3214637793630458 0.24481583369804383
1260000000.0 -0.3835441043344397 -0.19904280824825124
1280000000.0 0.3325581327653765 0.28423837312703815
1300000000.0 0.2022472207186762 -0.39466652298117944
1320000000.0 -0.3177766752071373 -0.29617061755572177
1340000000.0 0.11911008152967352 -0.4150802956110726
1360000000.0 0.2661763368814372 -0.3374418194735052
1380000000.0 0.1933107968804725 -0.3865367204843812
1400000000.0 -0.4196440043397472 -0.012154097511215656
1420000000.0 -0.08182579517135859 0.3941254886126847
1440000000.0 0.3727578419238296 -0.048543719659932885
1460000000.0 0.2712393955019231 -0.21022750590364814
1480000000.0 -0.148546366983572 -0.27799628927191605
1500000000.0 -0.24333155988681268 -0.15149537430421428
1520000000.0 -0.2593649224419558 0.01460387168128504
1540000000.0 0.138570210717522 -0.1906518633949648
1560000000.0 0.1942138289490797 0.06194486672740231
1580000000.0 0.12330278378943153 0.12388094207890302
1600000000.0 -0.09323801628377522 -0.11166030329340831
1620000000.0 -0.06273329262930175 0.09128217203772065
1640000000.0 -0.08443706304209504 0.0048049898661691815
1660000000.0 0.04371715103571459 0.03758413098979578
1680000000.0 -0.019129559675522496 -0.027269553044374853
1700000000.0 0.003250642774388766 0.016143416740678106
1720000000.0 -0.0016621760041236398 0.0024076764910243805
1740000000.0 0.013165475316785948 -0.017227902732394034
1760000000.0 0.0018869100522289 -0.039528195349069414
1780000000.0 0.028917115011682915 -0.06047637719173516
1800000000.0 -0.09634905106633251 0.02658380773690055
1820000000.0 0.07821245359589757 0.10621442926551836
1840000000.0 0.08472515308278956 -0.14540803927029947
1860000000.0 0.06306254074589833 0.19826124933334782
1880000000.0 -0.02584962517383095 -0.2447826709251767
1900000000.0 0.11578926317581656 0.2637096791714272
1920000000.0 -0.2849870546976164 -0.14326623316484685
1940000000.0 0.07605472269817712 0.3369490835198306
1960000000.0 0.32521040884218094 -0.17317030084263632
1980000000.0 0.060134533623247534 -0.38094166756100867
2000000000.0 -0.060964372245734616 -0.400258862879211
2020000000.0 -0.3566232084206463 -0.22507801048149664
2040000000.0 -0.39955111508466484 0.17455007699637953
2060000000.0 0.15435436203667732 0.41441842820954455
2080000000.0 0.4333095426221778 -0.09524256752703089
2100000000.0 -0.12693739491603603 -0.4180544434179415
2120000000.0 -0.3903788729082901 -0.17181681797743178
2140000000.0 -0.2767307524417419 0.3030279915620911
2160000000.0 -0.37761864789207583 -0.10724924973466
2180000000.0 -0.3742369984446457 0.014614332583587382
2200000000.0 -0.3513589025202466 0.07843849785956859
2220000000.0 -0.33455289692951984 0.10512171284611903
2240000000.0 -0.23281833834932344 0.258837919809415
2260000000.0 -0.12239574682001532 0.32977178368726057
2280000000.0 0.1888665084896251 0.3021801056137083
2300000000.0 0.3438177247266583 -0.14289103230012967
2320000000.0 -0.17034970226863827 -0.3571625711887471
2340000000.0 -0.29753553035968183 0.3076503255099183
2360000000.0 0.43498607094476893 -0.17050631087481094
2380000000.0 -0.5102498691044385 0.06452249638798442
2400000000.0 0.5280095961065768 -0.19917535533210642
2420000000.0 -0.36387636565098536 0.49507077037177305
2440000000.0 -0.12963363340457082 -0.6473492267364389
2460000000.0 0.5500932993862476 0.42950364262330065
2480000000.0 -0.7234676762255511 -0.06519706154019599
2500000000.0 0.7437921008631507 0.033580795032906355
2520000000.0 -0.7284054131444404 -0.19408410295850845
2540000000.0 0.5278037908429521 0.5393153129913283
2560000000.0 -0.06080609883539747 -0.7446875664798892
2580000000.0 -0.6061969383653087 0.41032069649173925
2600000000.0 0.690356528846006 0.1588952502664744
2620000000.0 -0.32145056952296747 -0.5968615431502895
2640000000.0 -0.534739981828518 -0.35367616295510873
2660000000.0 -0.0418013264002613 0.5943175240900889
2680000000.0 0.492215219545139 -0.24523819499604216
2700000000.0 -0.4486094751662367 -0.22757320107987092
2720000000.0 0.12218216819411297 0.44024962959618624
2740000000.0 0.2835647729117825 -0.302338349784005
2760000000.0 -0.37782181499539835 0.002158316947947407
2780000000.0 0.3475177060699841 -0.01416421748681211
2800000000.0 -0.32185949217006193 0.03773941757682167
2820000000.0 0.1702395829385361 -0.2560226688636713
2840000000.0 0.135361215469519 0.265523472559319
2860000000.0 -0.29249126024876637 0.019445258757329078
2880000000.0 0.10993181373979535 -0.2695937565238277
2900000000.0 0.07447173267949125 0.28099285882612024
2920000000.0 0.10376986611502868 -0.2739833095721336
2940000000.0 -0.28314353510528767 0.08779238439987525
2960000000.0 -0.11077148680441466 0.2762537333313361
2980000000.0 -0.08703110148463919 0.28753582637373504
3000000000.0 -0.2913281141846809 0.07866315050322974
3020000000.0 -0.158924052208837 -0.2594802662284569
3040000000.0 0.2966854267359294 0.05789988818457371
3060000000.0 -0.2724376995218643 0.1329103930565251
3080000000.0 0.1795387130515723 -0.2408804538681778
3100000000.0 -0.04841241598441857 0.2918098327709447
3120000000.0 -0.08602947313847904 -0.2766442464368761
3140000000.0 0.27994385569707164 0.01978206272408623
3160000000.0 -0.17458004138281435 -0.2003635778360314
3180000000.0 0.24378734858247816 -0.0506289038117023
3200000000.0 0.06231233589596991 0.21671224203227937
3220000000.0 -0.1858057272490369 0.06945640352558415
3240000000.0 -0.01940140246256708 -0.16524102422845063
3260000000.0 -0.022277035601764673 0.13122282021349715
3280000000.0 0.10130476639255757 0.006753465569905228
3300000000.0 0.05542717575229497 -0.04912220268967153
3320000000.0 0.032062980147850174 0.039036678394433616
3340000000.0 -0.003867806732500472 -0.0299736102986991
3360000000.0 0.012250013415499637 -0.006430508112050523
3380000000.0 -0.0015760732272347786 -0.0041752432616376884
3400000000.0 -0.017680718633088427 -0.006455153794980288
3420000000.0 0.02868105634886639 0.020987074583186074
3440000000.0 0.008540478074638834 0.04755931808516281
3460000000.0 -0.04418108233736467 -0.037049833867172956
3480000000.0 -0.06528514653862029 0.01945623667122059
3500000000.0 -0.04376367136136118 0.06506469049575933
3520000000.0 0.06408121458589913 0.06489543401288575
3540000000.0 0.05655652687420863 -0.086743742672311
3560000000.0 -0.11634988571405531 0.0072969882617032605
3580000000.0 0.07046339416078494 0.11110209085796362
3600000000.0 -0.1482612349530869 -0.03748092559936202
3620000000.0 -0.14885070902640146 -0.07534407866184487
3640000000.0 -0.14624649597518216 -0.1075864332266829
3660000000.0 -0.17058710143994946 -0.0861982999560984
3680000000.0 -0.19162267707908903 -0.04298247398570433
3700000000.0 -0.1922462950999745 -0.02489082572259702
3720000000.0 -0.08008996147728538 -0.17336135900704575
3740000000.0 0.03663498344106326 -0.17923118446513084
3760000000.0 -0.15426128409219175 0.08121524809026501
3780000000.0 0.12629808890525357 0.10626679160982332
3800000000.0 0.13278119449607093 0.08289707661168887
3820000000.0 0.10187586828688593 0.11321922401579439
3840000000.0 -0.05498616881305925 0.14073429927462247
3860000000.0 -0.12665967055847327 0.08902183691872667
3880000000.0 0.06828970064457007 0.1461459370181559
3900000000.0 0.023207063772788132 -0.16206035265465357
3920000000.0 -0.13158955718526394 0.09962120429233197
3940000000.0 0.10099156823795571 -0.13373944661512627
3960000000.0 0.11523677768840611 0.12499882274560982
3980000000.0 0.16036847988356417 0.05731643262438572
4000000000.0 0.13569471772360187 0.08995482235637015
