! Created with skrf (http://scikit-rf.org).
# Hz S RI R 50.0 
!freq ReS11 ImS11
400000000.0 -0.8604906496907814 0.060477016645645525
420000000.0 -0.00724951744807317 0.8657412176877196
440000000.0 0.8378286262613591 0.04214988703702836
460000000.0 0.5811707911107811 -0.5359640505766843
480000000.0 0.7297561012882073 0.07516027875956004
500000000.0 -0.5758242330797156 -0.075860211132537
520000000.0 -0.4127884189776229 0.2773466624551466
540000000.0 -0.4027975022561088 -0.11104935991999267
560000000.0 -0.17437267316816096 0.32560191519773846
580000000.0 -0.26998809881955443 -0.17404686417843301
600000000.0 -0.3274900918461906 -0.008539393510213829
620000000.0 -0.1510910090405925 -0.29342499897661845
640000000.0 -0.010102586149333683 0.3456536264470117
660000000.0 -0.034666093362624294 0.3771233600613293
680000000.0 -0.11077254750882636 -0.38297203106594535
700000000.0 -0.3830996425237852 0.2009172580479068
720000000.0 0.08442262476955582 0.42740235053165904
740000000.0 -0.4064814895581569 0.19278533643828588
760000000.0 -0.030249793527317454 -0.4275479065181101
780000000.0 0.2566294709237015 0.29901651289361986
800000000.0 -0.33282401180027027 0.13307585636991714
820000000.0 -0.2662504359619341 -0.13596013923320635
840000000.0 0.2387778555819986 0.0790200829227803
860000000.0 0.01752684170315823 0.1967226529852711
880000000.0 -0.0013316262161775652 -0.15717625520823147
900000000.0 0.02953038140671892 -0.07640394952211461
920000000.0 0.02826649076419818 -0.03691880085433213
940000000.0 0.03338536752494404 0.030924874095069593
960000000.0 -0.009439301092360288 0.053048964192519976
980000000.0 0.06129668994998027 -0.02039998652845532
1000000000.0 -0.056509875122803574 -0.044735411139046735
1020000000.0 0.043484801204896166 0.0672833439474502
1040000000.0 0.0496070485725236 0.07958790274988688
1060000000.0 -0.013422070632882976 -0.12310164275652238
1080000000.0 -0.1460996048087054 -0.0018271133841478112
1100000000.0 -0.005698733631386181 0.16996858872467102
1120000000.0 0.10360663359711261 0.17214296150906416
1140000000.0 -0.23334914445381488 0.06515963915738034
1160000000.0 -0.23680208975645808 0.15013602252475308
1180000000.0 0.11578702186331968 0.3003579029634012
1200000000.0 -0.23647016726613965 0.25966388881153235
1220000000.0 -0.3030137679401015 -0.23664336774654052
1240000000.0 0.3184160322000004 0.24858094697577132
1260000000.0 -0.37905273495250386 -0.20745135795064548
1280000000.0 0.3336025022025162 0.28304311342766036
1300000000.0 0.195276337824272 -0.39827543588921194
1320000000.0 -0.32143186923793 -0.2923553816097162
1340000000.0 0.11772206531743777 -0.4154085149390927
1360000000.0 0.27107797859563254 -0.3334807224951432
1380000000.0 0.20137152687700258 -0.3824447461861954
1400000000.0 -0.41964694867474694 -0.00970152844330019
1420000000.0 -0.10319430583551935 0.38940976105413533
1440000000.0 0.3714906615142094 -0.0572487976678015
1460000000.0 0.2727515333960057 -0.20853180565153598
1480000000.0 -0.07942903327354946 -0.3054817413856506
1500000000.0 -0.24081314363372489 -0.15590786513381144
1520000000.0 -0.2595437770598155 0.013196664300158041
1540000000.0 0.14467716788985188 -0.1857798842025723
1560000000.0 0.19475229777383318 0.0597552573550289
1580000000.0 0.11849597098777337 0.12824800264214203
1600000000.0 -0.08311879472840274 -0.11933361645548747
1620000000.0 -0.07339838110814936 0.08260040328800602
1640000000.0 -0.08414554123039059 -0.007147743656101734
1660000000.0 0.046906130206680725 0.034333517663236474
1680000000.0 0.0009107918954295218 -0.033201648487816836
1700000000.0 -0.007507479229473906 0.014438248587215706
1720000000.0 -0.001723558387840698 0.0022180077922032662
1740000000.0 0.015956054491808088 -0.014091031795157694
1760000000.0 0.0013340249041780162 -0.03916538126275444
1780000000.0 0.019959475377284944 -0.06400229168203696
1800000000.0 -0.08684871172634698 0.050081666485027425
1820000000.0 0.08231994833576828 0.10280125121854429
1840000000.0 0.07170529467574428 -0.15254723136316142
1860000000.0 0.07100819412296819 0.19596599748028892
1880000000.0 -0.030080625257525605 -0.24472208328505116
1900000000.0 0.11187348255085919 0.2654095864166913
1920000000.0 -0.28215234780866105 -0.14902069354348996
1940000000.0 0.0758108725230398 0.33689349583502654
1960000000.0 0.3302071876066159 -0.1633188762495747
1980000000.0 0.06725609780930189 -0.37959671481083246
2000000000.0 -0.05915509759610265 -0.40025590216015683
2020000000.0 -0.36200552772321504 -0.2162086073042763
2040000000.0 -0.41323740674371473 0.1389207372442281
2060000000.0 0.17704610376873825 0.4048309888994851
2080000000.0 0.4271557737179259 -0.11867629011369371
2100000000.0 -0.12143750253591548 -0.419672396138606
2120000000.0 -0.4050412695941568 -0.13367142353283645
2140000000.0 -0.2589641625833724 0.3182624896478486
2160000000.0 -0.3845958330090255 -0.07893742708323193
2180000000.0 -0.3738048875492742 0.02722626319889214
2200000000.0 -0.3476172513272989 0.09422966569295467
2220000000.0 -0.33949903464370773 0.0902720042534519
2240000000.0 -0.22007954149174777 0.27013481459936944
2260000000.0 -0.13050864240422 0.3267402828368317
2280000000.0 0.1815651948901225 0.30660676696770717
2300000000.0 0.3536593090811322 -0.11523216226848765
2320000000.0 -0.16969061467528457 -0.3575937966655167
2340000000.0 -0.2823487373456411 0.3220121923193715
2360000000.0 0.4326591961537696 -0.17670460557405218
2380000000.0 -0.5084802242311637 0.07711886698994144
2400000000.0 0.5195813387092937 -0.22031288798408588
2420000000.0 -0.3263502896470086 0.520382227051106
2440000000.0 -0.1314618225760017 -0.6469333965574996
2460000000.0 0.578565573192495 0.38989778451093265
2480000000.0 -0.7253920438683381 -0.03090003410610923
2500000000.0 0.743298447644947 0.04296163274912141
2520000000.0 -0.7263569872145239 -0.20118857451758798
2540000000.0 0.5550899164514987 0.5107522551187184
2560000000.0 -0.06138955651991915 -0.7444881826658215
2580000000.0 -0.576442222430226 0.4505591205402272
2600000000.0 0.6931556553945825 0.1461361363233899
2620000000.0 -0.27414930556000583 -0.6195657915118971
2640000000.0 -0.5161965176996424 -0.37932888360471967
2660000000.0 0.005990692167781451 0.5953901400596674
2680000000.0 0.45997941746942667 -0.3009804840922365
2700000000.0 -0.45295407309628405 -0.21797429492221196
2720000000.0 0.12114686676847845 0.440085288339357
2740000000.0 0.2980895999609982 -0.2874922285814141
2760000000.0 -0.37736572169415383 -0.002877517766306762
2780000000.0 0.34674341076951765 -0.02214480207230382
2800000000.0 -0.32068195503647534 0.04512463342151288
2820000000.0 0.16618981544109723 -0.25869955768776365
2840000000.0 0.15148121497431405 0.2559928004102091
2860000000.0 -0.29138843865837566 0.029800192968800755
2880000000.0 0.09942468104022102 -0.2733661358835566
2900000000.0 0.0716560667130748 0.28140786343810126
2920000000.0 0.09236887842257828 -0.2774516954450727
2940000000.0 -0.28577823185883744 0.07775436539649024
2960000000.0 -0.10086597931218705 0.2799297723005367
2980000000.0 -0.0770745885870279 0.2907140358982549
3000000000.0 -0.29074961966973484 0.07658493718805712
3020000000.0 -0.15117598895352918 -0.2638572479964619
3040000000.0 0.30174191896448677 0.012220166780453007
3060000000.0 -0.2504655863731628 0.17047172624605134
3080000000.0 0.17482677671622304 -0.24414661205160415
3100000000.0 0.003960587532909741 0.2960211684838766
3120000000.0 -0.09355721783162053 -0.27409281244915884
3140000000.0 0.27999371199886725 0.01479373674590347
3160000000.0 -0.17682524748835507 -0.1981549431112646
3180000000.0 0.239418359831977 -0.06925730835659893
3200000000.0 0.07343420708033256 0.2134198858138084
3220000000.0 -0.1820267327994301 0.07882538139915485
3240000000.0 -0.01113996555526708 -0.16642239663034625
3260000000.0 -0.033408615145120175 0.12915188080810935
3280000000.0 0.10175771861097656 0.0034706644632325036
3300000000.0 0.0737271814478269 -0.010493260101050278
3320000000.0 0.023621345306899105 0.04490453470687961
3340000000.0 0.007781180997967548 -0.029537405975894323
3360000000.0 0.013822518704897731 0.0028266386331886545
3380000000.0 -0.0005952130344941568 -0.004162608146795594
3400000000.0 -0.015314301022410808 0.010581183083272374
3420000000.0 0.03324202247433031 0.011618329975373704
3440000000.0 0.017096018518111617 0.04490745518471162
3460000000.0 -0.048796826967273776 -0.030524034964474554
3480000000.0 -0.06551077776757065 0.016948659735919313
3500000000.0 0.0003451449941073666 0.07853351546976983
3520000000.0 0.07323469882260145 0.05429645294306672
3540000000.0 0.03181280290439215 -0.09889527828763367
3560000000.0 -0.11589329607183765 0.010247489545093205
3580000000.0 0.07537293296836493 0.10792944165701528
3600000000.0 -0.1528758978114338 0.018190973920133073
3620000000.0 -0.15071101174562931 -0.07193101724378817
3640000000.0 -0.13405939485293075 -0.12234469969285462
3660000000.0 -0.1689689275310373 -0.08980856988618512
3680000000.0 -0.18584417125601296 -0.06414619076305644
3700000000.0 -0.19011583136923554 -0.03886934625378012
3720000000.0 -0.05432789357504948 -0.1831984009529817
3740000000.0 0.061570063672860914 -0.17240041259911562
3760000000.0 -0.1680381816634942 0.04877219527226722
3780000000.0 0.11354210451133871 0.11964038242325492
3800000000.0 0.11995133028674167 0.10042380021692655
3820000000.0 0.09073653671607125 0.12227497874100046
3840000000.0 -0.07084677423263308 0.13312039810613155
3860000000.0 -0.13818189652163235 0.0697432320724931
3880000000.0 0.043660782869243506 0.15541544867932613
3900000000.0 0.04417139853167993 -0.15740823822215727
3920000000.0 -0.13784873825097171 0.0900221445968994
3940000000.0 0.10079701265372562 -0.13349863179957508
3960000000.0 0.11619715844007038 0.12394539296736624
3980000000.0 0.1667287268694541 0.03399954240420298
4000000000.0 0.13838630249794787 0.08546472093045278
