! Created with skrf (http://scikit-rf.org).
# Hz S RI R 50.0 
!freq ReS11 ImS11
400000000.0 -0.8609440070593753 0.044300490817990965
420000000.0 -0.03457960925241081 0.8644611264083395
440000000.0 0.8376752325493514 0.0510811715622261
460000000.0 0.6034207095007441 -0.511252302943867
480000000.0 0.728221630062735 0.08951411553728651
500000000.0 -0.5804592324210058 -0.028383025774264402
520000000.0 -0.39074710516508077 0.3081451779234781
540000000.0 -0.4093583663412975 -0.08454973389824978
560000000.0 -0.1464177860590282 0.33921895947734304
580000000.0 -0.28508144070650104 -0.1480019415304163
600000000.0 -0.3262988388594993 0.03271770655016498
620000000.0 -0.13124598022328965 -0.302331898124708
640000000.0 -0.035456656324049686 0.3430636091221362
660000000.0 -0.02035602863178652 0.37667376136655073
680000000.0 -0.12815867279703186 -0.37656562007491573
700000000.0 -0.39308288625838633 0.18000186435825932
720000000.0 0.07179766332870288 0.42956933817486154
740000000.0 -0.42350265625809097 0.15095369234443082
760000000.0 -0.024616807144304923 -0.4280516725236946
780000000.0 0.2589657700209469 0.29692412651913047
800000000.0 -0.3319707756392111 0.13619411850047053
820000000.0 -0.2543320890708719 -0.1582165132395399
840000000.0 0.22648462780334988 0.10859843086488588
860000000.0 0.012190851066190035 0.1966647819412098
880000000.0 -0.010557456466511041 -0.15627636258160416
900000000.0 0.0007283880304342818 -0.08198581298584216
920000000.0 0.018644043549518544 -0.04248816801328436
940000000.0 0.024386344341946874 0.03802860207984427
960000000.0 -0.003365761826787201 0.053531278356440226
980000000.0 0.05622000395430724 -0.03201776331563025
1000000000.0 -0.060353929954418316 -0.03960991625605949
1020000000.0 0.04279502788899573 0.06708154865771557
1040000000.0 0.03768095322439339 0.08508909305268494
1060000000.0 -0.018328638231332052 -0.12188558992136365
1080000000.0 -0.1460408494504028 0.007999220670969183
1100000000.0 -0.024269786266209792 0.16853396145771293
1120000000.0 0.06416870095733088 0.19067619543652833
1140000000.0 -0.2421925325236118 0.004310622247897761
1160000000.0 -0.24151941048673742 0.14265922395084643
1180000000.0 0.13918417239982123 0.29106428338343293
1200000000.0 -0.20295025564190827 0.28777210895122657
1220000000.0 -0.3259871066577769 -0.20471743140479248
1240000000.0 0.34645133933631145 0.20824631844228494
1260000000.0 -0.378743313745329 -0.2083219641373945
1280000000.0 0.34055954542576916 0.2744794113063035
1300000000.0 0.23444284230113652 -0.37637780632180573
1320000000.0 -0.30593089723359423 -0.30860854075693867
1340000000.0 0.13695440438475018 -0.40921891264405175
1360000000.0 0.28796426922683555 -0.31862762456885835
1380000000.0 0.19894668343060856 -0.3832752853686422
1400000000.0 -0.4196367422199288 0.00021985907518175054
1420000000.0 -0.10203586902110398 0.38929019786080366
1440000000.0 0.37365149630617717 -0.04234449726469286
1460000000.0 0.27267864840123696 -0.20935675572469975
1480000000.0 -0.11185837899416413 -0.295585162669126
1500000000.0 -0.2411687468040474 -0.1559903094471189
1520000000.0 -0.2585380683449934 0.02668028231630775
1540000000.0 0.14415932515033905 -0.18570507287943733
1560000000.0 0.20035843299593437 0.03140017529595802
1580000000.0 0.12166825578350234 0.12435093651594621
1600000000.0 -0.07007584107565651 -0.12631911593924416
1620000000.0 -0.10067236318120237 0.04363193712844341
1640000000.0 -0.07252355451668552 -0.04279445605665254
1660000000.0 0.019234846679415288 0.054952569068061764
1680000000.0 0.017738052345013616 -0.02931148527294793
1700000000.0 -0.0026403168888855686 0.016613513750525846
1720000000.0 0.0024571589415422652 -0.00023672081454499495
1740000000.0 0.011457584304131982 0.016556003359539218
1760000000.0 0.031223203060029094 -0.02161547234970276
1780000000.0 0.0442628265929193 -0.05012646181737157
1800000000.0 -0.09398594851546554 0.03708024947164252
1820000000.0 0.10191188405468964 0.08530273200835434
1840000000.0 0.03371519365810869 -0.166501945205441
1860000000.0 0.0993542556443876 0.18348277306274055
1880000000.0 -0.08733083822142429 -0.22999045087455283
1900000000.0 0.15725049733739754 0.24085000515660498
1920000000.0 -0.298300148359044 -0.112575659336886
1940000000.0 0.09368047590001725 0.33245686319720535
1960000000.0 0.3291547690677664 -0.16614157942505464
1980000000.0 0.0630426982093621 -0.38026610264529104
2000000000.0 -0.05398875222178546 -0.40084686301767086
2020000000.0 -0.3448525658088116 -0.2416226336826663
2040000000.0 -0.4133073879877935 0.13659201955375277
2060000000.0 0.0975113135635039 0.4309459582479403
2080000000.0 0.4416740045964526 -0.03485880140803003
2100000000.0 -0.04020093514292793 -0.43522761039898383
2120000000.0 -0.39678220512361667 -0.155352625986454
2140000000.0 -0.2552761347221737 0.320632804143773
2160000000.0 -0.39019290317813876 -0.04080729716391656
2180000000.0 -0.368727343105104 0.06272744400201458
2200000000.0 -0.33738351272173617 0.1222380373174522
2220000000.0 -0.3335181022121428 0.1065520046346581
2240000000.0 -0.20849849789631567 0.27709120530150777
2260000000.0 -0.08545803247878882 0.3399453456422662
2280000000.0 0.231711139907824 0.27042541404119563
2300000000.0 0.31408034689588177 -0.1996511024954263
2320000000.0 -0.21683443685464862 -0.3316191485437427
2340000000.0 -0.24488543191207102 0.35191270988670037
2360000000.0 0.4183901069575892 -0.2096457993958302
2380000000.0 -0.5073832120643293 0.08566005461520498
2400000000.0 0.5248447054728645 -0.20874533372272516
2420000000.0 -0.34215720373877145 0.5101908796441089
2440000000.0 -0.1680712312162059 -0.6382034383867264
2460000000.0 0.5822544008492019 0.38319333422367186
2480000000.0 -0.7239198204486366 -0.04063864239512887
2500000000.0 0.7412339653574548 0.054988474956437036
2520000000.0 -0.7392301217263479 -0.13923082335970913
2540000000.0 0.5925797778104714 0.4654592034532066
2560000000.0 -0.1371585003386791 -0.7338410619494435
2580000000.0 -0.5182713645568479 0.5165945763635102
2600000000.0 0.7038200608660597 0.06793282615751256
2620000000.0 -0.35672883826320667 -0.5751704111720313
2640000000.0 -0.5382016948053923 -0.34485987840330795
2660000000.0 0.04588112146868656 0.5922130638318397
2680000000.0 0.4412286811401324 -0.32591266143547676
2700000000.0 -0.4698641035829654 -0.17749135209174596
2720000000.0 0.1289051219565 0.43754340400472275
2740000000.0 0.2714051020774578 -0.3127579388139755
2760000000.0 -0.3776050343459327 -0.001797421530683479
2780000000.0 0.34790284892319007 -0.001989579397154787
2800000000.0 -0.32197941854348955 0.033695091472225845
2820000000.0 0.20133569234651438 -0.23219551303433522
2840000000.0 0.12442786888317371 0.2694841965011139
2860000000.0 -0.2907641044485579 0.017569400952809646
2880000000.0 0.09835757802438724 -0.2722959577577631
2900000000.0 0.11350283453349015 0.26579301535435546
2920000000.0 0.10640438126209027 -0.2714608031961845
2940000000.0 -0.2801229061270596 0.09338744344396946
2960000000.0 -0.13178751276234327 0.26630519714601536
2980000000.0 -0.020977940254443522 0.29994250482963297
3000000000.0 -0.2732366331114586 0.12824703631224013
3020000000.0 -0.1801229471035081 -0.2449791837706714
3040000000.0 0.29738765632986536 -0.05674713318428216
3060000000.0 -0.236406626868132 0.18854096467572906
3080000000.0 0.1764270123886446 -0.24248177780136854
3100000000.0 0.006091935548025752 0.2964680651512419
3120000000.0 -0.10430279688902638 -0.26985860148836965
3140000000.0 0.28087914219163357 0.014419918932623758
3160000000.0 -0.1797556938209607 0.19653567976415423
3180000000.0 0.24685595082997036 -0.035576566732359066
3200000000.0 0.006859897704625279 0.22579759596340246
3220000000.0 -0.19681569192118456 0.0245455895018126
3240000000.0 0.021042623250625597 -0.16543048967003293
3260000000.0 -0.05719310422866544 0.12065714607407674
3280000000.0 0.09597292602772561 0.03452371889103772
3300000000.0 0.07414843956075294 -0.005982783628580197
3320000000.0 0.0027718857344873273 0.050324629992990276
3340000000.0 0.021900581251702654 -0.019073784692035328
3360000000.0 -0.007989811599164027 -0.00955916605690831
3380000000.0 -0.0050119417167770845 -0.0014292749854627291
3400000000.0 0.018421138068697388 -0.0062551422231578125
3420000000.0 -0.012870807588173213 -0.032967260366512485
3440000000.0 0.0456346119884651 -0.015445490101711312
3460000000.0 -0.057009031328358876 0.003172353767612797
3480000000.0 -0.0634841991089541 0.020974902041571344
3500000000.0 -0.025570973781224745 0.07359657888850607
3520000000.0 0.05689176847912014 0.07093078741170693
3540000000.0 0.04210422202630015 -0.0950672830032786
3560000000.0 -0.11732753078733234 -0.0037098755419681423
3580000000.0 0.07360401416025487 0.10935571896648638
3600000000.0 -0.1527859472576069 -0.01481430322366803
3620000000.0 -0.1570367472359157 -0.05491103659492254
3640000000.0 -0.16094075131520585 -0.08385480717360144
3660000000.0 -0.17373671305596947 -0.07892692189730474
3680000000.0 -0.18976629486186422 -0.05035253413902876
3700000000.0 -0.18895649394328864 -0.04537625147009684
3720000000.0 -0.08428095091581896 -0.17207061600969525
3740000000.0 0.0012835591331142018 -0.1832631009643309
3760000000.0 -0.15223306571458609 0.08552163260558442
3780000000.0 0.14203075246914668 0.08393388745844003
3800000000.0 0.15525750372999225 0.020485856053149645
3820000000.0 0.13969462222492146 0.06304897879034084
3840000000.0 -0.01777314647936616 0.14991312481881558
3860000000.0 -0.0949593041976267 0.12182080292607887
3880000000.0 0.08945665673065406 0.1342605431396834
3900000000.0 -0.002305634159807433 -0.16298449641792467
3920000000.0 -0.06782878488162303 0.14982237522088573
3940000000.0 -0.0058035713347131005 -0.16810220902402928
3960000000.0 0.1701131808173292 -0.006383114876130585
3980000000.0 0.13454014647958576 -0.10433797468174918
4000000000.0 0.13372381696231156 -0.09285651176262559
