! Created with skrf (http://scikit-rf.org).
# Hz S RI R 50.0 
!freq ReS11 ImS11
400000000.0 -0.8601095133656267 0.03899149938179983
420000000.0 -0.02057188860526022 0.8656956339435365
440000000.0 0.8373513218203111 0.05487790869786154
460000000.0 0.6081434723472142 -0.506158902623486
480000000.0 0.7313448707261531 0.055829582108081956
500000000.0 -0.5762411064117264 -0.0722285986582185
520000000.0 -0.4100927881167283 0.28153757212887565
540000000.0 -0.4078543097144955 -0.08911199026062365
560000000.0 -0.17709056730276043 0.3243007129423674
580000000.0 -0.2749347467506093 -0.1663370550928971
600000000.0 -0.32706609455655916 0.016555483226846395
620000000.0 -0.14799557907911498 -0.2946634676353528
640000000.0 -0.010904462701628191 0.34530519022374834
660000000.0 -0.035411446197633645 0.3769402930912518
680000000.0 -0.12273020871633478 -0.37886660100486913
700000000.0 -0.38883576449232526 0.18972838966087427
720000000.0 0.05867580691809751 0.43165288258605894
740000000.0 -0.4171938148194854 0.16844695650324357
760000000.0 -0.02016811877480051 -0.4282749298249095
780000000.0 0.24819891438910788 0.3059557184145713
800000000.0 -0.33361474901912935 0.13193650136453303
820000000.0 -0.26248453748335443 -0.14365688696292123
840000000.0 0.23239256059897712 0.09627439539975338
860000000.0 0.013260320360520567 0.19673769182422884
880000000.0 0.007068459924115015 -0.15665380952889743
900000000.0 0.01410388111177757 -0.08021534146018675
920000000.0 0.027621595599214177 -0.03722302147319754
940000000.0 0.03406612123276671 0.029935979394295983
960000000.0 -0.0030862177542291852 0.05360075616683839
980000000.0 0.05294743004956224 -0.036469417152306165
1000000000.0 -0.06477992050467701 -0.031270898112375274
1020000000.0 0.044905109946467354 0.06594989602898216
1040000000.0 0.05011438515106114 0.07897616169546755
1060000000.0 -0.008986186868616682 -0.12337257992495916
1080000000.0 -0.14521486798364283 -0.01498552611855663
1100000000.0 -0.02152750129882303 0.16846613587417916
1120000000.0 0.10416156975692235 0.17157213013390232
1140000000.0 -0.23328403039084153 0.06498488006140499
1160000000.0 -0.24095797872481248 0.14340157678043325
1180000000.0 0.12677015782525747 0.2961984577716221
1200000000.0 -0.21303071561312048 0.2798929758964195
1220000000.0 -0.3218797081164622 -0.21093712730395908
1240000000.0 0.33196544941276934 0.2306914925673011
1260000000.0 -0.3820302609676455 -0.20265549839087138
1280000000.0 0.33925539439540764 0.27656071514099273
1300000000.0 0.20391313248475232 -0.3940884106165093
1320000000.0 -0.3228142680334848 -0.29103479028217855
1340000000.0 0.12956300229604117 -0.4119803357803715
1360000000.0 0.277595367794117 -0.3280588965913246
1380000000.0 0.20046542160105063 -0.38287000129725307
1400000000.0 -0.41909655190739825 -0.023445633261657717
1420000000.0 -0.10595073429121825 0.38835045820704805
1440000000.0 0.3729296479880667 -0.046614217764290825
1460000000.0 0.27474059209944585 -0.20589042892905604
1480000000.0 -0.07714357252883272 -0.30594879409891496
1500000000.0 -0.24663948382772782 -0.14607911680087757
1520000000.0 -0.2577721257566853 0.031700895101495014
1540000000.0 0.13467200086517336 -0.19281890304711485
1560000000.0 0.1997558950011361 0.037678342163462164
1580000000.0 0.13184915789171908 0.11428245443101802
1600000000.0 -0.08286752463982461 -0.1194309366752861
1620000000.0 -0.07896843823981127 0.07755882381800999
1640000000.0 -0.08162946941853944 -0.02293913564234824
1660000000.0 0.030235132565189896 0.04987080519246434
1680000000.0 0.011945764849442812 -0.031258913301968096
1700000000.0 -0.015668960069686638 0.0048868327583419125
1720000000.0 -0.0023948231390493392 0.00133010930141492
1740000000.0 0.005174460696770295 -0.020903146799768575
1760000000.0 0.0056075497869817375 -0.03914691270979025
1780000000.0 0.04517446750659053 -0.050101615764956295
1800000000.0 -0.09422799245759997 0.03604815685453431
1820000000.0 0.07546944017519606 0.10842484498897907
1840000000.0 0.07887313773252977 -0.14918961363139382
1860000000.0 0.06519038564692528 0.19794012981676976
1880000000.0 -0.020916979349028208 -0.24537865569048373
1900000000.0 0.11002572160075041 0.26583126229831466
1920000000.0 -0.2844108866666123 -0.14422287028613084
1940000000.0 0.0754841256262829 0.3367499663682017
1960000000.0 0.3276862772487702 -0.16834356499807923
1980000000.0 0.04389142503013532 -0.3828240545938259
2000000000.0 -0.0677592531631943 -0.3988569869468987
2020000000.0 -0.35000415352543873 -0.23491458173175514
2040000000.0 -0.39875423633231555 0.17572167540789677
2060000000.0 0.1437168542196417 0.41817844074362304
2080000000.0 0.4358301484669794 -0.08374422717186834
2100000000.0 -0.10995355178193325 -0.42335644756351926
2120000000.0 -0.41632648590111565 -0.09348597400943284
2140000000.0 -0.2554663614906283 0.32172890243952273
2160000000.0 -0.38554075344473426 -0.07546225100183838
2180000000.0 -0.3746374465956937 0.009099209863685424
2200000000.0 -0.35094561163763915 0.08037192366385335
2220000000.0 -0.3337256922807707 0.1080890467731594
2240000000.0 -0.22820003167599523 0.263093411736851
2260000000.0 -0.12979417195623 0.3270644157068464
2280000000.0 0.1855055498576912 0.30428997961086346
2300000000.0 0.3491910856971637 -0.12856377133572225
2320000000.0 -0.17896279450509153 -0.3531433778723119
2340000000.0 -0.2712542010305868 0.3316995205706107
2360000000.0 0.4267945369802692 -0.19024757841412984
2380000000.0 -0.5072600881911865 0.0852210378275146
2400000000.0 0.5189678753898016 -0.22165087851848375
2420000000.0 -0.3121787446044323 0.5288929337071322
2440000000.0 -0.15796134151552998 -0.6410290696712926
2460000000.0 0.5877998775887902 0.3758693254174269
2480000000.0 -0.7257453300584397 -0.025755056421458217
2500000000.0 0.743376163887781 0.04281557554795222
2520000000.0 -0.7258449482671724 -0.20295926734848999
2540000000.0 0.5706943964581982 0.4932123182339012
2560000000.0 -0.05541105465878008 -0.7451032076203956
2580000000.0 -0.5444951633292537 0.48877625921812284
2600000000.0 0.6944590008136933 0.13929341248865537
2620000000.0 -0.303318101939095 -0.6060555781735035
2640000000.0 -0.5162614625540533 -0.3795808637411276
2660000000.0 -0.007713916120811477 0.5954082809697611
2680000000.0 0.47983358322315717 -0.2681886451853677
2700000000.0 -0.45392509494242517 -0.2159477290552131
2720000000.0 0.11407315001557679 0.44205093942934326
2740000000.0 0.28800856257413215 -0.2977828145731452
2760000000.0 -0.37749719710821344 -0.005456312667212929
2780000000.0 0.347541762678019 -0.00543806465174565
2800000000.0 -0.3216530674390171 0.03886462167490875
2820000000.0 0.17197072296175253 -0.25485430833347394
2840000000.0 0.13746976786573306 0.26345140055169447
2860000000.0 -0.2930131103272129 -0.0004974569843824571
2880000000.0 0.09304458559085133 -0.2754721598538306
2900000000.0 0.09337031111680928 0.27481729700404733
2920000000.0 0.10246270663936707 -0.2740162263344021
2940000000.0 -0.2888989039690287 0.06636921108679394
2960000000.0 -0.09733419400514118 0.2814254980047568
2980000000.0 -0.05586605034977093 0.2951835694718422
3000000000.0 -0.2888673194944329 0.0859398696356638
3020000000.0 -0.13337692742721285 -0.2736545317756607
3040000000.0 0.2998513260735422 -0.04010144448202102
3060000000.0 -0.2489728083042434 0.17302232951255553
3080000000.0 0.18463367681810322 -0.23752225106258182
3100000000.0 -0.014848715306884612 0.29631802588707457
3120000000.0 -0.056309753643742536 -0.28414414226290186
3140000000.0 0.2724755144073043 0.06580425038821448
3160000000.0 -0.18160120079874084 0.194021507658673
3180000000.0 0.24528247508166953 -0.043384165175001516
3200000000.0 0.04666874252647297 0.22064623450698875
3220000000.0 -0.19325109539721314 0.04270246695398984
3240000000.0 0.012936331117493812 -0.16593026967412483
3260000000.0 -0.06095543948435456 0.11821493604323612
3280000000.0 0.10094005877568224 0.005576761104780015
3300000000.0 0.07392769769223992 -0.0010879200955622127
3320000000.0 0.008582190487350887 0.04963624959108435
3340000000.0 -0.010831252936262347 -0.02798752378732616
3360000000.0 0.001106419077305352 -0.013466814435266735
3380000000.0 0.003945139541301214 -0.0018055740562343307
3400000000.0 -0.01671042114861294 -0.00924036785624405
3420000000.0 0.032791310745615365 0.014003379794963163
3440000000.0 0.036978039704362496 0.03182943519233865
3460000000.0 -0.03832176566796531 -0.0432819673819243
3480000000.0 -0.0667342690634515 0.0140954815932864
3500000000.0 -0.00471716374595121 0.07882497990915009
3520000000.0 0.0778061253589013 0.048631282197169286
3540000000.0 0.04703019147041711 -0.09290579557259177
3560000000.0 -0.11625326627254355 0.01131509054509252
3580000000.0 0.06730181737836877 0.11341436852247518
3600000000.0 -0.15136713437684318 -0.026632077821876928
3620000000.0 -0.1507417688064722 -0.0726371901956258
3640000000.0 -0.12093352016947044 -0.1353190654625276
3660000000.0 -0.16633282712838304 -0.09462993515645654
3680000000.0 -0.1848071533087438 -0.06742465805075691
3700000000.0 -0.18906228608288453 -0.04305142003819351
3720000000.0 -0.04898932083470067 -0.184641011991635
3740000000.0 0.06578782199942632 -0.17072453278746497
3760000000.0 -0.16468707006487077 0.05777308673940171
3780000000.0 0.11473818936767212 0.11855849879166624
3800000000.0 0.12721027229298515 0.09171411554482023
3820000000.0 0.08924846805106468 0.12387764106642146
3840000000.0 -0.08615676971948769 0.12445511187077384
3860000000.0 -0.13768843009011242 0.07148519888274252
3880000000.0 0.0668756347933171 0.1469343075626571
3900000000.0 0.02136185754778852 -0.1623323544247135
3920000000.0 -0.13095995992384185 0.10027397113468459
3940000000.0 0.097646633879705 -0.13634139741664952
3960000000.0 0.10626922778286854 0.13316689411814187
3980000000.0 0.15906797222553104 0.06152857997407044
4000000000.0 0.13484369222379564 0.09109061856186126
