! Created with skrf (http://scikit-rf.org).
# Hz S RI R 50.0 
!freq ReS11 ImS11
400000000.0 -0.8585115062209459 0.07872212402299489
420000000.0 -0.035635789046469614 0.8644896597884251
440000000.0 0.8364731284520898 0.06622037613452433
460000000.0 0.5819813127885402 -0.535259764572874
480000000.0 0.7309125432418997 0.05934345199572193
500000000.0 -0.5799646331538626 -0.03458490607535384
520000000.0 -0.39269418729202527 0.3054963653051091
540000000.0 -0.40648969172286714 -0.09789467490627034
560000000.0 -0.149433303571047 0.3377167905810013
580000000.0 -0.2778926315505734 -0.16110298305208906
600000000.0 -0.3272584314365509 0.024609664663234734
620000000.0 -0.12260073629853793 -0.30609946384263276
640000000.0 -0.05804519707573421 0.34011250885841193
660000000.0 -0.04428957368535043 0.37465763128443713
680000000.0 -0.13329963129832872 -0.3744567788004104
700000000.0 -0.3819433487505327 0.20264077052354434
720000000.0 0.06214680349622445 0.4311029617465186
740000000.0 -0.41868502783069883 0.16484540383020926
760000000.0 -0.019928270351992853 -0.4284524506594986
780000000.0 0.25509564798428774 0.3003572900124179
800000000.0 -0.33246284173422813 0.1355682360170915
820000000.0 -0.2599995777755077 -0.148537448617656
840000000.0 0.23427041344088523 0.09053925829038952
860000000.0 0.024559937729025212 0.19552010718835602
880000000.0 -0.01937979080575481 -0.15549225267717545
900000000.0 0.005806576285731684 -0.08171978928671965
920000000.0 0.025626542352337578 -0.038429898899001225
940000000.0 0.034300316524834604 0.029217026544632204
960000000.0 0.00477861591226401 0.05363297873450447
980000000.0 0.05627822133300723 -0.032295028000062925
1000000000.0 -0.05427380721731528 -0.047674884020254306
1020000000.0 0.027756612987295873 0.07469293531544466
1040000000.0 0.02669702425448025 0.0892248321073036
1060000000.0 0.0002666266654233032 -0.12317593356097681
1080000000.0 -0.14609392702150223 -0.0002605459047984373
1100000000.0 -0.019982434829662346 0.16901452051155733
1120000000.0 0.05759842590512047 0.1927835654613921
1140000000.0 -0.2420465266101778 0.0030150043274100005
1160000000.0 -0.24184041596606987 0.141710450006519
1180000000.0 0.14295866076502772 0.28905088117789335
1200000000.0 -0.20050070879460963 0.28935017457160156
1220000000.0 -0.32654287180664227 -0.20376655780330138
1240000000.0 0.34325225394960734 0.213634881387039
1260000000.0 -0.3836934733725269 -0.19910759877132927
1280000000.0 0.33868058935894824 0.27679313659447774
1300000000.0 0.21403752414502755 -0.38838073349219854
1320000000.0 -0.30998998891345425 -0.30441467667837624
1340000000.0 0.13637451079920512 -0.4093502668276665
1360000000.0 0.28835308375653396 -0.3182488128821287
1380000000.0 0.20668785431615633 -0.3791134679328913
1400000000.0 -0.4188662661129083 -0.026887218860255795
1420000000.0 -0.12907367773411324 0.3814130095623208
1440000000.0 0.37417159261986244 -0.03628375508040388
1460000000.0 0.2813998177254986 -0.19740285532851506
1480000000.0 -0.08335338019715051 -0.3046805088492667
1500000000.0 -0.237779301182303 -0.1606822492816498
1520000000.0 -0.26038179815971135 0.0045137726380615655
1540000000.0 0.1412453865185433 -0.1883025492975805
1560000000.0 0.20072933976504898 0.031190028702590494
1580000000.0 0.10129358124839388 0.14181901363294006
1600000000.0 -0.10094452709806136 -0.10352472634976886
1620000000.0 -0.09534611868528839 0.05475111548801252
1640000000.0 -0.07638611400059059 -0.03565663267568552
1660000000.0 0.029969123636000922 0.04984827748069616
1680000000.0 0.003325114383538073 -0.03407031690590761
1700000000.0 -0.00553426142485007 0.015258818294438712
1720000000.0 -0.00014090315313239346 -0.0030048786045135285
1740000000.0 0.005697238202122833 0.019803294011636403
1760000000.0 0.03105731211726884 -0.022365665138461645
1780000000.0 0.02727007968498386 -0.06140276826695741
1800000000.0 -0.09130434988179274 0.042087380636508
1820000000.0 0.11458637333261212 0.06757323612891615
1840000000.0 0.028319285503317908 -0.16713601702641065
1860000000.0 0.09506441918805687 0.1852829983272933
1880000000.0 -0.08332443642939642 -0.23134317772745036
1900000000.0 0.14038366111964573 0.25089659651587315
1920000000.0 -0.29142321445361186 -0.1287696178215955
1940000000.0 0.07904189423141042 0.3360909044649146
1960000000.0 0.3310994982321669 -0.16194950411929068
1980000000.0 0.06522371922084931 -0.37988179997600646
2000000000.0 -0.04927656149233188 -0.40151830796545246
2020000000.0 -0.34541347906244496 -0.24104951957810714
2040000000.0 -0.4125304574773734 0.13969179714294516
2060000000.0 0.11156766798610371 0.4278704280255885
2080000000.0 0.4408569633902011 -0.04523430425253333
2100000000.0 -0.04930481368258734 -0.4341435830078667
2120000000.0 -0.40269774570316175 -0.13820616983467465
2140000000.0 -0.2538151360609294 0.32143864925051996
2160000000.0 -0.38941931751312586 -0.045664095239036466
2180000000.0 -0.37173893220080756 0.04069881382046918
2200000000.0 -0.3446836669673148 0.10002507593930704
2220000000.0 -0.3378920845425216 0.09225381664400005
2240000000.0 -0.21140121217165836 0.275143325458775
2260000000.0 -0.09372520442363147 0.33764157104941994
2280000000.0 0.23275578210947906 0.2692733022976793
2300000000.0 0.3168458356779117 -0.1946845270165338
2320000000.0 -0.22218893942749499 -0.3279346073494988
2340000000.0 -0.23702555241081197 0.3575232761942209
2360000000.0 0.4152323815802355 -0.21598068035833554
2380000000.0 -0.5025165679863841 0.11201770922672134
2400000000.0 0.5154667238194202 -0.23114111498120785
2420000000.0 -0.37185256494497754 0.4893354736335363
2440000000.0 -0.13372572321588494 -0.6462487439652571
2460000000.0 0.5560313793406334 0.4206921298297376
2480000000.0 -0.7162551456107372 -0.11594110745252263
2500000000.0 0.7412867443782941 0.052259813461965995
2520000000.0 -0.7413971042953743 -0.12330295381587743
2540000000.0 0.6095683069194984 0.442320112241352
2560000000.0 -0.12064382215082733 -0.7366934367908848
2580000000.0 -0.5215014017432736 0.5130852938517003
2600000000.0 0.7021805691676785 0.0812295493408148
2620000000.0 -0.34197917321795057 -0.5838906471802899
2640000000.0 -0.5688040375207974 -0.2918963353851198
2660000000.0 0.08836435263023884 0.5876223941593359
2680000000.0 0.4256796763135675 -0.34665001720282945
2700000000.0 -0.475922199196769 -0.16185425660894853
2720000000.0 0.16315754256829104 0.4265027571709479
2740000000.0 0.28484843546464905 -0.30084139817901046
2760000000.0 -0.37764065050647133 -0.012815155785559753
2780000000.0 0.347980168543537 0.011324907882066854
2800000000.0 -0.3235349445602562 0.01687771363588744
2820000000.0 0.221722217703421 -0.21324907835487478
2840000000.0 0.09307317855799371 0.2821468128957054
2860000000.0 -0.28999381862244333 -0.029255095137152666
2880000000.0 0.11989196125848907 -0.2635490379834795
2900000000.0 0.10263003225554519 0.26993278597102544
2920000000.0 0.07731560304747805 -0.2806418208493899
2940000000.0 -0.2748864502207008 0.1073561391527353
2960000000.0 -0.08981141658494007 0.2830587787428195
2980000000.0 0.010061541110055175 0.3003252539927053
3000000000.0 -0.25909472506163717 0.15279713218785732
3020000000.0 -0.20313796704140213 -0.22603508087682933
3040000000.0 0.3023954886360928 0.00455247331065826
3060000000.0 -0.22501503719237767 0.2017113541449457
3080000000.0 0.1676109488184894 -0.24880178955124066
3100000000.0 -0.043320609405406586 0.2933140421821266
3120000000.0 -0.13068728252337788 -0.25883785591955044
3140000000.0 0.28157416190552426 -0.001083306693132076
3160000000.0 -0.16613169495491592 -0.20892814037079008
3180000000.0 0.24274008974017727 -0.05810940136502186
3200000000.0 0.03080723780170437 0.2238737130076696
3220000000.0 -0.19318275750867137 0.04194454158546355
3240000000.0 0.019699092504802045 -0.16550545606352257
3260000000.0 -0.0551563876848376 0.12142157094223778
3280000000.0 0.10147350275772256 0.004261344004565768
3300000000.0 0.07167129514777489 0.019171963927472724
3320000000.0 -0.019229496983534426 0.04668616269020969
3340000000.0 0.01918126462023881 -0.022327715036689417
3360000000.0 0.012059234612892832 -0.0049762314826908675
3380000000.0 0.005034756114294132 0.00024612814212474266
3400000000.0 -0.012926333863209955 0.01425988058619994
3420000000.0 0.022034628784275798 -0.027785877368365304
3440000000.0 0.04661731472471594 0.013305610139699739
3460000000.0 -0.04566368444173281 -0.03430111630312071
3480000000.0 -0.06597728971581775 0.01018743937216506
3500000000.0 -0.010478141635995034 0.07701692560467457
3520000000.0 0.061599689922220015 0.06602635421802854
3540000000.0 0.060136758721318365 -0.0836029960802654
3560000000.0 -0.11566683157565494 -0.014392793393126052
3580000000.0 0.04569134279491709 0.1231304126697586
3600000000.0 -0.13113679783172535 -0.07867697777722106
3620000000.0 -0.1478056021219385 -0.07697640823050454
3640000000.0 -0.1516521258449888 -0.09903977996381132
3660000000.0 -0.17683195981023686 -0.07189348932561777
3680000000.0 -0.19457998157410072 -0.02574233096572104
3700000000.0 -0.1938563534206209 -0.01091594484774247
3720000000.0 -0.11711664501762196 -0.15154903620202198
3740000000.0 -0.022643670101396663 -0.1815337806398549
3760000000.0 -0.13906998166042003 0.10505871304428004
3780000000.0 0.15163836711835021 0.06241978430825211
3800000000.0 0.1531610029162501 0.03335302293451623
3820000000.0 0.14474905176153738 0.05020616032153991
3840000000.0 -0.02825551344692687 0.1490155698061864
3860000000.0 -0.08702259439844807 0.12839551918583023
3880000000.0 0.1044972147142285 0.12358065082622799
3900000000.0 -0.012006962403363252 -0.1630307639991053
3920000000.0 -0.05656993226332248 0.15442435767544999
3940000000.0 -0.011614127089875793 -0.16762511914800074
3960000000.0 0.16968684651383695 0.009847798725035032
3980000000.0 0.15682514458114769 -0.06706272583508972
4000000000.0 0.15203072334486034 -0.059278296039435456
