! Created with skrf (http://scikit-rf.org).
# Hz S RI R 50.0 
!freq ReS11 ImS11
400000000.0 -0.8590401022984923 0.08013893595518648
420000000.0 -0.005059665226367672 0.8654742523588337
440000000.0 0.8370813532159 0.06175740437699529
460000000.0 0.6031390989594257 -0.5123650616326523
480000000.0 0.7277552122877088 0.09592586916595615
500000000.0 -0.5805825381433127 -0.018544061549354916
520000000.0 -0.36732520525317697 0.33576269734202624
540000000.0 -0.4048024967642493 -0.10529551283324466
560000000.0 -0.10802819987062601 0.3525799148932189
580000000.0 -0.288611293069769 -0.14039455993606395
600000000.0 -0.3214914160747905 0.06479027001586732
620000000.0 -0.14542228032514903 -0.29565711130433087
640000000.0 -0.04283672429008646 0.34204757793260826
660000000.0 -0.042650396206484274 0.37443946162630826
680000000.0 -0.09673233339432692 -0.3854321296434679
700000000.0 -0.39991792870184945 0.16332061938991427
720000000.0 0.03261653755678832 0.43442942539031004
740000000.0 -0.42379782341482736 0.15031623905833932
760000000.0 0.01664532589177631 -0.42890729878533645
780000000.0 0.25671749478965034 0.29971993774556704
800000000.0 -0.3281463545744042 0.1455440144442368
820000000.0 -0.2653791590612374 -0.13919474083199218
840000000.0 0.24461772315175392 0.05825750668934544
860000000.0 0.05917038594272295 0.18816965527527582
880000000.0 -0.057383851967978364 -0.14630648894671675
900000000.0 -0.012986238799134556 -0.08112526543700362
920000000.0 0.0210296542140826 -0.041191353950477086
940000000.0 0.04169476787948727 0.017348576369604678
960000000.0 0.022393382049329186 0.04914195735477422
980000000.0 0.051184422090879755 -0.039726510567175743
1000000000.0 -0.06573309353770514 -0.02962474120222812
1020000000.0 0.0536492504968939 0.05909737282068383
1040000000.0 0.045208425986061784 0.08120270506716559
1060000000.0 -0.01592348923225613 -0.12181461030865522
1080000000.0 -0.14531231415118018 0.012095266518556658
1100000000.0 -0.019843783286796684 0.1687912151115856
1120000000.0 0.04430920238751181 0.19631705775103328
1140000000.0 -0.24237055551145092 0.0018479398194123137
1160000000.0 -0.24750771908774835 0.1322839669511462
1180000000.0 0.142801022152876 0.28978644516563534
1200000000.0 -0.2154878269807852 0.2788268582161942
1220000000.0 -0.32808306307248225 -0.20161147982606334
1240000000.0 0.34531391415331747 0.21074254369154374
1260000000.0 -0.39197714153728963 -0.18193938954459565
1280000000.0 0.3434882257381362 0.2705695740061577
1300000000.0 0.22430097442103308 -0.3822218704473674
1320000000.0 -0.29828761620165567 -0.3155985221707783
1340000000.0 0.14446840457730548 -0.4065850080381858
1360000000.0 0.28558586977354117 -0.3207173962110612
1380000000.0 0.19554514641148743 -0.3849865466198465
1400000000.0 -0.41916642964277817 -0.017668622111301106
1420000000.0 -0.10848163467852572 0.38744099188830755
1440000000.0 0.3741131860283814 -0.037720846271628354
1460000000.0 0.2849518882242269 -0.19278325766766227
1480000000.0 -0.08783026743944161 -0.30382529153684656
1500000000.0 -0.25746496581153117 -0.12751934446022575
1520000000.0 -0.25398173439028554 0.05654048795905363
1540000000.0 0.10143553674170952 -0.2120308172274132
1560000000.0 0.20272779231482357 -0.004470533418189731
1580000000.0 0.12810179393105017 0.11731620852819008
1600000000.0 -0.09680793247225807 -0.10661880771557156
1620000000.0 -0.09760766508461967 0.049981783401079526
1640000000.0 -0.06671355811952102 -0.05145796360064049
1660000000.0 -0.003996737528692837 0.058113188448387997
1680000000.0 0.030885405395942978 -0.015519388851278067
1700000000.0 -0.015843746994607947 -0.00652001736951081
1720000000.0 -0.0019159085704209228 -7.266745261791528e-06
1740000000.0 0.014174531076278715 -0.013823379528367055
1760000000.0 0.037614323959058234 -0.001147051438171351
1780000000.0 0.06381207680268855 -0.018776570676404886
1800000000.0 -0.10092490604141661 0.010127639134876127
1820000000.0 0.08334813802001871 0.10429636181573944
1840000000.0 0.03126869447392142 -0.1677921701391793
1860000000.0 0.1326801127067539 0.161686056830968
1880000000.0 -0.12892697329350042 -0.21012875833784964
1900000000.0 0.1799752100291475 0.22428596687046212
1920000000.0 -0.29899564913744214 -0.10923201569633888
1940000000.0 0.08805118266061786 0.3334411338891351
1960000000.0 0.3377545024624498 -0.14702147701298768
1980000000.0 0.07190921613128169 -0.37866361747869154
2000000000.0 -0.056440323210712774 -0.4007648971622499
2020000000.0 -0.34645829354178725 -0.23975354551058525
2040000000.0 -0.39574400778230795 0.18132398179420445
2060000000.0 0.11449515437985203 0.4267439126640512
2080000000.0 0.44159433007125465 -0.03452662567115912
2100000000.0 -0.030136222854042577 -0.43592103247224423
2120000000.0 -0.40098817038708107 -0.14385286638148245
2140000000.0 -0.25604284394206517 0.3202086883868421
2160000000.0 -0.3917137186715915 -0.02511093448562593
2180000000.0 -0.3619430663119782 0.09451837312700079
2200000000.0 -0.32521296542665 0.15137742707485535
2220000000.0 -0.31635162172829995 0.1485388557617317
2240000000.0 -0.19451816592255683 0.2867471797990309
2260000000.0 -0.11330607353654648 0.3308852723647816
2280000000.0 0.22687978432263622 0.2739756000221736
2300000000.0 0.31827732565952743 -0.19235855599940815
2320000000.0 -0.244026405418826 -0.3121235688981515
2340000000.0 -0.2262606811538558 0.3638471381321538
2360000000.0 0.3930399090124322 -0.2541099805938641
2380000000.0 -0.4906093832078151 0.1561331827768519
2400000000.0 0.49574982188294614 -0.2703036920393097
2420000000.0 -0.306926301442523 0.5324622008797312
2440000000.0 -0.20689811667826644 -0.626639167910185
2460000000.0 0.5933841626953432 0.3658364583769728
2480000000.0 -0.7250593039623666 -0.018461618226599155
2500000000.0 0.7427188379335224 -0.021052508853939486
2520000000.0 -0.7441428033500224 -0.10755296085099518
2540000000.0 0.6071032999139422 0.4452421239769877
2560000000.0 -0.1463650395660064 -0.7319312663276164
2580000000.0 -0.5192672509453776 0.5146402575755715
2600000000.0 0.7021315144609941 0.07794773345487152
2620000000.0 -0.39151637809745227 -0.5510146907558038
2640000000.0 -0.5811279075544344 -0.2641434620073817
2660000000.0 0.07427763109516929 0.5884635180516624
2680000000.0 0.4310017921289822 -0.337863613148105
2700000000.0 -0.4646404676980667 -0.18865678271751937
2720000000.0 0.1335604922059603 0.435228099071851
2740000000.0 0.2742015678548332 -0.3093009059214319
2760000000.0 -0.37721247767790445 -0.00037940663528373143
2780000000.0 0.34736324019616466 0.002756776949437588
2800000000.0 -0.3214228819034948 0.03575596608889378
2820000000.0 0.18500676794859955 -0.24477227244986033
2840000000.0 0.1346262795817822 0.2642805979532688
2860000000.0 -0.291306783768728 0.007591517418654917
2880000000.0 0.06622161787834141 -0.2815766811011047
2900000000.0 0.10542721622885652 0.26861216971718466
2920000000.0 0.09119707678832759 -0.2764813021079329
2940000000.0 -0.2797326892842029 0.09408055645403118
2960000000.0 -0.09591494354037837 0.2811882428211896
2980000000.0 -0.0401062915625734 0.2974993012800049
3000000000.0 -0.2736590726227552 0.12761345968658877
3020000000.0 -0.19434172335387823 -0.23476418576893618
3040000000.0 0.30015574831362185 -0.04074015706611958
3060000000.0 -0.2251683194238248 0.20162520820373114
3080000000.0 0.1774099025084974 -0.24193759797238223
3100000000.0 -0.04300533161779917 0.2933296997808836
3120000000.0 -0.13874089002223816 -0.25415668496731264
3140000000.0 0.2786486736041982 0.03716646477894253
3160000000.0 -0.18232970263252068 0.19457221196809588
3180000000.0 0.24768516575973115 -0.02567920144849332
3200000000.0 -0.0129603714816406 0.22499551093578946
3220000000.0 -0.19712374155917406 -0.01232585256567799
3240000000.0 0.05333112195826263 -0.15774429308866572
3260000000.0 -0.06741981193978686 0.11458504082063066
3280000000.0 0.09788501181731311 0.025670221656777945
3300000000.0 0.06786026139702118 0.028493528139720392
3320000000.0 -0.015485895656388008 0.04730755758708569
3340000000.0 0.016102864751478527 -0.023683861734272182
3360000000.0 0.009500959164876336 -0.006953593688005593
3380000000.0 0.005003240348347321 0.002694286139619577
3400000000.0 0.019864575772202096 0.0028241237800993306
3420000000.0 -0.007966494845948626 -0.03507794957609687
3440000000.0 0.0483864199987518 -0.007405487852123024
3460000000.0 -0.056194399124234115 -0.011765072855530634
3480000000.0 -0.06014565553635442 0.03044919604613751
3500000000.0 -0.020105246708582648 0.07594653708649585
3520000000.0 0.06833548302612275 0.06068842255343165
3540000000.0 0.047075753654889474 -0.09311582403483282
3560000000.0 -0.11736169368188079 -0.006489299803758688
3580000000.0 0.07461522376783897 0.10893796402752648
3600000000.0 -0.15269897736560484 -0.019451262759649007
3620000000.0 -0.15196420764748247 -0.06948465357006336
3640000000.0 -0.15407668178166545 -0.0952573639036997
3660000000.0 -0.1703477226783825 -0.08667860594418383
3680000000.0 -0.18507731007250192 -0.06548684504044111
3700000000.0 -0.18610093785454052 -0.05573179305931873
3720000000.0 -0.07664989529998155 -0.17534239342503882
3740000000.0 0.017455944564837414 -0.18227340069404147
3760000000.0 -0.1591669045200364 0.07166521319640208
3780000000.0 0.14601912615006374 0.07541708603363412
3800000000.0 0.15104714402529223 0.04119722346584366
3820000000.0 0.14154764226395622 0.05765136247929045
3840000000.0 -0.04180983401868069 0.14554970795393066
3860000000.0 -0.10576600480547553 0.11249788127278652
3880000000.0 0.07684283080391474 0.1414522778655153
3900000000.0 0.016215575133624812 -0.16207575253898823
3920000000.0 -0.08257635903334663 0.14234910336657167
3940000000.0 0.018430037149559972 -0.16727301916664433
3960000000.0 0.16983168347518787 0.005726601207373005
3980000000.0 0.15917434398528094 -0.06069037697513733
4000000000.0 0.1595003478974256 -0.03238575245468329
