! Created with skrf (http://scikit-rf.org).
# Hz S RI R 50.0 
!freq ReS11 ImS11
400000000.0 -0.8604948794225743 0.06118693984907358
420000000.0 -0.006188282987477953 0.8657418745426902
440000000.0 0.8383512704972707 0.03458194901657634
460000000.0 0.5827292120041264 -0.5345703583762238
480000000.0 0.7295905670710542 0.07754165919683072
500000000.0 -0.574232535334631 -0.08686128387239023
520000000.0 -0.40426607486903104 0.28959306445430677
540000000.0 -0.4087331305384386 -0.08621092069061749
560000000.0 -0.16329761834010262 0.33123949195471847
580000000.0 -0.26552328240921164 -0.18105692149426403
600000000.0 -0.3274763051471459 -0.006744764762761935
620000000.0 -0.15578921414798252 -0.2907787444067091
640000000.0 -0.017728247444731702 0.34517761438299654
660000000.0 -0.014196734858811476 0.37832763351125925
680000000.0 -0.12194246912995091 -0.37939660255135055
700000000.0 -0.3906195840659282 0.18550551212519859
720000000.0 0.08474556028285957 0.4274394269778695
740000000.0 -0.41192281032835415 0.18082675904680143
760000000.0 -0.02958647521460403 -0.42755985146014497
780000000.0 0.25966134727213924 0.2964587516409442
800000000.0 -0.3329437903273922 0.13310046913438411
820000000.0 -0.2591195554942347 -0.14941247046622766
840000000.0 0.23579023911600414 0.087473359173441
860000000.0 0.013583905391185985 0.1967861743852729
880000000.0 -0.0021751833615389006 -0.15709747173690544
900000000.0 0.031235060732598127 -0.07582062528192932
920000000.0 0.035456400179353705 -0.03017114069647657
940000000.0 0.021654002974806442 0.0396871415940358
960000000.0 -0.014451750362516152 0.051614937038023695
980000000.0 0.0588716678061906 -0.02587302876729487
1000000000.0 -0.06390820666932176 -0.03309765517020182
1020000000.0 0.04252207527950897 0.06761801133752472
1040000000.0 0.0481048904496865 0.08032048809513845
1060000000.0 -0.001983472165482026 -0.12365913679529168
1080000000.0 -0.14531780774564954 -0.013554713883605433
1100000000.0 -0.01573544697515406 0.16915952683766358
1120000000.0 0.10717882706702468 0.16985278797285153
1140000000.0 -0.2349553712179721 0.05886323318864371
1160000000.0 -0.2336160179802839 0.15548906057660572
1180000000.0 0.13546269834806846 0.2924354629148473
1200000000.0 -0.22281183788301367 0.2721142110179166
1220000000.0 -0.31156871794691077 -0.22575817435581796
1240000000.0 0.3248885562495556 0.24058423484681238
1260000000.0 -0.3789084408938808 -0.20815279360278896
1280000000.0 0.3339094912623092 0.28273531720796913
1300000000.0 0.2129175479652649 -0.38900330259049976
1320000000.0 -0.3181493099690491 -0.29579172153487376
1340000000.0 0.12064200664520791 -0.4145410300272622
1360000000.0 0.2742479092514188 -0.33071173885017136
1380000000.0 0.20294421769397625 -0.3813498555600645
1400000000.0 -0.41913029159729637 -0.02411457838081205
1420000000.0 -0.10784571839581274 0.3879980857370873
1440000000.0 0.37022913471116997 -0.06407210032699989
1460000000.0 0.2684298597707721 -0.213984181291797
1480000000.0 -0.12164666467003145 -0.290955470928559
1500000000.0 -0.24782423657969793 -0.14407283463311016
1520000000.0 -0.2599717805968483 0.008938972034917963
1540000000.0 0.1406000964683199 -0.18878422695617764
1560000000.0 0.1979907409084564 0.04729864793792102
1580000000.0 0.10676977375570137 0.13838240412454875
1600000000.0 -0.10251443871799962 -0.1029977735975205
1620000000.0 -0.0648438054870504 0.08961890671013444
1640000000.0 -0.08237109773044529 -0.018564224623766064
1660000000.0 0.03509769918869526 0.04597553857058752
1680000000.0 -0.0008958514886372597 -0.03322285660449501
1700000000.0 -0.005378952426324687 0.015392142121059424
1720000000.0 -0.002903774395898355 -0.0001622027844745157
1740000000.0 0.0013612652322873167 -0.021520014377595917
1760000000.0 0.0065637417777993905 -0.03880918644019228
1780000000.0 0.03598131376447929 -0.056818440325592634
1800000000.0 -0.09407330893287624 0.034750246769149555
1820000000.0 0.07930189830173376 0.10527782454616663
1840000000.0 0.0808973533160664 -0.14780378925830254
1860000000.0 0.07700903598878658 0.19354490349651782
1880000000.0 -0.03361549146674011 -0.24419030506999156
1900000000.0 0.11764306937518589 0.26267556611206566
1920000000.0 -0.28747851905700533 -0.13814910691070217
1940000000.0 0.08486415064774583 0.33470643431615194
1960000000.0 0.32621052068126 -0.1712298616645427
1980000000.0 0.046085241864946294 -0.382700219304385
2000000000.0 -0.06648880730969661 -0.3992588526627307
2020000000.0 -0.3533946115311289 -0.22995927975033872
2040000000.0 -0.3993891907749241 0.17437776734607624
2060000000.0 0.14335859334387155 0.41838175227529967
2080000000.0 0.4402433750419718 -0.056397112761480066
2100000000.0 -0.09487375304456067 -0.4268375706283749
2120000000.0 -0.4097945855955888 -0.11875021831374163
2140000000.0 -0.2503540022298715 0.32524282931210285
2160000000.0 -0.38291012041020844 -0.08686065171578011
2180000000.0 -0.3741915975415525 0.01860886262884988
2200000000.0 -0.3459130238335025 0.09952910879558137
2220000000.0 -0.33885496293765854 0.09161546530244277
2240000000.0 -0.218146050924752 0.2714902414764991
2260000000.0 -0.12232634866042838 0.32992646916247625
2280000000.0 0.19027995149180832 0.30138753237900623
2300000000.0 0.34847159875673367 -0.13055823305491657
2320000000.0 -0.17233832185265813 -0.356488768154463
2340000000.0 -0.27956014451694156 0.3246709827419684
2360000000.0 0.4337616629702446 -0.17425667798993202
2380000000.0 -0.5083678037847826 0.07935833104883554
2400000000.0 0.5262620588095762 -0.20401714672521368
2420000000.0 -0.3239769100254315 0.5218438050096831
2440000000.0 -0.1410346784287467 -0.6448706722700785
2460000000.0 0.5706395279955176 0.4013561681673993
2480000000.0 -0.7248628199553013 -0.042058116204461475
2500000000.0 0.7414510284147502 0.06858071417454668
2520000000.0 -0.719585728211687 -0.22401504234642314
2540000000.0 0.5768656596522871 0.48596142148100197
2560000000.0 -0.048199505540034805 -0.7457454495917113
2580000000.0 -0.5397720195044374 0.49408205313002185
2600000000.0 0.69499700350613 0.13754604520495778
2620000000.0 -0.310338039792877 -0.6026327622843235
2640000000.0 -0.517223996082227 -0.3786576645865818
2660000000.0 -0.027817095140990757 0.5951441800155025
2680000000.0 0.4688996331406328 -0.28741253834070535
2700000000.0 -0.45509192108679186 -0.21419490422955142
2720000000.0 0.12225362195895123 0.44012138049825394
2740000000.0 0.2952181286069627 -0.29079440395719586
2760000000.0 -0.3775113561962135 -0.005186709351243329
2780000000.0 0.3475413023169565 -0.009549746626298301
2800000000.0 -0.32211455638906905 0.03294021388744504
2820000000.0 0.17484438351344958 -0.2528262640781885
2840000000.0 0.14770890737650502 0.25799641803051737
2860000000.0 -0.2923571468580747 0.016085475739318417
2880000000.0 0.09010335231834186 -0.27648323712721534
2900000000.0 0.08365267152999978 0.27842265377801584
2920000000.0 0.07475563151758902 -0.28289398735039933
2940000000.0 -0.28198471173779166 0.0914313464853734
2960000000.0 -0.11045895145289526 0.27657871759211167
2980000000.0 -0.06839700145679545 0.29245862550999624
3000000000.0 -0.2969297396484552 0.05171269235940186
3020000000.0 -0.13487455673391557 -0.2726076340024685
3040000000.0 0.3003529157866739 0.03504500411623897
3060000000.0 -0.2448234337451135 0.17909248055249208
3080000000.0 0.19079034112695445 -0.23196173386090507
3100000000.0 -0.037829142048352575 0.2937220362848159
3120000000.0 -0.100845266197436 -0.2717132148450083
3140000000.0 0.2789736973390779 0.027629310970168082
3160000000.0 -0.16762958818887375 -0.2061809003366971
3180000000.0 0.24320645224232493 -0.05390418285551682
3200000000.0 0.060017096158818554 0.21748901982897945
3220000000.0 -0.18287435017945308 0.07668577563316713
3240000000.0 -0.007749069463152437 -0.16617045027469993
3260000000.0 -0.043312206833931985 0.1260188098271905
3280000000.0 0.10081179162725468 0.012923401815085821
3300000000.0 0.06448571303685285 -0.03639129067164528
3320000000.0 0.015109811988061479 0.04822339130719051
3340000000.0 -0.024623123695475296 -0.017756732116056526
3360000000.0 -0.013245957997007625 -0.00506742660434911
3380000000.0 -0.0008489944476875868 0.004161678236539795
3400000000.0 -0.010854531749181016 -0.015144685897561946
3420000000.0 0.023890003809796213 0.02578337258289972
3440000000.0 0.027230025953944997 0.03987973208911197
3460000000.0 -0.020580421707038655 -0.0535559525574289
3480000000.0 -0.06401929009917375 0.02251190444535297
3500000000.0 -0.013010251005420454 0.07730816088010983
3520000000.0 0.07387276753121542 0.05342008189474996
3540000000.0 0.019780377870859688 -0.10212269346385508
3560000000.0 -0.11568333780105272 0.013053463594058158
3580000000.0 0.07219280428656273 0.10978878659568495
3600000000.0 -0.15301583751980358 0.012610329476620786
3620000000.0 -0.15232666314784096 -0.06799652382504588
3640000000.0 -0.1461932408746171 -0.10789210218484938
3660000000.0 -0.17661307259651232 -0.07479455267955237
3680000000.0 -0.18962061274683575 -0.05196138729653465
3700000000.0 -0.1922608934448391 -0.02856616948660805
3720000000.0 -0.062395052450780704 -0.18102175919097768
3740000000.0 0.046757632094087016 -0.17713231892830453
3760000000.0 -0.16165017504058718 0.06694684524887275
3780000000.0 0.12755912240004463 0.1044462825343243
3800000000.0 0.1322356762807614 0.08397886215783687
3820000000.0 0.10425524635487995 0.11138975061204684
3840000000.0 -0.06027401335986919 0.13859185069085067
3860000000.0 -0.1259755694246729 0.09033352307129584
3880000000.0 0.07112607287609507 0.14499465366899708
3900000000.0 0.015133466537493052 -0.1630202316664732
3920000000.0 -0.12269835201948734 0.10985583507685769
3940000000.0 0.0864861126568638 -0.14324087517862338
3960000000.0 0.13135751565577763 0.10792404899366125
3980000000.0 0.16827301258104677 0.026054771103539653
4000000000.0 0.1517222491381555 0.058540662076345465
