!Created with skrf (http://scikit-rf.org).
# Hz S RI R 50.0 
!freq ReS11 ImS11
400000000.0 -0.6392581629504752 0.5944502016520966
420000000.0 0.3312648891237727 0.803347733402578
440000000.0 0.6776938207884057 -0.49499243350818056
460000000.0 -0.3402471600125462 -0.7158980180076071
480000000.0 0.4883899315238908 -0.5113156868719773
500000000.0 -0.2304127115548295 -0.5290404265346329
520000000.0 -0.3793575141967349 0.32023415793208343
540000000.0 0.3217364538490148 -0.2561296687653635
560000000.0 -0.3480195804159122 -0.11391025746614274
580000000.0 0.24583203666541434 0.23402472939316224
600000000.0 0.3233534215472674 -0.12490351125352109
620000000.0 -0.2183638747227918 0.286851380875695
640000000.0 0.2903926046885689 0.2636486817261613
660000000.0 0.148177032132309 -0.37555466829489187
680000000.0 0.3452225769713031 0.24783160695843323
700000000.0 0.09828458056554862 -0.4224397519105989
720000000.0 -0.33645722380650983 0.2635742519491555
740000000.0 0.23391495864609863 -0.33915865608822465
760000000.0 -0.37040186469389996 -0.12434280469070512
780000000.0 0.25111588047012395 0.256523288950907
800000000.0 0.10309344246609226 -0.3056229922556314
820000000.0 -0.2649995845475978 0.08426114267537642
840000000.0 -0.06959579234383122 0.2299637313404292
860000000.0 -0.19502329529214105 -0.0596906577663865
880000000.0 0.11879308435819357 0.10804710813399056
900000000.0 -0.03090408598986681 0.11070415585039634
920000000.0 -0.050844455643408754 0.056557918672714896
940000000.0 0.041044788997398864 -0.015112816898789577
960000000.0 0.004818556360161392 0.04809908190037155
980000000.0 0.027122341367857353 0.06332467767435443
1000000000.0 0.015723797348631132 -0.08401808537236374
1020000000.0 0.07013021152702416 -0.07677611184162045
1040000000.0 0.1158205312380951 -0.035637486979162185
1060000000.0 0.12882235845333506 0.09093946826645931
1080000000.0 0.07216468782206631 0.16057842756081747
1100000000.0 -0.07137598729775026 -0.1874294268175297
1120000000.0 0.054447607532830886 0.2149403848474582
1140000000.0 0.23332357739599602 -0.10320617717996464
1160000000.0 -0.09105570119194208 -0.2678588056318946
1180000000.0 0.04714353281355158 -0.3126797190769884
1200000000.0 0.31122415194822306 -0.13569371521636495
1220000000.0 -0.2998546373874656 0.20726345421121273
1240000000.0 0.3575867517744417 0.14273423507995828
1260000000.0 -0.1291977573555802 -0.3862581087294438
1280000000.0 -0.4184098973595196 0.06820921300772091
1300000000.0 0.3050679480668843 0.3098332686081572
1320000000.0 0.4248748563262826 0.10044452444133867
1340000000.0 0.43051992907448233 -0.0731713906280616
1360000000.0 0.43946093335995384 -0.006274780833142341
1380000000.0 0.183073064507518 -0.39558516572884733
1400000000.0 -0.3876835214038672 -0.18290877391579077
1420000000.0 0.01224689449654215 0.4097930052610263
1440000000.0 0.3828625605115453 -0.0253664703643789
1460000000.0 0.042602870641634795 -0.351225375331907
1480000000.0 -0.3174533735894645 -0.04962425745979655
1500000000.0 -0.1757031262292271 0.22911923928903602
1520000000.0 0.040888108819871996 0.25715132259785356
1540000000.0 -0.12729390325161405 -0.19184461289265095
1560000000.0 0.12962873512229 -0.14667864270751316
1580000000.0 0.14782909719906281 0.07805519711070597
1600000000.0 0.10766580358653004 -0.07710214807857917
1620000000.0 0.07191858058061845 -0.07430894105820085
1640000000.0 0.0638721187805816 0.04338923245006612
1660000000.0 -0.049930683275394766 0.019221567826050872
1680000000.0 0.03358689456124643 0.004373805385898166
1700000000.0 0.00564229510838941 -0.019947272959319272
1720000000.0 -0.0034893787352863856 -0.0036373777392347895
1740000000.0 -0.003452310174792637 0.01506459932553748
1760000000.0 0.009776255771207196 -0.03108684902959502
1780000000.0 0.05941881749846871 0.011226352636706245
1800000000.0 -0.07501046097450385 0.052168217944616936
1820000000.0 -0.07494032757335321 0.09699497911539204
1840000000.0 0.11163770182069627 -0.11610803789571131
1860000000.0 -0.19266664867769162 0.05041632816248394
1880000000.0 0.23361484246220526 -0.05355220051103997
1900000000.0 -0.26954246549756455 0.08798397979918697
1920000000.0 0.29010907729538116 -0.1316501182912019
1940000000.0 -0.35210370152349096 -0.005247814301619691
1960000000.0 0.29232448906283426 0.24168341282856906
1980000000.0 0.00041808713009704315 -0.397702953631933
2000000000.0 -0.36998537708032225 -0.18667382742844377
2020000000.0 -0.26964610127543515 0.32795317426442605
2040000000.0 0.019098478859887278 0.43006471261354273
2060000000.0 0.37733554618552684 0.21034754107276854
2080000000.0 0.4150787037577365 -0.10957083135660065
2100000000.0 0.32530957637327607 -0.26848896843514786
2120000000.0 0.1081003984459167 -0.39794869983265174
2140000000.0 0.001214914206530296 -0.4009542763580904
2160000000.0 0.353440830926721 -0.1563633263525736
2180000000.0 0.24409405934938258 -0.28123740701314026
2200000000.0 -0.012214921245810957 -0.35974090997405844
2220000000.0 -0.275273114685322 -0.21296527415500466
2240000000.0 -0.3242347394486854 0.10845956458462994
2260000000.0 -0.18054719847921574 0.28739568144054395
2280000000.0 0.011081148441225448 0.3427203005123631
2300000000.0 0.3337318719336354 0.11915004133289162
2320000000.0 0.16495703671841716 -0.33861061005985527
2340000000.0 -0.32929973129032264 -0.24017509538258977
2360000000.0 -0.03129467064771435 0.4474295993788615
2380000000.0 0.28861278003150714 -0.40630052021478075
2400000000.0 -0.32593348386598375 0.4445611229087185
2420000000.0 0.1617863523744335 -0.5833478960581024
2440000000.0 0.2057656985451845 0.6229464280477366
2460000000.0 -0.5893945928519743 -0.37529024096657904
2480000000.0 0.7266256044245274 0.09631323848063773
2500000000.0 -0.7551990542065853 -0.020943146386394308
2520000000.0 0.7464702747562958 0.18376380539466092
2540000000.0 -0.6225171796778336 -0.4564162522569962
2560000000.0 0.22269335624047043 0.7345226863368863
2580000000.0 0.43945902069549786 -0.6126474128084938
2600000000.0 -0.7278867307012913 0.05366219149352783
2620000000.0 0.5393711158356095 0.4458464406885379
2640000000.0 0.6607382183774492 0.05616851134017902
2660000000.0 -0.4152551197293703 -0.4568547736510904
2680000000.0 0.007008611659701514 0.5702428074977633
2700000000.0 0.24765954720009353 -0.45914168934765087
2720000000.0 -0.37310968103043024 0.2896471304260946
2740000000.0 0.4231307262318813 -0.05514467287254716
2760000000.0 -0.3861234305207049 0.008950330947366263
2780000000.0 0.34857473830288455 -0.07085540191661395
2800000000.0 -0.22520103524466845 0.24206731890137187
2820000000.0 -0.14668773242879946 -0.2773851354343634
2840000000.0 0.30222906633487684 0.010882541857930163
2860000000.0 -0.157594934996718 0.25528175059399616
2880000000.0 -0.14435070308458975 -0.2630539750784739
2900000000.0 0.22024512162564025 0.20652070129216166
2920000000.0 -0.012702951433565968 -0.3051950907119146
2940000000.0 -0.30964243895379817 -0.02292923978469924
2960000000.0 -0.1844885719776419 0.25466752741079596
2980000000.0 -0.18990347549985342 0.25477852176517124
3000000000.0 -0.3164883284097716 0.04032108039602311
3020000000.0 -0.026391364847633287 -0.31870915567635477
3040000000.0 0.3076940355047501 0.07769432142842364
3060000000.0 -0.314404177388152 0.0067324124368760094
3080000000.0 0.3062136131685856 -0.04578161305240028
3100000000.0 -0.3018006880739344 0.035318846587706954
3120000000.0 0.2756156201053396 -0.11258837784430527
3140000000.0 -0.16908723897491204 0.23309197440481477
3160000000.0 -0.06490799434074879 -0.2662357228319529
3180000000.0 -0.17594017391585218 0.18754900313991918
3200000000.0 -0.14108492760570537 -0.18582735169372316
3220000000.0 0.1685155638610578 -0.11906110192683059
3240000000.0 0.03276243770090309 0.17255649512106064
3260000000.0 -0.1124437692601876 -0.08765865748510782
3280000000.0 0.045606210321984655 0.10093575394043762
3300000000.0 -0.04804678571750086 -0.06404062603646393
3320000000.0 -0.019430530138408158 0.04925234199761006
3340000000.0 -0.008733610594258107 0.026673051450628586
3360000000.0 0.0005807125530176724 -0.008447449310987011
3380000000.0 0.007835684860704704 -0.0023270096650687584
3400000000.0 0.021354719997226435 -0.006296994605940629
3420000000.0 0.010155927781388156 -0.0333178478612241
3440000000.0 -0.03977424056624027 0.021419149607145235
3460000000.0 -0.03783254009985865 -0.0398154026750987
3480000000.0 0.049117406243350765 -0.043582622938743744
3500000000.0 -0.0333564827772204 -0.072325113343037
3520000000.0 -0.08629357087097717 -0.03662498130131787
3540000000.0 0.0996605666308874 -0.04236626711005563
3560000000.0 -0.08571175352175049 0.0888827643819614
3580000000.0 0.020909817420581605 -0.13620045771028205
3600000000.0 0.15250781704911306 -0.01844450827913153
3620000000.0 0.08670037127643235 0.14058106850904845
3640000000.0 -0.11291707688257081 0.13482206575388672
3660000000.0 -0.18406956217039025 0.02141099813839019
3680000000.0 -0.17371825914162803 -0.07747737977184627
3700000000.0 -0.14206048128756446 -0.1274274798657486
3720000000.0 0.05087248540712395 -0.1829135539528364
3740000000.0 0.11737624781786898 -0.14293586989856108
3760000000.0 -0.14164480954652134 0.10960907704642572
3780000000.0 0.13136034235167107 -0.10633596382406536
3800000000.0 -0.11340115136166228 -0.11539583753577189
3820000000.0 -0.1482773382374429 0.041913472302591605
3840000000.0 -0.14588853206080957 -0.018098830823353552
3860000000.0 0.11301286533720512 -0.09239328123737976
3880000000.0 0.12612651723565058 -0.08239455206264978
3900000000.0 -0.0021392568991348854 -0.15717331861620826
3920000000.0 -0.0698036619605279 0.14563170017319768
3940000000.0 -0.014930878492425855 -0.16574745445785535
3960000000.0 0.1410984492315724 -0.09857914074566708
3980000000.0 0.07173522413593918 -0.1583043142890557
4000000000.0 0.12106688278735422 -0.11658406246433987
