!Created with skrf (http://scikit-rf.org).
# Hz S RI R 50.0 
!freq ReS11 ImS11
400000000.0 -0.6182910290953775 0.6142222661044572
420000000.0 0.36511312482499 0.7865383673508434
440000000.0 0.6818309252169311 -0.4877510372584138
460000000.0 -0.4019402963267673 -0.6820774906413748
480000000.0 0.5065796993753222 -0.4914227945292815
500000000.0 -0.2612731493246931 -0.5162293463193626
520000000.0 -0.34897152624749084 0.3514208384374444
540000000.0 0.3238619415071374 -0.24983715286040478
560000000.0 -0.3023518026576019 -0.2076686900049784
580000000.0 0.3017510832113565 0.15790169413905
600000000.0 0.3150110589960089 -0.14371057222377118
620000000.0 -0.25426258852890116 0.25608836693152065
640000000.0 0.24963694229395325 0.30435716263276175
660000000.0 0.13313519737477902 -0.38274628686230017
680000000.0 0.31762166446857115 0.28208267346016475
700000000.0 0.125045279526298 -0.41498650167735995
720000000.0 -0.36258777659657215 0.2270622118964165
740000000.0 0.24374819492802838 -0.3323148368390644
760000000.0 -0.36575195313740566 -0.13901988823736014
780000000.0 0.22830763817107963 0.2756529605595796
800000000.0 0.07789278140847229 -0.31253080385835386
820000000.0 -0.2524756280505303 0.11356513741377729
840000000.0 -0.032806182626741766 0.23787120934110023
860000000.0 -0.19738256598955473 -0.04637806844853087
880000000.0 0.15146879337486396 0.052982709870592094
900000000.0 0.04668059638076446 0.1055867875969691
920000000.0 -0.019368211223657585 0.07566477175483818
940000000.0 0.018568966337950597 0.0404229337564915
960000000.0 -0.023747721044669164 -0.04165378615474465
980000000.0 -0.02205512618877138 0.06322826183233612
1000000000.0 -0.011165160200796664 -0.0824779319649682
1020000000.0 0.007965174303776022 -0.10181172921373152
1040000000.0 0.06008126535921354 -0.10390283490966706
1060000000.0 0.15726062803055502 -0.011784361933483152
1080000000.0 0.15669226559039207 0.08184499937679207
1100000000.0 -0.12360330828719789 -0.16014603086021026
1120000000.0 0.11102639807008903 0.19470885130949714
1140000000.0 0.2462019411058278 -0.07798035431403284
1160000000.0 -0.021602329314078624 -0.284853548807813
1180000000.0 0.15924350636782236 -0.2760377805933807
1200000000.0 0.34144442840341266 0.013355202907675202
1220000000.0 -0.36125522886922173 0.06002404693101131
1240000000.0 0.2529847326234848 0.2919800479004396
1260000000.0 0.02849098138825175 -0.40735006336703
1280000000.0 -0.4207324918262835 -0.053737592185245986
1300000000.0 0.23298035358792665 0.3663887448301881
1320000000.0 0.3979850445703455 0.17841886729970263
1340000000.0 0.4349419543806998 -0.023011603428102257
1360000000.0 0.43809888247023687 -0.014283895466082549
1380000000.0 0.17475897065556964 -0.3980409228141924
1400000000.0 -0.40013525140367734 -0.15087520340874308
1420000000.0 0.07999499101149186 0.40192536735840295
1440000000.0 0.36350060460607314 -0.12132477566001906
1460000000.0 -0.03721815112078675 -0.3523485280581949
1480000000.0 -0.31309866735863695 0.0761865201496167
1500000000.0 -0.10545704214534997 0.27044335356012644
1520000000.0 0.10595815406496469 0.2401589517184658
1540000000.0 -0.14926502045852097 -0.1787678597747571
1560000000.0 0.13283167009508495 -0.14758152850090436
1580000000.0 0.08909114439507658 0.14412881225992855
1600000000.0 0.13371444680397673 0.015640807376233825
1620000000.0 0.088127702773238 0.05644224774940024
1640000000.0 -0.06755425082484218 0.03736995756734496
1660000000.0 0.026796984796747088 -0.04516458718456403
1680000000.0 -0.009480402892663008 0.031326348753771806
1700000000.0 0.019067932638603267 0.0026205593622344405
1720000000.0 0.002640660002647837 0.003340845322070617
1740000000.0 0.012546199014109825 0.010639196133815202
1760000000.0 -0.0322143439240926 0.005939029799013772
1780000000.0 -0.052120880985366054 0.03076933828783153
1800000000.0 -0.057750591654874325 -0.06962161292818064
1820000000.0 -0.116628567875119 -0.03441592246365575
1840000000.0 0.15871023533479786 -0.01518421567208602
1860000000.0 -0.19643879886997317 -0.014413931429332396
1880000000.0 0.23634131770796743 -0.026580343575408918
1900000000.0 -0.27153514441917037 0.07496067750918436
1920000000.0 0.27168099508990473 -0.16373022312075472
1940000000.0 -0.34726553830396123 0.053865683416903114
1960000000.0 0.34115267992001896 0.1659094333710632
1980000000.0 -0.08847090993866916 -0.3885126104734692
2000000000.0 -0.399112510642172 -0.11553164583109961
2020000000.0 -0.21623402325222657 0.36747748192460744
2040000000.0 0.04262114374757562 0.4304103157607659
2060000000.0 0.38705453323115074 0.19695428450928043
2080000000.0 0.4211709414652469 -0.09438222588254126
2100000000.0 0.33006230901222017 -0.266784574608926
2120000000.0 0.16991072049548236 -0.3780445914462866
2140000000.0 0.10127281083668177 -0.39030972604666586
2160000000.0 0.38743442098443587 -0.031736975153711176
2180000000.0 0.3283746141954391 -0.17993629081408408
2200000000.0 0.10844899359742742 -0.3447090575048776
2220000000.0 -0.16118270682373353 -0.3102776519206497
2240000000.0 -0.3410655859092863 -0.03107994575744494
2260000000.0 -0.28587660783679747 0.18510330869659233
2280000000.0 -0.11360285524111727 0.3241787016726333
2300000000.0 0.2724913181541916 0.22778378247062792
2320000000.0 0.25146971344910896 -0.28006059936188804
2340000000.0 -0.27811122226612967 -0.2981184172306686
2360000000.0 -0.10598990787620058 0.4361395414696954
2380000000.0 0.34385191587834874 -0.3610104799842121
2400000000.0 -0.3723294221221411 0.4067693872762883
2420000000.0 0.19535493763006545 -0.573686731848588
2440000000.0 0.19935680993884908 0.6254570494016308
2460000000.0 -0.5905565622642467 -0.37512808166237005
2480000000.0 0.7245337758353431 0.11813299164822826
2500000000.0 -0.7562234248535633 -0.027949177440499625
2520000000.0 0.7567599122970616 0.14148091189877654
2540000000.0 -0.6053927696287595 -0.4818481451118485
2560000000.0 0.2137941811034394 0.7391114011207143
2580000000.0 0.4847427542554332 -0.5802202943633125
2600000000.0 -0.7274624770223116 0.08431419907560041
2620000000.0 0.5155355960149975 0.477475728548346
2640000000.0 0.6562295848154726 0.11373505643849534
2660000000.0 -0.3910210284747875 -0.482305852758745
2680000000.0 -0.03335013469008077 0.5725547004466609
2700000000.0 0.26496184118809124 -0.4532883458374023
2720000000.0 -0.396847169481767 0.26236895314510106
2740000000.0 0.428071546319293 -0.04470855932278202
2760000000.0 -0.38978677788032784 -0.002772412981098915
2780000000.0 0.35250469706056625 -0.06755260079338077
2800000000.0 -0.245450469492347 0.22620056411220182
2820000000.0 -0.15042211570877703 -0.2785005892392613
2840000000.0 0.30385139956247936 0.026875588615353656
2860000000.0 -0.1877969736656296 0.23646892660057237
2880000000.0 -0.09636445201078765 -0.2859497912808575
2900000000.0 0.19746778311825708 0.23058911386377526
2920000000.0 0.05721215354682882 -0.301434127327682
2940000000.0 -0.2992559791462597 -0.08551489512762263
2960000000.0 -0.24025727545315692 0.2043291394965051
2980000000.0 -0.27760960788494354 0.15690891351838043
3000000000.0 -0.29697463960159953 -0.11713854299700327
3020000000.0 0.06050132350693809 -0.3134222708769922
3040000000.0 0.24743757317195106 0.19738739753396112
3060000000.0 -0.3085245277662296 -0.05471206986018088
3080000000.0 0.3081219857397653 -0.0015445131808549967
3100000000.0 -0.3025654558019883 0.00203625462271639
3120000000.0 0.2809717974488633 -0.0944886497906476
3140000000.0 -0.17267941006180226 0.2285088763529292
3160000000.0 -0.059182356585301396 -0.26501537916690904
3180000000.0 -0.10048483443482034 0.2347208257034232
3200000000.0 -0.20897661361943096 -0.09784777503097912
3220000000.0 0.08229318873299535 -0.18640876373213486
3240000000.0 0.14230067401769939 0.0984976443756322
3260000000.0 -0.13303637251645656 0.04578067779739652
3280000000.0 0.0886880347702824 -0.06358011664472082
3300000000.0 -0.038081563609882796 0.06891192390384394
3320000000.0 0.013865825848795248 -0.049616393390784226
3340000000.0 0.012690590837139816 0.024150569164066604
3360000000.0 0.00864737427165689 0.0028603942027799916
3380000000.0 -0.007673568385008062 0.004867976558106718
3400000000.0 0.003971502211612691 0.022063579686247194
3420000000.0 -0.0347285644375373 0.006176997453433672
3440000000.0 0.0377144271219545 -0.025433317131797795
3460000000.0 0.026231041151300455 0.04837407263726522
3480000000.0 0.01843491823888281 0.0630798343047085
3500000000.0 0.07989947600072836 -0.004684192665334463
3520000000.0 0.042344485504548404 -0.08397511182743853
3540000000.0 0.06370029491810202 0.08894367779860969
3560000000.0 -0.12421979935784729 -0.000973061073732982
3580000000.0 0.11549981901374178 -0.07406335318522381
3600000000.0 0.10964417004350548 0.10703568621268073
3620000000.0 -0.00020724297435581484 0.1653026271899018
3640000000.0 -0.15815248815284072 0.07827867709128199
3660000000.0 -0.1803668389028317 -0.04203889530106322
3680000000.0 -0.13983369506216614 -0.12891118706465807
3700000000.0 -0.09252924606467255 -0.16566589752977043
3720000000.0 0.08469949590706807 -0.16886745582806176
3740000000.0 0.16893672948895735 -0.07236688930223696
3760000000.0 -0.1648243415136366 0.06562720850298262
3780000000.0 0.1605537152797504 -0.04904622672621646
3800000000.0 -0.045559463264260025 -0.1543850096169812
3820000000.0 -0.15275491643063038 -0.005234842335119594
3840000000.0 -0.12442755478157135 -0.07526039424382537
3860000000.0 0.13241601307270015 -0.05923188001014453
3880000000.0 0.14852431052284085 -0.01777219826764533
3900000000.0 0.06781798012830571 -0.14049239815477307
3920000000.0 -0.12980264653232051 0.09403916574433002
3940000000.0 0.035465882423602865 -0.16154724485100264
3960000000.0 0.17103073003713276 -0.001172511616537273
3980000000.0 0.11528252879581903 -0.12688243535099777
4000000000.0 0.118574447372791 -0.11628142085914382
