!Created with skrf (http://scikit-rf.org).
# Hz S RI R 50.0 
!freq ReS11 ImS11
400000000.0 -0.6383224613846228 0.5915089535716977
420000000.0 0.3421625744213981 0.7969165632665718
440000000.0 0.6852031709891812 -0.48350620485581686
460000000.0 -0.38376971018631106 -0.6922074651543139
480000000.0 0.4928210202748553 -0.5054085413041737
500000000.0 -0.25705761766018886 -0.5187356320105483
520000000.0 -0.33363443019451 0.3666568132204153
540000000.0 0.3062228728987773 -0.27081807898563515
560000000.0 -0.30077232351478383 -0.20946590537859794
580000000.0 0.2870743452477226 0.18249393952714243
600000000.0 0.31935741212575836 -0.13474146125851627
620000000.0 -0.23007958221930416 0.27811851803653387
640000000.0 0.25990796245839826 0.2953845061924744
660000000.0 0.17500492132382525 -0.36562841327285384
680000000.0 0.33517205180331655 0.2602501161856675
700000000.0 0.12341260861881592 -0.4152802940615289
720000000.0 -0.3511420367212871 0.24442604268878487
740000000.0 0.25377994329506876 -0.32481684200978317
760000000.0 -0.36811534037811167 -0.13098699108511733
780000000.0 0.22736808750154594 0.2766245657854878
800000000.0 0.07730420476668466 -0.31263726347281684
820000000.0 -0.253391392729285 0.11159952390685132
840000000.0 -0.026706942711868797 0.2388150999188653
860000000.0 -0.1971412412493186 -0.04860798279313365
880000000.0 0.15263542918065368 0.048880036472934305
900000000.0 0.040288721476399565 0.10780033188762758
920000000.0 -0.02732462338394333 0.07284098302430439
940000000.0 0.022849871720707047 0.03817081946628011
960000000.0 -0.022336652703306325 -0.042446270460592773
980000000.0 -0.033497022583378125 0.05794309985162483
1000000000.0 -0.0006342206261909461 -0.08348736261383044
1020000000.0 0.03245872354679611 -0.09698207063412254
1040000000.0 0.06337396855778832 -0.10180330907630787
1060000000.0 0.15737319259886146 0.013023558210733623
1080000000.0 0.1484200147576987 0.09586886518016943
1100000000.0 -0.1169546272763748 -0.16464055784412432
1120000000.0 0.11935530227212617 0.18946346628094857
1140000000.0 0.23738109479539574 -0.10089298728063331
1160000000.0 -0.031235576101878132 -0.2835899900687027
1180000000.0 0.1698556164362014 -0.26883089703233637
1200000000.0 0.33706413702698584 0.05315912909599591
1220000000.0 -0.36577671879750634 0.003093322662051334
1240000000.0 0.2505245272965325 0.2940637553753089
1260000000.0 0.04456003212568669 -0.4058652163317225
1280000000.0 -0.41577839103477726 -0.08388090315452855
1300000000.0 0.21912695248730815 0.37497340390147865
1320000000.0 0.3960606905177297 0.18257588211350614
1340000000.0 0.43511376037572225 -0.024038376460798143
1360000000.0 0.4380728723992123 0.014646373937881745
1380000000.0 0.19602185098757155 -0.38797407303937437
1400000000.0 -0.3977585463208255 -0.15668363678357752
1420000000.0 0.07270266118140595 0.4030153438766313
1440000000.0 0.3719838500610599 -0.09319108237389126
1460000000.0 -0.032478623729352854 -0.3525465807541719
1480000000.0 -0.3214627528600979 0.02721425773731794
1500000000.0 -0.10776510367641981 0.2695647105679627
1520000000.0 0.10440281123609121 0.240555819189527
1540000000.0 -0.14504811207377807 -0.18187736202511193
1560000000.0 0.13759911260199736 -0.14329724339448388
1580000000.0 0.10540064346208741 0.13257276924793054
1600000000.0 0.13325451655249929 -0.017940079383131486
1620000000.0 0.10425068843740097 0.010589260628666285
1640000000.0 -0.04549621488242305 0.0630416488244687
1660000000.0 0.026848634117899797 -0.045770864932226464
1680000000.0 -0.012156445585575238 0.03028195909643719
1700000000.0 0.00411040031747859 0.019023913548860617
1720000000.0 -0.0015263009010567682 -0.004087597548257436
1740000000.0 0.014875310369488625 0.0057510219216602475
1760000000.0 -0.0004373918415588218 0.033326118449621925
1780000000.0 -0.04662055947536047 0.0391002615338551
1800000000.0 -0.06768085323341365 -0.06093209937506311
1820000000.0 -0.12033639341576173 -0.016501045638470782
1840000000.0 0.15838740219989686 -0.020219111522921718
1860000000.0 -0.19427328104759758 -0.03458396334974632
1880000000.0 0.23559708454074732 -0.032656448383337526
1900000000.0 -0.27369575705522925 0.06765759272991861
1920000000.0 0.274342607445333 -0.1589120149381437
1940000000.0 -0.34766409199981424 0.04980566681354338
1960000000.0 0.3345526927416175 0.17791044259154237
1980000000.0 -0.07943832880186262 -0.3900630660668052
2000000000.0 -0.40280604575549617 -0.10019487364968989
2020000000.0 -0.19839767742363068 0.37724258588578524
2040000000.0 0.09026072201207128 0.4227471757918716
2060000000.0 0.39292859099531435 0.18539600214119645
2080000000.0 0.4158703668620909 -0.11649532886860187
2100000000.0 0.3325107943004036 -0.26424975102226134
2120000000.0 0.16937357969426944 -0.37887355486304664
2140000000.0 0.08709987220167802 -0.39455486702599996
2160000000.0 0.38702062334227016 -0.0384356431472037
2180000000.0 0.32490036765180014 -0.18638999626608885
2200000000.0 0.12881797670679546 -0.33763780515089753
2220000000.0 -0.16931271798202382 -0.30630972032349135
2240000000.0 -0.34013937442823233 -0.04825891176707622
2260000000.0 -0.27831339556929535 0.19672012533908567
2280000000.0 -0.12924069913950895 0.31809861728624705
2300000000.0 0.2680675166882185 0.2330159872221128
2320000000.0 0.26501977857237646 -0.2675595474465225
2340000000.0 -0.2730524403987216 -0.30299483626386553
2360000000.0 -0.13012352394598548 0.4293797985261622
2380000000.0 0.3574121016726698 -0.3473399812853616
2400000000.0 -0.38036636165969917 0.3992834214895755
2420000000.0 0.18117057484906438 -0.5780733732662736
2440000000.0 0.2094977720774484 0.6222994249157366
2460000000.0 -0.5953531951808133 -0.3675812588820175
2480000000.0 0.7328391287902024 0.03985932125116
2500000000.0 -0.755621129111778 -0.046041865785623595
2520000000.0 0.7596320195755097 0.12791349035049265
2540000000.0 -0.6337866810738664 -0.4435268929695945
2560000000.0 0.20862047535025793 0.7408814344125699
2580000000.0 0.4798612762972248 -0.5842535751149416
2600000000.0 -0.7279383204267984 0.08405954337989105
2620000000.0 0.5241984512110011 0.4678901798216509
2640000000.0 0.6566551259054634 0.11436968824517278
2660000000.0 -0.3837394483345027 -0.4883720169605993
2680000000.0 -0.0023924598739470115 0.5739270290420255
2700000000.0 0.25202787307590907 -0.460501465842439
2720000000.0 -0.3861870371997215 0.2780277381170439
2740000000.0 0.4261483725982693 -0.05989823827768278
2760000000.0 -0.3891373286587258 -0.006567721372366268
2780000000.0 0.34968415809401815 -0.08003549046592952
2800000000.0 -0.22667822698433787 0.24452588461312025
2820000000.0 -0.12885562585110413 -0.2890093426386519
2840000000.0 0.299474564456191 0.058003011224667875
2860000000.0 -0.2061194177986755 0.22068387730688568
2880000000.0 -0.07169582856398664 -0.29319361466720517
2900000000.0 0.155983480995494 0.26019316497436773
2920000000.0 0.0788587321538271 -0.2956851088800093
2940000000.0 -0.30592437213154067 -0.05483904420024743
2960000000.0 -0.2389336022376522 0.2048950856397494
2980000000.0 -0.2704014246281521 0.16803705838508814
3000000000.0 -0.30493799787051173 -0.09553300560226875
3020000000.0 0.06078347714417643 -0.31346400182929035
3040000000.0 0.26904788650958206 0.16671964492070174
3060000000.0 -0.31122496989414333 -0.034542015482825816
3080000000.0 0.30782373110229677 -0.0013769717303616274
3100000000.0 -0.3016644131382555 -0.01153765029580446
3120000000.0 0.2314968187002438 -0.185286301920738
3140000000.0 -0.09555318393905603 0.269922505078122
3160000000.0 -0.10552520332979858 -0.25049574505003835
3180000000.0 -0.07447417325445167 0.24467043114958126
3200000000.0 -0.22389288001923585 -0.05817338098521209
3220000000.0 0.025359963438725364 -0.20259222127351686
3240000000.0 0.16040753628524224 0.06786649177098392
3260000000.0 -0.12333735769163168 0.06900594716898249
3280000000.0 0.07956596165584766 -0.07536379868202935
3300000000.0 -0.052253091705362936 0.05972559880713355
3320000000.0 0.024486907350151473 -0.046133172749792686
3340000000.0 0.012055409050211406 0.02526773431042097
3360000000.0 0.00843810453044568 -0.004046050588275358
3380000000.0 -0.007621603491179189 -0.004365667254113826
3400000000.0 0.009668407380003586 0.01978377363323714
3420000000.0 -0.034480728815527995 0.007333752855258983
3440000000.0 0.04539961473617839 -0.0034435264285502024
3460000000.0 0.045116276474884476 0.03131026506290289
3480000000.0 0.026060725821773534 0.05993538802680179
3500000000.0 0.06417761013873485 -0.04724628138860571
3520000000.0 0.011872432840091603 -0.09311663667855917
3540000000.0 0.10407737217424108 0.03499320105078193
3560000000.0 -0.1244416899355911 0.002937358452944704
3580000000.0 0.11376994458726002 -0.07732275555898256
3600000000.0 0.1138170937385017 0.10313964579457119
3620000000.0 0.0010713463292782472 0.16493680499071015
3640000000.0 -0.14840319940855487 0.09476487226870135
3660000000.0 -0.17938847555651263 -0.04490511824833173
3680000000.0 -0.12050016757766407 -0.14671573488667167
3700000000.0 -0.07569887048045958 -0.17447930619191668
3720000000.0 0.10060779535799935 -0.1604169608912545
3740000000.0 0.17124319137417976 -0.06779067095273619
3760000000.0 -0.16804941807663065 0.057822576848015395
3780000000.0 0.16104303140136914 -0.047924505053728236
3800000000.0 -0.039138979461663455 -0.1553261655094111
3820000000.0 -0.15101230047003814 -0.022737225452139125
3840000000.0 -0.13199313469743157 -0.059662901233677415
3860000000.0 0.13575343811776916 -0.05070203658529143
3880000000.0 0.14603201146784048 -0.030871624776550446
3900000000.0 0.03270603735389081 -0.15251633876872406
3920000000.0 -0.10044277412344309 0.12468749427320686
3940000000.0 0.03765484955359115 -0.16111928222450891
3960000000.0 0.16136361239739677 -0.05605478094573907
3980000000.0 0.058170809896993865 -0.16122916192930123
4000000000.0 0.0942172748272549 -0.1370961900090128
