!Created with skrf (http://scikit-rf.org).
# Hz S RI R 50.0 
!freq ReS11 ImS11
400000000.0 -0.6423527172075848 0.5890778938040043
420000000.0 0.35650549064229103 0.7912766173725193
440000000.0 0.6933829531526629 -0.4720508792964325
460000000.0 -0.36275071433065004 -0.704587988985286
480000000.0 0.4766004675694179 -0.5219400152202358
500000000.0 -0.26888719192243105 -0.5111738718099497
520000000.0 -0.3857517670792239 0.3120450284229157
540000000.0 0.3436900124296155 -0.2262862582953102
560000000.0 -0.3575528924376795 -0.08247811119259915
580000000.0 0.2976299930042602 0.16259844529175452
600000000.0 0.3348593174409485 -0.09112515982261736
620000000.0 -0.23784725563845588 0.27301711723035893
640000000.0 0.27508815412187826 0.28090339638754963
660000000.0 0.23288212859817292 -0.33098605530461755
680000000.0 0.3084063430942438 0.29227069843562287
700000000.0 0.16590359788291917 -0.4011069597715662
720000000.0 -0.37257115952228786 0.2086204088668002
740000000.0 0.2852936089116727 -0.29724873759603304
760000000.0 -0.3686689438747374 -0.12746747118140678
780000000.0 0.26131329486524946 0.24524270632862913
800000000.0 0.0936597209732132 -0.30782856732283487
820000000.0 -0.25282182467407605 0.11456934629717419
840000000.0 -0.006025916054095476 0.23985075118844645
860000000.0 -0.20359900913963982 0.01109288456361758
880000000.0 0.15717878941583413 0.037254061692550466
900000000.0 0.03601839225857576 0.11107844308512922
920000000.0 -0.06100153063032764 0.04919060359669755
940000000.0 -0.01366113184242739 0.043120114253162596
960000000.0 -0.04409956271705449 -0.018113852374173265
980000000.0 -0.035729892019555155 0.056829786833624475
1000000000.0 0.0015342637248525555 -0.08369078874386389
1020000000.0 0.018216399893520377 -0.10115914155893957
1040000000.0 0.04514249036716385 -0.11162896592594836
1060000000.0 0.1571939813970437 -0.013560637785466874
1080000000.0 0.1447034949077533 0.10256951779365317
1100000000.0 -0.12293674906919884 -0.16160301001141475
1120000000.0 0.06919555597261849 0.2134812711229695
1140000000.0 0.2432375286922004 -0.08603384500653519
1160000000.0 0.012730894585811848 -0.2852801534145032
1180000000.0 0.16456884345338968 -0.27308820462710665
1200000000.0 0.34050706775252754 0.024369226173282153
1220000000.0 -0.3614841497022978 0.05476907928577649
1240000000.0 0.263882816990419 0.28123233893407934
1260000000.0 0.019265905696889202 -0.4067837933409097
1280000000.0 -0.4177121719904633 -0.06917318457176862
1300000000.0 0.23385518526901627 0.3652151999286253
1320000000.0 0.40150503248865077 0.16774660111046463
1340000000.0 0.4321129123970068 -0.052432435147955744
1360000000.0 0.43803569189785385 -0.012670630540628437
1380000000.0 0.1483159673374955 -0.4086792092009143
1400000000.0 -0.41418934014508474 -0.10751323191986555
1420000000.0 0.08236324046869296 0.401737922190021
1440000000.0 0.3603329559178242 -0.13230170151404191
1460000000.0 -0.048614135406530125 -0.35133033770790006
1480000000.0 -0.3193271242707461 0.04690654141381554
1500000000.0 -0.10086812421701397 0.27285259524011607
1520000000.0 0.10176281408257129 0.24207273168115398
1540000000.0 -0.14974617005116944 -0.17855312669682963
1560000000.0 0.14866216333594293 -0.13154790253127888
1580000000.0 0.10572450352270185 0.13246676638213245
1600000000.0 0.13249257138847287 0.02207062052922763
1620000000.0 0.09298063313602709 0.04764106930156567
1640000000.0 -0.05069454614972789 0.058371632405818864
1660000000.0 0.014251962916400865 -0.050785144280642035
1680000000.0 -0.02980897157913399 0.01308986819545279
1700000000.0 -0.018867110841153556 0.0015089268927987105
1720000000.0 -0.0030217329229652243 0.0030587732956524226
1740000000.0 0.004907169945356532 0.01593117467119901
1760000000.0 -0.031886328552085945 0.008580229160790454
1780000000.0 -0.036801464449798184 0.047899779985831004
1800000000.0 -0.08014872084259429 -0.04310449931504101
1820000000.0 -0.12129467612905076 0.007679438953759311
1840000000.0 0.15021197544426224 -0.05441261816393749
1860000000.0 -0.19753490363452017 -0.0075497236320219785
1880000000.0 0.23610666873281233 -0.030421291512849852
1900000000.0 -0.2672199402725881 0.09028144918876792
1920000000.0 0.26860476447319204 -0.16912107588859684
1940000000.0 -0.3471545586943527 0.05483986423566926
1960000000.0 0.3331887011809591 0.18096038790167895
1980000000.0 -0.0661834704802994 -0.39260546665091633
2000000000.0 -0.3843760674284432 -0.1578916764767814
2020000000.0 -0.17764607399728277 0.38681460643899207
2040000000.0 0.02822468293381563 0.43145312278721193
2060000000.0 0.38767537371422983 0.19510643879198653
2080000000.0 0.41483663573800245 -0.11834889135177261
2100000000.0 0.34565599065470587 -0.24590075367720857
2120000000.0 0.17670310841511383 -0.3751697226821313
2140000000.0 0.07893327479846926 -0.39506349624554477
2160000000.0 0.387223276718719 -0.029763684352659782
2180000000.0 0.32094263346180374 -0.19173102940844952
2200000000.0 0.10108506418445325 -0.3461344472837446
2220000000.0 -0.1898038013531196 -0.2922822025366594
2240000000.0 -0.34171391782437555 0.00788016097120032
2260000000.0 -0.23791491037104023 0.2418292557399095
2280000000.0 -0.07138159691312237 0.33475006160396137
2300000000.0 0.31109403104373323 0.16854963337911597
2320000000.0 0.21066919308688248 -0.31114844173506756
2340000000.0 -0.31636481373182523 -0.2559610440808051
2360000000.0 -0.041752371833201525 0.44572091337089426
2380000000.0 0.29084675241022057 -0.4039978303852275
2400000000.0 -0.3210764065576271 0.44763161391310113
2420000000.0 0.13590163234507696 -0.589868132922901
2440000000.0 0.22433810700974907 0.6170792526508392
2460000000.0 -0.5958273633074403 -0.366812864698743
2480000000.0 0.7309677085595475 0.0663347907736322
2500000000.0 -0.7456865909375575 -0.13291880907992043
2520000000.0 0.7248677331755434 0.26105641938546487
2540000000.0 -0.5833081636140907 -0.5081300125731901
2560000000.0 0.11764446634732824 0.7601012510910314
2580000000.0 0.4832385048861441 -0.5807188443245248
2600000000.0 -0.7272267150400116 -0.07973144074566113
2620000000.0 0.4300541864764816 0.5537615570533646
2640000000.0 0.6368349520520206 0.18929037857443728
2660000000.0 -0.2940820261904847 -0.544073301299357
2680000000.0 -0.08476929455032417 0.5648437165171598
2700000000.0 0.29892202270775864 -0.4283902810253782
2720000000.0 -0.4085444525249622 0.23789437341262876
2740000000.0 0.4266827381163163 0.012592949341875305
2760000000.0 -0.38603652686486867 -0.014921894888866792
2780000000.0 0.3491316006378494 -0.06881046058512888
2800000000.0 -0.22103545769109792 0.24617792499471566
2820000000.0 -0.16662646928670796 -0.26661346445248085
2840000000.0 0.30198332725884663 -0.02793743354316442
2860000000.0 -0.11642237647773795 0.27727399719525275
2880000000.0 -0.15716657454319422 -0.25711527308825
2900000000.0 0.24039548038336 0.1850001780711751
2920000000.0 -0.026034855326669586 -0.3057608325029571
2940000000.0 -0.3115694038804419 -0.010832667655007766
2960000000.0 -0.23533166062702407 0.21080464899417617
2980000000.0 -0.2597478970708627 0.1861157432280416
3000000000.0 -0.3167751603353983 -0.04223119065315876
3020000000.0 0.057161949336245216 -0.3151882380011498
3040000000.0 0.2308078323680758 0.21852888612157376
3060000000.0 -0.2992537376093484 -0.09819802889292154
3080000000.0 0.30473633918326337 0.053747480237042476
3100000000.0 -0.301968699900564 -0.030777864481232042
3120000000.0 0.29401709098757633 -0.0450491378329452
3140000000.0 -0.22035287989466962 0.18410441976094954
3160000000.0 0.005579954294473635 -0.27236501507110383
3180000000.0 -0.1985244501258931 0.16110886700664956
3200000000.0 -0.12729657933368735 -0.1938637355522215
3220000000.0 0.15159732088338967 -0.13771094537475181
3240000000.0 0.0717168423345576 0.1587688092925191
3260000000.0 -0.13564267560786397 -0.03882256609028286
3280000000.0 0.09934817839589248 0.04632550062397691
3300000000.0 -0.0720323868300123 0.0321153533711013
3320000000.0 0.051412096600562444 -0.008382657535070209
3340000000.0 -0.01699951384635209 -0.021703215797274942
3360000000.0 -0.004699590908929783 -0.007248469957967739
3380000000.0 0.004699301204470104 -0.007759720766757232
3400000000.0 0.015430581156107568 -0.01637291334950628
3420000000.0 -0.011528248578583205 0.03298568816733564
3440000000.0 0.020113089256765335 -0.04032869505202625
3460000000.0 0.053409905584023344 -0.01303191977771669
3480000000.0 0.0427338373868347 0.04998725459575301
3500000000.0 0.07109463052107724 -0.03528344843032319
3520000000.0 0.011013312720902295 -0.09295836726747131
3540000000.0 0.09136516006527175 0.05798061560170424
3560000000.0 -0.12226103086027594 0.014609762208371365
3580000000.0 0.10018326762030512 -0.09400148666871784
3600000000.0 0.12555375167411303 0.08701326582294068
3620000000.0 0.0014500425736558439 0.16434811474220914
3640000000.0 -0.14768181328320226 0.09421372622819527
3660000000.0 -0.18220872502123034 -0.031087025138260508
3680000000.0 -0.1444014902937515 -0.12196983486890656
3700000000.0 -0.11009473325577625 -0.15451759606799875
3720000000.0 0.08414486724101955 -0.1683656214369098
3740000000.0 0.1327859768050019 -0.12705364138250844
3760000000.0 -0.1483521427740806 0.09787726941818518
3780000000.0 0.13895770003540928 -0.09408010783225812
3800000000.0 -0.1075289949986834 -0.11923074480645623
3820000000.0 -0.14555800622966644 0.04592602317529382
3840000000.0 -0.14499389172074964 0.010551804160510192
3860000000.0 0.1160814118599932 -0.08662264782698623
3880000000.0 0.11628427835588734 -0.0938645459864847
3900000000.0 -0.03404669156500048 -0.15192974037430537
3920000000.0 -0.056966527136309966 0.1498500101947813
3940000000.0 -0.03288509288473215 -0.16190061319694582
3960000000.0 0.13298079519684392 -0.1076922406911742
3980000000.0 0.030264423422610667 -0.17006323928789827
4000000000.0 0.08732490683269016 -0.14250930157427513
