!Created with skrf (http://scikit-rf.org).
# Hz S RI R 50.0 
!freq ReS11 ImS11
400000000.0 -0.6766083693265178 0.5499176070837406
420000000.0 0.2739776507016419 0.823486409108871
440000000.0 0.6883069581840215 -0.4789879057212286
460000000.0 -0.35756875779937713 -0.7072337165989006
480000000.0 0.48218573733107073 -0.515814740530839
500000000.0 -0.14836692542383412 -0.557648536568256
520000000.0 -0.30950283792645333 0.3894333015579639
540000000.0 0.31457923937995036 -0.2599360423771826
560000000.0 -0.29208464312520405 -0.22158228311264874
580000000.0 0.21230051135445746 0.2655884553890296
600000000.0 0.3267467651446711 -0.11602494428434384
620000000.0 -0.2575794824646963 0.25010183470050784
640000000.0 0.2905032990408805 0.262242274370954
660000000.0 0.1469456089792985 -0.37566565169000016
680000000.0 0.35849587375144576 0.2275515318985284
700000000.0 0.08835307391901061 -0.42353384187192095
720000000.0 -0.3578422170902855 0.2336430935068675
740000000.0 0.24652990952084095 -0.3307355805221657
760000000.0 -0.37795950961663805 -0.10246645255899293
780000000.0 0.23672912329361856 0.26954712758971483
800000000.0 0.105757409921723 -0.3051717876249803
820000000.0 -0.26590470055386795 0.08196009901710222
840000000.0 -0.10199296431436639 0.2179909772911983
860000000.0 -0.1757283786356865 -0.1031648202539759
880000000.0 0.10754772459477524 0.11888764816041443
900000000.0 -0.033798397898213886 0.10899996692919149
920000000.0 -0.05294748801735763 0.055156864473687554
940000000.0 0.03781182395295828 -0.02134172368921478
960000000.0 -0.004041593214757653 0.047924288877399995
980000000.0 0.04291244122776704 0.05344527617073684
1000000000.0 0.01921926197775134 -0.08319707819411548
1020000000.0 0.06462734335366419 -0.08161771657871607
1040000000.0 0.11257661591481016 -0.04394112130549003
1060000000.0 0.11581875983167535 0.10663213320672889
1080000000.0 0.050285046429872304 0.16843728267312336
1100000000.0 -0.04877776093396496 -0.1940890535546604
1120000000.0 0.05184327720176825 0.21516996467767124
1140000000.0 0.23677862060936936 -0.09453529714155218
1160000000.0 -0.12171895778752063 -0.2553538495869969
1180000000.0 0.031196248412895547 -0.31412768391528134
1200000000.0 0.31802428335572497 -0.11919996669227445
1220000000.0 -0.3111613012177274 0.18983237883461035
1240000000.0 0.34998597070871074 0.16021884516205104
1260000000.0 -0.10867379429370837 -0.39237631314216587
1280000000.0 -0.42062853011179785 0.05418757289078237
1300000000.0 0.31883934545599735 0.29589248288665926
1320000000.0 0.41988570173079076 0.12179122937095874
1340000000.0 0.4329616485789037 -0.05871732587803763
1360000000.0 0.43959149911805157 -0.009337157348571603
1380000000.0 0.21357322841430018 -0.3801421894074435
1400000000.0 -0.3774413500751147 -0.2031990989843077
1420000000.0 0.003458953977441342 0.41008052191709676
1440000000.0 0.38353320376669986 -0.018422426374282565
1460000000.0 0.052480163532255014 -0.35011807205257
1480000000.0 -0.31701950031069015 -0.054635207978670094
1500000000.0 -0.16435744758040965 0.23759828635202346
1520000000.0 0.035593988318891656 0.25815491300159593
1540000000.0 -0.12893120152714083 -0.19113592760470732
1560000000.0 0.12935263516476112 -0.14802033503250378
1580000000.0 0.12990256705921283 0.10580992141190668
1600000000.0 0.12784953086757597 -0.0369681261702327
1620000000.0 0.10212433595547617 -0.01801469026210801
1640000000.0 0.03866498794781983 0.06677470940469338
1660000000.0 -0.052700879223758684 -0.007822083557703103
1680000000.0 0.027397570277500276 0.018993852101653826
1700000000.0 -0.0005555919863596482 -0.0204760671722949
1720000000.0 0.0007186931331696177 0.005062175149124381
1740000000.0 -0.013068175709864314 0.007988060442279269
1760000000.0 0.032215728107018594 -0.0012920419200223633
1780000000.0 0.04309199901878988 0.04191772719936206
1800000000.0 -0.08103683927503283 0.04109655049726318
1820000000.0 -0.09551997115386536 0.07602882293909195
1840000000.0 0.11519086813178754 -0.11149748617571067
1860000000.0 -0.1934407354385638 0.04529969198505039
1880000000.0 0.2286354139298981 -0.07123524549894748
1900000000.0 -0.2687346172287585 0.08935850787531377
1920000000.0 0.28227954263455496 -0.14759312772593405
1940000000.0 -0.35234631933688393 0.005688588600021607
1960000000.0 0.29492727431715554 0.23910538459419423
1980000000.0 0.0030452069344035267 -0.3981266090845809
2000000000.0 -0.34809924738534004 -0.22571039556265768
2020000000.0 -0.2625518836492247 0.3337686747484833
2040000000.0 0.00035843212132885403 0.43060142727777856
2060000000.0 0.3813853935920824 0.20366268411844302
2080000000.0 0.4140543103223865 -0.11428345128241567
2100000000.0 0.33377371989056487 -0.25842613253962216
2120000000.0 0.10796908598224114 -0.3986784474796966
2140000000.0 0.059932516463184385 -0.3973286963250542
2160000000.0 0.35831689841123887 -0.14683015271526015
2180000000.0 0.26125576260723105 -0.26673006995522724
2200000000.0 0.014665490537149786 -0.3603073972152691
2220000000.0 -0.2589189899115929 -0.2341652656501827
2240000000.0 -0.3401832246038576 0.044807856510782895
2260000000.0 -0.22388195187033544 0.25662991142993397
2280000000.0 -0.058736669195543774 0.33852706202905947
2300000000.0 0.30859661837364566 0.17627754515526453
2320000000.0 0.21880654908323954 -0.3071475595326027
2340000000.0 -0.3052038526288723 -0.2706790053384603
2360000000.0 -0.08016963442280482 0.4419631995951149
2380000000.0 0.2957628187791677 -0.40169737945327716
2400000000.0 -0.35342076129672706 0.42340695121925925
2420000000.0 0.15157309012223705 -0.5864268182846414
2440000000.0 0.22038410749478876 0.6178205092521806
2460000000.0 -0.6044166605556163 -0.3515327210283387
2480000000.0 0.730542551647508 0.061195869549137076
2500000000.0 -0.7555413004586738 0.004662595410748295
2520000000.0 0.7617714498266294 0.10310804394271468
2540000000.0 -0.6624766732550981 -0.3960113011795967
2560000000.0 0.31220437021316316 0.7016162558518229
2580000000.0 0.413378934326518 -0.6311394087942247
2600000000.0 -0.7195272032128577 0.1321344203298029
2620000000.0 0.559823886187428 0.42357875773718284
2640000000.0 0.6600993460004385 0.08081670285023314
2660000000.0 -0.40233619021542955 -0.47169485691110863
2680000000.0 0.0037446002663247694 0.5721472579954922
2700000000.0 0.2941687613257972 -0.4331068439275387
2720000000.0 -0.43142776849760595 0.19614269212059618
2740000000.0 0.42636490232841157 0.039009203380341195
2760000000.0 -0.38153833049255836 -0.0659034286130373
2780000000.0 0.35601321738775954 -0.016696427401399826
2800000000.0 -0.256989997958837 0.2082843083923001
2820000000.0 -0.10984025913627246 -0.29378364724222433
2840000000.0 0.2981625761819889 0.048215887556072916
2860000000.0 -0.1798398503493101 0.23907925983286754
2880000000.0 -0.13076805301561348 -0.26906887361901505
2900000000.0 0.2379729013806355 0.1839977273097652
2920000000.0 -0.08165366112053346 -0.2936234519450756
2940000000.0 -0.29313623202400274 0.10055549558726547
2960000000.0 -0.1599693194150899 0.27120173148418125
2980000000.0 -0.16704731402008552 0.2714136914021396
3000000000.0 -0.31312810551313863 0.06318560649928226
3020000000.0 -0.1019961472681345 -0.30284813396123866
3040000000.0 0.3087472908921154 0.072693822345243
3060000000.0 -0.3044168799283944 0.08167383445515636
3080000000.0 0.2853231753397322 -0.11948974971665634
3100000000.0 -0.30112686903667346 0.03998268971699438
3120000000.0 0.2211419151406276 -0.200018248974111
3140000000.0 -0.14122576213125992 0.2516336120877773
3160000000.0 -0.11661251239353053 -0.24818430620904153
3180000000.0 -0.09949347915696047 0.23853320562254102
3200000000.0 -0.19526394795478572 -0.1290956312858627
3220000000.0 0.1475923948867204 -0.14460466653127516
3240000000.0 0.04909284301289607 0.16979437668928143
3260000000.0 -0.11860876871500733 -0.08122015291260526
3280000000.0 0.06838825923538101 0.08798210735306557
3300000000.0 -0.012080466029108021 -0.08022440175783754
3320000000.0 -0.05293114485375796 0.008391839239855382
3340000000.0 -0.009412066064398277 0.02711175705456408
3360000000.0 -0.009769331015750846 0.0002674505699017205
3380000000.0 -0.0012252232529314767 -0.006783838317126391
3400000000.0 -0.020300222723085074 -0.0006220611709500476
3420000000.0 -0.025531174088117704 0.021563723259762985
3440000000.0 0.011751130372560646 0.04183417649809789
3460000000.0 -0.05068154651804876 0.01590898293622566
3480000000.0 -0.008864391253924374 -0.06250141386682698
3500000000.0 -0.0716426396270006 -0.029134126302181002
3520000000.0 -0.08895238470048687 0.02163701186215267
3540000000.0 0.08120143413032954 -0.0697481978565866
3560000000.0 -0.009417286212166118 0.12168249084771288
3580000000.0 -0.02119642012740375 -0.13365679142587344
3600000000.0 0.14007761033408964 -0.05770662587053428
3620000000.0 0.12998999812201137 0.09865449246479405
3640000000.0 -0.08712812376941963 0.150530852390115
3660000000.0 -0.16956885553378268 0.07153466595513104
3680000000.0 -0.18052810280651904 -0.05507198903397675
3700000000.0 -0.15535706367593718 -0.10928011035468194
3720000000.0 0.018079890553949884 -0.1882505602288065
3740000000.0 0.1276154861150117 -0.13287963746847878
3760000000.0 -0.1444619267152242 0.1042056538971739
3780000000.0 0.13417999260746422 -0.10205862084574012
3800000000.0 -0.10822046669666632 -0.11976444351896544
3820000000.0 -0.14578578791973112 0.04988948114976373
3840000000.0 -0.14506725391126932 -0.020215401530848578
3860000000.0 0.11810599631816084 -0.08600692829879644
3880000000.0 0.13024361518459232 -0.07662474973766438
3900000000.0 -0.007401436573601288 -0.15720125359723192
3920000000.0 -0.08972177079893791 0.13424367718995142
3940000000.0 0.012396408024168293 -0.16659843702162772
3960000000.0 0.14027715099566496 -0.09947805214904748
3980000000.0 0.0907572108408361 -0.14789126727531735
4000000000.0 0.11588737930932991 -0.1228703337130312
