!Created with skrf (http://scikit-rf.org).
# Hz S RI R 50.0 
!freq ReS11 ImS11
400000000.0 -0.656022520935244 0.57496065718902
420000000.0 0.3621142179040864 0.788592593913272
440000000.0 0.7279315219779658 -0.41625889373797453
460000000.0 -0.3609594845021839 -0.7052630631949105
480000000.0 0.48829363014554983 -0.5094649628762145
500000000.0 -0.18090329343875883 -0.5472994272655936
520000000.0 -0.22751979926244084 0.4406390107220262
540000000.0 0.3667800743080512 -0.17833743205724104
560000000.0 -0.29522712320869393 -0.21710365037972146
580000000.0 0.10341901742495388 0.32251818319814524
600000000.0 0.32888607928230923 -0.11387606288656993
620000000.0 -0.2428309791300349 0.26866967778581063
640000000.0 0.3016699646037006 0.24924616949161843
660000000.0 0.1457047700607297 -0.37683276151812534
680000000.0 0.35779714559432835 0.2282113012348215
700000000.0 0.07255390414164725 -0.42754840806382605
720000000.0 -0.3572444392475704 0.23628592434815782
740000000.0 0.2076620391276785 -0.35701998501887555
760000000.0 -0.3751544752721516 -0.11241558842559041
780000000.0 0.26122691765359807 0.24639180444371409
800000000.0 0.1019625838639543 -0.3061640906853714
820000000.0 -0.2659142700699165 0.07974812730435565
840000000.0 -0.09348073298428802 0.22169162637055376
860000000.0 -0.185297027205005 -0.08201889797899861
880000000.0 0.1242733639457495 0.10050383636603503
900000000.0 -0.020174004963682397 0.11266252616848799
920000000.0 -0.025147227559058818 0.07256800858342054
940000000.0 0.02891902793107507 -0.03286504423465727
960000000.0 -0.0087310218295558 0.047262166502475375
980000000.0 0.05618241368731435 0.03840356200764949
1000000000.0 0.00393666456057418 -0.08533265314333473
1020000000.0 0.055839604153093865 -0.08740315837775728
1040000000.0 0.12010825202405513 -0.0013502369055365467
1060000000.0 0.1287231546412594 0.08986515743010952
1080000000.0 0.08531360499174238 0.15344157659742583
1100000000.0 -0.04750327185096659 -0.1944356522639026
1120000000.0 0.0663787700941798 0.21196760389845398
1140000000.0 0.238068587064664 -0.09226452421812384
1160000000.0 -0.07740602310591445 -0.27250370523787365
1180000000.0 0.058266547398601654 -0.310814793729776
1200000000.0 0.32380990358167144 -0.1020315040357451
1220000000.0 -0.3176107585028633 0.1785312623358846
1240000000.0 0.34757284223510765 0.1657584734120316
1260000000.0 -0.09423145713440174 -0.3962142668697167
1280000000.0 -0.42153087444757886 0.04416230312721847
1300000000.0 0.3213565004705354 0.2922920268583915
1320000000.0 0.42021160197985247 0.12045349730066182
1340000000.0 0.43100851945657215 -0.07058787094989441
1360000000.0 0.4393261503840693 -0.011652149932140254
1380000000.0 0.19630008790097528 -0.3890025718361213
1400000000.0 -0.38686608566499214 -0.18399882444569207
1420000000.0 0.011674668416039912 0.40971538461542967
1440000000.0 0.3825145833018494 -0.026436581076398853
1460000000.0 0.06538739522902295 -0.3477877040143942
1480000000.0 -0.3139971366935366 -0.0701265052692612
1500000000.0 -0.1865346355150554 0.22012896599589638
1520000000.0 0.041026358256803654 0.2570123800557039
1540000000.0 -0.12870212495725777 -0.19108080302797079
1560000000.0 0.13665751918609162 -0.14126799061935277
1580000000.0 0.12102217786869646 0.11625792505217553
1600000000.0 0.1319908945078628 -0.017256455264643995
1620000000.0 0.09707492009997172 -0.03528634441933548
1640000000.0 0.04507878245139247 0.062387066848670215
1660000000.0 -0.05029655514108838 -0.01590552184266087
1680000000.0 0.03329499263496012 -0.001976752267650783
1700000000.0 -0.006157850119013559 -0.01937978340664428
1720000000.0 -0.002313957091481253 -0.004172119515769454
1740000000.0 -0.012859003417456081 0.008383906477109036
1760000000.0 0.029064744733939836 0.01269076280580692
1780000000.0 0.021903029825276654 0.05588671349776777
1800000000.0 -0.08945698233671008 0.01812477302265928
1820000000.0 -0.1054395842958813 0.06162239178233906
1840000000.0 0.12637852910997188 -0.09926260211658988
1860000000.0 -0.19448445950531143 0.03990463300111626
1880000000.0 0.22979992474173772 -0.06647365820023464
1900000000.0 -0.268001063326706 0.09063926396540141
1920000000.0 0.2775918513976557 -0.15603955587088403
1940000000.0 -0.3520380867082994 0.017255612695522934
1960000000.0 0.312754091630108 0.21595600840646925
1980000000.0 -0.025354795411475083 -0.3975363972955573
2000000000.0 -0.3749302976060643 -0.17835323072998824
2020000000.0 -0.24072510720257195 0.35065914470386106
2040000000.0 0.010082738694453714 0.43154959204250615
2060000000.0 0.37738085465158727 0.2114059054173663
2080000000.0 0.41888261264353843 -0.09678791831567728
2100000000.0 0.34527586863058246 -0.24369660682143926
2120000000.0 0.11102700596232006 -0.39782006254535895
2140000000.0 0.06611306172037223 -0.396004564092321
2160000000.0 0.37119520804859846 -0.10907933159009013
2180000000.0 0.28161723366139174 -0.24479277429840246
2200000000.0 0.004926499597113957 -0.36059808182664
2220000000.0 -0.24628253983934797 -0.24757613579169319
2240000000.0 -0.3398081945401249 0.05045687726907446
2260000000.0 -0.21485945162892903 0.26510152212142657
2280000000.0 -0.04886945000131624 0.3410937774944802
2300000000.0 0.3275088852085683 0.1413201043315713
2320000000.0 0.1957263375872284 -0.3234546399205671
2340000000.0 -0.32874716380954067 -0.24376462154275585
2360000000.0 -0.05893115464315146 0.4465819400354476
2380000000.0 0.29844921410660125 -0.4012798822737131
2400000000.0 -0.31123381682380785 0.4573222643593482
2420000000.0 0.08985283104670493 -0.6007083194410482
2440000000.0 0.32989089703346464 0.5691787476537212
2460000000.0 -0.6646308097258548 -0.22066341209502827
2480000000.0 0.718815562819301 -0.14821142395910247
2500000000.0 -0.743169139768317 0.14103954528719398
2520000000.0 0.7663207075218137 -0.06081730149677904
2540000000.0 -0.741523194508292 -0.2137523098793827
2560000000.0 0.4345599341824738 0.6323873815750815
2580000000.0 0.17397313495729505 -0.7329378245577315
2600000000.0 -0.6565349837769323 0.320115578011438
2620000000.0 0.6460800341823145 0.2700363968787875
2640000000.0 0.6548853211009988 -0.10902402011308925
2660000000.0 -0.53527871835908 -0.30929906192024476
2680000000.0 0.20551282452202027 0.5325736750730156
2700000000.0 0.13236775409068455 -0.5049633101999499
2720000000.0 -0.32357556288273837 0.34503967888431414
2740000000.0 0.41842192641568415 -0.0880218995907116
2760000000.0 -0.3869885241506146 -0.005547188221224839
2780000000.0 0.35034744033334564 -0.0646188566787668
2800000000.0 -0.2303324526042882 0.23774559098844975
2820000000.0 -0.1411309828877318 -0.2806066542800868
2840000000.0 0.30084353971553396 0.03265198160636272
2860000000.0 -0.16855478294263443 0.2474455887813117
2880000000.0 -0.10468271262870585 -0.28083355863076004
2900000000.0 0.20644363363964638 0.21870440705709504
2920000000.0 0.040879553883822785 -0.3018255067855643
2940000000.0 -0.3086899489775476 0.014465129382452953
2960000000.0 -0.22540698068164272 0.21727884481367923
2980000000.0 -0.23293861779942793 0.21454305379280597
3000000000.0 -0.318049400843994 -0.010966119915501421
3020000000.0 -0.03110193586318739 -0.31666664382654636
3040000000.0 0.2889160760395828 0.12835784860021424
3060000000.0 -0.3115755379451521 -0.026189741776660395
3080000000.0 0.304324707213593 -0.04638499528211484
3100000000.0 -0.2950926912347103 0.06375970987201512
3120000000.0 0.21524712743951402 -0.20298475954718154
3140000000.0 -0.09788370018591014 0.2689422956167619
3160000000.0 -0.1345183194938285 -0.2363098988045781
3180000000.0 -0.07468203196124938 0.24438987977547347
3200000000.0 -0.22032698649220295 -0.07051272209962212
3220000000.0 0.08102704740171511 -0.18759596817580818
3240000000.0 0.1214481333299304 0.12524039268104112
3260000000.0 -0.1404112571085172 0.020147984603553954
3280000000.0 0.1094290245014924 0.011904026661428459
3300000000.0 -0.0738120211836131 -0.03078480713516311
3320000000.0 0.03894421384658078 0.03566513448168349
3340000000.0 0.014403504262527135 -0.024202567701618303
3360000000.0 0.006459005462344544 -0.0061363868195555915
3380000000.0 0.0007892537642423483 0.007477418349503716
3400000000.0 -0.00913889397641907 0.0192816391109981
3420000000.0 0.029821537869803554 -0.016594193247816743
3440000000.0 -0.045043549067031716 -0.0030692097685407565
3460000000.0 -0.004306528412625985 -0.053895558902959675
3480000000.0 0.05130906818129597 -0.03972960977810011
3500000000.0 -0.02293217860272362 -0.07540733328288686
3520000000.0 -0.08643540146095308 -0.03485037505069642
3540000000.0 0.1043316936312773 -0.028754477011726565
3560000000.0 -0.09025698454910311 0.08401509759254694
3580000000.0 -0.022239250196551867 -0.1359498831858614
3600000000.0 0.15370064527661895 0.00541303523069387
3620000000.0 0.10953465652307849 0.12406683958128199
3640000000.0 -0.10900664154671497 0.1387512753518295
3660000000.0 -0.18508825747304158 0.01584635940461376
3680000000.0 -0.16798319525907085 -0.08985444293525831
3700000000.0 -0.12818316285407214 -0.14182082229761822
3720000000.0 0.06864769881624104 -0.17685032747925458
3740000000.0 0.1553789898326429 -0.100125573923675
3760000000.0 -0.157509130168409 0.0851721114717606
3780000000.0 0.15146705302118887 -0.07481795046215348
3800000000.0 -0.0585318479885297 -0.15114088322972144
3820000000.0 -0.15366501381966036 0.004644156336543131
3840000000.0 -0.1326174401784616 -0.062208727057387794
3860000000.0 0.12943592107564372 -0.06898611954537173
3880000000.0 0.14067338215447459 -0.05411670136384883
3900000000.0 0.007400424270510211 -0.15690118194237881
3920000000.0 -0.11553366809167388 0.11299908732206551
3940000000.0 0.056124856338084915 -0.15701450833894906
3960000000.0 0.16632372197070344 -0.04446053028420292
3980000000.0 0.1142990880533566 -0.13037944054812334
4000000000.0 0.15412667744845532 -0.06702258854001562
