!Created with skrf (http://scikit-rf.org).
# Hz S RI R 50.0 
!freq ReS11 ImS11
400000000.0 -0.670826125572796 0.5573855710147967
420000000.0 0.31871814929782555 0.8073632818182159
440000000.0 0.7161366809080383 -0.4365775236112606
460000000.0 -0.31671738227410207 -0.7266637024312158
480000000.0 0.5088370830928012 -0.4906032929933732
500000000.0 -0.2726546598613471 -0.5088290525626459
520000000.0 -0.37198187596657656 0.3284158890635456
540000000.0 0.36260842443987146 -0.19494814965478996
560000000.0 -0.3466140199104472 -0.12067106827077043
580000000.0 0.22968662441305232 0.24926954065262025
600000000.0 0.3460119760839965 0.007898998661524444
620000000.0 -0.20213151293122922 0.2989622592997865
640000000.0 0.3073357967481412 0.24353799627281558
660000000.0 0.16835903304611397 -0.36689350930972664
680000000.0 0.361640820502576 0.22131480869582218
700000000.0 0.09542445825394558 -0.4229723442722897
720000000.0 -0.30957600633897886 0.2943697018897738
740000000.0 0.20423694888322674 -0.35749303153919776
760000000.0 -0.382183989717697 -0.08246938210583826
780000000.0 0.27228721788732363 0.23458730326878832
800000000.0 0.10327285019334112 -0.30572310873643743
820000000.0 -0.26323040920412444 0.09094538439473372
840000000.0 -0.06179580872628333 0.23242277303942047
860000000.0 -0.19378013060104313 -0.06297183636456107
880000000.0 0.11268975313952644 0.1137927817298967
900000000.0 -0.0411578802960267 0.10711101759871018
920000000.0 -0.040235828756201034 0.06428823652354204
940000000.0 0.040208173733260216 -0.016729657410356813
960000000.0 0.021253611561325762 0.042795574403603605
980000000.0 0.041187404747587274 0.054553397491707366
1000000000.0 0.015741153350306732 -0.08409565449006039
1020000000.0 0.07278831048678513 -0.07461147932608729
1040000000.0 0.11788585337606625 -0.02766135936335408
1060000000.0 0.11485430185538337 0.10755902304584318
1080000000.0 0.06739629897396189 0.1622564964739618
1100000000.0 -0.06765907200738071 -0.1888313194679728
1120000000.0 0.0628483733945278 0.21258688909841303
1140000000.0 0.21837843900258472 -0.1312606980068398
1160000000.0 -0.11347489621137455 -0.2594565005973192
1180000000.0 0.03738006347137996 -0.3143969967330229
1200000000.0 0.319153869945076 -0.11667567042754921
1220000000.0 -0.30946519995324 0.19110168416350773
1240000000.0 0.3637579512100901 0.12568751837300443
1260000000.0 -0.09933586187861389 -0.39490882260245463
1280000000.0 -0.41848317424861153 0.06863551245123191
1300000000.0 0.3344604005983031 0.27811521862430494
1320000000.0 0.4165436251993054 0.13083774473461413
1340000000.0 0.43239039953913033 -0.06266434472204628
1360000000.0 0.43985379883004616 0.0044920856323410205
1380000000.0 0.20835180849334006 -0.3828205687674231
1400000000.0 -0.3855254822682264 -0.1872009005384421
1420000000.0 -0.015982683517288054 0.4098458679376167
1440000000.0 0.38254543763714777 -0.026418526051797713
1460000000.0 0.054180647326479967 -0.34916906784129076
1480000000.0 -0.3171065072083382 -0.05172882265191132
1500000000.0 -0.16800113214792864 0.23448852788374447
1520000000.0 0.05465097938811578 0.2539870674251386
1540000000.0 -0.13714261860452956 -0.18490359994878405
1560000000.0 0.1133868500305988 -0.15976800764449428
1580000000.0 0.13656984844758488 0.0967807619535475
1600000000.0 0.0927493415706809 -0.09520691067383781
1620000000.0 0.08870957063724365 -0.05363294752250458
1640000000.0 0.04934961588729123 0.059556695819521666
1660000000.0 -0.05339353519094263 -0.0031295074727661024
1680000000.0 0.033459424079902524 -0.0016643150123198602
1700000000.0 0.01784198323262915 -0.010620250264678836
1720000000.0 -0.004851411690366229 0.0017963795557444998
1740000000.0 0.014707998583822329 0.005818576973739601
1760000000.0 0.01706048744057304 -0.028050326961915565
1780000000.0 0.051715086351857564 0.03243090240136452
1800000000.0 -0.08657583484629099 0.029031995519649113
1820000000.0 -0.1003673360690149 0.0703436118191943
1840000000.0 0.12823467726587334 -0.09705871301391597
1860000000.0 -0.19418697589439055 0.04330229196402483
1880000000.0 0.23354525137058482 -0.05385733760400487
1900000000.0 -0.27481827683097604 0.06887164453748529
1920000000.0 0.28622395122870464 -0.13971509542649294
1940000000.0 -0.35179296234727053 -0.014102270099714868
1960000000.0 0.2984064424173313 0.23364606777498778
1980000000.0 0.013996867743237284 -0.39751530938606655
2000000000.0 -0.37516694116036053 -0.17551483900904585
2020000000.0 -0.21436921973181422 0.36640265311665354
2040000000.0 -0.008571639102985636 0.43071485238050095
2060000000.0 0.39507180071707065 0.1746028094868502
2080000000.0 0.4088002202675404 -0.13234993513928803
2100000000.0 0.2953444198814378 -0.30201575128933794
2120000000.0 0.10203348674886 -0.4000333612009997
2140000000.0 -0.03098894082355049 -0.40040677565529226
2160000000.0 0.36054987464311117 -0.1418214453581397
2180000000.0 0.2617676100487156 -0.26666229515950896
2200000000.0 -0.01891445914712497 -0.35987251287790833
2220000000.0 -0.2512606080542301 -0.2419821280693743
2240000000.0 -0.33327210959611103 0.0818988186657142
2260000000.0 -0.242606575208913 0.23867168823002574
2280000000.0 -0.07772012834023698 0.33475880266244834
2300000000.0 0.3008881663217203 0.18901808524169245
2320000000.0 0.22811325502520938 -0.29994166148370355
2340000000.0 -0.31527819342952434 -0.2585848178325898
2360000000.0 -0.05168123205720254 0.44573389359311605
2380000000.0 0.309261489361445 -0.3909095800162555
2400000000.0 -0.34031053524169724 0.43349241365893976
2420000000.0 0.13113885022666288 -0.5908675968543992
2440000000.0 0.2521628612301885 0.6055702747200805
2460000000.0 -0.6121972130492227 -0.337417279186437
2480000000.0 0.7327372428670079 -0.00852626038248181
2500000000.0 -0.7544685597222388 -0.05561246582420601
2520000000.0 0.7541452125475868 0.15123226843608217
2540000000.0 -0.6769643251101697 -0.3722855728668693
2560000000.0 0.2720935159534335 0.7186830132428108
2580000000.0 0.4005048294651049 -0.6398139740268399
2600000000.0 -0.7125134868110179 0.16821226481155624
2620000000.0 0.5637186736900078 0.4179342561364624
2640000000.0 0.6639600120617741 0.037439457777667114
2660000000.0 -0.3798505113899167 -0.48922359014868916
2680000000.0 -0.05240671067593653 0.5694436209016313
2700000000.0 0.29637664530283725 -0.43036743649007436
2720000000.0 -0.40191220759574325 0.24984856742205594
2740000000.0 0.4269837595506699 0.016174759218068022
2760000000.0 -0.38209865923495445 -0.058315218022474406
2780000000.0 0.3541125282160724 -0.028895113756817383
2800000000.0 -0.25181909539829733 0.2127993755095397
2820000000.0 -0.14104061521680208 -0.27941401181034403
2840000000.0 0.301644298423357 -0.005107203007209822
2860000000.0 -0.09205706059263477 0.28388922796268246
2880000000.0 -0.19513287674219856 -0.22679878568240322
2900000000.0 0.27809751417221595 0.11468178874859604
2920000000.0 -0.12288918424652336 -0.2785799506130403
2940000000.0 -0.2735656655374781 0.14530804346605414
2960000000.0 -0.09662228480441556 0.29930172893975676
2980000000.0 -0.1344027291734023 0.28956436545121256
3000000000.0 -0.2980977161817881 0.11548042725358441
3020000000.0 -0.123345856380381 -0.29594702636282433
3040000000.0 0.3160519782389388 0.04109628991107683
3060000000.0 -0.30340364737902714 0.08833366403907254
3080000000.0 0.27670554231569694 -0.14260301751347623
3100000000.0 -0.30059986727439 0.051476257191621105
3120000000.0 0.22462289169709826 -0.19841255544640202
3140000000.0 -0.12227882314104593 0.26339945186175096
3160000000.0 -0.09513697059096299 -0.25849078180733237
3180000000.0 -0.13486124902183888 0.22085881155704487
3200000000.0 -0.15823485060383738 -0.173480340352073
3220000000.0 0.1690358800956465 -0.12096229603347652
3240000000.0 0.01541539511990376 0.17670902119414456
3260000000.0 -0.08807570679189997 -0.11429688463183478
3280000000.0 -0.0034611113184939775 0.11195968505770658
3300000000.0 0.025862408332381074 -0.0772674231322345
3320000000.0 -0.05296364195447188 -0.009793794856141626
3340000000.0 -0.02121783624377699 -0.01991630594888675
3360000000.0 -0.00842804149217192 -0.004348939705685745
3380000000.0 0.0034609157440031366 0.005389323453883955
3400000000.0 0.01589239046687232 0.013508766219008034
3420000000.0 0.02374605123387235 0.024333077894429796
3440000000.0 0.01566462734881428 0.04062081961982092
3460000000.0 -0.007856066958773165 0.05309886257104496
3480000000.0 -0.04442042651698606 -0.04613395187970127
3500000000.0 -0.06951614200406958 0.03538777535028308
3520000000.0 -0.04913194828750536 0.07852269249024164
3540000000.0 0.042299912484603144 -0.09874897008560692
3560000000.0 0.034951692114117354 0.11744235158439077
3580000000.0 -0.09850531237782642 -0.09494685942003248
3600000000.0 0.12831707281071444 -0.08310658146417768
3620000000.0 0.15222365018786188 0.06303207827284454
3640000000.0 -0.0536121322383354 0.16636748360094755
3660000000.0 -0.16533050857315038 0.08239048945720862
3680000000.0 -0.18811931520891473 -0.024253552565495495
3700000000.0 -0.14239890267358982 -0.1256523087974866
3720000000.0 0.07774127809284989 -0.17280101701569536
3740000000.0 0.15309207770815397 -0.10179360870959868
3760000000.0 -0.16348891001298116 0.06930157088060841
3780000000.0 0.158805246297368 -0.053596143234847494
3800000000.0 -0.06913652428628829 -0.14466285316370442
3820000000.0 -0.1523617203255326 0.007865060814372866
3840000000.0 -0.1341603683323751 -0.05501081624091238
3860000000.0 0.1244073504759017 -0.0750068562806768
3880000000.0 0.14790751586148132 -0.022236354729022516
3900000000.0 0.005934106104608423 -0.15559686751447233
3920000000.0 -0.10514757955498229 0.12132355995594567
3940000000.0 0.01928916256033201 -0.16448632463994847
3960000000.0 0.1647078625046935 -0.048669424336277294
3980000000.0 0.09282747382647047 -0.14546660900335598
4000000000.0 0.12482963628527453 -0.11094066618126415
