!Created with skrf (http://scikit-rf.org).
# Hz S RI R 50.0 
!freq ReS11 ImS11
400000000.0 -0.6463241529889799 0.5856679435587369
420000000.0 0.35229956921313454 0.7939280930969562
440000000.0 0.6735962923724493 -0.4990467105535368
460000000.0 -0.36374113756024345 -0.7037045918789725
480000000.0 0.49175046703556746 -0.5074037228928517
500000000.0 -0.2601244753759955 -0.5160542577498258
520000000.0 -0.3908279917973751 0.3038211780619885
540000000.0 0.3252926843904744 -0.25171292519059724
560000000.0 -0.34504311129569865 -0.12522946811272098
580000000.0 0.24259968408730118 0.23616868148547024
600000000.0 0.3298833956551569 -0.104157466722125
620000000.0 -0.2098994634263629 0.2930015338196378
640000000.0 0.2990265649822285 0.2527421089988225
660000000.0 0.13907624173640787 -0.3790905277332193
680000000.0 0.3536826943520505 0.23575481160646722
700000000.0 0.055593494565384045 -0.43002761154854097
720000000.0 -0.32791973646077727 0.2744223199186703
740000000.0 0.20367220506425046 -0.3586186700458454
760000000.0 -0.36988884717778153 -0.12989490255418457
780000000.0 0.2362050978482099 0.26971549378626797
800000000.0 0.12051431446883708 -0.2996638976994634
820000000.0 -0.2730045929969528 0.04956619453273142
840000000.0 -0.08005289624766276 0.2267818543765078
860000000.0 -0.18702472752085925 -0.07784141669160943
880000000.0 0.12650253406750778 0.09790843810226242
900000000.0 -0.00043949509319327507 0.11358401293224571
920000000.0 0.0044188253894923875 0.07552007188741697
940000000.0 0.005824880003701467 -0.04301558738894669
960000000.0 -0.03929238801427467 0.027994704539716326
980000000.0 0.0026679033454241373 0.06867130309280342
1000000000.0 0.03544718669846312 -0.07722327180257703
1020000000.0 0.08124359849800665 -0.06401864545017216
1040000000.0 0.1134230143645752 -0.04123497517852385
1060000000.0 0.12940746715828313 0.08930401772278913
1080000000.0 0.07333515437825443 0.15939356224629234
1100000000.0 -0.046559866606540684 -0.19449005247365309
1120000000.0 0.08185381790950996 0.2055248373849755
1140000000.0 0.21578069195292593 -0.1351608899488673
1160000000.0 -0.0779828363164261 -0.2716408369900429
1180000000.0 0.062014388006233996 -0.30950558831100017
1200000000.0 0.3296240861935173 -0.08147803333204315
1220000000.0 -0.3278253701508688 0.1605604873626748
1240000000.0 0.3441579492497653 0.17452840713972276
1260000000.0 -0.08077771068781771 -0.40033592205091806
1280000000.0 -0.42279146730691597 0.04422882686975045
1300000000.0 0.3049841694884581 0.3105881709452209
1320000000.0 0.4129040908763289 0.144472069965759
1340000000.0 0.4358064296428174 -0.032936127937080194
1360000000.0 0.43827346902645736 0.031070253982083785
1380000000.0 0.2403026806880623 -0.36317756799401435
1400000000.0 -0.3579082214605451 -0.23452471281319648
1420000000.0 -0.050641794112097335 0.4065173472456431
1440000000.0 0.38291426706834225 0.007304965964905928
1460000000.0 0.08835290318391381 -0.34209427169458734
1480000000.0 -0.3207038264146257 0.017956252890755395
1500000000.0 -0.16902437885943097 0.23381403822340438
1520000000.0 0.04794634147115838 0.2557953468893766
1540000000.0 -0.15750437244101329 -0.16807292579705777
1560000000.0 0.12476057541736736 -0.15168037897165024
1580000000.0 0.14219890965325624 0.08842952756254881
1600000000.0 0.12500327341399342 -0.045795160124813675
1620000000.0 0.09391721201520324 -0.043526377424591055
1640000000.0 0.05462906313521113 0.05465148701847037
1660000000.0 -0.05324869277351732 -0.0001348226679917826
1680000000.0 0.033623943597635736 -0.001748924410569201
1700000000.0 0.0068437983294121285 -0.019666091170517416
1720000000.0 3.427299843793462e-05 -0.004944737012444245
1740000000.0 -0.007222849758691153 0.013506104757420685
1760000000.0 0.029830642937840546 -0.013338411485430187
1780000000.0 0.03644198965904499 0.04860375576873318
1800000000.0 -0.08829160368929209 0.024244394701227426
1820000000.0 -0.11421783845218127 0.04325700204592371
1840000000.0 0.14406843347138723 -0.07026808470883354
1860000000.0 -0.19705431253451347 0.022727779081852317
1880000000.0 0.23592481446521182 -0.03715522274468314
1900000000.0 -0.2756188834894637 0.06342752471004445
1920000000.0 0.2864492595506926 -0.1383088421817583
1940000000.0 -0.35207988147904695 0.006556237522144633
1960000000.0 0.3121221192985804 0.21571046410048184
1980000000.0 -0.02799159182463537 -0.3971516625358353
2000000000.0 -0.37935746202643694 -0.16792500898444407
2020000000.0 -0.2368717382228713 0.353380453282927
2040000000.0 0.02735063757804123 0.43060131650338584
2060000000.0 0.38854144347504643 0.19162747914005385
2080000000.0 0.4167440268688279 -0.10691896221032132
2100000000.0 0.3244891726305428 -0.27140055853898115
2120000000.0 0.12439942809877813 -0.39447496984007613
2140000000.0 0.04578007327009994 -0.3997285883728758
2160000000.0 0.3729474070654122 -0.1066854626214385
2180000000.0 0.2726299242839613 -0.25574899484016456
2200000000.0 0.028486780373360585 -0.3600018328966656
2220000000.0 -0.25290379491874776 -0.24159906742111578
2240000000.0 -0.34076178591137934 0.044780095761013425
2260000000.0 -0.2591484185296066 0.22194802701786687
2280000000.0 -0.10198120383433643 0.3284419836896733
2300000000.0 0.2861967118747586 0.21127981370974414
2320000000.0 0.24051666429649896 -0.29090976750728265
2340000000.0 -0.2917062214125096 -0.2862027603739691
2360000000.0 -0.11135936064956996 0.4353328438879504
2380000000.0 0.3401935329750298 -0.36511271133332945
2400000000.0 -0.3692608826304843 0.4102906199724375
2420000000.0 0.1715377049200871 -0.5812938153154517
2440000000.0 0.22591251592222955 0.6165582350191119
2460000000.0 -0.6057040091164274 -0.34966106707910566
2480000000.0 0.732660511739293 0.018849794925485358
2500000000.0 -0.7550764318481832 -0.03284163231464096
2520000000.0 0.7560882840629746 0.14061881981645136
2540000000.0 -0.6852103856068558 -0.35662333522675904
2560000000.0 0.3046405389994808 0.7053002688204356
2580000000.0 0.3285216769285528 -0.6795832218828843
2600000000.0 -0.7148522750188995 0.1584054691770122
2620000000.0 0.5736251356871628 0.4041486077549136
2640000000.0 0.6641097148590827 -0.04278765491170846
2660000000.0 -0.481531511022945 -0.3912635103606429
2680000000.0 0.14313369049903826 0.555721717935099
2700000000.0 0.16481772432415878 -0.49833403334376747
2720000000.0 -0.32864635756074 0.3438826662237433
2740000000.0 0.41784267322872687 -0.10173296703349054
2760000000.0 -0.3894719631370845 0.011030657359374689
2780000000.0 0.3521266820689797 -0.06834995098515813
2800000000.0 -0.24564500673582493 0.22505581934290309
2820000000.0 -0.10968869107416832 -0.2965845208206555
2840000000.0 0.29666984814723024 0.06935438357742675
2860000000.0 -0.20668332550604118 0.21886357329614559
2880000000.0 -0.09442109355526014 -0.28519800519382
2900000000.0 0.18255762121087396 0.24027418052911736
2920000000.0 0.02416491367679819 -0.30389758060750055
2940000000.0 -0.3093711113457344 -0.018198915800670283
2960000000.0 -0.20909021998849417 0.23379949071920594
2980000000.0 -0.23037354204770852 0.21891817762219312
3000000000.0 -0.3150640251291161 -0.04741451551445493
3020000000.0 -0.02371867340320755 -0.3178531177178715
3040000000.0 0.2882969156663528 0.12943936352529611
3060000000.0 -0.3107841696333861 0.03862270956609903
3080000000.0 0.29865339897785304 -0.07553835529566623
3100000000.0 -0.2928030271066348 0.07431407957071848
3120000000.0 0.20819930074770396 -0.21116413652505897
3140000000.0 -0.08959793745846946 0.27237773536079213
3160000000.0 -0.13518838299751176 -0.2363669547613812
3180000000.0 -0.03649913442260789 0.2526854186284898
3200000000.0 -0.22437612243496283 -0.0564204323351672
3220000000.0 0.036121299219922874 -0.2018813392808427
3240000000.0 0.14872605795705252 0.09109874406127548
3260000000.0 -0.1347353265146889 0.04453708086208446
3280000000.0 0.10994047120072048 -0.009864486717392845
3300000000.0 -0.07229134968920732 0.033714302544219116
3320000000.0 0.052449029670492295 -0.006833242628144188
3340000000.0 -0.01712923891536934 -0.021966441291904178
3360000000.0 0.00335536884783857 0.007824805513111288
3380000000.0 -0.0034967390276543185 0.007605270123899874
3400000000.0 -0.020103731827342368 0.009699969117390718
3420000000.0 0.03372993450197788 0.010888617200238577
3440000000.0 -0.0008952826967974604 -0.045512783028878186
3460000000.0 0.02133525734545389 -0.051026919311180655
3480000000.0 0.06079593246913698 -0.025747516573575636
3500000000.0 0.009703260530747635 -0.07977510328073369
3520000000.0 -0.0883241171680805 -0.03485958646766657
3540000000.0 0.10777631483229846 -0.019770238648046085
3560000000.0 -0.10665385387670931 0.06398784564438902
3580000000.0 0.0366893471199343 -0.13381897909832538
3600000000.0 0.14387894801862008 0.056864908848225044
3620000000.0 0.055123122320901566 0.15681086134734526
3640000000.0 -0.14076851199798393 0.10775216420646237
3660000000.0 -0.1865629370202185 0.010154655187010895
3680000000.0 -0.15420663769835855 -0.11417093640926716
3700000000.0 -0.0916078206922678 -0.16892127495311296
3720000000.0 0.09903899856371247 -0.16377797004978956
3740000000.0 0.18391685947965739 -0.026117491646847717
3760000000.0 -0.17702160734284045 -0.03135641291867186
3780000000.0 0.16512075133457718 0.03869022149676042
3800000000.0 0.04458942363007976 -0.15511396943243103
3820000000.0 -0.10281404375843095 -0.11527920369764298
3840000000.0 -0.05359323227091672 -0.1365156497798097
3860000000.0 0.13753594707861055 0.05012651239456623
3880000000.0 0.13287171191504182 0.07125432916483368
3900000000.0 0.1142103430015708 -0.10802662221717957
3920000000.0 -0.15458544936432347 0.04405837637931048
3940000000.0 0.10583705085313076 -0.12794490426868724
3960000000.0 0.16035677736497966 0.05824624931794462
3980000000.0 0.14565046011731803 -0.0905497612208555
4000000000.0 0.138610563173922 -0.09096517617766627
