!Created with skrf (http://scikit-rf.org).
# Hz S RI R 50.0 
!freq ReS11 ImS11
400000000.0 -0.678893617906117 0.5443236358925608
420000000.0 0.2729958488966188 0.822832867918004
440000000.0 0.6663705317339012 -0.508147138491726
460000000.0 -0.3661645504739172 -0.7019499425324458
480000000.0 0.48041749196357875 -0.5169880736673778
500000000.0 -0.19091187477286706 -0.5446459698861092
520000000.0 -0.3174531771272172 0.38134449761670175
540000000.0 0.3018214036379122 -0.2759535200576421
560000000.0 -0.3418124002584648 -0.1354954696155114
580000000.0 0.22868522831752866 0.2506056204076747
600000000.0 0.3064255297330909 -0.16263638907999328
620000000.0 -0.27072683248258883 0.24092822671200137
640000000.0 0.2469828026155442 0.3038273910453976
660000000.0 0.16329944797465282 -0.3711025833546725
680000000.0 0.2863864520123673 0.31429013560104635
700000000.0 0.12145228259847451 -0.414730453343362
720000000.0 -0.36560317561354017 0.22234201025809702
740000000.0 0.25059860242163795 -0.32651945384013575
760000000.0 -0.36449162986939654 -0.14229138718180334
780000000.0 0.24977567165936648 0.2553639121089965
800000000.0 0.08163362528015146 -0.3122825594371538
820000000.0 -0.2497000141406916 0.12069571955714464
840000000.0 -0.03080031270501585 0.23826507905598718
860000000.0 -0.19472415159905462 -0.05833898233005419
880000000.0 0.14445902061332855 0.07091154762077846
900000000.0 0.044812761454304795 0.10621477517109207
920000000.0 -0.06781260613241116 0.03774408667723029
940000000.0 0.026948330840352978 0.035447165471177614
960000000.0 -0.025038357316982146 -0.040104184448592005
980000000.0 0.016761126313864845 0.06484227119011969
1000000000.0 -0.0007555927059517837 -0.08376630456076688
1020000000.0 -0.020765546674885307 -0.10096152408019858
1040000000.0 0.08078015349089131 -0.08938198673966655
1060000000.0 0.15777975551866535 -0.0008145441388089046
1080000000.0 0.12913211231626612 0.12108227921161094
1100000000.0 -0.10621534928226174 -0.17182821377074547
1120000000.0 0.06923934955946599 0.21287366783471856
1140000000.0 0.24059384796717095 -0.09182670899144564
1160000000.0 -0.013084320135278342 -0.28496140499637695
1180000000.0 0.15090230748966632 -0.280065492256976
1200000000.0 0.34082550059462424 0.004430153696758785
1220000000.0 -0.35612031526415294 0.0813309598961903
1240000000.0 0.2655896601471765 0.279618169947673
1260000000.0 0.014960715335430478 -0.40746849997387313
1280000000.0 -0.4219505600709191 -0.042425773990573026
1300000000.0 0.23730550759455246 0.36384267133411086
1320000000.0 0.40374021374220087 0.16475573261544496
1340000000.0 0.4348977638859915 -0.029182292904363916
1360000000.0 0.43843520756851667 -0.008731173134178486
1380000000.0 0.18614348819465856 -0.3932605419166949
1400000000.0 -0.40405187929660275 -0.14028277678747433
1420000000.0 0.06109617985684758 0.40481411586227484
1440000000.0 0.3688828302433377 -0.10409916413895821
1460000000.0 -0.023400767787905365 -0.3532143365673021
1480000000.0 -0.3157517238673807 0.06257783273054783
1500000000.0 -0.11321765829492335 0.266896742833311
1520000000.0 0.08952945579058624 0.24621294789798362
1540000000.0 -0.1653389500513618 -0.16365728131594368
1560000000.0 0.11074143380430558 -0.16452255231509622
1580000000.0 0.1283902183685435 0.11038169968734178
1600000000.0 0.13443678151822186 0.003032734546113102
1620000000.0 0.10116157431998053 0.027510330564663198
1640000000.0 -0.01696904593233471 0.07610962813361333
1660000000.0 0.007197817894800138 -0.052653839612005336
1680000000.0 -0.029700820096886547 0.01498731035165005
1700000000.0 -0.01929652146103371 -0.0010283521709263327
1720000000.0 6.874141751425854e-05 -0.005107651179710297
1740000000.0 0.00453368302377913 0.01587508466244357
1760000000.0 -0.014659463735229689 0.029965583122110395
1780000000.0 -0.04557956149851688 0.040113087517744665
1800000000.0 -0.06522831187879714 -0.06398279489867623
1820000000.0 -0.12060254363715342 -0.014028331410597448
1840000000.0 0.1592021253454946 -0.009349715333964514
1860000000.0 -0.19672003179514186 -0.016187950958144712
1880000000.0 0.2356864990694264 -0.03127020096250986
1900000000.0 -0.2724483741838688 0.07216269437854823
1920000000.0 0.26977719025147073 -0.1669966847481984
1940000000.0 -0.34888462625102723 0.041642271649104994
1960000000.0 0.3375150381779911 0.17270349375091257
1980000000.0 -0.08322544903862703 -0.3893595411601068
2000000000.0 -0.3991241854080086 -0.11530493891462104
2020000000.0 -0.19716154932328858 0.3780232015831054
2040000000.0 0.04731352758856917 0.4299484225934148
2060000000.0 0.3982312144359134 0.17369467919212717
2080000000.0 0.41912660460275775 -0.10332202649214103
2100000000.0 0.32241365267745054 -0.2754698082060583
2120000000.0 0.16171799352332886 -0.3824896781079865
2140000000.0 0.0868565712271061 -0.393919259754491
2160000000.0 0.38571883247683986 -0.045188241927449364
2180000000.0 0.33080036882929476 -0.17532023424433865
2200000000.0 0.10148815956620115 -0.3468158553994294
2220000000.0 -0.19587952647174112 -0.2886492371645096
2240000000.0 -0.3403055541896127 -0.033215878852665755
2260000000.0 -0.27365505487508995 0.20117155983720736
2280000000.0 -0.09878305460038657 0.3282178149673149
2300000000.0 0.282382193872013 0.21472143349508369
2320000000.0 0.2503867554523804 -0.2802645337135008
2340000000.0 -0.2677950928886075 -0.3066267477982517
2360000000.0 -0.09674540363993597 0.43767034083503675
2380000000.0 0.3268854538457779 -0.37589353048920554
2400000000.0 -0.3450108682861792 0.4298202724482304
2420000000.0 0.16065351484860182 -0.5839602343273246
2440000000.0 0.19866280155263932 0.625646561290308
2460000000.0 -0.5974833182887574 -0.36389388534424233
2480000000.0 0.7276314245711548 0.09798958026579782
2500000000.0 -0.7571098153755738 -0.00532410683559347
2520000000.0 0.756669989400298 0.1458648353867721
2540000000.0 -0.6190737955776194 -0.4646892302709778
2560000000.0 0.1614764404031315 0.7527845497122342
2580000000.0 0.495919207623898 -0.5704983210349359
2600000000.0 -0.7325473558886834 -0.009023229152683119
2620000000.0 0.474196486154863 0.5181654600703323
2640000000.0 0.6493640001865612 0.14699681125197167
2660000000.0 -0.3186437372071308 -0.5323131729152115
2680000000.0 -0.088578129526762 0.5660502203786453
2700000000.0 0.3262483233627878 -0.4099008766531879
2720000000.0 -0.40813040806043754 0.24227645312032886
2740000000.0 0.42879438787587065 -0.001469969091386455
2760000000.0 -0.38761047766338963 -0.030525379217301512
2780000000.0 0.35495522435307814 -0.043056832570057074
2800000000.0 -0.23282877935565158 0.23693074684938603
2820000000.0 -0.13891168673476895 -0.28365805869545035
2840000000.0 0.30072518048355346 0.0506602672714887
2860000000.0 -0.17475398134038864 0.24499861993399297
2880000000.0 -0.10923728618469217 -0.280743391402056
2900000000.0 0.2033444812700347 0.2247526998686941
2920000000.0 0.04408658317315818 -0.30347344663083653
2940000000.0 -0.3106244105909413 -0.021256322795542862
2960000000.0 -0.24318308386040163 0.20125562265441144
2980000000.0 -0.27808475203922883 0.15793720720074986
3000000000.0 -0.2980172045978302 -0.11708561897946337
3020000000.0 0.054825610900183515 -0.3148402787779019
3040000000.0 0.214195666434925 0.23429979356387867
3060000000.0 -0.2951205945349286 -0.10682575303108831
3080000000.0 0.3014257911785851 0.06712993302471043
3100000000.0 -0.30188561254626983 -0.02455013579448837
3120000000.0 0.2913563848023421 -0.052697224360907464
3140000000.0 -0.17278257987575552 0.22809347677920497
3160000000.0 -0.034741657983030236 -0.26975621047308207
3180000000.0 -0.13734002125503886 0.2149319631730625
3200000000.0 -0.2006452570326352 -0.11341986761746074
3220000000.0 0.08927609790747963 -0.1835256572579537
3240000000.0 0.1271016589937351 0.11885547855181781
3260000000.0 -0.12538381239055202 0.0648549960422971
3280000000.0 0.09603995694281812 -0.05296863592259804
3300000000.0 -0.048272293483141084 0.063558993153457
3320000000.0 0.026262863921090358 -0.04543577236504855
3340000000.0 0.021920132936380184 0.01713057869451314
3360000000.0 0.0004938494852009377 -0.009704596515223637
3380000000.0 0.0015984022240085596 0.008163511668169633
3400000000.0 -0.0051639408527296106 0.02087554449951791
3420000000.0 -0.029619029647733143 0.01646969328410041
3440000000.0 0.04284459837017932 -0.011272314284049635
3460000000.0 0.020456021980244304 0.05058487011180939
3480000000.0 0.030259132135060433 0.057772962954882164
3500000000.0 0.07628946870127092 -0.020887955430905325
3520000000.0 -0.05362080812393267 -0.0773684227673493
3540000000.0 0.07364239438049121 0.07982704809276665
3560000000.0 -0.12258051255059325 -0.017231964366343996
3580000000.0 0.10561169561200345 -0.08748237450046328
3600000000.0 0.135311876691726 0.07273378122958718
3620000000.0 0.015972275486632395 0.16426909446464297
3640000000.0 -0.14950238071482408 0.09156590691473364
3660000000.0 -0.185118969109556 -0.005171967236119903
3680000000.0 -0.15797957350120082 -0.10526978231695394
3700000000.0 -0.12358907595530012 -0.14446037899966843
3720000000.0 0.04215686424950733 -0.18394018757245292
3740000000.0 0.14353659880474204 -0.11548978165981802
3760000000.0 -0.15025159282922873 0.09536870335367116
3780000000.0 0.14786305170455347 -0.08056401545098744
3800000000.0 -0.10351412398928574 -0.12361297943379201
3820000000.0 -0.1489165497569256 0.037900200402714516
3840000000.0 -0.1415428569966064 -0.03679255694050742
3860000000.0 0.1251306855479569 -0.07580096631747318
3880000000.0 0.14445490306604042 -0.04284495751759131
3900000000.0 0.018765769073689216 -0.15603957279086733
3920000000.0 -0.12782144212562457 0.09766036695336147
3940000000.0 0.03947432650903601 -0.16125772991731144
3960000000.0 0.17158430160877633 -0.0031990495630815612
3980000000.0 0.11980760302116944 -0.12344194387783361
4000000000.0 0.12025007480742307 -0.1151284628815327
