!Created with skrf (http://scikit-rf.org).
# Hz S RI R 50.0 
!freq ReS11 ImS11
400000000.0 -0.5966712264658391 0.6371064652658825
420000000.0 0.3602761692683699 0.7905599205007889
440000000.0 0.6614557757378747 -0.5160413921437933
460000000.0 -0.3606949330211514 -0.7048870723258261
480000000.0 0.5360010044707472 -0.45916209713820016
500000000.0 -0.2235001970056104 -0.5334076240682332
520000000.0 -0.4103097589731914 0.2762311068105216
540000000.0 0.32116041128134504 -0.256539347960616
560000000.0 -0.314421515603715 -0.190110477024536
580000000.0 0.3063640948904396 0.14736964124260538
600000000.0 0.31346238943673965 -0.1459740129400962
620000000.0 -0.2230137465604585 0.2818367280140431
640000000.0 0.2695817260221305 0.28449916889760657
660000000.0 0.10185907468171893 -0.39153466261730907
680000000.0 0.34967836083724047 0.24092622511138861
700000000.0 0.07873016277590801 -0.4261298853580525
720000000.0 -0.3344241729790056 0.267706545550581
740000000.0 0.21915025052870052 -0.3504389438614263
760000000.0 -0.3716080216376651 -0.12435483446797113
780000000.0 0.22140053136906518 0.28224331594581753
800000000.0 0.09292289917102786 -0.3093631577186879
820000000.0 -0.2720135551590271 0.05657318737491306
840000000.0 -0.09206127466437466 0.22216756982875102
860000000.0 -0.16840815543166887 -0.11264181806306264
880000000.0 0.11605079820844562 0.11002514570591355
900000000.0 0.002508240539489435 0.11392568108760075
920000000.0 0.006712834896297018 0.07582518796378214
940000000.0 0.028935673165575906 -0.031966749368484836
960000000.0 -0.022830250607293757 0.042608353387437556
980000000.0 0.03958297601515361 0.05594672732625328
1000000000.0 0.006567924051512432 -0.08482002923839352
1020000000.0 0.07328846803870284 -0.0735313751523672
1040000000.0 0.11382245551116671 -0.039893366626454214
1060000000.0 0.13899910147259645 0.07357674190055795
1080000000.0 0.06982882110491423 0.1606571614190842
1100000000.0 -0.06816516510670018 -0.18807621854330883
1120000000.0 0.07358600571099914 0.2089241086359922
1140000000.0 0.21956279033419937 -0.1300948962019438
1160000000.0 -0.09787773439664783 -0.2653480994772164
1180000000.0 0.06490409855230794 -0.309242783983183
1200000000.0 0.32485700826295677 -0.09953780763403568
1220000000.0 -0.32114284984932717 0.17415898049583
1240000000.0 0.343253716858736 0.17722965722774298
1260000000.0 -0.09275741191663905 -0.39803659285007503
1280000000.0 -0.4220543078737925 0.04790182777469578
1300000000.0 0.302776409401342 0.31258331934303724
1320000000.0 0.4108380343154501 0.15038734948887847
1340000000.0 0.4351036694187356 -0.042105261162974826
1360000000.0 0.4395386074024183 0.006872701097226845
1380000000.0 0.22077412014163125 -0.3753870587501181
1400000000.0 -0.36781033746868136 -0.21878593505571275
1420000000.0 -0.02822101751073622 0.40873731829553606
1440000000.0 0.382857720071055 0.005177738589606879
1460000000.0 0.077839058431785 -0.3449726746652237
1480000000.0 -0.3193805913767432 -0.035770247178046125
1500000000.0 -0.17791947718152423 0.2272565387831888
1520000000.0 0.07734060459683098 0.24811205482520965
1540000000.0 -0.12115744633054301 -0.19579746262165298
1560000000.0 0.12856600680266045 -0.14831350030786947
1580000000.0 0.13686653711543448 0.09596400630104089
1600000000.0 0.13070484571724467 -0.0229424293225425
1620000000.0 0.10082206764318358 -0.022974422746210917
1640000000.0 0.0362500710220731 0.06772340368196203
1660000000.0 -0.050585977834108176 -0.01528375619964069
1680000000.0 0.03355272455767376 -0.002545982274694954
1700000000.0 0.011050664764506831 -0.017028130571008833
1720000000.0 -0.001954551048285423 -0.0044065144605466185
1740000000.0 0.015127401319261118 -0.0042063577213102
1760000000.0 0.03204194451934557 0.0001499074163660746
1780000000.0 0.04270537248683702 0.04289903850269669
1800000000.0 -0.08567410091860068 0.02960988262109224
1820000000.0 -0.10948171777020041 0.05477049989268911
1840000000.0 0.1309677506472942 -0.09296975075040095
1860000000.0 -0.19540980396451235 0.03374408254110865
1880000000.0 0.23081717423808848 -0.06324744066474755
1900000000.0 -0.2702013714272293 0.0838079159038637
1920000000.0 0.28419907660050486 -0.14302245280492026
1940000000.0 -0.3523237978513846 0.0016544601059395318
1960000000.0 0.30909074620706956 0.22073253909857984
1980000000.0 -0.010869900639392279 -0.39838197231341976
2000000000.0 -0.37994196376564404 -0.1675473852184632
2020000000.0 -0.25861838939558063 0.3377448407345615
2040000000.0 0.005213301318092689 0.43136933155175117
2060000000.0 0.3772108504556433 0.21240202929843055
2080000000.0 0.4213225325493765 -0.08661540011983769
2100000000.0 0.32423162965673274 -0.27173933882532264
2120000000.0 0.1359612165733049 -0.39037703135701207
2140000000.0 0.06589383403797253 -0.39687819945644426
2160000000.0 0.3790197739764839 -0.08253775340603664
2180000000.0 0.27552106385676584 -0.2527118388830302
2200000000.0 0.0034895675926448367 -0.3610578196764233
2220000000.0 -0.2345447797276058 -0.2596080028451396
2240000000.0 -0.343003674136521 0.025555862997175834
2260000000.0 -0.26323957416567095 0.2180649478666463
2280000000.0 -0.08381220172969735 0.3345783557088741
2300000000.0 0.29280411485033375 0.20431008098566533
2320000000.0 0.22822187133819927 -0.3019557244852574
2340000000.0 -0.29636157089262427 -0.28307617342340097
2360000000.0 -0.09874262059410303 0.43994760156539386
2380000000.0 0.32417765846955454 -0.3815843613715006
2400000000.0 -0.3376706378210661 0.43855720265362924
2420000000.0 0.09898257227286936 -0.5993497977956074
2440000000.0 0.308235340163321 0.5807428613709764
2460000000.0 -0.6601511133068712 -0.2333646218024228
2480000000.0 0.7223905849157584 -0.12745011954030322
2500000000.0 -0.7253280453698586 0.2136282340364721
2520000000.0 0.7609720529745994 -0.10908038626299554
2540000000.0 -0.7393568167578605 -0.22326361232262176
2560000000.0 0.48072829056371563 0.5985941182310864
2580000000.0 0.20717322565420587 -0.7251329557854328
2600000000.0 -0.6150813263997966 0.39381168573105857
2620000000.0 0.6716804550401719 0.1984742426694594
2640000000.0 0.6196179290546673 -0.2385742674061859
2660000000.0 -0.5616462626117639 -0.25993310040819007
2680000000.0 0.22930685245807447 0.5237277085740624
2700000000.0 0.06238687922530553 -0.5194384624728278
2720000000.0 -0.2847795842362281 0.3788965442631938
2740000000.0 0.41631058103806773 -0.10226233236407246
2760000000.0 -0.3856660738308733 0.04420962822029352
2780000000.0 0.3444616461951463 -0.0945449176834998
2800000000.0 -0.23967385817956038 0.22978865575323565
2820000000.0 -0.13820203409876586 -0.28275084584291277
2840000000.0 0.2975516876491086 0.05741921265235935
2860000000.0 -0.20627289996078135 0.21756378675293067
2880000000.0 -0.09394580095135313 -0.28381017856788393
2900000000.0 0.19623033741036813 0.22796735478948654
2920000000.0 0.008509015144481399 -0.3034551119128025
2940000000.0 -0.3076932372993215 -0.017389297118628765
2960000000.0 -0.1927898949766447 0.2462725324471835
2980000000.0 -0.22195685656730316 0.22492728703892517
3000000000.0 -0.3159092758262853 -0.018416984905526384
3020000000.0 -0.06729837648785207 -0.3099743754847628
3040000000.0 0.2996265685902424 0.09648476877796254
3060000000.0 -0.3097250177487375 0.03684354363516658
3080000000.0 0.28486195065618 -0.11510365999409593
3100000000.0 -0.2940258634740707 0.06853939402868356
3120000000.0 0.17207453488643865 -0.2419301736979833
3140000000.0 -0.03261982646179865 0.28518496350893735
3160000000.0 -0.1769159921394112 -0.20699486278245846
3180000000.0 -0.011374998702307688 0.25579186413245897
3200000000.0 -0.23031067118480353 -0.024116787404370593
3220000000.0 0.037500287130694906 -0.20130803410699677
3240000000.0 0.1493109840783379 0.08972904048345819
3260000000.0 -0.13538548422920382 0.04122249064875126
3280000000.0 0.09942621169003105 -0.046770393376245556
3300000000.0 -0.07673933550268186 0.01937174570157115
3320000000.0 0.04021182072762946 0.03289096990644192
3340000000.0 -0.009173138548824384 -0.025927077872267237
3360000000.0 0.005103468174756877 -0.006778049896426472
3380000000.0 -0.00813666379124022 0.00013490824990712293
3400000000.0 -0.01242039135530239 0.018099916337483327
3420000000.0 0.02588421392027896 -0.023411761838229808
3440000000.0 -0.041650129420356966 -0.01651042262069832
3460000000.0 0.03678582737795331 -0.039829995568451376
3480000000.0 0.05383408773810847 -0.036913057257056035
3500000000.0 0.03278512967350638 -0.07220915505379771
3520000000.0 -0.085562238661787 -0.03872716396424564
3540000000.0 0.09495161690711934 0.052607348624435654
3560000000.0 -0.10482821465308947 0.06655070550984474
3580000000.0 0.033302594971182146 -0.1335109253687157
3600000000.0 0.1492391198901076 0.03485792973259399
3620000000.0 0.07380980570211251 0.1481746946725867
3640000000.0 -0.10636947046291782 0.14104776587662793
3660000000.0 -0.18293663192060317 0.03147959924312649
3680000000.0 -0.1637833026222298 -0.09710435820479622
3700000000.0 -0.13695662675175158 -0.13276892768877233
3720000000.0 0.03887301907971693 -0.18564369491362234
3740000000.0 0.16663199987376234 -0.07902115835418652
3760000000.0 -0.15793448835402565 0.08419276271595293
3780000000.0 0.1439284209197496 -0.08866044675024388
3800000000.0 -0.06000555448372668 -0.1507790075928704
3820000000.0 -0.1537744248136117 -0.007142008258509817
3840000000.0 -0.11710382128815935 -0.08960864593140963
3860000000.0 0.11562503784633515 -0.09092112823507258
3880000000.0 0.14454046009490093 -0.043237835266504744
3900000000.0 0.07308952864330096 -0.1396018244098881
3920000000.0 -0.11950468353267647 0.10910480432042508
3940000000.0 0.0589187078616226 -0.15660352760733492
3960000000.0 0.17192538014941283 0.019336072097442605
3980000000.0 0.14445227322627763 -0.09629878771452789
4000000000.0 0.14590134031445096 -0.08439820374627878
