!Created with skrf (http://scikit-rf.org).
# Hz S RI R 50.0 
!freq ReS11 ImS11
400000000.0 -0.6221216617531592 0.6112519829062469
420000000.0 0.3518732562081142 0.794414340500044
440000000.0 0.6824030448883074 -0.4880919436639534
460000000.0 -0.33393519556743734 -0.7182670941199235
480000000.0 0.5011211008813311 -0.49837372883256026
500000000.0 -0.26362284868432184 -0.513974246532381
520000000.0 -0.3660526184413321 0.33391089446814626
540000000.0 0.3289840445730714 -0.2462298192390387
560000000.0 -0.3295229504771452 -0.1605271074343088
580000000.0 0.22289688938613506 0.2551305130113128
600000000.0 0.3267725782533298 -0.11438406029978292
620000000.0 -0.18658121754915294 0.308875381047727
640000000.0 0.3067542566377396 0.24395998987264253
660000000.0 0.13939262539221092 -0.3792557677500049
680000000.0 0.3595272249337662 0.22556138186691674
700000000.0 0.03777159857454849 -0.43186864979173617
720000000.0 -0.3131683803815672 0.291147969967395
740000000.0 0.2122143746191778 -0.35449303091015005
760000000.0 -0.3682363413704629 -0.13424712376207829
780000000.0 0.2492643345043932 0.25773310198472954
800000000.0 0.10579089457555238 -0.3051269395976896
820000000.0 -0.27116182057115507 0.059036546096367506
840000000.0 -0.0834539857302503 0.22535467772889184
860000000.0 -0.17610742377682392 -0.1003577143929777
880000000.0 0.11986684784331567 0.10537853522047516
900000000.0 -0.01359679614159703 0.1127861467063354
920000000.0 -0.03295883499544014 0.0685190883503569
940000000.0 0.022081921105541212 -0.03743377772419499
960000000.0 -0.026715086649137427 0.040030283754786
980000000.0 0.01865344042443199 0.0662023212133759
1000000000.0 0.020684056794754963 -0.08296403773128098
1020000000.0 0.09187744287275983 -0.04880306526431497
1040000000.0 0.11970325850679578 -0.015904633351484686
1060000000.0 0.11254986445692818 0.10988834832643332
1080000000.0 0.057892884366631654 0.16544373205841714
1100000000.0 -0.06620995869056176 -0.18866864520767646
1120000000.0 0.09989089468058218 0.19756051547859552
1140000000.0 0.22474073432448474 -0.12018410630781196
1160000000.0 -0.11625485720241613 -0.25792810539212746
1180000000.0 0.057431133299126615 -0.3104282626684703
1200000000.0 0.32215056616705057 -0.10776675664805724
1220000000.0 -0.3208066095968689 0.17386206322843514
1240000000.0 0.3465732990664039 0.16984049779881208
1260000000.0 -0.08847441588996788 -0.3986575499115951
1280000000.0 -0.4232045250938967 0.03415618879786875
1300000000.0 0.2777932110352598 0.3347018086142691
1320000000.0 0.41980897254125965 0.12241062128259152
1340000000.0 0.4345573998201908 -0.04470874704803247
1360000000.0 0.4387424093744297 0.020380249295535374
1380000000.0 0.21595008195452978 -0.3780835500885714
1400000000.0 -0.3703415137454139 -0.2144601679817167
1420000000.0 -0.012057624753213503 0.40933785914738474
1440000000.0 0.3831101281244929 0.0059836499933269205
1460000000.0 0.050078807999294636 -0.3495569832959727
1480000000.0 -0.3206822971803151 -0.01679179233788187
1500000000.0 -0.16992482536122894 0.23316388574884703
1520000000.0 0.03988142218350109 0.2570873744285932
1540000000.0 -0.14010297742247932 -0.18330132613704841
1560000000.0 0.13953464523476755 -0.13826585006756156
1580000000.0 0.13603232859057454 0.09763911843727908
1600000000.0 0.126548638046527 -0.04062316537206174
1620000000.0 0.09660462734828175 -0.03764566113205761
1640000000.0 0.04610578265655958 0.06241364325800518
1660000000.0 -0.053068951204942885 -0.007973779367434219
1680000000.0 0.03320817576093762 -0.0028989757645271354
1700000000.0 0.01820163273928488 -0.009757890167851373
1720000000.0 -0.004736216018536628 -0.0003861012068524672
1740000000.0 -0.008671250223648074 0.012451167175048725
1760000000.0 0.02265061036069656 -0.02344383652067142
1780000000.0 0.02542791074624033 0.05487679236563745
1800000000.0 -0.09086401657883028 0.0012745604484445444
1820000000.0 -0.1096713633310362 0.053940472105739684
1840000000.0 0.14912455471165145 -0.05888608687573792
1860000000.0 -0.19818059676943903 -0.00017411263757140523
1880000000.0 0.23364353940888677 -0.04938985833913269
1900000000.0 -0.2762332015467224 0.06208024794979894
1920000000.0 0.2887050157229517 -0.13276094060713126
1940000000.0 -0.35175584529930515 0.0045603953145545665
1960000000.0 0.31061571877207717 0.2171360263057938
1980000000.0 -0.010866017710355814 -0.39779927174352553
2000000000.0 -0.38064700391193346 -0.16470594953767168
2020000000.0 -0.20968263493737352 0.3697464763093144
2040000000.0 0.042299631532689425 0.42916830413386314
2060000000.0 0.40086052448861553 0.16362774943560424
2080000000.0 0.40008005575116545 -0.1587358386204232
2100000000.0 0.32625243647360413 -0.26977218965058136
2120000000.0 0.09408441702334534 -0.40282331954189354
2140000000.0 0.029940718121503524 -0.4016223136299661
2160000000.0 0.3768086164847935 -0.09181553613951612
2180000000.0 0.27347330561609234 -0.25467827675857974
2200000000.0 0.05168417017327578 -0.3571401037688025
2220000000.0 -0.2279757441909444 -0.26544579606353885
2240000000.0 -0.3435403126303163 0.013492278181384399
2260000000.0 -0.25137100199594753 0.2308990444400217
2280000000.0 -0.09528374379685421 0.3306284493395814
2300000000.0 0.2909833922170996 0.20536541747844347
2320000000.0 0.26231778208244255 -0.2713213698742142
2340000000.0 -0.2667428528809721 -0.3094161927072012
2360000000.0 -0.13305501544120754 0.4291517141542804
2380000000.0 0.3482855709025233 -0.35718173185363605
2400000000.0 -0.4234971305770871 0.3529814383437222
2420000000.0 0.24306003827105888 -0.5546354827604115
2440000000.0 0.15938937838674672 0.6363285180977485
2460000000.0 -0.5750044831239817 -0.39725808081878233
2480000000.0 0.7225364040462336 0.12709006438921505
2500000000.0 -0.7551100614649885 -0.03433132075886354
2520000000.0 0.7575512057084935 0.1339115480120969
2540000000.0 -0.6287929124310259 -0.4493816147939612
2560000000.0 0.23317128814967167 0.7327344941631663
2580000000.0 0.4089900235855623 -0.6352776912065684
2600000000.0 -0.7214394277785249 0.12509772695124308
2620000000.0 0.535872753731799 0.45480591382901153
2640000000.0 0.6667646012988658 0.01668059607720881
2660000000.0 -0.4362484456843686 -0.442989286190356
2680000000.0 0.04042706307231612 0.5730096752457063
2700000000.0 0.20107443880028847 -0.48596695218413344
2720000000.0 -0.3603758235812197 0.3124776542464249
2740000000.0 0.4273147754292512 -0.05931199665189268
2760000000.0 -0.3904284181584259 0.006738418360511556
2780000000.0 0.35581231227867605 -0.052625540338081464
2800000000.0 -0.25141353696961777 0.22015601763646225
2820000000.0 -0.08833099136424508 -0.3039638219501597
2840000000.0 0.2908108056085334 0.09165302556650982
2860000000.0 -0.2364972599052386 0.187381919929905
2880000000.0 -0.060856561151161365 -0.29496125859159134
2900000000.0 0.14201230026010317 0.2669341428519865
2920000000.0 0.09282308509769188 -0.2910117410251344
2940000000.0 -0.308773055165475 -0.027781663054018364
2960000000.0 -0.2248304603269934 0.2186688381923846
2980000000.0 -0.2475954975252614 0.19899045592513237
3000000000.0 -0.31676198951969664 -0.038034432019434114
3020000000.0 -0.022215502542221006 -0.3182656602417705
3040000000.0 0.2983557579947012 0.10425022621773063
3060000000.0 -0.31309585802446716 -0.00338883918441589
3080000000.0 0.3000242899132687 -0.07032797333494217
3100000000.0 -0.2890114500615653 0.0886246575357094
3120000000.0 0.20664915150058333 -0.21277732432274146
3140000000.0 -0.05596634337604176 0.28161832266535697
3160000000.0 -0.1427366182611177 -0.23238548884553456
3180000000.0 -0.04429400165536219 0.25268645880697493
3200000000.0 -0.22680004690925137 -0.04975735701563979
3220000000.0 0.02141294348125545 -0.20441132673300313
3240000000.0 0.15869218951126615 0.07321543540344155
3260000000.0 -0.13136731972289448 0.05330811435866981
3280000000.0 0.1099956734853648 -0.0019298972776398758
3300000000.0 -0.07887530923004223 0.010940081067211897
3320000000.0 0.04833617803878728 -0.02040274938566982
3340000000.0 -0.027567483176479654 -0.0010244507542290532
3360000000.0 0.007993019662059658 0.0029901437419708864
3380000000.0 0.006944927468432777 0.0053221470473855765
3400000000.0 -0.012599713773234999 -0.018608353967811447
3420000000.0 0.021849176072695688 0.028285432348633743
3440000000.0 0.03189509025099002 -0.03306015827346258
3460000000.0 0.05259253000159603 -0.017804414408557023
3480000000.0 0.06179592368507954 0.023681884675071273
3500000000.0 0.025050596852539048 -0.07652169083601548
3520000000.0 -0.042339440331515085 -0.08458201318347085
3540000000.0 0.108248562714635 0.019390737077237617
3560000000.0 -0.11912106929984186 0.038608950866270836
3580000000.0 0.05859760648761853 -0.12612866436138961
3600000000.0 0.1368217151764588 0.07216433468088783
3620000000.0 0.04199055956884985 0.1607909663981493
3640000000.0 -0.13022469509842227 0.12071797055021533
3660000000.0 -0.1825609129120577 -0.035483645647223415
3680000000.0 -0.1369478138403049 -0.1329180342321282
3700000000.0 -0.0720999711761276 -0.17714469397236404
3720000000.0 0.12264470363451213 -0.1457664418870842
3740000000.0 0.17463205457255826 -0.06140638531246956
3760000000.0 -0.174073810661216 0.03865829582367633
3780000000.0 0.16493189351537413 -0.0342698162702253
3800000000.0 -0.006184795285037657 -0.16092752313764205
3820000000.0 -0.14471079754628688 -0.05116099960125556
3840000000.0 -0.11748149120534311 -0.08592192813917776
3860000000.0 0.1445908577283591 -0.01769648116102927
3880000000.0 0.14948311061912006 0.013090505242438925
3900000000.0 0.06849085209951286 -0.1406809545916092
3920000000.0 -0.1372826667803993 0.08344741920207446
3940000000.0 0.09878095760214844 -0.13432707726639595
3960000000.0 0.17022374374858143 -0.014783956882805227
3980000000.0 0.11474463819450868 -0.12761270270218492
4000000000.0 0.14205659281724636 -0.0863607455632834
