!Created with skrf (http://scikit-rf.org).
# Hz S RI R 50.0 
!freq ReS11 ImS11
400000000.0 -0.5933717042638356 0.638892778578597
420000000.0 0.3924180357690103 0.7747477775561304
440000000.0 0.6675973098311543 -0.5071157243012394
460000000.0 -0.355305049701717 -0.7072253803804365
480000000.0 0.4864717686343196 -0.5121391848488737
500000000.0 -0.2807144956990416 -0.5049307555834621
520000000.0 -0.3595711911473876 0.34045238043307746
540000000.0 0.3420185612556117 -0.22693405013585777
560000000.0 -0.3027148913097462 -0.20654787551289294
580000000.0 0.2102092177827791 0.2655214360387085
600000000.0 0.3367812551760882 -0.08045814015239909
620000000.0 -0.18975425234023863 0.30705807321352657
640000000.0 0.3128049062866895 0.23615802019008794
660000000.0 0.1084895207932343 -0.3889231556930452
680000000.0 0.35873356026325504 0.22709807634472537
700000000.0 0.0066701802206530995 -0.43361916219316327
720000000.0 -0.3045395580861727 0.30034669227652766
740000000.0 0.17921317806312856 -0.37230742587396926
760000000.0 -0.370404509980893 -0.12965593361510566
780000000.0 0.24904835151938928 0.2577238905098616
800000000.0 0.108191251020961 -0.30458134011553883
820000000.0 -0.27320990468854484 0.048246610632826425
840000000.0 -0.08655684555910757 0.22433335072442007
860000000.0 -0.17403098406563447 -0.10348110031686356
880000000.0 0.12081341222063276 0.10428988240839612
900000000.0 -0.005673754324400833 0.11310898318078824
920000000.0 -0.019902180754652356 0.07276689409505752
940000000.0 -0.002537978772923006 -0.04308933870842513
960000000.0 -0.012829951877681283 0.04651643855382892
980000000.0 0.02286239770553177 0.06498451353151247
1000000000.0 0.03424966378788375 -0.0784067045553053
1020000000.0 0.09874550287635409 -0.03265662582715616
1040000000.0 0.12009563978994942 -0.012769883704170946
1060000000.0 0.11803389004378727 0.10366186429299613
1080000000.0 0.0438302435279205 0.16943161871597803
1100000000.0 -0.05001789221421711 -0.19347419075317088
1120000000.0 0.09044255135481558 0.20202745949863354
1140000000.0 0.2093798614463578 -0.14513283054033968
1160000000.0 -0.10217199029400673 -0.2635591558969219
1180000000.0 0.04992193661056355 -0.31163316584862344
1200000000.0 0.32236414651285383 -0.10739504391043293
1220000000.0 -0.3231812474377265 0.16987106186813936
1240000000.0 0.34369907740667516 0.17607590013607533
1260000000.0 -0.09667247249210147 -0.39727268184611064
1280000000.0 -0.42394085409826726 0.029532237092184634
1300000000.0 0.287454888060438 0.32687367919398863
1320000000.0 0.4149197114228058 0.13895735291625813
1340000000.0 0.4357747129148416 -0.03343997471402864
1360000000.0 0.4384629593102967 0.026316765139792433
1380000000.0 0.231141377194522 -0.3688079736706033
1400000000.0 -0.35289184867698775 -0.24171403550405066
1420000000.0 -0.05285449058544734 0.40597266360856876
1440000000.0 0.38120565511804166 0.032907269890534475
1460000000.0 0.08293127642446775 -0.34286014860433295
1480000000.0 -0.3162990123364017 -0.05159275963519552
1500000000.0 -0.18392027099545943 0.22163335134331344
1520000000.0 0.03744663021391107 0.2570569371370194
1540000000.0 -0.13433633567961398 -0.1867663396824806
1560000000.0 0.13027036385756016 -0.14626668732974812
1580000000.0 0.13950015959034573 0.09207923397924928
1600000000.0 0.09924619378379376 -0.08782023874427894
1620000000.0 0.0712588538104386 -0.07525796848622181
1640000000.0 0.058766411624199356 0.05051631465127726
1660000000.0 -0.053394669762721246 0.004952120235100119
1680000000.0 0.011271167089839537 -0.03214054296718248
1700000000.0 -0.005941170453891215 -0.020322455281971404
1720000000.0 -0.0005024565349249182 0.005332143939235789
1740000000.0 0.015274242108670646 0.0005208104676020403
1760000000.0 0.016522151084765752 -0.02790089073068421
1780000000.0 0.04911465495667593 0.03556541079349229
1800000000.0 -0.08163576589373313 0.04123121605423091
1820000000.0 -0.09430565400461109 0.07835330147674875
1840000000.0 0.1297265660553015 -0.09535647886770085
1860000000.0 -0.1961426686748352 0.0334766079409812
1880000000.0 0.22852754754291327 -0.07249493695970677
1900000000.0 -0.27435918747136484 0.07173690964617804
1920000000.0 0.2924308746841883 -0.12602549285469225
1940000000.0 -0.3523395917447866 -0.006362446482311278
1960000000.0 0.3058705417306164 0.2245591073725672
1980000000.0 -0.01672855365596283 -0.39762064471557756
2000000000.0 -0.3857090936105272 -0.15198046358046277
2020000000.0 -0.2514780149904955 0.34287508267271116
2040000000.0 0.046870412205471036 0.42848170892127063
2060000000.0 0.38769635542880077 0.19215158635123822
2080000000.0 0.40214841978936017 -0.15186930457684333
2100000000.0 0.30115671968541213 -0.29667754163478005
2120000000.0 0.09209874351709468 -0.4026579014871429
2140000000.0 -0.02309523094313737 -0.4015842293983302
2160000000.0 0.3603761563930668 -0.1425014122751089
2180000000.0 0.2470325869240228 -0.28019943776159684
2200000000.0 -0.01724868796849118 -0.36056391812001387
2220000000.0 -0.25944759428810643 -0.2349523741996283
2240000000.0 -0.33959881772708067 0.05830670279469338
2260000000.0 -0.2096821500757955 0.27073349963881815
2280000000.0 -0.038061767067908855 0.3434565330993642
2300000000.0 0.3188072412193094 0.1620671116006181
2320000000.0 0.20347298409192208 -0.32019685440493434
2340000000.0 -0.31421481942381346 -0.2640408999397443
2360000000.0 -0.06466111978088701 0.4468660601488134
2380000000.0 0.2855728856740469 -0.41200573989540235
2400000000.0 -0.31028461069440455 0.45869041839890745
2420000000.0 0.08618453286321663 -0.6016031662083778
2440000000.0 0.31990501616642847 0.5747402577195349
2460000000.0 -0.6594552210356633 -0.23510858376674768
2480000000.0 0.7253038494802685 -0.11216741461920934
2500000000.0 -0.7296684860224841 0.19748802112855643
2520000000.0 0.7600775212944875 -0.11492380222009324
2540000000.0 -0.7361523751922826 -0.23119348525843564
2560000000.0 0.4658315450085742 0.610028655467942
2580000000.0 0.20357626288573474 -0.7255694842107677
2600000000.0 -0.6406274938175869 0.3498425436434433
2620000000.0 0.671934467728973 0.1958659518859718
2640000000.0 0.6433771647826361 -0.16268186056620518
2660000000.0 -0.5522694118925671 -0.2784999825070122
2680000000.0 0.256219102345385 0.5108876744263031
2700000000.0 0.05410166924922259 -0.5199664418441117
2720000000.0 -0.25854693710525906 0.3971916992077854
2740000000.0 0.4066019421114439 -0.13575869701358928
2760000000.0 -0.3799629556408506 0.0787274244039536
2780000000.0 0.3391701995126388 -0.11246629097950828
2800000000.0 -0.22461907633738343 0.2446601213776238
2820000000.0 -0.12121582520253277 -0.29051802873225085
2840000000.0 0.2986706446804941 0.050850667716528575
2860000000.0 -0.19478103292439733 0.2275723850897668
2880000000.0 -0.08105388979556889 -0.2882520776090578
2900000000.0 0.18207939717787155 0.2390114817919821
2920000000.0 0.01684255013758583 -0.3029098677156694
2940000000.0 -0.308173613214465 0.009003848291622412
2960000000.0 -0.20215138362518725 0.23813214824582524
2980000000.0 -0.21788672883947519 0.22907419877309992
3000000000.0 -0.31677513549720715 0.010951983377475926
3020000000.0 -0.07603108346242075 -0.30849558994815934
3040000000.0 0.3001980464150083 0.09508901247558141
3060000000.0 -0.3038378099340757 0.07192281530755343
3080000000.0 0.29002965194236585 -0.10189235060404354
3100000000.0 -0.2794617497998222 0.1134229192862139
3120000000.0 0.14862243171495557 -0.2566342073902588
3140000000.0 -0.07311488341645056 0.27643991071183255
3160000000.0 -0.15664862368939397 -0.22249375773464627
3180000000.0 -0.030618885143230388 0.2541029443200465
3200000000.0 -0.22716109640475513 -0.04573282790656944
3220000000.0 0.03701023722681584 -0.20150864016201073
3240000000.0 0.14860276593890911 0.09191987281439784
3260000000.0 -0.1401350378830858 0.019016630564957195
3280000000.0 0.10951371518603133 -0.00025287331596493903
3300000000.0 -0.07898543078345908 -0.006170792587592153
3320000000.0 0.03311309449413129 0.04023606448655207
3340000000.0 -0.0022736606764419526 -0.027429901226818106
3360000000.0 0.00155451090663133 -0.00797873692267484
3380000000.0 0.0023197603928807238 -0.00796431366523352
3400000000.0 -0.010906555490513987 0.019347413580697085
3420000000.0 0.03183842791556133 -0.015481852966321943
3440000000.0 -0.04227923632738178 -0.01758663780093508
3460000000.0 -0.01261971869539795 -0.05372946572562363
3480000000.0 0.031850753072746964 -0.05795940027962476
3500000000.0 -0.030662125196892903 -0.07363832002900675
3520000000.0 -0.08956652769541679 -0.02854754154039175
3540000000.0 0.10406756701904471 -0.0331186021325205
3560000000.0 -0.08863341278044051 0.0875203240025633
3580000000.0 0.0123102330448541 -0.13761628372020873
3600000000.0 0.15420282819394612 -0.0036426342779312896
3620000000.0 0.09073152906516307 0.13850987339570933
3640000000.0 -0.08114630162963053 0.15775689544459165
3660000000.0 -0.18464481724722323 0.020811792188592266
3680000000.0 -0.1566867467557307 -0.10919632757556508
3700000000.0 -0.10271843421197537 -0.1615199411649297
3720000000.0 0.09953616342555194 -0.1626274199716629
3740000000.0 0.17236548195126775 -0.0689489163034149
3760000000.0 -0.1750523649594564 0.03905156141718335
3780000000.0 0.16473654548377145 -0.03890248702219102
3800000000.0 -0.022406097041658135 -0.1601932248337907
3820000000.0 -0.14550297454787736 -0.05097102835974486
3840000000.0 -0.10825346630013341 -0.09895773003125868
3860000000.0 0.14190226092497013 -0.03696588196903457
3880000000.0 0.1507271132669809 0.010851754606590668
3900000000.0 0.06459160627146099 -0.14379174107164505
3920000000.0 -0.13665502172761398 0.08664152876922471
3940000000.0 0.107700395368068 -0.12879421941541844
3960000000.0 0.1718711958635656 0.010731044179909761
3980000000.0 0.12457318865181975 -0.11985406174402041
4000000000.0 0.15250695539302392 -0.06897695414205221
