!Created with skrf (http://scikit-rf.org).
# Hz S RI R 50.0 
!freq ReS11 ImS11
400000000.0 -0.6829703346562315 0.5404970877880804
420000000.0 0.299519398563414 0.8139676407966864
440000000.0 0.6877101936907468 -0.4782144383424689
460000000.0 -0.36234919786707537 -0.7041328129252605
480000000.0 0.47832924871455523 -0.5192623160577631
500000000.0 -0.19496392063813822 -0.5425722648604626
520000000.0 -0.3476705373811938 0.35449462228885975
540000000.0 0.2813042875730867 -0.29874392768105285
560000000.0 -0.339060929452527 -0.13965363713301893
580000000.0 0.15779376233569578 0.3003461685832205
600000000.0 0.33328221219909215 -0.10076833875267537
620000000.0 -0.20679363807411105 0.2959757242360138
640000000.0 0.25251261621402205 0.30011175510560195
660000000.0 0.20211915819162937 -0.34998937188115864
680000000.0 0.313485233247134 0.28720407001031995
700000000.0 0.13639805689967516 -0.4110185142366446
720000000.0 -0.36390467189563114 0.22314778970127494
740000000.0 0.2580806132811764 -0.3209889151483872
760000000.0 -0.36726522389434013 -0.1336496653287484
780000000.0 0.2563945483912716 0.25010263219233186
800000000.0 0.09001167467273848 -0.30975707037801326
820000000.0 -0.2576396900919738 0.10287895836806034
840000000.0 -0.02845860492436106 0.23922865821658545
860000000.0 -0.20293870175005693 -0.01907763211255252
880000000.0 0.15252063853806327 0.054034549867531166
900000000.0 0.015564255774118794 0.11487072717000037
920000000.0 -0.064902040082796 0.044142244136275696
940000000.0 0.010968990913063033 0.04285782022471217
960000000.0 -0.045166447331087343 -0.014735015862757554
980000000.0 0.015584487390992892 0.0653827837696495
1000000000.0 0.004208670156559583 -0.08371819158448598
1020000000.0 0.02110023801506703 -0.10090186291356526
1040000000.0 0.06472783239626985 -0.10159798111498798
1060000000.0 0.1576767592815684 0.012556604725324784
1080000000.0 0.12407271903202483 0.12643559931716006
1100000000.0 -0.08871899134194301 -0.18181262105383375
1120000000.0 0.06377471061164762 0.21469574319208778
1140000000.0 0.2530555400633204 -0.048384827851120436
1160000000.0 -0.026309239300935823 -0.28428269054454014
1180000000.0 0.17126766983368535 -0.2677808060784677
1200000000.0 0.33963219883865464 0.03417841128156019
1220000000.0 -0.36470034201109025 0.02580658064770958
1240000000.0 0.24464570464919327 0.2981376592486546
1260000000.0 0.05919687499541675 -0.4029041956397955
1280000000.0 -0.41716112817833456 -0.07276413269656978
1300000000.0 0.23543405085537997 0.3644318109472451
1320000000.0 0.3923912512690676 0.18990291988519062
1340000000.0 0.43496944978114876 -0.022129378461705783
1360000000.0 0.4382177748873212 -0.00809202713072249
1380000000.0 0.19041398599541737 -0.3910574219408564
1400000000.0 -0.3987687403387503 -0.15505452821878296
1420000000.0 0.053669897907964434 0.40646578722938187
1440000000.0 0.37360006449565336 -0.08987687120811048
1460000000.0 -0.02987367178768003 -0.35339131031475124
1480000000.0 -0.3222072980477292 0.017752192039096133
1500000000.0 -0.10631232095466425 0.2706829555726789
1520000000.0 0.0681063421252889 0.2544314104228629
1540000000.0 -0.1430011072570982 -0.18435519958691296
1560000000.0 0.1512043805532113 -0.1299289595726354
1580000000.0 0.06821291365582181 0.15584814189317642
1600000000.0 0.12086644943548089 0.05992177071545689
1620000000.0 0.05248531282178691 0.09087105072751475
1640000000.0 -0.07723345058005111 0.003308304083603373
1660000000.0 0.048158500011609 -0.02006651364377448
1680000000.0 -0.03206981824542084 0.0004391859199637341
1700000000.0 -0.0028453950377330516 0.018532050702812913
1720000000.0 -0.0046641544907956595 0.0003271124242969429
1740000000.0 -0.012564438427752822 0.011730924123016448
1760000000.0 -0.012626880123250627 -0.030833468577777808
1780000000.0 -0.06039613111420486 -0.0018573693508729455
1800000000.0 -0.044765093070755435 -0.07876599686340632
1820000000.0 -0.11175408860167753 -0.047225392219414776
1840000000.0 0.15862090044180052 -0.007206024271658483
1860000000.0 -0.19577943186293914 -0.021115021879963433
1880000000.0 0.235128256591716 -0.03373651531472067
1900000000.0 -0.2660441560021796 0.0914778277636883
1920000000.0 0.2618902719439945 -0.1786516966765801
1940000000.0 -0.34440277102568817 0.07033978202545442
1960000000.0 0.34126366225257776 0.16510177083635916
1980000000.0 -0.09680240505784775 -0.3865182070962037
2000000000.0 -0.4020158908113602 -0.10455779337318694
2020000000.0 -0.21186207994492504 0.36986035457028466
2040000000.0 0.07132284525979428 0.42666885039320784
2060000000.0 0.4091336252711953 0.14711294188193355
2080000000.0 0.4108898195882525 -0.13526093533809216
2100000000.0 0.3430415188556313 -0.25128017759038324
2120000000.0 0.1696698678851837 -0.3796955052611861
2140000000.0 0.09951431802897914 -0.39223477201741325
2160000000.0 0.38953808738282925 -0.015379786964187769
2180000000.0 0.34334921450688966 -0.15186032715236564
2200000000.0 0.1681714451949355 -0.3205826823822276
2220000000.0 -0.11451779593608816 -0.3311799212842678
2240000000.0 -0.33307650785326837 -0.08371406424145915
2260000000.0 -0.3044637491785891 0.1517419208098261
2280000000.0 -0.15781270050297935 0.30460937283649975
2300000000.0 0.26498052260340643 0.23591785791159764
2320000000.0 0.2660688907490412 -0.2660368518942507
2340000000.0 -0.27861180427704285 -0.2969135767673275
2360000000.0 -0.08300794447306997 0.4407994759021659
2380000000.0 0.2883933558332244 -0.4065986688533529
2400000000.0 -0.31714141977345195 0.45154537387052285
2420000000.0 0.1062794839489596 -0.5970058294036861
2440000000.0 0.2738324559377804 0.5974090475731405
2460000000.0 -0.6388328768199244 -0.2877663177125958
2480000000.0 0.7348392736099936 0.007644333546892048
2500000000.0 -0.7566670641905007 0.035968823714756466
2520000000.0 0.7621238029480155 0.11535549273535692
2540000000.0 -0.6458634263103072 -0.4264937565004363
2560000000.0 0.22390868701490332 0.7368109124846767
2580000000.0 0.471526656567862 -0.5912429825928592
2600000000.0 -0.7323153398660084 0.030673836675378766
2620000000.0 0.4673372463217094 0.5248081944910238
2640000000.0 0.6370408541407729 0.19406395998015913
2660000000.0 -0.3302305375822102 -0.5252024828890427
2680000000.0 -0.03498912518050749 0.5716980274580149
2700000000.0 0.3240148476356517 -0.41117590253609637
2720000000.0 -0.4284913107351108 0.2027486598517154
2740000000.0 0.4234505026536741 0.06273623078012128
2760000000.0 -0.38222283333249346 -0.06132587581983654
2780000000.0 0.35523595102331207 -0.029738597478959006
2800000000.0 -0.24249266782173895 0.2255667188342523
2820000000.0 -0.14560274259654754 -0.27865745378817053
2840000000.0 0.30199743285575026 0.03043288226268709
2860000000.0 -0.15735596736265647 0.25576682301575093
2880000000.0 -0.13339128300416017 -0.2697836958676099
2900000000.0 0.22935073722543772 0.19705132610479012
2920000000.0 -0.054985326969369634 -0.30138714973945974
2940000000.0 -0.31096186990178315 0.019003947544220107
2960000000.0 -0.22649148797083177 0.2205363406184984
2980000000.0 -0.2502735722932185 0.19838955525996585
3000000000.0 -0.31321036019067716 -0.061050394169200405
3020000000.0 0.019538574291776786 -0.3189591821299709
3040000000.0 0.2405645381718532 0.20594656714422663
3060000000.0 -0.3096110365684287 -0.05383237489144794
3080000000.0 0.3072356107685106 0.02593832060393402
3100000000.0 -0.3008088744290847 -0.03234722069070733
3120000000.0 0.27223517404087094 -0.11684009576697751
3140000000.0 -0.18264195938576896 0.22085033776711874
3160000000.0 -0.07505277939794401 -0.2612187419037014
3180000000.0 -0.12425991859437148 0.22326170649213992
3200000000.0 -0.1869484096837596 -0.1356525667366404
3220000000.0 0.11446567455976711 -0.16839595380318997
3240000000.0 0.12011078114902382 0.12527524530054648
3260000000.0 -0.13559816510022454 0.037259972065028166
3280000000.0 0.0901927391379804 -0.06017914301836169
3300000000.0 -0.03732059273250186 0.06883934021357246
3320000000.0 0.016163701623793318 -0.048453077970924435
3340000000.0 0.023303089003205196 -0.01308580561052491
3360000000.0 0.006149037070673934 -0.006717923788683995
3380000000.0 -0.002195125672674575 0.00976658654913122
3400000000.0 -0.0013812780570666686 0.022654234106980767
3420000000.0 -0.033821328398077034 -0.011014776681651718
3440000000.0 0.044630610311651345 0.009763270359644655
3460000000.0 0.04178424512813414 0.03620619265086093
3480000000.0 0.01335172786805071 0.06434068376270258
3500000000.0 0.07933449267795482 -0.00822315044222145
3520000000.0 0.009993783793657021 -0.09363931773611119
3540000000.0 0.025759484456618843 0.10571296885043774
3560000000.0 -0.11527900394136863 -0.04374224543993674
3580000000.0 0.1319197581773117 -0.036260793257318624
3600000000.0 0.10031503125320858 0.11509158525458289
3620000000.0 -0.057867513389785276 0.1529186507163441
3640000000.0 -0.1733388308816741 0.018578570651717505
3660000000.0 -0.1628901937064892 -0.08470603766319784
3680000000.0 -0.08835361432059272 -0.166114293153456
3700000000.0 -0.04317554453060541 -0.18369278520827065
3720000000.0 0.12261164463799355 -0.1421590875195282
3740000000.0 0.1752877608093941 -0.05079997051529759
3760000000.0 -0.17520739055713344 0.018588951000154005
3780000000.0 0.16124247265666228 -0.0401700369724085
3800000000.0 -0.06332496171072968 -0.14566900381470213
3820000000.0 -0.14926311849823984 0.0254606830763433
3840000000.0 -0.12941124401085305 -0.06427641607036057
3860000000.0 0.13014502234986797 -0.06126940789580051
3880000000.0 0.13421574463810795 -0.06378094232457786
3900000000.0 -0.005444082963139953 -0.15514038594392224
3920000000.0 -0.0815638430782526 0.13715339691951778
3940000000.0 -0.02899746882778688 -0.16194342130473047
3960000000.0 0.13204358021073498 -0.10751988690523201
3980000000.0 0.07074081838253309 -0.1565873877882886
4000000000.0 0.07694483665534317 -0.14822751227224065
