!Created with skrf (http://scikit-rf.org).
# Hz S RI R 50.0 
!freq ReS11 ImS11
400000000.0 -0.661546894382023 0.5671879758005718
420000000.0 0.25884632345584735 0.8284803032767787
440000000.0 0.6805252949649974 -0.4893773045463696
460000000.0 -0.34265144442260237 -0.7141983181297166
480000000.0 0.48741548969202725 -0.5104499451798297
500000000.0 -0.1254376218421269 -0.5625740649096063
520000000.0 -0.37716629383404704 0.3237894053662421
540000000.0 0.3090480787503946 -0.26953844750675077
560000000.0 -0.32602761310251305 -0.16904175244288058
580000000.0 0.2345546040469705 0.246496289056097
600000000.0 0.31319950275060654 -0.1482062913588171
620000000.0 -0.2659431446663227 0.24191828116237077
640000000.0 0.2718289785699833 0.2820239292354045
660000000.0 0.1515210737566988 -0.3741941121563358
680000000.0 0.3201275669389325 0.27905707878309155
700000000.0 0.10220941175242453 -0.42035709281404676
720000000.0 -0.34718897734985443 0.24947669204732115
740000000.0 0.23398524091754466 -0.3399134563726042
760000000.0 -0.3801032133281639 -0.0948684404241833
780000000.0 0.24806920396552368 0.25916340018338807
800000000.0 0.06615855768552521 -0.31608709261569923
820000000.0 -0.2574149129965911 0.10539020667601316
840000000.0 -0.051480496499793374 0.23510331775122406
860000000.0 -0.19374626151046542 -0.06428845379998287
880000000.0 0.1175554951158722 0.11018459470522779
900000000.0 -0.028224178045269884 0.11108358401059437
920000000.0 -0.06823619977975541 0.03367104422621949
940000000.0 0.030983878228172876 -0.02958140786775827
960000000.0 0.004119031980673941 0.04746468911934668
980000000.0 0.062446167787324626 0.027826615851602895
1000000000.0 -0.0017206172027237974 -0.08538401238413883
1020000000.0 0.04583374020597511 -0.09366792242031272
1040000000.0 0.10255470327528901 -0.06446536841179525
1060000000.0 0.1274951184339471 0.0924257589746839
1080000000.0 0.03863732597125513 0.17172765142660143
1100000000.0 -0.034992229503652446 -0.19737229333769707
1120000000.0 0.036182880165781105 0.21847362431632825
1140000000.0 0.2335602381149832 -0.10264003128968831
1160000000.0 -0.06304220518416874 -0.27539989639048895
1180000000.0 0.10063953233443153 -0.2992535990824832
1200000000.0 0.32931787637865556 -0.0803790227134241
1220000000.0 -0.3168457006003724 0.17830916071479724
1240000000.0 0.34842581500050535 0.1621875213712331
1260000000.0 -0.1110107596435384 -0.39154602978328445
1280000000.0 -0.4164040691332098 0.07927059158734195
1300000000.0 0.3201102943748926 0.2939764103698795
1320000000.0 0.4252351297772608 0.10124484877695408
1340000000.0 0.43308472954668015 -0.05831316813313161
1360000000.0 0.4391543741483273 -0.020503206951553537
1380000000.0 0.1746929972020925 -0.39942919982832575
1400000000.0 -0.38752793032481936 -0.18323070366392724
1420000000.0 0.0025885665866536077 0.409970118598981
1440000000.0 0.38346691985718534 -0.014692981008729311
1460000000.0 0.04207393793994643 -0.3515050334585332
1480000000.0 -0.32004839070187835 -0.03442980715872089
1500000000.0 -0.18771140042782028 0.21966106518148032
1520000000.0 0.009313346758306213 0.2600941447571589
1540000000.0 -0.11066516916288799 -0.20194016171945953
1560000000.0 0.14411022827150125 -0.13278864807642013
1580000000.0 0.12651265080122018 0.1094725032502684
1600000000.0 0.12182298254703698 -0.05205464879246337
1620000000.0 0.09037786928933517 -0.04984350631686118
1640000000.0 0.0403588480647168 0.0652802457384753
1660000000.0 -0.052893498747000854 0.0021112797538278137
1680000000.0 0.03343386963302228 0.0032859367288181887
1700000000.0 -0.020587711184773407 -0.0024906497154983534
1720000000.0 -0.004981275693613955 0.001095040697942993
1740000000.0 0.0014408971751816622 0.015090141277455543
1760000000.0 0.026173383632070783 -0.018883016861199756
1780000000.0 0.0572728554465425 0.018730730886929788
1800000000.0 -0.08068509644893782 0.040999274215250237
1820000000.0 -0.07973688855969263 0.09282765120079127
1840000000.0 0.1133661574838157 -0.11354114972344737
1860000000.0 -0.1858675258503802 0.07097666435495613
1880000000.0 0.22782677771475196 -0.07253063401181271
1900000000.0 -0.26553341874052566 0.09948634597691768
1920000000.0 0.28362629998245414 -0.14601204427649367
1940000000.0 -0.35259867213258494 0.0019198051744927073
1960000000.0 0.2960914788137056 0.23760747477879657
1980000000.0 0.014078655821021012 -0.39827107917622234
2000000000.0 -0.3601686953830994 -0.20659052471011308
2020000000.0 -0.24482404215369286 0.34755265137414404
2040000000.0 0.0026945722467785443 0.4312742334834571
2060000000.0 0.38165967214442037 0.2042654773123653
2080000000.0 0.41880015887078503 -0.09789958932553564
2100000000.0 0.3203040484194668 -0.2753363744688259
2120000000.0 0.16627148901330288 -0.3785865611968673
2140000000.0 0.028770044892159348 -0.4001210425481521
2160000000.0 0.36531798783848746 -0.12697290507082576
2180000000.0 0.27082968800743834 -0.2565936525786992
2200000000.0 -0.008425303044214441 -0.3601551585100586
2220000000.0 -0.23622077862082747 -0.2566218374924593
2240000000.0 -0.3333848440555437 0.07930950383486583
2260000000.0 -0.19505148346629517 0.27908174953961506
2280000000.0 -0.030437610742065555 0.3423042761173771
2300000000.0 0.32917413050056277 0.13615433434288884
2320000000.0 0.1646624422077388 -0.34017307759545484
2340000000.0 -0.3490307866836001 -0.21375804288165906
2360000000.0 0.007046839615353751 0.45057357474721604
2380000000.0 0.23997554785474393 -0.4389529880921424
2400000000.0 -0.2611765879411962 0.4882328388964835
2420000000.0 0.03152373001691342 -0.6067638967467343
2440000000.0 0.3289621227688741 0.5698493630667756
2460000000.0 -0.6577757551941598 -0.24027513856383018
2480000000.0 0.7279550533570018 -0.09112676150154038
2500000000.0 -0.7476273818727367 0.11261890598434611
2520000000.0 0.7686585341214728 -0.01161734116439873
2540000000.0 -0.7134685347039347 -0.29370539977299587
2560000000.0 0.344667057221499 0.6845312939841716
2580000000.0 0.2751464468324374 -0.7000313652377567
2600000000.0 -0.6945209975380771 0.22289084571894963
2620000000.0 0.6338314486446903 0.29388789168119306
2640000000.0 0.6612712477254893 -0.022681117086595058
2660000000.0 -0.5195150120819293 -0.33185660971721287
2680000000.0 0.13187387446671855 0.5533557516706211
2700000000.0 0.16642543698612489 -0.49263571036437487
2720000000.0 -0.3330078921588285 0.332985439747904
2740000000.0 0.42148496121896656 -0.058549191877063485
2760000000.0 -0.3846834447120679 0.02607938022359992
2780000000.0 0.33710541874740985 -0.11063945225027967
2800000000.0 -0.2107590368412204 0.2537565438873042
2820000000.0 -0.14597613748825583 -0.2771266575011629
2840000000.0 0.30153562832289665 0.020721307168393745
2860000000.0 -0.17642152784785325 0.24159763298660558
2880000000.0 -0.12092270386745396 -0.2737286198666572
2900000000.0 0.18678407775959827 0.2362731640458018
2920000000.0 0.054900401799495374 -0.2994242882863463
2940000000.0 -0.3027896115896413 -0.06315079416986226
2960000000.0 -0.25607937952216275 0.17954710613702507
2980000000.0 -0.2779154933460102 0.15120589412168597
3000000000.0 -0.31315321390742157 -0.047969678541000337
3020000000.0 0.01152767462386946 -0.3168858817199797
3040000000.0 0.19345510067824145 0.24749301127012566
3060000000.0 -0.30371762785611156 -0.0654219416231019
3080000000.0 0.30569676902583043 -0.004909996605355439
3100000000.0 -0.29745790797253063 -0.036485755730805904
3120000000.0 0.2529443887027648 -0.14971010857541336
3140000000.0 -0.14013244053940702 0.24736987872853713
3160000000.0 -0.10899583176154001 -0.24743698436148415
3180000000.0 -0.08164104869851568 0.23996266491662166
3200000000.0 -0.2132896120866018 -0.08625409943284246
3220000000.0 0.05293576231181389 -0.19664188388089046
3240000000.0 0.14881881795741514 0.0890398163003084
3260000000.0 -0.11316774333822896 0.08327620915159387
3280000000.0 0.08535812591023642 -0.06743835575625529
3300000000.0 -0.013601873764122427 0.07778874240977847
3320000000.0 0.0020839506747333007 -0.05179671545440643
3340000000.0 0.026241875704513203 0.006719787586361812
3360000000.0 0.0013377680665496838 0.008160207304843101
3380000000.0 0.009878110237894498 -0.0021114767765967146
3400000000.0 0.021389541701001363 -0.010070387075435026
3420000000.0 -0.011314432955783216 0.03463550165509065
3440000000.0 0.04034123185591529 -0.023229011769636987
3460000000.0 0.028020894718287073 -0.0495559871380228
3480000000.0 0.06680337625985036 0.008927508977894847
3500000000.0 0.025815885016096402 -0.0766793969962867
3520000000.0 -0.05569769116589637 -0.07723618030645872
3540000000.0 0.10977257432287128 0.009364742629407148
3560000000.0 -0.11190873760600605 0.05694759573301929
3580000000.0 0.08288221123796577 -0.11222039487109002
3600000000.0 0.12939190258617836 0.08629443858169458
3620000000.0 0.012174828569746889 0.1673680147624448
3640000000.0 -0.13712496730492899 0.1135479636130144
3660000000.0 -0.1869701271211231 -0.016347876226922953
3680000000.0 -0.11137458632439996 -0.15681423553083546
3700000000.0 -0.07318153885300804 -0.17779611550984992
3720000000.0 0.13392933921566041 -0.13658217638608688
3740000000.0 0.18578208430479967 -0.00880424367223344
3760000000.0 -0.17925020471787317 0.008168016497931944
3780000000.0 0.16888635863059334 0.00774815043224884
3800000000.0 -0.016445129316454324 -0.1608680499636887
3820000000.0 -0.1529771074701269 -0.012336995887336359
3840000000.0 -0.10086911142128975 -0.10703263447186871
3860000000.0 0.14243071916977654 -0.031625771958212125
3880000000.0 0.14896751951105489 -0.018295412549570702
3900000000.0 0.04064679840687311 -0.15139236267644332
3920000000.0 -0.09690549040913403 0.12826810052576887
3940000000.0 -0.010472274349651664 -0.16585310003999448
3960000000.0 0.14261834393873749 -0.09505711326825692
3980000000.0 0.06835971400744272 -0.15877275693983053
4000000000.0 0.04840789706575345 -0.15998454273105137
