!Created with skrf (http://scikit-rf.org).
# Hz S RI R 50.0 
!freq ReS11 ImS11
400000000.0 -0.6451987534879258 0.5847358566580638
420000000.0 0.3530211438109132 0.791669635251881
440000000.0 0.680045766751881 -0.49005171034411926
460000000.0 -0.41611091213239776 -0.673009487627511
480000000.0 0.5103910594813821 -0.4872808024083905
500000000.0 -0.23034391353558775 -0.5311153413782639
520000000.0 -0.34453938736004774 0.3564290549332375
540000000.0 0.2836767473271044 -0.2943489066236832
560000000.0 -0.288628746213981 -0.22589532384175454
580000000.0 0.29787575698452207 0.16671586647245856
600000000.0 0.3049276379016814 -0.16513975035034045
620000000.0 -0.22340438163330606 0.281951958272206
640000000.0 0.22360026160106142 0.3242983681276072
660000000.0 0.18507708707470596 -0.36085996918654917
680000000.0 0.32626082185070193 0.27141253045591396
700000000.0 0.16302763391551392 -0.40075281261499934
720000000.0 -0.365831119091755 0.22214060492306012
740000000.0 0.2240846344208355 -0.3453102726625557
760000000.0 -0.369035098534895 -0.13054271387461833
780000000.0 0.22292511462689277 0.27995756136624617
800000000.0 0.06873761911626264 -0.3151471341764791
820000000.0 -0.2463911412820983 0.1259139891046772
840000000.0 -0.023407147289495715 0.23949857719067336
860000000.0 -0.20156339268783735 -0.02416151305965849
880000000.0 0.1493742139884723 0.05941955607209912
900000000.0 0.05597245296607846 0.10041335749212874
920000000.0 -0.012556544976097761 0.07670897900414106
940000000.0 0.03294486081283439 0.030203548823198652
960000000.0 -0.010114754474434783 -0.04696574596845862
980000000.0 -0.040759815464739294 0.052791205622478354
1000000000.0 -0.0014111375374597699 -0.08319770397900754
1020000000.0 0.003497251270321397 -0.10206150423764963
1040000000.0 0.040360489286208806 -0.11320847525527442
1060000000.0 0.15654489065354113 -0.019655579256548403
1080000000.0 0.1561507218381962 0.08325064083512011
1100000000.0 -0.12204154399784688 -0.16155667519144387
1120000000.0 0.1266117722861021 0.1851874891716251
1140000000.0 0.23780284235307275 -0.10102030107047168
1160000000.0 -0.017461531293889748 -0.28551516104902985
1180000000.0 0.16875178714421196 -0.27064455541681753
1200000000.0 0.34153482825937953 0.016484690599850485
1220000000.0 -0.36205700516289213 0.05247318870252023
1240000000.0 0.26502249947899015 0.2803697546564089
1260000000.0 0.03709355166689115 -0.4060973445357935
1280000000.0 -0.41705313576492375 -0.07516684555858844
1300000000.0 0.23940628700536362 0.3622789519478868
1320000000.0 0.3945110781040707 0.18551077693272505
1340000000.0 0.43367954911432316 -0.0419230284200324
1360000000.0 0.43830620559232786 -0.008772776357309501
1380000000.0 0.16679679673931366 -0.4017119130396031
1400000000.0 -0.4052735507148463 -0.13798126474339933
1420000000.0 0.08001289697811886 0.4018266216445147
1440000000.0 0.3598576024814305 -0.13238955727799548
1460000000.0 -0.04579403354077135 -0.3513083578126032
1480000000.0 -0.31649844583203873 0.06259872854690976
1500000000.0 -0.10085811768953265 0.27251462063791576
1520000000.0 0.12264812999804442 0.23184533436348279
1540000000.0 -0.167784377238595 -0.1610687980373496
1560000000.0 0.15020127503611644 -0.13010427088886417
1580000000.0 0.11038415014970039 0.12840483591280347
1600000000.0 0.12843518732514125 0.040641547897664776
1620000000.0 0.09942164568308078 0.0329345613067084
1640000000.0 -0.05618755426662833 0.05361541185923467
1660000000.0 0.0215046058158039 -0.048022276924936574
1680000000.0 -0.02097942513803361 0.025060385388754623
1700000000.0 -0.0074872981424229535 0.018002569586273207
1720000000.0 -0.0017506881397656333 0.003989182213479591
1740000000.0 0.001398931756870883 0.016026347395512962
1760000000.0 -0.015715505202030584 0.029112503988469828
1780000000.0 -0.042401458605221015 0.043124123632947875
1800000000.0 -0.05743735758864676 -0.07006876580290958
1820000000.0 -0.11671261504295363 -0.033681614576052156
1840000000.0 0.1584339362665075 -0.016484013019464526
1860000000.0 -0.197127602266371 -0.007208242887889909
1880000000.0 0.23678893396934028 -0.01940330341560562
1900000000.0 -0.2731821732104105 0.06786539064088401
1920000000.0 0.28104526161212384 -0.1465896872580522
1940000000.0 -0.3489790686552786 0.04131181187039974
1960000000.0 0.3371439045824613 0.1733966044026957
1980000000.0 -0.07609462328597108 -0.3911337037433097
2000000000.0 -0.39748441010871083 -0.12066245071565215
2020000000.0 -0.19274144723411663 0.3802613567393291
2040000000.0 0.053818725913108656 0.42899016214184876
2060000000.0 0.39697779365319813 0.17509597919930311
2080000000.0 0.41174121654543183 -0.1300195982032735
2100000000.0 0.3410017478926711 -0.252454893737497
2120000000.0 0.15333970009979375 -0.3855674420826807
2140000000.0 0.06750397387104022 -0.39777647265187527
2160000000.0 0.38471818261980684 -0.05522291454827883
2180000000.0 0.3313480987930471 -0.17467234735263426
2200000000.0 0.1137674476877888 -0.3426830621928733
2220000000.0 -0.1445292064003316 -0.3175505405044698
2240000000.0 -0.3421271262263988 -0.012011412072364287
2260000000.0 -0.2736335941244218 0.2020731616100037
2280000000.0 -0.10487571776388986 0.3268240293687577
2300000000.0 0.2893185767379126 0.20529723965342195
2320000000.0 0.250063422618845 -0.28087180310375653
2340000000.0 -0.29520939375033634 -0.2808439687097369
2360000000.0 -0.09043203232418748 0.43922417917731427
2380000000.0 0.33094293021081705 -0.3725965126771899
2400000000.0 -0.36050118382488516 0.4172252890831985
2420000000.0 0.1896126609434393 -0.5753443139015301
2440000000.0 0.1755374259332569 0.6327409027105949
2460000000.0 -0.5811508760931986 -0.39007955008731154
2480000000.0 0.7272525633768038 0.10004949153348529
2500000000.0 -0.755932431015901 -0.03646657232743102
2520000000.0 0.745038269407468 0.19516542018935315
2540000000.0 -0.6163510239613252 -0.4662115692200653
2560000000.0 0.20419688034256833 0.741358588400322
2580000000.0 0.48904710582079186 -0.5758727970120937
2600000000.0 -0.7309398559509694 0.0437968127358358
2620000000.0 0.49944955700224103 0.49369802590175754
2640000000.0 0.6595839519332392 0.0891721376337573
2660000000.0 -0.363869127882872 -0.5031719640435408
2680000000.0 0.010492354137867645 0.5735626686270259
2700000000.0 0.28567964936290163 -0.4401800560173889
2720000000.0 -0.40115531762840256 0.254625339500635
2740000000.0 0.4292312192806448 0.015079277297870295
2760000000.0 -0.3876856794176386 -0.03416341771192734
2780000000.0 0.354272965943674 -0.05133967803970253
2800000000.0 -0.23757561229033625 0.23224307902269317
2820000000.0 -0.1261080659107195 -0.2894286229548781
2840000000.0 0.3022857761639043 0.03499693346626421
2860000000.0 -0.14789363332503813 0.2625112653301283
2880000000.0 -0.11545144705794733 -0.27803779873539347
2900000000.0 0.20186384034496874 0.22601696764030177
2920000000.0 0.010260188020731573 -0.30654033808866177
2940000000.0 -0.31110418871427337 0.005793163953260886
2960000000.0 -0.2451827070693956 0.19843703986226296
2980000000.0 -0.2832442499172566 0.1472800014442234
3000000000.0 -0.29584211132308635 -0.12288621121499138
3020000000.0 0.07566838288678479 -0.31070751179917133
3040000000.0 0.24435534429948913 0.2013372328434152
3060000000.0 -0.30120349556535453 -0.08749412096180662
3080000000.0 0.30576668200349505 0.04377469963428984
3100000000.0 -0.30236934488713924 -0.002596280858864757
3120000000.0 0.28275823941357275 -0.08680479358823585
3140000000.0 -0.17511555514754273 0.22684029507589842
3160000000.0 -0.07465087567345753 -0.2613903150773939
3180000000.0 -0.11728756736070792 0.22628971868119238
3200000000.0 -0.19327310601824935 -0.1266972609196457
3220000000.0 0.06684979325536448 -0.1932198038890283
3240000000.0 0.13713791979748732 0.1072095612657637
3260000000.0 -0.13345415054032517 0.04689472566143511
3280000000.0 0.10272732800127225 -0.03677640978618657
3300000000.0 -0.060786546981592304 0.05073813610953649
3320000000.0 0.02643611669064143 -0.044762804297406554
3340000000.0 0.02708787898877073 0.00560387230004231
3360000000.0 -0.0022734936103545197 -0.009234892295910544
3380000000.0 -0.008417577364058732 0.0012453758477972373
3400000000.0 0.015048111749470114 0.01569038141794864
3420000000.0 -0.012562643492618049 0.032105894564311586
3440000000.0 0.04277999893842994 -0.013530819119787563
3460000000.0 0.05116940880197572 0.018751320837761282
3480000000.0 0.04764073831982312 0.04455601253120077
3500000000.0 0.06077467375137803 -0.04990630444101564
3520000000.0 -0.0032464366439228995 -0.09311994541518441
3540000000.0 0.09707735343752337 0.04813573388151843
3560000000.0 -0.12342001496627553 0.005813187357859011
3580000000.0 0.07120136383343324 -0.11716892860522414
3600000000.0 0.15127300524355866 0.023691961736887455
3620000000.0 0.08110010295968749 0.14381688483074964
3640000000.0 -0.1277516011855975 0.1209730080361246
3660000000.0 -0.18399082291079374 0.02124257091594072
3680000000.0 -0.15920695111658578 -0.10352898064707326
3700000000.0 -0.11205311579545392 -0.1542484119062335
3720000000.0 0.07072726752539958 -0.1752700131238713
3740000000.0 0.15392896360705866 -0.10128835551267171
3760000000.0 -0.1656959515485682 0.06693126220527655
3780000000.0 0.16437310374209696 -0.03953752076550966
3800000000.0 -0.06808133585088054 -0.1465178492696125
3820000000.0 -0.15307925716917453 0.010413718071769213
3840000000.0 -0.13137294011527542 -0.06291961655159968
3860000000.0 0.13100908017314317 -0.06380621261603395
3880000000.0 0.14396296547571974 -0.04417790542155817
3900000000.0 0.02193934243050845 -0.15472983227470394
3920000000.0 -0.1183967164456447 0.10806858331772258
3940000000.0 0.029618524362970824 -0.16287711612524364
3960000000.0 0.15448844775564602 -0.0721095559898027
3980000000.0 0.046158751557534156 -0.16501230318928814
4000000000.0 0.0869122393121105 -0.14104841478773053
