!Created with skrf (http://scikit-rf.org).
# Hz S RI R 50.0 
!freq ReS11 ImS11
400000000.0 -0.6408240784055839 0.5918142279672474
420000000.0 0.38365471319397765 0.7786051085692037
440000000.0 0.7003195968475611 -0.4613286959143512
460000000.0 -0.37780654101664096 -0.6962392064466078
480000000.0 0.492310743837653 -0.5068490765561526
500000000.0 -0.28319063833207825 -0.503729569939571
520000000.0 -0.363388770327649 0.3369756240907247
540000000.0 0.3363861741521389 -0.23451073474136677
560000000.0 -0.316308572385251 -0.1847844156622438
580000000.0 0.21784198503750818 0.259283805040749
600000000.0 0.3388639559435185 -0.07221782862521733
620000000.0 -0.20964603295292444 0.2934078625286713
640000000.0 0.30253978989725794 0.24860170919874547
660000000.0 0.08400015436905267 -0.3948733283162483
680000000.0 0.375127733500127 0.1994613655030902
700000000.0 0.05322462523427732 -0.43049368102577024
720000000.0 -0.3034237462672809 0.3015206136353401
740000000.0 0.19797342126258555 -0.36252001397479056
760000000.0 -0.3721453157795724 -0.12416067259460128
780000000.0 0.2381138733861376 0.268130375008209
800000000.0 0.11809090377485329 -0.30052387562086125
820000000.0 -0.272496413312211 0.05135380061203692
840000000.0 -0.06930018195872528 0.2303487083003882
860000000.0 -0.18226789176829808 -0.0883989100394694
880000000.0 0.12558372628204942 0.09945988686262394
900000000.0 -0.0013424075692045029 0.1133310845368096
920000000.0 0.00832773309566116 0.0748208659705409
940000000.0 -0.0204762197147611 -0.03806576049388832
960000000.0 -0.01582729460668231 0.04590165947991072
980000000.0 0.009249153041575123 0.06867522193158815
1000000000.0 0.0389598412658084 -0.07569232521752471
1020000000.0 0.09033837460467448 -0.05028486737640661
1040000000.0 0.11419519916653435 -0.03827809341470294
1060000000.0 0.12784654845123672 0.09112824168221731
1080000000.0 0.07260919859775271 0.1595489293691828
1100000000.0 -0.06982727961058216 -0.18719661753559025
1120000000.0 0.10396333570463717 0.19500265830566035
1140000000.0 0.21880461249791067 -0.1300164785203488
1160000000.0 -0.0989405424711709 -0.26490130725413147
1180000000.0 0.04358086092623964 -0.31267829094476146
1200000000.0 0.3268053090614613 -0.09246601253035074
1220000000.0 -0.32555749952577434 0.16525845911056772
1240000000.0 0.347792747968222 0.1670858510620655
1260000000.0 -0.08303070304518845 -0.3999278814303194
1280000000.0 -0.4228335282236086 0.04486480441640867
1300000000.0 0.29052538051500737 0.3243102321424301
1320000000.0 0.4107535700594966 0.15081304145858146
1340000000.0 0.43712291409159654 -0.005217336722786171
1360000000.0 0.4370303433979592 0.04462225073078659
1380000000.0 0.24951464417837943 -0.35679764416747733
1400000000.0 -0.35579356073155166 -0.2375080676621842
1420000000.0 -0.040097155251035334 0.4073856755115057
1440000000.0 0.38231328920832486 0.019683099687986275
1460000000.0 0.08148974980536854 -0.3434654427006857
1480000000.0 -0.3177607734308358 -0.04691134404141138
1500000000.0 -0.17703815846103474 0.22764299147065548
1520000000.0 0.04479844435155052 0.25615508437016876
1540000000.0 -0.1549320728058012 -0.17022496379732954
1560000000.0 0.10548005704913231 -0.1653389145435378
1580000000.0 0.15415621873432198 0.06537034702143742
1600000000.0 0.11973016722380017 -0.05842171362599355
1620000000.0 0.08657301562274937 -0.05668915438733027
1640000000.0 0.04709805022807394 0.061105265465753865
1660000000.0 -0.053335982667016134 0.001953228934161178
1680000000.0 0.02869934185587086 -0.01822020114065367
1700000000.0 -0.0013554245904395152 -0.021146376232814807
1720000000.0 -0.004290828273328063 0.0026664105046581327
1740000000.0 -0.0013320059586794148 0.015222955380700384
1760000000.0 0.02702624322969916 -0.01789718927244744
1780000000.0 0.04234870321061327 0.043412918725866924
1800000000.0 -0.08647288600023209 0.02940898689924591
1820000000.0 -0.10661189011192394 0.0600114408248443
1840000000.0 0.1388510338293696 -0.0802412376529829
1860000000.0 -0.19688341095827683 0.024758207781076843
1880000000.0 0.23179374947780926 -0.05886504892876062
1900000000.0 -0.2751652699618726 0.06589707575841186
1920000000.0 0.2842466238066399 -0.14311483148267545
1940000000.0 -0.352174989148085 0.005838711395211542
1960000000.0 0.3093679921234122 0.21974027442834837
1980000000.0 -0.02728538550066813 -0.39716547522248125
2000000000.0 -0.37541690301282094 -0.1762046704318971
2020000000.0 -0.2552045328973522 0.34022818783523695
2040000000.0 0.02542474885165379 0.4304139208286848
2060000000.0 0.3716783970331113 0.22187563210257924
2080000000.0 0.4250440834610822 -0.06424266176373583
2100000000.0 0.33247538244259256 -0.26038736201107643
2120000000.0 0.12671269859781223 -0.39283749708364885
2140000000.0 0.02474842257450785 -0.4006948660458437
2160000000.0 0.3689064142754596 -0.11708791781762211
2180000000.0 0.2504438670661434 -0.27656290301871905
2200000000.0 0.0003945703923228709 -0.36056673633541475
2220000000.0 -0.2762318562941263 -0.21374282522207635
2240000000.0 -0.3340419755650509 0.07813337267741506
2260000000.0 -0.23329480687756896 0.24883057815703943
2280000000.0 -0.05291963574242077 0.33995851807578054
2300000000.0 0.31498232730382764 0.16601320490770863
2320000000.0 0.22756352634343366 -0.3010185485579245
2340000000.0 -0.30568702258020336 -0.27143736951890857
2360000000.0 -0.09982797799788981 0.4381630439970293
2380000000.0 0.3233363914555159 -0.3804364215643625
2400000000.0 -0.400497278047856 0.3799482051607677
2420000000.0 0.21825943846731993 -0.5655276685074533
2440000000.0 0.1735155600505507 0.6331514351605771
2460000000.0 -0.5812146832965189 -0.3885525314233194
2480000000.0 0.7282865540447802 0.07928021926440013
2500000000.0 -0.7550046682653216 0.002294754665353605
2520000000.0 0.7584244685876034 0.12413380432759147
2540000000.0 -0.6534331224068517 -0.4111518813116056
2560000000.0 0.29731462400714315 0.7077901071547701
2580000000.0 0.35927183694552844 -0.6632629092384754
2600000000.0 -0.6968298887301966 0.22193085693698925
2620000000.0 0.633827610573463 0.300172347588631
2640000000.0 0.6573950220565166 -0.10120789048642186
2660000000.0 -0.5000677772477852 -0.3666856262384322
2680000000.0 0.16591696636631162 0.5491549611511675
2700000000.0 0.14434080633882626 -0.5049825285297653
2720000000.0 -0.32752063599962006 0.34526191885459784
2740000000.0 0.42017539693226186 -0.09258046746656624
2760000000.0 -0.3889023821069023 0.027029505129180904
2780000000.0 0.35428246820877574 -0.057786382581113994
2800000000.0 -0.259787738670141 0.2087898516028419
2820000000.0 -0.09394339520203258 -0.30196931884314254
2840000000.0 0.2919328507005607 0.08696779943988028
2860000000.0 -0.22486009451434247 0.2001839754905371
2880000000.0 -0.06565549202034975 -0.29279550757468736
2900000000.0 0.15451719168860503 0.2591797329928241
2920000000.0 0.04860691681514599 -0.300592109961128
2940000000.0 -0.3090090864374986 -0.013889045387496654
2960000000.0 -0.19943320446795998 0.24148575292243585
2980000000.0 -0.21586810470355233 0.23234766361197645
3000000000.0 -0.3172950730827607 -0.018786600321921372
3020000000.0 -0.06151484439805165 -0.31238380386505665
3040000000.0 0.28068490297420795 0.1443665815798773
3060000000.0 -0.31073294030714876 0.03554515313310176
3080000000.0 0.2937064007010659 -0.09244466629428626
3100000000.0 -0.2844728877659041 0.10202276586759083
3120000000.0 0.2376347296286308 -0.17655412798298065
3140000000.0 -0.07587099233808976 0.27674328225903916
3160000000.0 -0.14983927141347975 -0.2274967728960872
3180000000.0 -0.03782319222349463 0.2528516482380787
3200000000.0 -0.22525721751200117 -0.0535385222030435
3220000000.0 0.04437809389395951 -0.20041508076892844
3240000000.0 0.14675650387154832 0.09539567848704313
3260000000.0 -0.13272015497984788 0.050444160829156356
3280000000.0 0.10839235487281904 -0.02067539856400915
3300000000.0 -0.0691980906215715 0.03990157398174275
3320000000.0 0.052893044593461246 0.0005283802053307003
3340000000.0 -0.020916093582629216 -0.018330017147387242
3360000000.0 0.004143039209092289 -0.0076211048695626745
3380000000.0 0.008374941024777309 3.9928336873013935e-05
3400000000.0 -0.01748104462857616 0.013741255249085352
3420000000.0 0.034766643959559626 0.006310041976192416
3440000000.0 -0.028997871247123292 -0.03506084046745758
3460000000.0 0.01571741330474379 -0.05252325738702575
3480000000.0 0.05755259859793093 -0.031804299796475505
3500000000.0 -0.00019703372559532896 -0.07998586001929821
3520000000.0 -0.0937578989406223 -0.012674674885960644
3540000000.0 0.0989785156590778 -0.04604549758803188
3560000000.0 -0.09125547126158431 0.08430439762064525
3580000000.0 -0.012610371096063711 -0.13818194009834708
3600000000.0 0.15119651340456902 0.030350229212333893
3620000000.0 0.08965536104815146 0.14004104178867668
3640000000.0 -0.09047033716213701 0.15316843588633874
3660000000.0 -0.18137816438909657 0.044169945130216715
3680000000.0 -0.17674345276447403 -0.07507877138724944
3700000000.0 -0.1274708881452845 -0.1440501906094833
3720000000.0 0.05323776448824676 -0.1845715054662203
3740000000.0 0.16941941902833899 -0.07735896704607863
3760000000.0 -0.17791192156513833 0.02960999521953307
3780000000.0 0.17025767740317957 -0.00273795748935395
3800000000.0 -0.007156222168854929 -0.16233122547980033
3820000000.0 -0.13222524569723598 -0.08103823696999962
3840000000.0 -0.09862711058342222 -0.1097500148316585
3860000000.0 0.1458881211564372 0.021409649775267787
3880000000.0 0.14748792247764358 0.03634291121226282
3900000000.0 0.10750308103095751 -0.11669089726377518
3920000000.0 -0.15098933006909152 0.0586870294093645
3940000000.0 0.10018928871054762 -0.13360419528845355
3960000000.0 0.16328179746932894 0.053140918733926956
3980000000.0 0.12185703559128819 -0.12176379314212718
4000000000.0 0.11195560122363214 -0.1233533296971175
