!Created with skrf (http://scikit-rf.org).
# Hz S RI R 50.0 
!freq ReS11 ImS11
400000000.0 -0.6650073609641163 0.562015071707574
420000000.0 0.292903108469815 0.8162697128758792
440000000.0 0.6984637377444803 -0.46332585679454463
460000000.0 -0.3693689982658544 -0.7002252167948722
480000000.0 0.4809069481500525 -0.5160450906232594
500000000.0 -0.13028531222780504 -0.5618839604214091
520000000.0 -0.31361751186764625 0.38558138835076555
540000000.0 0.27117824052029355 -0.3040865481485319
560000000.0 -0.29473210123237 -0.2180159250619889
580000000.0 0.17567750338244528 0.2914980836140405
600000000.0 0.3363029843908835 -0.08783289772771642
620000000.0 -0.2506919446582227 0.26030967049434783
640000000.0 0.24760525259364732 0.30507892802103037
660000000.0 0.17451206809062067 -0.3652690261642185
680000000.0 0.2687029179112938 0.32942707392210135
700000000.0 0.1791077854997927 -0.39340965213421564
720000000.0 -0.3709991034959988 0.21176579818819047
740000000.0 0.2658295812035631 -0.31584157949572594
760000000.0 -0.38076814692681576 -0.0899709820412701
780000000.0 0.24397280885801592 0.2618400983667659
800000000.0 0.04117793394352948 -0.3198777552627604
820000000.0 -0.23979810520038927 0.13951669634619035
840000000.0 0.021425637201103444 0.23968561782319145
860000000.0 -0.2041538110224254 0.006963044128505529
880000000.0 0.15908408904594143 0.03274881695583852
900000000.0 0.008401353467674616 0.115862300507979
920000000.0 -0.0733040897016848 0.027032761923296764
940000000.0 0.015339073590686762 0.041117400283348
960000000.0 -0.04235036802645569 -0.020321171454021972
980000000.0 0.03226453742065373 0.058510230438482976
1000000000.0 -0.02777047296359793 -0.07894105244206633
1020000000.0 -0.027844830194522222 -0.09923631080432795
1040000000.0 0.029971087464622806 -0.11682055941179262
1060000000.0 0.1580167975235923 0.002795843043161539
1080000000.0 0.120958128924547 0.12993381496702033
1100000000.0 -0.08617185920069576 -0.18333042830401336
1120000000.0 0.058787422956679804 0.21631933307587273
1140000000.0 0.25671583634079803 -0.025676255662750433
1160000000.0 0.04320567622365123 -0.2819274170200214
1180000000.0 0.20082119659971712 -0.24672148536018398
1200000000.0 0.3351571783429833 0.06165021430850602
1220000000.0 -0.3629598430941439 0.036287962247699264
1240000000.0 0.24665624169591882 0.2952858365634638
1260000000.0 0.05983835194849861 -0.4023231890892165
1280000000.0 -0.4203424118545303 -0.050696642797444194
1300000000.0 0.2672053780319348 0.34164078160099753
1320000000.0 0.4037745084849411 0.16412845204110166
1340000000.0 0.43387184512706756 -0.039292195294401436
1360000000.0 0.4374969613860443 -0.025931714075616893
1380000000.0 0.14760284670070764 -0.40900868142052366
1400000000.0 -0.40652842360907 -0.13372009619138847
1420000000.0 0.07090318451685693 0.40387800775651583
1440000000.0 0.3678949233835861 -0.1098718145284673
1460000000.0 -0.06203676541906075 -0.3492493603467302
1480000000.0 -0.3168398344896507 0.06301534528432505
1500000000.0 -0.10730409118452515 0.2702210860114988
1520000000.0 0.05695994065740232 0.2569189237146188
1540000000.0 -0.14594091112041394 -0.18176895741104293
1560000000.0 0.1507733088118921 -0.12932312622231135
1580000000.0 0.06875995772931463 0.15557686792278316
1600000000.0 0.13087115568274427 0.031638314358646925
1620000000.0 0.08440884039750253 0.06200281482218479
1640000000.0 -0.06885201830629012 0.035268764913113426
1660000000.0 0.04021850893485397 -0.033509771908486495
1680000000.0 -0.025419308263169363 0.020035227649188844
1700000000.0 0.014277857195244227 0.0126945957698367
1720000000.0 0.0039049016010538904 -0.002197191527540154
1740000000.0 0.006723835444596695 0.015423942043142704
1760000000.0 -0.032781209970173954 0.005879292648425616
1780000000.0 -0.05413970764291893 0.026883096918382136
1800000000.0 -0.05810210320600574 -0.06939721406180588
1820000000.0 -0.11837465352978604 -0.02628146287354285
1840000000.0 0.15856130225291684 -0.015116994607358514
1860000000.0 -0.19637067118450016 -0.01644083236004869
1880000000.0 0.23454299511973134 -0.03657564835766234
1900000000.0 -0.26557691240813097 0.09411793851646025
1920000000.0 0.26858617310061883 -0.16910426721804248
1940000000.0 -0.3461177332244461 0.06061780570064262
1960000000.0 0.3376063595171723 0.17251765296063543
1980000000.0 -0.09086470562909073 -0.3878715451579531
2000000000.0 -0.4039097695228898 -0.0976863324278525
2020000000.0 -0.190615992298958 0.38146306743784575
2040000000.0 0.07650576284843909 0.42647637697975244
2060000000.0 0.39717291962349893 0.17734206059467902
2080000000.0 0.41277659018529655 -0.12960522541759964
2100000000.0 0.33794813059809065 -0.2583641366397156
2120000000.0 0.16206619046187193 -0.3832168471073776
2140000000.0 0.10620142132799062 -0.38969415511176564
2160000000.0 0.38779036120821964 -0.03369203908121914
2180000000.0 0.32926215500992256 -0.1795036087861986
2200000000.0 0.12721686072530677 -0.3387729182537847
2220000000.0 -0.14921669243760247 -0.31611239707944816
2240000000.0 -0.34118748777038316 -0.037054520571784315
2260000000.0 -0.2824321444390423 0.18960957835410966
2280000000.0 -0.11859609486765538 0.32213667696514836
2300000000.0 0.2965927237849126 0.19604734938938245
2320000000.0 0.21501372266860017 -0.30935845525720407
2340000000.0 -0.32969167810661754 -0.2406093706180019
2360000000.0 -0.0017884066029423993 0.44949016213055276
2380000000.0 0.22430492020251774 -0.4462086240792314
2400000000.0 -0.22876917815667155 0.5034554569191285
2420000000.0 0.01232559615416668 -0.607497603365543
2440000000.0 0.37085701447877967 0.5439448123684626
2460000000.0 -0.6644633123518301 -0.22469107014933162
2480000000.0 0.7269382905183893 -0.10995214213261649
2500000000.0 -0.7520498464989536 0.09490047614350389
2520000000.0 0.7697499297920166 0.04291283623637017
2540000000.0 -0.6812312726053166 -0.36721931262189866
2560000000.0 0.24787774633568407 0.7280653161783591
2580000000.0 0.3510831476144427 -0.6682814043301591
2600000000.0 -0.7257755878986547 0.09448013872379123
2620000000.0 0.5247576765952812 0.46468656037930345
2640000000.0 0.6541449390028339 0.11226002785018827
2660000000.0 -0.3738136606071631 -0.49218122344327747
2680000000.0 -0.03526242894298633 0.569041084023294
2700000000.0 0.283246712605097 -0.43710531363932675
2720000000.0 -0.397500727537091 0.25377992470168265
2740000000.0 0.42546141505002477 -0.022220536826513003
2760000000.0 -0.3853446421654962 -0.015711937140403535
2780000000.0 0.34352680489890813 -0.08873951698968945
2800000000.0 -0.21352932599759344 0.2517475631534636
2820000000.0 -0.1661316243339422 -0.2656730127728759
2840000000.0 0.3028967799398193 -0.014240647963673513
2860000000.0 -0.11743217465296064 0.2757626851527929
2880000000.0 -0.16880715312418676 -0.24858214866452327
2900000000.0 0.23139736580130962 0.19507060718565175
2920000000.0 0.013876860869459141 -0.3060225877952392
2940000000.0 -0.30999317658028647 -0.028220751360620164
2960000000.0 -0.2676430634575755 0.16645386318003497
2980000000.0 -0.2813061325020681 0.14994198793553065
3000000000.0 -0.3024675515271785 -0.10273555118078707
3020000000.0 0.06627079763926122 -0.31261933265565955
3040000000.0 0.2239843782087079 0.22409404132013686
3060000000.0 -0.28380418731077683 -0.1326498611783747
3080000000.0 0.29839569506192937 0.07752438021562273
3100000000.0 -0.28039743573293746 -0.11185856450196993
3120000000.0 0.28813895761586106 -0.0680557660042032
3140000000.0 -0.19830359060922692 0.2066977949646138
3160000000.0 -0.019628797405539734 -0.2712082121380056
3180000000.0 -0.14939450089276954 0.20700671269444715
3200000000.0 -0.17550568929011542 -0.1505390581189478
3220000000.0 0.12295643020065909 -0.16285259287911233
3240000000.0 0.09715047069002267 0.14415501402026543
3260000000.0 -0.1395892196699056 0.019557784484630938
3280000000.0 0.10877815709415123 0.010219236269154872
3300000000.0 -0.06951569762944912 0.038100958977230814
3320000000.0 0.04794679061161982 -0.020565155221161178
3340000000.0 -0.024841897508613854 0.012049824820431017
3360000000.0 -0.004179405429081429 -0.0072682975015851544
3380000000.0 -0.007785917156180352 -0.004533222253638337
3400000000.0 -0.0007827688762504155 -0.02220769092890351
3420000000.0 0.0048204327268637085 0.03459576764289464
3440000000.0 0.03492211873250997 -0.028127733001199588
3460000000.0 0.0531484446317399 -0.013785709341953868
3480000000.0 0.06251989830041702 0.019500485313329284
3500000000.0 0.03292311320191427 -0.07199673895355363
3520000000.0 -0.03324816018411607 -0.08719920684727905
3540000000.0 0.10670500495494374 0.019363790470278756
3560000000.0 -0.11324209092137424 0.04938045369051817
3580000000.0 0.08657141639203977 -0.10681327493363559
3600000000.0 0.12942506657154373 0.08222749315996442
3620000000.0 0.0035602141846849665 0.1654971080791471
3640000000.0 -0.14322730578929643 0.1025507603987175
3660000000.0 -0.18339216970762437 -0.029433455086302292
3680000000.0 -0.100039196426478 -0.16193999938660128
3700000000.0 -0.0668314306716681 -0.1784885601733907
3720000000.0 0.12916609675658858 -0.1381537545752594
3740000000.0 0.18375247785648494 -0.012690577539413439
3760000000.0 -0.17590751824902118 0.022432279383320004
3780000000.0 0.1678537904409298 0.0051614243839699266
3800000000.0 -0.01731186273854823 -0.15965486586549035
3820000000.0 -0.1525421089934059 -0.0032294585385114804
3840000000.0 -0.11800344025695005 -0.08487819174717634
3860000000.0 0.13942430020209642 -0.038348843564658994
3880000000.0 0.14782812899419512 -0.020105296232286865
3900000000.0 0.04184706756875601 -0.14987839308665127
3920000000.0 -0.1030588014070561 0.12206751961089765
3940000000.0 -0.02295718750753262 -0.1632398717305994
3960000000.0 0.12656742918942337 -0.11403221689716495
3980000000.0 0.033594176940488656 -0.1682411147061772
4000000000.0 -0.011737764445960773 -0.16537943883831355
