!Created with skrf (http://scikit-rf.org).
# Hz S RI R 50.0 
!freq ReS11 ImS11
400000000.0 -0.6226900430976354 0.6158701582268793
420000000.0 0.454017951090534 0.7430879311179129
440000000.0 0.6799307522982253 -0.4951868103814978
460000000.0 -0.175720242371908 -0.7795342833579275
480000000.0 0.35283604365956617 -0.6321889619111131
500000000.0 -0.38244500734901515 0.4477700152093282
520000000.0 0.4952068428641495 0.009086809515799554
540000000.0 -0.29747418608351106 0.2699102375668333
560000000.0 -0.17207895654101846 0.30260140433501254
580000000.0 -0.061824916585048365 -0.3158899939060978
600000000.0 -0.29318886830819646 -0.1364714972163747
620000000.0 0.31048992953954596 0.12831107171120615
640000000.0 0.3579577409213534 -0.04514144982683037
660000000.0 0.37049212399392495 -0.06003736059842614
680000000.0 -0.3844509746485154 0.11902270332489592
700000000.0 -0.03910739622220301 0.4133023121953265
720000000.0 0.3156869901718527 0.2807224150235168
740000000.0 -0.4225138007712671 0.010950460905987893
760000000.0 0.29232056895334413 0.2868025119777974
780000000.0 -0.3848582372046527 -0.013179683871130816
800000000.0 0.32945426899914204 -0.142492445510278
820000000.0 0.28664806455095926 0.12135914090901549
840000000.0 -0.19251140146157947 0.18490533014736843
860000000.0 -0.15576364757017508 0.1544029363311148
880000000.0 0.017535172891501454 -0.16788303296394474
900000000.0 0.10562856193570126 0.014586342528172931
920000000.0 -0.060687744565824535 0.02954903428498905
940000000.0 -0.005409291240512524 0.045365071596468035
960000000.0 -0.05527995562768057 -0.0017837521529110605
980000000.0 0.07124423851452101 0.006789382456216067
1000000000.0 -0.0793222524433712 0.017349606531020297
1020000000.0 -0.09096018638141334 -0.005869923264509896
1040000000.0 -0.09649690081262417 -0.03395717116767804
1060000000.0 -0.12428500498205378 0.05383075811041682
1080000000.0 0.12126471472307022 -0.09219692086968186
1100000000.0 0.08139556593596564 -0.15693582387110047
1120000000.0 -0.11456074971599671 -0.1665143719949316
1140000000.0 -0.24049361415918452 0.024543557455359705
1160000000.0 0.02441118930950127 0.27655415006467143
1180000000.0 -0.00939458205104387 0.31921877674512256
1200000000.0 -0.10609412872640656 0.3314992418636833
1220000000.0 -0.28914334849126716 -0.24413323984694738
1240000000.0 0.3369744445716544 0.2135487694418059
1260000000.0 -0.33456572413475555 -0.25642544622998614
1280000000.0 -0.1219908930414549 0.4160521430845947
1300000000.0 0.36908538240768796 -0.23758863205090233
1320000000.0 0.13893805417753113 -0.4129124523499737
1340000000.0 0.20935917540228474 -0.3747949537395352
1360000000.0 0.4292748090196165 0.03577515242280592
1380000000.0 0.366978470776089 -0.22323386140471202
1400000000.0 -0.17051519405074253 -0.38880069688761987
1420000000.0 -0.3097425358203247 0.2693489777089501
1440000000.0 0.34601715636522384 0.16919693860498122
1460000000.0 0.11269764026332994 -0.33758410410660783
1480000000.0 -0.31493909798728786 0.07334417707456706
1500000000.0 0.014483341234385641 0.2880967976868206
1520000000.0 0.23630569139720098 0.10582039818966672
1540000000.0 -0.22530029781080488 0.029193157220665924
1560000000.0 0.0053081133922211424 -0.19077870128506438
1580000000.0 0.08095424461455669 0.14166592659270477
1600000000.0 0.09405480518307768 0.0889225621776858
1620000000.0 -0.0376039616190113 0.095555706817277
1640000000.0 -0.003249406413491096 -0.07855042392685369
1660000000.0 -0.04742459616097648 0.030285881542754148
1680000000.0 -0.008120126073713508 0.038445628254720594
1700000000.0 -0.022130510464342872 0.017725209769291775
1720000000.0 0.01247963425062317 -0.006291353619120449
1740000000.0 0.006854543819978917 0.004978771431007183
1760000000.0 0.005444143084782598 0.022380478504593113
1780000000.0 0.05237391661863704 -0.004209451798972514
1800000000.0 -0.04333388081818275 0.07311427240529264
1820000000.0 -0.07618556463343 0.09395571642071748
1840000000.0 -0.1058738956888406 -0.12651645710221285
1860000000.0 0.20651606074473336 -0.02703733748835685
1880000000.0 0.08303378609308386 0.23869331061540028
1900000000.0 -0.2745893741081244 0.11691676318275819
1920000000.0 -0.10838615203563497 -0.3123329425206764
1940000000.0 0.17477836449554676 0.3139852107804769
1960000000.0 -0.010630984691943237 -0.3797856594051534
1980000000.0 -0.36000476761901146 0.15303847926725792
2000000000.0 -0.2860433695472467 0.28240629350770724
2020000000.0 -0.0696260095870833 0.40369636100325906
2040000000.0 -0.1983142073887765 0.3663446241944277
2060000000.0 -0.0774627170046521 0.4145756018198068
2080000000.0 0.03799175302962291 0.42240241097418857
2100000000.0 0.19363365988334966 0.37629869842721625
2120000000.0 0.410366761434473 0.09038979571608621
2140000000.0 0.2806958157877762 -0.30261160656756697
2160000000.0 0.33192529598736786 -0.22269563554119434
2180000000.0 -0.15630160006191798 -0.35155371811933184
2200000000.0 -0.34818721580273887 0.11861316809870354
2220000000.0 -0.0035677713753330246 0.34966536950048066
2240000000.0 0.24520111076681536 0.2315795681105734
2260000000.0 0.202088428033298 0.262329036254206
2280000000.0 0.07391707169620004 0.3238268535629903
2300000000.0 0.13513029090289297 0.3186292174704687
2320000000.0 0.34005988074843935 0.15083249934337412
2340000000.0 0.17366339237678036 -0.368884188797408
2360000000.0 -0.4066239871620373 0.19760853834876904
2380000000.0 0.4637479418442369 -0.1938301278811598
2400000000.0 -0.44607738397585667 0.3292717302417421
2420000000.0 0.24744806416828496 -0.5544760148592893
2440000000.0 0.12252371103310655 0.6453799923335337
2460000000.0 -0.5344300492017634 -0.4506880353067772
2480000000.0 0.7146889502671772 0.1628946918921018
2500000000.0 -0.7488589633333166 -0.10477322099389956
2520000000.0 0.7396064147774373 0.21419058898864926
2540000000.0 -0.5885457199429672 -0.5026704993414777
2560000000.0 0.22754330258849242 0.7355117467769444
2580000000.0 0.42913382187709304 -0.6232832556018806
2600000000.0 -0.7095160586116166 0.1854034819713703
2620000000.0 0.6258405472970923 0.3213557494887381
2640000000.0 0.6477875698420141 -0.16095573812847352
2660000000.0 -0.544426541760613 -0.3025775177848841
2680000000.0 0.2678063639574016 0.5092936165655833
2700000000.0 -0.014002564353279462 -0.5251247748564786
2720000000.0 -0.19138030068216483 0.43495432115956595
2740000000.0 0.37794186778927935 -0.201263348283655
2760000000.0 -0.3823408743644859 0.06161309556010428
2780000000.0 0.3561656849881353 0.003917233556818371
2800000000.0 -0.3293205254849712 0.04120114033326823
2820000000.0 0.15642141758340047 -0.2765062968000566
2840000000.0 0.16911460443098814 0.2577758163995093
2860000000.0 -0.26980457535206687 0.1466498321936224
2880000000.0 -0.14104710256521533 -0.2728559798652307
2900000000.0 0.2996405982172455 0.07347189619093385
2920000000.0 -0.23808690343269062 -0.19748422434721466
2940000000.0 -0.14092499120912413 0.2769481054884351
2960000000.0 0.05245205038426727 0.3074407823733573
2980000000.0 -0.026236082213266496 0.3143536881891323
3000000000.0 -0.283792151387506 0.13898099271141162
3020000000.0 -0.07610135957969152 -0.3071913297756011
3040000000.0 0.27240105101777984 0.1558840299845023
3060000000.0 -0.305780580589382 -0.06570336348173736
3080000000.0 0.30531658399734307 0.04172856333715181
3100000000.0 -0.2942233430380479 -0.07587454126559494
3120000000.0 0.2988553326468898 -0.012239579613212294
3140000000.0 -0.2261715501467604 0.18191768184762194
3160000000.0 -0.03844031413092834 -0.2735348702071964
3180000000.0 -0.11262459722194819 0.2352280066840401
3200000000.0 -0.22779113784504432 -0.0630344770094607
3220000000.0 -0.06554108203122978 -0.19814660543908746
3240000000.0 0.1536092365805705 -0.08556975164222876
3260000000.0 0.027852706322535906 0.13790047030042116
3280000000.0 0.05374506482890196 -0.0909292484396392
3300000000.0 -0.07206982308677373 0.014947769359779381
3320000000.0 -0.028622289165388462 -0.03600526686219486
3340000000.0 0.02315924490357285 0.004026539951212015
3360000000.0 0.005888387323272475 -0.006650191699599794
3380000000.0 0.0051806136878205285 -0.00437352152242405
3400000000.0 0.005327663355014628 -0.0162085364900246
3420000000.0 -0.02864819703288611 -0.00614974949789425
3440000000.0 -0.010921842374304075 -0.041792040596179726
3460000000.0 -0.022593756644283994 -0.05311494397875627
3480000000.0 -0.035237106530827546 0.06348591409877362
3500000000.0 -0.07577239425636924 -0.04361721718488169
3520000000.0 0.08772504172403642 0.047854935333831214
3540000000.0 -0.08137447974213927 0.07586420255614572
3560000000.0 0.1076226005751202 -0.058590523730321434
3580000000.0 -0.12758258533774394 -0.04029873114909522
3600000000.0 0.1477534393818991 -0.023135158118497392
3620000000.0 -0.0430812450834222 0.15671007123082678
3640000000.0 -0.1684578794833327 -0.05158321446065474
3660000000.0 -0.12611071992963083 -0.14090437642057232
3680000000.0 -0.09036189732430121 -0.1734989498499225
3700000000.0 -0.12343674749632758 -0.15321758225565593
3720000000.0 -0.038270539148722985 -0.19293561251742355
3740000000.0 -0.039899970539147636 -0.18598900419867725
3760000000.0 0.07325671949103942 0.1670393931394778
3780000000.0 -0.07231129125960845 -0.15438426711955708
3800000000.0 -0.1570542663576315 0.03588760669471234
3820000000.0 -0.1361848963011041 0.06491795582960283
3840000000.0 0.0204136243132342 -0.14312655423387916
3860000000.0 -0.07183274085090774 0.12806477170558994
3880000000.0 -0.09069948386918501 0.1260749985448932
3900000000.0 0.1653866731753523 -0.00028394781833955015
3920000000.0 -0.08737043368938828 0.14606238459869852
3940000000.0 -0.13555486598854197 -0.10735972212018545
3960000000.0 -0.0014960383430770905 -0.17549682217159296
3980000000.0 -0.1186679589896617 -0.12520325877097016
4000000000.0 0.060340317520421086 -0.15219615028473213
