!Created with skrf (http://scikit-rf.org).
# Hz S RI R 50.0 
!freq ReS11 ImS11
400000000.0 -0.6324219012610576 0.6059291463327797
420000000.0 0.40421124897811533 0.7728622796659401
440000000.0 0.6979863818752365 -0.4703754026476413
460000000.0 -0.11649190461681294 -0.7907972219589382
480000000.0 0.3963476053342482 -0.6062055963136581
500000000.0 -0.3873133453966217 0.443821774973815
520000000.0 0.49509073037593987 0.013227534776354934
540000000.0 -0.27818649857387906 0.2896614231741755
560000000.0 -0.24732255214728494 0.24555120472118583
580000000.0 -0.09011937292764147 -0.3093928605977955
600000000.0 -0.2776345409769277 -0.1670516657183351
620000000.0 0.3330000368456551 0.04114087949695563
640000000.0 0.36280147938146634 -0.007640436784882159
660000000.0 0.3602358300108028 -0.10469817841913197
680000000.0 -0.4018573701663517 0.0290402332456448
700000000.0 -0.017773087715697165 0.41408882930868246
720000000.0 0.31852431665325764 0.2776706844193587
740000000.0 -0.4186207209050398 0.06410271084406274
760000000.0 0.27025441836496245 0.3089165905820368
780000000.0 -0.37846790235967115 0.06519602134780658
800000000.0 0.3323681103499779 -0.14031809200828996
820000000.0 0.2852634410568922 0.12277526362598706
840000000.0 -0.16514687070135833 0.2100809860869185
860000000.0 -0.1265389651133153 0.1784267197286564
880000000.0 -0.005463090903229553 -0.16976817715718023
900000000.0 0.09958929022359872 -0.04014805832036833
920000000.0 -0.06320834018512668 0.024089075270749494
940000000.0 -0.044205774168951356 0.009983889921975408
960000000.0 -0.045509552924052114 0.03090573540063668
980000000.0 0.07102272946790425 0.006807060524873064
1000000000.0 -0.07708619647942097 0.024112843903376334
1020000000.0 -0.08981387341430248 -0.013757211986833369
1040000000.0 -0.10033199899880328 0.014158000896893685
1060000000.0 -0.11885847267417024 0.06436951583582402
1080000000.0 0.10427968234239575 -0.11085741727012934
1100000000.0 0.05298605590647553 -0.1691667240301799
1120000000.0 -0.12013484008420963 -0.16258017151467713
1140000000.0 -0.24118797247301949 0.022091447039443397
1160000000.0 -0.016460694763417296 0.27762322103752646
1180000000.0 -0.028914166517611792 0.31856191837158987
1200000000.0 -0.09647712619392826 0.335610808769804
1220000000.0 -0.27874157333552374 -0.256623616334468
1240000000.0 0.2998009105264366 0.2633842816050518
1260000000.0 -0.2943279925872149 -0.30101882540233277
1280000000.0 -0.16463132174672912 0.40052503758488933
1300000000.0 0.3711372052508339 -0.23296257423241665
1320000000.0 0.15856292270851452 -0.4047037708547284
1340000000.0 0.20243666578493957 -0.3774924751755757
1360000000.0 0.4299772868210621 -0.006606888068150213
1380000000.0 0.3526505049302867 -0.2439570001757703
1400000000.0 -0.21163133753176855 -0.3672174368987968
1420000000.0 -0.283884534837741 0.296628154469288
1440000000.0 0.36814722283308315 0.11545311453011892
1460000000.0 0.07096542681171909 -0.34959057246923275
1480000000.0 -0.31400051151476405 0.08147392991555258
1500000000.0 0.042023252895469945 0.28637642012048625
1520000000.0 0.23184134576298437 0.11839166888091514
1540000000.0 -0.227829834058997 0.02144776089425783
1560000000.0 0.045889789437985676 -0.18671610931785357
1580000000.0 0.05046662849528002 0.1560099525066472
1600000000.0 0.04037064070870354 0.12380486525380127
1620000000.0 -0.09095690327867462 0.04693157988570751
1640000000.0 0.032955285108003 -0.07092959767257741
1660000000.0 -0.05366658227099865 0.014742765093561117
1680000000.0 -0.01034907330565435 0.037056985988655
1700000000.0 0.026363733567905022 0.00875316989093812
1720000000.0 0.009117518164341682 -0.009680833212818356
1740000000.0 0.004217372072737532 0.006340352472371858
1760000000.0 -0.02182553218697261 0.0070051695015473795
1780000000.0 0.051100168022074004 0.011741223100552797
1800000000.0 -0.06851795429623207 0.05017300999803575
1820000000.0 -0.10173459595701283 0.06466637461662543
1840000000.0 -0.08010902714006453 -0.14371751044262887
1860000000.0 0.20527618522205773 -0.03200895585970458
1880000000.0 0.12352257341703493 0.21996966087119438
1900000000.0 -0.2550420200731291 0.15331823362350946
1920000000.0 -0.12428484893896272 -0.3058494788665051
1940000000.0 0.20119797238257592 0.29741549503084014
1960000000.0 -0.06843930280088441 -0.3737460765201427
1980000000.0 -0.34217204368512366 0.18975900790701808
2000000000.0 -0.2635999779750986 0.30319740446087984
2020000000.0 -0.066988070929854 0.40488606976184405
2040000000.0 -0.1953088712996016 0.3687497883210777
2060000000.0 -0.0496582090474635 0.4191785943625867
2080000000.0 0.04682783259531322 0.4222355224952421
2100000000.0 0.17986486227135293 0.3836245931004075
2120000000.0 0.4088549363669275 0.0997719244937064
2140000000.0 0.3060302784252819 -0.2775848361383623
2160000000.0 0.3597281657377783 -0.17534685422676868
2180000000.0 -0.14659735175972533 -0.35587504466214065
2200000000.0 -0.350499939235664 0.11214000141811707
2220000000.0 -0.060329383620847395 0.3443348140290475
2240000000.0 0.21911863133228157 0.2562655362506242
2260000000.0 0.1776898063166357 0.2782523878872282
2280000000.0 0.043474274595802366 0.32829404206035523
2300000000.0 0.09027271758737679 0.33292798072263063
2320000000.0 0.3384772708510619 0.151843945271516
2340000000.0 0.18546471114301036 -0.36156997686231024
2360000000.0 -0.4046962152680038 0.19923949300030772
2380000000.0 0.45098363405181846 -0.2185823273813238
2400000000.0 -0.42827873086846185 0.35060036657049537
2420000000.0 0.2210725940371699 -0.5649047160519316
2440000000.0 0.1696231404638027 0.6344643946509475
2460000000.0 -0.5625466329339746 -0.4155646081851825
2480000000.0 0.717606372727582 0.1522181210562496
2500000000.0 -0.7366015695162695 -0.17550314672673623
2520000000.0 0.7425082653420487 0.2072094055277196
2540000000.0 -0.5808838232055099 -0.5130027458302979
2560000000.0 0.13809221071631647 0.7587971325155825
2580000000.0 0.5157879562774756 -0.555080419805687
2600000000.0 -0.7341890637645988 -0.018794096642347907
2620000000.0 0.49511357417855884 0.5014786873375304
2640000000.0 0.6549724361174342 0.13176080247717759
2660000000.0 -0.4457927843125096 -0.43417657008562616
2680000000.0 0.14310608531203803 0.5563185454116623
2700000000.0 0.15107640881794573 -0.5019063924772992
2720000000.0 -0.3119017846613374 0.35645047844002303
2740000000.0 0.4127429055674714 -0.10848757340968881
2760000000.0 -0.3847916927074562 -0.01648771892858463
2780000000.0 0.34808289373604495 0.06453123440389374
2800000000.0 -0.32904617572160577 0.03041442130308587
2820000000.0 0.11207051641453059 -0.29534853037598924
2840000000.0 0.2058830163543874 0.22861025156768974
2860000000.0 -0.2506837971892141 0.17612304523202932
2880000000.0 -0.15377002371105936 -0.2664776696626754
2900000000.0 0.3072989892345282 0.02484654297988115
2920000000.0 -0.23529543922550503 -0.20183327132102988
2940000000.0 -0.13536869203396304 0.28129208861049865
2960000000.0 0.06717907380401364 0.3060216643561308
2980000000.0 -0.07644442711763186 0.3070032725058526
3000000000.0 -0.31258721402198436 0.056072448811548846
3020000000.0 -0.013905159646911204 -0.318606377562555
3040000000.0 0.24072220861098287 0.20409106344669004
3060000000.0 -0.2554908733449439 -0.18291075930012088
3080000000.0 0.2660572474920433 0.15751701632233528
3100000000.0 -0.2679035286882029 -0.14623426075208878
3120000000.0 0.28815317306040944 0.07989476814193847
3140000000.0 -0.2572195857233567 0.13570115257471874
3160000000.0 0.046190338479090244 -0.27279675065349324
3180000000.0 -0.18795870589730812 0.1811792865342833
3200000000.0 -0.19984410102049946 -0.12757885526445917
3220000000.0 -0.022903513401703633 -0.20762406337266465
3240000000.0 0.1692500227535033 -0.05035809656120978
3260000000.0 0.0329088127913747 0.13668470400546087
3280000000.0 0.033049781400897524 -0.1008239954821456
3300000000.0 -0.06830660693967062 0.02754477480710579
3320000000.0 -0.03654331765706705 -0.028185958858292594
3340000000.0 0.002346187386132574 -0.02377685196426152
3360000000.0 0.008000660535484172 -0.002766792284468955
3380000000.0 -0.004334528136369187 -0.004433057181096941
3400000000.0 0.004490517981376322 -0.016298250034980446
3420000000.0 0.02980378498901797 0.0036648212600674506
3440000000.0 0.039965150525570536 0.017476431276054513
3460000000.0 0.0319106729754466 -0.04908541222442485
3480000000.0 -0.06943877595784485 0.02302600869606363
3500000000.0 -0.021150767615750295 -0.08522988414131655
3520000000.0 0.027771628604059562 0.09617113054625968
3540000000.0 -0.11066630631249372 -0.0035780677649456228
3560000000.0 0.11818526845255765 0.029646520754138685
3580000000.0 -0.0707493803602149 -0.11250141135469365
3600000000.0 0.11887821966095942 0.08987867776081425
3620000000.0 -0.13224653992111382 0.09505474373366578
3640000000.0 -0.12441668005559234 -0.12540515227366467
3660000000.0 -0.05956388302637117 -0.17936985133306518
3680000000.0 -0.006598933838263316 -0.19522279494181205
3700000000.0 -0.05835116800164964 -0.18795395007413615
3720000000.0 0.004833728438997823 -0.19620513235083326
3740000000.0 0.021856567400270126 -0.18820143528902208
3760000000.0 0.018809783596197227 0.17996618228208708
3780000000.0 -0.024793896656424994 -0.16640882046324762
3800000000.0 -0.1590487524673034 0.0012514224578343389
3820000000.0 -0.14445792365996032 0.03703785452748322
3840000000.0 0.04354673645602903 -0.13576326887497236
3860000000.0 -0.11690657386733698 0.08700074717703614
3880000000.0 -0.1178161315779618 0.0994988433155408
3900000000.0 0.1529212380724609 0.05706212289913039
3920000000.0 -0.15119846939547119 0.07275117755080457
3940000000.0 -0.09248636241307356 -0.1426797633391898
3960000000.0 -0.05040172325453293 -0.16523498086303037
3980000000.0 -0.13968703185099965 -0.09525184969836908
4000000000.0 -0.04537019061484496 -0.1534903646464865
