!Created with skrf (http://scikit-rf.org).
# Hz S RI R 50.0 
!freq ReS11 ImS11
400000000.0 -0.6152397743680453 0.6231784583089662
420000000.0 0.3808126204438833 0.7842468649704534
440000000.0 0.7000985092200388 -0.468195667943113
460000000.0 -0.1503102500015831 -0.7852133595310679
480000000.0 0.395841768837078 -0.6057843144479733
500000000.0 -0.45880631254462684 0.36837763010014457
520000000.0 0.48959123198276183 -0.08426640015654506
540000000.0 -0.2978440314107919 0.2675567124740515
560000000.0 -0.1845696779978497 0.2963098018079168
580000000.0 -0.07449565113258629 -0.31176149341367193
600000000.0 -0.3232649886563599 0.03234378047951498
620000000.0 0.29471376209647576 0.15969140312275562
640000000.0 0.3612267410060976 0.0010457119578933295
660000000.0 0.369422887765902 -0.07035377413142367
680000000.0 -0.3943446668309147 0.07887117205506994
700000000.0 -0.03963088472179723 0.4136547675864815
720000000.0 0.2569354680515664 0.33628919913114785
740000000.0 -0.4218253105377164 0.005775760680525744
760000000.0 0.2816464208475579 0.2959459300602527
780000000.0 -0.3833842486512658 -0.04557603989878649
800000000.0 0.32401440956919697 -0.15224113544029572
820000000.0 0.2844381920585985 0.12702651287827815
840000000.0 -0.17867778420247138 0.19747679695737777
860000000.0 -0.15844063623078533 0.1520996382701446
880000000.0 -0.001026228465461652 -0.1682787053194148
900000000.0 0.09149213770787981 -0.05461021684377942
920000000.0 -0.05763662520701967 0.036753165041209686
940000000.0 -0.04434505410337163 0.011445677612579747
960000000.0 -0.048435572091009745 0.02725085588680341
980000000.0 0.06995739418303745 -0.010216948649256631
1000000000.0 -0.08160923430453046 0.0037930932844679965
1020000000.0 -0.09057625077051057 0.0017191172274996851
1040000000.0 -0.09407205997085626 -0.038231432554588066
1060000000.0 -0.11454126198639564 0.07125542508872783
1080000000.0 0.10767191696685789 -0.10759422066422607
1100000000.0 0.06363510031785131 -0.16483443677702228
1120000000.0 -0.13618694490255076 -0.1486191301821693
1140000000.0 -0.24028265116633382 0.030891368652577147
1160000000.0 -0.01481251759722989 0.2775090572891681
1180000000.0 -0.032073198269698365 0.3182341601082735
1200000000.0 -0.08612290541338838 0.3380505072356699
1220000000.0 -0.28635179433778407 -0.248363462334577
1240000000.0 0.30471687452677665 0.25770488460012675
1260000000.0 -0.3006082292968126 -0.2952185654055077
1280000000.0 -0.1522991101032161 0.4051714814290012
1300000000.0 0.3662332962371441 -0.24125142565719856
1320000000.0 0.16061523886657256 -0.40395123369995267
1340000000.0 0.19522118649006467 -0.3816014112408377
1360000000.0 0.4299328933179332 0.016502810716703595
1380000000.0 0.35095150284971377 -0.24732893854811056
1400000000.0 -0.19383261362857868 -0.37726730797487085
1420000000.0 -0.2817532335335591 0.2978544776235714
1440000000.0 0.3693222653362052 0.11156492788744891
1460000000.0 0.0839636183079158 -0.3465060484510265
1480000000.0 -0.3199828691031671 0.05381876511856636
1500000000.0 0.03489382995922486 0.287172563320733
1520000000.0 0.23440974904872186 0.112415780068433
1540000000.0 -0.22814092525950083 0.003547954602622507
1560000000.0 0.03901584951865894 -0.18823751899687835
1580000000.0 0.029024124376492988 0.16145088070564698
1600000000.0 0.017031687653016554 0.12864149554260054
1620000000.0 -0.09094453472391538 0.04697513014495241
1640000000.0 0.0057428921119113035 -0.07835004735041992
1660000000.0 -0.05408870603372584 0.013130174846076939
1680000000.0 -0.01844723378830827 0.03377299598848663
1700000000.0 -0.01187787577746257 0.024533600540223608
1720000000.0 0.00957768183343049 -0.008453828610027468
1740000000.0 0.006688003897436443 0.0036700089639510516
1760000000.0 -0.0224276402316293 0.005157630831249947
1780000000.0 0.03818073729910342 0.03570394357870983
1800000000.0 -0.07177444611962847 0.04626461551008722
1820000000.0 -0.10480516009832178 0.06021610540290026
1840000000.0 -0.07206572947749959 -0.14785723344785465
1860000000.0 0.20608920388239896 -0.027047767774496558
1880000000.0 0.10834177856019046 0.2278602189553016
1900000000.0 -0.26441450312382897 0.13680406462379754
1920000000.0 -0.12457195985355915 -0.3055119967040539
1940000000.0 0.19354266243003795 0.30228776134550367
1960000000.0 -0.05467509448795676 -0.3757855156563394
1980000000.0 -0.338435146468526 0.19577209039492066
2000000000.0 -0.2623883915887018 0.3040682308003899
2020000000.0 -0.03413301012141905 0.40859582663940075
2040000000.0 -0.1830286462160986 0.37498269583424326
2060000000.0 -0.002199945659006988 0.42188659264460665
2080000000.0 0.05586106543919638 0.4215210785014955
2100000000.0 0.18011198278768983 0.38389622394880424
2120000000.0 0.41406960791730957 0.07846889272625075
2140000000.0 0.2623614579249191 -0.31980509430627274
2160000000.0 0.36267497570567986 -0.17172260241958062
2180000000.0 -0.13657792097222013 -0.3608566385172288
2200000000.0 -0.3601547654376822 0.08029219524794669
2220000000.0 -0.0727511017213844 0.34296993807659715
2240000000.0 0.19851796226930155 0.2735435181235282
2260000000.0 0.15793782741675305 0.29078242537817034
2280000000.0 0.015769969558024267 0.331433830307546
2300000000.0 0.04485217942286772 0.3425446022584262
2320000000.0 0.3153940481220197 0.19641590313118606
2340000000.0 0.22354824567990156 -0.34022718135772495
2360000000.0 -0.42420465792027495 0.154312287634029
2380000000.0 0.47249542961774155 -0.16763900110322563
2400000000.0 -0.4499561126278146 0.3221965452773912
2420000000.0 0.2321264513015116 -0.560248648737681
2440000000.0 0.13661081762248964 0.6422010392278104
2460000000.0 -0.5694232432974039 -0.40563967611739676
2480000000.0 0.7203557057471265 0.1368177545904776
2500000000.0 -0.7484598248576371 -0.1130264903227676
2520000000.0 0.7410647209837764 0.21312202523012594
2540000000.0 -0.6006277973574561 -0.4897775076420612
2560000000.0 0.18599662990417165 0.7486827253665022
2580000000.0 0.4479707421466364 -0.6121073626787892
2600000000.0 -0.7341155321526169 0.0430489903915184
2620000000.0 0.5324361223964854 0.463381670626998
2640000000.0 0.6668760170330594 0.05916830010633498
2660000000.0 -0.44695900797826643 -0.4354481131206086
2680000000.0 0.15061566710232088 0.5562570552573097
2700000000.0 0.13526476706098384 -0.5085927516630578
2720000000.0 -0.3092851662029577 0.36106806428666105
2740000000.0 0.4190624019837959 -0.08892391901821903
2760000000.0 -0.3849689106936462 -0.03643543223424289
2780000000.0 0.3483869177153207 0.06962550220889871
2800000000.0 -0.3314454498441324 -0.0013104578327286845
2820000000.0 0.1561568104200236 -0.27604640416605347
2840000000.0 0.16925255247387574 0.2579993347560608
2860000000.0 -0.2844826771701985 0.11633356218311788
2880000000.0 -0.13299390681705395 -0.27703636517913655
2900000000.0 0.29982663366215706 0.07264155059680957
2920000000.0 -0.2439606265174524 -0.19087372630884653
2940000000.0 -0.1323087426238731 0.28255630810182486
2960000000.0 0.047888382883613675 0.30922757029681947
2980000000.0 -0.07737011141132628 0.3069651183233663
3000000000.0 -0.304947295428222 0.08756369481792164
3020000000.0 -0.05492399180788391 -0.3137152128052126
3040000000.0 0.25328650601531266 0.1883698522821201
3060000000.0 -0.284561016794216 -0.13296968817125246
3080000000.0 0.29002380431349845 0.10814034444808754
3100000000.0 -0.2423190317971003 -0.18445865732290675
3120000000.0 0.2989669037098299 0.01733931592830109
3140000000.0 -0.23091601783046756 0.17701388596041334
3160000000.0 0.010954992236662336 -0.27650167830044003
3180000000.0 -0.15704177789399373 0.20843910487955244
3200000000.0 -0.21679838550206842 -0.09543537332604873
3220000000.0 -0.03803848738138823 -0.20487953676815912
3240000000.0 0.15659932438499827 -0.08089899526321011
3260000000.0 0.06589852561598689 0.12394369064923437
3280000000.0 -0.004579971066658438 -0.10530240378704185
3300000000.0 -0.05929811801446878 0.04368140825940872
3320000000.0 -0.04363533934347298 -0.013646156794724192
3340000000.0 -0.02291789593476722 -0.005384786494668542
3360000000.0 0.0022981216288107905 0.007581782731841818
3380000000.0 0.004891840477231621 0.003934098351799285
3400000000.0 0.012450830454047232 0.011918133462459657
3420000000.0 0.028001501409360873 0.011686137795766988
3440000000.0 0.03552153569909447 0.026174132258485007
3460000000.0 0.05008048435253833 -0.03058428099286076
3480000000.0 -0.07324023247893406 0.003983905802767645
3500000000.0 0.003595521641444118 -0.08833397598579544
3520000000.0 0.06514248278812938 0.07736009818229075
3540000000.0 -0.0990813755480427 -0.050150856526491566
3560000000.0 0.12057239291621571 0.02361076088376605
3580000000.0 -0.05711519521995923 -0.12081950053922665
3600000000.0 0.09802857710182612 0.11249943435562665
3620000000.0 -0.1535831353022557 0.05462720480154004
3640000000.0 -0.11198310500544152 -0.13704386868264523
3660000000.0 -0.037834832772358225 -0.18606986019851576
3680000000.0 0.008278126340434953 -0.19556328380873386
3700000000.0 -0.014955185432829012 -0.1966504332376764
3720000000.0 0.053164570689510714 -0.1893032778938079
3740000000.0 0.0775581515234972 -0.1733591712737063
3760000000.0 -0.03995403791491761 0.17690647292779768
3780000000.0 0.05085958916834746 -0.16073735214470047
3800000000.0 -0.14936527814172815 -0.0550824937844247
3820000000.0 -0.14156895954767945 -0.04944459114511922
3840000000.0 0.11316032175819897 -0.08701157282847086
3860000000.0 -0.14442912508615768 0.017178806033431547
3880000000.0 -0.14868843053799075 0.03980049642520047
3900000000.0 0.10415168308710472 0.12563170854837624
3920000000.0 -0.16680267299288826 0.012845622007430238
3940000000.0 -0.06639813021211367 -0.15573053016209382
3960000000.0 -0.006358691710283383 -0.17192237513474237
3980000000.0 -0.14071754347546916 -0.09203105576912224
4000000000.0 -0.07890955562152417 -0.1384828590052941
