!Created with skrf (http://scikit-rf.org).
# Hz S RI R 50.0 
!freq ReS11 ImS11
400000000.0 -0.6015685411187027 0.6355336818274003
420000000.0 0.40333989921150204 0.7723688235758952
440000000.0 0.690778868945245 -0.48084951532897574
460000000.0 -0.19949255186849915 -0.7738978433219162
480000000.0 0.3810317435224164 -0.6150118470385532
500000000.0 -0.44427644378100406 0.38611407495589706
520000000.0 0.49251736478958114 -0.06305176679599629
540000000.0 -0.25071183521409246 0.3126313868568731
560000000.0 -0.2270241741884022 0.26637980598260497
580000000.0 -0.09260939519628142 -0.3056919382031543
600000000.0 -0.32424486614646225 0.03393903420381476
620000000.0 0.3031937737525381 0.14055588537114638
640000000.0 0.3608483160685495 -0.011662111900337366
660000000.0 0.3541592715437085 -0.12513209283710683
680000000.0 -0.3886778447174689 0.10188019798358668
700000000.0 0.022068551721179726 0.4142429707768689
720000000.0 0.28467343216645236 0.3131072407686236
740000000.0 -0.41788650367867214 0.06516837881164887
760000000.0 0.2759491165446417 0.3034763287134098
780000000.0 -0.38351230986984103 -0.038946926350362385
800000000.0 0.3265859931661365 -0.15068717062491335
820000000.0 0.26687628823520604 0.1591356562150229
840000000.0 -0.1834715532953899 0.19393518491317588
860000000.0 -0.17898801112173007 0.12596410433974928
880000000.0 -0.016108614956943337 -0.168030041489135
900000000.0 0.09333086654239789 -0.04973504346648794
920000000.0 -0.04868940501971727 0.04833145761214706
940000000.0 -0.022422190289096845 0.04017295868810714
960000000.0 -0.055505058461067486 0.004524951866194154
980000000.0 0.07100346898288008 0.006119880990798324
1000000000.0 -0.07803296288369443 -0.02463232670557976
1020000000.0 -0.08645183028442457 -0.02785748544901102
1040000000.0 -0.08162300610814882 -0.060287500959868366
1060000000.0 -0.11900804384125001 0.06374419178703049
1080000000.0 0.1164673632997763 -0.09722107044035219
1100000000.0 0.0552595979271144 -0.1673168571962572
1120000000.0 -0.15309497181065682 -0.13040027081232175
1140000000.0 -0.22920390661090004 0.07655876169867817
1160000000.0 0.03854677370221504 0.27508213167291956
1180000000.0 0.019885434397591373 0.3190199321175693
1200000000.0 -0.023068957909285284 0.34829690799587065
1220000000.0 -0.31381935535397704 -0.21280103012731733
1240000000.0 0.3329860412116711 0.2204057683156711
1260000000.0 -0.3193977721441412 -0.27537922696322437
1280000000.0 -0.13399456685584682 0.41197491399308495
1300000000.0 0.359838720802119 -0.2512291012690229
1320000000.0 0.16975489962332688 -0.40057956105063025
1340000000.0 0.20877598120902024 -0.37447573363013376
1360000000.0 0.43004902041320237 0.019582889360369733
1380000000.0 0.364153525767343 -0.22754652266460476
1400000000.0 -0.17381056539500012 -0.38679766309723596
1420000000.0 -0.29633243217605687 0.2829679022002893
1440000000.0 0.3653204407886806 0.12242839029875772
1460000000.0 0.09662936312585108 -0.34267890681217944
1480000000.0 -0.3218779215884281 0.03492089655523629
1500000000.0 0.04389419266636597 0.2850763952886493
1520000000.0 0.24234115672565548 0.09135842667620718
1540000000.0 -0.22124894887326424 0.05291387901356438
1560000000.0 -0.003513479914326269 -0.1915023421288421
1580000000.0 0.08737013106185236 0.13830569276359703
1600000000.0 0.06287682238633314 0.11341435646570318
1620000000.0 -0.038958141739458926 0.09497523480979236
1640000000.0 -0.02858903958814272 -0.0734739125282631
1660000000.0 -0.04627062591595443 0.03185894137232109
1680000000.0 0.017710667639783687 0.035181095409614456
1700000000.0 0.005654614721333115 0.02793291339444357
1720000000.0 0.013512242840259429 -0.003007117884735674
1740000000.0 0.0049625590213238455 0.006353015994037874
1760000000.0 0.023148533437561167 0.0006349560963375973
1780000000.0 0.03802199008326192 -0.036997256123055225
1800000000.0 -0.036694872072016486 0.07761328045760131
1820000000.0 -0.07033262033806027 0.0996844424528231
1840000000.0 -0.0993224118729765 -0.13221677671950044
1860000000.0 0.20594427025063275 -0.034300625845455276
1880000000.0 0.10775316155745976 0.22905194306191082
1900000000.0 -0.2737698422741349 0.11892514676957398
1920000000.0 -0.0964341493877893 -0.3161539792460406
1940000000.0 0.15233541325649694 0.3254378497926318
1960000000.0 -0.014575439047507409 -0.3794973575906015
1980000000.0 -0.35567744385927424 0.16156242880604713
2000000000.0 -0.29282017953790296 0.2739617075330618
2020000000.0 -0.08067548101686538 0.401105011945805
2040000000.0 -0.1990296989208736 0.3654863472526259
2060000000.0 -0.023630703290369263 0.42007618246362205
2080000000.0 0.09373675539218397 0.41299886949949877
2100000000.0 0.22053243858958663 0.3604857678262564
2120000000.0 0.419802418599259 -0.007970177193177727
2140000000.0 0.2217558845826406 -0.3478088206278339
2160000000.0 0.3116301075177974 -0.2509161923579809
2180000000.0 -0.2384096258357809 -0.30231757480453536
2200000000.0 -0.3020746419549821 0.21112995770460039
2220000000.0 0.036058216295010506 0.34865172745908435
2240000000.0 0.2854081124552687 0.18197120453640406
2260000000.0 0.2438672996139563 0.22474439997519732
2280000000.0 0.10640785501746487 0.31515759939258814
2300000000.0 0.131202460908331 0.32088732314592405
2320000000.0 0.34627430919303903 0.1375293818237679
2340000000.0 0.16495133549879865 -0.3735930244398903
2360000000.0 -0.41364424531416055 0.18325570597706978
2380000000.0 0.4687984796994719 -0.18023927220928598
2400000000.0 -0.4452731647627989 0.3296070892070541
2420000000.0 0.2451553855572627 -0.5549595029691545
2440000000.0 0.11935427297993355 0.6453300024733694
2460000000.0 -0.5628707377744209 -0.41359657738061356
2480000000.0 0.7200620007262707 0.1320678724147876
2500000000.0 -0.7545223238794025 -0.03665164618403746
2520000000.0 0.7432758679413722 0.20027378356946737
2540000000.0 -0.630909854461716 -0.4476420224020646
2560000000.0 0.2661339765075748 0.7226807157162803
2580000000.0 0.4115963177506802 -0.6352921313377718
2600000000.0 -0.7046470617218697 0.20540119547036448
2620000000.0 0.6172709937297363 0.3392491572849394
2640000000.0 0.6606979480680514 -0.09894969926497563
2660000000.0 -0.5466631682722026 -0.2979869480334232
2680000000.0 0.30280957647073536 0.4883818370735635
2700000000.0 -0.01155867752059003 -0.5246066631506201
2720000000.0 -0.18791947265859998 0.43539429891081977
2740000000.0 0.3732674881038527 -0.20795844088963647
2760000000.0 -0.37907053647003114 0.07261485858243294
2780000000.0 0.3543289611513535 -0.01730128172301898
2800000000.0 -0.3238573690625663 0.06819274880816105
2820000000.0 0.09234579125504384 -0.3029453301033273
2840000000.0 0.2243376417523207 0.21091202667766143
2860000000.0 -0.2664312376607135 0.15262171450202752
2880000000.0 -0.16178992378273963 -0.26101583716707444
2900000000.0 0.30552280081864686 0.038302493111911494
2920000000.0 -0.2572694944566523 -0.17228677128309008
2940000000.0 -0.11009320867343982 0.29129048810813446
2960000000.0 0.07471953086195743 0.30319580102455507
2980000000.0 -0.05617466656512847 0.31069266399105017
3000000000.0 -0.2943051673364645 0.11773863803209852
3020000000.0 -0.08177656404128449 -0.3074200468961821
3040000000.0 0.27409049388912937 0.15570620416698613
3060000000.0 -0.3000378287799873 -0.0920703301290103
3080000000.0 0.30023472669288026 0.07315013325660928
3100000000.0 -0.2684772444236411 -0.143251057770274
3120000000.0 0.299275319592622 -0.0029505858998637086
3140000000.0 -0.22447337590975558 0.1846839174184502
3160000000.0 0.022891989520337913 -0.2752935397792003
3180000000.0 -0.16967725000272352 0.19835317542570752
3200000000.0 -0.20371204519790767 -0.12109178209521929
3220000000.0 0.01666781066569565 -0.2078534286194529
3240000000.0 0.17649801269592733 -0.009155246652086764
3260000000.0 -0.01968948346216556 0.13906234637664086
3280000000.0 0.07346853669508652 -0.07602762226758533
3300000000.0 -0.05054901750946134 -0.053837828766036155
3320000000.0 0.03773905375099237 -0.026162503850594248
3340000000.0 -0.007933552645664478 0.02240840580221037
3360000000.0 -0.008613092524230715 -0.0021261369166466
3380000000.0 0.004300230639134335 0.006527111702570441
3400000000.0 0.01552269304103231 0.00849838032519978
3420000000.0 -0.0225451705874714 0.02036258848925648
3440000000.0 -0.04387648693570557 -0.005752156803998908
3460000000.0 -0.04998577373139835 -0.030621523509840903
3480000000.0 -0.006891193643694626 0.07290456722191235
3500000000.0 -0.08860196491721059 0.004121461218887161
3520000000.0 0.09915444020983906 0.01972582086846663
3540000000.0 -0.061268711646810504 0.0942555086373472
3560000000.0 0.0838962783883084 -0.09091551875589694
3580000000.0 -0.1285285041570499 -0.03793025968318675
3600000000.0 0.1502578682537844 0.0020930558990801614
3620000000.0 -0.07348536536428915 0.1463996273128155
3640000000.0 -0.16726780918659698 -0.060449498146217584
3660000000.0 -0.1231149444046831 -0.14568638070304288
3680000000.0 -0.0665218688810858 -0.18578900289857636
3700000000.0 -0.08495319913216164 -0.17972466768308873
3720000000.0 0.0053162314430315475 -0.19838464292131208
3740000000.0 0.04597792871554774 -0.18619231993077753
3760000000.0 -0.01254005229142578 0.18302182530481267
3780000000.0 0.006830277956063499 -0.1704704393396422
3800000000.0 -0.15919486261466756 -0.025472665991480268
3820000000.0 -0.15123430684538533 -0.014527655541130476
3840000000.0 0.08259737161786901 -0.11860230125075816
3860000000.0 -0.134451661205961 0.060724084608793305
3880000000.0 -0.13530906248558774 0.07775063880987938
3900000000.0 0.12772601244979653 0.10456959833763671
3920000000.0 -0.16786847196042218 0.02440569152040046
3940000000.0 -0.06946138999338382 -0.1568234965075268
3960000000.0 -0.005741692932503927 -0.174100858740239
3980000000.0 -0.11039333654862993 -0.12991498079887004
4000000000.0 0.007596800246606132 -0.16100965611151463
