!Created with skrf (http://scikit-rf.org).
# Hz S RI R 50.0 
!freq ReS11 ImS11
400000000.0 -0.6041659403461853 0.6337436749295212
420000000.0 0.3918288787531737 0.77919220829373
440000000.0 0.7307436173989619 -0.419551098371477
460000000.0 -0.18079952950952974 -0.7785332957528971
480000000.0 0.38214061542910227 -0.6142950923821888
500000000.0 -0.4642143246421407 0.36188404817282516
520000000.0 0.49094903483026736 -0.07453715221426806
540000000.0 -0.2741700784256569 0.2918348382849194
560000000.0 -0.18473550552695103 0.2966475614689888
580000000.0 -0.09370927475885645 -0.30590473632987314
600000000.0 -0.32348134837505205 0.0354372329722244
620000000.0 0.2976571962234598 0.15339542224550756
640000000.0 0.3614203880893599 0.000953702419279087
660000000.0 0.36705796124790874 -0.08192349227136592
680000000.0 -0.39329698243713823 0.08252601381472965
700000000.0 -0.013238843344585098 0.4151594168303635
720000000.0 0.25405833533443634 0.33838991802192714
740000000.0 -0.41947895436912247 0.045030505595239904
760000000.0 0.28768220381041487 0.29096068044658435
780000000.0 -0.3818146925374287 -0.05520916965522752
800000000.0 0.32013601547406606 -0.16066499918301655
820000000.0 0.2841265964454624 0.12646224341260517
840000000.0 -0.15235629637663956 0.218222867521125
860000000.0 -0.14827759726858367 0.1620676130022565
880000000.0 -0.02566424038820292 -0.16657031818004636
900000000.0 0.08573882597702161 -0.06351915864558799
920000000.0 -0.060037744111391386 0.03326171323376376
940000000.0 -0.041607783973523015 0.019308374536218458
960000000.0 -0.05345343889945151 0.015579541700957803
980000000.0 0.07055098167500441 -0.007875539941556797
1000000000.0 -0.08180953644295334 -0.0006786612146296052
1020000000.0 -0.08967862230326133 -0.013454128708385414
1040000000.0 -0.09350917596054081 -0.039210425934510004
1060000000.0 -0.10957634483268129 0.07868990984180671
1080000000.0 0.10349679401473533 -0.11148261069202733
1100000000.0 0.05278934123947983 -0.16856000797683038
1120000000.0 -0.1514821548238338 -0.13310922541239426
1140000000.0 -0.23504648576706613 0.058880167310301774
1160000000.0 0.00811549109616066 0.2780068202112007
1180000000.0 -0.015729691250828147 0.3195838511540339
1200000000.0 -0.06619746963050131 0.3427204298608843
1220000000.0 -0.2881599369032046 -0.24646391015671565
1240000000.0 0.30828980455913374 0.25352580332743524
1260000000.0 -0.3031102360170203 -0.29265380064241076
1280000000.0 -0.1442106477059757 0.4081461037861893
1300000000.0 0.3678736754789939 -0.2385143240793146
1320000000.0 0.17556291343313946 -0.3975868145176173
1340000000.0 0.2070021407059238 -0.3751621084651964
1360000000.0 0.43027765167590437 0.005447787993647168
1380000000.0 0.35128306016269606 -0.24674798313554908
1400000000.0 -0.19175266625372914 -0.37822513663848384
1420000000.0 -0.28145464449483254 0.2978240257377161
1440000000.0 0.3703460003591207 0.10732346798931532
1460000000.0 0.07508960281234198 -0.3482352857092871
1480000000.0 -0.31447372347069974 0.07798488502575082
1500000000.0 0.03856413368912939 0.2864306887766636
1520000000.0 0.2409078821075956 0.09675565345458102
1540000000.0 -0.22728367221053278 0.015694366759170308
1560000000.0 0.01618238730702716 -0.19137230072816613
1580000000.0 0.0709688564756811 0.14748037804300024
1600000000.0 0.050921152061488756 0.11938711204024836
1620000000.0 -0.07282675156801045 0.07211252693074903
1640000000.0 -0.011496406461482362 -0.07782731809468016
1660000000.0 -0.05204669370774778 0.020773799934249437
1680000000.0 -0.0015665849868519701 0.039013942743713344
1700000000.0 -0.0008433555936141539 0.027927689857041436
1720000000.0 0.012967475065947226 -0.003167259319657601
1740000000.0 -0.007338238594353765 -0.0026099925219691803
1760000000.0 0.006205826204966142 0.02229674087914414
1780000000.0 0.05233968907356635 -0.006807701400635918
1800000000.0 -0.054032667495578744 0.06608130378083464
1820000000.0 -0.08336035174043518 0.08827046275242678
1840000000.0 -0.09336293705417101 -0.135931422321883
1860000000.0 0.2056277088350518 -0.0339944986884223
1880000000.0 0.11446611410140965 0.2255010275225247
1900000000.0 -0.2673402076470427 0.13212745222950315
1920000000.0 -0.10636673892714163 -0.312710783752737
1940000000.0 0.17395383512819584 0.3143171409164499
1960000000.0 -0.026709426913021323 -0.37882273267858596
1980000000.0 -0.3467461681766571 0.18021327378904942
2000000000.0 -0.27656596164549696 0.2908902149305281
2020000000.0 -0.07480224866427473 0.40293064699858616
2040000000.0 -0.17561343058966558 0.3778345332484965
2060000000.0 -0.014580198205272957 0.4212310663380308
2080000000.0 0.09238050123896603 0.41392519793945726
2100000000.0 0.17149491810618533 0.3872938130149989
2120000000.0 0.42041775293672073 -0.004963397671064639
2140000000.0 0.22415401316134104 -0.34666614980345495
2160000000.0 0.3325864832164187 -0.22276931325968444
2180000000.0 -0.19221807147278255 -0.33370395710174067
2200000000.0 -0.3319490391759342 0.15944672259164636
2220000000.0 -0.0017450298779014657 0.350329242498777
2240000000.0 0.25569545175520664 0.2205784734470678
2260000000.0 0.2133369152428198 0.2526454602712732
2280000000.0 0.08429913937685471 0.32064412891163263
2300000000.0 0.12069204984744968 0.3237597209578704
2320000000.0 0.34684388334708455 0.13265711756474985
2340000000.0 0.16689430152199566 -0.37092621217487604
2360000000.0 -0.40149964703399615 0.2059449524848421
2380000000.0 0.44674154669940913 -0.22724501016666981
2400000000.0 -0.42735583860417564 0.35149397321273507
2420000000.0 0.21009309508427002 -0.5687611262250561
2440000000.0 0.17280287334977976 0.6330683608354019
2460000000.0 -0.5709219147100115 -0.4033016202605748
2480000000.0 0.7130565832910142 0.171572362393894
2500000000.0 -0.7486253248973194 -0.10932679028938905
2520000000.0 0.7441254964229038 0.2001868975248203
2540000000.0 -0.5786996424065985 -0.5151653742599093
2560000000.0 0.18740308373923423 0.7475781956518606
2580000000.0 0.4713787804073612 -0.5928605745336673
2600000000.0 -0.7277068686756923 0.09546039311393814
2620000000.0 0.5671552241837793 0.41703117188654293
2640000000.0 0.6666289843872092 0.028784427319782452
2660000000.0 -0.4906170523406447 -0.38124832811052894
2680000000.0 0.21914578526105194 0.5298364611779046
2700000000.0 0.09407816816475088 -0.5145008032098772
2720000000.0 -0.26493681244395845 0.39112094506211886
2740000000.0 0.4103964826351731 -0.11138296280857678
2760000000.0 -0.3831567875249522 0.026742786767630047
2780000000.0 0.3527822249511641 0.010665360273176152
2800000000.0 -0.32097676920927726 0.07325825685060426
2820000000.0 0.08151222361484693 -0.3047101355411309
2840000000.0 0.2404863733857121 0.19088018953291305
2860000000.0 -0.21749369206993252 0.2150898915124106
2880000000.0 -0.20816438503253046 -0.2252830978615371
2900000000.0 0.3076601905768325 -0.01136246051386069
2920000000.0 -0.2765418508717654 -0.13994609563481586
2940000000.0 -0.08508081983249674 0.30028012046862884
2960000000.0 0.06144377172735933 0.30706213366463936
2980000000.0 -0.06489279961171211 0.30992692921071446
3000000000.0 -0.3048607796865078 0.09051166484290117
3020000000.0 -0.03253166386639267 -0.31797966186167564
3040000000.0 0.2452145368193386 0.2003446137528802
3060000000.0 -0.2620604110850821 -0.17435135682137906
3080000000.0 0.283991721000575 0.12413803460484907
3100000000.0 -0.22084670535361026 -0.21058136455991797
3120000000.0 0.2902359469950857 0.07592154921080323
3140000000.0 -0.2654134512555005 0.12025758917773394
3160000000.0 0.08153670454481039 -0.26513144520683396
3180000000.0 -0.21376564931399464 0.15078191996022638
3200000000.0 -0.164274687580637 -0.17161284304852364
3220000000.0 0.07079802135345639 -0.1966269385000334
3240000000.0 0.17369196082331922 0.032874987198176366
3260000000.0 -0.049050471685182104 0.1319582968230575
3280000000.0 0.08755345024680558 -0.05931094811310546
3300000000.0 -0.04708950706471295 -0.05696232840094409
3320000000.0 0.036757265942983196 -0.027452458470849126
3340000000.0 -0.008374584609894691 0.022355801114454496
3360000000.0 0.005473942690011474 0.006686769074343663
3380000000.0 0.0014289193537753639 0.007553509069910901
3400000000.0 0.013298900228551987 0.011649010838326245
3420000000.0 -0.030214401885548477 -0.004113835028982275
3440000000.0 -0.025260695575715263 -0.036448946640536786
3460000000.0 -0.011469772674374469 -0.057409030242001384
3480000000.0 0.004299809565734075 0.07352199859660288
3500000000.0 -0.08677450046937926 -0.019341311002359834
3520000000.0 0.10117520294479189 0.005613280973410198
3540000000.0 -0.0980622319574232 0.053770921484936854
3560000000.0 0.11419992560901052 -0.0459502439642148
3580000000.0 -0.11361839955202765 -0.07088784569538904
3600000000.0 0.1450377963979694 0.03862912045768169
3620000000.0 -0.10676267864962911 0.1242284206651638
3640000000.0 -0.1489480846373514 -0.09691102515096223
3660000000.0 -0.06946043594704338 -0.17681929382204414
3680000000.0 -0.024729608294441725 -0.1948803115901278
3700000000.0 -0.04187604443028338 -0.19338838134688974
3720000000.0 0.03300677727622343 -0.19433554779076276
3740000000.0 0.06358964398794718 -0.17963944384161865
3760000000.0 -0.01754048821342859 0.1812409695687013
3780000000.0 0.028484746918548288 -0.1667216848453262
3800000000.0 -0.15739789869564036 -0.028586469143309867
3820000000.0 -0.14959093611465688 -0.014798388939840463
3840000000.0 0.08257167114103553 -0.11686523222289678
3860000000.0 -0.13770851755145497 0.048687600060656144
3880000000.0 -0.14122591250657857 0.0628321923006865
3900000000.0 0.11962916158197234 0.11152670939363236
3920000000.0 -0.16735271962150403 0.014143429622160246
3940000000.0 -0.04738924850338313 -0.16376405270522779
3960000000.0 -0.0028992972560704803 -0.17244044484989018
3980000000.0 -0.12542153115151744 -0.11300270327256351
4000000000.0 -0.03848641639114863 -0.15493874509396602
