!Created with skrf (http://scikit-rf.org).
# Hz S RI R 50.0 
!freq ReS11 ImS11
400000000.0 -0.6117374898455532 0.6256711235563897
420000000.0 0.46077023838565095 0.73911777438144
440000000.0 0.6723311856585733 -0.505065217203603
460000000.0 -0.16824923445488596 -0.7809307081024863
480000000.0 0.336986444078421 -0.6404954753992819
500000000.0 -0.40168358394851467 0.4289879697507105
520000000.0 0.49473285751375157 0.03024669221756456
540000000.0 -0.2625998231702792 0.30375992989519573
560000000.0 -0.20567888465368622 0.27954174061593917
580000000.0 0.026481011630173565 -0.321572174389212
600000000.0 -0.28911939274903503 -0.1471404795980043
620000000.0 0.3236777475809029 0.0890335062836853
640000000.0 0.3600283739060014 -0.02659001144119469
660000000.0 0.3711840831717933 -0.059041111702142025
680000000.0 -0.38088877769263424 0.1306795543268142
700000000.0 -0.05156535966834529 0.4120879717218604
720000000.0 0.3197213074395595 0.2763586709238172
740000000.0 -0.4220958736190929 0.02990598221095846
760000000.0 0.30139669655593804 0.2771158750725464
780000000.0 -0.3848058746199786 -0.02506333557409281
800000000.0 0.32666447785008706 -0.14824613540666198
820000000.0 0.2869167810578004 0.12093525288172882
840000000.0 -0.18504469356679043 0.19201949988306846
860000000.0 -0.1255194592589939 0.18009841750928837
880000000.0 -0.0128016968429537 -0.16811102905136485
900000000.0 0.10693221004391555 0.005295208251552779
920000000.0 -0.04812397019461415 0.04754978122007529
940000000.0 -0.01724128225770584 0.042245821435046994
960000000.0 -0.05437260460678423 0.009843294744947727
980000000.0 0.06851077403407713 -0.021218379784004537
1000000000.0 -0.0800495235614799 0.013494571548405426
1020000000.0 -0.08400324291080512 -0.03479403161856023
1040000000.0 -0.09904344593928423 -0.025031539922556852
1060000000.0 -0.12410787113245073 0.05336000879372035
1080000000.0 0.13452492002322117 -0.07080847049926511
1100000000.0 0.08760615814092337 -0.15348718863558616
1120000000.0 -0.11006733757294898 -0.16974152211597485
1140000000.0 -0.24011236531383726 0.02859311697012978
1160000000.0 0.002306215046229459 0.27736566110645816
1180000000.0 0.01040814530198569 0.31926584846329165
1200000000.0 -0.08404282983631449 0.33801236334311396
1220000000.0 -0.30184260430559173 -0.22850668110544814
1240000000.0 0.3413251127601095 0.20661889182761758
1260000000.0 -0.329612414219891 -0.26271148698233376
1280000000.0 -0.11561939569605609 0.41771426390235317
1300000000.0 0.3764183988893477 -0.22543150031285505
1320000000.0 0.1465918955207037 -0.4100578846223886
1340000000.0 0.21332708706658193 -0.37241328054466044
1360000000.0 0.4296639269178776 0.03378518331333042
1380000000.0 0.3567045838675628 -0.23914417695150403
1400000000.0 -0.1722735967738611 -0.38822124232693
1420000000.0 -0.3155733226238633 0.2627991774268701
1440000000.0 0.3433333013465868 0.17448789500789091
1460000000.0 0.11564552991723155 -0.3368360829808082
1480000000.0 -0.3151562487471924 0.07122378320611436
1500000000.0 0.02169065563302744 0.28766848385319826
1520000000.0 0.23638298618647005 0.10586924287605594
1540000000.0 -0.22580221550822865 0.02470507133420402
1560000000.0 0.016038948383554307 -0.19014676222674995
1580000000.0 0.07588449718413688 0.14430198020262755
1600000000.0 0.0784055154688513 0.10251520691872508
1620000000.0 -0.045520500184536315 0.09201011877974197
1640000000.0 -0.016668006998067496 -0.07675841621419603
1660000000.0 -0.04380822860893912 0.035211128015177506
1680000000.0 -0.02022944561496104 0.033415505628103595
1700000000.0 0.019886897955701154 0.02072441021109464
1720000000.0 0.007788669153418902 -0.01197909642476454
1740000000.0 -0.0036010510518485143 -0.007574500631455272
1760000000.0 0.011383904557790613 0.019666229341599697
1780000000.0 0.03985635114635104 -0.03466437401922189
1800000000.0 -0.023555091363570944 0.08152185943871876
1820000000.0 -0.055241727110540526 0.10805023376150914
1840000000.0 -0.12413255982662005 -0.1089925571008065
1860000000.0 0.20187512103464933 -0.05291929644238848
1880000000.0 0.10979323526291739 0.22847219711732084
1900000000.0 -0.2689203600691394 0.130327507527267
1920000000.0 -0.10604853222431826 -0.31329519544267165
1940000000.0 0.16435595180864454 0.3200612530170818
1960000000.0 -0.003791186280277798 -0.3801659920636472
1980000000.0 -0.3626672293103777 0.14676645871507388
2000000000.0 -0.29349400741174503 0.2750253716572728
2020000000.0 -0.09717817889142728 0.39827226314225067
2040000000.0 -0.19550482283376674 0.3678475404010284
2060000000.0 -0.03229097145809999 0.42032789492183437
2080000000.0 0.07874455591113776 0.4167848525613446
2100000000.0 0.22283407227298674 0.35974026957894484
2120000000.0 0.4115708021231112 0.08390725248806381
2140000000.0 0.24376199058136172 -0.3328047413508172
2160000000.0 0.3305705764118728 -0.2244268824524183
2180000000.0 -0.1575595653682738 -0.3509786736463672
2200000000.0 -0.32669032954354815 0.16934256388360402
2220000000.0 -0.034903198957164934 0.3486829377149926
2240000000.0 0.2523463771416954 0.22552554598654356
2260000000.0 0.22187800606208366 0.24753771517216241
2280000000.0 0.0870506140845925 0.3217856339035268
2300000000.0 0.1500418063165695 0.313551951537285
2320000000.0 0.35805769865179166 0.10702149682078627
2340000000.0 0.12073378294706666 -0.39150112224467504
2360000000.0 -0.3696106221661411 0.26393443107037884
2380000000.0 0.4158249137523088 -0.2868687108994275
2400000000.0 -0.358701137921079 0.42591921797793086
2420000000.0 0.0955434902676717 -0.6018290935433598
2440000000.0 0.2983578386019785 0.5874602774002945
2460000000.0 -0.6405244846889515 -0.2841578976854474
2480000000.0 0.7320536267277447 -0.05435495850205479
2500000000.0 -0.7527746250773728 0.07838294362578936
2520000000.0 0.7701922112808834 -0.00459298460334124
2540000000.0 -0.7055013939936805 -0.3180551519950348
2560000000.0 0.41976777328671677 0.6442868704668141
2580000000.0 0.19293972598400425 -0.7306061688180243
2600000000.0 -0.6251787357538905 0.3802582945985233
2620000000.0 0.6922535522033825 0.1132122197974037
2640000000.0 0.5671675365610552 -0.347557316919569
2660000000.0 -0.5991602349595557 -0.15998555224819808
2680000000.0 0.38329686592795204 0.4251606275885927
2700000000.0 -0.14608101162243553 -0.5016032253316887
2720000000.0 -0.12187676489955422 0.4564231013785604
2740000000.0 0.3354534831029643 -0.26188490513147944
2760000000.0 -0.3662483573619546 0.1183887417091737
2780000000.0 0.3527019542231533 -0.03038412247507464
2800000000.0 -0.3218027446068088 0.0737497841901133
2820000000.0 0.115348128266322 -0.2942498468786374
2840000000.0 0.19408782767462046 0.23761037649614664
2860000000.0 -0.26345859803847066 0.1562796250506244
2880000000.0 -0.16891534045666848 -0.25537826829547294
2900000000.0 0.3035993675143334 0.04910546315139978
2920000000.0 -0.24934036542867818 -0.18078116444950276
2940000000.0 -0.12173674767101736 0.28467396920750054
2960000000.0 0.08144712516147855 0.29992229838880047
2980000000.0 -0.003606618096544547 0.3138503723726215
3000000000.0 -0.28942954208767374 0.1234829364929175
3020000000.0 -0.07762801932977687 -0.30603186267356014
3040000000.0 0.2404534882409135 0.20038483337328458
3060000000.0 -0.30620648254201405 -0.05546530095217878
3080000000.0 0.30246124206788516 0.05271473623994562
3100000000.0 -0.302210251165367 -0.027626846103620525
3120000000.0 0.2961312543484301 -0.034433490980518656
3140000000.0 -0.17759490887005178 0.2290587675187077
3160000000.0 -0.08355996711811248 -0.2630792697758335
3180000000.0 -0.09112716673729225 0.24416153534652915
3200000000.0 -0.23522293081990098 -0.021563337117610906
3220000000.0 -0.08607047450746802 -0.18978583770547264
3240000000.0 0.14757735499981975 -0.09576434859781158
3260000000.0 0.027918539699679716 0.1379726654655616
3280000000.0 0.05923303490397662 -0.08751742529892105
3300000000.0 -0.07106313542268616 -0.018989060865937907
3320000000.0 0.01654908724987226 -0.04308336088688333
3340000000.0 -0.0030461227438992712 0.0236619928538791
3360000000.0 0.009208255820302524 5.968421254250922e-05
3380000000.0 -0.0025008868862151775 -0.006931832832972368
3400000000.0 -0.012321287313507925 0.011661328725740798
3420000000.0 0.007217635166170086 0.028304601954775993
3440000000.0 -0.04280499052708736 -0.00024261530441934597
3460000000.0 -0.05250532013236415 -0.021985216078439115
3480000000.0 -0.0011096154771799533 0.07220224916274776
3500000000.0 -0.08662509425954842 0.0074679735052607665
3520000000.0 0.09828497824359561 0.013392060347722485
3540000000.0 -0.05838381328957864 0.09400114602800613
3560000000.0 0.08644842948366128 -0.08584601560457042
3580000000.0 -0.13322691660968475 -0.002332865938459032
3600000000.0 0.14395476174376046 -0.03849849277446181
3620000000.0 -0.017837935629422243 0.16142582420268797
3640000000.0 -0.1740163752800089 -0.027374113584270433
3660000000.0 -0.14662638154956417 -0.11861272194597364
3680000000.0 -0.10980740563859744 -0.16205431714920254
3700000000.0 -0.13594769834384807 -0.14187255669590124
3720000000.0 -0.06256973016069213 -0.18630679867270375
3740000000.0 -0.04308177752243677 -0.18490970611523488
3760000000.0 0.08873841123139853 0.15923923219357983
3780000000.0 -0.07705953470660287 -0.15192900198431009
3800000000.0 -0.1552912666564961 0.0427295522618133
3820000000.0 -0.1437527410826158 0.04725882718298752
3840000000.0 0.018335242139163748 -0.14391949136002483
3860000000.0 -0.04095465712501406 0.14157178387302133
3880000000.0 -0.054725250543750506 0.14541842159806467
3900000000.0 0.16330806801439793 -0.027465814107631954
3920000000.0 -0.07535423250398154 0.15323978303235467
3940000000.0 -0.13469808997503957 -0.11007597884776778
3960000000.0 0.007670461375456571 -0.1761298684583888
3980000000.0 -0.0790878041507109 -0.15455401313633382
4000000000.0 0.1324124237481445 -0.09830718473439191
