!Created with skrf (http://scikit-rf.org).
# Hz S RI R 50.0 
!freq ReS11 ImS11
400000000.0 -0.6199479791563731 0.6166922996682246
420000000.0 0.39793489304653706 0.7754750506432924
440000000.0 0.6939176149225477 -0.47571396074899575
460000000.0 -0.18895221858702732 -0.7764882168983566
480000000.0 0.39193647233813894 -0.6080823559272902
500000000.0 -0.4461896999048291 0.3841602351801763
520000000.0 0.49290064441110604 -0.0610889171023537
540000000.0 -0.2766051660736993 0.2898157998791918
560000000.0 -0.19181985066817095 0.2919824131875929
580000000.0 -0.08103617713445722 -0.3096975789148205
600000000.0 -0.32258922235411114 0.046394521352900064
620000000.0 0.3117137105126498 0.12012110566891147
640000000.0 0.3600691626893405 -0.028943597105616517
660000000.0 0.35994537602480975 -0.10633620642646617
680000000.0 -0.39516923444425667 0.07445010728712065
700000000.0 0.0243315116579886 0.414026791325393
720000000.0 0.29519137847475185 0.30389907516654713
740000000.0 -0.4191986556498478 0.052862638680247716
760000000.0 0.2737573218813173 0.3053748012132459
780000000.0 -0.3836715508116654 -0.03461650102975803
800000000.0 0.3264962409689925 -0.1496257852689344
820000000.0 0.27613470264765866 0.14271424519250425
840000000.0 -0.17113880405849552 0.2048008345772068
860000000.0 -0.16415777211093271 0.14477682026084576
880000000.0 7.66925441450285e-06 -0.16874822956103402
900000000.0 0.09247477597038362 -0.05152200059344375
920000000.0 -0.05284414827689041 0.04373884620077382
940000000.0 -0.003069147684890812 0.0457555628027018
960000000.0 -0.05264422356469556 0.018206203001592532
980000000.0 0.07107657773888765 0.005922107003507291
1000000000.0 -0.0778171115432196 -0.025389878730526488
1020000000.0 -0.08828487543279621 -0.020792807574218725
1040000000.0 -0.09190922971857139 -0.04296502644824602
1060000000.0 -0.1100506979225513 0.0780097340888785
1080000000.0 0.11382730392542659 -0.10059506040294654
1100000000.0 0.06104726987153344 -0.16549597403901706
1120000000.0 -0.1413646587792632 -0.14324423340800954
1140000000.0 -0.2249196351703932 0.08937587046587187
1160000000.0 0.004267786642379246 0.2776564699573212
1180000000.0 -0.0007060502541791564 0.3197717555493813
1200000000.0 -0.053427119148889694 0.3446629573422274
1220000000.0 -0.3062550287553081 -0.2234659477689904
1240000000.0 0.3250479899197176 0.23171519692088594
1260000000.0 -0.3175765113918646 -0.2773572384649276
1280000000.0 -0.14139791758746728 0.4094545703607616
1300000000.0 0.36158987147910027 -0.24865822477454713
1320000000.0 0.16627486722760157 -0.40198522676550275
1340000000.0 0.21950686559693686 -0.3682534578349615
1360000000.0 0.43001651636352206 0.019308648065303805
1380000000.0 0.3611987294471927 -0.23233269994911218
1400000000.0 -0.1763970717816665 -0.3857145225928239
1420000000.0 -0.28777089386478466 0.2916147178267208
1440000000.0 0.3672740919540934 0.11702744310080881
1460000000.0 0.0779174557942055 -0.3473736051097255
1480000000.0 -0.3021641016454675 0.1154213625229873
1500000000.0 0.040658253722228505 0.2858871857794274
1520000000.0 0.2433070194240618 0.0898106835469161
1540000000.0 -0.22612018532612282 0.02608573940246455
1560000000.0 -0.0037053824198835694 -0.19167450917419818
1580000000.0 0.09530442108481783 0.13293089826721488
1600000000.0 0.07375804200036722 0.10671743092375034
1620000000.0 -0.054346040121929166 0.08704049503380135
1640000000.0 -0.02356927052331226 -0.07526911542078212
1660000000.0 -0.04825857746458363 0.02887704808411781
1680000000.0 -0.010401959125139448 0.03790100485428853
1700000000.0 0.0018939710550605895 0.028119913363414673
1720000000.0 0.013542928201015261 -0.0019143575647652697
1740000000.0 -0.007630121565489544 0.002466011538042804
1760000000.0 0.00038650111364678445 0.0229095219322501
1780000000.0 0.047093634846362954 -0.02416349800352301
1800000000.0 -0.04364092422594802 0.07377376946568771
1820000000.0 -0.08642708585368322 0.08553815703611517
1840000000.0 -0.0943637409241533 -0.13557778702257647
1860000000.0 0.20701686979700823 -0.026524602346106176
1880000000.0 0.10923758793721634 0.22824773110982724
1900000000.0 -0.2728995232925275 0.12049221523494856
1920000000.0 -0.09921183333801346 -0.3151684345065208
1940000000.0 0.16055182510318786 0.3213270335098688
1960000000.0 -0.016376818396488708 -0.37930752625688874
1980000000.0 -0.3528497355196822 0.1677228984280242
2000000000.0 -0.2793690636064801 0.2877975564485406
2020000000.0 -0.093403914460738 0.39876290458644853
2040000000.0 -0.16656727481747954 0.38146925399702636
2060000000.0 -0.0207287211981915 0.4206085506304828
2080000000.0 0.10016793340146984 0.41166210251837637
2100000000.0 0.23870940834877133 0.3490531544018094
2120000000.0 0.419855835708667 0.017478357050946962
2140000000.0 0.23778281246559688 -0.33749569227053405
2160000000.0 0.3133961276257233 -0.2490137902895825
2180000000.0 -0.21533947921499252 -0.31947517770690437
2200000000.0 -0.32065375676522884 0.18202421254768295
2220000000.0 0.00012338484029269405 0.35051272333420763
2240000000.0 0.271433713420474 0.20127608227856755
2260000000.0 0.23092929437768445 0.23779383702679174
2280000000.0 0.10276227747066609 0.31625845553903237
2300000000.0 0.1265788563832437 0.3225279384580903
2320000000.0 0.3449272275506851 0.14057877635665242
2340000000.0 0.18289041963479058 -0.3645349308844586
2360000000.0 -0.41179571343891175 0.18698605176909777
2380000000.0 0.4610929214810809 -0.1987839481089106
2400000000.0 -0.44530121881113466 0.32922325585961254
2420000000.0 0.23850595421620582 -0.5578346709611266
2440000000.0 0.13884546447996912 0.6414452469475092
2460000000.0 -0.5596524636661754 -0.4182865411437708
2480000000.0 0.7200688209672623 0.13387733573022148
2500000000.0 -0.7508492290944542 -0.08854920747922798
2520000000.0 0.7496326174303761 0.17448049707749422
2540000000.0 -0.6021014768140212 -0.48648188780783624
2560000000.0 0.24304483361151488 0.73105065332792
2580000000.0 0.44110622584533843 -0.6155697272131049
2600000000.0 -0.7182331652886288 0.15207120850632153
2620000000.0 0.5897317919981349 0.3855502203905163
2640000000.0 0.6643707266078416 -0.07247202718555935
2660000000.0 -0.531892615120268 -0.32346166403890125
2680000000.0 0.2667183973880645 0.5089761662126757
2700000000.0 0.024711473598946338 -0.5241144229252938
2720000000.0 -0.206893012748407 0.42667068665380803
2740000000.0 0.38850980184997586 -0.17769099451094303
2760000000.0 -0.38164174954125074 0.057149108700204856
2780000000.0 0.3546862090909644 -0.0063370430647472446
2800000000.0 -0.3233638657021009 0.07047841361973532
2820000000.0 0.09564615297992021 -0.30203884683890564
2840000000.0 0.20700767504293185 0.2288683003510748
2860000000.0 -0.27294611113450995 0.14079028038997568
2880000000.0 -0.15943846456874036 -0.26255552497556933
2900000000.0 0.30544323164794446 0.03840348856262601
2920000000.0 -0.25957952511527854 -0.16857546669434298
2940000000.0 -0.10395368646279475 0.29358748682742203
2960000000.0 0.07553980166142116 0.3031158524589224
2980000000.0 -0.05366297555252132 0.3113536209071133
3000000000.0 -0.29511579385821585 0.11633721772097211
3020000000.0 -0.06283999098797671 -0.31244101102437677
3040000000.0 0.23258382416567625 0.21336616496455788
3060000000.0 -0.29151033026098233 -0.11645785815073333
3080000000.0 0.29632656780663685 0.08834473291263027
3100000000.0 -0.25978876973471526 -0.15935014002709885
3120000000.0 0.2940618133513737 0.054338368405349446
3140000000.0 -0.23977590135021146 0.16481492621761593
3160000000.0 0.018976599631841385 -0.2761719613434907
3180000000.0 -0.18224825792063395 0.1868627316609936
3200000000.0 -0.1934725666323588 -0.13672680389376282
3220000000.0 0.013532731707586163 -0.20838557663928592
3240000000.0 0.17637754605637088 -0.010731873191451101
3260000000.0 -0.008726318794593835 0.14009619940933807
3280000000.0 0.08340839803849964 -0.06486913308472568
3300000000.0 -0.06930614490360434 -0.0247518108818443
3320000000.0 0.0188019127143613 -0.04186208487180838
3340000000.0 -0.002271713332454355 0.023468299273722827
3360000000.0 -0.00770069153902 0.003779903338805719
3380000000.0 -0.00689099076893103 -0.0030812910235536108
3400000000.0 0.017218014582934923 0.0051423459405443295
3420000000.0 -0.030544758301131805 -0.0019334439817492697
3440000000.0 -0.0222308424697139 -0.03835730113896242
3460000000.0 -0.05788270924366842 -0.012766670902769287
3480000000.0 0.003078723041101084 0.07380029641861481
3500000000.0 -0.08807549516528215 -0.011204402957104643
3520000000.0 0.09176735188380786 0.04188413055762929
3540000000.0 -0.08119616592898517 0.07730838580904027
3560000000.0 0.10204425076994747 -0.06930017744484875
3580000000.0 -0.1282131274703426 -0.0403539686281104
3600000000.0 0.15094864286414628 -0.0007679970298976228
3620000000.0 -0.08835104353050065 0.13825636901721494
3640000000.0 -0.15020947721623126 -0.09513420101486397
3660000000.0 -0.0980634029422758 -0.16344768629116824
3680000000.0 -0.03431216575739053 -0.19397845338919936
3700000000.0 -0.06128311592604449 -0.1887386111864234
3720000000.0 0.024525074504490565 -0.1963300835671605
3740000000.0 0.04616925927914487 -0.1853867490034471
3760000000.0 -0.028352596786608193 0.1805428500147653
3780000000.0 0.020859283255059147 -0.16849482708143862
3800000000.0 -0.15514141764432365 -0.04264488396471071
3820000000.0 -0.1493583425352957 -0.022164904193810578
3840000000.0 0.10106704766390863 -0.10288883159493831
3860000000.0 -0.139031799884087 0.047234708891211195
3880000000.0 -0.14630608291167127 0.052357720781426864
3900000000.0 0.11000467723192939 0.12219819517214983
3920000000.0 -0.16880680140104362 0.004976164125000165
3940000000.0 -0.054890037579849574 -0.16180182060227313
3960000000.0 0.01644465959750326 -0.17271300490416802
3980000000.0 -0.10356173256676764 -0.13468623896259094
4000000000.0 0.016072152096244307 -0.15987807245917102
