!Created with skrf (http://scikit-rf.org).
# Hz S RI R 50.0 
!freq ReS11 ImS11
400000000.0 -0.6309285094758739 0.6062795218451442
420000000.0 0.40489780659704677 0.7712883163939954
440000000.0 0.7064846111206095 -0.4571981563583936
460000000.0 -0.20125984834693286 -0.7734684519624695
480000000.0 0.35112407098497483 -0.6329741813951286
500000000.0 -0.4646583476373048 0.36087186694179696
520000000.0 0.4927262841028668 -0.05807012210458295
540000000.0 -0.276736639213089 0.28765123127866543
560000000.0 -0.17978330429763534 0.2999272248317172
580000000.0 -0.00048437323843805426 -0.32178764287842704
600000000.0 -0.32398406188471085 -0.00910001665103558
620000000.0 0.3001803892553368 0.15279465320627625
640000000.0 0.36039102791519506 0.017322287415020426
660000000.0 0.36562418032668986 -0.08283232915982087
680000000.0 -0.398767104177867 0.05465712679173275
700000000.0 0.0004139843348243309 0.41518677127991815
720000000.0 0.3000647937098575 0.29792694190257196
740000000.0 -0.4226598104217863 0.01634993454429864
760000000.0 0.2565979897440045 0.31856039100562356
780000000.0 -0.38473196821004796 -0.014244039439767982
800000000.0 0.32036653654779723 -0.16151128301405945
820000000.0 0.2924028084122401 0.10592411350591636
840000000.0 -0.19105512439130654 0.18642328789570134
860000000.0 -0.15436943808728268 0.15555996282027745
880000000.0 0.016492144400714243 -0.16777404976796245
900000000.0 0.10669586381449211 0.002472871554094786
920000000.0 -0.05987182511404273 0.03169794355557551
940000000.0 -0.014546550939429546 0.04334013647748137
960000000.0 -0.05352781410664004 0.013984469950605616
980000000.0 0.0705929794361842 -0.007756194810411261
1000000000.0 -0.08149850559106737 0.007235420551330456
1020000000.0 -0.08996612472845661 0.012270855622696255
1040000000.0 -0.09913558601117602 -0.02408117549292728
1060000000.0 -0.12637139963337407 0.050017600376487684
1080000000.0 0.11123383752269732 -0.10428421238939176
1100000000.0 0.09239110109593464 -0.15054019598081247
1120000000.0 -0.12932852741539813 -0.15526822726228506
1140000000.0 -0.23826840635646315 0.04080342463776362
1160000000.0 0.0035208494965834267 0.27777521746836203
1180000000.0 0.000402998563706593 0.31956519669663325
1200000000.0 -0.10696420766638627 0.3314097295548409
1220000000.0 -0.2946964377998874 -0.23748676716729483
1240000000.0 0.3337130179795429 0.21826521733725346
1260000000.0 -0.33459306042441983 -0.2559387246104107
1280000000.0 -0.11839030975953072 0.4170245294551878
1300000000.0 0.36193280039415004 -0.2480887518877083
1320000000.0 0.14752353773536564 -0.4096384205430378
1340000000.0 0.20870503205180863 -0.3750614504519716
1360000000.0 0.430433153499986 0.018873952662277534
1380000000.0 0.3595348554111528 -0.23495402599239168
1400000000.0 -0.1655430051913841 -0.3913558664751087
1420000000.0 -0.31574886462112073 0.26251969100882827
1440000000.0 0.35482486150615117 0.15012455841779865
1460000000.0 0.10990021269423977 -0.3387597310151615
1480000000.0 -0.3118441045132075 0.08585159959921082
1500000000.0 0.02873007736652856 0.28731171673303674
1520000000.0 0.2426370915584237 0.09057275336054546
1540000000.0 -0.22386147834589507 0.03924793910849027
1560000000.0 0.02003129148157552 -0.18994484511378212
1580000000.0 0.09706259607942587 0.13128478244171957
1600000000.0 0.07403994856153283 0.10619549868715858
1620000000.0 -0.027497420599595864 0.09882753526005271
1640000000.0 -0.017982587818925765 -0.07685129853229904
1660000000.0 -0.04436185292189345 0.0344408042277866
1680000000.0 -0.011128079226277416 0.0377294510863206
1700000000.0 -0.013447196196920941 0.024963045371349177
1720000000.0 0.01317518264301495 -0.004634831356744816
1740000000.0 0.007116445314840295 -0.004043273267262523
1760000000.0 0.0005266731817436793 0.023065147132286707
1780000000.0 0.05067881745680255 -0.013919581406819283
1800000000.0 -0.04540351056974946 0.07191995490377412
1820000000.0 -0.07551325495151916 0.09483287168686179
1840000000.0 -0.0976128946947671 -0.13287659633131968
1860000000.0 0.20610838380699406 -0.03177146333728784
1880000000.0 0.07587549036136033 0.24118457618699238
1900000000.0 -0.2778655214031165 0.10818990791281874
1920000000.0 -0.10477654384855266 -0.3133297776288924
1940000000.0 0.17047613574588152 0.31636981741443504
1960000000.0 -0.008404988602559563 -0.379834083334631
1980000000.0 -0.3535793841761147 0.1667048292924264
2000000000.0 -0.28301523727153494 0.2851456455165453
2020000000.0 -0.08145332252262508 0.40152052160155116
2040000000.0 -0.19139580078668467 0.3697873850224243
2060000000.0 -0.05017276777949766 0.41855131798734907
2080000000.0 0.07706609705109599 0.4170311087372992
2100000000.0 0.19104633433832463 0.3775733872536511
2120000000.0 0.41679643236950753 0.052478735902775644
2140000000.0 0.2692252486531086 -0.312867266640088
2160000000.0 0.3372249201540919 -0.2142676576533173
2180000000.0 -0.159427221908308 -0.35006497778560114
2200000000.0 -0.34419221981853104 0.1295063848836895
2220000000.0 0.0016733780169565344 0.3496845045833926
2240000000.0 0.23882579490096847 0.23809915418816893
2260000000.0 0.19335352006261072 0.2687294302699882
2280000000.0 0.06459724805146773 0.3256992880272202
2300000000.0 0.11758407227731676 0.32544215485042316
2320000000.0 0.33339200335110464 0.16442865367659235
2340000000.0 0.18329453132437415 -0.3637730306087457
2360000000.0 -0.41713979877097546 0.17270676930748854
2380000000.0 0.4635407388962522 -0.1937899640931041
2400000000.0 -0.44706600747641206 0.32742123774001086
2420000000.0 0.26195898434158604 -0.5475384308266388
2440000000.0 0.109121367731359 0.6474878458142317
2460000000.0 -0.5285573894380344 -0.45739099244707193
2480000000.0 0.7088527338847543 0.18742548494616854
2500000000.0 -0.7473403441766924 -0.1147659876692119
2520000000.0 0.7346125974071551 0.23118580948684836
2540000000.0 -0.5863594211715276 -0.5054088542842972
2560000000.0 0.20290814911000418 0.7428836203855822
2580000000.0 0.4479724386868004 -0.6103091730801922
2600000000.0 -0.7172918667450403 0.15424789879416181
2620000000.0 0.5934828107227927 0.37859167478207245
2640000000.0 0.6600415095500184 -0.10104901721580938
2660000000.0 -0.5175355782464454 -0.3471108687262482
2680000000.0 0.2180853832610821 0.5323501189905334
2700000000.0 0.03573782063452062 -0.5239325443531344
2720000000.0 -0.2205072661123066 0.42081031567592186
2740000000.0 0.3755694489898248 -0.20574097375212985
2760000000.0 -0.3821699173701593 0.06279121243990951
2780000000.0 0.3561513478575806 0.005087540773911809
2800000000.0 -0.3301474244645018 0.03360531444905082
2820000000.0 0.1521703078447253 -0.2791696044891777
2840000000.0 0.1739278808144446 0.2544733848689498
2860000000.0 -0.26900725714037665 0.14841284163844812
2880000000.0 -0.13797042343538227 -0.2750060717860461
2900000000.0 0.3002832972577034 0.07182106191124922
2920000000.0 -0.247123180662512 -0.18627122887707223
2940000000.0 -0.1402403433198624 0.27765021105415505
2960000000.0 0.055371965836592915 0.30725586795133597
2980000000.0 -0.05264836454455281 0.31063617625845674
3000000000.0 -0.3027240543884282 0.09210094996752273
3020000000.0 -0.02349141030921907 -0.3160327258225498
3040000000.0 0.24618750202114775 0.19490693906013823
3060000000.0 -0.30506421294034647 -0.06800441599160786
3080000000.0 0.29967113399638007 0.07247255540801084
3100000000.0 -0.3008852526208434 -0.044021559547557154
3120000000.0 0.29859577816771027 0.01475606290236623
3140000000.0 -0.22897396551614732 0.17872085801944307
3160000000.0 -0.03301567940967881 -0.27433187974207107
3180000000.0 -0.12017343941513602 0.2316751456817756
3200000000.0 -0.22735600423376254 -0.06493864415358033
3220000000.0 -0.05487381817740307 -0.20122160476985637
3240000000.0 0.15851032235738735 -0.07594946589870649
3260000000.0 0.0155007507404446 0.13974289549091518
3280000000.0 0.062498261376171746 -0.08513687025811054
3300000000.0 -0.0731658844683099 -0.009751857773866333
3320000000.0 -0.008438345169691447 -0.04546342290507609
3340000000.0 0.022562104391679105 0.006881498140469032
3360000000.0 0.007971057585315256 -0.003486955455091945
3380000000.0 0.0007367281631134295 -0.006873378543369015
3400000000.0 0.01691684422219506 0.0010201448059315272
3420000000.0 -0.026096974652830295 -0.013575090014095311
3440000000.0 -0.00988711206465154 -0.042434506239529796
3460000000.0 4.5472907857594996e-05 -0.05762570227184795
3480000000.0 -0.02935062882092521 0.06680545424255323
3500000000.0 -0.07438772308367378 -0.04638513267836558
3520000000.0 0.08139734723109009 0.057822902547006304
3540000000.0 -0.1006188733315245 0.04704125170425682
3560000000.0 0.10041116963133362 -0.0711530259031125
3580000000.0 -0.13088976738423155 -0.02917599290313791
3600000000.0 0.1490102387741872 0.011160080149980435
3620000000.0 -0.056353466646792895 0.1525888628986762
3640000000.0 -0.17116293701244625 -0.045810235642860395
3660000000.0 -0.13168784604448192 -0.13646634486028444
3680000000.0 -0.07773590000941405 -0.17965011110971552
3700000000.0 -0.12136312757777103 -0.1548553353787742
3720000000.0 -0.030487973609600545 -0.19442401614484137
3740000000.0 -0.029167887319164434 -0.18771975722334527
3760000000.0 0.06643759079058982 0.16965307055078518
3780000000.0 -0.07309827098820484 -0.15365177170373656
3800000000.0 -0.15796113429515496 0.029986874665179124
3820000000.0 -0.1454192139054277 0.04072043768741878
3840000000.0 0.02212725949490959 -0.14249712632973624
3860000000.0 -0.0730368132526685 0.12707030026567598
3880000000.0 -0.09473825893659063 0.12260344119077236
3900000000.0 0.16472737685661373 -0.011692140178267144
3920000000.0 -0.10136852972218689 0.13635912263714844
3940000000.0 -0.13748610129194713 -0.10467382928811189
3960000000.0 0.005403935535723972 -0.17527552237836555
3980000000.0 -0.12757173683681394 -0.11573049701854735
4000000000.0 0.05253077174142132 -0.15511602276037856
