!Created with skrf (http://scikit-rf.org).
# Hz S RI R 50.0 
!freq ReS11 ImS11
400000000.0 -0.6375268136808364 0.599068684229388
420000000.0 0.39159071972858106 0.7785520683403739
440000000.0 0.7276024990969266 -0.4230477194131247
460000000.0 -0.17000285778955265 -0.7809125478766198
480000000.0 0.3618515049416786 -0.6269470313889236
500000000.0 -0.41042488211449396 0.4207795579701101
520000000.0 0.49365089997717265 0.03875390973330578
540000000.0 -0.273035684074729 0.2959877567184213
560000000.0 -0.15859215646239688 0.3099669567152962
580000000.0 -0.07306129644228829 -0.313946386982548
600000000.0 -0.29300972119367774 -0.1393466753985841
620000000.0 0.31871885159278346 0.1046438320298229
640000000.0 0.3601705701590338 -0.02142614765512965
660000000.0 0.3735242913063055 -0.03857166887149539
680000000.0 -0.38967378111632617 0.09952329297726555
700000000.0 -0.034329532989290375 0.41318337079834894
720000000.0 0.3114503269253198 0.28504427270263316
740000000.0 -0.4217566027545434 0.02730658364918693
760000000.0 0.29772401962999634 0.28101500248323724
780000000.0 -0.38430657031158866 -0.027158465927473303
800000000.0 0.33342631993704824 -0.13344701089540678
820000000.0 0.28524489794915253 0.12438447520637973
840000000.0 -0.19414045282020137 0.18319849396011692
860000000.0 -0.1411797300154511 0.16796797413807973
880000000.0 0.0016348222534709306 -0.16898297915776833
900000000.0 0.10599008737163719 0.01697505432774841
920000000.0 -0.06810438463257663 0.003000433671338182
940000000.0 -0.0433241305206456 0.013047672275885915
960000000.0 -0.05488193954098496 0.0022829850378392777
980000000.0 0.07129171748263692 -0.004415823265287942
1000000000.0 -0.07985337242724973 0.015954508466317133
1020000000.0 -0.090588227580762 -0.011196239392281504
1040000000.0 -0.10121749264453374 -0.015534086533620237
1060000000.0 -0.129607482247459 0.040367110379227966
1080000000.0 0.11920805439803421 -0.09512256085318285
1100000000.0 0.07839219785909182 -0.15828538774447046
1120000000.0 -0.13543371167394785 -0.14981307105383404
1140000000.0 -0.24186608581648816 0.005673306382060229
1160000000.0 0.04955868496425621 0.2734584528749254
1180000000.0 -0.02381398246958623 0.3187972938363011
1200000000.0 -0.08412071246897447 0.3382181195581306
1220000000.0 -0.2893667293569228 -0.24475801687869006
1240000000.0 0.320360035946875 0.23841450080309107
1260000000.0 -0.3138525093927474 -0.2814912341746638
1280000000.0 -0.13095719169238068 0.4133477383305376
1300000000.0 0.37622674287401187 -0.22603652529585969
1320000000.0 0.14216854246754346 -0.41163298185810626
1340000000.0 0.22776772758305114 -0.3634962876274783
1360000000.0 0.42972106596385107 0.026447315533570225
1380000000.0 0.36182968199842963 -0.2312150465739484
1400000000.0 -0.17337793701722806 -0.3874133982379476
1420000000.0 -0.3065306393262518 0.2723704895192805
1440000000.0 0.3533026328388317 0.15350033370715913
1460000000.0 0.08417840133178037 -0.3456195586410485
1480000000.0 -0.31143823050733044 0.0874641539221837
1500000000.0 0.051789288110712595 0.2840377761983979
1520000000.0 0.2471628115601157 0.07770771810935913
1540000000.0 -0.22312624203150327 0.046046244547424175
1560000000.0 -0.019308361631210424 -0.19084368852288122
1580000000.0 0.11696615391845046 0.11418391908063247
1600000000.0 0.07056602165390446 0.10914611502371221
1620000000.0 -0.07080427705268968 0.07476031084543211
1640000000.0 0.0023137861062471512 -0.07867869515047456
1660000000.0 -0.05525781365924172 -0.008923130524399069
1680000000.0 -0.02539702332297082 0.029613852174015437
1700000000.0 0.0034542532921423255 0.027893661253210005
1720000000.0 0.00956444548205629 0.01033942279395312
1740000000.0 -0.008097457730753786 0.0021581963169866516
1760000000.0 -0.010758809275795932 0.020905792178328577
1780000000.0 0.05196968936190064 -0.009963954201409298
1800000000.0 -0.038709033194431426 0.07631744040037845
1820000000.0 -0.08447856757161698 0.08713925942690803
1840000000.0 -0.07735237081372315 -0.14573011272913608
1860000000.0 0.20779368799710699 -0.012329754876817759
1880000000.0 0.09178216431032946 0.23532384231956358
1900000000.0 -0.2750953151488844 0.11500440863988691
1920000000.0 -0.11205352483139772 -0.31071701872846613
1940000000.0 0.17166379203748175 0.31559618195636313
1960000000.0 -0.034862284925839315 -0.3781307975095838
1980000000.0 -0.3473319764553268 0.18021446670586386
2000000000.0 -0.2693537844757179 0.29829857558199435
2020000000.0 -0.056520454292897995 0.4060409619417084
2040000000.0 -0.20742327388756548 0.3615917471743274
2060000000.0 -0.04898052758630031 0.4189404070892565
2080000000.0 0.05251569128791297 0.42107081844257527
2100000000.0 0.20220323940362817 0.3722513159570531
2120000000.0 0.41510325103131074 0.0632219948575328
2140000000.0 0.2536305978145597 -0.32465640900940035
2160000000.0 0.34616463955766674 -0.1983951916757545
2180000000.0 -0.12000918711073165 -0.36486608742241466
2200000000.0 -0.3482940567898743 0.11615833344809409
2220000000.0 -0.016488380726501547 0.3493065492534414
2240000000.0 0.25527369543547046 0.2198768714256302
2260000000.0 0.23092495892057677 0.23621272036436997
2280000000.0 0.08780458304380581 0.31977707002153216
2300000000.0 0.1356000466703905 0.3177822065200513
2320000000.0 0.34969132732656705 0.12564165895622478
2340000000.0 0.1561851240223398 -0.37598019552579437
2360000000.0 -0.39677153732065856 0.2160229094326558
2380000000.0 0.45604977156338994 -0.21043822810386004
2400000000.0 -0.433419354655908 0.345467595794454
2420000000.0 0.27110295423979747 -0.5434100697992374
2440000000.0 0.1010392189697023 0.6490339498976717
2460000000.0 -0.5238347457649584 -0.46344056395544053
2480000000.0 0.7025136809755134 0.2109307118746913
2500000000.0 -0.7354504327222355 -0.1779876380231436
2520000000.0 0.7227319615675779 0.26660048230031874
2540000000.0 -0.5824341770147865 -0.50999379115204
2560000000.0 0.1462141193319163 0.7564256157233855
2580000000.0 0.4924054544991738 -0.574656954221372
2600000000.0 -0.7317896731668188 0.04615880153033582
2620000000.0 0.5872099814203959 0.38741014362383763
2640000000.0 0.6665951360068658 -0.01633469778273294
2660000000.0 -0.5114565783945462 -0.3540401161058232
2680000000.0 0.2523431803497063 0.5157756032292379
2700000000.0 0.02403650593603045 -0.5237426664817708
2720000000.0 -0.20617708075646796 0.42692425179730686
2740000000.0 0.3710315367805313 -0.2120842703626351
2760000000.0 -0.37408932950203927 0.09642321820161646
2780000000.0 0.3545585501227066 -0.026189854057483246
2800000000.0 -0.3251855170106149 0.0639064704748103
2820000000.0 0.12283563210052247 -0.29238253999855607
2840000000.0 0.18502457812893275 0.24661726737822892
2860000000.0 -0.26339199859035717 0.15790149096471692
2880000000.0 -0.15759582904412767 -0.2632979215149904
2900000000.0 0.3051562857396127 0.0444754694470337
2920000000.0 -0.26647153870005974 -0.1568176406326476
2940000000.0 -0.12436167766062427 0.2855276255591984
2960000000.0 0.06488595781318594 0.30550464676867145
2980000000.0 -0.04644862769289615 0.3126506474878424
3000000000.0 -0.29875831529554586 0.10550157273165828
3020000000.0 -0.10124813865258787 -0.300376462779396
3040000000.0 0.26342160879531035 0.17280060205420408
3060000000.0 -0.28607605727451024 -0.12765674345664355
3080000000.0 0.2899619341701359 0.10534648317194166
3100000000.0 -0.2728510333039769 -0.13292664844621394
3120000000.0 0.2981772350226595 -0.022499901547557915
3140000000.0 -0.2582309699265396 0.13246691534590233
3160000000.0 0.0413749518474535 -0.2732990771369463
3180000000.0 -0.17597626023313595 0.19146431120476315
3200000000.0 -0.20036430591923213 -0.12447572290213561
3220000000.0 -0.0015632972293958196 -0.2082997333426565
3240000000.0 0.1743840982347706 -0.02099752937345157
3260000000.0 0.011479337201094056 0.13943128674198924
3280000000.0 0.04847319174719911 -0.09373088871850292
3300000000.0 -0.06961702142712174 -0.023060777746968648
3320000000.0 -0.006156071994687661 -0.04542852164731549
3340000000.0 0.021575990407323803 0.007996318955467348
3360000000.0 0.002774497160961503 -0.0077785886446789815
3380000000.0 -0.00012029778378510064 0.006850109948087184
3400000000.0 -0.014161362633847811 0.009763702510977393
3420000000.0 -0.01604435889931499 -0.025526798537762876
3440000000.0 0.0009355473474739034 -0.043354650100627105
3460000000.0 0.00436381797157206 -0.057379400840957474
3480000000.0 -0.07142387790945076 0.008622251106161834
3500000000.0 -0.05555405491684506 -0.06712744315366605
3520000000.0 0.06050923339477563 0.07910789929608271
3540000000.0 -0.08649213144587943 0.0709897809310605
3560000000.0 0.11638160556444718 -0.0360149218922376
3580000000.0 -0.10611426421461187 -0.08010909023716217
3600000000.0 0.1310616204759446 0.07001932409238536
3620000000.0 -0.09534466988519023 0.13089264853219418
3640000000.0 -0.16188126045936357 -0.06849237136985871
3660000000.0 -0.11215379364023059 -0.1516534179861835
3680000000.0 -0.0795348232216496 -0.1783305642498121
3700000000.0 -0.11123069423655546 -0.16201931811903353
3720000000.0 -0.024543224360445003 -0.1948899897767923
3740000000.0 -0.019050207625321232 -0.1883167807930892
3760000000.0 0.04751768250178107 0.17536126328239146
3780000000.0 -0.07072518853125775 -0.15415959836330873
3800000000.0 -0.15137473494895773 0.050074912913662825
3820000000.0 -0.12023841483761942 0.08937788941164754
3840000000.0 -0.017639028250160494 -0.14180962016092438
3860000000.0 -0.04254858601668303 0.1392287122038816
3880000000.0 -0.04355861800062199 0.14765391530723498
3900000000.0 0.16331110886722772 -0.014444085786233567
3920000000.0 -0.09296726996083127 0.14146166901461132
3940000000.0 -0.13352528690087342 -0.10939531022330859
3960000000.0 -0.04608714142966124 -0.1690820715250021
3980000000.0 -0.09682313625039281 -0.14267665780829736
4000000000.0 0.1051871222588666 -0.12484098821657481
