!Created with skrf (http://scikit-rf.org).
# Hz S RI R 50.0 
!freq ReS11 ImS11
400000000.0 -0.5887090186727302 0.6477118341993996
420000000.0 0.4096684095964811 0.7688659522358768
440000000.0 0.6777570451695234 -0.49907059467698117
460000000.0 -0.1798764363554124 -0.7786317626905063
480000000.0 0.38219618010166534 -0.6144497825741791
500000000.0 -0.4498594734742469 0.37942665803241427
520000000.0 0.4949736153521852 -0.039711405887116115
540000000.0 -0.2629597460435332 0.30249707969934597
560000000.0 -0.1933304415785899 0.2912398595806446
580000000.0 -0.08960622329606416 -0.3073381326965031
600000000.0 -0.3254731514430007 0.01930494611162923
620000000.0 0.30161182294020317 0.14588552289633508
640000000.0 0.36110729508550043 -0.007947730432061177
660000000.0 0.3609129532042843 -0.10272031912690657
680000000.0 -0.3931650500153201 0.08466305519135683
700000000.0 -0.006190566303516623 0.4147561168265089
720000000.0 0.27257880904936893 0.3232072238276761
740000000.0 -0.4203674057858064 0.04158170596059236
760000000.0 0.2928832005858224 0.28709462070881586
780000000.0 -0.383888412729581 -0.028411181358423913
800000000.0 0.318686438745502 -0.16605838629976832
820000000.0 0.27240326885843014 0.149320676991942
840000000.0 -0.15499228133366455 0.21735174648176991
860000000.0 -0.16953473716902168 0.1395750137943311
880000000.0 -0.012577915303026108 -0.1689128709278705
900000000.0 0.10452828135316733 -0.01990963276500615
920000000.0 -0.057586068426565204 0.03619053583744798
940000000.0 0.009217679267274383 0.045013436041028886
960000000.0 -0.05240287123084178 0.018186874341049278
980000000.0 0.06979557160377133 -0.012159142782848836
1000000000.0 -0.08167300531379425 -0.0034054495376857332
1020000000.0 -0.09049847924479888 -0.011112930771058273
1040000000.0 -0.09658416958199922 -0.03368850516779655
1060000000.0 -0.11216234923370172 0.07614502123846413
1080000000.0 0.12259635362772715 -0.09061832524888498
1100000000.0 0.07311187111590345 -0.16114426575163585
1120000000.0 -0.12252969333693034 -0.1603699180485883
1140000000.0 -0.2385891690862164 0.041635343041919494
1160000000.0 0.0003490077418664587 0.2780230802275933
1180000000.0 -0.006718491458365775 0.3196365698390442
1200000000.0 -0.08156815038970677 0.338829706227727
1220000000.0 -0.2973842002286815 -0.23443901130825182
1240000000.0 0.32415877593332 0.23235974140457347
1260000000.0 -0.320186726030334 -0.2738216869571296
1280000000.0 -0.1290583379626441 0.41345371802754655
1300000000.0 0.3681504716324848 -0.23881072036197745
1320000000.0 0.15670956867319358 -0.4058673737269325
1340000000.0 0.2029220544876581 -0.37790162470075045
1360000000.0 0.4305027240142931 0.01275682443398919
1380000000.0 0.35712509383793734 -0.23862000424409535
1400000000.0 -0.17414842054098573 -0.38711220967289267
1420000000.0 -0.2901716515755763 0.2897015969868405
1440000000.0 0.3554338034343869 0.1486915738587004
1460000000.0 0.09951463844453359 -0.34179982544944076
1480000000.0 -0.2972158136787672 0.12757089160153448
1500000000.0 0.030168537315063748 0.28742002096367736
1520000000.0 0.23946255770587804 0.09894192113731601
1540000000.0 -0.22693213451911648 0.012543482934207064
1560000000.0 0.015552508331868732 -0.19059800275179067
1580000000.0 0.08356288745613406 0.14043131422990657
1600000000.0 0.07752229009111532 0.10371866291082708
1620000000.0 -0.06432754070550496 0.08015494799464246
1640000000.0 0.019878963639275524 -0.07608906998230633
1660000000.0 -0.055614024462841895 0.007677502382761362
1680000000.0 -0.025702756782975327 0.029382832895791668
1700000000.0 -0.006456560852904325 0.027513809358796236
1720000000.0 0.012719129260826367 0.004964573608130067
1740000000.0 -0.00813256196978135 0.0015500488354202354
1760000000.0 -0.023020409120752493 3.594163260391509e-05
1780000000.0 0.050509938153001054 0.015086334988061448
1800000000.0 -0.06551657295197817 0.05349922496183823
1820000000.0 -0.08560765728887348 0.08608494358182787
1840000000.0 -0.093832831645482 -0.1352681471467634
1860000000.0 0.2072180597329544 -0.019725174364128194
1880000000.0 0.0837756376882467 0.23830697812825916
1900000000.0 -0.272495921663766 0.12138280337704162
1920000000.0 -0.11308297961020734 -0.31038062485400136
1940000000.0 0.1645450612493864 0.3196562997891093
1960000000.0 -0.025873637664832562 -0.3791804385643275
1980000000.0 -0.35821887289295945 0.15728284378086788
2000000000.0 -0.2777488233256171 0.2907518171965982
2020000000.0 -0.06741979505662417 0.4043414619103899
2040000000.0 -0.16572353385763097 0.3821901284090275
2060000000.0 -0.023758859441538414 0.4212447536052509
2080000000.0 0.08167522175034804 0.4164699625016944
2100000000.0 0.19750570848424473 0.3748881437460333
2120000000.0 0.40622897910000116 0.10953644365333631
2140000000.0 0.2580534356551403 -0.322685949004738
2160000000.0 0.34486230256966854 -0.2027190756959887
2180000000.0 -0.13774530167235274 -0.3596072570357644
2200000000.0 -0.3562116117259272 0.09300705098211227
2220000000.0 -0.01372523970601846 0.34967145722386905
2240000000.0 0.23057884045277435 0.2467809698226315
2260000000.0 0.19745170563597045 0.2661328700354292
2280000000.0 0.046850806704139186 0.3289925991953856
2300000000.0 0.1105845074714187 0.328265171198039
2320000000.0 0.33735358042447405 0.157307380326361
2340000000.0 0.16023778954719237 -0.3756108360854636
2360000000.0 -0.4018909464782925 0.20795511952108037
2380000000.0 0.4532894427047263 -0.21802580752550388
2400000000.0 -0.432489258135881 0.3480954047226617
2420000000.0 0.22804104981774082 -0.5633616797656609
2440000000.0 0.17782633082545488 0.632937969895705
2460000000.0 -0.5735875595591161 -0.4007492317882067
2480000000.0 0.7267239546217622 0.09992493198703571
2500000000.0 -0.7520820511955364 -0.08156181967887573
2520000000.0 0.7552065638740422 0.1511231912181436
2540000000.0 -0.6153479337037803 -0.47000406353245394
2560000000.0 0.2636824697607399 0.7235896540680582
2580000000.0 0.40333005733252014 -0.6404883118435101
2600000000.0 -0.7007882061850781 0.21620253410713655
2620000000.0 0.5964698869214156 0.3734436785727067
2640000000.0 0.6539021751431082 -0.13339808023969651
2660000000.0 -0.5335655654817271 -0.3208923726366215
2680000000.0 0.25486943811995016 0.5154153681410933
2700000000.0 0.004649921213445671 -0.5248370072461935
2720000000.0 -0.21434479829540237 0.42353390847998024
2740000000.0 0.3749456992637096 -0.2058886285215289
2760000000.0 -0.3797067603265738 0.07315124583276479
2780000000.0 0.3554476259869417 0.0034979770412376303
2800000000.0 -0.3278343970027769 0.0463591075987703
2820000000.0 0.13950558781316716 -0.284654487786053
2840000000.0 0.19329974853372048 0.2392677078811246
2860000000.0 -0.2604855858439206 0.16253347123533815
2880000000.0 -0.1725713218382651 -0.25410696913453223
2900000000.0 0.3064402980760556 0.03576142311009389
2920000000.0 -0.25618932060198346 -0.1735414494957439
2940000000.0 -0.12906890462023823 0.2832006327581039
2960000000.0 0.06719214461311938 0.3049778293122239
2980000000.0 -0.04180521545268898 0.3123837358157719
3000000000.0 -0.30181865311908784 0.09675704357401131
3020000000.0 -0.04926554334282839 -0.313606218544826
3040000000.0 0.226767674684219 0.2183019511833476
3060000000.0 -0.29750681012567237 -0.09675499786036879
3080000000.0 0.2918649625883167 0.09939365982188347
3100000000.0 -0.2932440211185413 -0.08098390081001405
3120000000.0 0.29711735729522765 0.03284471707680995
3140000000.0 -0.24070985067541215 0.16241575354396345
3160000000.0 -0.01201935024707307 -0.27585319907998923
3180000000.0 -0.1624587060396891 0.20350794961295904
3200000000.0 -0.22180065012963243 -0.08073360954789964
3220000000.0 -0.02991372598527324 -0.2058824566676287
3240000000.0 0.16257460916478453 -0.06647581819179149
3260000000.0 0.0069622514603772815 0.1398131982097538
3280000000.0 0.07102154493499184 -0.07730810408931144
3300000000.0 -0.07156409114806916 0.014955313391686664
3320000000.0 -0.028449265520738946 -0.03546681126955157
3340000000.0 0.02249445736315617 0.004388698983738668
3360000000.0 -0.001920713055090105 -0.00813966177048797
3380000000.0 0.006444750442052782 0.0016633662506621901
3400000000.0 -0.0043917527267358595 0.01675540263827698
3420000000.0 0.0057955954917798536 -0.029257554202545742
3440000000.0 0.03069137111217603 -0.03091481640537081
3460000000.0 -0.01380253163081001 -0.05675042530590946
3480000000.0 -0.060470353936497724 0.04113027991593998
3500000000.0 -0.05720076468518693 -0.0665585528563547
3520000000.0 0.05690804819008753 0.08198796705752452
3540000000.0 -0.10856194473476027 0.0240467731094824
3560000000.0 0.11865730534574039 -0.03098800049119452
3580000000.0 -0.11985910792101417 -0.059618325267856175
3600000000.0 0.14524436160562024 0.034649610129238416
3620000000.0 -0.07102390471731027 0.14633598742166637
3640000000.0 -0.16153825051111653 -0.07171379791516955
3660000000.0 -0.1127888926948772 -0.15158355650470834
3680000000.0 -0.045751271305251626 -0.19018148972571647
3700000000.0 -0.09746939992771347 -0.17073104779809536
3720000000.0 -0.010863639548195516 -0.19613150518120973
3740000000.0 -0.010152786130242968 -0.18930775591426913
3760000000.0 0.053178619020604785 0.17344716537198923
3780000000.0 -0.06375557885275503 -0.15727095982047296
3800000000.0 -0.15911405313164723 0.019206077982785386
3820000000.0 -0.1416944875131671 0.049939343426803146
3840000000.0 0.031488847050194585 -0.14040842692383493
3860000000.0 -0.07271768571670624 0.12685873014581162
3880000000.0 -0.09538278504038358 0.12186265055123968
3900000000.0 0.16436956733125557 0.0034101147821181997
3920000000.0 -0.10114804493365058 0.13598137387942807
3940000000.0 -0.13183730167809202 -0.11094324544482184
3960000000.0 0.017545305451748722 -0.17389842510223177
3980000000.0 -0.09660569722231883 -0.14194276097684533
4000000000.0 0.11141823510044008 -0.11895766490170746
