!Created with skrf (http://scikit-rf.org).
# Hz S RI R 50.0 
!freq ReS11 ImS11
400000000.0 -0.6521701142129858 0.5839408058753724
420000000.0 0.3990147865978816 0.7745217200340856
440000000.0 0.7384308528731576 -0.4039483220472491
460000000.0 -0.13457071005763604 -0.7878849729896285
480000000.0 0.34748255275941553 -0.6345658723107915
500000000.0 -0.39084399060635966 0.4392635861466548
520000000.0 0.4937930643101167 -0.03331406490985748
540000000.0 -0.2804672058536376 0.2865018163095455
560000000.0 -0.21098038588500054 0.2757048863096961
580000000.0 -0.012770090286019423 -0.3220275237917579
600000000.0 -0.26819632261636145 -0.1832296721304832
620000000.0 0.315663616359222 0.11540072582026929
640000000.0 0.3597543220922467 -0.028769324200867405
660000000.0 0.3732606536742355 -0.04076451713014562
680000000.0 -0.38775697953209537 0.10728535467176277
700000000.0 -0.015309691625099592 0.4141854373371092
720000000.0 0.3126009630836143 0.2838930620175254
740000000.0 -0.4171272503144095 0.06577884232783514
760000000.0 0.2955085807979061 0.28339694212148825
780000000.0 -0.3851554921317565 -0.013253307426370676
800000000.0 0.3343096609056228 -0.13087236369417415
820000000.0 0.2925438195393964 0.10655749743715294
840000000.0 -0.18284292542730335 0.19448817454059739
860000000.0 -0.12339934251287366 0.18160854188696024
880000000.0 -0.000742182831900286 -0.16862801354890697
900000000.0 0.10266472586887868 0.03161375034373887
920000000.0 -0.06602301711634688 -0.01667607321057789
940000000.0 -0.04068770521016988 0.01988638064065801
960000000.0 -0.04887592184667265 0.026185381548125213
980000000.0 0.06816923827302379 -0.022353369534352855
1000000000.0 -0.07848321793636698 0.022523312770831663
1020000000.0 -0.09118033752786621 -0.0021419326939769562
1040000000.0 -0.09688924417913797 -0.032798041079890816
1060000000.0 -0.1309045311624863 0.0354581992471718
1080000000.0 0.12897764560022132 -0.08137438160203081
1100000000.0 0.08374450828737577 -0.15552417067579247
1120000000.0 -0.12427000543575373 -0.1591626244129756
1140000000.0 -0.24139950462891688 0.01740308119035628
1160000000.0 0.026649462700897124 0.27623651970692603
1180000000.0 -0.016215590134597016 0.31907613116974815
1200000000.0 -0.06314311455359388 0.3426393544764234
1220000000.0 -0.29537691887366824 -0.237088844942996
1240000000.0 0.329266777836808 0.22561750311420706
1260000000.0 -0.3276009843004388 -0.26523035486068325
1280000000.0 -0.12485591950577589 0.4152091490344917
1300000000.0 0.3684006731529981 -0.23881691862075696
1320000000.0 0.14582634787692011 -0.41052293166814235
1340000000.0 0.22073033552335042 -0.3680645858306416
1360000000.0 0.4297559304262133 0.027323369272770508
1380000000.0 0.36668639636022354 -0.22383247414990845
1400000000.0 -0.16210838269973527 -0.3924897808175302
1420000000.0 -0.3167035534746451 0.2609079297171855
1440000000.0 0.3497786677232529 0.16131259529822503
1460000000.0 0.09396686925521987 -0.34304153344240745
1480000000.0 -0.3117666326456832 0.08585194978956212
1500000000.0 0.049615591336576156 0.2842590970195262
1520000000.0 0.2382147726182386 0.10253845790645987
1540000000.0 -0.2220966569663284 0.050380369443849264
1560000000.0 -0.012911392770025973 -0.19117894178177464
1580000000.0 0.10203287488107114 0.1276563477414075
1600000000.0 0.09501478979416299 0.08841800260189625
1620000000.0 -0.06462531649563912 0.0800578790770911
1640000000.0 0.0013300389621809865 -0.07868076879592335
1660000000.0 -0.05578174883953588 -0.005504192522538237
1680000000.0 -0.0034955033688703575 0.039063828855968236
1700000000.0 -0.005001138551917285 0.027736009955236698
1720000000.0 0.012521617965582895 0.0063934841793802126
1740000000.0 -0.0030979571254458665 0.007994749121779582
1760000000.0 -0.022087275230002607 0.007093049439098013
1780000000.0 0.05243360298904569 -0.005040993329935112
1800000000.0 -0.04110443290738559 0.07482421420862517
1820000000.0 -0.07423617847512506 0.0964720995218692
1840000000.0 -0.07907356582507691 -0.144956313234298
1860000000.0 0.20735489246826128 -0.019962375992266294
1880000000.0 0.10132408205740791 0.23144652143043135
1900000000.0 -0.2731833268705507 0.1193741023947206
1920000000.0 -0.11455235959465432 -0.30972778784444754
1940000000.0 0.1753005078690779 0.31358596621868295
1960000000.0 -0.039024964684555415 -0.377729793403432
1980000000.0 -0.3465819983403201 0.1815449999802446
2000000000.0 -0.27035230552089085 0.2974270653428015
2020000000.0 -0.0762519071499834 0.4030509766965694
2040000000.0 -0.1946101835678834 0.3685885533290892
2060000000.0 -0.052794760866997324 0.41849200814675486
2080000000.0 0.04595402762534272 0.4218789755039329
2100000000.0 0.1912845977203419 0.3780138946729199
2120000000.0 0.41334038887920266 0.07435232605833848
2140000000.0 0.2726991604676095 -0.3087634994466351
2160000000.0 0.3519928942560663 -0.1877830276781724
2180000000.0 -0.12056875368291912 -0.3645271991646929
2200000000.0 -0.3531853122453925 0.1005787982572127
2220000000.0 -0.010030371608738873 0.3495561317741373
2240000000.0 0.25012855736833867 0.22581964727512358
2260000000.0 0.21824809204746923 0.24770367739395968
2280000000.0 0.0880529393974657 0.31958951420330256
2300000000.0 0.13939931466496455 0.31612873854931234
2320000000.0 0.35162995843969763 0.12019593368944169
2340000000.0 0.12615339756478564 -0.38766245457646104
2360000000.0 -0.3920683134440347 0.22510211726346815
2380000000.0 0.45202664338962273 -0.21947938753589197
2400000000.0 -0.43591577488231986 0.3426930388592953
2420000000.0 0.24267732489736624 -0.5570713397517812
2440000000.0 0.11598540478343061 0.6466895400133118
2460000000.0 -0.505926130025496 -0.4837109916580316
2480000000.0 0.7066445627874505 0.19583657995881146
2500000000.0 -0.7501500258993263 -0.0982066553617867
2520000000.0 0.7376524846504469 0.22119169790213197
2540000000.0 -0.5677698849450594 -0.5260246361986548
2560000000.0 0.1906609490406171 0.7461959005612483
2580000000.0 0.4808899557456515 -0.5836776422716506
2600000000.0 -0.7230490467589854 0.11973390724766474
2620000000.0 0.5876083154459774 0.3860815409198606
2640000000.0 0.6624820099870986 -0.07206948980038047
2660000000.0 -0.5253716145899342 -0.3318401126349487
2680000000.0 0.2738664506955073 0.5042418449032741
2700000000.0 0.006500779748869355 -0.5240131301455291
2720000000.0 -0.1922313582225974 0.4330673160115641
2740000000.0 0.373091079400573 -0.20795673611136237
2760000000.0 -0.3737424873243793 0.09778519431827355
2780000000.0 0.3543245126602815 -0.025290758662736938
2800000000.0 -0.3235048120338526 0.07205100427643087
2820000000.0 0.11668136802964348 -0.29485790445136323
2840000000.0 0.19165878774836875 0.2413707604444709
2860000000.0 -0.2675649437411094 0.1509622710228859
2880000000.0 -0.14528445443696675 -0.27036290372907595
2900000000.0 0.30294358764717877 0.056954807502458876
2920000000.0 -0.2514546702563163 -0.1801071082031812
2940000000.0 -0.1502403116616464 0.27261969106947853
2960000000.0 0.06860388971137056 0.30442182575814325
2980000000.0 -0.05773352545245441 0.3102914065733952
3000000000.0 -0.30193824890378074 0.09602915076353732
3020000000.0 -0.0840687453920972 -0.30587787892973306
3040000000.0 0.2644126365413272 0.17149728677544898
3060000000.0 -0.28131304858322004 -0.13783406742099888
3080000000.0 0.2888516822387488 0.10822866222050463
3100000000.0 -0.27641875439323305 -0.1251003150296382
3120000000.0 0.29769637942226684 -0.0282871400990748
3140000000.0 -0.2515520674584352 0.14485944079135135
3160000000.0 0.034126710917813316 -0.2742586816404909
3180000000.0 -0.17109814554123093 0.19564803278477355
3200000000.0 -0.20691281582914367 -0.11273338197637373
3220000000.0 -0.023306707381646488 -0.20710875868974518
3240000000.0 0.1723754408398951 -0.03454125211319524
3260000000.0 0.015917165497304354 0.13884486302665844
3280000000.0 0.06637503074444277 -0.08208512122761583
3300000000.0 -0.07269987491353617 -0.00854216420529946
3320000000.0 -0.019023928833582598 -0.04185477946729954
3340000000.0 0.015599323441409923 0.01697916542444606
3360000000.0 0.007498281553294379 0.00332590828769191
3380000000.0 -0.005405829595520944 -0.0036879083231954554
3400000000.0 0.0070019412425556754 0.01589941245420808
3420000000.0 -0.0044286556526881415 -0.029895619119300745
3440000000.0 0.010693823360298489 -0.04201805316894247
3460000000.0 -0.014297697929363822 -0.05594824462545082
3480000000.0 -0.06142258031295417 0.03783023214912725
3500000000.0 -0.06591440169172798 -0.05710035264800075
3520000000.0 0.06271155353461631 0.07735533082971392
3540000000.0 -0.0957422535607609 0.05647512234198531
3560000000.0 0.11679665449693037 -0.035326280960490786
3580000000.0 -0.11578759714003213 -0.06539748328188308
3600000000.0 0.14254834593096985 0.04359533050565881
3620000000.0 -0.08428944198004608 0.13865141211249074
3640000000.0 -0.16652927288646982 -0.05815490652952728
3660000000.0 -0.10631358927604076 -0.15568707299789208
3680000000.0 -0.07461225303404202 -0.1802485453755673
3700000000.0 -0.11772262487431479 -0.15729336533507396
3720000000.0 -0.027115794402982465 -0.1941705245109977
3740000000.0 -0.026967050868769885 -0.18712967198249242
3760000000.0 0.05818028431933556 0.1720443077850754
3780000000.0 -0.08178746031104978 -0.14829050534901986
3800000000.0 -0.15178888815239466 0.04863246338739114
3820000000.0 -0.10599164511415755 0.10560898297506598
3840000000.0 -0.0328254974134576 -0.13896423292144297
3860000000.0 -0.035443532693540086 0.14115807762798577
3880000000.0 -0.0400439447458613 0.14846516900808956
3900000000.0 0.1610959364748807 -0.02995220242758493
3920000000.0 -0.0842537681862822 0.14674527792832612
3940000000.0 -0.13815377986564592 -0.10312533316650976
3960000000.0 -0.054397509485764745 -0.1663999825633726
3980000000.0 -0.10233830972533543 -0.13888197575165323
4000000000.0 0.08707504949955089 -0.1382084535317009
