!Created with skrf (http://scikit-rf.org).
# Hz S RI R 50.0 
!freq ReS11 ImS11
400000000.0 -0.6095755450548203 0.6295137500965361
420000000.0 0.38063105938983044 0.7843342257499312
440000000.0 0.7150477859726508 -0.44448917598806886
460000000.0 -0.1270045690601248 -0.7901306325802537
480000000.0 0.3610364082279766 -0.6276525288395299
500000000.0 -0.45159747162916203 0.37653389579457985
520000000.0 0.4962808688048954 0.02347861090196786
540000000.0 -0.2161958203211705 0.3391206490614695
560000000.0 -0.11769070333889792 0.3261713883005714
580000000.0 0.004336506743566674 -0.3237722081407873
600000000.0 -0.3237177785657992 -0.011941824672474262
620000000.0 0.33148364080742965 0.046543421321531844
640000000.0 0.35918040873164714 0.0484593850302477
660000000.0 0.36683287362204997 -0.08229352201849516
680000000.0 -0.39667216890570334 0.06588540628459583
700000000.0 -0.07159550046579655 0.40873453443535745
720000000.0 0.33981349914328185 0.2518494838383843
740000000.0 -0.42293974363645104 -0.011499640494344513
760000000.0 0.27443318862422456 0.3042048092200304
780000000.0 -0.38517123330736097 -0.002970386846686963
800000000.0 0.32132933924098095 -0.1597412277234494
820000000.0 0.29700848417706344 0.0928350107423819
840000000.0 -0.1733878436467456 0.2025402703089471
860000000.0 -0.12360953451981409 0.18064291196718685
880000000.0 0.011734186254250708 -0.16874176602269722
900000000.0 0.09320676139361496 -0.05249126605601638
920000000.0 -0.05040520425756929 0.04584414433957492
940000000.0 -0.03553329766076003 0.02774200678150931
960000000.0 -0.055112853608972466 0.007121009686663746
980000000.0 0.07129774294666856 0.0010315909660026834
1000000000.0 -0.0808649330930175 0.004384323972329861
1020000000.0 -0.08667480814009393 -0.026971997095487033
1040000000.0 -0.10124190127250494 -0.004335568278805014
1060000000.0 -0.12083286358102069 0.061005530671291754
1080000000.0 0.09353723225089083 -0.1200095580883613
1100000000.0 0.06012777864362735 -0.16646072188283406
1120000000.0 -0.1273015283687381 -0.15713407589444117
1140000000.0 -0.24072226023031715 0.02733004499912375
1160000000.0 -0.013718128729264326 0.2776847546058381
1180000000.0 -0.036925016609773154 0.3176920783364221
1200000000.0 -0.11659062248080637 0.32878804111342114
1220000000.0 -0.2798993963782978 -0.2553127316300436
1240000000.0 0.3064669063849353 0.2555478381172081
1260000000.0 -0.2875967120339886 -0.3075774150711317
1280000000.0 -0.16519952831374507 0.4003173542754677
1300000000.0 0.3706066444670726 -0.23395884543643944
1320000000.0 0.1564840058449912 -0.40555599569933476
1340000000.0 0.1984040140768405 -0.37980218658131737
1360000000.0 0.4302044685663128 0.0023206763842444273
1380000000.0 0.34907606194060375 -0.24926209791308376
1400000000.0 -0.21125605507088116 -0.36735236344671757
1420000000.0 -0.28364267464713677 0.29662403407699556
1440000000.0 0.3717732326972379 0.10325277728134274
1460000000.0 0.06809664011506113 -0.3501500600073313
1480000000.0 -0.311890519200661 0.08955826381577957
1500000000.0 0.030903111226331187 0.2879017940847113
1520000000.0 0.2394757399863004 0.10119967115953227
1540000000.0 -0.22846856846163105 -0.005235772851249978
1560000000.0 0.0525364229418398 -0.18492169357846272
1580000000.0 0.06330773223028317 0.15103370156473128
1600000000.0 0.037759984463229083 0.1245022912521283
1620000000.0 -0.09208499521617096 0.04482654401914606
1640000000.0 0.020663998646626176 -0.07577057300962839
1660000000.0 -0.05547975878383074 -0.00047194223471859524
1680000000.0 -0.013661881834301521 0.036020536338669626
1700000000.0 0.014151229877477639 0.02356952838043196
1720000000.0 0.011397773822972482 -0.006173109375481759
1740000000.0 0.006643253926897016 0.003550727563042485
1760000000.0 -0.02279479293143301 0.0017419851527248308
1780000000.0 0.044806832971177206 0.02724312805229782
1800000000.0 -0.07254264292510855 0.044407295310812195
1820000000.0 -0.10453262107050341 0.06003558610004792
1840000000.0 -0.08125541810307069 -0.14304770324762056
1860000000.0 0.2060158946369545 -0.025754936998216047
1880000000.0 0.11693070404239608 0.22350466002476077
1900000000.0 -0.2601030383868764 0.1445482377013537
1920000000.0 -0.13069124355610356 -0.3031989399423111
1940000000.0 0.19953556792649718 0.2983436416281308
1960000000.0 -0.062240883191204265 -0.3747327502065091
1980000000.0 -0.3423236201215805 0.1891453473029628
2000000000.0 -0.2658511128771971 0.3010656787808992
2020000000.0 -0.06513766413617453 0.4051743720812636
2040000000.0 -0.1807779231556701 0.37607995180997256
2060000000.0 -0.023574050148604555 0.42128635035008544
2080000000.0 0.035096598041489034 0.4236953496456447
2100000000.0 0.18352894507657325 0.3820153260930674
2120000000.0 0.40132233749855867 0.12853585366362663
2140000000.0 0.2932077166018207 -0.2915977960334983
2160000000.0 0.36733404345807585 -0.16042975646430532
2180000000.0 -0.10721205721192618 -0.37020842938168497
2200000000.0 -0.361174931311928 0.07321646576391921
2220000000.0 -0.10471973305020779 0.334288544312499
2240000000.0 0.22259938692498915 0.2534171491201723
2260000000.0 0.1608135605907249 0.2885711070072371
2280000000.0 0.007453535412167007 0.33111032614679636
2300000000.0 0.06804841180501843 0.33814336669704476
2320000000.0 0.32737821210494955 0.17486516928778273
2340000000.0 0.21055043116632366 -0.3475820483372564
2360000000.0 -0.4163764376587284 0.1737110874806158
2380000000.0 0.46768618387732847 -0.1800575275427931
2400000000.0 -0.43644369438560304 0.3400466720745939
2420000000.0 0.23516097240272726 -0.5589895102967876
2440000000.0 0.15258837797018981 0.6384072309164078
2460000000.0 -0.5534316656811975 -0.42734542173951834
2480000000.0 0.7100007054494858 0.1846727048202864
2500000000.0 -0.7472797059121381 -0.11992958277693164
2520000000.0 0.7375357168732077 0.2242074590003398
2540000000.0 -0.5617357461565213 -0.5340950005651399
2560000000.0 0.12225915042360587 0.7619115276221146
2580000000.0 0.5002238099886448 -0.5697419680339197
2600000000.0 -0.7337681464842221 0.04180351249099909
2620000000.0 0.5294713009923339 0.4656736215777505
2640000000.0 0.6595839390129355 0.11130546943562893
2660000000.0 -0.429358568103073 -0.45154985456230673
2680000000.0 0.12497347624443023 0.5616607523970152
2700000000.0 0.16429361707702694 -0.4986717237130988
2720000000.0 -0.32444606871809106 0.3462226617355276
2740000000.0 0.42502369069381013 -0.04475706044227212
2760000000.0 -0.38123423420783364 -0.05817541854533406
2780000000.0 0.34119332619111087 0.09671213180073086
2800000000.0 -0.3308413374030302 0.011877259758885213
2820000000.0 0.1316877611833411 -0.28785899348154315
2840000000.0 0.17116639603505407 0.2567508701078935
2860000000.0 -0.28157060392672484 0.12254398858200784
2880000000.0 -0.14217443611407746 -0.27280405833674176
2900000000.0 0.3053389250865692 0.044390032127544825
2920000000.0 -0.24863349986076771 -0.18464605168656956
2940000000.0 -0.1504231420823783 0.27352665866250125
2960000000.0 0.07226598655488453 0.3049222681995076
2980000000.0 -0.06545113734890128 0.3095784318864593
3000000000.0 -0.31263865379199673 0.0574937474952327
3020000000.0 -0.0010422073546238286 -0.31933544098200073
3040000000.0 0.2445291737590964 0.20064331224603205
3060000000.0 -0.27583532172363406 -0.15021519207072845
3080000000.0 0.27411855290404413 0.14364095984089717
3100000000.0 -0.2372155090285108 -0.19170375554880656
3120000000.0 0.29537485424556886 0.048524648523943205
3140000000.0 -0.2536710505420573 0.14199637945208116
3160000000.0 0.039887095735090125 -0.2742045419132506
3180000000.0 -0.16685739293106291 0.2010552086168549
3200000000.0 -0.19960300662826405 -0.1278454435506461
3220000000.0 -0.020643136344904788 -0.2079492392871133
3240000000.0 0.16741673284414404 -0.05535086157880022
3260000000.0 0.052604160521822214 0.13022036182711175
3280000000.0 0.011377283496059295 -0.10516816282765462
3300000000.0 -0.058482999072536124 0.04456315124419488
3320000000.0 -0.045397494444982436 -0.007337635026895982
3340000000.0 0.003481866094275781 -0.02335004742690133
3360000000.0 0.0039981880675358265 0.007133013705571377
3380000000.0 -0.006416511719430107 0.0011961501616946906
3400000000.0 -0.005743211273086133 -0.016464827008217754
3420000000.0 0.030053920090804227 0.0019086598423286134
3440000000.0 0.03869505423470337 0.02073035514318808
3460000000.0 0.050119986025904395 -0.03019292741607614
3480000000.0 -0.07215734302578726 -0.012728095330588707
3500000000.0 -0.017606819518995197 -0.08645389473736736
3520000000.0 0.011342094793260914 0.0998136622721933
3540000000.0 -0.10934575799794964 -0.02020421236616925
3560000000.0 0.12013189394100536 0.023790783941293848
3580000000.0 -0.04825450221146026 -0.1243040549320536
3600000000.0 0.11374785587662298 0.09656600957305275
3620000000.0 -0.1473313072784706 0.06918263246396103
3640000000.0 -0.09731624893012958 -0.14703898962828746
3660000000.0 -0.03941017797750253 -0.18521590635053714
3680000000.0 0.017072504501020193 -0.19479885225607513
3700000000.0 -0.0198009108183578 -0.19580878667948134
3720000000.0 0.04692634670436341 -0.19053977258045443
3740000000.0 0.06286540358827185 -0.17859381729207313
3760000000.0 -0.023549244941308205 0.17956093369612916
3780000000.0 0.006545949311659733 -0.16810433746130066
3800000000.0 -0.1549965644937335 -0.03517342307885555
3820000000.0 -0.1482634996298476 -0.014562006990823162
3840000000.0 0.10070633101532414 -0.10113857109850245
3860000000.0 -0.13442510446923003 0.055125032537634504
3880000000.0 -0.14118489848400542 0.060629191219282154
3900000000.0 0.11901735940880212 0.11148751280553668
3920000000.0 -0.16372494864538795 0.033506714493767145
3940000000.0 -0.057220997436967354 -0.15939148135016726
3960000000.0 -0.015447312226816608 -0.17146472684767325
3980000000.0 -0.13918677248500044 -0.09476972930063375
4000000000.0 -0.06884233571490858 -0.14372458982360858
