!Created with skrf (http://scikit-rf.org).
# Hz S RI R 50.0 
!freq ReS11 ImS11
400000000.0 -0.6227968457610591 0.6175166522997616
420000000.0 0.40666264186958756 0.7712356318646847
440000000.0 0.6968530926001072 -0.47196674409713346
460000000.0 -0.13936805429935856 -0.7868225018163083
480000000.0 0.3826453680585547 -0.6147103962298417
500000000.0 -0.37941917466477904 0.4505942292718237
520000000.0 0.4931107325973648 -0.042560407416587766
540000000.0 -0.2935865063365695 0.2717878515784241
560000000.0 -0.234022269354222 0.256774987690196
580000000.0 -0.02415132395188053 -0.32163655383594
600000000.0 -0.2918070156499133 -0.13913898790337606
620000000.0 0.30428276179207203 0.14308806243522024
640000000.0 0.36213996377923274 -0.01369510838567296
660000000.0 0.3751247051421937 -0.017189079839977625
680000000.0 -0.39650523930219705 0.06923346282309109
700000000.0 -0.05691025172913584 0.41111295731900493
720000000.0 0.3193239535103813 0.27699768436667543
740000000.0 -0.42285133535185 0.014651605048695589
760000000.0 0.301893022327638 0.2772354678688704
780000000.0 -0.3841997153975742 -0.019257762149705086
800000000.0 0.31070112543989 -0.18066255699948008
820000000.0 0.29294091120604354 0.1046238678007105
840000000.0 -0.16480846826226578 0.21015307182024712
860000000.0 -0.12084494428553061 0.18219745598467513
880000000.0 0.0014071962026079167 -0.16910231251529903
900000000.0 0.09888299492797223 -0.039572732101870144
920000000.0 -0.05257081409241132 0.04302695726406012
940000000.0 -0.022881517246800105 0.03867217968633368
960000000.0 -0.04744801407350171 0.027910773020847084
980000000.0 0.06785737655202281 -0.0206928775649234
1000000000.0 -0.07587043503803445 0.025818479231140393
1020000000.0 -0.0905603912305105 0.0030162061917017816
1040000000.0 -0.10100091302899306 -0.0030379143664574053
1060000000.0 -0.12005803249388308 0.06207911302716913
1080000000.0 0.115208820585157 -0.09935656731553692
1100000000.0 0.06918835135336628 -0.16298204485694473
1120000000.0 -0.1055031635777435 -0.17262396136863642
1140000000.0 -0.24203832794563973 0.012272226867668774
1160000000.0 -0.020643537136206848 0.2775724701709204
1180000000.0 -0.026372596898312357 0.3190110885249398
1200000000.0 -0.11188503090939866 0.33083147195524365
1220000000.0 -0.2889537571732865 -0.24516131542242942
1240000000.0 0.3075093235588333 0.25413697600457913
1260000000.0 -0.3086290518592918 -0.2862360718137173
1280000000.0 -0.16176445338911305 0.4016202307805421
1300000000.0 0.3663037067939794 -0.24025961642448335
1320000000.0 0.16185462859000713 -0.4034825604372831
1340000000.0 0.20900592306403726 -0.3741905522023883
1360000000.0 0.43026702438225356 0.0007429149618040765
1380000000.0 0.3537895673777808 -0.24254641376042033
1400000000.0 -0.21875271866840076 -0.363182385429932
1420000000.0 -0.2840758866523353 0.29654950268211017
1440000000.0 0.36888647839242195 0.11298706203419231
1460000000.0 0.07156435423122678 -0.3496108239388156
1480000000.0 -0.3077247464881862 0.10300041614681088
1500000000.0 0.041282449359660876 0.2868363755052474
1520000000.0 0.24096758571577478 0.0974870739553645
1540000000.0 -0.22839048014525837 0.011961699007046708
1560000000.0 0.04268284417303742 -0.18729358025105583
1580000000.0 0.06184635372369569 0.15172676539787
1600000000.0 0.03671733081620046 0.12489247666306838
1620000000.0 -0.09227551255625008 0.044543723224759406
1640000000.0 0.021431508670374997 -0.07558668670100092
1660000000.0 -0.05483352932753851 0.009216157949466095
1680000000.0 -0.02197200554909708 0.031776681376731945
1700000000.0 0.025101066179140333 0.011763049534980705
1720000000.0 -0.0011354514965840814 -0.013013317506684165
1740000000.0 -0.0011213607527830842 0.007119831277039486
1760000000.0 -0.019838056940508997 -0.011099385166142318
1780000000.0 0.04714271106175252 0.023128742306254835
1800000000.0 -0.07320262358026555 0.04313343237476516
1820000000.0 -0.10626283242731138 0.05728371005922136
1840000000.0 -0.08514361508085305 -0.14110414131056717
1860000000.0 0.20362818958579096 -0.04226371365030719
1880000000.0 0.13635464015297885 0.21241756856789262
1900000000.0 -0.2454170180288903 0.16838143193453975
1920000000.0 -0.14129180713003844 -0.2983051813794217
1940000000.0 0.20940476188869547 0.2915628746755821
1960000000.0 -0.06522351636505307 -0.37436772376559985
1980000000.0 -0.35229929127865534 0.1706651654963874
2000000000.0 -0.27952437791020196 0.2887133954704743
2020000000.0 -0.09214071264774432 0.400153587133818
2040000000.0 -0.1910600961470189 0.37107306652999694
2060000000.0 -0.0600769913296426 0.41785622158525365
2080000000.0 0.036493142970728254 0.423560606479648
2100000000.0 0.17632234943426492 0.38556112348551375
2120000000.0 0.41279567339959167 0.08267344001006512
2140000000.0 0.29308210625338593 -0.29157345776056875
2160000000.0 0.35875592646561016 -0.1773802160158498
2180000000.0 -0.1480360927469042 -0.3553092317653834
2200000000.0 -0.3497108026126536 0.11456140672857257
2220000000.0 -0.06268812817683805 0.3437908349608209
2240000000.0 0.21928124669062735 0.2568510762346882
2260000000.0 0.17564298042785623 0.2799318064938311
2280000000.0 0.04332136292006639 0.32886594613078807
2300000000.0 0.09354077986878101 0.33283401303014015
2320000000.0 0.34509441697460275 0.1392476766730099
2340000000.0 0.14760792867442926 -0.3801809338126703
2360000000.0 -0.39176674990078125 0.22629559147305578
2380000000.0 0.4319352512860403 -0.2570604524109516
2400000000.0 -0.36869285999580137 0.414720035021845
2420000000.0 0.13471889321691544 -0.5928177160348885
2440000000.0 0.26141801048828583 0.6036899682076023
2460000000.0 -0.6247781771385902 -0.31653236459815637
2480000000.0 0.733757570481956 0.017381652883495025
2500000000.0 -0.7568624399237526 0.027044956669692033
2520000000.0 0.766466260575515 0.08342646412115994
2540000000.0 -0.6542232099654701 -0.41488425212652486
2560000000.0 0.2666296446443222 0.7233260760617714
2580000000.0 0.4255853653316373 -0.6262234009376466
2600000000.0 -0.7174280538022105 0.15484747656683553
2620000000.0 0.5669233290720119 0.41694825746088404
2640000000.0 0.6671341345933383 -0.015850553680265878
2660000000.0 -0.4858035096060665 -0.3874065865276886
2680000000.0 0.19255072901109996 0.5402134803178654
2700000000.0 0.11224078809255557 -0.5112702776787796
2720000000.0 -0.2993017133960259 0.3661718460355848
2740000000.0 0.4102990121795949 -0.11478630021773951
2760000000.0 -0.38459671331830003 -0.007949731313996082
2780000000.0 0.34947780966867875 0.0546441477807703
2800000000.0 -0.32851169232121785 0.032766185487765005
2820000000.0 0.12084559710819148 -0.29168022440080404
2840000000.0 0.1979224136552741 0.23554353912766685
2860000000.0 -0.26403046142679976 0.15550746689755474
2880000000.0 -0.1547758390678312 -0.26507031175621626
2900000000.0 0.30609628096775277 0.034601952156500186
2920000000.0 -0.24495695135329418 -0.1890823480129211
2940000000.0 -0.12248961483638497 0.2864278255822011
2960000000.0 0.05783409356907134 0.30756639838034683
2980000000.0 -0.06929223746970924 0.3079315526505571
3000000000.0 -0.3014223101564037 0.09832869914766354
3020000000.0 -0.03476987981917471 -0.3159748462337809
3040000000.0 0.23466316413818467 0.21036583566752826
3060000000.0 -0.2745036883508832 -0.15175588126916317
3080000000.0 0.27738681916949715 0.1369629037204157
3100000000.0 -0.26313570109033413 -0.15390175945458223
3120000000.0 0.2889504753404238 0.07715511069540465
3140000000.0 -0.26125176936307276 0.1276312194004756
3160000000.0 0.02917309151690966 -0.27531581118404536
3180000000.0 -0.1614922507401496 0.20529183761413605
3200000000.0 -0.20632418325740437 -0.11691506889461285
3220000000.0 -0.04819381366675069 -0.2033516140237895
3240000000.0 0.15719315506467843 -0.07984412599497584
3260000000.0 0.057573264972101725 0.1281498445944621
3280000000.0 0.02580632225057969 -0.10291483245062355
3300000000.0 -0.06593625458404434 0.03327094827223881
3320000000.0 -0.04268564756464696 -0.017772833494364253
3340000000.0 0.0003902640044351987 -0.024051820539228153
3360000000.0 -0.008903393310487777 0.001201619008091859
3380000000.0 -0.0030449620320981844 -0.005261861733110786
3400000000.0 0.007168835682688525 -0.015049881113703586
3420000000.0 0.01951262064288242 -0.022501437105773257
3440000000.0 0.043162895780999376 -0.004951555512719427
3460000000.0 0.04171024381558526 -0.04006454966243055
3480000000.0 -0.07259806772437188 0.002631244714254329
3500000000.0 -0.03440093725019528 -0.08045623310765213
3520000000.0 0.022511127946487484 0.0971439861783705
3540000000.0 -0.1101091323559849 0.010424457599676602
3560000000.0 0.12067709105002739 0.0157895699436937
3580000000.0 -0.08818686236911645 -0.09956362052282378
3600000000.0 0.11739792892968869 0.09085694986990202
3620000000.0 -0.1303133465722417 0.09721080540578403
3640000000.0 -0.126498880654776 -0.12276567841783907
3660000000.0 -0.07275941973039451 -0.17422331382720285
3680000000.0 -0.032232799757221556 -0.19243360973950915
3700000000.0 -0.07987407656395543 -0.1796913691630334
3720000000.0 -0.008742968374099708 -0.19557766169103513
3740000000.0 0.010194779929366925 -0.18913737350646426
3760000000.0 0.02044003076502851 0.17985190236498438
3780000000.0 -0.01651926517045009 -0.16758538264198788
3800000000.0 -0.1591709011473442 0.003299018780687032
3820000000.0 -0.14698019442221197 0.027052219398370075
3840000000.0 0.03242327294391199 -0.13907029304886903
3860000000.0 -0.10720819156928213 0.09878802111399573
3880000000.0 -0.10159763420588101 0.11576703067918927
3900000000.0 0.15969558739532513 0.03203170490394363
3920000000.0 -0.13099555280134537 0.10505277498832867
3940000000.0 -0.12177792125301187 -0.11906309968004508
3960000000.0 -0.08185771464416144 -0.15247788719325017
3980000000.0 -0.16658762298879506 -0.03215382104792793
4000000000.0 -0.1136672902617981 -0.1139406521843273
