!Created with skrf (http://scikit-rf.org).
# Hz S RI R 50.0 
!freq ReS11 ImS11
400000000.0 -0.6016101956261767 0.6367889461607578
420000000.0 0.42039959780083713 0.7633420209284623
440000000.0 0.6726708056016263 -0.5056898573129243
460000000.0 -0.19544578821100042 -0.7748366904533801
480000000.0 0.3835753878669568 -0.61351258734144
500000000.0 -0.44677463781141225 0.3831545643772808
520000000.0 0.4924895717737315 -0.057539097099539506
540000000.0 -0.2526523395566097 0.31084576120657886
560000000.0 -0.24527151132270997 0.24902675970210006
580000000.0 -0.1152751914851076 -0.29861022456318587
600000000.0 -0.326480754164034 -0.00010411480341263129
620000000.0 0.2893000020912759 0.16824216768885278
640000000.0 0.36109937959071264 0.004445341116352193
660000000.0 0.3587766003726787 -0.11069886792788677
680000000.0 -0.3983501430030934 0.056596389719959825
700000000.0 -0.0002769571686337238 0.41486880374633645
720000000.0 0.2623070727035991 0.3314765298758182
740000000.0 -0.4093067934855676 0.10181965309614309
760000000.0 0.2765611402432723 0.3026157755309507
780000000.0 -0.38475925007203765 -0.00442676979813054
800000000.0 0.31295133883839016 -0.1775368020995108
820000000.0 0.2742506172859879 0.14609363308412915
840000000.0 -0.16539028477145262 0.2097422405866153
860000000.0 -0.18243831035343483 0.1221984870790465
880000000.0 0.008006036168662967 -0.16880015275174853
900000000.0 0.10598610944851201 -0.002174743076251546
920000000.0 -0.04548833535845551 0.05009041988656687
940000000.0 -0.004142827589651403 0.04537296348035433
960000000.0 -0.049567462148694605 0.0243869052788267
980000000.0 0.05992964678393445 -0.03721343479127156
1000000000.0 -0.08052765600630594 0.012654093017177737
1020000000.0 -0.0903541501364352 -0.010934913123596644
1040000000.0 -0.0979325885153987 -0.029590107960332984
1060000000.0 -0.1114909396851553 0.0768864040206276
1080000000.0 0.12748928213746585 -0.08358150982002358
1100000000.0 0.09151453015843902 -0.15156884840876597
1120000000.0 -0.11980384357199825 -0.16248106721198644
1140000000.0 -0.24010946970831532 0.03186057985924325
1160000000.0 -0.0038746323616795217 0.2779966804663064
1180000000.0 -0.004868647808456338 0.3195797637625521
1200000000.0 -0.0794363808190783 0.339246707240608
1220000000.0 -0.2988566865791423 -0.23251115048063248
1240000000.0 0.33011053904001814 0.22404381991567307
1260000000.0 -0.33280668832419813 -0.2585062337650744
1280000000.0 -0.11551596781277046 0.4174435180643491
1300000000.0 0.35934048650534817 -0.25184618557553484
1320000000.0 0.15940674411013875 -0.40501274831131107
1340000000.0 0.19819593021657314 -0.3806078455662181
1360000000.0 0.43081047478820517 0.006642603997624305
1380000000.0 0.35431860085778816 -0.24294474564103918
1400000000.0 -0.16796099446144802 -0.39005265434733477
1420000000.0 -0.3007271082706134 0.2790638764016446
1440000000.0 0.35249996597183525 0.1551533205542068
1460000000.0 0.10309516720077057 -0.34081910744383
1480000000.0 -0.3058248907849829 0.10562068081504127
1500000000.0 0.03632540178964041 0.2863215847630141
1520000000.0 0.23872041615917633 0.1005609001689553
1540000000.0 -0.2259405884521191 0.022270316291509804
1560000000.0 0.01747700869530035 -0.19028878236780725
1580000000.0 0.07680207939336484 0.14408723635712928
1600000000.0 0.04656284277436241 0.12083607715736386
1620000000.0 -0.050043215637640005 0.08967280839544366
1640000000.0 -0.007113822582728265 -0.07862212504342982
1660000000.0 -0.05515283412094381 0.010328601827712145
1680000000.0 0.004677277926240442 0.03898434073420779
1700000000.0 -0.0030794835419491336 0.028020169466330246
1720000000.0 0.013603210860248002 -0.0017657502032146295
1740000000.0 0.0017730087054622576 0.007867761942688282
1760000000.0 -0.014661073994069851 0.01787711576521074
1780000000.0 0.05279751956876283 -0.003945366791241897
1800000000.0 -0.05144171417125382 0.06768428217658025
1820000000.0 -0.0792708901503127 0.09233544039934347
1840000000.0 -0.10559307187248095 -0.12665541689578466
1860000000.0 0.2068755827431325 -0.02695020496477088
1880000000.0 0.08820678642464917 0.2370858216457541
1900000000.0 -0.2683142462486772 0.13023830294543348
1920000000.0 -0.11949888239235479 -0.30792456370293164
1940000000.0 0.17703750921691844 0.3129762627398726
1960000000.0 -0.026411627244700704 -0.3792049083998677
1980000000.0 -0.35386623287326335 0.1667860288807085
2000000000.0 -0.2752793736709671 0.2932328814464978
2020000000.0 -0.09096700154340139 0.399891815788394
2040000000.0 -0.17082750475741426 0.3801894374682385
2060000000.0 -0.04053200437058752 0.4201563878476831
2080000000.0 0.08901964495071163 0.41514558362834164
2100000000.0 0.20772254693019887 0.369552280944434
2120000000.0 0.4192532042577068 0.03348916445827416
2140000000.0 0.2469100754571807 -0.33155086610780804
2160000000.0 0.3395581827661809 -0.21200986185717693
2180000000.0 -0.14891853151493298 -0.35525237801759274
2200000000.0 -0.3481643961944331 0.12063487575434824
2220000000.0 -0.030767800482751788 0.3488751316878539
2240000000.0 0.2252676749546592 0.2521604027620882
2260000000.0 0.20373649267251331 0.2621235512691552
2280000000.0 0.05977780089891406 0.3277464437899743
2300000000.0 0.11481858794048957 0.32739396807468996
2320000000.0 0.34766064704621896 0.1353784312924041
2340000000.0 0.1285796957194252 -0.3884145991831747
2360000000.0 -0.3902682554852922 0.23043554386299148
2380000000.0 0.43435572277696277 -0.2550555824464325
2400000000.0 -0.4171604010708901 0.367197550372135
2420000000.0 0.1807614232781075 -0.5807763075667886
2440000000.0 0.2458600747484624 0.6102519147819452
2460000000.0 -0.6066529991937287 -0.3493838074777043
2480000000.0 0.7331407301115835 0.033861880546248446
2500000000.0 -0.7540464724131093 0.06272150246896693
2520000000.0 0.7669328203526474 0.0727639547743843
2540000000.0 -0.6615822526242146 -0.40253352121363695
2560000000.0 0.3471259418675703 0.6869114955059222
2580000000.0 0.3032013644212007 -0.6929442230504729
2600000000.0 -0.6695002730891857 0.2978576275742414
2620000000.0 0.6527187027878114 0.2594850374899968
2640000000.0 0.6424809769893315 -0.17606199875853498
2660000000.0 -0.5777406099807526 -0.22857820061093703
2680000000.0 0.29138668448972926 0.4937109457375763
2700000000.0 -0.038033673568504296 -0.5217281184163403
2720000000.0 -0.15956535096063604 0.4452356431369056
2740000000.0 0.3457369444429019 -0.24931235461022036
2760000000.0 -0.37040097818516415 0.10626991974148622
2780000000.0 0.35278068476956387 -0.03229896306785361
2800000000.0 -0.3219257316588915 0.07461752396905993
2820000000.0 0.12571580027976909 -0.29044786542179996
2840000000.0 0.20224335106034674 0.23085811500795872
2860000000.0 -0.24807999333768396 0.17957056114685857
2880000000.0 -0.16905891469497095 -0.2558139906691976
2900000000.0 0.3070900664396661 0.018087487649475386
2920000000.0 -0.2601905852585513 -0.16599037945940426
2940000000.0 -0.11884236603909308 0.2868213034040403
2960000000.0 0.08690160956582174 0.29926204541724233
2980000000.0 -0.03593619802743408 0.31268586534910014
3000000000.0 -0.2943477248089196 0.11476239418311315
3020000000.0 -0.049448540037348394 -0.3124606933026831
3040000000.0 0.27275726313830717 0.15519549887655068
3060000000.0 -0.30193685221246575 -0.07922128002091254
3080000000.0 0.2963743376296558 0.08432510179647344
3100000000.0 -0.289725469873607 -0.09143787144711955
3120000000.0 0.29660012644778944 -0.0388510013073495
3140000000.0 -0.24513444524498185 0.15482998996189415
3160000000.0 -0.016490648093355625 -0.2753481748868772
3180000000.0 -0.14480554333899065 0.21616569040087594
3200000000.0 -0.22498338417833666 -0.07043786219087643
3220000000.0 -0.03638163241784112 -0.2045419415708132
3240000000.0 0.16447877595802282 -0.060439006722376974
3260000000.0 -0.000782172366878736 0.13978357903804964
3280000000.0 0.07309227301364554 -0.07472029915928838
3300000000.0 -0.06664567140440483 -0.029057823898186102
3320000000.0 0.00954367378924632 -0.04436443958887536
3340000000.0 0.0016249467987306421 0.02300083821005428
3360000000.0 -0.0035310257084681987 0.007492392244942839
3380000000.0 0.0058913875495649306 0.004192017753999225
3400000000.0 0.017152891249806852 -0.002742560110572758
3420000000.0 -0.028651338755056516 -0.008879516387572398
3440000000.0 0.015197658512350064 -0.04089013247454954
3460000000.0 -0.01585904189823516 -0.05583910940680572
3480000000.0 -0.04749298936727716 0.05542049243425618
3500000000.0 -0.06922838750846753 -0.053882583225021104
3520000000.0 0.08829417330229065 0.04673711841744974
3540000000.0 -0.09103622604550779 0.06424123136613324
3560000000.0 0.11827962324666796 -0.030772327674409607
3580000000.0 -0.11408527875825426 -0.06952065647386801
3600000000.0 0.14885276047733195 0.014557493366523514
3620000000.0 -0.07697949467835877 0.14338344185109914
3640000000.0 -0.15060634250148422 -0.09136653858238657
3660000000.0 -0.0978092633049505 -0.1619670678188471
3680000000.0 -0.055771175037112763 -0.1878283246955218
3700000000.0 -0.09121358123328688 -0.17412645920419137
3720000000.0 -0.01449446705047137 -0.1959949811722338
3740000000.0 -0.013123735302478293 -0.18902503837072746
3760000000.0 0.03332102742955698 0.17896603396072364
3780000000.0 -0.051805923826337676 -0.1617045191020613
3800000000.0 -0.1597524141048101 0.01589282076574443
3820000000.0 -0.14927410410067984 0.019971188121660228
3840000000.0 0.05925132107157476 -0.13157739207757738
3860000000.0 -0.06662190808544873 0.13011680810212128
3880000000.0 -0.10493763063187725 0.1140688044586967
3900000000.0 0.1646082461888036 0.007646740820658371
3920000000.0 -0.10474321242821122 0.13362988158159503
3940000000.0 -0.13397095174428925 -0.10898597366060744
3960000000.0 0.021584552016992484 -0.17384801416449622
3980000000.0 -0.12749170426844322 -0.11559637553636576
4000000000.0 0.05990151381646309 -0.15215019271632935
