!Created with skrf (http://scikit-rf.org).
# Hz S RI R 50.0 
!freq ReS11 ImS11
400000000.0 -0.656479739203143 0.5775819035437987
420000000.0 0.40878500832360326 0.7672480394451571
440000000.0 0.689886637725473 -0.47926476660975004
460000000.0 -0.17588155557922525 -0.7786454028878467
480000000.0 0.328743812480977 -0.644616011048105
500000000.0 -0.41387740310135385 0.41715405385709164
520000000.0 0.4949264184140958 0.024705727019632633
540000000.0 -0.2606211173454342 0.3071577433284827
560000000.0 -0.12777369087714555 0.3235526949819161
580000000.0 -0.10993149602240684 -0.3038953756244212
600000000.0 -0.30261307059537407 -0.11899054492779176
620000000.0 0.3311791988870299 0.058642043218884894
640000000.0 0.3615615228015262 0.007194028951357141
660000000.0 0.3765178644880928 -0.0070664164221031465
680000000.0 -0.39866318279320356 0.056347647064736876
700000000.0 -0.10824214115631957 0.4004634134958952
720000000.0 0.2821734550809943 0.31421103912586607
740000000.0 -0.4205424400867207 -0.03379015944314774
760000000.0 0.269357356074997 0.3067604064739452
780000000.0 -0.38163347899094097 -0.04688809682144063
800000000.0 0.3191161922540077 -0.16202879421391272
820000000.0 0.3025015283457122 0.07054656838793533
840000000.0 -0.13464709994539045 0.2299955588740981
860000000.0 -0.07435088486833244 0.20684052567856545
880000000.0 -0.0662180037675585 -0.15653564716942442
900000000.0 0.10686975420153863 -0.022082436853283188
920000000.0 -0.05515662915765204 -0.04259816166955922
940000000.0 0.01581729876233835 -0.04222861933311338
960000000.0 -0.02536029348184783 -0.04736090369361818
980000000.0 0.06955927936254926 -0.003541877812292963
1000000000.0 -0.052889825731887816 0.06000783991648396
1020000000.0 -0.05557793215217341 0.07086728137256824
1040000000.0 -0.06257225489670633 0.08030890922419552
1060000000.0 -0.04699186426229154 0.12755757263202733
1080000000.0 0.0413433193069758 -0.14827779204109223
1100000000.0 0.006055354840637088 -0.17846460052363514
1120000000.0 -0.14255441956988812 -0.14625706944793412
1140000000.0 -0.2446293407250925 -0.0010419934556657312
1160000000.0 -0.01776375282619272 0.2797166804147945
1180000000.0 -0.13044125818301866 0.29389704410682793
1200000000.0 -0.20001924785875036 0.2869572637333829
1220000000.0 -0.15713156501628087 -0.3456905907678676
1240000000.0 0.23183568143032526 0.32557882293269935
1260000000.0 -0.2381279574865655 -0.34796836316151214
1280000000.0 -0.20678643657164497 0.3807288869583231
1300000000.0 0.4006412344856975 -0.17766790243899863
1320000000.0 0.18025915813352403 -0.39547864391530896
1340000000.0 0.23021173610402776 -0.3609960618764387
1360000000.0 0.4285824114241716 0.03235712779028115
1380000000.0 0.3492936091138006 -0.24874880541704664
1400000000.0 -0.21450244991748615 -0.3657880696321168
1420000000.0 -0.271279086637449 0.3075263923600689
1440000000.0 0.3702670834216603 0.10766395154704021
1460000000.0 0.036737886178085925 -0.3545147056668154
1480000000.0 -0.2908252176589981 0.14366841239284872
1500000000.0 0.09835684719264877 0.27277570225493897
1520000000.0 0.2553460523227763 0.05209622612997316
1540000000.0 -0.22353888273949002 0.050297348682178965
1560000000.0 -0.0004397072047481963 -0.1929951617215268
1580000000.0 0.07818061820740417 0.14484556695284234
1600000000.0 0.02535283939139341 0.12825049185544277
1620000000.0 -0.09311060858526175 0.04545756048914655
1640000000.0 0.05785068141780489 -0.05347733447606264
1660000000.0 -0.023477746245964142 -0.05057417165466042
1680000000.0 -0.0372009619572501 -0.009550665090614242
1700000000.0 -0.0204877228218982 0.01813749400927258
1720000000.0 -0.009911086240295637 0.008786875825931486
1740000000.0 -0.008306663349158704 0.0006280806900248095
1760000000.0 -0.012592155755577136 -0.02015028178583056
1780000000.0 0.03819923493871431 0.03658607250187598
1800000000.0 -0.07403624290762298 0.042306251371834615
1820000000.0 -0.10925043032620685 0.05218874282702758
1840000000.0 -0.04026702290528255 -0.15952007906659793
1860000000.0 0.20705333334668827 0.01310082077487796
1880000000.0 0.08216544503929335 0.23821114583410044
1900000000.0 -0.271527464337152 0.12223840679424339
1920000000.0 -0.12636785900834097 -0.30480676545516044
1940000000.0 0.19151372986178902 0.3036446075501879
1960000000.0 -0.06279288414240909 -0.37454999768054636
1980000000.0 -0.33567088264561007 0.2014652004078517
2000000000.0 -0.25375381674281805 0.312124767138786
2020000000.0 -0.062668543341608 0.40586945252934087
2040000000.0 -0.18631527429395853 0.37355339606194216
2060000000.0 -0.05938024176330733 0.4182901490118618
2080000000.0 0.022338824824908645 0.4245806300518989
2100000000.0 0.18287517109467588 0.38285322592999627
2120000000.0 0.4111637967898589 0.0888066936140775
2140000000.0 0.28339711164101106 -0.30008988456401625
2160000000.0 0.3713274007636904 -0.14761408493747633
2180000000.0 -0.07067139129351538 -0.37804832783724784
2200000000.0 -0.3625799419566148 0.06009662849166588
2220000000.0 -0.04124689624113868 0.3471777618609258
2240000000.0 0.22960424630352833 0.24649700053717583
2260000000.0 0.2180528046312657 0.24778926720993302
2280000000.0 0.06553031140462146 0.3246053066769348
2300000000.0 0.11646024704089816 0.32473280464572224
2320000000.0 0.34591600328105454 0.1352023927320218
2340000000.0 0.15955952645437768 -0.37460354648861643
2360000000.0 -0.40190929884203835 0.2062526338110015
2380000000.0 0.4561365088575559 -0.2104797039432483
2400000000.0 -0.446971169902546 0.3277580073936704
2420000000.0 0.26729420118390296 -0.545265161911131
2440000000.0 0.08904092998164476 0.6508981434616347
2460000000.0 -0.5150151767131761 -0.473484650505654
2480000000.0 0.691149324178337 0.24658555508965485
2500000000.0 -0.736585195531626 -0.173440082305284
2520000000.0 0.7171232764080956 0.2816790279744252
2540000000.0 -0.5480634357006555 -0.5468249020274195
2560000000.0 0.1061292410483895 0.763206143514297
2580000000.0 0.5213976991558043 -0.548116798302765
2600000000.0 -0.7318228562005943 0.045481039209564283
2620000000.0 0.5228134183129292 0.4704764805259316
2640000000.0 0.6667149477107139 0.011262992147716276
2660000000.0 -0.49078080300290194 -0.3817557482985828
2680000000.0 0.2277822299410509 0.5273700817986368
2700000000.0 0.054503037844790915 -0.521663311647308
2720000000.0 -0.23010233194430413 0.41476178328776053
2740000000.0 0.3829571911079275 -0.1901918444289554
2760000000.0 -0.3761394381634633 0.08950611370021692
2780000000.0 0.3546577394370723 -0.029269364189855342
2800000000.0 -0.32412086989940064 0.07178669189664884
2820000000.0 0.11068770821079796 -0.2979664192746322
2840000000.0 0.19223981305890908 0.24187824788886264
2860000000.0 -0.2784161380845659 0.1321535910290866
2880000000.0 -0.1238898258503459 -0.2819862051328823
2900000000.0 0.299409086591548 0.07731720502927718
2920000000.0 -0.22220553114913275 -0.21640253674039095
2940000000.0 -0.19557565788647133 0.24335415438395694
2960000000.0 0.008709281902658622 0.31267927406634455
2980000000.0 -0.1021107931664961 0.29925009430457783
3000000000.0 -0.3124218727262269 0.047100312250938
3020000000.0 -0.05194124901635167 -0.3124320992669831
3040000000.0 0.21096081629861999 0.2338056543953919
3060000000.0 -0.28684389345305855 -0.12491826401670923
3080000000.0 0.27858719008535776 0.13049786591265586
3100000000.0 -0.2208284162759915 -0.20677513712200302
3120000000.0 0.29763351549762396 0.019523604903077012
3140000000.0 -0.23226319232026846 0.17325640716523596
3160000000.0 0.034013946309380594 -0.2731723048782568
3180000000.0 -0.15690858617623346 0.20640301837619443
3200000000.0 -0.22167964975699356 -0.07804551176744963
3220000000.0 -0.05216432447280204 -0.20095910976670087
3240000000.0 0.15401459174575813 -0.08326955163322497
3260000000.0 0.059245938441203294 0.12631008969815025
3280000000.0 -0.027185802623896086 -0.10180628960355027
3300000000.0 -0.061415281070020346 0.039953692694809056
3320000000.0 -0.04552610558154967 0.005727276726436035
3340000000.0 -0.01747931447936601 -0.01549838173015869
3360000000.0 -0.006407008750020469 0.0047948327867159465
3380000000.0 0.0020414107042788336 0.005555941100493068
3400000000.0 0.016409889398483726 -0.0019397692995946046
3420000000.0 0.026177147942681625 0.014032951028062568
3440000000.0 0.03966760646154471 0.016787710198617255
3460000000.0 0.050474000430016146 -0.026625457333254547
3480000000.0 -0.0709393146047154 0.01253789850238917
3500000000.0 -0.01684663016045489 -0.08504068601414061
3520000000.0 0.08428427061358912 0.05377837347669194
3540000000.0 -0.10969786411993294 0.012640379236856791
3560000000.0 0.12134200293687643 -0.0010844842594239102
3580000000.0 -0.07147462608973564 -0.11108536093101697
3600000000.0 0.13608025757287653 0.06042003162669468
3620000000.0 -0.11857195704546024 0.10967958864246005
3640000000.0 -0.15129530584179784 -0.08909532987030337
3660000000.0 -0.0973549969690904 -0.16116951017081266
3680000000.0 -0.06274141269147324 -0.18395374813241366
3700000000.0 -0.0964853590633491 -0.17042439682112145
3720000000.0 -0.016453504312265048 -0.19435204229524594
3740000000.0 -0.02264954452818614 -0.18710828316912806
3760000000.0 0.06003253292671168 0.1704393068618134
3780000000.0 -0.0743982702432649 -0.15144347932165625
3800000000.0 -0.1462764484118347 0.061280609503616267
3820000000.0 -0.11646851035972784 0.09308509518191235
3840000000.0 -0.021767402330923225 -0.1404503921167736
3860000000.0 -0.030376903032256625 0.14172036467796892
3880000000.0 -0.046979473797524825 0.14576999364381957
3900000000.0 0.16142005861473593 -0.022998074215180714
3920000000.0 -0.07646066603836858 0.1501940487449161
3940000000.0 -0.1407387807861785 -0.09912710580661074
3960000000.0 -0.06692720572707621 -0.16128814271780312
3980000000.0 -0.12137272696504219 -0.12168470279837303
4000000000.0 0.08517019376953616 -0.13875881815810354
