!Created with skrf (http://scikit-rf.org).
# Hz S RI R 50.0 
!freq ReS11 ImS11
400000000.0 0.5253776542830667 0.6944731259845225
420000000.0 0.8417008945603732 -0.07241501900405142
440000000.0 0.7691053123329713 -0.21503179027936453
460000000.0 0.7297701031452687 0.1392638163289697
480000000.0 -0.061019002161514437 -0.6812117958673298
500000000.0 0.009742629742399403 0.6010249911939362
520000000.0 0.024824176063581577 0.5098344480891998
540000000.0 -0.3005097475151226 -0.316899902527458
560000000.0 0.018260900286447754 0.39747801267865024
580000000.0 -0.34921180231662013 -0.09077930407040637
600000000.0 0.3423982465603672 -0.09613232657376436
620000000.0 -0.23035797679013606 -0.27036737046042986
640000000.0 0.37494340436766227 -0.16560711644405648
660000000.0 0.24923400485073136 0.32862646058553757
680000000.0 -0.13727982292972468 -0.423533033194602
700000000.0 0.08665949785935938 0.4544703022794493
720000000.0 -0.39676286141848754 0.24462733101562947
740000000.0 0.030162702201817167 0.42555657444713607
760000000.0 -0.3692044252100532 -0.15407718123336894
780000000.0 -0.35527952348357655 -0.11911170000616975
800000000.0 -0.29705937951435657 -0.15643249711963733
820000000.0 -0.16814677267647413 0.22642154757524308
840000000.0 -0.02876497268334294 -0.2107604598647017
860000000.0 -0.177608128145601 0.02115294691875124
880000000.0 0.12864210378411423 0.07522898205094036
900000000.0 0.026849855348002535 0.09381070834287049
920000000.0 0.03358133303309847 0.03856189330316187
940000000.0 -0.0028837390523542396 -0.02941056578992781
960000000.0 -0.03040203487699956 -0.009591599488516768
980000000.0 0.030721474380006317 -0.042551479990013096
1000000000.0 -0.08581792100311163 0.030211342727289238
1020000000.0 -0.11023014350444017 -0.04462596754843478
1040000000.0 0.09152930296313357 -0.10232397292655024
1060000000.0 0.014375984976197602 0.1661518473390491
1080000000.0 -0.0023001842951372075 0.18997272817182767
1100000000.0 -0.15695259039076218 -0.1399598145152329
1120000000.0 0.17412498260087828 -0.14931513638372976
1140000000.0 -0.14258300082151354 0.20993862861205959
1160000000.0 -0.2738695014494748 0.04366443176622634
1180000000.0 -0.029113069692381206 -0.30599472428280594
1200000000.0 0.22905251811405625 0.2573667731248975
1220000000.0 -0.20034358431819882 -0.3174066566071232
1240000000.0 0.39772569749677084 0.006631283444165685
1260000000.0 -0.3645456442402106 -0.1875196516959514
1280000000.0 -0.3948138207578213 0.1587342604693321
1300000000.0 0.39815935942502245 0.1673456189760183
1320000000.0 0.42916886402662413 -0.0449845906993172
1340000000.0 0.27686290034463856 0.33693120836265306
1360000000.0 0.41908970331135587 0.14196119127782916
1380000000.0 0.09060595461339913 -0.4258667617708987
1400000000.0 -0.14418254595442317 -0.4019277234243531
1420000000.0 0.005089811734110466 0.4081398315130771
1440000000.0 0.31868621674313213 -0.20334443819387094
1460000000.0 0.13367583728969887 -0.3193101234808043
1480000000.0 -0.3115796736704306 -0.04583436257795386
1500000000.0 -0.04045292754234384 0.2780501409528011
1520000000.0 -0.21866610673581008 0.12309625474173971
1540000000.0 0.04290134619165505 0.22076220738431704
1560000000.0 -0.15764619237980507 0.11752228588159626
1580000000.0 -0.17294141401329036 0.03181675471174499
1600000000.0 0.11117504248440276 0.08463989645305399
1620000000.0 -0.05906666499382155 -0.08155188016342081
1640000000.0 -0.0524656771488571 0.05396737104762125
1660000000.0 -0.013366441107747245 0.059279813027661506
1680000000.0 -0.029843731789068784 -0.02643143049707706
1700000000.0 0.007631366150833532 0.02005240652679951
1720000000.0 0.0037751215416159272 0.011397100328819888
1740000000.0 -0.007911963261598596 0.006177112769903891
1760000000.0 0.016932368939071157 0.017870366592170686
1780000000.0 -0.03616308750885498 0.03522137332773773
1800000000.0 -0.09290452741512724 0.011091708552178618
1820000000.0 0.12268941343643826 0.030984920158440055
1840000000.0 -0.11126146411835287 0.12179085133908366
1860000000.0 0.07299966034012835 0.18993822121994466
1880000000.0 0.21399671414411872 -0.10468411190079653
1900000000.0 -0.16996891121184673 -0.2196763785328052
1920000000.0 0.23838122655107702 -0.2095796842955863
1940000000.0 -0.25940613485585196 -0.22030903403700575
1960000000.0 -0.3642015169814452 -0.04629874114018708
1980000000.0 0.3763530561177881 0.1382807793014539
2000000000.0 -0.018426351017229833 -0.4204072063972714
2020000000.0 -0.3575409347515384 -0.23776425789878713
2040000000.0 0.07272981399635642 0.4283392260024366
2060000000.0 0.2547322659088092 0.3520199247575614
2080000000.0 0.34334467776710054 0.26125158607009813
2100000000.0 0.02110469950999566 -0.42415084776172707
2120000000.0 -0.025663549335245513 -0.4125526477825687
2140000000.0 0.160383481724697 -0.3636720695266973
2160000000.0 0.3473609941995957 -0.16530946500102667
2180000000.0 0.35256361079180937 -0.12298398712804165
2200000000.0 0.27801460850243254 -0.2324978719108832
2220000000.0 -0.32976635110328223 -0.12168272792153922
2240000000.0 -0.2751337631116469 -0.20936754298175225
2260000000.0 -0.30944053649080294 -0.14974062352556028
2280000000.0 0.03372928007778589 0.345364210928475
2300000000.0 0.09845062682810837 0.3406704010482974
2320000000.0 0.13951744575805555 0.34982957639596896
2340000000.0 -0.031005822677861505 -0.4083495456978913
2360000000.0 -0.4131356607100298 -0.17271814966910193
2380000000.0 0.053131076121438 0.4948565572276917
2400000000.0 -0.5043176300753601 0.23735585747254945
2420000000.0 0.5564808880535844 -0.2486499858240734
2440000000.0 -0.5494006775789904 0.35884850675511865
2460000000.0 -0.6704741638760017 -0.20255487583660708
2480000000.0 0.6660772570916216 0.30508170826921077
2500000000.0 -0.3250584704291322 -0.6807866702279413
2520000000.0 0.7468658714608539 -0.17649597491527133
2540000000.0 -0.5286912032943848 -0.5616345648241556
2560000000.0 -0.4534984230731105 0.6196919811291342
2580000000.0 0.010432506218194087 -0.7536579162233762
2600000000.0 -0.7330148789457611 0.009237068771584755
2620000000.0 -0.036818242270648276 0.7056636665350954
2640000000.0 0.527649164419796 -0.41161212366864364
2660000000.0 -0.4801987635962888 -0.4062895673111362
2680000000.0 -0.19238759086659243 0.5508176904229984
2700000000.0 -0.3139757050269043 -0.4286565648980529
2720000000.0 -0.10598658413291591 0.47246522017249937
2740000000.0 0.4249908098200164 -0.09028483199557415
2760000000.0 -0.3228977024017198 0.22172233711910094
2780000000.0 0.3503743388871792 0.08508176075962745
2800000000.0 -0.2679731207162462 -0.20370597875840776
2820000000.0 0.09854786149176067 -0.30019528809534446
2840000000.0 0.038435613483448504 0.3053695493457013
2860000000.0 -0.19575244046990906 -0.22683017829723065
2880000000.0 0.0829382324388851 -0.282138176138338
2900000000.0 -0.29273192510975343 -0.011776637179851885
2920000000.0 -0.1553258747964927 0.2545541439460416
2940000000.0 0.11542367167635895 -0.28586267483285277
2960000000.0 -0.16028734463790412 -0.27165872528331014
2980000000.0 -0.22786629548746526 -0.21962575320057562
3000000000.0 -0.3014580896960578 -0.09725928650855539
3020000000.0 0.2588433686102891 0.18969751963327203
3040000000.0 0.301784169575136 0.10886366392001068
3060000000.0 0.24753719637262522 0.19205504102084264
3080000000.0 0.21233102615260446 -0.2146122695908219
3100000000.0 -0.14866815722878318 0.2512813536851396
3120000000.0 -0.14307094589959957 -0.24636162361234804
3140000000.0 -0.2685039497899576 0.05934841968773815
3160000000.0 0.13532149187460485 -0.2273162091558259
3180000000.0 -0.18434939060557023 0.16993032630508967
3200000000.0 0.20729520887019545 -0.11306091554154186
3220000000.0 -0.017795371184995388 -0.20839284836716826
3240000000.0 -0.1179609003075362 -0.1292828633157622
3260000000.0 0.14027292674056513 -0.03401716829474816
3280000000.0 -0.00011905795447209742 0.10146135418738648
3300000000.0 0.04501370902339314 -0.052829317616842876
3320000000.0 0.02433716381077986 -0.03543875314569724
3340000000.0 -0.011922199901483037 0.0185575723876896
3360000000.0 0.006230677516151712 -0.0054497202979419184
3380000000.0 -0.0005727451163349389 0.002861325540237748
3400000000.0 -0.011287097795151817 0.009840204262131736
3420000000.0 -0.021252871084333658 -0.02537732365309515
3440000000.0 -0.024405530158628987 0.04157692761740996
3460000000.0 0.0511768861738372 0.03785976070644848
3480000000.0 -0.058173451275946655 0.05117284525038221
3500000000.0 0.08785376419530537 -0.011695456890532403
3520000000.0 0.10163369834557176 0.002406201944699403
3540000000.0 -0.09844824020171897 0.05663105555122197
3560000000.0 0.07290710688618628 0.09230913621385807
3580000000.0 0.12662934765389466 0.03850974020740654
3600000000.0 -0.1058843581521194 0.10963331869831422
3620000000.0 0.10324882873242916 -0.1278429852068693
3640000000.0 -0.0787664697604938 -0.16452813181447465
3660000000.0 -0.17152469447987967 -0.08412172525318438
3680000000.0 0.013488910414355973 -0.1920914631204992
3700000000.0 -0.14993106849885773 -0.1189375052634341
3720000000.0 0.054822419770215625 -0.18063825092813335
3740000000.0 0.09861055308849205 0.1517609433152643
3760000000.0 0.1416055551298967 -0.10927633963967145
3780000000.0 -0.11093721525040369 0.13574304435571855
3800000000.0 0.0444918701278028 -0.16341485348213788
3820000000.0 -0.12105772368915743 0.10197587844354976
3840000000.0 -0.14609562272928914 0.011134864426279596
3860000000.0 0.004167818089873282 -0.14191381069895584
3880000000.0 0.09929955311629701 0.10291229983219516
3900000000.0 -0.14034217406689914 0.048205900116643344
3920000000.0 -0.07613518517945139 0.13430244324540253
3940000000.0 -0.15191183406742673 -0.07410827873793481
3960000000.0 -0.06656507060382803 0.16347522971208628
3980000000.0 0.14030832525604442 0.10101786124596386
4000000000.0 0.028305580500418363 -0.1603213775937299
