!Created with skrf (http://scikit-rf.org).
# Hz S RI R 50.0 
!freq ReS11 ImS11
400000000.0 0.5236809942312157 0.6960323104680457
420000000.0 0.8408121402373412 -0.08077352556267542
440000000.0 0.767326274041118 -0.2217795720780041
460000000.0 0.7275443609685749 0.15115155834770896
480000000.0 -0.060194160270264016 -0.6813982286839932
500000000.0 0.02945813452593956 0.60032952813717
520000000.0 0.045813036146148275 0.5083641428673575
540000000.0 -0.3206664254806267 -0.29611179715688435
560000000.0 0.04503108168213128 0.39514369966510116
580000000.0 -0.35038536842465023 -0.08545995263962212
600000000.0 0.3435299923735076 -0.0925942979688788
620000000.0 -0.18440491790622696 -0.30368920503005753
640000000.0 0.3906123014603673 -0.12481237099158037
660000000.0 0.2378214781103258 0.33733647369556463
680000000.0 -0.1345295246461195 -0.4241788835534129
700000000.0 0.08990905267921752 0.45351375146173306
720000000.0 -0.41968645690547857 0.2024346042392399
740000000.0 0.022423251918458148 0.4259267362782216
760000000.0 -0.37657752204057654 -0.13564363198499446
780000000.0 -0.3603175318010087 -0.1014186775046534
800000000.0 -0.30484479885072335 -0.13965805584637586
820000000.0 -0.15951374732653995 0.23243496241081113
840000000.0 -0.007590904729180833 -0.21255599424339994
860000000.0 -0.17764249521458506 0.021883712826853637
880000000.0 0.1366230111964223 0.05985183719244603
900000000.0 0.022535516403623664 0.09519382859555671
920000000.0 0.017994727187188204 0.048009708598816675
940000000.0 0.00984563349770874 -0.027963342989685676
960000000.0 -0.014702011310155885 -0.027947322259081083
980000000.0 0.03194707246645339 -0.04175961515566501
1000000000.0 -0.08537924951340069 0.03125116279614265
1020000000.0 -0.11005734328206662 -0.04614026211154464
1040000000.0 0.08607910991228306 -0.10782628583523918
1060000000.0 0.03397382895530446 0.16412233830065243
1080000000.0 0.02952006497481123 0.18829971787472313
1100000000.0 -0.17079543986957058 -0.12288889391177217
1120000000.0 0.177583023209872 -0.14483825414253776
1140000000.0 -0.1636891380886924 0.19344474393726518
1160000000.0 -0.277322940873568 0.0012305117425688403
1180000000.0 -0.0043060203733400445 -0.3077315816311499
1200000000.0 0.2192033390018974 0.2661457531789605
1220000000.0 -0.22500224589416976 -0.301243564042033
1240000000.0 0.3976142808154037 -0.007344506128575233
1260000000.0 -0.37153616197275663 -0.17303646547782103
1280000000.0 -0.39374357859875436 0.16033302282350329
1300000000.0 0.3948665448273437 0.17429335955365863
1320000000.0 0.4299892160959754 -0.03437624123397889
1340000000.0 0.26826566429595117 0.3438254220185601
1360000000.0 0.4187805461224214 0.14337551684134542
1380000000.0 0.06293042154721604 -0.43121234558709715
1400000000.0 -0.17283150505728045 -0.3907373810827138
1420000000.0 0.028481325575259713 0.4071923882366272
1440000000.0 0.30522959014848394 -0.2219943630695067
1460000000.0 0.15847857364529816 -0.3074235284174068
1480000000.0 -0.29997514731925756 -0.0965585373818479
1500000000.0 -0.03666372371289475 0.2792919674422468
1520000000.0 -0.21296772309549034 0.1342094869164948
1540000000.0 0.05742738291634587 0.21783533094307064
1560000000.0 -0.14262941468771573 0.13547109201908225
1580000000.0 -0.16768986240072084 0.05153307280406658
1600000000.0 0.09206642839982973 0.10438420092285296
1620000000.0 -0.005509131004796526 -0.10017717578986295
1640000000.0 -0.07247424698773823 0.02041348760780134
1660000000.0 -0.036545065935594076 0.04881759240811794
1680000000.0 -0.03879408512916351 -0.010217929315661994
1700000000.0 0.02144934523986952 0.0017984855297529178
1720000000.0 0.011496158788842433 0.0015439246528833972
1740000000.0 -0.0014078428277701255 0.00936463200011059
1760000000.0 -0.005616521184316791 0.0243947588848567
1780000000.0 -0.03308317873040653 0.038683467937921844
1800000000.0 -0.09104893597640996 0.021508540347781765
1820000000.0 0.12058293471643398 0.03809104992461077
1840000000.0 -0.1240658773335007 0.10779861617741113
1860000000.0 0.04761126394086726 0.19741248339911696
1880000000.0 0.21780666431140866 -0.09687591037113835
1900000000.0 -0.1683426051844227 -0.22065236624858692
1920000000.0 0.23312332174949604 -0.21555366936973164
1940000000.0 -0.2654494567189371 -0.21300805651686022
1960000000.0 -0.36609072420258304 -0.028183247604084402
1980000000.0 0.38552128829547805 0.1103514883761758
2000000000.0 -0.03867810898984327 -0.4190915923347835
2020000000.0 -0.36665817947677204 -0.22384528035056203
2040000000.0 0.10960654723124763 0.42058561212901663
2060000000.0 0.25145962308115466 0.3548438822069826
2080000000.0 0.36173332310056094 0.23598363402297232
2100000000.0 0.027519977475738047 -0.42458229466325825
2120000000.0 -0.03275189530500489 -0.41274018498047116
2140000000.0 0.18504216666855944 -0.35271434722275524
2160000000.0 0.3546590911056652 -0.14987129168823624
2180000000.0 0.3625315622538736 -0.09012405905858781
2200000000.0 0.3041171326550182 -0.1974457032124216
2220000000.0 -0.32666172539959054 -0.13064366162449512
2240000000.0 -0.2262923697268751 -0.2619580176492752
2260000000.0 -0.2989140419193741 -0.1707449087258659
2280000000.0 0.03285587774519244 0.3456665708823432
2300000000.0 0.09776428456251118 0.3407512731469848
2320000000.0 0.12748909566264946 0.3539633330781422
2340000000.0 -0.01173191383111528 -0.4088948259613367
2360000000.0 -0.41323648213969416 -0.17195727604156813
2380000000.0 0.08894508721289363 0.4899868874737285
2400000000.0 -0.4872224254469847 0.2705852776399558
2420000000.0 0.5366704066272375 -0.288970865226828
2440000000.0 -0.5261288924857191 0.39242285846425007
2460000000.0 -0.678068951159268 -0.1768300611678892
2480000000.0 0.6806641923531913 0.27190457675270535
2500000000.0 -0.39206263821578297 -0.6448888117495436
2520000000.0 0.728736995457774 -0.2415712800422385
2540000000.0 -0.5191939756917051 -0.5711481761960152
2560000000.0 -0.42288904052069365 0.641236479985497
2580000000.0 0.08810242668505985 -0.7488339301929304
2600000000.0 -0.7325004100030283 -0.017442947229817093
2620000000.0 -0.08681909659712282 0.7014767936909853
2640000000.0 0.5627459092347843 -0.3616958716257001
2660000000.0 -0.4438663763899122 -0.4448167948799568
2680000000.0 -0.2697296256991793 0.5164790918598113
2700000000.0 -0.2794922891018538 -0.4508614554668349
2720000000.0 -0.13062970404479046 0.4654274867007235
2740000000.0 0.42090066023472233 -0.10530478550210032
2760000000.0 -0.33172599777480755 0.20709630145608465
2780000000.0 0.3497989079008141 0.08569058311490725
2800000000.0 -0.2736820093315249 -0.19526804613739576
2820000000.0 0.08353853900937819 -0.3044707561510559
2840000000.0 0.06470750911632751 0.30064524195730863
2860000000.0 -0.2278200716138552 -0.19363801438638997
2880000000.0 0.08249410697979971 -0.2824421237620013
2900000000.0 -0.2924023970439068 0.016002175129823357
2920000000.0 -0.13855878443971076 0.2642730285634318
2940000000.0 0.12226588364965592 -0.28353516510346516
2960000000.0 -0.15838808230168672 -0.2731325935209871
2980000000.0 -0.2588523891980448 -0.18352525793396052
3000000000.0 -0.29259233392614215 -0.12257164251065136
3020000000.0 0.22370118899997796 0.2304571462479583
3040000000.0 0.28902244699185076 0.13993545485006798
3060000000.0 0.22001932658069437 0.2233295945920092
3080000000.0 0.24171918542866103 -0.18089917296977048
3100000000.0 -0.1251232008498787 0.26434389893205973
3120000000.0 -0.112142050479443 -0.26165816747343135
3140000000.0 -0.2734974850431582 0.0275788440494119
3160000000.0 0.16917173738217114 -0.20276578041342638
3180000000.0 -0.2058826612655895 0.14257809080090464
3200000000.0 0.2155131155947156 -0.09625488076838928
3220000000.0 0.0054297271521208945 -0.2088086261476223
3240000000.0 -0.10458122214233362 -0.13986617609894428
3260000000.0 0.1416635823238479 -0.02537560563707601
3280000000.0 0.008896113888865383 0.10068266297134841
3300000000.0 0.043405838612758416 -0.05343343048232099
3320000000.0 0.01639153308696118 -0.03905350142074981
3340000000.0 -0.017619797358993352 0.011974670186242873
3360000000.0 0.007248531046965989 0.003197627657887354
3380000000.0 -0.0006298460845900733 0.0031161419738756453
3400000000.0 -0.012606471476170222 -0.009275395599465443
3420000000.0 -0.010123944202138874 -0.03237197563904005
3440000000.0 -0.030175930224763208 0.03864349281553272
3460000000.0 0.022002964245035506 0.06029832047476161
3480000000.0 -0.056540560244728685 0.05420522609197242
3500000000.0 0.08516237291574645 0.025673672392880133
3520000000.0 0.08869647530892392 0.05033241400372879
3540000000.0 -0.11356295634552625 0.010410454073301231
3560000000.0 0.015071741387640879 0.11694934407630601
3580000000.0 0.08441503524694978 0.10154598524863234
3600000000.0 -0.11438256342716964 0.10223420824576641
3620000000.0 0.13951611747189605 -0.08688054805433247
3640000000.0 -0.021865665185649457 -0.1803625153303856
3660000000.0 -0.13909879820293167 -0.13019744350647464
3680000000.0 0.06969449910114414 -0.17899085122121444
3700000000.0 -0.11208264904092778 -0.15455997703056645
3720000000.0 0.09101247731240643 -0.16478758609438307
3740000000.0 0.05226103524947483 0.1725756692410697
3760000000.0 0.15465668185888024 -0.08778443419493424
3780000000.0 -0.12525979303226784 0.1214041911573529
3800000000.0 0.06534006456131446 -0.15497210168894818
3820000000.0 -0.12639029459220874 0.09350592309661969
3840000000.0 -0.14538048228757064 0.00862485775193658
3860000000.0 0.0001724008509644956 -0.14104984817703803
3880000000.0 0.10389095017219836 0.09675089310124076
3900000000.0 -0.14376885675740333 0.031991691724679805
3920000000.0 -0.08870355974382911 0.12544012609324617
3940000000.0 -0.15089746571369875 -0.07348254877641097
3960000000.0 -0.06221104169934019 0.16419621675383042
3980000000.0 0.14462715044505353 0.09347210337058909
4000000000.0 -0.02179088985932608 -0.1605361819334025
