!Created with skrf (http://scikit-rf.org).
# Hz S RI R 50.0 
!freq ReS11 ImS11
400000000.0 0.5086191834405894 0.7062685478705383
420000000.0 0.8427132613606306 -0.059890777089194096
440000000.0 0.7671292694474791 -0.22307559145323544
460000000.0 0.730979409651438 0.13387525984557086
480000000.0 -0.05906962950793011 -0.6811745620462292
500000000.0 -0.010194528249002714 0.6009967298790009
520000000.0 0.00040237273304994655 0.5104749749310488
540000000.0 -0.2896338005959392 -0.3269456104020494
560000000.0 0.009233306075313709 0.39818357931921794
580000000.0 -0.35613433747865775 -0.060359641061449094
600000000.0 0.33766703674620346 -0.11215566093927162
620000000.0 -0.23004739065610402 -0.27071139738182337
640000000.0 0.38536414413816805 -0.1386887975397059
660000000.0 0.27104306329236794 0.31054996614989216
680000000.0 -0.1238679584345322 -0.42778656417735555
700000000.0 0.072995684373078 0.45715766539802694
720000000.0 -0.40491847790983193 0.2315074205465149
740000000.0 0.021828388427925016 0.4261225227233126
760000000.0 -0.3664830633910538 -0.15991944482238826
780000000.0 -0.3431619554830828 -0.1500973651735318
800000000.0 -0.29424741934792487 -0.16200401782774232
820000000.0 -0.15716695362609012 0.2344441945035683
840000000.0 -0.029736981256381807 -0.2105096488061357
860000000.0 -0.17828388450396065 0.0019276139716908852
880000000.0 0.11633744290836674 0.09268654164617227
900000000.0 0.019420242677880086 0.09603244728654237
920000000.0 0.0430169204312693 0.028179127373532224
940000000.0 -0.01727863907185965 -0.02436053728944909
960000000.0 -0.028146934638456227 -0.015188143159331296
980000000.0 0.024270207765312173 -0.0464406890167359
1000000000.0 -0.0816593900499527 0.038680049232267706
1020000000.0 -0.11735277200178436 -0.016632569322932906
1040000000.0 0.07403739893228593 -0.11471475784390968
1060000000.0 0.006755216517575756 0.16591602043703693
1080000000.0 -0.03236791971229602 0.187046270259619
1100000000.0 -0.12554707116507782 -0.16915798028461082
1120000000.0 0.17678557854830976 -0.14763080492206487
1140000000.0 -0.14811247793630936 0.20691133098152834
1160000000.0 -0.26489934413312255 0.08432890274907964
1180000000.0 -0.05194069728590705 -0.3031301710107505
1200000000.0 0.2192564651007347 0.2653055842610149
1220000000.0 -0.1921244879989999 -0.32255814656030996
1240000000.0 0.3948431130443019 0.048619443835466965
1260000000.0 -0.3541257493897192 -0.20684041146173093
1280000000.0 -0.40007939128462056 0.1454428915951451
1300000000.0 0.395200825860295 0.1739607748515123
1320000000.0 0.42880575004351373 -0.04656092605400775
1340000000.0 0.28735583329874287 0.32781938902989927
1360000000.0 0.42316540409715997 0.1278124820089404
1380000000.0 0.07915065902033433 -0.4276685669297405
1400000000.0 -0.13359459482437844 -0.40537066411009376
1420000000.0 -0.006919389452018781 0.4084032917704345
1440000000.0 0.30556707316164755 -0.22302995469799936
1460000000.0 0.10711358913164137 -0.32956901734893096
1480000000.0 -0.3143697610766832 -0.020108978376957055
1500000000.0 0.0014135389630150798 0.28077982369657944
1520000000.0 -0.2183524753162955 0.12305746106624214
1540000000.0 0.020622548899027184 0.22369653229524902
1560000000.0 -0.17595319615986757 0.08854894801018322
1580000000.0 -0.1744283487275945 0.023995328949792467
1600000000.0 0.09443913288774212 0.1039372368382901
1620000000.0 -0.049409729026681566 -0.08794723277128554
1640000000.0 -0.05510097815309304 0.05095635546133491
1660000000.0 -0.006335370668313735 0.060171689951468085
1680000000.0 -0.02862830753357215 -0.02680935515721935
1700000000.0 -0.01915753502853586 0.008159723265391414
1720000000.0 -0.0029737692182333847 0.011207601592298388
1740000000.0 0.000296207481889939 0.010137041166628771
1760000000.0 0.023285729093502423 0.006503328081947814
1780000000.0 -0.043434419398695016 0.02535639715796389
1800000000.0 -0.09352991439223585 0.005332234967928978
1820000000.0 0.11645413734878998 0.04968898036919595
1840000000.0 -0.11884521408301478 0.11438623446867525
1860000000.0 0.06665476408474377 0.19188067985540463
1880000000.0 0.21454627599818457 -0.10325807052891281
1900000000.0 -0.16771870803016273 -0.2211334520594098
1920000000.0 0.2357451610172949 -0.21284881486943508
1940000000.0 -0.26113324939393057 -0.21872284123965607
1960000000.0 -0.36526121361295993 -0.03688199783740618
1980000000.0 0.3778451517046028 0.13364337353796651
2000000000.0 -0.011119388733758504 -0.4206204948785341
2020000000.0 -0.36018513218404574 -0.23380602820081883
2040000000.0 0.057267589086963507 0.43089969648108367
2060000000.0 0.26686071450279186 0.34307890341969266
2080000000.0 0.3590623680175281 0.23951010089716163
2100000000.0 0.011977326336160344 -0.4246824840037141
2120000000.0 -0.04139047919286215 -0.4114151662678967
2140000000.0 0.18356861379893416 -0.35282689037455234
2160000000.0 0.35490000363863194 -0.14968655832336172
2180000000.0 0.3538119946364659 -0.12113340062189985
2200000000.0 0.2769546336452793 -0.2347419154143977
2220000000.0 -0.33015859125155383 -0.12275787471846374
2240000000.0 -0.2693425407086741 -0.21680545031305942
2260000000.0 -0.30315080185808574 -0.16229951986696095
2280000000.0 0.0027444240526889444 0.34704748897088916
2300000000.0 0.0784786953933754 0.34615194582546527
2320000000.0 0.10612828377690582 0.3612413721725188
2340000000.0 -0.016645689901167486 -0.40910848873850925
2360000000.0 -0.4105229821723433 -0.17813761567855
2380000000.0 0.04658324738474234 0.4951685612082795
2400000000.0 -0.5135970850809509 0.21512477242363337
2420000000.0 0.5575465943466049 -0.2451196366233449
2440000000.0 -0.5623808943853038 0.33797096598171394
2460000000.0 -0.6682327682397897 -0.20964279596808216
2480000000.0 0.6610288950086972 0.31587534710690096
2500000000.0 -0.32370171224106237 -0.6815359496529005
2520000000.0 0.736749207086421 -0.21516900735699243
2540000000.0 -0.5549885222702523 -0.5361926622157184
2560000000.0 -0.44588016974806893 0.6256020532933948
2580000000.0 0.05392884660762708 -0.7523816255876125
2600000000.0 -0.7334008528269981 -0.016247146106185873
2620000000.0 -0.013368830767854936 0.7071911148568403
2640000000.0 0.5450706572975779 -0.3891840321979069
2660000000.0 -0.45315779550098173 -0.4368530148800496
2680000000.0 -0.2396585059179187 0.5323197778937925
2700000000.0 -0.28538366008845617 -0.4486347805696289
2720000000.0 -0.12089435119493785 0.46915873060658814
2740000000.0 0.42532575162856856 -0.08963185113482004
2760000000.0 -0.3354503680322825 0.20173673635021155
2780000000.0 0.3516510118018821 0.07914748433672238
2800000000.0 -0.25980911796093425 -0.21355994721412414
2820000000.0 0.10882828748477791 -0.29636495398725277
2840000000.0 0.039385452370032666 0.3051954262846912
2860000000.0 -0.21898347803085513 -0.20431877132928417
2880000000.0 0.07327041578801971 -0.2851685717826726
2900000000.0 -0.2918789206338755 0.028586229850582942
2920000000.0 -0.13429440087007993 0.26667583644941684
2940000000.0 0.09744671479037562 -0.29290659212743003
2960000000.0 -0.16113837270410755 -0.2714881928735326
2980000000.0 -0.22917913925869687 -0.21895332840316062
3000000000.0 -0.2965697535387104 -0.11406512146333955
3020000000.0 0.23960310258388673 0.21409151361440015
3040000000.0 0.2910227418902475 0.13627940010887585
3060000000.0 0.22821583901322945 0.21530216941041525
3080000000.0 0.22443019229722183 -0.20223531445656281
3100000000.0 -0.11902699941615721 0.26703735140172685
3120000000.0 -0.12218205707934612 -0.2573893526296767
3140000000.0 -0.2705046875500754 0.05008485852123114
3160000000.0 0.1434114398873187 -0.22215045753319304
3180000000.0 -0.18477760373779617 0.16948468560551355
3200000000.0 0.21153187690990558 -0.1048603374973171
3220000000.0 -0.00595133396803724 -0.20911770587952655
3240000000.0 -0.11118238835656576 -0.13473089381736425
3260000000.0 0.14235145741042826 -0.023960064082430368
3280000000.0 0.0061449800639983366 0.10141406230163182
3300000000.0 0.044223228596424434 -0.05356558141739421
3320000000.0 0.021463019526102745 -0.03706589187531128
3340000000.0 0.0038867000049179717 0.021316010335342757
3360000000.0 0.007649724025328358 -0.0019408869298576236
3380000000.0 0.0006069039490491704 -0.0033361015911898047
3400000000.0 -0.013990299947885382 0.006355606923718582
3420000000.0 -0.024632373038812858 -0.02242820995016703
3440000000.0 -0.016499235291232282 0.04578620561514179
3460000000.0 0.026478341901863274 0.058034363891744406
3480000000.0 -0.050006803800281975 0.059987384795236603
3500000000.0 0.08757787625955649 0.015678004356534343
3520000000.0 0.09910183499366862 0.024448161233029005
3540000000.0 -0.10685569963515343 0.04009272337883598
3560000000.0 0.05043155912941867 0.10651747115233415
3580000000.0 0.12324591591170983 0.04869812720794095
3600000000.0 -0.10780328241670882 0.10902958446903956
3620000000.0 0.11112627532414622 -0.12199169235279211
3640000000.0 -0.052575964669728484 -0.17511708049888705
3660000000.0 -0.1553391683968132 -0.1114318868496513
3680000000.0 0.04230794197428482 -0.1879921747228991
3700000000.0 -0.1344272571640921 -0.13674510322518948
3720000000.0 0.08550978911083401 -0.16821283886756408
3740000000.0 0.05813343344734153 0.17130511862713474
3760000000.0 0.15794431829487734 -0.08280798415703176
3780000000.0 -0.130375867295446 0.11660879069382808
3800000000.0 0.07919266675182171 -0.1492524644451751
3820000000.0 -0.13045362230055854 0.08855114344634941
3840000000.0 -0.145881741464033 -0.00876542126603015
3860000000.0 0.02147666228945532 -0.14006149172262494
3880000000.0 0.08538267185939985 0.1143855874291855
3900000000.0 -0.14618194651857172 0.023519488880801177
3920000000.0 -0.09390278814981418 0.12242140593515073
3940000000.0 -0.14087352444530957 -0.09232859092471911
3960000000.0 -0.08472271036947247 0.1541150891594014
3980000000.0 0.12492910437969539 0.1187535355724702
4000000000.0 0.01879836678027731 -0.16083995622572114
