!Created with skrf (http://scikit-rf.org).
# Hz S RI R 50.0 
!freq ReS11 ImS11
400000000.0 0.5161827280550911 0.7001534027815132
420000000.0 0.8451425223508016 -0.00834898749292037
440000000.0 0.7785714239612481 -0.17920101435573965
460000000.0 0.7194055698620934 0.1878184383174142
480000000.0 -0.04369299293764835 -0.6827969383231716
500000000.0 0.019761834593235602 0.600504244340276
520000000.0 0.035746237453219566 0.5091142187253549
540000000.0 -0.33262621784984936 -0.28231403560615376
560000000.0 0.06327892533573931 0.3919631874311605
580000000.0 -0.3526903608895218 -0.07379958415680997
600000000.0 0.35207573188897 -0.052611628764159576
620000000.0 -0.16496163337184683 -0.3154396371852615
640000000.0 0.3994345110703387 -0.09628485877859883
660000000.0 0.23134188723244198 0.34250075195284335
680000000.0 -0.1135332321000383 -0.4307741735144519
700000000.0 0.04389799422963407 0.4603455556465409
720000000.0 -0.4127578177363901 0.21603061118885256
740000000.0 -0.00636833174375528 0.426505461038906
760000000.0 -0.37993557607420153 -0.12666356958737676
780000000.0 -0.3688039370938753 -0.06401387808068995
800000000.0 -0.3127094522523612 -0.11929858092919059
820000000.0 -0.15537436754901948 0.23475811470561303
840000000.0 -0.03786228003407191 -0.20937623863911198
860000000.0 -0.17350701940460342 0.04542222572793627
880000000.0 0.1394250309530722 0.053599399794683665
900000000.0 0.025191075210336027 0.09444829537472883
920000000.0 0.004787139182653652 0.05127429134684369
940000000.0 0.026360701710028574 0.014374301953433538
960000000.0 0.023490398214045576 -0.021461380996217704
980000000.0 0.0524684011377859 -0.0029015114283489347
1000000000.0 -0.08893279526179372 0.020028401275782776
1020000000.0 -0.11331823723313278 -0.037268699240186706
1040000000.0 0.07306465199065837 -0.11743902851782764
1060000000.0 0.08218283876576514 0.14675471545449792
1080000000.0 0.0717949715127035 0.1767687707230561
1100000000.0 -0.18944684477266144 -0.0917975638136329
1120000000.0 0.1751688672645391 -0.14747382902288061
1140000000.0 -0.1872853674647964 0.17067102219809532
1160000000.0 -0.2747189739897625 -0.038761090387841854
1180000000.0 0.04441279521466463 -0.30466733547230507
1200000000.0 0.1708282346053043 0.29982620526889353
1220000000.0 -0.19112664050133857 -0.32412285507347083
1240000000.0 0.39688913904748724 0.02488689761443034
1260000000.0 -0.3667227325267728 -0.1821753713304743
1280000000.0 -0.3961388913798561 0.15186197435879698
1300000000.0 0.37844111909160244 0.20547268049122022
1320000000.0 0.43072713380852184 0.01075080307138927
1340000000.0 0.24807739685019395 0.3587542765208617
1360000000.0 0.42231798857776254 0.13416834580708611
1380000000.0 0.019870860481593887 -0.43560654253323994
1400000000.0 -0.23896679334712867 -0.35388821155958033
1420000000.0 0.07049859149278513 0.40133181537494994
1440000000.0 0.30933142854431767 -0.2153905507911147
1460000000.0 0.17831931783461652 -0.29650717813196226
1480000000.0 -0.29150234422083465 -0.12210481333665187
1500000000.0 -0.04113221551385974 0.28049622541588337
1520000000.0 -0.20392017915563562 0.1504558629325642
1540000000.0 0.10293416483693474 0.2016823048019332
1560000000.0 -0.12332915626571564 0.1537111856277339
1580000000.0 -0.17113282262453688 0.03730432981555188
1600000000.0 0.04199225935285698 0.1320782403089711
1620000000.0 0.07586490087558 -0.06515420226097883
1640000000.0 -0.024879198069683087 -0.0712193806337337
1660000000.0 -0.06137720714373986 0.00044433846048690145
1680000000.0 -0.022836184881776724 -0.03334768946448615
1700000000.0 -0.008293529800258041 -0.019638472360240893
1720000000.0 -0.004533857903643239 -0.009251742489473266
1740000000.0 0.00761609451853872 -0.005854671870388415
1760000000.0 -0.015396996211669655 -0.020892617582973883
1780000000.0 -0.03594530707227423 0.03637518309618669
1800000000.0 -0.08833085826784345 0.028768979623924888
1820000000.0 0.120831642206465 0.031604287210342745
1840000000.0 -0.14057687907627137 0.08225784854321569
1860000000.0 0.005363619125314051 0.2018067355609965
1880000000.0 0.22711437709939808 -0.07168867568633486
1900000000.0 -0.18357874194602705 -0.2085500282109004
1920000000.0 0.1882893053506171 -0.25583305487076247
1940000000.0 -0.30134271092721643 -0.1582095899459025
1960000000.0 -0.36647583501368364 0.02377321124339535
1980000000.0 0.3943946969689676 0.07248469186564113
2000000000.0 -0.047816577373519326 -0.4185032561817014
2020000000.0 -0.3689863500041649 -0.22127407193051182
2040000000.0 0.08341093669073413 0.4277566833241877
2060000000.0 0.2477539675858383 0.3587676848076445
2080000000.0 0.34569800928209216 0.26121547907455
2100000000.0 0.05950137153627643 -0.4225876884445851
2120000000.0 -0.017337822739640022 -0.41473201474885585
2140000000.0 0.20140425274574372 -0.34426577830897986
2160000000.0 0.37662504567821603 -0.08159031175185565
2180000000.0 0.37237769418482636 -0.03261686320768798
2200000000.0 0.34236697075754746 -0.12034850679794537
2220000000.0 -0.2666678629111989 -0.23028909103238512
2240000000.0 -0.20708222332184076 -0.27733544622371326
2260000000.0 -0.28823849437820465 -0.1880241116928592
2280000000.0 0.026980964525814208 0.3454074963039624
2300000000.0 0.10504794409778008 0.3377118724006169
2320000000.0 0.13318549552831763 0.35099613787516787
2340000000.0 -0.04707110176638261 -0.4063507984492479
2360000000.0 -0.4281833679093329 -0.1309298030598839
2380000000.0 0.15949033158186882 0.4719636638411953
2400000000.0 -0.42708768179967493 0.3589978668742535
2420000000.0 0.46375079100413136 -0.39626654928265925
2440000000.0 -0.4515530485056592 0.47751685178808123
2460000000.0 -0.6979916706934767 -0.07082624055696611
2480000000.0 0.706793049904932 0.1971964993909097
2500000000.0 -0.40331207854477347 -0.6391025139077906
2520000000.0 0.71995394952762 -0.26935231079240607
2540000000.0 -0.5672266538826967 -0.5242248887963773
2560000000.0 -0.4210188516876419 0.6429614055356869
2580000000.0 0.0995906651004805 -0.7475200265514446
2600000000.0 -0.7301435166453712 -0.06034624196129265
2620000000.0 -0.08667591766052628 0.7007642530328854
2640000000.0 0.5566038153539549 -0.3694771319321976
2660000000.0 -0.4071788984715297 -0.4769560469968238
2680000000.0 -0.28134023730037555 0.5083649264179343
2700000000.0 -0.24545227997539953 -0.46826233208458096
2720000000.0 -0.15881059896321623 0.45439267491272406
2740000000.0 0.4244266802541531 -0.07991129642753926
2760000000.0 -0.32746600726244784 0.21073171859346412
2780000000.0 0.3551721918175842 0.05016550014876788
2800000000.0 -0.29545497138534826 -0.15785017152261552
2820000000.0 0.029538901613332842 -0.31334181839913605
2840000000.0 0.11568582177430604 0.28459183039563246
2860000000.0 -0.24542689194996264 -0.17134681079970748
2880000000.0 0.04744930599001296 -0.2907516662160047
2900000000.0 -0.2925009750400987 0.027276079517921967
2920000000.0 -0.15642597781926376 0.255477196671338
2940000000.0 0.11493088435615123 -0.2878322692757656
2960000000.0 -0.14252169571280723 -0.2829241446072904
2980000000.0 -0.1981324072091599 -0.2479820721335739
3000000000.0 -0.27766776667167925 -0.15586986307703704
3020000000.0 0.20212952647082938 0.2503734872890182
3040000000.0 0.28142156744813734 0.15594038524879447
3060000000.0 0.14926822857208755 0.27626171537008115
3080000000.0 0.2804133584462655 -0.11260932545150582
3100000000.0 -0.23025305964335482 0.17963135333813554
3120000000.0 -0.05599719663704652 -0.27886280004923675
3140000000.0 -0.2722532441556353 -0.03406017252942811
3160000000.0 0.21412910594563345 -0.1535884737901286
3180000000.0 -0.23630361744976086 0.0800042107871409
3200000000.0 0.23378944209664002 -0.022070869102758354
3220000000.0 0.050070330993697766 -0.2013698921957703
3240000000.0 -0.0934971083918248 -0.14584753600283976
3260000000.0 0.1398219571520347 -0.02872941460269654
3280000000.0 0.03499478935178194 0.09327768650474812
3300000000.0 0.012301353748325293 -0.0661864212607962
3320000000.0 -0.0058981061328975464 -0.040373959387051614
3340000000.0 -0.017023095104433384 0.010743830874722086
3360000000.0 -0.005419150753320497 0.004427787956703192
3380000000.0 0.003217594673869179 0.0010519679009236835
3400000000.0 0.016513451100630405 4.889769486917664e-05
3420000000.0 0.02857930139684184 -0.0196815127879096
3440000000.0 -0.050046108482676536 0.0017124140813495519
3460000000.0 0.043775382085659544 0.048568505449211964
3480000000.0 -0.0775700336575942 0.013042027770436825
3500000000.0 0.04960320520813232 0.07409418854332876
3520000000.0 0.0550138814581021 0.08640330965590046
3540000000.0 -0.08737068721664265 -0.07296788138987134
3560000000.0 -0.03510723571287307 0.11293650265014238
3580000000.0 0.04052894582354011 0.12619222382628342
3600000000.0 -0.14953613526426845 0.03430619784180285
3620000000.0 0.15642208595968024 -0.05220587791969669
3640000000.0 0.04856831702519432 -0.1749869836078231
3660000000.0 -0.08124059334811834 -0.17220973048380603
3680000000.0 0.1322586574004967 -0.1389744303991296
3700000000.0 -0.056629180475092876 -0.18206265841493793
3720000000.0 0.1381690480880567 -0.1266782036372017
3740000000.0 0.009339327522066045 0.17939264621304818
3760000000.0 0.17313627017116 -0.037020833549203006
3780000000.0 -0.15172306955069143 0.08458733482103764
3800000000.0 0.10011978205960974 -0.13426054420762878
3820000000.0 -0.13266540216616465 0.08286595825903229
3840000000.0 -0.1443919304517552 -0.003887960205098118
3860000000.0 0.02767785888892148 -0.1371906119758623
3880000000.0 0.07800037024081505 0.11694379477663973
3900000000.0 -0.14586365935330653 0.0065831285679604015
3920000000.0 -0.10159822887057243 0.11377182353938736
3940000000.0 -0.14738762469317715 -0.07914615247937716
3960000000.0 -0.03017736889806913 0.17151542799185057
3980000000.0 0.15530182528389663 0.0712887476495593
4000000000.0 -0.03210127052291399 -0.1577635625706124
