!Created with skrf (http://scikit-rf.org).
# Hz S RI R 50.0 
!freq ReS11 ImS11
400000000.0 0.5213939303824526 0.6973916996673968
420000000.0 0.843945483093986 -0.03517398758186691
440000000.0 0.7756016767001025 -0.191656144159789
460000000.0 0.7291804191536816 0.14503440901727108
480000000.0 -0.10092003608930857 -0.6763645907840298
500000000.0 0.043633223572301295 0.5992860068876851
520000000.0 0.039837095191428334 0.5091009664301148
540000000.0 -0.3154889969832721 -0.30191984366385394
560000000.0 0.03806519067919675 0.39603117918203673
580000000.0 -0.3473732714216779 -0.09719947774537743
600000000.0 0.34416317819967374 -0.0891131438802762
620000000.0 -0.181747379173996 -0.30528437011337173
640000000.0 0.3919190135057098 -0.11984547055840446
660000000.0 0.22862753617422732 0.34327458845978587
680000000.0 -0.1392112997316293 -0.4229142646896927
700000000.0 0.10851068017496653 0.44977362775956
720000000.0 -0.4149148556058828 0.21227038683683083
740000000.0 0.03531385853254294 0.42469794809463435
760000000.0 -0.37269778579668705 -0.14670412013666692
780000000.0 -0.36373779004790885 -0.09015170286002674
800000000.0 -0.3068279991914856 -0.13557245375239882
820000000.0 -0.16645905851347603 0.2277991593764354
840000000.0 -0.011912807737163477 -0.2126272960336924
860000000.0 -0.1777308815861373 0.023150540385345888
880000000.0 0.13297849094059405 0.06719328454586058
900000000.0 0.038120457898496135 0.08949498521985876
920000000.0 0.03239714540593195 0.03947750191950847
940000000.0 -3.446888772809911e-05 -0.02954530218540818
960000000.0 -0.02504329199465815 -0.0189468548143125
980000000.0 0.030632505246316978 -0.04239771441440342
1000000000.0 -0.08478582640727285 0.032157061990134975
1020000000.0 -0.10904020605726153 -0.04786775376707374
1040000000.0 0.0874545018560637 -0.10639887924420126
1060000000.0 0.03711952989173598 0.16292060656220958
1080000000.0 0.023580560606959868 0.1888265276509447
1100000000.0 -0.1742332893655397 -0.1175997507476182
1120000000.0 0.16528726087517723 -0.15870095583509422
1140000000.0 -0.13989886808652297 0.21120045300218815
1160000000.0 -0.27520126933890227 0.03286302603659403
1180000000.0 -0.025636638658236878 -0.3064981118729123
1200000000.0 0.21965159703767817 0.2652502509481539
1220000000.0 -0.20024402913181055 -0.3178044467928365
1240000000.0 0.3977698278201255 -0.0020363817620196
1260000000.0 -0.3684604450548222 -0.1790624291275064
1280000000.0 -0.3973440455945607 0.15124730997252986
1300000000.0 0.3895575316890269 0.18578495714707544
1320000000.0 0.4300824375282103 -0.03214415446768873
1340000000.0 0.2709583196403209 0.3415193746190205
1360000000.0 0.41584072133150923 0.15095086695517967
1380000000.0 0.09079064367980379 -0.42580934112256985
1400000000.0 -0.16535590719790863 -0.39359389858116606
1420000000.0 0.024140225000728408 0.4073035914384101
1440000000.0 0.31001284271405216 -0.21559596418267907
1460000000.0 0.143941851153218 -0.3146480608228614
1480000000.0 -0.3091413208837972 -0.061595236749011774
1500000000.0 -0.033941383055979074 0.2796068926673611
1520000000.0 -0.20624018518064682 0.14355790303656682
1540000000.0 0.05062542323747327 0.21937137803096238
1560000000.0 -0.15228318913561162 0.12506961062287694
1580000000.0 -0.16991931063061644 0.04549795162761682
1600000000.0 0.10203562135882549 0.09508051536765214
1620000000.0 -0.03518883085235381 -0.09416784655098072
1640000000.0 -0.07097762901069396 0.02505234811376085
1660000000.0 -0.036456680023648255 0.048606119733193606
1680000000.0 -0.022746955517489842 -0.03278856513000281
1700000000.0 0.002513468096125646 0.021235568583438107
1720000000.0 0.011490091315079833 -0.0008844497585841221
1740000000.0 0.008411679447620397 -0.004788573374343435
1760000000.0 -0.0067819554558025885 0.02390722520931552
1780000000.0 -0.04428335446046305 0.024547134904940572
1800000000.0 -0.09270166743327002 0.013874220007413594
1820000000.0 0.11915109839251341 0.04222824863898033
1840000000.0 -0.12886476702963287 0.10223949806198324
1860000000.0 0.05399962383625555 0.19546679899694686
1880000000.0 0.2143735918123087 -0.10370815228178525
1900000000.0 -0.17635242814279173 -0.21430733447348593
1920000000.0 0.21868003626076274 -0.23000888455245472
1940000000.0 -0.26901613765830423 -0.20847700966191857
1960000000.0 -0.3660035768529608 -0.030502357429622762
1980000000.0 0.3830473599069059 0.11918323156670087
2000000000.0 -0.03533498998438277 -0.41946581040787595
2020000000.0 -0.3659744995110439 -0.2249004626756911
2040000000.0 0.09972042669519926 0.4230566162884398
2060000000.0 0.24323365518618392 0.36029960061391886
2080000000.0 0.34146497759266925 0.26437801590841015
2100000000.0 0.03910023933274654 -0.4234414975845609
2120000000.0 -0.02060174383956817 -0.413369926159374
2140000000.0 0.17479141614260152 -0.3574244954133282
2160000000.0 0.3519560978544457 -0.1556758290738077
2180000000.0 0.35845991542426986 -0.10411538669881622
2200000000.0 0.2911346649795016 -0.2158004759759067
2220000000.0 -0.31830402380842393 -0.14891588202792025
2240000000.0 -0.25358085935162905 -0.23508770554363298
2260000000.0 -0.3102532122284471 -0.14891430071904177
2280000000.0 0.03340262947473931 0.34524187424409114
2300000000.0 0.10005043505648614 0.33990207785959664
2320000000.0 0.13385837671312964 0.3515989635599232
2340000000.0 -0.036602548585605806 -0.4078739658797402
2360000000.0 -0.41523267150256177 -0.16773682507367255
2380000000.0 0.08477408719757928 0.49074785566349
2400000000.0 -0.4932551459821015 0.259729943125835
2420000000.0 0.5439597690099676 -0.2749752345444041
2440000000.0 -0.5417650620188563 0.37067876809001066
2460000000.0 -0.6728127080797933 -0.19572615031993115
2480000000.0 0.6729174604400818 0.28989161120796036
2500000000.0 -0.332216981008929 -0.6775519537821163
2520000000.0 0.739305680261799 -0.20593422164175693
2540000000.0 -0.5399234567578687 -0.5510476113411639
2560000000.0 -0.4476087827693429 0.6239572208988282
2580000000.0 0.04637691531320752 -0.7523554739960837
2600000000.0 -0.7323098212611705 -0.03202976260014107
2620000000.0 -0.07722515192754457 0.702295873633342
2640000000.0 0.5412766358108224 -0.3934418561538414
2660000000.0 -0.4554342193109386 -0.43353253099251055
2680000000.0 -0.23024708533713426 0.5357994920332864
2700000000.0 -0.30384457222107536 -0.43578386777434636
2720000000.0 -0.12332712628590539 0.46821713637402324
2740000000.0 0.42498845070728963 -0.08993296548964205
2760000000.0 -0.34420444243074894 0.1863663673427967
2780000000.0 0.34903145220436693 0.0899418338918176
2800000000.0 -0.26081651065505834 -0.2123545025518057
2820000000.0 0.10195458536843224 -0.29878513099719667
2840000000.0 0.04265970712099362 0.30458175087901546
2860000000.0 -0.2086557835997691 -0.21436800014080704
2880000000.0 0.08638631972405147 -0.2810241942759119
2900000000.0 -0.29272442482747685 0.0025730737575884633
2920000000.0 -0.17858324702101017 0.23918633277710277
2940000000.0 0.11138162418882769 -0.2878437607988314
2960000000.0 -0.17034127082417655 -0.26576676971805924
2980000000.0 -0.23092762127524225 -0.21660577461180255
3000000000.0 -0.30158579183241463 -0.10055798119336706
3020000000.0 0.2518048056384783 0.1998363969491605
3040000000.0 0.3095426129722237 0.08661196042398567
3060000000.0 0.2323934194338682 0.2110809816078691
3080000000.0 0.24062598576471422 -0.1828217352575138
3100000000.0 -0.17227517194690414 0.23623467829769235
3120000000.0 -0.14082576827792676 -0.24816864202093236
3140000000.0 -0.2748987703116647 -0.001631384509599584
3160000000.0 0.14708734754073174 -0.2200801366504823
3180000000.0 -0.19615433128644094 0.15614255638913194
3200000000.0 0.2143696307239346 -0.09900751214298438
3220000000.0 -0.004685048364674242 -0.20878069804647162
3240000000.0 -0.10726781777327465 -0.13759433715135813
3260000000.0 0.14120193203867765 -0.028318947119177644
3280000000.0 0.00976060609510003 0.10065979515828105
3300000000.0 0.046047113588995714 -0.051271578028521475
3320000000.0 0.01955689816845714 -0.037900105401542476
3340000000.0 -0.0009648782810917736 0.02141880540766627
3360000000.0 0.00408621333647435 -0.0064476328236457
3380000000.0 0.001960866280180836 0.002220125311433866
3400000000.0 0.002551650048694237 -0.015429039338354813
3420000000.0 -0.025303565446723107 -0.022736941756093792
3440000000.0 -0.04841782609218112 0.006199961234466649
3460000000.0 0.041133914235123435 0.049230486840020765
3480000000.0 -0.04801741666041807 0.06133574265719213
3500000000.0 0.08725521444497936 0.017401337348605415
3520000000.0 0.09803229066998302 0.02799254609224385
3540000000.0 -0.11263279056198632 -0.007573684960002523
3560000000.0 0.04187013256027747 0.1099499217233443
3580000000.0 0.11389514248352525 0.06728749381651783
3600000000.0 -0.10863236941844245 0.10723546822006337
3620000000.0 0.12139821433935138 -0.11025570503552494
3640000000.0 -0.04195670825028241 -0.1767330356015816
3660000000.0 -0.14791712414729666 -0.12001494840359911
3680000000.0 0.04633777719564465 -0.18617389567337736
3700000000.0 -0.12487010660908415 -0.1445705506088631
3720000000.0 0.08365811661549924 -0.16838866687981277
3740000000.0 0.0626702234471267 0.1693875439330173
3760000000.0 0.15071932989337972 -0.0952878275508408
3780000000.0 -0.10921804255573667 0.1369097556221826
3800000000.0 0.06192956381205849 -0.1573749650926014
3820000000.0 -0.10509415021668603 0.11744450639723551
3840000000.0 -0.13775850764814399 0.04848165110918695
3860000000.0 -0.006040014196213927 -0.14184409476490456
3880000000.0 0.10825120572772973 0.09299873976496328
3900000000.0 -0.1429710866944857 0.03810325597671663
3920000000.0 -0.07495625609518716 0.13470043158287714
3940000000.0 -0.1458902421289486 -0.08416872656493538
3960000000.0 -0.06977990347808463 0.16141118739665805
3980000000.0 0.14565540646660796 0.09241337937001556
4000000000.0 -0.014190521871250151 -0.16172031703572692
