!Created with skrf (http://scikit-rf.org).
# Hz S RI R 50.0 
!freq ReS11 ImS11
400000000.0 0.5310143185626618 0.6905033908812688
420000000.0 0.8407154884077956 -0.08132061776429025
440000000.0 0.7700008145365083 -0.21201608555309162
460000000.0 0.7347959298605623 0.10968073394510681
480000000.0 -0.06378427072841569 -0.6810443427166591
500000000.0 0.03613460787507793 0.6000143085093151
520000000.0 0.05101821486926314 0.507820369705142
540000000.0 -0.3185132631641794 -0.2984311668460108
560000000.0 0.04193442040079782 0.3951557641033445
580000000.0 -0.35103791765470366 -0.08138562804358453
600000000.0 0.34568381137324483 -0.08267492300166905
620000000.0 -0.21165012132679578 -0.2853894516791486
640000000.0 0.39675904434651754 -0.10439671727011873
660000000.0 0.2493057487594191 0.3290607482985294
680000000.0 -0.16979940832608295 -0.411138939654884
700000000.0 0.08264043622803811 0.4549926915753242
720000000.0 -0.40036729410217164 0.23841214628173785
740000000.0 0.00878204784368949 0.42685347208518476
760000000.0 -0.37574569193498875 -0.13801605758765537
780000000.0 -0.35862292844998667 -0.10687468711310177
800000000.0 -0.3060472064310347 -0.13631406941686067
820000000.0 -0.1565404751433327 0.23394254545345397
840000000.0 -0.0084863467643404 -0.21240293725149623
860000000.0 -0.17650546424333616 0.02948366806084896
880000000.0 0.14227859023037429 0.04476282733565432
900000000.0 0.04184132764219352 0.08772151817619088
920000000.0 0.028856644871828777 0.04201971921253061
940000000.0 0.013857150303426134 -0.02601035265561025
960000000.0 -0.025044237500979474 -0.019291582500300688
980000000.0 0.04055165932768705 -0.03374211925839579
1000000000.0 -0.08980784581609536 0.01499102654778039
1020000000.0 -0.10839287801660676 -0.04987942757382128
1040000000.0 0.08388331269870988 -0.10960280331535087
1060000000.0 0.05947802077091541 0.1567277685306077
1080000000.0 0.05414503011122151 0.18283019118858745
1100000000.0 -0.18983749615993453 -0.09108557519555106
1120000000.0 0.15993558954251605 -0.16414911917158706
1140000000.0 -0.16551385602718244 0.19200312361245864
1160000000.0 -0.27732435502783487 -0.00841126084970427
1180000000.0 0.015368972260680165 -0.30763447249638953
1200000000.0 0.19965691681605927 0.28132791314424305
1220000000.0 -0.214596687774854 -0.3089250968263207
1240000000.0 0.397583873191816 0.0033385136387625606
1260000000.0 -0.3709772570481919 -0.17373610780377974
1280000000.0 -0.3973199253253373 0.15013988627008631
1300000000.0 0.3902769259679061 0.18341864778121483
1320000000.0 0.4307073630666531 -0.016427080015672474
1340000000.0 0.2653389591009745 0.3459668642543817
1360000000.0 0.4180973945099207 0.14557576568653915
1380000000.0 0.05862640187034954 -0.431816187443739
1400000000.0 -0.20206493411721455 -0.37625372393176904
1420000000.0 0.062218710556566144 0.4029626843418715
1440000000.0 0.30086507677899677 -0.2275226317024094
1460000000.0 0.16180519634453633 -0.3057754773410901
1480000000.0 -0.2917121595384269 -0.12105438160103518
1500000000.0 -0.04470874222186924 0.27896871040088755
1520000000.0 -0.20518850208111208 0.14646313453711005
1540000000.0 0.07587393532201162 0.21244123777819743
1560000000.0 -0.14516607142597396 0.13289661109022805
1580000000.0 -0.16112899530917674 0.06878967189330093
1600000000.0 0.05698307279775595 0.12677041319815435
1620000000.0 0.0451267776457777 -0.08919964214461472
1640000000.0 -0.07309087481348392 -0.017233841681665148
1660000000.0 -0.04885448501589879 0.03621308097879359
1680000000.0 -0.02193305652613741 -0.033338849004645135
1700000000.0 0.01794110206088363 0.010921720844002846
1720000000.0 -0.0074497825987441335 -0.007907001860996648
1740000000.0 -0.007061029985455396 -0.006299479181554413
1760000000.0 -0.02402720880652573 0.007451434290218875
1780000000.0 -0.03628691968226981 0.03568059762285758
1800000000.0 -0.08919661156647346 0.02723464856771178
1820000000.0 0.122651057691568 0.027918828984030874
1840000000.0 -0.12104243393429133 0.11059216759374592
1860000000.0 0.04457784178664545 0.19778320093607032
1880000000.0 0.2193875262730752 -0.0931222760272221
1900000000.0 -0.17683070455652466 -0.2143417667918683
1920000000.0 0.21622956912806574 -0.23277532753927546
1940000000.0 -0.2747259917127248 -0.20118300532977434
1960000000.0 -0.3672389696136571 -0.012911005971068947
1980000000.0 0.38383059048927715 0.11707266661773418
2000000000.0 -0.0382743261981469 -0.41931722847060876
2020000000.0 -0.36452066768237157 -0.2277948847589772
2040000000.0 0.11153254299269794 0.4201188757675093
2060000000.0 0.246228397842473 0.3585596683986916
2080000000.0 0.3302751866134859 0.278710263155799
2100000000.0 0.05268762167261988 -0.4223950690246546
2120000000.0 -0.03503999420212373 -0.41274317234697083
2140000000.0 0.17103405199697866 -0.3595977977690705
2160000000.0 0.34674069381873035 -0.16703589979152617
2180000000.0 0.36410164310803406 -0.08273292956023723
2200000000.0 0.30345242823302415 -0.19841409938046364
2220000000.0 -0.30510525309988334 -0.17528309991796637
2240000000.0 -0.24017154996801054 -0.2494238015056173
2260000000.0 -0.3073435484493756 -0.15540428620898702
2280000000.0 0.031508158913222464 0.3457977888265955
2300000000.0 0.0953233914352295 0.3413720464796717
2320000000.0 0.12930549534268523 0.35368452948069756
2340000000.0 -0.018130846974427746 -0.4093369069964866
2360000000.0 -0.41259225274109257 -0.17495799320148062
2380000000.0 0.08618394784022405 0.4907055736408089
2400000000.0 -0.48241629057079183 0.2797145781529413
2420000000.0 0.5252654628078195 -0.3094033426774297
2440000000.0 -0.5208935353405183 0.3995518610272936
2460000000.0 -0.6857283455449656 -0.14373455585680306
2480000000.0 0.6929023057241672 0.23874020976390167
2500000000.0 -0.3654321931356796 -0.6606144308990469
2520000000.0 0.7327404975907428 -0.2295909451031003
2540000000.0 -0.5618060223505982 -0.5290838101173263
2560000000.0 -0.42150961918271146 0.6422263701050126
2580000000.0 0.005778554848473719 -0.7538850991465432
2600000000.0 -0.7327389266743995 -0.017357378408065505
2620000000.0 -0.013639383093780336 0.7063353645029782
2640000000.0 0.5477227566684967 -0.38389286014028895
2660000000.0 -0.43553404014880603 -0.45251233903591276
2680000000.0 -0.24048005863952152 0.5305711080290197
2700000000.0 -0.2905068372121734 -0.4438683436268493
2720000000.0 -0.1422016545481427 0.4614722088056348
2740000000.0 0.4288122236169059 -0.060938571667915005
2760000000.0 -0.34715160631057224 0.1784574613172135
2780000000.0 0.35066633514686274 0.07942419622227723
2800000000.0 -0.2799759637327795 -0.18514778247820388
2820000000.0 0.06293108276225394 -0.30891979393607205
2840000000.0 0.0878015103313685 0.29448001518956957
2860000000.0 -0.21594641240569376 -0.20761037204099905
2880000000.0 0.0507168096560868 -0.2897517786237553
2900000000.0 -0.29324272207646457 0.010657978764395828
2920000000.0 -0.16015914745021367 0.2526080034778186
2940000000.0 0.1439198026526243 -0.2737736591307035
2960000000.0 -0.16962699617751073 -0.2666587572860376
2980000000.0 -0.24699313110576462 -0.20007643414996473
3000000000.0 -0.29215118195680134 -0.12457495215612281
3020000000.0 0.20010920768824006 0.2516335659854482
3040000000.0 0.2905883594646914 0.13664410059236395
3060000000.0 0.20633285815234173 0.23615184376158024
3080000000.0 0.25912553150072337 -0.15516475190585702
3100000000.0 -0.14334629715111258 0.25472479297073225
3120000000.0 -0.09850789779083786 -0.26666251955376424
3140000000.0 -0.2733863286619333 0.02542830338598704
3160000000.0 0.16955611370102425 -0.20206247830080806
3180000000.0 -0.20555211262754786 0.14244944600989684
3200000000.0 0.21729947020710785 -0.09047026136149494
3220000000.0 -0.01031817554485081 -0.20830963801065153
3240000000.0 -0.11938798210676817 -0.12670450400171537
3260000000.0 0.13337620105057066 -0.053365420907312694
3280000000.0 -0.0009934804307528582 0.1008942667001264
3300000000.0 0.03508484300273667 -0.059036217898054834
3320000000.0 -0.008831538492268726 -0.04127677816969789
3340000000.0 -0.020683505289893787 0.004456955075728558
3360000000.0 -0.002496995895845216 -0.007770344577214107
3380000000.0 0.0009836618488846677 0.0025298828288575345
3400000000.0 -0.0011909538653962506 -0.015384095369445194
3420000000.0 0.006447281460401975 -0.03321676474960726
3440000000.0 -0.041172491122471566 0.02595862534099439
3460000000.0 0.048268185970093185 0.04237664370763104
3480000000.0 -0.06219165338488481 0.046611250424785526
3500000000.0 0.0849426662164031 0.025011685757686742
3520000000.0 0.09519057286012804 0.036278206756762216
3540000000.0 -0.1131526027430876 0.0098844511973846
3560000000.0 0.025439418899391355 0.11502941165631106
3580000000.0 0.09513064306900247 0.09190778389841178
3600000000.0 -0.11474480139795368 0.10169716436829725
3620000000.0 0.12204148651023447 -0.1102975738517491
3640000000.0 -0.02831045776387788 -0.17957838814280333
3660000000.0 -0.14054324074952207 -0.12875083715290633
3680000000.0 0.08069786591125419 -0.17411360018333097
3700000000.0 -0.11163308342871768 -0.155383984853396
3720000000.0 0.09424874467096912 -0.16271906319767618
3740000000.0 0.05069033612441501 0.17342194711329637
3760000000.0 0.15827963984503807 -0.08151552638138916
3780000000.0 -0.1370872417598691 0.10825369901873709
3800000000.0 0.08790054022756742 -0.1439379411941286
3820000000.0 -0.13398573509138542 0.08223063897606955
3840000000.0 -0.14570496830352014 0.005421136437089143
3860000000.0 0.03471547767612328 -0.13721027700553737
3880000000.0 0.08155727000907663 0.11669567979233733
3900000000.0 -0.14579548167678216 0.02266881073730099
3920000000.0 -0.08631246759852217 0.12715941936658473
3940000000.0 -0.15084002303648358 -0.07388621126787884
3960000000.0 -0.06505926929908773 0.16312297161868003
3980000000.0 0.15941190352462026 0.06457169832075212
4000000000.0 -0.05716291144699074 -0.15138368188841606
