! Created with skrf (http://scikit-rf.org).
# Hz S RI R 50.0 
!freq ReS11 ImS11
400000000.0 -0.8542923015813078 -0.03233143947453147
420000000.0 -0.09381706861499794 0.8534758654657757
440000000.0 0.8064761255832031 0.19273193312432166
460000000.0 0.7628548256093873 -0.15674021647293798
480000000.0 -0.25682760122589615 0.6679770160467434
500000000.0 0.4742681550150294 0.35044825796085993
520000000.0 0.17495887323934164 -0.4931946711150737
540000000.0 0.42914960865397717 -0.12977898773559243
560000000.0 -0.2992894559825507 -0.2696436287244749
580000000.0 -0.09109170865467409 -0.3439446392610324
600000000.0 -0.3274988830694318 -0.16834415545752435
620000000.0 -0.26175356991118975 -0.2655076130866934
640000000.0 -0.027730880730842823 -0.3866732192588582
660000000.0 -0.34863788945509744 0.212734770253434
680000000.0 -0.03585798802335724 -0.4099025929490896
700000000.0 -0.42179244689622464 -0.0184032735115391
720000000.0 -0.40607054059850317 -0.07382618530288292
740000000.0 0.39636181699383455 0.12605757205813548
760000000.0 -0.39044558440236943 -0.05104620058879565
780000000.0 -0.04473288670756523 0.35769609297241933
800000000.0 0.21133709045963348 -0.24538670806786045
820000000.0 -0.15627042279460845 -0.22771093364729114
840000000.0 -0.24312599667200635 0.021567887811870204
860000000.0 -0.1301392589245774 -0.15095711184726568
880000000.0 0.11803763018797235 0.11130321173715557
900000000.0 -0.05023005925000326 -0.09371407230640398
920000000.0 0.040852792098688605 -0.05703801995701808
940000000.0 0.031158856181387296 -0.03918141811484858
960000000.0 0.007980957488924577 0.050214662260052834
980000000.0 0.0016188230460347517 0.06851592540616376
1000000000.0 0.00341767093869112 -0.08729103263068133
1020000000.0 0.10060358634256138 -0.021502492437329462
1040000000.0 0.08788929683425588 0.08825181959740017
1060000000.0 0.15318125958904288 -0.005133766542872914
1080000000.0 0.019807643954978294 0.17571405069638282
1100000000.0 -0.18015928711555018 0.07335470419833433
1120000000.0 -0.018827729635895192 0.2165203969359939
1140000000.0 -0.21432073312508418 -0.1291352628024145
1160000000.0 -0.06911328100946308 -0.27023590776254475
1180000000.0 -0.1846502297552137 -0.25571300640611244
1200000000.0 0.31440246736432753 -0.12697736412604874
1220000000.0 -0.18869728747628753 0.3170038676415265
1240000000.0 0.3801506032061131 0.06468837673151323
1260000000.0 -0.1686461583742694 -0.37845679530278536
1280000000.0 -0.2320941306504235 0.3571759218897972
1300000000.0 0.35602027693920174 0.2595851109845987
1320000000.0 0.29687342195339 -0.32168906573905587
1340000000.0 0.4372390030759927 -0.0410163534316283
1360000000.0 0.3691455653452132 -0.2354524417558538
1380000000.0 0.25095999906973615 -0.36113763223648365
1400000000.0 -0.4271342556993269 -0.008680700962871598
1420000000.0 -0.05769065152760193 0.40518751827666605
1440000000.0 0.35065893194470776 -0.15590424122826288
1460000000.0 0.032816596696166746 -0.34983337244352225
1480000000.0 -0.3103729557586588 0.07761976438113528
1500000000.0 -0.1041918774378948 0.26741001194538827
1520000000.0 0.12068394699041494 0.22529100108047487
1540000000.0 -0.19885208872849344 -0.10749442721236353
1560000000.0 0.1348687038276255 -0.13831198070340955
1580000000.0 0.121153037468777 0.10903288232911634
1600000000.0 0.12967880155178513 -0.03493267195756427
1620000000.0 0.10207837334263183 0.008743249370911884
1640000000.0 -0.07650366630119318 -0.02093450775148003
1660000000.0 -0.017691355996676598 -0.0518348598977104
1680000000.0 0.033180280263274 0.01401837545993581
1700000000.0 -0.020727350803844004 -0.007637187638689029
1720000000.0 0.004220482340338533 -0.00504453543997145
1740000000.0 0.006264547262147727 0.015471798371274917
1760000000.0 0.028780405268255572 -0.015320529421418913
1780000000.0 -0.047547717521620285 -0.03959310567006029
1800000000.0 -0.06863511910554425 0.06678005937735522
1820000000.0 0.021893018029902216 0.12598852412079514
1840000000.0 0.11505935512270839 -0.11815237325173189
1860000000.0 -0.13098545278383497 0.1561827104055082
1880000000.0 0.20617414120893374 -0.1267244176383509
1900000000.0 -0.25514935094885505 0.12817622292679873
1920000000.0 0.16397170650902812 -0.2759173078921274
1940000000.0 -0.32016302479245407 0.14655824750017493
1960000000.0 0.37549987209240426 0.050270149330231405
1980000000.0 -0.011960236201501722 -0.39685706971178264
2000000000.0 -0.39119798253270116 -0.13958420190911863
2020000000.0 -0.17870921160891984 0.38733921616939715
2040000000.0 0.2233736711396555 0.3721224830378467
2060000000.0 0.4220614970692762 -0.10702180944443786
2080000000.0 0.2361294066689836 -0.3622747510654479
2100000000.0 -0.10705819532284447 -0.4116565908129976
2120000000.0 -0.15677720258703132 -0.38724435853878664
2140000000.0 -0.38927013693271467 -0.11797614313804432
2160000000.0 0.028822042109237684 -0.39391441072403066
2180000000.0 -0.25404813354479 -0.2847221071617936
2200000000.0 -0.3688084446689452 -0.008830865830533972
2220000000.0 -0.2593894055015352 0.24905968961823377
2240000000.0 0.06892179478623042 0.3470725491877128
2260000000.0 0.2363823407632895 0.26399474907169873
2280000000.0 0.3565002463288888 0.021669157243017198
2300000000.0 0.19955413259179716 -0.31311854741009953
2320000000.0 -0.31654048898387205 -0.2372109136868217
2340000000.0 -0.12517184854138658 0.4096750004180223
2360000000.0 0.3456720394880402 -0.3150575324139678
2380000000.0 -0.45479261289116324 0.24089795179071816
2400000000.0 0.4213161381855452 -0.37535874205698944
2420000000.0 -0.11260067743497998 0.6038106360882504
2440000000.0 -0.3853371777051484 -0.5353408312429285
2460000000.0 0.6811022363815478 0.14807663197219667
2480000000.0 -0.6877240328194624 0.22913551418093148
2500000000.0 0.7164953697491477 -0.19553227795593497
2520000000.0 -0.748046353715972 0.06872945602602357
2540000000.0 0.7049030476941677 0.2590770630841473
2560000000.0 -0.342250305485396 -0.660296110956648
2580000000.0 -0.40733890796376665 0.6044532874093269
2600000000.0 0.6991378192807471 -0.08415920101109216
2620000000.0 -0.4884423861599655 -0.46404035784327186
2640000000.0 -0.5638970017001232 -0.2979193866046183
2660000000.0 0.03723725108096941 0.5917262960340803
2680000000.0 0.4503532384710074 -0.31244240804839096
2700000000.0 -0.4654707629236137 -0.1876966710742661
2720000000.0 0.1858070482920243 0.41649100368721437
2740000000.0 0.18180592296329812 -0.3715309682333183
2760000000.0 -0.34248885559444214 0.15554991109530472
2780000000.0 0.31458178628318856 -0.1437529063183639
2800000000.0 -0.29787998182370945 0.1182707184628584
2820000000.0 0.15319307374982263 -0.2621255285197919
2840000000.0 0.09136254023784597 0.27864969126573125
2860000000.0 -0.27784884103628577 -0.0759359181837326
2880000000.0 0.22429894817596044 -0.17954816224742712
2900000000.0 -0.05206788674719266 0.28193418157594097
2920000000.0 0.2477286923191656 -0.15134905063742238
2940000000.0 -0.2902233095820615 -0.05080500826650226
2960000000.0 -0.2179237124231523 0.2029272611114583
2980000000.0 -0.14030904069794667 0.2672079812358587
3000000000.0 -0.279418261668249 0.11995605505501729
3020000000.0 -0.25120561687472975 -0.17380793856925558
3040000000.0 0.2516750328869778 -0.16877374417495156
3060000000.0 -0.053611905789984655 0.29682313011551714
3080000000.0 -0.02154467918447904 -0.29674683943898056
3100000000.0 0.16250459726140373 0.2436199238741175
3120000000.0 -0.1429764275850187 -0.24639285279932197
3140000000.0 0.27191336749005485 0.05296928356783404
3160000000.0 -0.2210215586952728 0.14316535939437933
3180000000.0 0.24449296700600473 0.03914374675387161
3200000000.0 -0.08693467533779398 0.20775915175064874
3220000000.0 -0.17210903859102972 -0.1024448822855238
3240000000.0 0.11253736331837746 -0.1281213409965691
3260000000.0 -0.03332199127349957 0.1337590570466334
3280000000.0 0.0439318439368375 -0.09738970625079507
3300000000.0 -0.031421802091152896 0.07130350692654884
3320000000.0 0.03486572031283557 0.03845715321098214
3340000000.0 0.020697059614241137 -0.019241279766642458
3360000000.0 -0.0064392606106210394 0.007441930589527766
3380000000.0 -0.006460652042528207 -0.0029527221118390945
3400000000.0 0.0013548893908729692 -0.020565808572005278
3420000000.0 -0.0070644034276851585 0.031993482791650936
3440000000.0 0.007518521430441157 0.042511285231286
3460000000.0 -0.04049232335425128 -0.030980284602112038
3480000000.0 0.05915418178911064 -0.02005557746487837
3500000000.0 0.07603127102751209 -0.007277801598131896
3520000000.0 -0.028582747645097682 -0.08720466428678215
3540000000.0 0.1007627549435781 0.03403373242650665
3560000000.0 -0.1029468563065989 0.062019724147103945
3580000000.0 0.1176834796973079 -0.06423834883005547
3600000000.0 0.027093633364114307 0.15112593129041915
3620000000.0 -0.07916919900006257 0.14446992920147286
3640000000.0 -0.17117816116651488 0.04556103720409123
3660000000.0 -0.17932516579476626 -0.049351249027143315
3680000000.0 -0.12375452791505509 -0.14523421361427793
3700000000.0 -0.05308302423309223 -0.18261370734536872
3720000000.0 0.17591641432776386 -0.07061040883974615
3740000000.0 0.18377213744019194 0.010977057077178604
3760000000.0 -0.1657971038494116 -0.06412456566114906
3780000000.0 0.14536166531790118 0.08845245277226016
3800000000.0 0.09863358651297555 -0.12572909615793873
3820000000.0 0.03715513489522711 -0.14826646721564557
3840000000.0 0.14535462554790826 -0.017572892610546568
3860000000.0 0.012650339430577702 0.14804659986240554
3880000000.0 0.0025164137640445758 0.15537074694405534
3900000000.0 0.14013859034405918 -0.07559725519378728
3920000000.0 -0.11985171083529222 -0.11166316375211924
3940000000.0 0.16868814745645944 0.011935302120556412
3960000000.0 0.05137713263186151 0.1647370121074234
3980000000.0 0.17270548442970426 0.015486563183484207
4000000000.0 0.15928623010039514 -0.04562976235111881
