! Created with skrf (http://scikit-rf.org).
# Hz S RI R 50.0 
!freq ReS11 ImS11
400000000.0 -0.8551854064264209 -0.00021039492214503525
420000000.0 -0.1289025247167926 0.8493834782963164
440000000.0 0.8107893413544041 0.17247303746462897
460000000.0 0.7612541255266095 -0.1598800204766295
480000000.0 -0.21223850214656143 0.6841192570711407
500000000.0 0.45328668313068626 0.37929750987281496
520000000.0 0.13960479295310896 -0.5016994871105169
540000000.0 0.43567712368235867 -0.10896144567843007
560000000.0 -0.32416676773980013 -0.24130842941702402
580000000.0 -0.08056142074136002 -0.3460770957501147
600000000.0 -0.30565855271924625 -0.20613558574522625
620000000.0 -0.22238759486305054 -0.29907301263866204
640000000.0 -0.022139764582094847 -0.3858516173802688
660000000.0 -0.3027291628577011 0.2748799691406915
680000000.0 -0.04013557272236035 -0.4091314978428852
700000000.0 -0.4232597788402628 -0.026405788448383247
720000000.0 -0.40250794835791887 -0.09072326135335525
740000000.0 0.39073760645618827 0.1419277367675616
760000000.0 -0.3914170267185308 -0.04478110511998781
780000000.0 -0.06973487131061105 0.3540425312946202
800000000.0 0.21399032310331492 -0.24209910035597568
820000000.0 -0.14691054655258426 -0.23485558351129066
840000000.0 -0.24112059191776417 0.03304706060632344
860000000.0 -0.10660004903513921 -0.1682186432343215
880000000.0 0.13746895495326325 0.08551075881526649
900000000.0 -0.0124946179306455 -0.10547139958281337
920000000.0 0.024272753448617998 -0.06583975667925879
940000000.0 0.0002874125219949388 -0.050028042779213
960000000.0 0.019054247306269163 0.0467076478414059
980000000.0 0.016178589057472798 0.06781823662789473
1000000000.0 0.02695045852132195 -0.08316595853994409
1020000000.0 0.10181754182072512 -0.00321843370754699
1040000000.0 0.07924316369734731 0.09652919840820716
1060000000.0 0.1522494637132773 -0.016719272937303017
1080000000.0 0.006431211720854527 0.1767708808837196
1100000000.0 -0.18863358647015088 0.047160797417176124
1120000000.0 -0.0034705160419539827 0.21764221890534668
1140000000.0 -0.2216441259163223 -0.11494322979272505
1160000000.0 -0.07829148073886695 -0.2682883927509401
1180000000.0 -0.19361908203395434 -0.24958661610015132
1200000000.0 0.3266556191357385 -0.09071721459823195
1220000000.0 -0.21004123140740413 0.3036571160746642
1240000000.0 0.3820044631610779 0.049138285461773984
1260000000.0 -0.1528619346215333 -0.38466569147249546
1280000000.0 -0.2129536774845818 0.36861810277521223
1300000000.0 0.3386511862150616 0.2826691699775412
1320000000.0 0.2994389637173868 -0.3193022189481119
1340000000.0 0.4393487788935954 0.000540094935642664
1360000000.0 0.3639988824940427 -0.24369043200670618
1380000000.0 0.27411593522922656 -0.34372792243691863
1400000000.0 -0.4271265908305466 -0.00802146339095899
1420000000.0 -0.04543080479537521 0.40640957608263134
1440000000.0 0.351147295205368 -0.15425662806398155
1460000000.0 0.05030694110981552 -0.34705132513124803
1480000000.0 -0.3165858259380416 0.04874742997281588
1500000000.0 -0.07400249049357623 0.27695957477593236
1520000000.0 0.13662038381133812 0.21601378027528045
1540000000.0 -0.19208533479691708 -0.11918263196314904
1560000000.0 0.14315183632157433 -0.1296010612419888
1580000000.0 0.12900418268180885 0.098708358493927
1600000000.0 0.11924350798119872 -0.06068442292530701
1620000000.0 0.09513370756500746 -0.03740994289052123
1640000000.0 -0.0754187127874867 0.025641856361053646
1660000000.0 -0.032185904642796345 -0.04474797429997611
1680000000.0 0.008515048420805636 0.035004074705184456
1700000000.0 -0.02150948079628546 0.0005672821957741891
1720000000.0 0.0068251818039713925 0.0002888865860201989
1740000000.0 -0.015174556726688531 0.005790980377312883
1760000000.0 0.0014656713533668976 -0.032192057577989236
1780000000.0 -0.06177168432708899 -0.001920501596406228
1800000000.0 -0.025487217608063627 0.09278529226698526
1820000000.0 0.044576350166360114 0.11994909758721439
1840000000.0 0.09747028206573488 -0.13307724886479452
1860000000.0 -0.13479454005329797 0.15264273793035224
1880000000.0 0.1974874134524737 -0.1404556798715532
1900000000.0 -0.2564496922729068 0.12538514754437208
1920000000.0 0.1628290952375351 -0.2766907737588505
1940000000.0 -0.3285303178074911 0.12758972219166798
1960000000.0 0.3707395512357785 0.07794448517407225
1980000000.0 -0.017640130485095988 -0.39636901794038437
2000000000.0 -0.3968240098148765 -0.1213278829669264
2020000000.0 -0.19296359058445814 0.3799494809256002
2040000000.0 0.23364498737718664 0.3654049966496069
2060000000.0 0.4313395011715753 -0.06137532951568997
2080000000.0 0.2435234842290004 -0.35722759346419586
2100000000.0 -0.06348811563941686 -0.4204694083175599
2120000000.0 -0.19573442589114778 -0.3689872940388212
2140000000.0 -0.3950357916421654 -0.0971868817662163
2160000000.0 0.012332199564713625 -0.3945728554259049
2180000000.0 -0.3070181240466365 -0.22678737840528798
2200000000.0 -0.3686285247246585 0.005047413186818663
2220000000.0 -0.20889596739803262 0.29206234746098675
2240000000.0 0.06192297119091362 0.3477468517181432
2260000000.0 0.2397155838787658 0.26062758255876906
2280000000.0 0.3569718555056543 0.017190424542274745
2300000000.0 0.18963565840487012 -0.31979795919916093
2320000000.0 -0.31798979054848237 -0.23513595264950762
2340000000.0 -0.14010758895460854 0.40477449036980195
2360000000.0 0.3519492390509617 -0.30780446588121546
2380000000.0 -0.4560886910628627 0.23829565992622462
2400000000.0 0.41821894676458227 -0.3788607820604343
2420000000.0 -0.1449643150654874 0.5969752432707626
2440000000.0 -0.35097244284148943 -0.5582430057400776
2460000000.0 0.6750729662151352 0.17148163049321538
2480000000.0 -0.693567852605177 0.20770171834034665
2500000000.0 0.6847305401679815 -0.28435809331721745
2520000000.0 -0.7420931771648033 0.11378133105368479
2540000000.0 0.7101497669983619 0.2451766910225637
2560000000.0 -0.3667913750432072 -0.6478531194619829
2580000000.0 -0.376602272705442 0.6238347654824018
2600000000.0 0.6948857476461409 -0.11476860626006787
2620000000.0 -0.4499360869394705 -0.5018032752848764
2640000000.0 -0.6141825159151236 -0.17136089064943957
2660000000.0 0.09225611891774402 0.5857709126817681
2680000000.0 0.4660143226800944 -0.28909984969361213
2700000000.0 -0.46164526025648644 -0.19765883394654865
2720000000.0 0.1888903194120039 0.4158112524842137
2740000000.0 0.19395632940994606 -0.365070108863952
2760000000.0 -0.35665669755327234 0.1192922466260203
2780000000.0 0.3164672132302556 -0.13846089471118347
2800000000.0 -0.3053195853382966 0.09702316175428441
2820000000.0 0.17098540434046425 -0.2506260128655487
2840000000.0 0.06437731308782851 0.2854657269302266
2860000000.0 -0.2672891036111037 -0.1073011891240961
2880000000.0 0.2218686523957332 -0.18135328046021965
2900000000.0 -0.0714032457273593 0.2771705515774218
2920000000.0 0.2578314836758916 -0.1333247694895722
2940000000.0 -0.2845973724988433 -0.07577452141470217
2960000000.0 -0.1981048887645895 0.22139163411739277
2980000000.0 -0.13359752783677517 0.2697277167128273
3000000000.0 -0.2531604234528333 0.16721128718993505
3020000000.0 -0.28515819541586335 -0.1082036922560509
3040000000.0 0.2192900051757777 -0.2081189808590152
3060000000.0 -0.02299833408184131 0.2997642945089834
3080000000.0 -0.05781476922651604 -0.29180987578324286
3100000000.0 0.1694242923470385 0.23907332680293236
3120000000.0 -0.18568261636804512 -0.21726111709607904
3140000000.0 0.27685201689267785 0.021833646113668406
3160000000.0 -0.20826185585473636 0.16232828729677107
3180000000.0 0.23806324161115375 0.07056277394864974
3200000000.0 -0.07485111341409816 0.21309348714095158
3220000000.0 -0.17392817556029302 -0.10035338936806183
3240000000.0 0.10487947848148071 -0.1356807259744962
3260000000.0 -0.020155626226108444 0.13716901696591652
3280000000.0 0.05488314471619143 -0.0926259083993877
3300000000.0 -0.04594145253831555 0.06377627258842695
3320000000.0 0.017825406486601206 0.048382929466038414
3340000000.0 0.022210198727229305 0.01686536689441473
3360000000.0 0.007905670420445892 0.004896904646640424
3380000000.0 0.0014864409647045533 -0.007196386571742776
3400000000.0 -0.010581259593534294 0.01733837420064098
3420000000.0 0.02970203690278691 0.01343323677019538
3440000000.0 0.036737678362676156 0.02119221406707558
3460000000.0 -0.028113547805832573 0.041590142197232866
3480000000.0 0.03885003405116336 -0.047539674572934315
3500000000.0 0.05154846131880474 -0.05470593378119551
3520000000.0 -0.08360131388645775 -0.037193483501991524
3540000000.0 0.10502398901091183 0.008970679440439581
3560000000.0 -0.092532180455532 0.0752026895461304
3580000000.0 0.12809949340043544 -0.03436063817449603
3600000000.0 -0.01205776295828516 0.15151978004150193
3620000000.0 -0.059010494496923895 0.15286118811823365
3640000000.0 -0.1688759573148846 0.051433175148130866
3660000000.0 -0.18025331817719387 -0.042762413504210124
3680000000.0 -0.14556860181670467 -0.12289744805977143
3700000000.0 -0.08212483711755465 -0.1706829977393764
3720000000.0 0.13475297386192642 -0.13244851212698697
3740000000.0 0.18029252571454277 -0.03737400378821168
3760000000.0 -0.17726974124921507 -0.008238396236237566
3780000000.0 0.167418654516397 0.021679262703132213
3800000000.0 0.0437705673400906 -0.1537634034939059
3820000000.0 -0.01298127881951666 -0.1529301293201253
3840000000.0 0.14403061294829148 -0.03451948097721643
3860000000.0 0.0557240071218437 0.1385128938697985
3880000000.0 0.06576848116093535 0.1420235884695402
3900000000.0 0.0997920733733267 -0.12434003383879073
3920000000.0 -0.16315220605677663 -0.01421445375277601
3940000000.0 0.12888306805989272 -0.10858131274031678
3960000000.0 0.13293648051659337 0.11121060868042662
3980000000.0 0.1487926601318306 -0.08950556017916882
4000000000.0 0.10101243660702444 -0.13067008506089317
