! Created with skrf (http://scikit-rf.org).
# Hz S RI R 50.0 
!freq ReS11 ImS11
400000000.0 -0.8543443874083457 -0.04164057145073046
420000000.0 -0.0806212098358329 0.8554759724091092
440000000.0 0.7866066748617481 0.26094178657930517
460000000.0 0.7664528375956973 -0.13509865134184582
480000000.0 -0.1935187442719478 0.6898074369686767
500000000.0 0.5029308728097418 0.3087070770381286
520000000.0 0.264689600291385 -0.4490742833635624
540000000.0 0.4403702289541246 -0.09549487209944192
560000000.0 -0.3580271014575205 -0.18521898921267682
580000000.0 -0.10257354804721824 -0.3392679055354704
600000000.0 -0.2566309168716595 -0.2635183170321192
620000000.0 -0.21772798357166373 -0.3040231499126104
640000000.0 -0.09763586875543293 -0.3755600350180534
660000000.0 -0.2846931799614903 0.29140816151767557
680000000.0 -0.020456241711839008 -0.410954054389273
700000000.0 -0.4208624964811758 -0.052835825081953246
720000000.0 -0.4114954553720708 -0.025214858381384767
740000000.0 0.3954862407535946 0.1295812093934218
760000000.0 -0.38795729643184285 -0.06688662134998745
780000000.0 -0.07559556943940307 0.35253542331114507
800000000.0 0.1969196549619039 -0.25721530525448955
820000000.0 -0.1357775406721889 -0.24043389227300355
840000000.0 -0.2435172036961898 0.011724933357110666
860000000.0 -0.13907080118692586 -0.1425840658210084
880000000.0 0.11286345209959613 0.11642310984785727
900000000.0 -0.06139186358479044 -0.08659861279984249
920000000.0 0.045763557866409885 -0.05237974173930773
940000000.0 0.011399821374190317 -0.048853240861676035
960000000.0 0.03780304648902773 0.034590823905007846
980000000.0 0.015141258766423058 0.06759009720233052
1000000000.0 0.007224561336705602 -0.08652006454099545
1020000000.0 0.10216700139260466 0.008866795159646106
1040000000.0 0.09594900006932568 0.079553686337399
1060000000.0 0.15327896460420753 -0.010820216864101758
1080000000.0 0.010734053430183903 0.17635009993228373
1100000000.0 -0.1906892776257615 0.039754051950765326
1120000000.0 -0.0232102847701983 0.2165103695383945
1140000000.0 -0.2013984681062046 -0.14792927012930723
1160000000.0 -0.07137259389079106 -0.2702674053312465
1180000000.0 -0.17957871445373058 -0.25987492905238707
1200000000.0 0.3263556889432219 -0.09289873692519704
1220000000.0 -0.21400589430205552 0.30030061222077925
1240000000.0 0.3815297370517947 0.05310114732348726
1260000000.0 -0.14302231514712635 -0.3883984137323977
1280000000.0 -0.21293698908581143 0.36855999307138204
1300000000.0 0.3469467640241898 0.2718076109336263
1320000000.0 0.3143552621089157 -0.30451977181456924
1340000000.0 0.4388280260968854 -0.021618029544235525
1360000000.0 0.37035722247567743 -0.23315173459784683
1380000000.0 0.26357928222373883 -0.3519558841827741
1400000000.0 -0.4270229523223904 -0.015598522355276256
1420000000.0 -0.038751036192580655 0.4071550068979703
1440000000.0 0.3500609680627153 -0.15684187548730907
1460000000.0 0.03010250139543497 -0.3494998589665382
1480000000.0 -0.31722948391783734 0.04331256868573788
1500000000.0 -0.08799348058973121 0.2729084772258106
1520000000.0 0.13806020430768257 0.2152434910077253
1540000000.0 -0.18566057508913933 -0.12966892525684323
1560000000.0 0.13063375563816604 -0.14181206840411048
1580000000.0 0.1315062498025042 0.09552705619220303
1600000000.0 0.1220332638127183 -0.05452718807265139
1620000000.0 0.09891136241298139 -0.026572554438912356
1640000000.0 -0.07567212743652686 0.02394086878093937
1660000000.0 -0.0188633428890374 -0.051700819479770566
1680000000.0 0.027865819956631916 0.022797972677221695
1700000000.0 -0.021440727710996785 0.001917871392973335
1720000000.0 0.0043875542880872555 0.004207543064398173
1740000000.0 -0.011963268127695706 0.011405216273392922
1760000000.0 0.01649201639590559 -0.02730973952336183
1780000000.0 -0.05854664569213011 -0.01970996723295941
1800000000.0 -0.03481461782195811 0.08975789061792974
1820000000.0 0.05025815290735614 0.11751795402707035
1840000000.0 0.10498710364370155 -0.1270995057009737
1860000000.0 -0.14183282236824474 0.1461898446979779
1880000000.0 0.19678982417450866 -0.14137936283487648
1900000000.0 -0.25569043797532687 0.1269771490261635
1920000000.0 0.16431707889129238 -0.2756972335958285
1940000000.0 -0.3261559336880207 0.13314533723452746
1960000000.0 0.3726822655099449 0.06843943825776475
1980000000.0 -0.026667339054323176 -0.3958871339025926
2000000000.0 -0.3977501086093135 -0.11840742008159963
2020000000.0 -0.1900509477062585 0.38167248736356774
2040000000.0 0.2405436916541436 0.3609942166769365
2060000000.0 0.43068255843001596 -0.0671698691292161
2080000000.0 0.2306575391153473 -0.3658891219156616
2100000000.0 -0.07702203592989292 -0.41840805995790215
2120000000.0 -0.20523798509999075 -0.36384257879769494
2140000000.0 -0.3901704021351162 -0.116114319535144
2160000000.0 0.026804064750605136 -0.39428568133890474
2180000000.0 -0.29670745329361 -0.24040538872987183
2200000000.0 -0.36876248438480336 -0.009534892138835703
2220000000.0 -0.23927307480332288 0.26769346861206794
2240000000.0 0.04834814614125145 0.35012838699932974
2260000000.0 0.2276923536069598 0.27115853981800175
2280000000.0 0.35393947499326195 0.046761687735777505
2300000000.0 0.2091375250695412 -0.306810042952936
2320000000.0 -0.31192914826176676 -0.24286267245547738
2340000000.0 -0.13352466773034408 0.4069161624690136
2360000000.0 0.3421020608248639 -0.3185040677736693
2380000000.0 -0.461986940218047 0.22591792972904068
2400000000.0 0.4084970187653959 -0.3890081873014492
2420000000.0 -0.09454623802059124 0.6067455120637985
2440000000.0 -0.39165509225893963 -0.5305230734390666
2460000000.0 0.6808567539130741 0.14727173394078474
2480000000.0 -0.7070969211159357 0.1592318165601645
2500000000.0 0.7005865470159619 -0.24387291105745937
2520000000.0 -0.7405343109920631 0.12371383432479355
2540000000.0 0.6843216864816279 0.31222798433104587
2560000000.0 -0.3524027611127708 -0.6558030204367308
2580000000.0 -0.39109498433466794 0.6151009742681314
2600000000.0 0.6973574303178638 -0.09891737795628959
2620000000.0 -0.39783996237210745 -0.5440645628931459
2640000000.0 -0.6079213450727938 -0.19248555266216266
2660000000.0 0.0657951094601205 0.5890233720486002
2680000000.0 0.4708751313615841 -0.2803472259568635
2700000000.0 -0.4533629144782495 -0.21567236320073976
2720000000.0 0.17123368373545456 0.4230002695765227
2740000000.0 0.2013021620486062 -0.3607631084712911
2760000000.0 -0.35318891834813104 0.1279224533650577
2780000000.0 0.3158478573509373 -0.1389749862525581
2800000000.0 -0.29653698274323653 0.12100238670291293
2820000000.0 0.15259851578136402 -0.2619766683154178
2840000000.0 0.0550466965153432 0.2878641166380165
2860000000.0 -0.2668535158054305 -0.10918208725020268
2880000000.0 0.2103041593691096 -0.1951263859575659
2900000000.0 -0.07366225179261582 0.2769709648257845
2920000000.0 0.2487671869107317 -0.14983657664906597
2940000000.0 -0.2791209898611823 -0.09545566681111298
2960000000.0 -0.204669304212424 0.21603956879433162
2980000000.0 -0.12944057667423928 0.2723226062384462
3000000000.0 -0.28645241583976416 0.1023135513446883
3020000000.0 -0.253633590708823 -0.17078237509092722
3040000000.0 0.2142073169075451 -0.21362455505277372
3060000000.0 -0.09175993396382871 0.28633681791746474
3080000000.0 -0.03120846068430403 -0.29581702850093156
3100000000.0 0.15413682539493234 0.2494306157237294
3120000000.0 -0.1770953910091669 -0.22401581093684636
3140000000.0 0.2726436776471525 0.05138017763654002
3160000000.0 -0.216718401223606 0.15065414311050487
3180000000.0 0.2399823323106308 0.06358821044970944
3200000000.0 -0.09102493643463407 0.2063198268188169
3220000000.0 -0.17100591839193205 -0.10410534792172231
3240000000.0 0.10778311872007207 -0.1329702742871952
3260000000.0 -0.024649922873145658 0.1362682863215762
3280000000.0 0.014393283971822374 -0.10615939560593597
3300000000.0 -0.06865923994949043 0.0373489644020266
3320000000.0 0.014028015644136077 0.049521884835787726
3340000000.0 0.022192994717833838 -0.01659303441687417
3360000000.0 0.001101871983858422 -0.008860985036674453
3380000000.0 0.004565117731536722 -0.006076448674596876
3400000000.0 0.004150400533045644 -0.01999336381421512
3420000000.0 0.006254005452182869 0.03216549259056677
3440000000.0 0.02603352612679438 0.033950098977418866
3460000000.0 -0.04788117571578364 0.01602682097787969
3480000000.0 0.04123203639024212 -0.0461935086590801
3500000000.0 0.0475951068030503 -0.05895452164922164
3520000000.0 -0.06874852789369217 -0.060762857633646354
3540000000.0 0.09966622034383604 0.03505367981120815
3560000000.0 -0.09683410088225629 0.07053490414910836
3580000000.0 0.13003857957229104 0.02439922506863661
3600000000.0 -0.01087933953152004 0.15225107759026635
3620000000.0 -0.09982034791414958 0.13012425021900775
3640000000.0 -0.1754682465076085 0.010666587906522404
3660000000.0 -0.16803859176621008 -0.07734983963231112
3680000000.0 -0.12206290406543391 -0.1460346897438721
3700000000.0 -0.05953686687396183 -0.17982331176846786
3720000000.0 0.15279713900611583 -0.1108496385497122
3740000000.0 0.18216272709923553 -0.023340657490830863
3760000000.0 -0.1754965908569067 -0.025486066134454446
3780000000.0 0.16739353755862946 0.016132188855969457
3800000000.0 0.05320080566127135 -0.15015549552225974
3820000000.0 -0.0006872972766217642 -0.1527127099262963
3840000000.0 0.14282584403958953 -0.03537833486685688
3860000000.0 0.056058277794229464 0.13722464339545232
3880000000.0 0.06455891122871639 0.1417291784758226
3900000000.0 0.10355356490970598 -0.12027964934895959
3920000000.0 -0.16148059562067443 -0.021861920123083363
3940000000.0 0.13169869360394587 -0.10413795352909996
3960000000.0 0.14034931801293685 0.10034357994004045
3980000000.0 0.14211695215435252 -0.09905019865320079
4000000000.0 0.08953777044680038 -0.13815943487582935
