! Created with skrf (http://scikit-rf.org).
# Hz S RI R 50.0 
!freq ReS11 ImS11
400000000.0 -0.8516017476349806 -0.048029934215984074
420000000.0 -0.029587782960233424 0.8575743275633241
440000000.0 0.8202044869149786 0.11354967797538515
460000000.0 0.7617939379890702 -0.1541114972519945
480000000.0 -0.2326974409837811 0.6774542325624965
500000000.0 0.5237039266281154 0.274535319174618
520000000.0 0.22195998878368897 -0.4706069080313395
540000000.0 0.4477500903844104 -0.04120344485101389
560000000.0 -0.34576056236055425 -0.2067890478544158
580000000.0 -0.17660680308677426 -0.308643180837653
600000000.0 -0.3177992951823265 -0.18604795204556496
620000000.0 -0.23027645714205203 -0.2965935774355284
640000000.0 -0.035110457917521785 -0.38866561155018176
660000000.0 -0.34975856634012964 0.21384062152988526
680000000.0 0.040797819735825615 -0.41039189352937067
700000000.0 -0.40836626586022245 -0.11580759167545887
720000000.0 -0.40161325827095734 -0.09658656629286236
740000000.0 0.3777568746405545 0.17485954845661217
760000000.0 -0.3686114838613755 -0.1358702680514249
780000000.0 -0.04745008001164371 0.3567131313740017
800000000.0 0.18390818793306518 -0.26474734254312815
820000000.0 -0.16557481993627596 -0.21935813194563797
840000000.0 -0.20734211152251864 0.12726391484107635
860000000.0 -0.1905146481387498 -0.056859447032144274
880000000.0 0.1565180707526771 0.04405660409184829
900000000.0 -0.09581459390377875 -0.049467373145201464
920000000.0 0.010320123491632817 -0.07145071859300288
940000000.0 0.04428014126661811 0.02585547403801363
960000000.0 -0.0454200151259641 -0.021476983940078728
980000000.0 -0.047022148339042835 0.048587335470655156
1000000000.0 -0.014195177226457254 -0.0837086023033532
1020000000.0 0.07507172907719808 -0.06845266030619267
1040000000.0 0.1234316292171516 0.01055179928786225
1060000000.0 0.12229601567995878 -0.09296574621307983
1080000000.0 0.11719739626608998 0.13392507676429974
1100000000.0 -0.16265971424773285 0.11030178492673305
1120000000.0 -0.0016905435521480721 0.2197932946348651
1140000000.0 -0.20135158403636488 -0.15292159881468137
1160000000.0 0.024142071516527388 -0.28086447808875026
1180000000.0 -0.09420433468635506 -0.30349260104154197
1200000000.0 0.3401100846565308 0.02081987828043526
1220000000.0 -0.30345571000428484 0.211004482367607
1240000000.0 0.33002622834290224 0.20032129337598778
1260000000.0 -0.03396394245340348 -0.4128068466108841
1280000000.0 -0.3072218160540139 0.29452097128190413
1300000000.0 0.2944122760032673 0.32664704890688595
1320000000.0 0.3394655755640774 -0.27415649759222077
1340000000.0 0.43776062075308236 0.013706535526891304
1360000000.0 0.35935463392151684 -0.24926123755192417
1380000000.0 0.23322427330647733 -0.37217552645971214
1400000000.0 -0.4258370988630104 0.028799934084636845
1420000000.0 0.01972700604349473 0.4083339151866523
1440000000.0 0.3269623431378598 -0.2011541164830063
1460000000.0 -0.010629162822522941 -0.35178250482485535
1480000000.0 -0.2993585516088124 0.11611453870933017
1500000000.0 -0.07048230200673365 0.27942927054444017
1520000000.0 0.13420892552456543 0.21963274158513232
1540000000.0 -0.19611618363159417 -0.1165108810424738
1560000000.0 0.15877463548369858 -0.1130232482824098
1580000000.0 0.08588092341442403 0.14005559952881005
1600000000.0 0.1307450671915748 0.03364174458602624
1620000000.0 0.07253940293204039 0.07316688841221418
1640000000.0 -0.03976022758332106 -0.06817024537023918
1660000000.0 0.028734257349552428 -0.04572774743720572
1680000000.0 -0.01698231480430301 0.030262138208643805
1700000000.0 -0.017600033873948297 0.010223306108240285
1720000000.0 -0.0009180300207849867 -0.00459396066638371
1740000000.0 -0.009712005720069007 0.012977084947271183
1760000000.0 -0.006672272226879328 0.03179908110925504
1780000000.0 0.024351893814380934 -0.05628586108211241
1800000000.0 -0.09379994626499745 0.013907771621900142
1820000000.0 -0.01877023492358458 0.1252325790138954
1840000000.0 0.12154348687310854 -0.11018626519563944
1860000000.0 -0.139435802829476 0.14697862420847732
1880000000.0 0.1975471833337372 -0.138193364837615
1900000000.0 -0.246198372254672 0.14336516897420062
1920000000.0 0.13835549960790003 -0.28904970855975876
1940000000.0 -0.29838295073301835 0.18704555961859998
1960000000.0 0.37866588444429944 0.016899949136156993
1980000000.0 -0.03821535197529167 -0.3956900165452261
2000000000.0 -0.39790889524894074 -0.12034773159682245
2020000000.0 -0.16999357210144808 0.39147544266220446
2040000000.0 0.22183082420103667 0.3733656729066209
2060000000.0 0.4298924528224301 -0.07312263805151716
2080000000.0 0.2626812748341707 -0.34461590436249157
2100000000.0 -0.054575214602853 -0.4222062904181963
2120000000.0 -0.10760359427535197 -0.40429379857966424
2140000000.0 -0.3523259955990473 -0.20432077463295498
2160000000.0 0.08023894819103658 -0.38667677414438706
2180000000.0 -0.2215727349163468 -0.31171418407089513
2200000000.0 -0.3638661520757451 -0.06429983743036612
2220000000.0 -0.2953981864106019 0.20597977074724658
2240000000.0 0.016162540145153743 0.3532565991057113
2260000000.0 0.21209721464693634 0.2833172765979926
2280000000.0 0.3538665275143838 0.04398637848118096
2300000000.0 0.203516263278336 -0.31027732607841124
2320000000.0 -0.3121400731453379 -0.242621244465565
2340000000.0 -0.1479497175945144 0.40179163400290513
2360000000.0 0.36301945190952145 -0.2951432299227887
2380000000.0 -0.4608571164398747 0.22945186718015698
2400000000.0 0.4522263214848455 -0.338031141019403
2420000000.0 -0.1657757147928744 0.591774857514043
2440000000.0 -0.33139447449203735 -0.5705693250055279
2460000000.0 0.6635699020534089 0.2135434114068595
2480000000.0 -0.7108274632064433 0.14430206113071997
2500000000.0 0.7193315197952944 -0.18527994495452638
2520000000.0 -0.751220880574746 0.021696715657554228
2540000000.0 0.6810741971423023 0.3182759570588701
2560000000.0 -0.2829330151558612 -0.6892219181597841
2580000000.0 -0.47230284243964044 0.5559571725257481
2600000000.0 0.7045938139539585 0.010853426082788381
2620000000.0 -0.3700595508712862 -0.5638207687316862
2640000000.0 -0.5780981866797895 -0.269261635455298
2660000000.0 0.03157297063520845 0.5921966010098323
2680000000.0 0.4710851215288791 -0.28085885714426895
2700000000.0 -0.45669876890851674 -0.21016491566469364
2720000000.0 0.17545971460928306 0.42205378219482764
2740000000.0 0.22026522365136994 -0.3509538487870046
2760000000.0 -0.3539045282699662 0.1287482533669658
2780000000.0 0.31820144313176996 -0.13521624692607578
2800000000.0 -0.2966994244798758 0.12262927222266452
2820000000.0 0.15648866544732204 -0.26094767310948164
2840000000.0 0.07451164593478794 0.2845158498336196
2860000000.0 -0.2592810870449929 -0.12914982936028113
2880000000.0 0.2211947829733489 -0.1839982237525327
2900000000.0 -0.11277090633778732 0.26467529865893696
2920000000.0 0.2626053430352824 -0.12674216743189268
2940000000.0 -0.2659508121824526 -0.130008061343286
2960000000.0 -0.27513351939115605 0.11559619319264716
2980000000.0 -0.24059457050066763 0.1831713400677935
3000000000.0 -0.2996822886236698 0.05462311734153663
3020000000.0 -0.19913901493756386 -0.23244935458277483
3040000000.0 0.27705123023984823 -0.12406172969280592
3060000000.0 -0.18796882865471037 0.23501026672950937
3080000000.0 0.06567195849224866 -0.2895829954625304
3100000000.0 0.0829075622177429 0.27978727140633103
3120000000.0 -0.05479405845023001 -0.2781779401088059
3140000000.0 0.25430063192773783 0.10658167600144111
3160000000.0 -0.23268813691556775 0.11999973353371066
3180000000.0 0.2448846016502171 0.023958514369766634
3200000000.0 -0.04166458684985375 0.21982108519424123
3220000000.0 -0.1963756234099101 -0.03306493584777498
3240000000.0 0.016228334937261783 -0.16860625130836862
3260000000.0 0.07354200317219145 0.11609202989226866
3280000000.0 -0.08287156292942238 -0.06712801340414862
3300000000.0 0.0452568950229056 0.06405654757735718
3320000000.0 0.02374682149190867 -0.04679552993451872
3340000000.0 -0.018559654118529993 0.021935713257165177
3360000000.0 0.005990625268188889 -0.00874589387037106
3380000000.0 -0.007495136064357351 -0.0016649075229485792
3400000000.0 0.0009680750765770412 -0.020265329165498072
3420000000.0 -0.010341349781476583 -0.030611188989379968
3440000000.0 -0.027351952233550254 -0.03265226496932882
3460000000.0 -0.02414837581216043 -0.044042657791329105
3480000000.0 0.05026541006500888 0.034944279132206144
3500000000.0 0.058266987782573595 0.04687355374712771
3520000000.0 0.002085370180113736 -0.09102235556380592
3540000000.0 0.0963146165174867 0.043361806181956924
3560000000.0 -0.11250185873721666 0.041487663033313575
3580000000.0 0.12343861735901245 -0.05057399811398989
3600000000.0 -0.011438320643784933 0.1525820621858389
3620000000.0 -0.07714614331596889 0.14457401763166025
3640000000.0 -0.1675036666486489 0.054676669227322915
3660000000.0 -0.17565333058776056 -0.05806097598344817
3680000000.0 -0.1580415189781468 -0.10671294079393619
3700000000.0 -0.08793816169108468 -0.1682026056369993
3720000000.0 0.1351450116864377 -0.1325165681839338
3740000000.0 0.18010495989897973 -0.03659303012339765
3760000000.0 -0.1744882789876043 -0.027657033430541482
3780000000.0 0.16456855949621138 0.03324102594391403
3800000000.0 0.0321555279523886 -0.1557078784162371
3820000000.0 -0.040764984472790394 -0.14619726847428743
3840000000.0 0.1454828789462726 -0.023169765341562648
3860000000.0 0.01794575566205749 0.14754418305259195
3880000000.0 0.02372703127928113 0.15322479433582348
3900000000.0 0.14360954744807183 -0.06786617230824794
3920000000.0 -0.13829593878249685 -0.0865876818011385
3940000000.0 0.16134168689380965 -0.04587623512437773
3960000000.0 0.1374372967542728 0.10302854550946375
3980000000.0 0.13381108519524668 -0.10952078956586234
4000000000.0 0.08241552784889286 -0.1426170573274639
