! Created with skrf (http://scikit-rf.org).
# Hz S RI R 50.0 
!freq ReS11 ImS11
400000000.0 -0.8555123485854634 -0.002228170398292385
420000000.0 -0.0504605943672631 0.8578147982597095
440000000.0 0.8034610523251101 0.2042159200728426
460000000.0 0.7723765555219283 -0.09916238881623743
480000000.0 -0.247036781507339 0.6728398861809671
500000000.0 0.5084826389150457 0.2992103451770332
520000000.0 0.27299992759788033 -0.44427510095890493
540000000.0 0.44497235401199636 -0.06969756730727682
560000000.0 -0.347554025830989 -0.2041900505681001
580000000.0 -0.13952235264272142 -0.3250136675762768
600000000.0 -0.2658861795358 -0.2544970780242715
620000000.0 -0.2459846513310708 -0.2826788592412577
640000000.0 -0.11254143095771772 -0.37148312585079474
660000000.0 -0.34001398412984024 0.2256368980587249
680000000.0 0.004181371548061022 -0.4121029296146501
700000000.0 -0.42126458438401104 -0.04596207893296885
720000000.0 -0.4128669276558976 -0.005134324283811781
740000000.0 0.40065137866849093 0.11455575333676259
760000000.0 -0.38473708693928527 -0.0847037535920048
780000000.0 -0.08080807976036479 0.3513991464225439
800000000.0 0.2003811866809956 -0.25445213962954577
820000000.0 -0.1549594823552743 -0.2279461803434116
840000000.0 -0.2406780236043876 0.04027396266188012
860000000.0 -0.1385423617005812 -0.1432532408380965
880000000.0 0.11410175371788916 0.11506514484732973
900000000.0 -0.042777762242084544 -0.09714367564948619
920000000.0 0.04785525962298331 -0.05075413518425463
940000000.0 0.013154108982159648 -0.04840563880083244
960000000.0 0.018796998744957667 0.04739001874059569
980000000.0 0.016910136976217863 0.06708603877130985
1000000000.0 -0.017043917778871348 -0.08507760540411079
1020000000.0 0.1017600615235254 -0.01627639779264921
1040000000.0 0.07996114514986037 0.09584125303593746
1060000000.0 0.15269564283621195 0.014791962140312578
1080000000.0 0.026113685803834764 0.17472885911258576
1100000000.0 -0.19063380088258466 0.039016067803333714
1120000000.0 -0.013623031742393195 0.2175516770354061
1140000000.0 -0.2157249548132683 -0.12711151930233494
1160000000.0 -0.050280773413361235 -0.27487251099879345
1180000000.0 -0.17696137147405427 -0.26153628906633336
1200000000.0 0.3236850514027092 -0.10114164191620624
1220000000.0 -0.21291924810029894 0.30124566486613463
1240000000.0 0.3753656771594879 0.08752552638348851
1260000000.0 -0.12312877155758191 -0.3951367532170653
1280000000.0 -0.2579224200296001 0.3385423755155343
1300000000.0 0.32192733003123924 0.30076454637126315
1320000000.0 0.3131721981656539 -0.30507808663350444
1340000000.0 0.4384300756481859 -0.021996995715339723
1360000000.0 0.36859191368049926 -0.236475137700269
1380000000.0 0.24735736982082696 -0.36367044479332356
1400000000.0 -0.4270480956357114 0.0063536342181532545
1420000000.0 -0.03368200918814373 0.40798588367737
1440000000.0 0.3396856816231348 -0.17924966311229168
1460000000.0 0.024194083338421272 -0.3510247436010896
1480000000.0 -0.3155390532666848 0.05439764406353336
1500000000.0 -0.11182936124411659 0.26462591567119476
1520000000.0 0.06950927658276333 0.24737623849294194
1540000000.0 -0.18479224960228569 -0.13128716467929566
1560000000.0 0.16463912874510558 -0.1017123718798976
1580000000.0 0.06963430278742948 0.14733150494662017
1600000000.0 0.13408070352295734 0.0034869246580123037
1620000000.0 0.10112943866958884 0.014032930579048713
1640000000.0 -0.07739272344520041 -0.014815167583541386
1660000000.0 -0.01869751815855948 -0.05139396942317763
1680000000.0 0.0029181588347312448 0.03514138677770482
1700000000.0 0.00047034819598315954 0.021071784051686707
1720000000.0 -0.004853320914338374 -0.0034460668640011825
1740000000.0 0.0012589204241100235 -0.016009888212296562
1760000000.0 0.031826752174930556 0.0038005062379284408
1780000000.0 -0.008651197252460493 -0.06063553885460184
1800000000.0 -0.06444895779227623 0.07011830766365429
1820000000.0 0.02971989926004917 0.12369089149898463
1840000000.0 0.09521531344216139 -0.13400596324908642
1860000000.0 -0.1235482864292021 0.1617750123970213
1880000000.0 0.18755620115751695 -0.15332360024493605
1900000000.0 -0.2472946462672422 0.14248825603432314
1920000000.0 0.15145972907652636 -0.28286461392126905
1940000000.0 -0.3128172626567702 0.16248066020711852
1960000000.0 0.37704218618709484 0.040093529734150375
1980000000.0 -0.028134466784001666 -0.39623432162235683
2000000000.0 -0.39999307675929696 -0.11105648327828732
2020000000.0 -0.20822264302326304 0.3721338333034538
2040000000.0 0.21077724539914017 0.3792348534749608
2060000000.0 0.43157326505699733 -0.06020768562811073
2080000000.0 0.24108410293147822 -0.3589133704177373
2100000000.0 -0.0458955998192357 -0.42286170338223533
2120000000.0 -0.18107978679563141 -0.37631894068364713
2140000000.0 -0.37395549599259725 -0.15959167998638335
2160000000.0 0.04136988603037177 -0.39226354894202414
2180000000.0 -0.25957626954739155 -0.2792974108048944
2200000000.0 -0.3663180091610415 -0.040725144084331234
2220000000.0 -0.25603887972279443 0.2525692260415165
2240000000.0 0.05620598412716738 0.3496239435468208
2260000000.0 0.20664487570062912 0.2877541604940251
2280000000.0 0.3561961885519063 0.02927663202542761
2300000000.0 0.20767294965670965 -0.3085527136494755
2320000000.0 -0.3116794604392816 -0.24377138498616027
2340000000.0 -0.15366949627993634 0.40000713261559345
2360000000.0 0.360604345468711 -0.2977207046152464
2380000000.0 -0.4671605587229521 0.216239160073959
2400000000.0 0.44264473088809075 -0.35004493204547804
2420000000.0 -0.15343522695475778 0.594797850836695
2440000000.0 -0.3753974633357583 -0.5421184364028705
2460000000.0 0.6793410665934191 0.1529392142680339
2480000000.0 -0.6897765483406136 0.22252306360163362
2500000000.0 0.6978848795650253 -0.2528660112163158
2520000000.0 -0.7412861197185543 0.11825069367774788
2540000000.0 0.7102596850803717 0.24523090961567223
2560000000.0 -0.3440853745141171 -0.6607842892687849
2580000000.0 -0.36460998515702847 0.631733706211383
2600000000.0 0.7037679825634978 -0.04622954438421343
2620000000.0 -0.42424591023252 -0.5251850850143631
2640000000.0 -0.5833810648295433 -0.2601615324364077
2660000000.0 0.044205971024734725 0.592334400431317
2680000000.0 0.4485882333438618 -0.31737216707203514
2700000000.0 -0.46606665106769635 -0.19105162746320686
2720000000.0 0.19143354741021257 0.41581152010626565
2740000000.0 0.19117002070263509 -0.3681906123607503
2760000000.0 -0.35648863983505835 0.12336451222933012
2780000000.0 0.3266225997417073 -0.115518042224784
2800000000.0 -0.31008282811491517 0.08280260305614891
2820000000.0 0.18466607342306315 -0.24088571055324362
2840000000.0 0.047261837630102436 0.290069891478761
2860000000.0 -0.2646490912072151 -0.11487491591543063
2880000000.0 0.22639796709559137 -0.1770998420563271
2900000000.0 -0.10052420881650447 0.2687754194824142
2920000000.0 0.24072347500300745 -0.16180495161369285
2940000000.0 -0.2841193468837354 -0.07899557570511608
2960000000.0 -0.19651151420562588 0.22357589716830417
2980000000.0 -0.16844168354720707 0.24963269133264157
3000000000.0 -0.27698627434563966 0.1262303062152009
3020000000.0 -0.26279557970763345 -0.15666818936924817
3040000000.0 0.27379436409754904 -0.1299859377792458
3060000000.0 -0.01878857912720016 0.30156478561314354
3080000000.0 -0.007652182837302644 -0.298043700791984
3100000000.0 0.1476802779237132 0.253722095127711
3120000000.0 -0.15096216074839 -0.24253801942544678
3140000000.0 0.2670855583275336 0.07422707229620774
3160000000.0 -0.2273750767653825 0.13289118286363835
3180000000.0 0.24379425168795527 0.04256760946086019
3200000000.0 -0.08466990813361987 0.2086393897925275
3220000000.0 -0.16635487397532583 -0.11032524172254171
3240000000.0 0.12029010190377826 -0.12138920441604603
3260000000.0 -0.039875524702315965 0.13172376660960775
3280000000.0 0.013270606278823363 -0.1061434093160018
3300000000.0 -0.05219360851090202 0.05796847562246532
3320000000.0 0.04036122033868931 0.032736590460961966
3340000000.0 -0.005277658152363801 -0.02795989547187774
3360000000.0 -0.005395686211383431 -0.007557086679449758
3380000000.0 0.005328140225590159 -0.006109346083682398
3400000000.0 -0.007168045094018766 0.019179923154369335
3420000000.0 -0.031613547566066366 0.007757880365312172
3440000000.0 -0.03940830073055116 -0.018623903589483733
3460000000.0 0.03176537019791463 -0.03956905358956538
3480000000.0 0.017085732799350776 0.059525209299801526
3500000000.0 0.06569562210965561 0.0384550030958018
3520000000.0 -0.06359801115485308 -0.0673586667825222
3540000000.0 0.09096361267865039 0.05667379045189364
3560000000.0 -0.11662203479783635 0.03014710763892245
3580000000.0 0.13356636493572635 -0.0036380659291961005
3600000000.0 -0.04051174443983803 0.14684395570207423
3620000000.0 -0.12079061672436518 0.11119282731452199
3640000000.0 -0.17552876125368802 0.01629040356345471
3660000000.0 -0.17367522753031459 -0.06493995476107008
3680000000.0 -0.1276685202702704 -0.1411043771616821
3700000000.0 -0.06494303900090902 -0.17771617058546646
3720000000.0 0.13950292533349087 -0.12723807275691526
3740000000.0 0.17557692720971196 -0.05368072801227943
3760000000.0 -0.17721586156273467 -0.0030124874325803516
3780000000.0 0.1675831072795994 -0.01118085340194693
3800000000.0 0.043327380704194736 -0.1527077760962102
3820000000.0 -0.041050259996113635 -0.14679229853090653
3840000000.0 0.1301126475207005 -0.06886476780948088
3860000000.0 0.06627953684885422 0.13301006565018672
3880000000.0 0.09541423330237181 0.12275655874259221
3900000000.0 0.1191306269373506 -0.10606385311051181
3920000000.0 -0.16094814921361822 -0.03131884562374409
3940000000.0 0.1578710328966714 -0.060400241891285476
3960000000.0 0.13918008854103317 0.10324032648835173
3980000000.0 0.1579468499449924 -0.07366764887262674
4000000000.0 0.1198689294026212 -0.11515714568310086
