! Created with skrf (http://scikit-rf.org).
# Hz S RI R 50.0 
!freq ReS11 ImS11
400000000.0 -0.8546710234456423 -0.017994155869735982
420000000.0 -0.09796357829687453 0.8523913702462597
440000000.0 0.8063805534884397 0.18275965935024754
460000000.0 0.7618464268262286 -0.15644734487783077
480000000.0 -0.18618917602001794 0.6917050603571078
500000000.0 0.5150250485776219 0.28696535616510177
520000000.0 0.26864607972759236 -0.4467744931381752
540000000.0 0.44008627047357174 -0.09577043093204676
560000000.0 -0.3740965786068749 -0.15011999613175214
580000000.0 -0.15959316645782548 -0.31677815222173134
600000000.0 -0.2634667303549961 -0.25837948437748787
620000000.0 -0.21429936848200454 -0.30861657857560537
640000000.0 -0.030106529588035363 -0.38815568278187146
660000000.0 -0.3585147253654499 0.19653480408638332
680000000.0 0.06789155624557522 -0.40632931724096116
700000000.0 -0.4046782055108108 -0.12620862309809075
720000000.0 -0.40174768940587274 -0.09299418864942069
740000000.0 0.37645414348620226 0.17466005432971282
760000000.0 -0.38150505378565525 -0.09354811007593526
780000000.0 -0.08212543344748609 0.35009553062575804
800000000.0 0.1663306445698049 -0.27682648070935956
820000000.0 -0.18709242535790796 -0.20164758878974162
840000000.0 -0.21259484408541915 0.1181749160737375
860000000.0 -0.19015989728468147 -0.05975069220051124
880000000.0 0.1575038100655303 0.043259273150793406
900000000.0 -0.09842933852329348 -0.044943059666739484
920000000.0 0.04353006490299825 -0.056986556974439995
940000000.0 0.048223858038152795 0.016832943758481867
960000000.0 -0.04546408355323475 0.022035882527104037
980000000.0 -0.04542136801425832 0.0503890015686143
1000000000.0 -0.0063509902237370635 -0.08478330388179034
1020000000.0 0.0845166733582785 -0.05531083607664312
1040000000.0 0.12343784889664021 -0.006927304217648705
1060000000.0 0.10694302279753132 -0.11049097898640158
1080000000.0 0.12408463488556637 0.12778104234761836
1100000000.0 -0.15911980578159468 0.11573759877947842
1120000000.0 0.01200281005876566 0.21999277676354484
1140000000.0 -0.21133111768197094 -0.13848333067199384
1160000000.0 -0.0013484515296185765 -0.28208328223523543
1180000000.0 -0.0958331749310972 -0.30303262557606037
1200000000.0 0.3402823143611557 0.023165533696630464
1220000000.0 -0.30128868389584074 0.21473613080822132
1240000000.0 0.34139535697269197 0.17944630528718436
1260000000.0 -0.04606916348231222 -0.41113635087704165
1280000000.0 -0.29574026263414643 0.30529502454644086
1300000000.0 0.3074066620397355 0.3149204174064826
1320000000.0 0.3441267689124745 -0.2689899801847403
1340000000.0 0.43829921234326374 0.011306809759816207
1360000000.0 0.3672536541915621 -0.2364135671906548
1380000000.0 0.23197879452037148 -0.37287186096746866
1400000000.0 -0.42620533665349886 0.02341171553633363
1420000000.0 0.022742363793896134 0.4080800898594057
1440000000.0 0.3287380624979708 -0.19816182125079418
1460000000.0 -0.02537314663591324 -0.35062165311410426
1480000000.0 -0.30073075758475004 0.11284140006857532
1500000000.0 -0.034559853540795736 0.2860103880807485
1520000000.0 0.162189155278671 0.20009807777079433
1540000000.0 -0.20293488205520843 -0.10352131806465048
1560000000.0 0.15982835788784389 -0.11095979103829075
1580000000.0 0.09088721935844131 0.13655552529466572
1600000000.0 0.13473352031778665 0.004583523246562692
1620000000.0 0.09565116391669286 0.03833143850268484
1640000000.0 -0.0580924613517993 -0.05397441805150125
1660000000.0 0.04192998905662858 -0.035121712092380235
1680000000.0 -0.03422152207300652 0.00777089600115688
1700000000.0 0.01385131507445985 -0.01500067318449832
1720000000.0 -0.0049606427982381044 -0.0017240747045136303
1740000000.0 0.010802492920745806 -0.013318137186239996
1760000000.0 0.020395585381063217 0.025074734489052418
1780000000.0 -0.008476524361814605 -0.06082709922557013
1800000000.0 -0.07804221005680159 0.05540787494002289
1820000000.0 0.009316933495380219 0.12662693554484647
1840000000.0 0.12444292298256508 -0.10673569974984136
1860000000.0 -0.14974426712212532 0.13688954751928656
1880000000.0 0.19305854547744705 -0.14504287523620357
1900000000.0 -0.24658343782101463 0.1425421590965958
1920000000.0 0.13835422120134758 -0.28919454848039267
1940000000.0 -0.3090906159826339 0.16862299418634277
1960000000.0 0.37807701117288384 0.027355548005138196
1980000000.0 -0.06401950046688992 -0.3920265267117774
2000000000.0 -0.4075320156287829 -0.08107386731965725
2020000000.0 -0.15576495372134821 0.39770717955976137
2040000000.0 0.20956422498101365 0.3811032868323729
2060000000.0 0.42794989040384374 -0.08724912860430378
2080000000.0 0.2514875851686723 -0.353172855112954
2100000000.0 -0.03711684994826524 -0.4245976653961237
2120000000.0 -0.12118185950835106 -0.40069752360546784
2140000000.0 -0.36612506172182885 -0.17882157434617985
2160000000.0 0.061640385671708785 -0.39053647069266983
2180000000.0 -0.2610783437666901 -0.27847263128512995
2200000000.0 -0.3612763496945259 -0.07378292706039583
2220000000.0 -0.24828318468487667 0.2589279712416487
2240000000.0 0.025349084485260454 0.35172625547882264
2260000000.0 0.22444141967478232 0.272785801814447
2280000000.0 0.35544288356230075 0.025762372489754954
2300000000.0 0.18997618566330915 -0.3184342363990708
2320000000.0 -0.32620929224164785 -0.22231138390436936
2340000000.0 -0.11548943532325985 0.4119287719743338
2360000000.0 0.3323316291736198 -0.32841084271748183
2380000000.0 -0.43721783207723086 0.2717178270375833
2400000000.0 0.39413845008797127 -0.404314871628703
2420000000.0 -0.11237471465303511 0.6043247065366452
2440000000.0 -0.3811350061798516 -0.5387261285466816
2460000000.0 0.6762869322765952 0.16936956768586445
2480000000.0 -0.7039042033571581 0.17413537150210115
2500000000.0 0.7068963649288253 -0.226376526444846
2520000000.0 -0.7486352113446821 0.06435717086019879
2540000000.0 0.6921064670138591 0.2939890619955134
2560000000.0 -0.2942322048550635 -0.6840303729622853
2580000000.0 -0.44344972637392044 0.5779865763661668
2600000000.0 0.7037583345005018 -0.008466074493520846
2620000000.0 -0.3686269326499666 -0.5634068873199944
2640000000.0 -0.5899306174116978 -0.23917302997141374
2660000000.0 0.004982759009820609 0.5916905152355029
2680000000.0 0.46733357779442053 -0.28449497293343834
2700000000.0 -0.4422589316567573 -0.23521999455951925
2720000000.0 0.14467390689443568 0.43162695229829445
2740000000.0 0.1818002343690629 -0.37022332650140805
2760000000.0 -0.34905145960202943 0.13685966858521412
2780000000.0 0.3003112649147889 -0.1687189723884965
2800000000.0 -0.2900712947857377 0.13514263570596768
2820000000.0 0.1290365285585927 -0.2744130902592049
2840000000.0 0.11627121082234657 0.26882485267996803
2860000000.0 -0.2816275216142717 -0.062381659565576564
2880000000.0 0.21239799017783556 -0.19383146564246775
2900000000.0 -0.09370574683791066 0.27188377693044374
2920000000.0 0.2509137364197522 -0.1477939195940858
2940000000.0 -0.2661187961016691 -0.12867588297653829
2960000000.0 -0.24871653545608496 0.16482831624139616
2980000000.0 -0.16432636124606506 0.25403886248018537
3000000000.0 -0.30109733883863476 0.04857332077570894
3020000000.0 -0.22006050747709402 -0.21219199800729668
3040000000.0 0.28705023472192814 -0.09639968935851617
3060000000.0 -0.11553404748178131 0.27787385712075136
3080000000.0 0.03015123922627396 -0.2952586123164568
3100000000.0 0.014110970807050507 0.2917419273922725
3120000000.0 -0.12849492435125498 -0.2546961813249036
3140000000.0 0.2607052257539952 0.09255048620136586
3160000000.0 -0.23832340326043994 0.11022198989790137
3180000000.0 0.22439708738022543 0.10293311533777987
3200000000.0 -0.10667653582800596 0.19735486598953472
3220000000.0 -0.17678413248947128 -0.09110637801985141
3240000000.0 0.09797138726067568 -0.13865823557701046
3260000000.0 0.005404689111277401 0.1372777653828244
3280000000.0 -0.03675617181320402 -0.09969433735243462
3300000000.0 -0.009049722256353409 0.07675777122492786
3320000000.0 0.04888264965336244 -0.013534512865986422
3340000000.0 -0.027031353553804982 0.002239046550187782
3360000000.0 -0.00440929665608518 0.007693789668832775
3380000000.0 0.003078345924870632 0.007632868416008261
3400000000.0 -0.01594593868740301 0.012829065345129183
3420000000.0 -0.02955862606696157 -0.013783625537472978
3440000000.0 -0.04222026662289715 0.005847900133470816
3460000000.0 -0.008293514588159086 -0.049611719411076526
3480000000.0 0.030861609864190256 0.05301814771496253
3500000000.0 0.06928334358592736 0.029495262257678085
3520000000.0 0.007753435076987874 -0.09108068479156334
3540000000.0 0.06689246249069404 0.08147150119550008
3560000000.0 -0.11889870557386549 0.011042469904862476
3580000000.0 0.12105964235160425 0.053047024647995475
3600000000.0 -0.10327969988588633 0.1100068164218014
3620000000.0 -0.13927580596401465 0.08442123841758829
3640000000.0 -0.1728407550439852 -0.028187278297892013
3660000000.0 -0.1513004480241757 -0.10472010670545515
3680000000.0 -0.09675537011061429 -0.16268235170124354
3700000000.0 -0.03803466723642809 -0.1839329240855469
3720000000.0 0.1523591302030949 -0.10943972586068017
3740000000.0 0.1799571674780895 -0.02852170323827382
3760000000.0 -0.17528985241722428 -0.013888096804193492
3780000000.0 0.16685859404869277 0.011027132726301
3800000000.0 0.039900096534382486 -0.15297175630359133
3820000000.0 -0.025185505070073406 -0.14958281441967014
3840000000.0 0.1374773047202601 -0.050081914949303794
3860000000.0 0.0686089608171021 0.13030747432327636
3880000000.0 0.08596994795006022 0.12838458112040077
3900000000.0 0.08150360573126374 -0.13493603320723582
3920000000.0 -0.16195175498642903 0.009521757002351652
3940000000.0 0.11319016995097728 -0.12270011812426124
3960000000.0 0.1509190492270945 0.08184406023967755
3980000000.0 0.09198854894390698 -0.14527371488305188
4000000000.0 -0.01247660816473835 -0.16343397986970135
