! Created with skrf (http://scikit-rf.org).
# Hz S RI R 50.0 
!freq ReS11 ImS11
400000000.0 -0.8547097962662249 -0.020826651389094293
420000000.0 -0.055864863781025086 0.8562771195621364
440000000.0 0.8011909740751469 0.20983792751977026
460000000.0 0.7672175448801168 -0.13236027913272244
480000000.0 -0.21609521579011393 0.6832047921432809
500000000.0 0.5136947260762176 0.2893038725539648
520000000.0 0.2566421611235224 -0.4543012567773021
540000000.0 0.4428206012943261 -0.08426443167389042
560000000.0 -0.3443281100408679 -0.20954981039170434
580000000.0 -0.10589097135109019 -0.33788825134830375
600000000.0 -0.26820036958702215 -0.2518978260141587
620000000.0 -0.2708614134713772 -0.2582941669775136
640000000.0 -0.10265888985229824 -0.3739713934130677
660000000.0 -0.3253922887205718 0.24506479672183315
680000000.0 -0.009389375650886322 -0.4117397045550934
700000000.0 -0.4233185550577069 -0.014967038607891957
720000000.0 -0.4128078543035946 0.0004952770538022478
740000000.0 0.3990647189953688 0.1183131241338684
760000000.0 -0.38615846205278553 -0.07730798831537679
780000000.0 -0.06429734077484843 0.3549548473490703
800000000.0 0.1944661119921862 -0.25884686941745455
820000000.0 -0.15120757377450358 -0.23083728072700677
840000000.0 -0.2428986095591826 0.024428827935944943
860000000.0 -0.13199183158411507 -0.1493831945389597
880000000.0 0.11469295543516989 0.11431939145410934
900000000.0 -0.0407612331098794 -0.09767161390400579
920000000.0 0.04321708961505743 -0.054434886247347276
940000000.0 -0.006312263490861418 -0.0497834903758486
960000000.0 0.03228499173231833 0.039406731251077354
980000000.0 0.009214428032633221 0.068436789530204
1000000000.0 -0.0014630565180483311 -0.08700505239891955
1020000000.0 0.10275494416554057 -0.008117334997350512
1040000000.0 0.07979174641925195 0.09575894581068284
1060000000.0 0.15310244379023327 0.006879390195105959
1080000000.0 0.02136282903107982 0.17482790633287779
1100000000.0 -0.18524477539766976 0.05855193650457269
1120000000.0 -0.0016667154138946447 0.21727542316318751
1140000000.0 -0.22240035547282724 -0.11391754538341194
1160000000.0 -0.06595677961266662 -0.2708711240501682
1180000000.0 -0.18481990975738508 -0.25530986034403463
1200000000.0 0.31325914818489503 -0.1294181200751915
1220000000.0 -0.18473191005735792 0.3192542813104038
1240000000.0 0.38022581892245483 0.06522474798570205
1260000000.0 -0.15588187430297687 -0.3840256153661568
1280000000.0 -0.2354668151181429 0.3553496252501056
1300000000.0 0.3370234975883076 0.284160319568046
1320000000.0 0.3058789163380123 -0.3130843406346439
1340000000.0 0.4384902983569719 -0.02489098556860708
1360000000.0 0.3706303167142666 -0.23353606471964541
1380000000.0 0.25608771413969555 -0.35761967937618655
1400000000.0 -0.42639440241844434 -0.02570684994724866
1420000000.0 -0.05322040314913077 0.4055926310508333
1440000000.0 0.3529449361173516 -0.15094208163535963
1460000000.0 0.04738132492958009 -0.34805070539839056
1480000000.0 -0.3057422253149309 0.09418037175301791
1500000000.0 -0.10795567507764667 0.2661366953554992
1520000000.0 0.12574473974351288 0.2225487933927025
1540000000.0 -0.190902430459505 -0.12050457079689128
1560000000.0 0.13385378877221638 -0.1392249916076671
1580000000.0 0.12014548652781733 0.10999566808973531
1600000000.0 0.12991428419251275 -0.03436280578073309
1620000000.0 0.10220733494829748 -0.005882713067448827
1640000000.0 -0.07779724531864815 -0.016492628472935606
1660000000.0 -0.014624403572235337 -0.0532052575685243
1680000000.0 0.008446703792647975 0.03496251584855833
1700000000.0 -0.01540814119229543 0.015917013294612786
1720000000.0 0.006155240096248126 -0.002909790254487917
1740000000.0 -0.0058061108288793494 0.015160805652542944
1760000000.0 0.018373749079277028 -0.02718993785285885
1780000000.0 -0.05048307775074748 -0.03585453089778674
1800000000.0 -0.06267031362556216 0.07286448028342837
1820000000.0 0.0038683755907814458 0.12752791930527416
1840000000.0 0.11958943422281619 -0.11369427646050524
1860000000.0 -0.1361817980870093 0.15140329693470542
1880000000.0 0.19764863366556573 -0.14033726099719157
1900000000.0 -0.25261197443178474 0.13290000963946694
1920000000.0 0.17039332885045638 -0.27195086311099576
1940000000.0 -0.32173215458743937 0.14334695342540146
1960000000.0 0.37560178549145673 0.04921614764707282
1980000000.0 -0.04112751011232958 -0.3947020726989462
2000000000.0 -0.3968906767089742 -0.12177833863404139
2020000000.0 -0.19933117778320594 0.3770524137220291
2040000000.0 0.22135748478223152 0.37335779784754586
2060000000.0 0.4272401391484907 -0.0835364779189833
2080000000.0 0.23093785476539852 -0.3651441514494468
2100000000.0 -0.08971756952117134 -0.41569831768572957
2120000000.0 -0.20483666881714716 -0.36362593292843626
2140000000.0 -0.37871459475649444 -0.14811472822862434
2160000000.0 0.025146174493204564 -0.3938350136989822
2180000000.0 -0.2779610590038708 -0.26122438752148436
2200000000.0 -0.3687938013757484 -0.012489320474819788
2220000000.0 -0.2235209027931419 0.2815963178674811
2240000000.0 0.06622207314364781 0.3475601455252464
2260000000.0 0.2408881225179622 0.2600516800553517
2280000000.0 0.3574655431599725 0.0035754461715007207
2300000000.0 0.1939310551400548 -0.3169452111657522
2320000000.0 -0.3219868956089491 -0.2304839692315914
2340000000.0 -0.12749498199233097 0.40910742662396915
2360000000.0 0.35598018836672923 -0.3037470331331882
2380000000.0 -0.4587218297527482 0.23379759150262552
2400000000.0 0.430669979834368 -0.364863769514768
2420000000.0 -0.1515785319683221 0.5954030403082207
2440000000.0 -0.32880799787742365 -0.5720631942724497
2460000000.0 0.6626882119024486 0.214975198387126
2480000000.0 -0.7008668060424623 0.18455444942267774
2500000000.0 0.7163102389164019 -0.1951102656530675
2520000000.0 -0.7471957781754898 0.0722326993942658
2540000000.0 0.709477370539628 0.24587382713163913
2560000000.0 -0.31758499944851 -0.6722755533069227
2580000000.0 -0.32786520690688015 0.6505462657920255
2600000000.0 0.6992774423201757 -0.08465968888288801
2620000000.0 -0.471627123651951 -0.48170052439181044
2640000000.0 -0.5818182796925189 -0.2620567567558226
2660000000.0 0.0866960632678457 0.5870302741540232
2680000000.0 0.44845897310638144 -0.3155229955794896
2700000000.0 -0.4703756531339594 -0.17692516585753496
2720000000.0 0.20458544313481744 0.40858827404704123
2740000000.0 0.1881613358544384 -0.36907670088559325
2760000000.0 -0.35012752990500784 0.1391732029317639
2780000000.0 0.321801155204877 -0.12795854882922963
2800000000.0 -0.30208437166404767 0.10897171176815197
2820000000.0 0.16521259829117727 -0.2546821122325204
2840000000.0 0.051981032469369394 0.2890024961468724
2860000000.0 -0.26155137148516666 -0.12233037305434619
2880000000.0 0.22455496486304966 -0.1788106844983178
2900000000.0 -0.09336979805638218 0.2709715077828624
2920000000.0 0.252467019091553 -0.14269089131298895
2940000000.0 -0.2832829466601611 -0.08019356455785064
2960000000.0 -0.2145234075572377 0.2057656716293591
2980000000.0 -0.13489482208972312 0.2693361650805163
3000000000.0 -0.2817979013857651 0.11388059398207818
3020000000.0 -0.25886663068956883 -0.16214530207141886
3040000000.0 0.2162529662018946 -0.2116997952737005
3060000000.0 -0.043473679122898325 0.2983119194516875
3080000000.0 -0.04811287361537594 -0.2936260966208337
3100000000.0 0.187564693569478 0.22494285275296766
3120000000.0 -0.14893022716015564 -0.24253825469214157
3140000000.0 0.2758438850045597 0.029602505377835008
3160000000.0 -0.19928857568084887 0.17288554622554161
3180000000.0 0.24667057035974332 0.01988147629228355
3200000000.0 -0.08480413877260981 0.20900405077854625
3220000000.0 -0.1782282108317344 -0.09189533354552612
3240000000.0 0.10388705056337379 -0.13563412016516962
3260000000.0 -0.020286381204592096 0.13676972460340003
3280000000.0 0.04572981245115723 -0.09674717183219689
3300000000.0 -0.030451514702969057 0.07191554212577769
3320000000.0 0.04465833837785201 0.027212377331824168
3340000000.0 0.026504608872568853 0.010470946945663214
3360000000.0 0.008778345508275158 -0.004613975382798396
3380000000.0 -0.0030179131294510446 0.0062443891848266144
3400000000.0 -0.019606015536877297 -0.00513171899395255
3420000000.0 -0.0020062214309075634 0.0324051325160816
3440000000.0 0.01713235431830587 0.03932075769363669
3460000000.0 -0.049051040339074405 0.014411996323189924
3480000000.0 0.059474178661939964 -0.016909509595144336
3500000000.0 0.0749616102992407 0.011655864413095303
3520000000.0 -0.05735882988133129 -0.07110394809942525
3540000000.0 0.1050472109050517 0.014982542794840781
3560000000.0 -0.08942903709131096 0.08012363310607487
3580000000.0 0.09833815744127952 -0.09066239685581773
3600000000.0 0.059572366718035334 0.14105001097550862
3620000000.0 -0.04674763946293821 0.15803125414402108
3640000000.0 -0.1617779289873034 0.07183108516049591
3660000000.0 -0.1846382780035224 -0.0223275177715755
3680000000.0 -0.14955629447522137 -0.11866741887491872
3700000000.0 -0.09150013951970984 -0.16673549831530715
3720000000.0 0.15453522179701054 -0.11017195661277296
3740000000.0 0.1838552964776865 -0.015450104193901899
3760000000.0 -0.17650501143750175 -0.02396386254326292
3780000000.0 0.1659796984163537 0.03651401213328123
3800000000.0 0.08158403251149479 -0.13802644812401207
3820000000.0 -0.0019953584990382613 -0.15347057672051556
3840000000.0 0.14343287488684545 -0.0333619592569735
3860000000.0 0.06315253700416511 0.13462399569370315
3880000000.0 0.02628058824996999 0.1533299370545169
3900000000.0 0.12603877318968706 -0.09770774357698803
3920000000.0 -0.1375146855169079 -0.08980959650555309
3940000000.0 0.16797563815788744 -0.018984148147772217
3960000000.0 0.079427500525909 0.15374606415822314
3980000000.0 0.17313716161446027 -0.015397247920551332
4000000000.0 0.14449381951084891 -0.08189698538128912
