! Created with skrf (http://scikit-rf.org).
# Hz S RI R 50.0 
!freq ReS11 ImS11
400000000.0 -0.8510931142215254 -0.04736149017715573
420000000.0 -0.07159727609701207 0.8539509151296555
440000000.0 0.8176426361474368 0.1319508007445811
460000000.0 0.7556233708613926 -0.1838712229858772
480000000.0 -0.220301012568299 0.6816060542778231
500000000.0 0.4512951637671469 0.3807073648496289
520000000.0 0.13395184376100316 -0.5034487003523457
540000000.0 0.4321778271186931 -0.12045612997762792
560000000.0 -0.3253019769366661 -0.24005052254043005
580000000.0 -0.11291851671007704 -0.3371267655292445
600000000.0 -0.34485388282844837 -0.1329514189546139
620000000.0 -0.2089483924122505 -0.310499406164349
640000000.0 0.04704257548803003 -0.38579055469219536
660000000.0 -0.3650252016891515 0.18745606104935003
680000000.0 0.052935193887625256 -0.408575075269373
700000000.0 -0.4069638958573384 -0.11895687801382575
720000000.0 -0.38280275135077174 -0.1539823853188556
740000000.0 0.3578436501921092 0.20978422443626002
760000000.0 -0.38963013377389777 -0.05135742400275175
780000000.0 -0.07814435649560182 0.35066516743146914
800000000.0 0.15989730595218266 -0.2799016310166494
820000000.0 -0.18575515761210545 -0.20374177362061843
840000000.0 -0.20663641025868343 0.12893238749304214
860000000.0 -0.1546893008669501 -0.125405243291075
880000000.0 0.16050119624509532 -0.027901737046129575
900000000.0 -0.05955192443489059 -0.08928106138144935
920000000.0 -0.013109967239647167 -0.07148836279554548
940000000.0 0.017713235442592803 0.048221616745768976
960000000.0 -0.031100182096057596 -0.03838285964108746
980000000.0 -0.04093810054999273 0.053141005348141174
1000000000.0 -0.01659919271112131 -0.08367029971434238
1020000000.0 0.06551029275680902 -0.07626141248500716
1040000000.0 0.12405229492610255 0.008117335905684855
1060000000.0 0.09189646357626072 -0.12261569792220807
1080000000.0 0.11178967783225133 0.13853247015874465
1100000000.0 -0.14975177811407675 0.12729527500640897
1120000000.0 0.02777049282708796 0.21804154309386423
1140000000.0 -0.20572480599811357 -0.14692527220202498
1160000000.0 0.012583585359382858 -0.2811948440300689
1180000000.0 -0.0932107871300823 -0.3036456895761665
1200000000.0 0.3403236012045674 0.001993734942105488
1220000000.0 -0.27910433950555913 0.24320491719571352
1240000000.0 0.33869959556119256 0.18534102093294114
1260000000.0 -0.05535083193663644 -0.4105570051177627
1280000000.0 -0.2989073621052733 0.3032598120630895
1300000000.0 0.3000209873050462 0.3219229966520498
1320000000.0 0.31844454158663316 -0.2990389693153919
1340000000.0 0.4379421464836459 -0.01767368783854281
1360000000.0 0.35422199944894034 -0.2568113897371365
1380000000.0 0.23068498245660007 -0.37349869132335156
1400000000.0 -0.425977023623458 0.02833401856980746
1420000000.0 0.0058715950802442725 0.4093429622975839
1440000000.0 0.3217380377310558 -0.20935032772937293
1460000000.0 -0.00278344448615753 -0.35161528326544655
1480000000.0 -0.3071653997453675 0.09316418441467386
1500000000.0 -0.05499075351575676 0.2826328457546795
1520000000.0 0.13388502866391924 0.21965377945031206
1540000000.0 -0.19998474881838352 -0.10800190461063741
1560000000.0 0.13944161931056837 -0.13566316763273845
1580000000.0 0.07209506160280617 0.1474282010364914
1600000000.0 0.1328677889396454 0.02598122885090814
1620000000.0 0.07460573916307243 0.07060212326248913
1640000000.0 -0.033932768342063394 -0.07200703111073678
1660000000.0 0.03782455382609967 -0.03885655280475281
1680000000.0 -0.029931518802076597 0.018570642408080977
1700000000.0 -0.007649882989200356 -0.019531116266993748
1720000000.0 -0.002554358809421821 -0.005801980396854897
1740000000.0 0.015904018875703918 0.004858399519751289
1760000000.0 0.030748357140064485 0.012473550000554091
1780000000.0 0.002400726465343589 -0.06162496466117952
1800000000.0 -0.09016816118826063 0.03272631117842832
1820000000.0 -0.03549363385143812 0.12218239029389338
1840000000.0 0.13367090260610368 -0.09523163730433992
1860000000.0 -0.14828737530553812 0.13829157092296818
1880000000.0 0.20277325437940968 -0.13115396776775315
1900000000.0 -0.2438878807866701 0.14701590887216423
1920000000.0 0.13862459723491627 -0.28903935308896334
1940000000.0 -0.30948979578618885 0.167744547548475
1960000000.0 0.3785711051743565 0.014343940350557553
1980000000.0 -0.0678681669303063 -0.39133172308603337
2000000000.0 -0.39755753968320867 -0.12253269505838134
2020000000.0 -0.1934367163347908 0.38100134594724566
2040000000.0 0.22922886775526471 0.36972360124778936
2060000000.0 0.4235308402914372 -0.10439138785710038
2080000000.0 0.24800839289913754 -0.35498636214209417
2100000000.0 -0.07125345473317782 -0.42017144517784766
2120000000.0 -0.14640900911833335 -0.3918295017502648
2140000000.0 -0.3507177368969991 -0.20732382511130176
2160000000.0 0.08251820006957065 -0.38629098360586783
2180000000.0 -0.23824494858005438 -0.29804541292377484
2200000000.0 -0.364064835874431 -0.05771439687830278
2220000000.0 -0.2687489935635688 0.2382279131503399
2240000000.0 0.04473111027195891 0.35013984673828513
2260000000.0 0.23312348257164195 0.26592052049533915
2280000000.0 0.35652054647331766 0.007853397225679534
2300000000.0 0.1810869648687712 -0.3235192590348761
2320000000.0 -0.32763642972409573 -0.2207984086026399
2340000000.0 -0.08755892377992307 0.41915035789249444
2360000000.0 0.333967838040731 -0.3274677655877415
2380000000.0 -0.4558522849729464 0.23824151719390793
2400000000.0 0.4184792171569275 -0.379029112864354
2420000000.0 -0.1119843080852062 0.6044832224330824
2440000000.0 -0.3936987207439309 -0.5297506382296604
2460000000.0 0.6785846304009674 0.16135323260343723
2480000000.0 -0.6975365683338967 0.19966356078157005
2500000000.0 0.7054916173845093 -0.23325221551595154
2520000000.0 -0.7503374671221248 0.03620694931737512
2540000000.0 0.6725510855440258 0.3347214174085612
2560000000.0 -0.27198232233001657 -0.6922534886264824
2580000000.0 -0.44836556897884255 0.5743164389191557
2600000000.0 0.7037741005345204 -0.0020741897518086723
2620000000.0 -0.37739481337681463 -0.5576473995592703
2640000000.0 -0.5371281460297103 -0.3421997456776456
2660000000.0 -0.023445428725396702 0.5914814177693056
2680000000.0 0.4857894865322011 -0.2511733961160518
2700000000.0 -0.4562439533620705 -0.20644218028219596
2720000000.0 0.18852595611080283 0.4144797824016601
2740000000.0 0.17996304292569262 -0.3715224876700063
2760000000.0 -0.33396762457966306 0.17214284903277874
2780000000.0 0.3033723681129143 -0.16548803074062282
2800000000.0 -0.28645916156035095 0.14370575119757345
2820000000.0 0.12172665776492544 -0.2786607066443387
2840000000.0 0.10031576516969394 0.27586705025985253
2860000000.0 -0.27756549042720063 -0.08145644173668966
2880000000.0 0.21291174772215862 -0.1936986353251378
2900000000.0 -0.08404391792300593 0.2751968681965768
2920000000.0 0.2655640788637579 -0.11998758262438597
2940000000.0 -0.26843195819252286 -0.12389355044763396
2960000000.0 -0.24769800388095095 0.16597518587741655
2980000000.0 -0.19227266212039174 0.23351020987874854
3000000000.0 -0.2987814520442634 0.057815657463875327
3020000000.0 -0.17905227574438 -0.24752450022737957
3040000000.0 0.27550050430194284 -0.12611438785286264
3060000000.0 -0.13014778746773853 0.2718852704257782
3080000000.0 0.030559358598130797 -0.2956702195751233
3100000000.0 0.028268163095962345 0.2904712978999373
3120000000.0 -0.10494815050540955 -0.26428626601352373
3140000000.0 0.25833375618201737 0.09791910994442825
3160000000.0 -0.2376102561091953 0.11095105155832535
3180000000.0 0.23830474881723251 0.06304375181044591
3200000000.0 -0.09595190839843869 0.20267929703511198
3220000000.0 -0.16943434966573345 -0.10391699989389225
3240000000.0 0.09352894865507184 -0.14172049747850857
3260000000.0 0.009771218196078818 0.13641534308110265
3280000000.0 -0.013375305371562545 -0.10500670138969752
3300000000.0 0.02151547746466566 0.07446353375634741
3320000000.0 0.04663100507043276 -0.021264682321281602
3340000000.0 -0.027079771661313385 -0.007892197153526622
3360000000.0 0.0014935819674544394 0.01012326752705778
3380000000.0 -0.0020374029546269094 0.0072230328620015005
3400000000.0 -0.017105309720425094 0.011030980683015917
3420000000.0 0.008415697139672763 -0.031146496181039547
3440000000.0 -0.03523275628198594 -0.024105356143578244
3460000000.0 0.03605390109198534 -0.03552505746011141
3480000000.0 0.03961863343164245 0.04811040479948867
3500000000.0 0.03242402036695738 0.06864566853019266
3520000000.0 -0.002131646008502027 -0.09168843421597983
3540000000.0 0.0422607716221434 0.09698389437319777
3560000000.0 -0.11676298621590757 0.027692457342127514
3580000000.0 0.13036366624400808 0.023483893263744778
3600000000.0 -0.07764339914582466 0.13041545943381544
3620000000.0 -0.11398193961078426 0.11735536038147099
3640000000.0 -0.17573601970604852 -0.0054263569587745175
3660000000.0 -0.1721558286240896 -0.06735370389059325
3680000000.0 -0.10036353708252231 -0.16089959885647492
3700000000.0 -0.04240185970161891 -0.1840260321642263
3720000000.0 0.17804631123884845 -0.0600917462934336
3740000000.0 0.18205555389519218 0.018128977033965293
3760000000.0 -0.1691933879580414 -0.048750718884828376
3780000000.0 0.15151342764445858 0.07426823530248078
3800000000.0 0.09093226880798491 -0.1299771426102885
3820000000.0 0.017728249850120847 -0.15100322321099807
3840000000.0 0.1446339509652906 -0.01670728549731253
3860000000.0 0.045697163688881486 0.14012561385605382
3880000000.0 0.02012071316921377 0.1532188533853434
3900000000.0 0.11134050692565313 -0.11203799068163135
3920000000.0 -0.14130663620786513 -0.08067728887236958
3940000000.0 0.1637734784114215 -0.035656570980497695
3960000000.0 0.09780241266192279 0.14141546866345348
3980000000.0 0.17003555010124885 -0.029805552550152957
4000000000.0 0.1252012875989915 -0.1075636002231409
