! Created with skrf (http://scikit-rf.org).
# Hz S RI R 50.0 
!freq ReS11 ImS11
400000000.0 -0.853775580728521 -0.041687563118825495
420000000.0 -0.08999072817761831 0.8546877670207258
440000000.0 0.7862295132740237 0.261528639835493
460000000.0 0.7693539118485078 -0.11916726253199086
480000000.0 -0.179227372959852 0.693488338749231
500000000.0 0.5200786870675 0.2780991917669108
520000000.0 0.26760004789837155 -0.4476208540486403
540000000.0 0.44200832094151804 -0.08780438842000553
560000000.0 -0.3582952990360265 -0.18561232837815833
580000000.0 -0.11942605123287622 -0.3333561727231134
600000000.0 -0.23844421579693925 -0.28001342649896277
620000000.0 -0.22191635530547302 -0.3019338515029029
640000000.0 -0.11814442010999965 -0.3693355233309003
660000000.0 -0.3242239518222329 0.24719204833396774
680000000.0 -0.010025705694830012 -0.41155922493114383
700000000.0 -0.4221985806919615 -0.042224718977580636
720000000.0 -0.41205439784367104 -0.012282554254288387
740000000.0 0.40090234122255536 0.11012183931885139
760000000.0 -0.39012735701436446 -0.05436489817269555
780000000.0 -0.09273093658348827 0.34870442893577885
800000000.0 0.2070908443655241 -0.24907859086151862
820000000.0 -0.1402050539093289 -0.237709578583101
840000000.0 -0.24175484743331963 0.029453804196959053
860000000.0 -0.15419995551135182 -0.12595361079807774
880000000.0 0.1142956281743844 0.1152070568001466
900000000.0 -0.06496778619820914 -0.08431708513766495
920000000.0 0.04713879106072578 -0.051547009576637666
940000000.0 0.007768345230366552 -0.04957595886818347
960000000.0 0.037140700453974475 0.03536499177260697
980000000.0 0.01632142887290641 0.06756768122326395
1000000000.0 0.01829113039454132 -0.08525485101884016
1020000000.0 0.10254123628101725 0.001441585147374243
1040000000.0 0.0880299026184893 0.08805687848283604
1060000000.0 0.1530940473080204 -0.011248210558519395
1080000000.0 0.017543418244513057 0.1758786785989324
1100000000.0 -0.18345518191715912 0.06524353955864373
1120000000.0 -0.021961347493807896 0.21668942286068876
1140000000.0 -0.20274625146658223 -0.14641444449932145
1160000000.0 -0.06554119207355237 -0.2718967319319307
1180000000.0 -0.18579231761033874 -0.25565685168584956
1200000000.0 0.3288349011012675 -0.08423666657265245
1220000000.0 -0.2157179049791444 0.2995206040202836
1240000000.0 0.38213296011455883 0.04814013954014159
1260000000.0 -0.1350141727750446 -0.39116254450874005
1280000000.0 -0.23368385917677403 0.35551654824985773
1300000000.0 0.3481561297481888 0.270249663342546
1320000000.0 0.3219032246912784 -0.29632637618537466
1340000000.0 0.43900227338157455 -0.009412102795003324
1360000000.0 0.3699676079670446 -0.23338757119941098
1380000000.0 0.25909757282155754 -0.35506984227679433
1400000000.0 -0.4270776787461799 -0.011209794559500797
1420000000.0 -0.048418425868156284 0.4061572641914402
1440000000.0 0.34852910918596547 -0.1599418937305125
1460000000.0 0.01876760777971928 -0.3504274182559588
1480000000.0 -0.313521895431908 0.06432457574647105
1500000000.0 -0.08779469590863012 0.2729695900870403
1520000000.0 0.13821824099559707 0.2156926085738401
1540000000.0 -0.19864055822234056 -0.10924416180133936
1560000000.0 0.15261974148651702 -0.11856487821073808
1580000000.0 0.09646892822045186 0.13132438758494125
1600000000.0 0.11548487140998985 -0.06782994847845071
1620000000.0 0.10228433728192644 -0.004327811286927296
1640000000.0 -0.07935180455538117 0.00028603912371163277
1660000000.0 -0.0048943458841823745 -0.05476993799511467
1680000000.0 -0.004005010160705968 0.03541581226801411
1700000000.0 -0.005804091038403071 -0.020490900261307905
1720000000.0 -0.004520195734077056 0.003747157113162334
1740000000.0 -0.0168834519931549 0.00040503990004771864
1760000000.0 0.02655116887583457 -0.01791516903818647
1780000000.0 -0.05253495311717594 -0.03269803069590841
1800000000.0 -0.04978140151914742 0.08224146191989153
1820000000.0 0.0286095590726345 0.12436245648356752
1840000000.0 0.1090518011045871 -0.1232665727280406
1860000000.0 -0.14688837414920164 0.1406126197480953
1880000000.0 0.19253094035700288 -0.1466418208216752
1900000000.0 -0.2538947906732628 0.13006375971236456
1920000000.0 0.15098897907750922 -0.28311365461242477
1940000000.0 -0.3213431629651256 0.14406201455652423
1960000000.0 0.37588620418487523 0.04785023537542692
1980000000.0 -0.04085531641941654 -0.3947030263207876
2000000000.0 -0.4017753213346694 -0.10415767928216417
2020000000.0 -0.183660630367171 0.3849644791289647
2040000000.0 0.2395463426584004 0.36205247539939994
2060000000.0 0.42979826626853423 -0.07453000183230851
2080000000.0 0.2308846781194861 -0.36606778302548265
2100000000.0 -0.07717645064714894 -0.418749080651217
2120000000.0 -0.18857880253540757 -0.37311555129608004
2140000000.0 -0.37759439049795546 -0.15277866073878857
2160000000.0 0.028941299074292614 -0.39419336837498636
2180000000.0 -0.28583951009410086 -0.25308798229108
2200000000.0 -0.36714092967710876 -0.03670178493960597
2220000000.0 -0.22656518277839735 0.27842379702878917
2240000000.0 0.03787594649846243 0.3512859120400081
2260000000.0 0.21904382095389022 0.2778746580960962
2280000000.0 0.3542151297404705 0.04317374288257638
2300000000.0 0.19770319268051642 -0.31425004703438986
2320000000.0 -0.3118068762842787 -0.2426143679740401
2340000000.0 -0.11273703064765475 0.4132323520671775
2360000000.0 0.3375026330914502 -0.3232050143900474
2380000000.0 -0.4531254700660711 0.2438968614953279
2400000000.0 0.4030425617361873 -0.3951445904339088
2420000000.0 -0.11250419134153154 0.6039652122926723
2440000000.0 -0.3812874106771702 -0.5383720441296047
2460000000.0 0.6835019202062033 0.13475241852755282
2480000000.0 -0.6984971686132683 0.19285628389925846
2500000000.0 0.690597477538985 -0.2710558500427267
2520000000.0 -0.7433723783998597 0.10723825606399001
2540000000.0 0.7104186064646107 0.24605947196715924
2560000000.0 -0.3479307210891065 -0.6586076166638968
2580000000.0 -0.3937013916997295 0.6133873889426582
2600000000.0 0.6991084850549187 -0.08714307670398548
2620000000.0 -0.46403473380284027 -0.48843187649315645
2640000000.0 -0.6045775192308357 -0.20209261065927
2660000000.0 0.08411654497191846 0.5866487899578862
2680000000.0 0.4646485743597297 -0.2907443722388789
2700000000.0 -0.45737549802868993 -0.20651711495649935
2720000000.0 0.1735100110458733 0.42205371976420786
2740000000.0 0.2224870834542881 -0.348077419953596
2760000000.0 -0.35938257453305605 0.10848421870405145
2780000000.0 0.31598577587926274 -0.13793980671996256
2800000000.0 -0.30182713826949714 0.10653994382885759
2820000000.0 0.16541047387640717 -0.2539108048880208
2840000000.0 0.08713509100089924 0.27896216493217696
2860000000.0 -0.27427394845501313 -0.08796508002689254
2880000000.0 0.20418622092777072 -0.20142024887975207
2900000000.0 -0.07355684092804633 0.2774218656726068
2920000000.0 0.24075119718787605 -0.16252233013239548
2940000000.0 -0.2836392423000665 -0.0812823988227285
2960000000.0 -0.22065276233807848 0.19991960995217128
2980000000.0 -0.12779962306357914 0.2734535763689434
3000000000.0 -0.2808274904701683 0.11779636244270389
3020000000.0 -0.2405664584055973 -0.1888775421414849
3040000000.0 0.2590335410203657 -0.1574497943251929
3060000000.0 -0.05395559123309393 0.2964491340876131
3080000000.0 -0.00521794252479613 -0.29744050984751635
3100000000.0 0.1259781246517513 0.2647837335635809
3120000000.0 -0.14391805989875675 -0.24684049547286407
3140000000.0 0.2682538003194752 0.07044467193558653
3160000000.0 -0.2395203916766858 0.11004375148912186
3180000000.0 0.2309036575494281 0.09111181260969001
3200000000.0 -0.1084651091229172 0.1976379769677998
3220000000.0 -0.17331084280790315 -0.10037077141351844
3240000000.0 0.11639884695435851 -0.12455314952579087
3260000000.0 -0.030672861359682977 0.13466094268860423
3280000000.0 0.03500989805569428 -0.1011463001280401
3300000000.0 -0.04719780672059508 0.061726067212618765
3320000000.0 0.03725359454182408 0.03483032359230987
3340000000.0 0.01454590266168869 -0.02316557442901527
3360000000.0 0.008198049532874403 0.0016604971105707161
3380000000.0 0.004688765078015313 -0.006574891176578605
3400000000.0 0.001684318650393894 -0.020763796404530414
3420000000.0 -0.0064325175681944225 0.03244914799620593
3440000000.0 -0.025075078316627877 0.03475431052349238
3460000000.0 -0.04968358843930335 -0.010625263894454236
3480000000.0 0.05985535224679447 -0.015305837313736364
3500000000.0 0.07427403349836315 -0.014546147980665738
3520000000.0 -0.04264616040898577 -0.08152206339487618
3540000000.0 0.09739375057684262 0.04145098761869384
3560000000.0 -0.1098978496562659 0.04772108417236592
3580000000.0 0.13179171271483658 0.01704940858351381
3600000000.0 -0.05581850857967695 0.14120236155520635
3620000000.0 -0.10420558619768011 0.12649589697378028
3640000000.0 -0.1763031105016584 0.006554298768598781
3660000000.0 -0.1673558145001325 -0.07984162878964174
3680000000.0 -0.1102235777274581 -0.15518134254394209
3700000000.0 -0.04233388918471884 -0.1844584484090839
3720000000.0 0.16520388023961355 -0.08969335485208778
3740000000.0 0.18340785056612052 -0.0014242091619445579
3760000000.0 -0.17164174842670193 -0.04299093357566474
3780000000.0 0.16094167466430825 0.04815955954239717
3800000000.0 0.06392081586313346 -0.1456344748294035
3820000000.0 -0.008119026539913882 -0.15175973391144246
3840000000.0 0.14420935133721025 -0.02725926717575441
3860000000.0 0.047083808226553746 0.14019653861333717
3880000000.0 0.07134346012893389 0.13746554131426542
3900000000.0 0.10275475009807765 -0.11993444087469014
3920000000.0 -0.1609094097199045 -0.022527131676407446
3940000000.0 0.13661649942705492 -0.09670895328922376
3960000000.0 0.14321040000367014 0.09526560588068789
3980000000.0 0.12237541078557271 -0.12124911255576563
4000000000.0 0.05297595857667048 -0.1551724797977043
