! Created with skrf (http://scikit-rf.org).
# Hz S RI R 50.0 
!freq ReS11 ImS11
400000000.0 0.028565899766242426 0.8703282452896227
420000000.0 0.4867661547158718 0.7108204666766569
440000000.0 0.8054133813532579 -0.19161098657848044
460000000.0 0.1556788641022798 -0.775722077549848
480000000.0 0.4730282337403693 -0.521988625485657
500000000.0 0.48625517877059865 -0.26858726868978106
520000000.0 0.47807891614259035 0.09677138685485132
540000000.0 -0.04400770271820173 0.43255177294568026
560000000.0 0.18596181815041568 -0.31861701866257996
580000000.0 -0.3341712728213541 -0.1208180431747375
600000000.0 0.2555326019190124 0.24887036379862051
620000000.0 -0.37567422054593486 0.05246795267188554
640000000.0 0.410232529620808 0.037262965463878375
660000000.0 -0.2989641231926289 -0.2897374162800983
680000000.0 -0.23445289872236183 -0.3502506829877369
700000000.0 -0.40704956320296437 0.07291002421871172
720000000.0 -0.1735365320826994 -0.3662291427792474
740000000.0 -0.35365034095837444 0.2004294993098412
760000000.0 0.2375102593716905 0.32369275475748194
780000000.0 -0.38156774070486493 -0.026077044044500418
800000000.0 0.28196891155337367 -0.22504759273820216
820000000.0 -0.17105673591388165 -0.2581971707383328
840000000.0 0.23065996047958845 0.09781403328782633
860000000.0 -0.10716573770564106 0.1782792651565022
880000000.0 -0.1254065447666507 -0.08079143816255792
900000000.0 -0.07964603976149186 -0.004608904449918744
920000000.0 -0.03710742652941117 0.02850074540211343
940000000.0 -0.0017613007132851553 0.030067893726899005
960000000.0 -0.00048512380793372444 0.03596801552033503
980000000.0 0.02937489504108681 0.03657256254781099
1000000000.0 -0.05626914283002437 -0.0048828577786851415
1020000000.0 0.07314103986346565 0.03456326733333484
1040000000.0 0.07944645679377804 0.06891797043709136
1060000000.0 0.09811537354659411 -0.11617710928303471
1080000000.0 0.009026633224545265 -0.17566100267647358
1100000000.0 0.08263815235768711 -0.19124177892721886
1120000000.0 0.2168293936011742 0.07413819579179425
1140000000.0 -0.19402934047959317 0.17040437199415134
1160000000.0 0.057987857669243546 0.27282191736093575
1180000000.0 -0.2938787330847837 -0.07081956284330457
1200000000.0 0.3222653456551233 -0.03775304176493335
1220000000.0 0.07468092824363284 -0.3411171792901641
1240000000.0 -0.3564473589955063 -0.13554132391526819
1260000000.0 0.08701599438249437 0.40830652502491005
1280000000.0 -0.03701786122225202 -0.4413181971436214
1300000000.0 -0.050871490506695594 0.45904752192032516
1320000000.0 0.033584982827117506 -0.4602838420934153
1340000000.0 -0.42825121264078814 -0.14639822564260763
1360000000.0 -0.43103973645312826 0.07735034943890537
1380000000.0 -0.3412395558724814 0.2591700694266223
1400000000.0 -0.13110719320381917 0.3878230953925051
1420000000.0 0.16707138623810705 0.35122881784695303
1440000000.0 0.1588564555234107 0.33030759678490124
1460000000.0 0.3280707967999923 0.10437939510933121
1480000000.0 0.15685665056135228 -0.27924037097133914
1500000000.0 -0.24796627637579877 -0.15773260822871796
1520000000.0 -0.14691551675628053 0.22095153982827231
1540000000.0 -0.14604703119112908 -0.18235838680683217
1560000000.0 0.19255612900799615 -0.03603485267095516
1580000000.0 -0.11342322927182709 0.12353145598859516
1600000000.0 -0.11794417761097654 0.07193157593316495
1620000000.0 -0.10599242454468234 -0.027787515738413874
1640000000.0 0.06437063286957881 -0.0605318723339
1660000000.0 -0.02587190518089447 -0.061019497505571285
1680000000.0 0.008992702381599908 -0.04507695211879761
1700000000.0 0.03087242275736964 -0.0010806774994483635
1720000000.0 -0.0025709468500390064 0.01407665077466544
1740000000.0 0.00832174320486698 0.016990525358128117
1760000000.0 -0.031765523998811364 0.0263045572028461
1780000000.0 0.052357775387100125 0.05465649481837432
1800000000.0 0.06854053010085742 0.09030835580047306
1820000000.0 0.13361596727671354 -0.05780286283103328
1840000000.0 0.16217924804583528 0.07153103136014788
1860000000.0 -0.18978331344695204 0.07726905296873132
1880000000.0 0.06900748892009743 0.22364937868797785
1900000000.0 0.26834098674300383 0.024648186209374114
1920000000.0 -0.02181781793579496 -0.30339364657902035
1940000000.0 -0.3353518463919269 -0.05718677284309975
1960000000.0 0.05230716360500649 0.36883727391811666
1980000000.0 0.30887193915551775 -0.24999558234331498
2000000000.0 -0.15880201012729067 -0.386299714323513
2020000000.0 -0.3703345693843749 0.22071904236639883
2040000000.0 0.003631852190229956 0.43724084911188177
2060000000.0 0.40739534019219836 0.1616385438909198
2080000000.0 0.3863153917135658 -0.20007998450398512
2100000000.0 0.26966977735504455 -0.33423117087280724
2120000000.0 0.03296651293222369 -0.41905108635564114
2140000000.0 -0.30989352310933427 -0.2667165259532592
2160000000.0 0.008072084771034342 -0.39282203950738515
2180000000.0 -0.2096536665458916 -0.309662000258017
2200000000.0 -0.3195403943826433 -0.16277342508093368
2220000000.0 -0.3291882788301545 -0.10786319601129739
2240000000.0 -0.32991652958898915 0.09042523347205912
2260000000.0 -0.21774353385605139 0.26419964289743186
2280000000.0 -0.05539787705829255 0.34287823015661273
2300000000.0 0.36127808392314964 0.03246005022900801
2320000000.0 -0.08960285189186937 -0.3754935067481394
2340000000.0 -0.338404135762561 0.24379467657568527
2360000000.0 0.4519821459011808 0.07083758555689067
2380000000.0 -0.4456647920901933 -0.23703493716102902
2400000000.0 0.46710277855392085 0.30424018540698494
2420000000.0 -0.6107709714714642 -0.011474509692226948
2440000000.0 0.5211458867132706 -0.40575049522167783
2460000000.0 -0.1397212925911894 0.6866792034476322
2480000000.0 -0.14547525379588885 -0.7173490280636361
2500000000.0 0.1366568948026784 0.7392928301567496
2520000000.0 0.0119414559378243 -0.761983470986032
2540000000.0 -0.45670086070857 0.611872256185747
2560000000.0 0.7356460691625492 -0.17973644083392742
2580000000.0 -0.5309351939862581 -0.5188194732134161
2600000000.0 -0.07886509495899424 0.7140246968520421
2620000000.0 0.5454720797425092 -0.41834821318150706
2640000000.0 0.3458206404257231 -0.5497601809056942
2660000000.0 -0.593798286283619 0.11100295206573063
2680000000.0 0.4109287247846465 0.37549116768467217
2700000000.0 0.017176294198663265 -0.5091355703726963
2720000000.0 -0.348823769867476 0.303334045712255
2740000000.0 0.4193407653678237 -0.024993991756744115
2760000000.0 -0.3571038922496842 -0.1373386312455301
2780000000.0 0.35322333939205763 0.009950019446361901
2800000000.0 -0.2671528816915752 0.1931036232326559
2820000000.0 -0.10927897487443676 -0.2928969193921167
2840000000.0 0.2994465154552323 -0.030736723222971996
2860000000.0 -0.12965547228415397 0.26657151379126887
2880000000.0 -0.14691760504654827 -0.2543484055025146
2900000000.0 0.1602499126829338 0.24699920613768575
2920000000.0 0.14809635541392904 -0.2586433450751793
2940000000.0 -0.2940906465041254 -0.07922050435064776
2960000000.0 -0.24647605485523855 0.1835374206566376
2980000000.0 -0.2952283483011126 0.0996302175322103
3000000000.0 -0.2825400546836149 -0.137303966454989
3020000000.0 0.028335151289855014 -0.31328151556220624
3040000000.0 0.2845827821578285 0.12698542289756426
3060000000.0 -0.3067135635434841 0.043366963651731705
3080000000.0 0.2911945365833805 -0.09104484176665166
3100000000.0 -0.24276968962809187 0.1758523713534245
3120000000.0 0.1565897628309694 -0.24588560466881873
3140000000.0 0.045403669248612194 0.27892528574506
3160000000.0 -0.1996750078655305 -0.17810205714682023
3180000000.0 0.031048861075772195 0.24815831983654066
3200000000.0 -0.22372640215478212 0.03883100760295017
3220000000.0 -0.11098919878972278 -0.16541507909919342
3240000000.0 0.13434268748505943 -0.10185800392205138
3260000000.0 -0.03586541551643278 0.12869445618071607
3280000000.0 0.060712832544941704 -0.08073439456063926
3300000000.0 -0.03522599728609323 -0.06325082255902048
3320000000.0 -0.028185388525082226 -0.037494413191519194
3340000000.0 -0.020863861689282587 -0.0156612097856777
3360000000.0 0.010407771132582162 -0.0013786148720336755
3380000000.0 -0.005911518348381589 -0.001638854873486036
3400000000.0 -0.016816789963853537 0.012063953284847903
3420000000.0 0.036280585908264856 -0.005748345064044348
3440000000.0 0.0476416558555278 0.01804734944098282
3460000000.0 0.03406700922577206 0.04926959343847267
3480000000.0 0.0600164476248336 -0.034820379288666346
3500000000.0 -0.04949431869297326 -0.06267365684584737
3520000000.0 -0.04982067559901308 0.07783654921332414
3540000000.0 0.09895520514595743 0.034192204451927125
3560000000.0 -0.049032482153754386 -0.1065157767444426
3580000000.0 -0.027953436134598858 0.12989782207990636
3600000000.0 -0.1378448512892868 -0.06836989304639933
3620000000.0 -0.1349891000766095 -0.10021700848897085
3640000000.0 -0.10032812121363013 -0.149286523296833
3660000000.0 -0.18207042894167236 -0.05217651317511414
3680000000.0 -0.19152376182403388 -0.010652111984224437
3700000000.0 -0.18910265138196314 -0.009577958142676151
3720000000.0 -0.04294057293771439 -0.1815722364468876
3740000000.0 0.12962017049125596 -0.12559961492845456
3760000000.0 -0.16261895022021694 0.05902332787775163
3780000000.0 0.15628434585290868 0.05393704480617267
3800000000.0 0.09087360272033754 -0.1285869110725004
3820000000.0 -0.052578179985704465 -0.14274599427744436
3840000000.0 -0.027649623769653034 -0.14404057318601
3860000000.0 0.13382005126693067 -0.060871609340975706
3880000000.0 0.10046475063456237 -0.11403991048550584
3900000000.0 -0.10488724178635796 -0.11142255077326482
3920000000.0 -0.09270854818994341 0.12637315304359223
3940000000.0 0.11179841383190174 -0.1163794219255341
3960000000.0 0.13810377759070216 0.09493652664747282
3980000000.0 0.1534921471684424 -0.07419600145088523
4000000000.0 0.09508904623441297 -0.13726484184026663
