!Created with skrf (http://scikit-rf.org).
# Hz S RI R 50.0 
!freq ReS11 ImS11
400000000.0 0.8092918824345825 0.3224912983806861
420000000.0 0.6393931328372358 -0.554513022269987
440000000.0 0.340891573385118 -0.7114642921915828
460000000.0 0.7314208892004683 -0.008172736050887594
480000000.0 0.07968308364631484 -0.6771288904159324
500000000.0 -0.09426309750966204 0.5917256910321073
520000000.0 0.3553239650411856 0.3596312492997799
540000000.0 -0.19720185215412026 -0.3945343215157649
560000000.0 -0.19309060200835587 0.3502670392650781
580000000.0 -0.364936366097262 0.0226765701903657
600000000.0 0.21283721115817172 -0.28641565538732483
620000000.0 -0.3499182985694979 -0.06553112987935414
640000000.0 -0.16819967282463447 -0.37212498950596845
660000000.0 -0.005596784184719811 0.41671768475960336
680000000.0 -0.39700197438489127 0.20602364379802152
700000000.0 0.4482041122033576 0.07995731759914314
720000000.0 -0.46021941631267077 -0.025097974318383315
740000000.0 -0.250341468595852 0.3532291615529528
760000000.0 -0.23020270075564692 0.33615018070438857
780000000.0 -0.3697044100004138 -0.03539845232026372
800000000.0 -0.3161745129686868 0.09991470990251107
820000000.0 -0.23227298203358326 0.1609609905798088
840000000.0 0.06421179281975462 -0.20577136436227123
860000000.0 -0.17548937943378098 0.03737337039975648
880000000.0 -0.13490329731114792 -0.051086074699417006
900000000.0 -0.07462345654626136 0.04695577795266279
920000000.0 -0.04296514025659031 0.016578525850495292
940000000.0 -0.03104188780156043 0.01745332034054291
960000000.0 -0.026029724347085604 0.03298922757772631
980000000.0 -0.01724385394019066 0.06804770494052247
1000000000.0 -0.05937084008117672 0.08564265673204745
1020000000.0 -0.044086046175131274 0.11468023043846666
1040000000.0 0.019674034618905954 -0.1286213085598932
1060000000.0 -0.00975321008371169 -0.15132342008238822
1080000000.0 -0.1682108544094296 -0.034724331422914194
1100000000.0 0.16433405607139712 0.11811554007996887
1120000000.0 -0.06653794894434051 0.2233858204494288
1140000000.0 -0.2131517144212094 -0.14522728699845056
1160000000.0 -0.22386319018434478 0.18220084919408633
1180000000.0 -0.25168943735081944 0.19410074723061016
1200000000.0 0.038970155478490635 -0.34391561191500875
1220000000.0 0.05844105010566765 0.36774412619043767
1240000000.0 0.11757881119049686 -0.3728932801439766
1260000000.0 -0.3731379307484872 -0.15517109818058325
1280000000.0 -0.2683016365793154 0.324230772606286
1300000000.0 0.2207956733265416 0.3686551568464124
1320000000.0 0.299883889503886 0.3164981308718122
1340000000.0 0.3954157100042095 0.20613321876958893
1360000000.0 0.39807886928447894 -0.21187994663581777
1380000000.0 -0.31895682611602344 -0.30356277514533464
1400000000.0 -0.3547363773495456 0.2306610659990481
1420000000.0 0.2553056448227686 0.3079428946512878
1440000000.0 0.3698000652729661 0.002083268576518204
1460000000.0 0.3247888793507102 -0.10864877256756555
1480000000.0 -0.237963053739492 -0.21049892861717473
1500000000.0 0.02215322079863369 0.284613091304674
1520000000.0 0.10392148952096981 0.22783491899458838
1540000000.0 -0.08653298188982222 -0.1995918694469201
1560000000.0 -0.04684125000662239 0.18260365764640535
1580000000.0 -0.16249839816774986 0.03784669621967059
1600000000.0 0.05369460002303146 0.1263320229269607
1620000000.0 0.09086976754551768 -0.05414811747449651
1640000000.0 0.0792295282564358 0.02181806104102406
1660000000.0 0.04965978258409194 -0.045026640171550614
1680000000.0 0.03976332498946799 0.018095580746146787
1700000000.0 0.02172624165189307 0.003688571504729225
1720000000.0 0.0030446707304095377 -0.00011847866494059325
1740000000.0 0.006505176665412315 -0.016504145707702
1760000000.0 -0.007195921124572116 -0.03407646394442934
1780000000.0 -0.02873976086583729 -0.04828618856807239
1800000000.0 -0.023215743096346584 -0.0917100111473524
1820000000.0 -0.12244471430991176 0.03303386188814383
1840000000.0 0.16139575152695626 0.04059868992132484
1860000000.0 0.006842763413734855 0.2019058702183409
1880000000.0 0.22213679537129313 -0.09280955109278431
1900000000.0 -0.27884324022191914 0.05679880659249447
1920000000.0 0.26090574154702834 -0.18836516630222877
1940000000.0 -0.3445526601218021 0.037297710196364936
1960000000.0 0.00878506396213976 0.3716577583997622
1980000000.0 0.39509792353203665 -0.07329459813955512
2000000000.0 -0.35332839687165096 -0.22766367797245837
2020000000.0 -0.31249727291631807 0.29402450720572715
2040000000.0 0.1544860614304475 0.40796194373446365
2060000000.0 0.43647851214055244 0.01230655182348656
2080000000.0 0.17777333612502463 -0.3929928071599188
2100000000.0 -0.160458975687846 -0.39321287341426014
2120000000.0 -0.3469984044576206 -0.22275526703783163
2140000000.0 -0.3568677494924166 -0.1726626587599474
2160000000.0 0.3365410678096844 -0.18845710527577725
2180000000.0 0.15410280191574838 -0.3432804250476759
2200000000.0 -0.2441639880088376 -0.2718255207157502
2220000000.0 -0.35449205620302804 0.037134930942168534
2240000000.0 -0.19249980369495226 0.2926623551002595
2260000000.0 0.17043358794791663 0.3059038678087268
2280000000.0 0.350174178623079 0.004378180475346035
2300000000.0 0.29462001176839175 -0.2039387141826038
2320000000.0 0.07120172154376743 -0.37818205084552353
2340000000.0 -0.3986128106540639 -0.12382303633867726
2360000000.0 0.03999022698779799 0.4579560833805197
2380000000.0 -0.025651357989737406 -0.5128829771562778
2400000000.0 0.37110396218959485 0.4285864767334304
2420000000.0 -0.6173383971495863 -0.01903949396815721
2440000000.0 0.4328076648543591 -0.5015402442927106
2460000000.0 -0.0073581293776597695 0.7005275762815146
2480000000.0 -0.4400003516567031 -0.5828942066410021
2500000000.0 0.5101445109474808 0.5487280807507494
2520000000.0 -0.37659687839176403 -0.6596197000155629
2540000000.0 0.07388081567755184 0.7576670791506921
2560000000.0 0.41246358348655665 -0.6322178183697119
2580000000.0 -0.7406308096980765 0.004639173187060586
2600000000.0 0.4956330519305118 0.5179045059239206
2620000000.0 0.1849813495965806 -0.6629192348417403
2640000000.0 -0.2651733113606255 -0.5953029024345199
2660000000.0 -0.265707281823009 0.5480676216913107
2680000000.0 0.5338478679336409 -0.17591648056727807
2700000000.0 -0.4546778659655216 -0.24184772868447646
2720000000.0 0.3166580580713312 0.3449632931665659
2740000000.0 -0.12344136735256957 -0.4011515338416845
2760000000.0 -0.19146127106473348 0.3283516690265351
2780000000.0 0.21045044092413626 -0.27634014344874486
2800000000.0 -0.161078901551958 0.2787258606025779
2820000000.0 0.16331161759515758 -0.2553098650544236
2840000000.0 0.06686790847925667 0.28715870589210973
2860000000.0 -0.27790412892168237 -0.07832646916829299
2880000000.0 0.20502798547117912 -0.19971056603515772
2900000000.0 -0.26439356059562547 0.1084806208553243
2920000000.0 0.201528369029962 0.21045180048475726
2940000000.0 0.07129121980644178 -0.2941676035150685
2960000000.0 -0.3068484306182214 0.038696472768722394
2980000000.0 -0.09177001458674548 0.298118677895477
3000000000.0 -0.23493581263676794 0.20466080469875136
3020000000.0 -0.2993619852131369 -0.09876697643648309
3040000000.0 -0.0818808953208464 -0.30235822621859226
3060000000.0 0.30169390018575404 0.04792437888693223
3080000000.0 -0.278883241852928 -0.0966372770476826
3100000000.0 0.09663506839213437 0.27112041450210006
3120000000.0 0.01180356165097288 -0.2838781273256294
3140000000.0 0.09038629178512984 0.261352393111309
3160000000.0 -0.18325352812796783 -0.19250274867252165
3180000000.0 0.06963415387113409 0.24301598013989717
3200000000.0 -0.07899641769771529 0.2188162985883574
3220000000.0 -0.13999440897624874 0.1470997290326622
3240000000.0 -0.1575283807263386 -0.06408115091729367
3260000000.0 0.12085366978145386 -0.05491607354140268
3280000000.0 0.09136332244932342 -0.03456349083804523
3300000000.0 0.06885241833753987 0.02535552111373773
3320000000.0 -0.04477514490930855 -0.01739031647501494
3340000000.0 0.017893126053703242 0.025301357142194805
3360000000.0 0.005197552984303932 0.011881412641914002
3380000000.0 0.003550934419659265 -0.000736154379275284
3400000000.0 0.007576482540651619 0.016704834387658428
3420000000.0 -0.025682642637985153 -0.02382998566818043
3440000000.0 0.04016474409508795 -0.026434917539367893
3460000000.0 -0.012869127983579292 -0.05681949500477905
3480000000.0 0.031103239174410484 -0.05915298172715782
3500000000.0 0.07824498115111048 0.031145881614662085
3520000000.0 -0.015480798611956819 0.09857057244265532
3540000000.0 -0.1042173183403492 -0.04785656249131747
3560000000.0 0.05959887088959931 -0.11016171058836324
3580000000.0 -0.12618636945299902 0.05175955880708925
3600000000.0 -0.0009493899486079035 -0.15070635567863888
3620000000.0 0.10941153147188865 0.12085434637400302
3640000000.0 -0.06762607610710625 0.16301303375280368
3660000000.0 -0.14507913443091794 -0.11548234940320046
3680000000.0 -0.08481469730748172 -0.17392554847273856
3700000000.0 -0.16669709349123024 -0.10374222469492766
3720000000.0 -0.14378110663956556 -0.13063409068506454
3740000000.0 0.10340978383012658 -0.15479930875962233
3760000000.0 -0.17864532423121676 0.03294442925650344
3780000000.0 0.17002066363605706 0.03988230721421704
3800000000.0 -0.16629615627924726 -0.010713336023378331
3820000000.0 -0.0781696713074292 0.1369784738536418
3840000000.0 -0.1463996132119851 0.02293748648723348
3860000000.0 -0.031177245149987785 -0.1444199855633758
3880000000.0 0.08549329432490095 -0.12255203869976608
3900000000.0 0.14988762756783106 0.03419968137676541
3920000000.0 0.022382147376814147 -0.16190205811240907
3940000000.0 0.13238318855577758 0.11039049441024937
3960000000.0 0.1750539898448551 0.03308558696482281
3980000000.0 0.14842153160057484 -0.09476331508723736
4000000000.0 0.1387220756981922 -0.09550542639713344
