!Created with skrf (http://scikit-rf.org).
# Hz S RI R 50.0 
!freq ReS11 ImS11
400000000.0 0.7967674837298715 0.3510700076460551
420000000.0 0.6565680620516621 -0.5338651719441316
440000000.0 0.3560961152802478 -0.7042476284513839
460000000.0 0.7313981169360619 0.020766948239981684
480000000.0 0.08453019905814606 -0.6763502887225863
500000000.0 -0.09247603172798352 0.591717009076852
520000000.0 0.3544994998783171 0.36053835155979397
540000000.0 -0.20775554501852803 -0.38921001639881625
560000000.0 -0.191335404175462 0.35143017947107397
580000000.0 -0.36588146105666225 -0.007426487150133568
600000000.0 0.2341712168405833 -0.269383781589309
620000000.0 -0.3458859820858874 -0.08378277675007367
640000000.0 -0.15987959028413365 -0.3758181266340894
660000000.0 -0.001568061970636442 0.4166353266450712
680000000.0 -0.397507209011651 0.20421408400082244
700000000.0 0.44890165394149745 0.07468217313000101
720000000.0 -0.4597374158433735 -0.031032235345096675
740000000.0 -0.22803156957682333 0.3672586660270268
760000000.0 -0.21760175812647034 0.3445389427455993
780000000.0 -0.36822804128639103 -0.05001124864070424
800000000.0 -0.31523989842131195 0.10287728837348803
820000000.0 -0.23592557300754066 0.15553793978659938
840000000.0 0.06335979473910267 -0.20576375212596293
860000000.0 -0.1759368920613859 0.034780864330574396
880000000.0 -0.1342691961980681 -0.052826144570956295
900000000.0 -0.07331911964540024 0.04977253227667438
920000000.0 -0.03675625958668 0.028847980448178413
940000000.0 -0.034459280136329824 0.010281643773441632
960000000.0 -0.04149701260254544 0.006169707951609882
980000000.0 -0.018966189362301364 0.06724579994202805
1000000000.0 -0.05388408200936817 0.08898263013916889
1020000000.0 -0.06063524237874982 0.10661398954641534
1040000000.0 0.01722433708931073 -0.12899861083691908
1060000000.0 -0.003465691913987744 -0.15151604382581738
1080000000.0 -0.16637634698278506 -0.042901368089227336
1100000000.0 0.16897677157090635 0.111205164563648
1120000000.0 -0.055915013954504246 0.22610017251097592
1140000000.0 -0.20494783343715567 -0.15690587489158087
1160000000.0 -0.2320238500677388 0.17211084555370873
1180000000.0 -0.2559941400566561 0.18913298995809197
1200000000.0 0.053247431901776034 -0.34228586917497184
1220000000.0 0.057601780989652886 0.3681327517427278
1240000000.0 0.15112679076639252 -0.3606654410518998
1260000000.0 -0.3643093968153717 -0.17495430170947945
1280000000.0 -0.2915617835796646 0.30312096792183624
1300000000.0 0.22052094374362358 0.36852919850250665
1320000000.0 0.3002064475485428 0.31570560320321467
1340000000.0 0.39641555181106775 0.20367884853512105
1360000000.0 0.3922340869620103 -0.22180433045257333
1380000000.0 -0.3205728631687318 -0.30169402253316313
1400000000.0 -0.35764952538683736 0.22622364317410218
1420000000.0 0.2614462367524861 0.3028144059102586
1440000000.0 0.3702351315341431 0.0010441129882131325
1460000000.0 0.3260715735232497 -0.10567847159734495
1480000000.0 -0.2311342467834473 -0.21778401580507736
1500000000.0 0.02883770522892386 0.2841510829674775
1520000000.0 0.09811092844205373 0.23100179461968726
1540000000.0 -0.07350040460199188 -0.204807380742825
1560000000.0 -0.061676132960347456 0.17836860004717697
1580000000.0 -0.16654757971113734 0.01277871035457303
1600000000.0 0.06076497107987691 0.12303636384531705
1620000000.0 0.09984153856975637 -0.03469045547885454
1640000000.0 0.07093435087419434 0.04059688978376104
1660000000.0 0.05207171654194812 -0.041860103146632015
1680000000.0 0.04337792952201908 0.0044420595468870816
1700000000.0 -0.022042637278687893 0.005048355370150419
1720000000.0 0.001703164055724668 -0.0025947843629045464
1740000000.0 0.016627396415489028 0.004283024281772369
1760000000.0 -0.006009226828537662 -0.03378332153460676
1780000000.0 -0.05121291583509633 -0.02111986227840382
1800000000.0 -0.030703985162017552 -0.08869811786079186
1820000000.0 -0.1058876449498205 0.06897909023418504
1840000000.0 0.16613920145318595 0.005570550197377033
1860000000.0 0.0325667748929234 0.19947717163831577
1880000000.0 0.20982998828162533 -0.1181214786984194
1900000000.0 -0.2694801437209838 0.09152091099378885
1920000000.0 0.24425736400275538 -0.2100663202650278
1940000000.0 -0.34341376181386196 0.04969677692826431
1960000000.0 0.008160380027564041 0.372054500814915
1980000000.0 0.397702171546608 -0.06035169386823211
2000000000.0 -0.34115201038548804 -0.2455866923863415
2020000000.0 -0.3131734153694535 0.29323744426854936
2040000000.0 0.1416536843281404 0.4122755670581868
2060000000.0 0.43638365362882103 0.010248993174903739
2080000000.0 0.20313768446045705 -0.3802554130170966
2100000000.0 -0.1509762642308832 -0.39691061939666505
2120000000.0 -0.3510278926830242 -0.21582456455224824
2140000000.0 -0.37504404193001095 -0.12741138764232465
2160000000.0 0.3185261617539596 -0.21633278656168242
2180000000.0 0.11123897449598064 -0.35961859223961434
2200000000.0 -0.26528553220361717 -0.25140126358850656
2220000000.0 -0.3456146978868563 0.08482876540215431
2240000000.0 -0.1938594677870887 0.29242667672323136
2260000000.0 0.17969520264485975 0.30122821045200804
2280000000.0 0.34947794503126334 0.02948191896154129
2300000000.0 0.30246829880413123 -0.1946981030815351
2320000000.0 0.09577621707821278 -0.37329662079069686
2340000000.0 -0.39508322554380504 -0.13670403309346857
2360000000.0 0.0015418541763323284 0.4598425684108443
2380000000.0 0.00937619386310296 -0.5131856659326709
2400000000.0 0.3384585397154439 0.454297894696264
2420000000.0 -0.6164766051757562 -0.02246731897045252
2440000000.0 0.4635860003393513 -0.4726074849362342
2460000000.0 -0.026069705518217152 0.7003147063561528
2480000000.0 -0.3620231212615316 -0.6345031183398965
2500000000.0 0.45016678049241826 0.598791041058704
2520000000.0 -0.3626248363567474 -0.6671592342527402
2540000000.0 0.06791000336995127 0.7585831887266137
2560000000.0 0.4819501976258916 -0.5819978987395762
2580000000.0 -0.73854345635558 0.051942751113056615
2600000000.0 0.452767342901096 0.5556636453449968
2620000000.0 0.14862897906628975 -0.6724335818864687
2640000000.0 -0.2633072624746206 -0.596823611356852
2660000000.0 -0.2526467800565782 0.5550115150105249
2680000000.0 0.5094230226074091 -0.2399490825845397
2700000000.0 -0.4690072405509561 -0.21510684043003625
2720000000.0 0.33736985088602206 0.3264054648252616
2740000000.0 -0.1083611730914984 -0.40635069600349394
2760000000.0 -0.21556031939065995 0.3145626588146355
2780000000.0 0.22625763121621428 -0.26429390331948505
2800000000.0 -0.19140263972280505 0.2591159768117574
2820000000.0 0.18011924835910464 -0.24358145989489083
2840000000.0 0.05374276065423649 0.28988415996156786
2860000000.0 -0.2723685679105639 -0.09534556091368371
2880000000.0 0.22374112152575978 -0.1783816446029934
2900000000.0 -0.26563063455622365 0.10416257752235268
2920000000.0 0.1776304358450938 0.23139081744516557
2940000000.0 0.0977869728449659 -0.2865055430116064
2960000000.0 -0.3102261017610568 0.010729186508685208
2980000000.0 -0.1314156199935997 0.28270665284960544
3000000000.0 -0.24044921694321283 0.19795716621449924
3020000000.0 -0.2978430523637149 -0.10268255817843425
3040000000.0 -0.04295928213286573 -0.30991538632351207
3060000000.0 0.298209209153437 0.06236058678307827
3080000000.0 -0.2764543613479154 -0.09994701572902402
3100000000.0 0.13136843017293806 0.25588432579693027
3120000000.0 0.0037935550836018374 -0.2835654802519305
3140000000.0 0.11358233648049304 0.2519150495245586
3160000000.0 -0.22475085640150208 -0.14204589812496354
3180000000.0 0.12127880374102731 0.22194476356301093
3200000000.0 -0.049037860780357184 0.22700162081508804
3220000000.0 -0.10132375638486257 0.17674659986949548
3240000000.0 -0.15800839148777274 -0.06464554647363158
3260000000.0 0.10615573614968832 -0.08002421932957517
3280000000.0 0.0776672748383328 -0.059077358549634515
3300000000.0 0.07051754607122841 -0.018864152820309746
3320000000.0 -0.048207686476642815 0.0003465745634722052
3340000000.0 0.002661880647335659 0.030936742372499153
3360000000.0 -0.0010746786317261728 -0.012858553425699429
3380000000.0 0.0011866840821834015 0.003163700633875978
3400000000.0 0.00512308406695081 0.017793132974525956
3420000000.0 0.0174689332063805 -0.02997501198395329
3440000000.0 0.04632368689314049 0.007693556487418993
3460000000.0 -0.04423541353339032 -0.0372965562389328
3480000000.0 0.01757982193534782 -0.06358129067863252
3500000000.0 0.08162276439242823 -0.01967856481890806
3520000000.0 0.0648040622234844 0.07533940256654587
3540000000.0 -0.1104096911865869 -0.028713305727253807
3560000000.0 0.007890714323908506 -0.12467710748853575
3580000000.0 -0.09269408580754407 0.09973055913517447
3600000000.0 -0.034497884990684985 -0.14663824757889937
3620000000.0 0.1330190756543734 0.09337861949279921
3640000000.0 -0.01573821253401906 0.17587020200703857
3660000000.0 -0.15674461195343867 -0.09776983926710596
3680000000.0 -0.10691942802904165 -0.16151925310543563
3700000000.0 -0.16800074543652044 -0.10205874622491228
3720000000.0 -0.1332835666548222 -0.14134841806802678
3740000000.0 0.09870148410641172 -0.1576384251826595
3760000000.0 -0.1814734890898893 -0.0042136549354665626
3780000000.0 0.17027387040506292 0.038833591250140395
3800000000.0 -0.16431951823576615 -0.02963335836411344
3820000000.0 -0.06644676322836053 0.1426516452252351
3840000000.0 -0.14873368947982837 0.002692769024943382
3860000000.0 -0.03812266836818036 -0.1431517988650599
3880000000.0 0.08366361995262137 -0.12423532657882844
3900000000.0 0.14891212228189624 0.04144212563504762
3920000000.0 0.04241534683132461 -0.15798842090608384
3940000000.0 0.1590474965026696 0.0671231897042902
3960000000.0 0.171660250199721 0.04850917670916457
3980000000.0 0.14497822622124967 -0.09919216200760926
4000000000.0 0.14458171849936838 -0.08642551141115594
