!Created with skrf (http://scikit-rf.org).
# Hz S RI R 50.0 
!freq ReS11 ImS11
400000000.0 0.8106295233964199 0.31647153032305125
420000000.0 0.6378373321068195 -0.5559890332505381
440000000.0 0.30969075868557033 -0.7262573525137043
460000000.0 0.7319598221497655 0.009020191991923693
480000000.0 0.07461213178942978 -0.677895835799632
500000000.0 -0.11311075328310803 0.5882857341813841
520000000.0 0.33589033015194286 0.3773847140613657
540000000.0 -0.20393763395509878 -0.39089216047007164
560000000.0 -0.16910510333025025 0.3623764040125597
580000000.0 -0.3652758990474102 0.017503134706212366
600000000.0 0.22953113644271378 -0.273496506481478
620000000.0 -0.345634874378861 -0.08510380814776522
640000000.0 -0.1549099522562053 -0.3781288251232746
660000000.0 -0.019578375942402894 0.4162022412138476
680000000.0 -0.4158908225761829 0.16556030608441377
700000000.0 0.44786495005018 0.08093886370643075
720000000.0 -0.46084850720267756 0.005468721785926724
740000000.0 -0.22706735596715946 0.36720431459187675
760000000.0 -0.23153872944303705 0.3352389654187368
780000000.0 -0.36881799332723963 -0.045244932956275935
800000000.0 -0.3124803863554725 0.11136203044431224
820000000.0 -0.23482139312874473 0.15743723397617443
840000000.0 0.07239945483267766 -0.20325838596967968
860000000.0 -0.17893456657605214 0.011746036035283262
880000000.0 -0.12559773264593155 -0.07107611839402384
900000000.0 -0.0829568002010194 0.02936807863441568
920000000.0 -0.045233384203897754 0.008615674748098176
940000000.0 -0.035704416849714024 0.003375435134705858
960000000.0 -0.04183015574277746 0.00391573434235042
980000000.0 -0.02911451100873765 0.0632005527802926
1000000000.0 -0.05724422840073235 0.08663090377280387
1020000000.0 -0.02923507335170487 0.11919651908064337
1040000000.0 -0.006068131877618346 -0.12989175987962417
1060000000.0 0.007594439990135645 -0.15164351459134312
1080000000.0 -0.16232457189328803 -0.057065121768999715
1100000000.0 0.15823503381642393 0.12597905815757102
1120000000.0 -0.06705747863334996 0.22319130614366076
1140000000.0 -0.19962499603357087 -0.16229025276935038
1160000000.0 -0.2365750523076272 0.16525655819159007
1180000000.0 -0.24659080312169385 0.20060155247988617
1200000000.0 0.0514751934639789 -0.3426375986232414
1220000000.0 0.05514693565251615 0.36828319448454944
1240000000.0 0.1382910842825862 -0.36551220025041775
1260000000.0 -0.3652992946388336 -0.17241589753064357
1280000000.0 -0.29491414348908535 0.30031141617636353
1300000000.0 0.21518751691134674 0.3718162536344711
1320000000.0 0.30217522197370217 0.3143868281197681
1340000000.0 0.3858406823447683 0.22317601121975528
1360000000.0 0.39323134799589354 -0.22022934747146214
1380000000.0 -0.32452910540457647 -0.29727121743848434
1400000000.0 -0.35907245751350747 0.22391714888082911
1420000000.0 0.2713165955238574 0.29369104734792795
1440000000.0 0.36964282052174247 -0.014836468650769211
1460000000.0 0.3178674198754548 -0.12819996774762685
1480000000.0 -0.25077690797899743 -0.19547757816627928
1500000000.0 0.04965927559361888 0.2816726615808593
1520000000.0 0.11263705896308084 0.22414510270711704
1540000000.0 -0.08057717775755548 -0.2022900543719448
1560000000.0 -0.06991977241010917 0.17593096337377734
1580000000.0 -0.16767987094494133 -0.0016180927258831956
1600000000.0 0.030409892194700687 0.13425327702320353
1620000000.0 0.10504271354826411 -0.011799216363165731
1640000000.0 0.07578318106985081 0.03174293774837262
1660000000.0 0.057648782821296964 -0.034100929976988034
1680000000.0 0.039484340002497766 0.01847141373344706
1700000000.0 -0.0009957196063496625 -0.022785590942891315
1720000000.0 -0.001437784593363532 0.0026481062871188425
1740000000.0 0.015360165340882382 -0.007943600449407987
1760000000.0 0.0003217854774791903 -0.0349674483938422
1780000000.0 -0.036934318614016186 -0.04220486836747164
1800000000.0 -0.011536344585162487 -0.09344911390395085
1820000000.0 -0.12039313956983407 0.038589747965976605
1840000000.0 0.16448758556581572 0.025407659671923287
1860000000.0 0.0011342715768360926 0.20180843766239084
1880000000.0 0.21282156998439766 -0.11188414948767386
1900000000.0 -0.277605105555629 0.061894343018395755
1920000000.0 0.2582958331115724 -0.19217839070989698
1940000000.0 -0.34389567561301126 0.04266996386970478
1960000000.0 0.0116174153559438 0.37158894563120914
1980000000.0 0.3953224809289476 -0.07284963780391476
2000000000.0 -0.35847261799263763 -0.21929997223205244
2020000000.0 -0.2938530041078683 0.3127001753287223
2040000000.0 0.1805638122913386 0.39707336738513815
2060000000.0 0.4367559850055364 -0.02100890032079578
2080000000.0 0.17162440487256225 -0.39628821839825534
2100000000.0 -0.17444627315951614 -0.38791831540992616
2120000000.0 -0.3760766651877018 -0.17088700566314025
2140000000.0 -0.3718688027201399 -0.1398868337262961
2160000000.0 0.3270830075239195 -0.20477328377984408
2180000000.0 0.10147679568188064 -0.3630815269217535
2200000000.0 -0.2588820073238803 -0.2585952730096095
2220000000.0 -0.3506181578798208 0.06477103455547344
2240000000.0 -0.18954241932524218 0.29539398317216725
2260000000.0 0.19906015078717332 0.2895826414203288
2280000000.0 0.34988489553840446 0.02075695537732293
2300000000.0 0.3078186842134615 -0.18478560338035754
2320000000.0 0.09655225347281715 -0.37279261093767163
2340000000.0 -0.38962211880494163 -0.1503397540352119
2360000000.0 0.0010509712072878645 0.4595460119996076
2380000000.0 0.0005776956018216428 -0.5130951997775836
2400000000.0 0.3588343107411778 0.4383687870852948
2420000000.0 -0.6171522017628603 -0.003689437720504312
2440000000.0 0.43292364284185103 -0.5011965325441842
2460000000.0 0.013751695971805113 0.700266048580845
2480000000.0 -0.4137140657215628 -0.6019735178698521
2500000000.0 0.48104060129398274 0.5748106397270675
2520000000.0 -0.3872421040753486 -0.6538827931590939
2540000000.0 0.0985246733663015 0.754818693920205
2560000000.0 0.381591071998985 -0.6519762175194725
2580000000.0 -0.7412472357825535 -0.007933172257463072
2600000000.0 0.4655830733071118 0.5456761825977599
2620000000.0 0.16591861566941837 -0.6686587450926316
2640000000.0 -0.27723044214736864 -0.5913905960247217
2660000000.0 -0.27034876545665015 0.5474740311787251
2680000000.0 0.5181279273383046 -0.2227065598543848
2700000000.0 -0.45306004346071915 -0.24684114542381447
2720000000.0 0.3208101700583849 0.3426777296584144
2740000000.0 -0.1090745647524827 -0.406450144451334
2760000000.0 -0.22928117390096575 0.30440404443968727
2780000000.0 0.24317886299327643 -0.2485092920261
2800000000.0 -0.19922465096143405 0.2528850443650896
2820000000.0 0.18382881288019587 -0.24044375952895727
2840000000.0 0.06578535615058463 0.2870090170583878
2860000000.0 -0.28035748264800253 -0.06821568491920343
2880000000.0 0.19334921445972025 -0.21068855942195291
2900000000.0 -0.25027990079633666 0.1376437988155264
2920000000.0 0.22351670276143265 0.1871343854741995
2940000000.0 0.056216136633156666 -0.29794927925113
2960000000.0 -0.30494408124835976 0.053782150924018564
2980000000.0 -0.08127463685769849 0.3014818565876545
3000000000.0 -0.2620958961910841 0.16921528604910738
3020000000.0 -0.2900364809842288 -0.12534945400324063
3040000000.0 -0.04295893514663351 -0.31059255056462753
3060000000.0 0.3000187777990338 0.059075141937928656
3080000000.0 -0.2630939561004516 -0.1334704277195064
3100000000.0 0.09602656466326404 0.27172259309343205
3120000000.0 0.007710590001436224 -0.28357379642298036
3140000000.0 0.10162791252264058 0.257474678080709
3160000000.0 -0.20423054383833203 -0.17027435351069106
3180000000.0 0.07484739447141184 0.241896186043927
3200000000.0 -0.10127378033333886 0.20906277746826488
3220000000.0 -0.13001019742139208 0.15627731103950954
3240000000.0 -0.1504012724169103 -0.07857826409680924
3260000000.0 0.12287133946450271 -0.051229150876768624
3280000000.0 0.09650252510390027 -0.0128835260538776
3300000000.0 0.07184374646617014 0.010653270897848628
3320000000.0 -0.04710551677136447 0.007056166604879765
3340000000.0 0.02356059250401723 0.0190576899621922
3360000000.0 0.004324341450243746 0.01139259438243249
3380000000.0 -0.0016729689173061797 -0.0032546698567227144
3400000000.0 0.011972083322298687 0.014322547264052993
3420000000.0 -0.014322286199882893 -0.03226133082657608
3440000000.0 0.04627807370179375 -0.008902237664088593
3460000000.0 0.004846785852807896 -0.05739912912970619
3480000000.0 0.050441661436336716 -0.04265879743708256
3500000000.0 0.0835518184289198 -0.0025740551647401673
3520000000.0 0.013393400342901533 0.09856327513370797
3540000000.0 -0.08822210774868058 -0.0723437282267163
3560000000.0 0.057925864148268766 -0.11025457527157015
3580000000.0 -0.12625798911862735 0.0501090613094397
3600000000.0 0.02068984972211412 -0.14797260228838297
3620000000.0 0.08711345246642356 0.1362071353878657
3640000000.0 -0.04575978881680739 0.16979379119420399
3660000000.0 -0.1425734452793283 -0.1169005913762101
3680000000.0 -0.06011883614252226 -0.18319834362797324
3700000000.0 -0.14974396178327742 -0.12569412060145177
3720000000.0 -0.12152041241911375 -0.15052359227236484
3740000000.0 0.10298143857021712 -0.15393944609484222
3760000000.0 -0.17996066284491163 0.01926851604096644
3780000000.0 0.1736766478460409 0.014095819486954259
3800000000.0 -0.15807208911435813 -0.05208428659010595
3820000000.0 -0.07083311426330241 0.1401309319985582
3840000000.0 -0.14495908365970872 -0.031722720967037606
3860000000.0 -0.060433211241784884 -0.13478202629100114
3880000000.0 0.06810590988938607 -0.1326451292952738
3900000000.0 0.15310109841312441 0.019897274515146383
3920000000.0 0.0015098470534409794 -0.16316564913740556
3940000000.0 0.16459514825046517 0.05072196876944738
3960000000.0 0.1777534896786081 0.011760481384417328
3980000000.0 0.11493361187288313 -0.13267683507458883
4000000000.0 0.10562692232016427 -0.13107984754950067
