!Created with skrf (http://scikit-rf.org).
# Hz S RI R 50.0 
!freq ReS11 ImS11
400000000.0 0.7995606522186217 0.34397865536911404
420000000.0 0.6304409283592767 -0.5640190870573297
440000000.0 0.33267814224011133 -0.7155797187554845
460000000.0 0.7317153016555468 0.01239876940364451
480000000.0 0.07636852191753035 -0.6775711440098764
500000000.0 -0.11068273931889835 0.588584286701185
520000000.0 0.3469358194778787 0.367721726814555
540000000.0 -0.2074726149089705 -0.3892062421451291
560000000.0 -0.1957436219112983 0.34872575978998843
580000000.0 -0.3652123842571959 0.021000182656580574
600000000.0 0.22952521645637394 -0.2738843042739822
620000000.0 -0.3499135611420013 -0.06560727528978476
640000000.0 -0.15761164509985265 -0.3770089138434936
660000000.0 -0.045623832395101024 0.4148154400821266
680000000.0 -0.4180390243791457 0.15970187617058645
700000000.0 0.44430307827174176 0.09828482933811472
720000000.0 -0.4594772742143202 -0.03462348433647335
740000000.0 -0.2581398349415106 0.34755732582241505
760000000.0 -0.22827531222159517 0.33738948999380514
780000000.0 -0.3697631413183411 -0.03526810865127369
800000000.0 -0.30899982616199423 0.11983422176329787
820000000.0 -0.22730748456253086 0.16737092306944654
840000000.0 0.03010694761037613 -0.213365099104683
860000000.0 -0.17479218853575137 0.03998700568675166
880000000.0 -0.13228816020522977 -0.057616580702086806
900000000.0 -0.07354058474288758 0.04890158044368204
920000000.0 -0.03604452232018102 0.029079733054742634
940000000.0 -0.029213566500740792 0.021152617333270264
960000000.0 -0.03786485182244382 -0.018122429390051802
980000000.0 -0.041871620114732 0.05528632540161812
1000000000.0 -0.05393210344071034 0.08826681521436892
1020000000.0 -0.02752782651112239 0.11957460281400248
1040000000.0 -0.005942303222515515 -0.12985247654219073
1060000000.0 0.0037700492645499654 -0.15195983579704614
1080000000.0 -0.1656292124292045 -0.04510828652319401
1100000000.0 0.15206207696768145 0.13323857430661326
1120000000.0 -0.08252357391183533 0.21795015240998625
1140000000.0 -0.20584583168641923 -0.15500533703226882
1160000000.0 -0.23838109086662362 0.16262928136828161
1180000000.0 -0.238129885575421 0.21025595809555062
1200000000.0 0.0400822317486887 -0.34413565700560295
1220000000.0 0.05259880077963188 0.3687215597450135
1240000000.0 0.141755190866749 -0.36414975465966865
1260000000.0 -0.3656164341023531 -0.17109684297622318
1280000000.0 -0.2753310119129554 0.31784430326965807
1300000000.0 0.2468520043705025 0.3509042516051452
1320000000.0 0.3057989802043521 0.3100954658884263
1340000000.0 0.4031226961573063 0.18952333876400113
1360000000.0 0.3869528651735981 -0.23101110699662647
1380000000.0 -0.33685228110014176 -0.28341382783001473
1400000000.0 -0.3471804544617791 0.242180829026025
1420000000.0 0.2643079113898643 0.30061306215047967
1440000000.0 0.37011147237194403 -0.005479786598228753
1460000000.0 0.3188757279901204 -0.12546001942778887
1480000000.0 -0.22346688188103106 -0.2260593275033058
1500000000.0 0.03526061260893873 0.2833546862717581
1520000000.0 0.09747147064416148 0.23096764204445666
1540000000.0 -0.08619764843503984 -0.19993748241945966
1560000000.0 -0.06129739855865981 0.17847865501961652
1580000000.0 -0.16433927881551919 -0.0324170723995835
1600000000.0 0.0442516058642387 0.12953188345434147
1620000000.0 0.10479998455122522 -0.009725907782910626
1640000000.0 0.06740522894042984 0.046314300108908496
1660000000.0 0.055340091644202935 -0.03674754840104332
1680000000.0 0.037766795305377215 -0.02109695696137912
1700000000.0 0.015309333648993118 -0.016185940505781825
1720000000.0 0.0006014817251441433 0.003100994878687529
1740000000.0 0.015469415922816926 -0.00719130178803365
1760000000.0 -0.006255649379544922 -0.03409159364463705
1780000000.0 -0.04868822147070164 -0.026218176586121293
1800000000.0 -0.04567584841595817 -0.0825031101591843
1820000000.0 -0.10544991627258073 0.06946647642794661
1840000000.0 0.16622082162158255 0.002272828909095187
1860000000.0 0.024520234228511604 0.20087487602704193
1880000000.0 0.21196408491432464 -0.1137993720154031
1900000000.0 -0.2699144306349323 0.09102302311024463
1920000000.0 0.24848897309886264 -0.20540787999300827
1940000000.0 -0.3453577236823045 0.034493469726932395
1960000000.0 0.0034672486436348117 0.3722378144541565
1980000000.0 0.3998583154863593 -0.04362211580929734
2000000000.0 -0.33828910446716015 -0.249411690175271
2020000000.0 -0.33051184147890167 0.27342282611549895
2040000000.0 0.12603099890718786 0.41718730733165676
2060000000.0 0.434241309975619 0.04313960125430298
2080000000.0 0.2035682736718474 -0.3799562097262359
2100000000.0 -0.142579735207784 -0.3997206148124026
2120000000.0 -0.3456980853945539 -0.22399716864090516
2140000000.0 -0.3576762577516399 -0.16957579924551763
2160000000.0 0.33845280852772797 -0.18314314198101722
2180000000.0 0.13029056992353838 -0.35178476030170125
2200000000.0 -0.2708849131703796 -0.24457909469616607
2220000000.0 -0.3367072518667045 0.11477398743991984
2240000000.0 -0.1493210740024753 0.3163376927037682
2260000000.0 0.23410545467332106 0.2602410157600959
2280000000.0 0.34751913912935384 -0.04291821885422987
2300000000.0 0.2653750043683074 -0.2413858663708558
2320000000.0 0.019152960040379717 -0.38432457338067616
2340000000.0 -0.4001425538642353 -0.11960194001336105
2360000000.0 0.03856707382625647 0.45819043373446117
2380000000.0 0.022651836178888295 -0.5129714668797423
2400000000.0 0.3473383969283029 0.44810246638692125
2420000000.0 -0.6161157386224049 -0.039100161401371104
2440000000.0 0.46036206062477913 -0.4759180580340429
2460000000.0 -0.02926596235375608 0.6995310352073751
2480000000.0 -0.3949037586668689 -0.6133357066362389
2500000000.0 0.4618257270990414 0.5884887954645672
2520000000.0 -0.34973217457824585 -0.673200860627068
2540000000.0 0.09975560379413784 0.7540515864821037
2560000000.0 0.42376010428587146 -0.6231259668783219
2580000000.0 -0.7389148014344297 -0.026404550571645712
2600000000.0 0.46767527253882485 0.5420862915810504
2620000000.0 0.16106407953735102 -0.6686286170433908
2640000000.0 -0.31846021055557244 -0.5681590022891262
2660000000.0 -0.20004361314964458 0.5747054677161652
2680000000.0 0.5224638669519424 -0.2062282224694784
2700000000.0 -0.4710401780608589 -0.20727855779640394
2720000000.0 0.35468321451525253 0.3062269937385236
2740000000.0 -0.1472553314147637 -0.3935808312170422
2760000000.0 -0.1972136589563871 0.32596125764134193
2780000000.0 0.2264888258489226 -0.26413128942537073
2800000000.0 -0.1794120016736905 0.2676462224829714
2820000000.0 0.1793265357401538 -0.24420554840769265
2840000000.0 0.05558234053063458 0.28972748808585663
2860000000.0 -0.2698214281309128 -0.10224744183916878
2880000000.0 0.21398702892912144 -0.1891384272330054
2900000000.0 -0.26148103611681855 0.1141434020894318
2920000000.0 0.19464038032612216 0.21748138018953592
2940000000.0 0.07162166599134517 -0.2940613828943557
2960000000.0 -0.3092674264283173 0.009143694567611525
2980000000.0 -0.11070219253362486 0.2914397580480318
3000000000.0 -0.28618599926117083 0.12179919795354906
3020000000.0 -0.2530221187925997 -0.186957395913849
3040000000.0 0.006806498082377576 -0.3125249780024758
3060000000.0 0.29789075932629455 0.06590097124499016
3080000000.0 -0.26944383094851226 -0.11706518712338886
3100000000.0 0.04584637636289112 0.28346816579833456
3120000000.0 3.894152567807263e-05 -0.2834734381677406
3140000000.0 0.10354631124829435 0.25618058018355044
3160000000.0 -0.2181554145153258 -0.1508966803944392
3180000000.0 0.10323740293829207 0.23060407144795883
3200000000.0 -0.0632011992724414 0.22347543727073
3220000000.0 -0.10305315019031057 0.1758741440283012
3240000000.0 -0.16502967770312074 -0.040337941941621186
3260000000.0 0.09622137458838863 -0.09200583118972461
3280000000.0 0.0859070791911166 -0.047716332112228796
3300000000.0 0.06857546018218187 -0.028233038188664
3320000000.0 -0.04591571944856452 0.017932702812944516
3340000000.0 0.027435090317498773 0.016598440694013585
3360000000.0 0.013645138662129101 0.0032624202090537967
3380000000.0 -0.0004558865479313904 0.002175223332389384
3400000000.0 -0.0025537021757329895 0.01734611259601392
3420000000.0 0.028202038502382506 -0.019741047545101514
3440000000.0 0.04434295195485607 -0.015251767898056125
3460000000.0 -0.04235775977381209 -0.03882041248713287
3480000000.0 0.03671208036948688 -0.05462622235468974
3500000000.0 0.08339647606514963 0.005647475276456217
3520000000.0 0.029291799484172487 0.09501935766478659
3540000000.0 -0.1118455632599589 -0.02298317785971402
3560000000.0 -0.014664887246859859 -0.1241581659820637
3580000000.0 -0.10276001480528536 0.08829469902325898
3600000000.0 -0.07607733534090318 -0.13065287566154862
3620000000.0 0.15291009484336596 0.055715302381900984
3640000000.0 0.021098851169579685 0.17570471155160147
3660000000.0 -0.16950636237737024 -0.07507486134754687
3680000000.0 -0.1029550225675033 -0.1644104847444217
3700000000.0 -0.17350669171101782 -0.09357781524898882
3720000000.0 -0.1468153499979671 -0.1290300459413954
3740000000.0 0.07322503182610281 -0.17221656819267187
3760000000.0 -0.18165232762511116 0.016017789792425886
3780000000.0 0.17371584157018607 0.022296418009806362
3800000000.0 -0.1615754011608055 -0.04368534816695841
3820000000.0 -0.08965581630163412 0.13123412899350118
3840000000.0 -0.14767694292022074 -0.02167173894017916
3860000000.0 -0.02622532238059488 -0.14638093134604746
3880000000.0 0.10080344613111605 -0.11181265680635674
3900000000.0 0.14522156529896482 0.053232846718720014
3920000000.0 0.02805066283994052 -0.161583021228972
3940000000.0 0.15219222856344952 0.08154821221084235
3960000000.0 0.17790147807085974 0.01562742713442217
3980000000.0 0.0935106689246836 -0.149342887116337
4000000000.0 0.0609810908705638 -0.15642195405458242
