!Created with skrf (http://scikit-rf.org).
# Hz S RI R 50.0 
!freq ReS11 ImS11
400000000.0 0.8003831048465747 0.34310153853717895
420000000.0 0.6467806244404758 -0.5457101721552666
440000000.0 0.33547804365016015 -0.7145776714781158
460000000.0 0.7318115428681261 0.020092921149700554
480000000.0 0.09268630539233678 -0.6756591106528962
500000000.0 -0.11718191324343788 0.5873507385440015
520000000.0 0.3443523159089216 0.3696988964017941
540000000.0 -0.20223363483085027 -0.3916345163496402
560000000.0 -0.1807797010573063 0.35661736011019596
580000000.0 -0.36556215655452384 0.012741217878712095
600000000.0 0.2212844766878859 -0.28077859062370647
620000000.0 -0.3469652851667697 -0.08164199992914704
640000000.0 -0.14160111223657132 -0.38363677490951004
660000000.0 -0.05233705160485289 0.4141800027321912
680000000.0 -0.41872741723531437 0.15736667268916738
700000000.0 0.44320632950079786 0.10342601850623193
720000000.0 -0.4587921983743674 -0.04110650130975561
740000000.0 -0.25728003902489444 0.34770677820765405
760000000.0 -0.23241225458526726 0.33480437368422805
780000000.0 -0.36969664065842717 -0.03724296369282567
800000000.0 -0.30894416853280626 0.12017730045498622
820000000.0 -0.22794345368381477 0.16688395491484612
840000000.0 0.03843157712958446 -0.21201634020202365
860000000.0 -0.17542406863004759 0.03694491575960278
880000000.0 -0.13030396291379598 -0.06172369933100116
900000000.0 -0.07894832565603753 0.0399859028402353
920000000.0 -0.039816563052067974 0.023782147480648524
940000000.0 -0.029013173177534077 0.021391451559761045
960000000.0 -0.039935273351869506 -0.012925230463663185
980000000.0 -0.03333415837579613 0.06087373388859281
1000000000.0 -0.04817587768829404 0.09163391285670887
1020000000.0 -0.02651223355592386 0.11982412277194088
1040000000.0 -0.012159165723062639 -0.12943025727079718
1060000000.0 -0.004288937421605256 -0.151926904575591
1080000000.0 -0.1601616705735537 -0.06172726163279657
1100000000.0 0.14916340808902587 0.13665121577563002
1120000000.0 -0.09290080484090849 0.21383567037380896
1140000000.0 -0.2045791786158251 -0.15697903752806966
1160000000.0 -0.23904509472507052 0.1619115427914118
1180000000.0 -0.247776486969966 0.1990122599080147
1200000000.0 0.05988465769243905 -0.3410978539566584
1220000000.0 0.06331465560211799 0.3670792316973412
1240000000.0 0.15699477621259358 -0.35776473189059405
1260000000.0 -0.36062485817524464 -0.1814845166169994
1280000000.0 -0.27505370018212005 0.31809269598557693
1300000000.0 0.22679071379736024 0.36410226283380664
1320000000.0 0.3025029503515437 0.3133446677035421
1340000000.0 0.40212043692535354 0.19182194237622188
1360000000.0 0.3834364327527921 -0.2367537196427346
1380000000.0 -0.3412133989179147 -0.27806204167579424
1400000000.0 -0.34384248426637765 0.24654118370956518
1420000000.0 0.2644401773868715 0.30039292874310836
1440000000.0 0.36986420442379764 -0.012015621077239842
1460000000.0 0.31617157198868573 -0.1325237218685467
1480000000.0 -0.23993709794687582 -0.20833739089251763
1500000000.0 0.05704926404653131 0.27984591338071557
1520000000.0 0.09966970150679362 0.23024411725162758
1540000000.0 -0.08624499362976651 -0.20010147087967609
1560000000.0 -0.06915154388247778 0.17596828121071953
1580000000.0 -0.16708035797652102 -0.014852611660318277
1600000000.0 0.02754069031477987 0.13445240865371738
1620000000.0 0.10434172087000688 -0.01562806516580516
1640000000.0 0.05996505024597643 0.05565256263232423
1660000000.0 0.06275304987262308 -0.021757844953417715
1680000000.0 0.04321098405891905 -0.0015757948043029191
1700000000.0 0.02068434826842609 -0.007463422057723832
1720000000.0 -0.0026135188041363877 -0.0011661196376803367
1740000000.0 0.012815532651095583 0.011671971937233152
1760000000.0 0.02092857260822058 -0.02799821096146478
1780000000.0 -0.03193388183965496 -0.0454873047362979
1800000000.0 -0.0037852122317356017 -0.09387408789633848
1820000000.0 -0.12051416243404965 0.037928089618582815
1840000000.0 0.16161622519480504 0.03847572223171536
1860000000.0 0.002851380232902023 0.20200970352431455
1880000000.0 0.21891687321181683 -0.09922796897698141
1900000000.0 -0.2714550918249947 0.08458910268987826
1920000000.0 0.2505064130921114 -0.20208756117433344
1940000000.0 -0.34467971295127253 0.036490965445879237
1960000000.0 0.013443664977172268 0.3717023089312371
1980000000.0 0.39529135463559417 -0.07372747081734918
2000000000.0 -0.35301484563700003 -0.228281646422147
2020000000.0 -0.3096640177146275 0.2969337473806076
2040000000.0 0.14723592570618438 0.4104968327592251
2060000000.0 0.4355046821882026 0.03384147026058346
2080000000.0 0.19588557307800086 -0.3846125172664916
2100000000.0 -0.1492437590890202 -0.3981456014820925
2120000000.0 -0.3433313583712552 -0.22911061799342863
2140000000.0 -0.35166957910123686 -0.183295974551242
2160000000.0 0.3513317724408518 -0.15861127034299186
2180000000.0 0.1483958935693818 -0.34526420088133086
2200000000.0 -0.2507107822311275 -0.26576582308712127
2220000000.0 -0.3458144898529233 0.08331462950066487
2240000000.0 -0.17974930720266927 0.30027253430258266
2260000000.0 0.21604075832775851 0.27525120087277544
2280000000.0 0.3486918269514519 -0.031040568585916296
2300000000.0 0.27381398332830215 -0.23155802245002305
2320000000.0 0.047393381416462224 -0.38143250653232597
2340000000.0 -0.40174906872887106 -0.11326415497652821
2360000000.0 0.031798125297936894 0.45844761613973706
2380000000.0 0.03067619873920468 -0.5122471269914576
2400000000.0 0.35601522157619425 0.44108452624805067
2420000000.0 -0.6171366984126193 -0.010804418209313615
2440000000.0 0.466463249059647 -0.4702902974334109
2460000000.0 -0.007191353310206894 0.7003652069570556
2480000000.0 -0.3931628793075474 -0.6149664034462546
2500000000.0 0.43302925857814956 0.6105747926825298
2520000000.0 -0.3799745586739465 -0.6571980813513371
2540000000.0 0.032456824250297216 0.7609038632511679
2560000000.0 0.46617877162890886 -0.5927912816121571
2580000000.0 -0.7393366033448653 -0.030365345332244432
2600000000.0 0.4449642538691686 0.5616163326230587
2620000000.0 0.10016337614206636 -0.6806847167395226
2640000000.0 -0.2812470401132898 -0.5878739967486621
2660000000.0 -0.22602566715110753 0.5652041584329285
2680000000.0 0.5092448755894095 -0.2381100735403915
2700000000.0 -0.47443041089401977 -0.20057968375169208
2720000000.0 0.33666493223371596 0.32621833007630313
2740000000.0 -0.1406816244118389 -0.39616651302239664
2760000000.0 -0.19989159539220533 0.3243144155357811
2780000000.0 0.22546067657741206 -0.26501820808839444
2800000000.0 -0.18662451426084112 0.2626574251818176
2820000000.0 0.1817553457823676 -0.24262350181301495
2840000000.0 0.04868653396982211 0.2913793710635164
2860000000.0 -0.2742072882980631 -0.08917601786187883
2880000000.0 0.2156543489855201 -0.1876991003834743
2900000000.0 -0.2662257856862015 0.10326460061507076
2920000000.0 0.18799561264378534 0.22377132409840514
2940000000.0 0.028592590288517707 -0.3013984051344055
2960000000.0 -0.30983736984146537 0.005634974992046874
2980000000.0 -0.12490858169370474 0.2855234010544086
3000000000.0 -0.28019449491248305 0.1369740046753706
3020000000.0 -0.2667120154617875 -0.16807876629678886
3040000000.0 -0.00938382729780684 -0.31322082023998127
3060000000.0 0.30230803900973996 0.04663467034949565
3080000000.0 -0.26507991481400806 -0.12820500050820638
3100000000.0 0.06615355919647632 0.2803573995629196
3120000000.0 0.038499128183333585 -0.28125605954551186
3140000000.0 0.08660105001048292 0.2629756971925428
3160000000.0 -0.19676048778956418 -0.17862409010781052
3180000000.0 0.05034170233488877 0.24784275044955867
3200000000.0 -0.09073770699453244 0.21397051345571363
3220000000.0 -0.144577397745096 0.14307660983660137
3240000000.0 -0.14824374553651773 -0.08306990826457222
3260000000.0 0.11866578433114634 -0.0595106726802069
3280000000.0 0.09587014340413418 -0.01956249932906543
3300000000.0 0.07326629620522096 -0.0073502242447444945
3320000000.0 -0.048470121464584355 -0.0037306250435874266
3340000000.0 0.021108463975165036 0.023478925520912287
3360000000.0 0.01302088521131635 -0.003629034217110729
3380000000.0 -0.0009275275160336711 -0.002708946548433216
3400000000.0 -0.017716732657446575 0.0037219012391869213
3420000000.0 0.028921244211305625 -0.01963809604810574
3440000000.0 0.029712059284330995 0.03663245581110437
3460000000.0 -0.015673223129064745 -0.0555777723030764
3480000000.0 0.06032733629877084 -0.026979367452964222
3500000000.0 0.0746978086085115 0.03835621763645598
3520000000.0 -0.02006303380941624 0.09774113828354786
3540000000.0 -0.08163674761722287 -0.07983632234154243
3560000000.0 0.05678584113959786 -0.11092800277087612
3580000000.0 -0.12431365547963227 0.055402939776854856
3600000000.0 -0.00862458734999515 -0.15046025726220702
3620000000.0 0.11876823442820814 0.11083990103725432
3640000000.0 -0.023730600254930262 0.17559249926430126
3660000000.0 -0.13531190168818286 -0.12569505348067866
3680000000.0 -0.05336179900383042 -0.18587169342748244
3700000000.0 -0.14339648849271341 -0.13412812056201237
3720000000.0 -0.11182835122201268 -0.15873675781559804
3740000000.0 0.09790047797886281 -0.15804192508710202
3760000000.0 -0.1811800195897828 -0.0013261217522043548
3780000000.0 0.17150896673946586 0.026848837899306553
3800000000.0 -0.15997167500172832 -0.04491183653513954
3820000000.0 -0.08016776227520703 0.13562247874696226
3840000000.0 -0.14689136937068567 -0.01962292139415599
3860000000.0 -0.029980039955177114 -0.14465035339843782
3880000000.0 0.08874541289008375 -0.11984036839009107
3900000000.0 0.1449088451769115 0.05111954178268845
3920000000.0 0.019089879539758457 -0.1620328384769583
3940000000.0 0.15715486041779436 0.06929219842939707
3960000000.0 0.17808789871486638 -0.002131773416276414
3980000000.0 0.06757621193501859 -0.1622885124791217
4000000000.0 0.032728517188247847 -0.16420600181351183
