!Created with skrf (http://scikit-rf.org).
# Hz S RI R 50.0 
!freq ReS11 ImS11
400000000.0 0.7941772224217365 0.3543653413374485
420000000.0 0.6388569245040775 -0.5544841289873962
440000000.0 0.3354766875929869 -0.7143606415500574
460000000.0 0.7316945434368506 0.019290462489224787
480000000.0 0.08496895880059373 -0.6765937199334968
500000000.0 -0.1281296036584402 0.58511731543191
520000000.0 0.341627227125006 0.37249793325800007
540000000.0 -0.2055281804405033 -0.3900672136494812
560000000.0 -0.18387654857725436 0.35497132446946983
580000000.0 -0.3639924246868929 0.03610695552230566
600000000.0 0.2220973767185465 -0.28015759416849645
620000000.0 -0.3498995153692269 -0.06714724631407422
640000000.0 -0.14959166053294312 -0.38029035316373133
660000000.0 -0.05928984102512969 0.41311664955287764
680000000.0 -0.41219250221530657 0.17355042315215452
700000000.0 0.44436766609033074 0.09794625609453049
720000000.0 -0.45884216342017153 -0.04237615039112151
740000000.0 -0.2516223649164966 0.35178977645711984
760000000.0 -0.22925025700362803 0.3367451351279479
780000000.0 -0.3703947400932693 -0.026614808711666035
800000000.0 -0.30538257972805305 0.12857800472107325
820000000.0 -0.2172933047609686 0.18033142826825824
840000000.0 0.030174131107782855 -0.21347867720522334
860000000.0 -0.17626348278049295 0.032718661781581254
880000000.0 -0.12536247674017337 -0.07118338353226353
900000000.0 -0.083850759552136 0.027448594064335374
920000000.0 -0.03914469930063075 0.024302336549599835
940000000.0 -0.029304910017881786 0.0206861586552135
960000000.0 -0.03650605603705345 -0.020785397447506952
980000000.0 -0.04488060035136548 0.05263783978369243
1000000000.0 -0.05604648824493681 0.0868837574743601
1020000000.0 -0.021932973606751265 0.12070661458494099
1040000000.0 -0.018283329540903278 -0.12875612175753107
1060000000.0 -0.004514750648844483 -0.152078441396669
1080000000.0 -0.16447281391959975 -0.049501342636371626
1100000000.0 0.14853031022526084 0.13722141051768103
1120000000.0 -0.08746950208065518 0.2160366712777609
1140000000.0 -0.20351119218439476 -0.15801468146748116
1160000000.0 -0.24097837030577557 0.15868710205418007
1180000000.0 -0.25379649248689573 0.19073959296280985
1200000000.0 0.08231923270878974 -0.3360534814990236
1220000000.0 0.022268349026062083 0.37142643935478703
1240000000.0 0.15257910157255694 -0.35959752297193626
1260000000.0 -0.3650056740683952 -0.17220917940651614
1280000000.0 -0.2747294502048292 0.3183269680147963
1300000000.0 0.23265595667317865 0.36046303091920623
1320000000.0 0.30806188377787347 0.3079735352006944
1340000000.0 0.4046401467520875 0.18652875280592093
1360000000.0 0.38775617375982163 -0.22980483211675956
1380000000.0 -0.33862093357427553 -0.2814247476126709
1400000000.0 -0.336558174653202 0.2564751571338459
1420000000.0 0.2691811701927704 0.29617880936778823
1440000000.0 0.3699968405791201 -0.007503601852095389
1460000000.0 0.31794911493884404 -0.12814915267656013
1480000000.0 -0.2261284175612078 -0.22368832947750245
1500000000.0 0.042703438686462626 0.2825835128522309
1520000000.0 0.121203723595391 0.21923629046152043
1540000000.0 -0.08353394278625959 -0.20106149763256456
1560000000.0 -0.06480368610835524 0.1772486696916655
1580000000.0 -0.16741291603897285 -0.0004942357426983089
1600000000.0 0.016874078251259677 0.13597250280703704
1620000000.0 0.10475987835640553 -0.011367698473267124
1640000000.0 0.0729991473217944 0.03712248502632839
1660000000.0 0.05650759703866321 -0.03494431795553793
1680000000.0 0.03380618832015617 -0.027396565580248892
1700000000.0 0.018512160371908202 -0.012197425004273904
1720000000.0 -0.0002662933947948747 0.003169501926512061
1740000000.0 0.012043528130377573 -0.012566328393836146
1760000000.0 0.0041887841676185155 -0.034577971401815226
1780000000.0 -0.047865733693185385 -0.028097022611073368
1800000000.0 -0.03517370515937706 -0.08746424791084137
1820000000.0 -0.11399578928638894 0.05443430854174976
1840000000.0 0.16392436001489205 0.027642688458121147
1860000000.0 0.0015690543130332728 0.20235938387107288
1880000000.0 0.21943780539256544 -0.09898630833332478
1900000000.0 -0.2753973034402985 0.07197230511954267
1920000000.0 0.2515068556859497 -0.20134328977629537
1940000000.0 -0.3451668876237234 0.03402301942901678
1960000000.0 0.008870692897790978 0.3719146240434718
1980000000.0 0.398220808796779 -0.05531754765921083
2000000000.0 -0.3425488997376086 -0.2434297507413142
2020000000.0 -0.3211867826713663 0.28437881313212654
2040000000.0 0.14403926932679662 0.41143150183147637
2060000000.0 0.4362701344161968 -0.002202927401219788
2080000000.0 0.20524912051711602 -0.3793437438237923
2100000000.0 -0.16851400024539998 -0.38971183341692556
2120000000.0 -0.3487340754938302 -0.22018458188409015
2140000000.0 -0.3598960035450413 -0.16561188699848062
2160000000.0 0.3389000756446845 -0.18321791338395504
2180000000.0 0.1368186952372551 -0.3497218182167727
2200000000.0 -0.2545572319302654 -0.26199719001406235
2220000000.0 -0.3335574789446732 0.12298661514357548
2240000000.0 -0.18444027920619974 0.29769882924269986
2260000000.0 0.21123631233496556 0.2789760603996797
2280000000.0 0.3492178862451776 -0.024926636061280785
2300000000.0 0.27868860658433675 -0.2255868094328568
2320000000.0 0.0389570378788405 -0.38262759977491256
2340000000.0 -0.399280135323414 -0.12204589665757562
2360000000.0 0.03415738592890936 0.45850986056649157
2380000000.0 0.024102812050045875 -0.5125907646598896
2400000000.0 0.3637397280923172 0.4348596306904321
2420000000.0 -0.6171432124021105 -0.005231232660381263
2440000000.0 0.46468565390370503 -0.4718598099744387
2460000000.0 -0.007237820847744107 0.7002352293280781
2480000000.0 -0.389789987934037 -0.6168456402068204
2500000000.0 0.4047445893571234 0.6297798827171236
2520000000.0 -0.33741435901394895 -0.6800041587573161
2540000000.0 0.06608796569000723 0.75817303317921
2560000000.0 0.4455072404331719 -0.6081945986654652
2580000000.0 -0.7394881176261383 0.015896340530427665
2600000000.0 0.44952225743996815 0.5577772108309774
2620000000.0 0.11407966243263175 -0.6780926083185901
2640000000.0 -0.2770800772464551 -0.5894924872831024
2660000000.0 -0.21686506180015394 0.568487030491489
2680000000.0 0.5023994268779794 -0.25194959338422734
2700000000.0 -0.47414339655855575 -0.20032818743045827
2720000000.0 0.3465106951393534 0.31530881425363594
2740000000.0 -0.14471077758008427 -0.3945703594413274
2760000000.0 -0.19591439008420122 0.3266763783083928
2780000000.0 0.2156682692499222 -0.27310941399656274
2800000000.0 -0.1756464002912642 0.27008960013130906
2820000000.0 0.17022783754531837 -0.2508664542185747
2840000000.0 0.06176355547802221 0.288589282838325
2860000000.0 -0.27427955995079567 -0.0890669540330403
2880000000.0 0.216183924427924 -0.1867939042410708
2900000000.0 -0.26233026104756174 0.11237216084010163
2920000000.0 0.19241419927011433 0.21956542230592208
2940000000.0 0.05953450470851879 -0.2968477150847177
2960000000.0 -0.30863444205280793 0.022697084307411658
2980000000.0 -0.13055106992262974 0.28240118868567377
3000000000.0 -0.2823914501458773 0.13263573731681771
3020000000.0 -0.2599053491620661 -0.17750772791185393
3040000000.0 -0.04137705844723557 -0.31004666161199756
3060000000.0 0.2951057314767559 0.07794822978200895
3080000000.0 -0.2666771001809451 -0.12383789109935882
3100000000.0 0.08616627963255659 0.2742661925178219
3120000000.0 0.04074493848223008 -0.2804969949044083
3140000000.0 0.12174951155774325 0.24845864298034648
3160000000.0 -0.21537569436161094 -0.15515318551165372
3180000000.0 0.08584314846020577 0.2376964125409246
3200000000.0 -0.06892576117742616 0.22200927450173555
3220000000.0 -0.12044580619022045 0.16449531426901837
3240000000.0 -0.15704478966209312 -0.06455076790545457
3260000000.0 0.10808753900595942 -0.07763858234634129
3280000000.0 0.09007837360294454 -0.03922641806658079
3300000000.0 0.0735780210409613 0.007958403113468494
3320000000.0 -0.049062424248989024 0.002632737873123006
3340000000.0 0.014551046685023472 0.028483726400267084
3360000000.0 -0.00897191340228842 0.01052641841342335
3380000000.0 0.0022023965926784047 0.0007783487158954533
3400000000.0 -0.016148707246537733 0.007099697420476673
3420000000.0 0.024602312228317165 -0.024317105785342925
3440000000.0 0.043890468683427546 0.016428949004820136
3460000000.0 -0.01607345981149485 -0.05495644960836153
3480000000.0 0.051991622685727615 -0.040481749822603684
3500000000.0 0.08126563436166592 0.020676350511567475
3520000000.0 0.021391469412185886 0.09773425820784497
3540000000.0 -0.08946870375085371 -0.0707778978276018
3560000000.0 0.010461759386351896 -0.1249905737888483
3580000000.0 -0.1059630458463339 0.0857897110831805
3600000000.0 -0.006181914654737476 -0.15041839095576479
3620000000.0 0.14123205704178068 0.08118023154430443
3640000000.0 -0.016490126450635748 0.17583434101273826
3660000000.0 -0.15535189125689328 -0.10018165807503711
3680000000.0 -0.07610349398596149 -0.17812360767652696
3700000000.0 -0.1624127062712691 -0.11101814824730431
3720000000.0 -0.12803895995056766 -0.14728721669886402
3740000000.0 0.08488408940816716 -0.16618229817176694
3760000000.0 -0.18165480908142867 0.010801041555491275
3780000000.0 0.17109494180609275 0.03380980244695
3800000000.0 -0.15941436684350438 -0.04916976058498615
3820000000.0 -0.0896119066380601 0.130419777666033
3840000000.0 -0.1472938092677684 -0.018402549999537592
3860000000.0 -0.03205952874395028 -0.1443120268374546
3880000000.0 0.07776834495505877 -0.1275099583668198
3900000000.0 0.15046810970768493 0.030964261611678274
3920000000.0 -0.0023802440155589136 -0.16307291725692105
3940000000.0 0.16650395790965383 0.04276902611621946
3960000000.0 0.1728489719391066 -0.041796913629118464
3980000000.0 0.024536831358293387 -0.17402962259087276
4000000000.0 -0.008670481307929545 -0.16748409387215776
