!Created with skrf (http://scikit-rf.org).
# Hz S RI R 50.0 
!freq ReS11 ImS11
400000000.0 0.8134552663595732 0.311957559428862
420000000.0 0.6311424372028216 -0.5640844503395528
440000000.0 0.3375695865050698 -0.7131404632794259
460000000.0 0.7319229346292062 0.002306150380181949
480000000.0 0.09067861053692083 -0.6758787225750201
500000000.0 -0.10186974221190827 0.5904262741555129
520000000.0 0.33508270839892257 0.37871792663263937
540000000.0 -0.1668165463223059 -0.40815046006450995
560000000.0 -0.19788993148246395 0.34758254229358154
580000000.0 -0.3643244169354333 0.032975221852342945
600000000.0 0.2094535465617842 -0.2891799912126656
620000000.0 -0.34993033879946334 -0.06673257758397252
640000000.0 -0.16920391567471513 -0.371674252936597
660000000.0 -0.017180133313821167 0.41653167295636184
680000000.0 -0.4057931566158197 0.1892556642296699
700000000.0 0.44592917428807677 0.09181800812733415
720000000.0 -0.458481163126704 -0.04783259309234845
740000000.0 -0.24472509533812306 0.3564651511523629
760000000.0 -0.22955835864988364 0.3364874238762738
780000000.0 -0.36984426309260454 -0.033188523882464675
800000000.0 -0.3133828064198689 0.10813993058119233
820000000.0 -0.22861132854675184 0.16611227922645988
840000000.0 0.06791692105442358 -0.20442122428084927
860000000.0 -0.177431231959356 0.025446689038000726
880000000.0 -0.13103731604349078 -0.05991935349058148
900000000.0 -0.07746500106863867 0.042069298883429224
920000000.0 -0.040084066780933326 0.02260798076791302
940000000.0 -0.028110245736239606 0.021966698541392594
960000000.0 -0.028804232881790733 0.03073722921098965
980000000.0 -0.02712853167056541 0.06464180951212797
1000000000.0 -0.0644009831342969 0.08185826489912143
1020000000.0 -0.0383333357142118 0.11655176176250243
1040000000.0 0.010359026994953658 -0.12951344855634495
1060000000.0 -0.02004973761808025 -0.1502892702521383
1080000000.0 -0.16725864354881498 -0.03920277640048477
1100000000.0 0.15404787210072124 0.13133913274785763
1120000000.0 -0.08806895839778422 0.21586691891199297
1140000000.0 -0.19454741838186118 -0.1692646653293558
1160000000.0 -0.2113055662804089 0.19726756872991041
1180000000.0 -0.24652331154846882 0.20080815624899243
1200000000.0 0.028451344949608832 -0.34530236484739746
1220000000.0 0.06637287054257066 0.3665884662964616
1240000000.0 0.11449090586873154 -0.37400349828009594
1260000000.0 -0.3679056375028308 -0.1672687547101683
1280000000.0 -0.27008389521934184 0.3227226907433144
1300000000.0 0.2481354742297636 0.3509795699867944
1320000000.0 0.295825606260616 0.3201093021528349
1340000000.0 0.3953932203409396 0.20592294726342622
1360000000.0 0.39257258806635664 -0.2220058601948516
1380000000.0 -0.325460971478271 -0.29650940996094255
1400000000.0 -0.3545764559092078 0.23112248507752522
1420000000.0 0.2525809569236737 0.31048767753564527
1440000000.0 0.3694765108360324 -0.01450470800468787
1460000000.0 0.32160812749277207 -0.11809085255895639
1480000000.0 -0.25696063684044235 -0.18692997858484167
1500000000.0 0.037111417110052246 0.2830842611511935
1520000000.0 0.11949213530295684 0.22012623190654432
1540000000.0 -0.10626431959162541 -0.18993268467227617
1560000000.0 -0.06629199328086063 0.17695050941552956
1580000000.0 -0.16307361964752978 0.036030845547487825
1600000000.0 0.03953212683113466 0.1315041028506377
1620000000.0 0.10198617168750577 -0.028170067915447038
1640000000.0 0.07617867727155957 0.030857268613361275
1660000000.0 0.05467928435717139 -0.038739968478141186
1680000000.0 0.04147349132847109 0.014091944166361187
1700000000.0 0.021523978458155547 -0.004390141704190977
1720000000.0 -0.0007525844823977338 0.002809749776301846
1740000000.0 0.013962564661009287 -0.011132816813715186
1760000000.0 -0.002593393986479408 -0.03502934334333993
1780000000.0 -0.017413302601893717 -0.05374692112842232
1800000000.0 0.00971480178855451 -0.09365840488052166
1820000000.0 -0.12541250921588923 0.020860072740932323
1840000000.0 0.15881328318665935 0.04936789929471329
1860000000.0 -0.007618969368539135 0.2017087908349354
1880000000.0 0.22370349329155778 -0.08859680054016426
1900000000.0 -0.27863397345061364 0.05729027850121841
1920000000.0 0.26136346216258755 -0.1876330157264373
1940000000.0 -0.3444403256636601 0.03819334578709773
1960000000.0 0.011869679117224011 0.3715133201238114
1980000000.0 0.3958291411223513 -0.06938007156577479
2000000000.0 -0.3572288849420928 -0.22144455480801092
2020000000.0 -0.279699725139916 0.32547903757190716
2040000000.0 0.13792462275723355 0.4140934758502301
2060000000.0 0.43554769455926934 -0.0308408462815246
2080000000.0 0.14321831662877846 -0.40715707363010883
2100000000.0 -0.18438607375456398 -0.3828682034603834
2120000000.0 -0.3399969693540317 -0.2340968921491391
2140000000.0 -0.36513651473192416 -0.15512731000531774
2160000000.0 0.3363525009929888 -0.18967080533161151
2180000000.0 0.16659607596383827 -0.33774030131032845
2200000000.0 -0.22820610649122325 -0.28568243816531114
2220000000.0 -0.3555295553403146 0.024125959697672787
2240000000.0 -0.20972996727911436 0.28076223816728135
2260000000.0 0.16246886021111456 0.3100886403551664
2280000000.0 0.3489354436147176 0.027146558399145468
2300000000.0 0.2993313073228658 -0.1964762222082543
2320000000.0 0.08493420913078445 -0.375121063949782
2340000000.0 -0.4020765023657393 -0.11220754077054869
2360000000.0 0.03706939278949073 0.45800818753426337
2380000000.0 -0.013170364066830528 -0.5128915604668878
2400000000.0 0.38752645694395327 0.4137532965611741
2420000000.0 -0.6166214957120983 0.03171618953938146
2440000000.0 0.42975521688006857 -0.5045145081891946
2460000000.0 0.005092468787496652 0.7006889293331365
2480000000.0 -0.42784242382699056 -0.5925401818042066
2500000000.0 0.45116042469810574 0.5991066307505931
2520000000.0 -0.33170361011194066 -0.6837708611991048
2540000000.0 0.11834830571807697 0.7523861804048895
2560000000.0 0.43606814929667637 -0.6164004461058199
2580000000.0 -0.7410727216162303 -0.0105411454118388
2600000000.0 0.4160214489426598 0.5839341005281854
2620000000.0 0.1588832743200603 -0.6696737058253099
2640000000.0 -0.2381469864338144 -0.6068216268941135
2660000000.0 -0.27072224545466606 0.5454268311745247
2680000000.0 0.5253781338980121 -0.19960960535910643
2700000000.0 -0.4760710812892924 -0.1969974190225356
2720000000.0 0.3237031934439935 0.33810708185354227
2740000000.0 -0.1463418670067661 -0.39319545435540953
2760000000.0 -0.19538811213417215 0.3259017001738956
2780000000.0 0.2091475554246571 -0.2772026358429726
2800000000.0 -0.158386668830238 0.27988889622160834
2820000000.0 0.15883752014870164 -0.25807798179036995
2840000000.0 0.07801438184725919 0.28437047894054235
2860000000.0 -0.28291340678703847 -0.05663158965056974
2880000000.0 0.20619899495607594 -0.19879474135033864
2900000000.0 -0.25695886481365043 0.12507694318808493
2920000000.0 0.1719965869464368 0.2360154566019793
2940000000.0 0.12586494030026066 -0.27584370037502354
2960000000.0 -0.3044844288477925 0.05491168800477799
2980000000.0 -0.113101546404754 0.29094413434217736
3000000000.0 -0.24414791558761212 0.19361491489879581
3020000000.0 -0.2926608941160121 -0.11781832311550328
3040000000.0 -0.09534441379031346 -0.29871350034889477
3060000000.0 0.29969019895297233 0.061012364034253766
3080000000.0 -0.2627061818579723 -0.1348872219051471
3100000000.0 0.08956544042553448 0.2737844353032682
3120000000.0 0.032139494326691526 -0.2824497735845551
3140000000.0 0.055445711282561705 0.27104075818094603
3160000000.0 -0.17018714633214319 -0.20432640630835303
3180000000.0 0.054288323655815734 0.24686144215800138
3200000000.0 -0.10447186746174933 0.20769838382079836
3220000000.0 -0.1529865814279206 0.13347348678121748
3240000000.0 -0.14885221244452104 -0.08196313934634648
3260000000.0 0.12466322029244097 -0.044608916307453915
3280000000.0 0.09165264553418781 -0.032436092236846875
3300000000.0 0.06991883535833462 0.020259545998447894
3320000000.0 -0.04729056318322081 -0.003931011677051138
3340000000.0 0.02291167519221261 0.019923549970468385
3360000000.0 0.01177192461107947 0.0036172914898130073
3380000000.0 -0.0032982680862885345 -0.002449872546191711
3400000000.0 -0.002023121392230196 0.018796662902889238
3420000000.0 3.2969970843003234e-05 -0.03557614024626336
3440000000.0 0.048134944185712056 -0.006561613685925892
3460000000.0 0.028001315617601483 -0.051463536195637774
3480000000.0 0.05510806375008523 -0.03858835968927899
3500000000.0 0.081233406325999 0.024637502368385834
3520000000.0 -0.028689893364506266 0.09625629351519709
3540000000.0 -0.0787153727087587 -0.0836985634741685
3560000000.0 0.0821130100664298 -0.0952954085419989
3580000000.0 -0.1254047473940086 0.05667121337207061
3600000000.0 0.029874858899367123 -0.14810299414282888
3620000000.0 0.09491104772279499 0.1333041747705256
3640000000.0 -0.1058437917656224 0.1410302516824559
3660000000.0 -0.11226208461036284 -0.14728694093114447
3680000000.0 -0.04253176535419445 -0.1889786114190966
3700000000.0 -0.14084776126874962 -0.1362422154077328
3720000000.0 -0.11814001676867075 -0.15455702406149663
3740000000.0 0.12701405974614552 -0.13597916775710717
3760000000.0 -0.1813746092627209 -0.003455608780972829
3780000000.0 0.16052911271555118 0.06777183431771155
3800000000.0 -0.16300689105755511 -0.03122057006062115
3820000000.0 -0.0921695076078047 0.12734336618826914
3840000000.0 -0.1468608269482818 0.01539589530091568
3860000000.0 -0.01974624840594324 -0.14571184289650457
3880000000.0 0.09279137300933736 -0.11654013568780472
3900000000.0 0.1450850635824799 0.049429198776530035
3920000000.0 0.03965824437990386 -0.15806548366368794
3940000000.0 0.1279255515105337 0.11398694285641052
3960000000.0 0.16243846456316355 0.07304336869402518
3980000000.0 0.158554367464711 -0.07519282112002365
4000000000.0 0.13954660041367858 -0.09290514557416242
