!Created with skrf (http://scikit-rf.org).
# Hz S RI R 50.0 
!freq ReS11 ImS11
400000000.0 0.7833915215705548 0.37366580440015584
420000000.0 0.6476326312983377 -0.5411705380541858
440000000.0 0.34096129088056965 -0.7106245080200607
460000000.0 0.7308542515350799 -0.005835927923146613
480000000.0 0.05774712071284912 -0.6789870812167028
500000000.0 -0.1326256123735159 0.584099475119426
520000000.0 0.34990584310894934 0.36441834989024113
540000000.0 -0.21187799645442684 -0.3865041176250014
560000000.0 -0.15728340506368638 0.3678722972787754
580000000.0 -0.3644769524753766 0.039493721963437756
600000000.0 0.22067968999163 -0.2824735163908882
620000000.0 -0.3376127573711212 -0.11891869795462821
640000000.0 -0.06728121037810404 -0.40482130679188566
660000000.0 -0.1382973455644616 0.3948502706864953
680000000.0 -0.44044975056119234 0.08126287189128382
700000000.0 0.4131335323864868 0.19057815663239533
720000000.0 -0.4461024300227245 -0.11430078907989681
740000000.0 -0.2938340456226489 0.3164972804565644
760000000.0 -0.24153211717289527 0.32704774366106265
780000000.0 -0.3691910509410796 -0.029660383013185115
800000000.0 -0.2955447499371348 0.14827335063445196
820000000.0 -0.17552468486832204 0.2206943168763614
840000000.0 -0.031176843093590572 -0.21298022435216446
860000000.0 -0.1426427697297064 0.10919936792634863
880000000.0 -0.1449649827162849 0.0027818484982257124
900000000.0 -0.058486047183794375 0.06780009904623052
920000000.0 -0.029126072457772153 0.03744332696970276
940000000.0 -0.03689257768234538 -0.0016778768787083132
960000000.0 0.016679422295787102 -0.0389364893225566
980000000.0 -0.06837044163962644 -0.008342863497200112
1000000000.0 -0.052553637423168965 0.08764978754828887
1020000000.0 0.007825965095931739 0.12125075055224735
1040000000.0 -0.07316780167188103 -0.10677122418822099
1060000000.0 -0.08236714455126944 -0.127877772934591
1080000000.0 -0.17262947814939925 0.003227440787298062
1100000000.0 0.17951584552632374 0.09603486709809764
1120000000.0 -0.06848277614022716 0.22452356410470706
1140000000.0 -0.18579189750284178 -0.18129255369357183
1160000000.0 -0.26129379475678743 0.1260821429208387
1180000000.0 -0.2790063672351845 0.1543034298658609
1200000000.0 0.10506939071437157 -0.330992782041486
1220000000.0 -0.031431581901050346 0.37145056650917085
1240000000.0 0.21739219163734605 -0.3249883795848124
1260000000.0 -0.327558227429417 -0.23648413579317612
1280000000.0 -0.3258417515927902 0.26518564660698435
1300000000.0 0.21927812810208522 0.36894673577619946
1320000000.0 0.2966707110746958 0.31867164252630437
1340000000.0 0.39652124991100296 0.20271926531716347
1360000000.0 0.3722599043592219 -0.25374313747772026
1380000000.0 -0.3473080134483815 -0.270480088280999
1400000000.0 -0.3247568094576463 0.2713021897933329
1420000000.0 0.29360840473823596 0.27179816280215807
1440000000.0 0.3690471685625464 -0.03334718285274865
1460000000.0 0.31403687516409684 -0.13854444881617098
1480000000.0 -0.2397627784808749 -0.20941735815578588
1500000000.0 0.05024022374258905 0.2818261538539131
1520000000.0 0.08613783873237003 0.23676567912420096
1540000000.0 -0.07632427372897213 -0.20477249690928825
1560000000.0 -0.0745782673861318 0.17437135187861721
1580000000.0 -0.16458547652974387 -0.035195994393769185
1600000000.0 0.005025486524640569 0.1375092237996546
1620000000.0 0.10454657069890505 0.01604780310142109
1640000000.0 0.03053380995628266 0.07560226865351304
1660000000.0 0.06599861649116968 0.0024910791225107192
1680000000.0 0.04265793418890947 -0.0061393253665372755
1700000000.0 -0.005836698611742582 -0.020833784180520187
1720000000.0 0.0018004380748769871 -0.0010370869958092096
1740000000.0 -0.014097950612292576 0.01029827144688158
1760000000.0 0.03428879789862139 0.0033436253315342196
1780000000.0 -0.003344286415637515 -0.05542082535561141
1800000000.0 0.02742912082665543 -0.08977832511504176
1820000000.0 -0.12345047686024084 0.0263722920994101
1840000000.0 0.16161223477614506 0.03785469010528526
1860000000.0 0.011824980498081054 0.20118578454806216
1880000000.0 0.21427674005939784 -0.10843181542817121
1900000000.0 -0.2745156238546958 0.07428945436007557
1920000000.0 0.24217094155635424 -0.21182867050952808
1940000000.0 -0.3408761688414983 0.06393909231247628
1960000000.0 0.023502425796626848 0.3710541792922665
1980000000.0 0.3939431863998614 -0.08035602561456079
2000000000.0 -0.3524695855178682 -0.22921211316414497
2020000000.0 -0.3253675698013971 0.28027233875505886
2040000000.0 0.1794314655743524 0.3976827816516272
2060000000.0 0.43689784962260875 0.018862953764509686
2080000000.0 0.19190558318361411 -0.38700638662625436
2100000000.0 -0.12015184324931248 -0.4080265805319549
2120000000.0 -0.32975569789606024 -0.24912023066827557
2140000000.0 -0.3412410589247647 -0.20300798222783295
2160000000.0 0.36168739088854 -0.13483526870019952
2180000000.0 0.15921425196081376 -0.3418501481312823
2200000000.0 -0.23700978879461615 -0.27889716716417173
2220000000.0 -0.35624106796477606 0.018458589000744367
2240000000.0 -0.2077230819032342 0.28260588655847413
2260000000.0 0.1763300164071772 0.30292367912873935
2280000000.0 0.34898855209719837 0.029766381431390473
2300000000.0 0.3031274274900935 -0.19244789410537988
2320000000.0 0.08869568910949854 -0.3743180295660137
2340000000.0 -0.4021863801326525 -0.11364467533322188
2360000000.0 0.018607022003479766 0.4596688739061505
2380000000.0 0.006459059294401558 -0.5133498369372008
2400000000.0 0.3699426579370961 0.4298666574164284
2420000000.0 -0.6173847382012195 0.013122861458711004
2440000000.0 0.4329378119466146 -0.501784856214635
2460000000.0 0.026360926283789922 0.70067557274274
2480000000.0 -0.41272701406027135 -0.603009785614512
2500000000.0 0.4921911516657144 0.5651928632098056
2520000000.0 -0.32443653594927896 -0.6878631347391796
2540000000.0 0.04618671673411699 0.7601962003538176
2560000000.0 0.42772790535268246 -0.6229365320074768
2580000000.0 -0.736714397726932 -0.07879285004936827
2600000000.0 0.39525490290752785 0.5981315471764351
2620000000.0 0.2571254805287129 -0.637869787941043
2640000000.0 -0.24413512772430876 -0.6040578210717622
2660000000.0 -0.29761347024450613 0.5316200439622463
2680000000.0 0.5305869616685444 -0.18545337101122808
2700000000.0 -0.4328764262598849 -0.27889298297427145
2720000000.0 0.3139957304023127 0.3473975094130893
2740000000.0 -0.15145772602517016 -0.39166706537655843
2760000000.0 -0.18838666937254184 0.33044604018372786
2780000000.0 0.19926552130479053 -0.28474261941850065
2800000000.0 -0.152799175781116 0.2835606148876163
2820000000.0 0.15258167740991385 -0.2623870649698021
2840000000.0 0.07952549707725935 0.28446448017690723
2860000000.0 -0.2817906340759829 -0.06656989210931498
2880000000.0 0.2034991800947136 -0.20209242738473931
2900000000.0 -0.2691423693618652 0.09908517301280141
2920000000.0 0.18633533485342066 0.2257669017674919
2940000000.0 0.07540274195575833 -0.29399660587271453
2960000000.0 -0.3107363769901315 0.0129791146355832
2980000000.0 -0.1646388564205397 0.26516088709976154
3000000000.0 -0.28576420243840966 0.1265271918384902
3020000000.0 -0.2650912277377452 -0.1712826557282103
3040000000.0 -0.02179945158501242 -0.31219924229042206
3060000000.0 0.2850545603486052 0.10968548436590857
3080000000.0 -0.23826761430916152 -0.17284078541393544
3100000000.0 0.017377486584029597 0.2867086381956258
3120000000.0 0.0874848255239361 -0.2692182489783667
3140000000.0 0.08567029286264358 0.2622636108525647
3160000000.0 -0.1905190541801332 -0.18323619785497164
3180000000.0 0.07958931143571635 0.238671928995393
3200000000.0 -0.07054928223577721 0.22040575471047247
3220000000.0 -0.127884230827272 0.15741399822097532
3240000000.0 -0.16691955774217843 -0.02628948086829842
3260000000.0 0.06853618648838447 -0.11311179363386525
3280000000.0 0.03493807223977324 -0.09064416342797556
3300000000.0 0.009539704555874013 -0.07219829497575952
3320000000.0 0.019807638102479777 0.04361731323146939
3340000000.0 -0.014342894586622815 -0.027737241513981745
3360000000.0 0.0009701151924132775 -0.013344382852847732
3380000000.0 -0.001680023161720116 0.0031071265023616696
3400000000.0 -0.009536692439951273 0.015520308825518516
3420000000.0 -0.00818717241100421 0.03368685025544139
3440000000.0 -0.023528429222483563 0.040637763419229395
3460000000.0 0.05444022508929795 -0.016630984564145124
3480000000.0 0.0592569346712259 0.026539192146446105
3500000000.0 0.043062101841851746 0.07119505006720073
3520000000.0 -0.05831961686744932 0.07920230438206749
3540000000.0 -0.037306568073153315 -0.10660428927786969
3560000000.0 0.07524675102640027 -0.09782527193977546
3580000000.0 -0.1295372965194532 0.03688539128818138
3600000000.0 0.03838428087346903 -0.14426562340189644
3620000000.0 0.05388854507599301 0.1511627863866671
3640000000.0 -0.0948846719906208 0.14659547971775713
3660000000.0 -0.08797337210039313 -0.16010481593033432
3680000000.0 -0.031192806629853242 -0.18940447239093858
3700000000.0 -0.14627057629281082 -0.12865682430235906
3720000000.0 -0.11009475805926339 -0.15827573559638336
3740000000.0 0.08702112633933042 -0.1624067347326501
3760000000.0 -0.17759471439028993 0.026598791635981337
3780000000.0 0.17283070782845153 0.00017212828187722403
3800000000.0 -0.16488744741368003 -0.008900706601677527
3820000000.0 -0.0718089783068454 0.13877646257794948
3840000000.0 -0.13981440812406107 0.04524796809786032
3860000000.0 -0.045056837097517066 -0.14009436358482039
3880000000.0 0.04951454743919242 -0.14073896797820853
3900000000.0 0.1520622183580848 0.02189856422110474
3920000000.0 0.011559995862247345 -0.16303989310796527
3940000000.0 0.1683682690623058 0.031246477731460675
3960000000.0 0.17317900345076126 -0.03913864994460925
3980000000.0 0.043850110601078254 -0.16870715145562276
4000000000.0 -0.02088831096928698 -0.16558454834611924
