! Created with skrf (http://scikit-rf.org).
# Hz S RI R 50.0 
!freq ReS11 ImS11
400000000.0 -0.06399956640456254 0.8685019757310417
420000000.0 0.37557258006630295 0.7756810729846388
440000000.0 0.8189882086687214 -0.13468367425861136
460000000.0 0.2927388984010624 -0.7364120731795045
480000000.0 0.6534507111483853 -0.29258758901478554
500000000.0 -0.059102411578453924 -0.5687955287502601
520000000.0 -0.17652899870976202 -0.46018100704544385
540000000.0 0.33934891927359334 -0.2688798121632782
560000000.0 -0.3054827653423433 0.18715962342172468
580000000.0 0.023784176408251378 0.3397294276141737
600000000.0 0.2990432897432378 -0.15401649830302616
620000000.0 -0.32277335349549946 0.1538921072910962
640000000.0 0.14205252135825466 0.36107121068755377
660000000.0 0.4007041692460247 -0.012561113046744865
680000000.0 -0.0469770326513978 0.41692163278566935
700000000.0 0.2123664291435102 -0.3773311784561657
720000000.0 -0.24160248579156865 -0.3522572026243629
740000000.0 0.3934990166487184 0.14127142157782074
760000000.0 0.10322975352748896 -0.3893284558676864
780000000.0 0.08273619526677041 0.36279754536938263
800000000.0 0.15436997908456251 -0.3082275896789353
820000000.0 0.2840915796528644 -0.0757254617811655
840000000.0 -0.03781902889175118 -0.24547958174553428
860000000.0 0.16676423536724191 -0.13451408549755198
880000000.0 -0.07644498589826887 0.13947941059893498
900000000.0 -0.05616091802901316 0.07619943634184809
920000000.0 -0.04832434495138152 0.04034512200667262
940000000.0 0.019922904212915957 0.044733977468840856
960000000.0 0.03486598800875305 -0.04080394609765688
980000000.0 0.057956288502585426 0.04096922894632232
1000000000.0 0.031288897798582814 -0.07351413843152912
1020000000.0 0.035128073755746725 0.09148157988508065
1040000000.0 0.09363788931200209 0.05935621589794653
1060000000.0 -0.06536590110421758 0.1299396180273645
1080000000.0 -0.13912775369519534 -0.07810419799814473
1100000000.0 -0.09761987227705975 0.15219588642320328
1120000000.0 0.16031938615334662 0.12278278802511808
1140000000.0 0.19540640605510756 -0.12833368289489566
1160000000.0 0.2690830819234701 -0.03009175631853193
1180000000.0 0.24409055606691354 0.18685699153099455
1200000000.0 0.0012749261767565087 0.33959856278105954
1220000000.0 0.06687343056106303 -0.35981866190930417
1240000000.0 -0.17542933135847705 0.35301701300153804
1260000000.0 0.4142382963230463 -0.08826586968597168
1280000000.0 -0.44208537606123915 0.04260537952824385
1300000000.0 0.4182972300603341 0.18452455915214006
1320000000.0 -0.15542529997857435 -0.4254957407778235
1340000000.0 -0.36290001357330165 -0.25710332577488265
1360000000.0 -0.326244387053225 -0.2854430622028541
1380000000.0 -0.3769463638283072 -0.20461957944065473
1400000000.0 -0.3933393667663793 0.13243835907905188
1420000000.0 0.06263907117321071 0.39194429799159597
1440000000.0 0.32555428328930175 0.1801359202446446
1460000000.0 0.2201502870728437 -0.26393649487182247
1480000000.0 -0.13102471297957746 -0.2851252791371217
1500000000.0 -0.26052371775422384 -0.11147279768770459
1520000000.0 -0.2545957000498785 -0.028660463774723227
1540000000.0 0.22532866082247013 -0.04065401407627786
1560000000.0 -0.06662146031696306 0.18502641899708727
1580000000.0 -0.10886245887893722 -0.13420731248719728
1600000000.0 -0.07859200245755306 0.1230370201323914
1620000000.0 0.10942943777071817 0.04400331983736468
1640000000.0 0.09138829241224544 -0.02321686037208631
1660000000.0 -0.06337403656023378 -0.030117635595605777
1680000000.0 0.012366792975091183 0.04463237157400134
1700000000.0 -0.02190973254265075 0.018060793165031754
1720000000.0 0.013569415731481281 -0.0013842186039013755
1740000000.0 0.02012595039747225 0.004192255472866082
1760000000.0 0.03420348626486952 0.025355769684417606
1780000000.0 -0.06689987058621578 0.03502060731437257
1800000000.0 0.04329741817575855 -0.10484483157196794
1820000000.0 0.11960613890292218 -0.08352023620060472
1840000000.0 0.11871970107600952 0.13338122577703052
1860000000.0 -0.2054764398421093 -0.04205001831319453
1880000000.0 0.11029953389855202 0.21306569810420095
1900000000.0 0.21319486505221139 -0.1724223992846779
1920000000.0 -0.21936503967181395 -0.21173266357035872
1940000000.0 -0.3252222527624144 0.08847426807022572
1960000000.0 -0.023735897993144635 0.3668629845321567
1980000000.0 0.3887895921654932 -0.0570254944862118
2000000000.0 0.10083436932167977 -0.4028442637783883
2020000000.0 -0.43011781247368686 -0.01771640738818049
2040000000.0 -0.08779548758872827 0.42943695418415007
2060000000.0 0.4176024353732562 0.13435581060358615
2080000000.0 0.3275668051527727 -0.285393966801701
2100000000.0 0.13602569986713586 -0.40625525452987754
2120000000.0 -0.164920246702343 -0.3846345546188218
2140000000.0 -0.3696853392763285 -0.1730786403575287
2160000000.0 -0.1360126458009401 -0.3689705318040841
2180000000.0 -0.34669061412641045 -0.14475036031980967
2200000000.0 -0.33564379281389456 0.13056819544435888
2220000000.0 -0.21987598192033253 0.26754785408537685
2240000000.0 -0.13284120103747885 0.3134221144892651
2260000000.0 -0.05017793682441307 0.3368380862755363
2280000000.0 0.0487305526008135 0.3428405937358204
2300000000.0 0.3580655906353363 0.05927407982722194
2320000000.0 0.05572976533636856 -0.3850487275388621
2340000000.0 -0.3972442660833391 0.14424123962410665
2360000000.0 0.4623840744210989 0.0461704114612804
2380000000.0 -0.5107673767438407 0.00042510200550482664
2400000000.0 0.5600738872389702 0.018976106560629886
2420000000.0 -0.5686396817449674 0.2222581356023293
2440000000.0 0.3060878346266362 -0.5830980289867573
2460000000.0 0.10941589953439018 0.6895265088192163
2480000000.0 -0.44973682259542 -0.572094909826924
2500000000.0 0.46745044043317047 0.5835244130670307
2520000000.0 -0.3483516382842453 -0.6727598122921883
2540000000.0 -0.057024840469118605 0.7568087247700894
2560000000.0 0.529573023994457 -0.5354396893797976
2580000000.0 -0.7228083314552725 -0.15074044630080993
2600000000.0 0.3196611687808948 0.6387365452465037
2620000000.0 0.31604392487771815 -0.6061263899921139
2640000000.0 -0.058778590128051124 -0.643315835360953
2660000000.0 -0.46927463274052933 0.3760465999379154
2680000000.0 0.5171582532820796 0.19658857599986634
2700000000.0 -0.14100319144080495 -0.4854606249752048
2720000000.0 -0.3103989291763113 0.3363959395282167
2740000000.0 0.41604095588453255 0.005318128771289676
2760000000.0 -0.30065786243233544 -0.23287767447943106
2780000000.0 0.32425921788075446 0.13806778738681996
2800000000.0 -0.32512545278310956 0.05218384278500841
2820000000.0 0.04918432562375534 -0.3086333470631583
2840000000.0 0.29366173206034396 0.0655854802104525
2860000000.0 -0.1406266493217554 0.2608497944260284
2880000000.0 -0.1967310292639387 -0.21765476110556295
2900000000.0 0.24123066421088865 0.165689976645888
2920000000.0 0.007392872669935061 -0.2944369312347006
2940000000.0 -0.2967069461165036 0.0387871774962249
2960000000.0 -0.18459276922675802 0.23688584990757183
2980000000.0 -0.2863115405908047 0.1054000864780448
3000000000.0 -0.262710386414401 -0.16563261028845647
3020000000.0 0.019501461548196958 -0.3122017878515038
3040000000.0 0.26569904237039044 0.16105300335462003
3060000000.0 -0.28016126978243444 0.13201541519073093
3080000000.0 0.21093634632853636 -0.2225834430999183
3100000000.0 -0.004728424453722856 0.30043921865023165
3120000000.0 0.004183925469807675 -0.29055758205501797
3140000000.0 0.15016267374707107 0.23896843541288737
3160000000.0 -0.25955410184016914 -0.06805006847905687
3180000000.0 0.1523511371241806 0.19957205187463278
3200000000.0 -0.1526224835281627 0.16887510946457368
3220000000.0 -0.1862097532823525 -0.07465824826528566
3240000000.0 0.07688912652960292 -0.1506141976461493
3260000000.0 -0.05197336192796073 0.12418353118123489
3280000000.0 0.101635880796657 0.016222308157479798
3300000000.0 0.054253523232945425 -0.05282989557590499
3320000000.0 0.050838623544925174 7.706481330624033e-05
3340000000.0 0.025044109124762872 0.016415992093730535
3360000000.0 0.007852068017243802 -0.010925508320562046
3380000000.0 0.002066802562043533 0.004361597276273635
3400000000.0 0.015451461640858843 -0.011321557140553197
3420000000.0 -0.027501277223112294 0.021531949274977
3440000000.0 -0.03314260733433123 0.036436221788270245
3460000000.0 -0.05023564012236252 -0.028740407645759927
3480000000.0 -0.06524063928704227 0.019151091366042386
3500000000.0 -0.06625419327581625 0.04157350483212375
3520000000.0 -0.03933457658620962 0.0815727708999497
3540000000.0 0.09521602749498356 -0.04152277055663641
3560000000.0 -0.10987817580605272 -0.04367192130849691
3580000000.0 0.0752244233412363 0.11107408208365278
3600000000.0 -0.13393880534303895 0.07847710385493988
3620000000.0 -0.1494489884668337 0.08126028150378936
3640000000.0 -0.17468511629461217 0.05077460321806752
3660000000.0 -0.17513886426573544 0.07381333755539457
3680000000.0 -0.19073222643235557 0.025996666600477954
3700000000.0 -0.17910399961407153 -0.06581884419795722
3720000000.0 0.002303853343826966 -0.18804700173540326
3740000000.0 0.17121164535707667 -0.06555725856718728
3760000000.0 -0.17582608879750058 -0.02186367002030437
3780000000.0 0.14455951799425898 0.08858269756026879
3800000000.0 0.060449588871099746 -0.1498444697667832
3820000000.0 -0.09904203167438869 -0.11806375433462546
3840000000.0 0.036243745457131056 -0.14286549374634333
3860000000.0 0.11936454269727304 0.08696771135602087
3880000000.0 0.15262526192346876 0.016254889345110653
3900000000.0 0.007313594301935739 -0.15598860051641542
3920000000.0 -0.13750244743575493 0.084754871332547
3940000000.0 0.10170615958647208 -0.13082266473083742
3960000000.0 0.16785010409934026 0.03446467416384521
3980000000.0 0.10499809161886493 -0.13674890814972684
4000000000.0 0.053526633995841046 -0.15705831852511518
