! Created with skrf (http://scikit-rf.org).
# Hz S RI R 50.0 
!freq ReS11 ImS11
400000000.0 0.21074393215154572 0.8481088090716401
420000000.0 0.6539870732114497 0.5575235967568062
440000000.0 0.796710066337844 -0.21197706994759286
460000000.0 0.2153267109605458 -0.7564335189190108
480000000.0 0.6621035509578032 -0.22943611891136265
500000000.0 0.556796991633925 -0.08970823596375668
520000000.0 0.4090578224986167 -0.27805601161484
540000000.0 0.34393698724255795 0.2616496531698843
560000000.0 -0.2724980456246329 -0.23923395779818996
580000000.0 -0.27936237082345866 0.19802731188453795
600000000.0 0.3403900335954532 -0.02261041221829504
620000000.0 -0.3502020352181547 -0.0610061933627227
640000000.0 -0.31154282608688416 0.22619862969263196
660000000.0 -0.10735279539628545 0.3844581367616513
680000000.0 -0.3742533207138711 -0.2019684373339565
700000000.0 0.31402949455422063 0.3117818144089251
720000000.0 0.19064809214453332 -0.4029801464996631
740000000.0 0.43564602397319424 -0.05955209249271159
760000000.0 -0.41034663366178104 -0.08304896661735303
780000000.0 0.06848796103366556 -0.3781856180001058
800000000.0 0.16436712448556978 0.30620497616537296
820000000.0 0.19505715620630226 0.20739724147724944
840000000.0 0.1338816358292319 0.18490314351990833
860000000.0 -0.1291703424089402 0.14408296160659576
880000000.0 0.1139966819160706 0.06413771533531065
900000000.0 0.05605857506378026 -0.04574827587925826
920000000.0 0.03166279692843581 0.0262933536104135
940000000.0 0.00788320537149184 0.02381971511539209
960000000.0 -0.026528583260995046 -0.022134464005043212
980000000.0 0.012207479177378812 -0.04984766823483217
1000000000.0 -0.057221903916109325 0.004471247071513659
1020000000.0 0.02385874280623211 0.06989305180919225
1040000000.0 0.04523233446152324 0.07403264004254315
1060000000.0 -0.12731347123401093 0.00655466194402884
1080000000.0 0.14167394575346529 -0.04467267972634612
1100000000.0 -0.019897657759446238 -0.1785610022437179
1120000000.0 -0.06315739831849329 0.20026121850912637
1140000000.0 -0.07706211384193838 -0.23854974367739873
1160000000.0 -0.2740259647125325 0.09992232789879808
1180000000.0 -0.07336693113875081 0.3221500698387429
1200000000.0 -0.08719682202531093 0.3505641584447445
1220000000.0 -0.35053935101159617 -0.1627545997490838
1240000000.0 0.40697346386843675 -0.011582894875806358
1260000000.0 -0.41519790082118774 -0.10737188168175785
1280000000.0 0.36546524764553895 0.24527920026611666
1300000000.0 -0.05802903645758985 -0.43926394714822764
1320000000.0 -0.4332845072401456 0.02397947598969252
1340000000.0 -0.3325890114486678 -0.2606484894634748
1360000000.0 0.1467866590159016 -0.3874594637537392
1380000000.0 0.33085945419626267 -0.2510557584816694
1400000000.0 0.2266035800761777 -0.3368304158649658
1420000000.0 -0.12103876539750405 -0.3774865674577436
1440000000.0 -0.37208711872629485 -0.07364722024832718
1460000000.0 -0.037886061634984 0.35789601642113433
1480000000.0 0.2613923658153477 -0.21093791504307222
1500000000.0 -0.23742289347603465 0.19387896623981088
1520000000.0 0.2774896037777124 -0.016141602610086233
1540000000.0 0.2359342775688556 0.05940137850327986
1560000000.0 0.1897076372027443 0.06723860898011849
1580000000.0 0.07405700744067466 0.14715128066369798
1600000000.0 0.08454348865424922 -0.09840127713537603
1620000000.0 0.07815633411176078 0.04995564466819741
1640000000.0 -0.03347213519785523 -0.06223247035778759
1660000000.0 -0.04584908946912957 0.006400715450298196
1680000000.0 -0.02456108775691095 0.0011240884972452134
1700000000.0 -0.011164816206156634 -0.00267419240043912
1720000000.0 -0.007030911093102287 0.010469229712845533
1740000000.0 -0.02346209911884552 -0.01653304666500926
1760000000.0 0.03362485957400331 -0.02772905811356995
1780000000.0 0.0016344176761055314 -0.06984912528561135
1800000000.0 -0.021856004953723692 0.09583791209455036
1820000000.0 -0.1150372291485836 0.04305790282413701
1840000000.0 -0.0313008927024809 0.15399835856609767
1860000000.0 0.16406052803482762 0.09467351365215955
1880000000.0 0.18592311798411273 -0.1320320125760499
1900000000.0 -0.175167367532359 -0.20795274284120135
1920000000.0 0.13841393150620493 0.2795395295480054
1940000000.0 0.08621770344615066 -0.3399311529684824
1960000000.0 -0.26405768485976894 0.277285956168287
1980000000.0 0.3596324297932341 -0.1898417689965573
2000000000.0 -0.3306094263934451 -0.2662309595012479
2020000000.0 -0.08130031391549652 0.4279475652883768
2040000000.0 0.42618366633997934 0.10222840869205203
2060000000.0 0.2400754473777688 -0.36411505747465817
2080000000.0 -0.09422001184846374 -0.41662149869191656
2100000000.0 -0.10969343015474661 -0.40319176331477946
2120000000.0 -0.12790292476172738 -0.38754580546440476
2140000000.0 -0.16573988363550338 -0.3614512576941942
2160000000.0 0.2942481449659307 -0.2480928287860921
2180000000.0 0.17793300215469401 -0.3268390154386737
2200000000.0 0.04088304228345786 -0.3590963088448869
2220000000.0 -0.30079927252400507 -0.18552636660878635
2240000000.0 -0.2803430469002502 0.20644496485984534
2260000000.0 0.04658694538200543 0.3436758984139313
2280000000.0 0.270741215471399 0.219456665006658
2300000000.0 0.2810809799904811 -0.22667672760973473
2320000000.0 -0.14237790186215904 -0.3547867403786948
2340000000.0 -0.38591368393435327 0.14919266227966677
2360000000.0 0.37001105494254166 0.26371542894558503
2380000000.0 -0.30929445762261154 -0.39569689774349537
2400000000.0 0.30530467285639196 0.46308446578001494
2420000000.0 -0.4991831437344472 -0.3469203279642169
2440000000.0 0.6538069347656368 -0.0689271781722052
2460000000.0 -0.5053070160024113 0.48270292073723214
2480000000.0 0.26101445565656245 -0.6825114193142882
2500000000.0 -0.1991301301508973 0.724557286620143
2520000000.0 0.3342761447664636 -0.6858451594876371
2540000000.0 -0.6397313691465724 0.42076919076944913
2560000000.0 0.7554710126273046 0.0840605990121454
2580000000.0 -0.33044499096543417 -0.6676217679772987
2600000000.0 -0.28715977207099985 0.6608539364583934
2620000000.0 0.6727337160917446 -0.15231715635954324
2640000000.0 0.4504351218334548 -0.47196129123902664
2660000000.0 -0.6051678521726217 -0.056499858463759614
2680000000.0 0.35835711629182554 0.4318412293155613
2700000000.0 -0.026541854269232057 -0.5135367824301217
2720000000.0 -0.20985634430288305 0.4149504612933726
2740000000.0 0.3523137649169724 -0.23023732093613453
2760000000.0 -0.3737069021042962 0.0722986038806211
2780000000.0 0.32409171216201943 -0.13428805950060405
2800000000.0 -0.21739302417888767 0.24292438055110405
2820000000.0 -0.07915474495323925 -0.29890245402842064
2840000000.0 0.287196487706695 0.08072076419033536
2860000000.0 -0.17911252220441984 0.234896653770367
2880000000.0 -0.1343645987107938 -0.2627064258386392
2900000000.0 0.17600573460731386 0.2383168198987451
2920000000.0 0.06897859726662536 -0.2929360108072415
2940000000.0 -0.3059644373933866 0.025279974728780814
2960000000.0 -0.1187320248655056 0.28500373886586083
2980000000.0 -0.2209870571357142 0.21985042518917372
3000000000.0 -0.3061544116455965 -0.07346368859933272
3020000000.0 -0.0008291448624589263 -0.31773924931907527
3040000000.0 0.2893415225565216 0.12843704785299667
3060000000.0 -0.3106659202117187 0.048558492985160844
3080000000.0 0.2670876914176335 -0.15675699902531642
3100000000.0 -0.20744777826259583 0.22210254961576734
3120000000.0 0.03723629797390457 -0.29244465142094
3140000000.0 0.10477361191462896 0.2641124514851392
3160000000.0 -0.2171389255364866 -0.1576861960778372
3180000000.0 -0.06000130891786719 0.24196690129193077
3200000000.0 -0.15961653253855712 -0.16126089292978202
3220000000.0 0.18331455382910145 -0.07780635166370233
3240000000.0 -0.06149621056415374 0.15794962541316301
3260000000.0 0.08035157270119216 -0.1116362810623382
3280000000.0 -0.0757117445253893 0.07500381083234024
3300000000.0 0.0709960976045267 0.03436200969695947
3320000000.0 -0.036626533421626715 -0.03572990996249227
3340000000.0 0.00890671730246921 -0.025099013626350752
3360000000.0 -0.001467067642196016 -0.006080668149497353
3380000000.0 -0.01064123391499103 -0.003762759293269123
3400000000.0 -0.018592754732225568 0.017919982923059855
3420000000.0 -0.02525511963740819 -0.030122545710503112
3440000000.0 -0.005401662258610631 0.05009033296737857
3460000000.0 0.028939620438372313 0.048803869959168515
3480000000.0 -0.05871299639122556 -0.031794082334327074
3500000000.0 -0.07948630671665974 -0.012435136839336693
3520000000.0 -0.09164760719355779 -0.026797128033673807
3540000000.0 0.1104794627534666 0.01563041711563939
3560000000.0 -0.115993773855547 0.048306849025446644
3580000000.0 0.13218556367720685 -0.04235057973182581
3600000000.0 0.06351102538066652 0.14410063519266703
3620000000.0 0.012477291739074354 0.1689394194316943
3640000000.0 -0.16636189143661448 0.06687012969489159
3660000000.0 -0.18909611865504788 0.0022129856524246397
3680000000.0 -0.14180687008260381 -0.13181142856770692
3700000000.0 -0.08152672459703297 -0.17547205443322506
3720000000.0 0.09966220963285632 -0.16431400317606723
3740000000.0 0.15907798296106726 -0.09814724729996983
3760000000.0 -0.15046033739139456 0.0977758217835971
3780000000.0 0.15049627013968844 -0.07682849441746319
3800000000.0 0.007973366670865411 -0.15981626303612242
3820000000.0 -0.004588651260432254 -0.15319424395921447
3840000000.0 0.1274324050445794 -0.07599542436045723
3860000000.0 0.02453009081690594 0.1475620713698626
3880000000.0 0.11852095559559389 0.10160989453328542
3900000000.0 -0.009899855710461137 -0.15898253055786124
3920000000.0 -0.10366219744041284 0.12604561548872215
3940000000.0 0.05450540657975957 -0.1580347590110049
3960000000.0 0.1695148771644396 0.01347329700920349
3980000000.0 0.1503683730638742 -0.07990625903735622
4000000000.0 0.12277161616627755 -0.10888217223411818
