!Created with skrf (http://scikit-rf.org).
# Hz S RI R 50.0 
!freq ReS11 ImS11
400000000.0 0.8256741776587679 0.2631982796230236
420000000.0 0.7671185693226049 -0.3415797958827966
440000000.0 0.7778877030174658 -0.14680046134984578
460000000.0 0.7117081751527073 0.21874473560028757
480000000.0 0.058963160424535074 -0.6887811095115195
500000000.0 0.26686232520483893 0.5471673456951519
520000000.0 0.3314689105621983 -0.38703882092833175
540000000.0 -0.3743580922549216 0.2127221832913735
560000000.0 0.16099578075229268 0.34886926209142205
580000000.0 -0.23076891735629496 -0.26221391516548287
600000000.0 0.2984278897539698 0.1757852610466106
620000000.0 0.3251718507651107 -0.13335296539921285
640000000.0 0.3336615030067252 0.24778640835483115
660000000.0 -0.37864780722175867 0.2096287114635352
680000000.0 -0.002806315641414219 0.46776827181802283
700000000.0 -0.40134923135541317 -0.21969525417891445
720000000.0 0.1422025764320537 0.4238152752113669
740000000.0 -0.3738755728522191 0.1646305069340849
760000000.0 0.29699140151110864 -0.2662097821936332
780000000.0 0.24024294690231884 -0.304771779012938
800000000.0 -0.25115518667672404 0.2441201072627891
820000000.0 0.25953967550333096 -0.12946693654842523
840000000.0 0.20951480630603023 0.015464530826031763
860000000.0 -0.12729865619658717 0.09608853391737121
880000000.0 -0.13271912951365672 0.01190176695608718
900000000.0 -0.09299079709051934 0.0227120012442769
920000000.0 -0.028754148470516005 -0.04619853716837058
940000000.0 -0.012847806896123299 -0.033557581328367045
960000000.0 0.03589719712096025 0.009179684820339675
980000000.0 0.04120540764184537 0.051439630128770626
1000000000.0 -0.042771391040008516 0.09339445540768476
1020000000.0 0.12358364766850714 0.04380245609096245
1040000000.0 0.13194926958740708 -0.05154876364818398
1060000000.0 -0.16179174098287702 0.0011010882439750004
1080000000.0 0.1565665099959305 0.08288930616319835
1100000000.0 -0.06949087709553578 -0.1890578090582856
1120000000.0 0.16669182219485418 0.15509392553539533
1140000000.0 -0.23625931367735947 -0.09439116914922155
1160000000.0 -0.23545631183912916 0.15790730103648953
1180000000.0 -0.31172396391142815 0.010089527975842508
1200000000.0 0.3338880928181804 -0.07996857400609869
1220000000.0 -0.3094326290335576 0.2086905633492654
1240000000.0 0.34531536407403474 -0.1911995580486882
1260000000.0 -0.3230806732922643 -0.2488036029765077
1280000000.0 -0.3051781393071845 0.2951134233980245
1300000000.0 0.2779021405101707 0.3330419431682689
1320000000.0 0.4375157944024263 0.039977314252958716
1340000000.0 0.3416589281968344 -0.2831798601871999
1360000000.0 0.12102696027215214 -0.4240272209079413
1380000000.0 -0.2213686619500894 -0.36717739316021286
1400000000.0 -0.33103908703546286 -0.25537692362698505
1420000000.0 -0.25695815113408765 0.3085294969741664
1440000000.0 0.22159723818516 0.3061247734648036
1460000000.0 0.2849479991188315 -0.20696804036695163
1480000000.0 -0.2797692423233085 0.1601095377774137
1500000000.0 0.27873023862639723 0.054139310732767745
1520000000.0 0.16024606206660982 0.1883529920835058
1540000000.0 -0.003717851838492228 -0.21863771658612047
1560000000.0 0.05809710171480283 0.1805167196238081
1580000000.0 -0.11404791094220457 0.11800632519573649
1600000000.0 -0.0641553131201255 0.11522141275658623
1620000000.0 -0.0791523902277164 0.06640385055679186
1640000000.0 -0.08205117217003202 -0.007382824428716815
1660000000.0 -0.00026142988448861574 0.06688250480413581
1680000000.0 -0.0067118905263143834 0.04227857347046117
1700000000.0 -0.003108357733321613 -0.020891699801127872
1720000000.0 -0.0050957169969681314 0.0013430019805538377
1740000000.0 0.011486709413398051 -0.010492315299012312
1760000000.0 0.019063703758493273 -0.025040622202377655
1780000000.0 0.011720542469054055 -0.05059641475890923
1800000000.0 0.03412191432920341 0.08175704628673451
1820000000.0 0.12455793958533379 0.010259801618193575
1840000000.0 -0.13425004878898963 0.10325562389281094
1860000000.0 -0.1319400272474474 0.16118161524236455
1880000000.0 0.11666699332237754 -0.21753632312579088
1900000000.0 -0.029725788386919354 0.28704030267762254
1920000000.0 -0.16513894178296226 -0.27701585365254167
1940000000.0 -0.10344626218794364 0.3264713440055898
1960000000.0 0.1542918134186712 0.3306541792896893
1980000000.0 0.3795386320094155 0.11007230910754008
2000000000.0 -0.0751278996416973 -0.41089588546751615
2020000000.0 -0.4289405014384203 -0.026903499007820634
2040000000.0 -0.14686059980773042 0.41490807542707375
2060000000.0 0.41400189300544105 0.15561124117055494
2080000000.0 0.16485199405194953 -0.40453756933705454
2100000000.0 -0.2926645578599575 -0.3109013838393967
2120000000.0 -0.3962242119114735 -0.11171716669230077
2140000000.0 -0.37075182681028684 -0.13365537288035048
2160000000.0 0.36061075701005113 -0.12563787467275303
2180000000.0 0.24332814540408693 -0.28163346170775305
2200000000.0 -0.06105966227059942 -0.3571932618696151
2220000000.0 -0.3426729180741854 -0.09048368041133882
2240000000.0 -0.3116262135048272 0.15708368658820057
2260000000.0 -0.040788583494632366 0.3472306831654653
2280000000.0 0.3121699999118518 0.16096183082297189
2300000000.0 0.3363741590163613 -0.12693615269629865
2320000000.0 0.12118965182805361 -0.364892198527351
2340000000.0 -0.38182577474409785 -0.16595188327015062
2360000000.0 -0.030487973382738395 0.4566147365530797
2380000000.0 0.1132783334791742 -0.4969609196885454
2400000000.0 0.12156539959550382 0.5500282207981162
2420000000.0 -0.49701814027901864 -0.3627244390237414
2440000000.0 0.640679413800641 -0.168159569103706
2460000000.0 -0.3548491035369151 0.6053016265229494
2480000000.0 -0.10999220986472166 -0.7237119656733221
2500000000.0 0.20997740584957722 0.7213599592089832
2520000000.0 -0.08549208469611139 -0.757168400325508
2540000000.0 -0.22170310967439655 0.7311280588795278
2560000000.0 0.6308448959441828 -0.42167355456252004
2580000000.0 -0.6758265896566036 -0.3131631885871662
2600000000.0 0.20270963563857733 0.6921777819277392
2620000000.0 0.3700654557615322 -0.5862090611877206
2640000000.0 -0.0980051956508853 -0.6493813772909878
2660000000.0 -0.388401781862733 0.4745091228207908
2680000000.0 0.5610461208873744 -0.07612359692187864
2700000000.0 -0.4196133754682642 -0.3043654307423131
2720000000.0 0.3007237673152391 0.3619960905960548
2740000000.0 -0.06378294241442686 -0.4166519475326956
2760000000.0 -0.2959895307680787 0.24140906933907783
2780000000.0 0.3100031223628647 -0.16143625204880444
2800000000.0 -0.27384228411733913 0.1747019967382417
2820000000.0 0.22113171136168658 -0.2144444591588585
2840000000.0 0.17515842400818213 0.24520665088791843
2860000000.0 -0.2053567017813194 0.20987170135587435
2880000000.0 -0.12993526254535412 -0.2565910829130305
2900000000.0 -0.1121701910397882 0.2614522995768975
2920000000.0 0.2110427687864373 0.19928258634390159
2940000000.0 0.1880479017940552 -0.23665565085849494
2960000000.0 -0.2634376986946517 -0.16540520151190283
2980000000.0 -0.24677024186545243 0.19651509099527772
3000000000.0 -0.3158640428779356 0.02355767054471723
3020000000.0 -0.23208959251707426 -0.21892006321933624
3040000000.0 0.010663190649837409 -0.31625945922712134
3060000000.0 0.2947029446986132 0.094105067550418
3080000000.0 -0.2930224535114751 -0.05289184083062449
3100000000.0 0.17067040003769932 0.23276397763379625
3120000000.0 -0.02684728974659698 -0.28104434018110863
3140000000.0 0.019197660462764388 0.2736363655801712
3160000000.0 -0.0693925358088998 -0.25434049838537964
3180000000.0 -0.11371933632344716 0.2243177431765924
3200000000.0 -0.2311966442051682 0.01182126575302007
3220000000.0 -0.20008030606566488 -0.04252568778569604
3240000000.0 -0.07528452805910966 -0.1557359399927179
3260000000.0 0.006432016233168457 -0.13674380913348808
3280000000.0 -0.039538932900545234 0.09087288826279033
3300000000.0 0.035490698612741116 0.05989250007868569
3320000000.0 0.02989101036185696 -0.02754610735342798
3340000000.0 -0.0016260638259269614 0.02385463752241153
3360000000.0 0.004805228301868428 -0.010691151682177397
3380000000.0 0.00012435927454207884 -0.0028770237464106796
3400000000.0 -0.014138858280506067 -0.0021097115273706513
3420000000.0 -0.0057151817564975674 0.03233554520005201
3440000000.0 0.019381287965421445 0.04405766320200129
3460000000.0 -0.05766811385500821 0.021741405646739455
3480000000.0 0.07029987633779138 0.012613628855269107
3500000000.0 0.03369371866633296 -0.07953991394210322
3520000000.0 0.10009212581906127 0.007970898803220125
3540000000.0 -0.10971010126759563 0.025089661902095658
3560000000.0 0.061825363967128275 -0.1042391000704701
3580000000.0 -0.10657479297166067 -0.07877417164038
3600000000.0 0.144180572880916 0.03524650829010781
3620000000.0 -0.116533902034189 0.11461323912023645
3640000000.0 -0.14562984591657113 0.10592512905831322
3660000000.0 -0.18659671186209995 -0.02456814250217542
3680000000.0 -0.19380287823816886 0.02175398755518402
3700000000.0 -0.1387906974589841 0.13577061936785292
3720000000.0 -0.18988657648269935 0.01049837569315037
3740000000.0 0.04276648603310463 -0.1757703361864168
3760000000.0 -0.14395068461139143 -0.10410789317228847
3780000000.0 0.03837664115123087 0.1697803940652492
3800000000.0 -0.11290803380659718 -0.1266821758818389
3820000000.0 -0.00010665349029021875 0.161531069187308
3840000000.0 0.02832717135715531 0.14696687558279178
3860000000.0 -0.13191863109547194 0.06098776079217977
3880000000.0 0.05403247569245266 -0.13461741377583414
3900000000.0 0.055657191289673044 0.13974411212238055
3920000000.0 0.159621489168445 -0.030898144749514446
3940000000.0 0.03168864380409572 0.17023080311270464
3960000000.0 0.17225419730786481 0.05234834481425222
3980000000.0 0.0029360085754956285 -0.1772846276629589
4000000000.0 -0.13312032064590315 -0.09991868360568558
