!Created with skrf (http://scikit-rf.org).
# Hz S RI R 50.0 
!freq ReS11 ImS11
400000000.0 0.7980513675956977 0.3277242535065486
420000000.0 0.761214375875416 -0.3488347312132749
440000000.0 0.7658361077396721 -0.19441719282934525
460000000.0 0.7279302147048958 0.15205563256273003
480000000.0 0.03471889106115 -0.6902737535067809
500000000.0 0.29455993811495096 0.5324328763154403
520000000.0 0.33123068493374613 -0.3869856918418281
540000000.0 -0.3728151948259512 0.21489718250192674
560000000.0 0.17199071161235244 0.3435282898073979
580000000.0 -0.24102883695747848 -0.2528840798822699
600000000.0 0.30252907754809566 0.17105975684509858
620000000.0 0.31353100877933626 -0.16232795624593194
640000000.0 0.3436247915037354 0.23827344117871965
660000000.0 -0.4092173179123624 0.1474629547840486
680000000.0 -0.07637648951306268 0.46278551169085275
700000000.0 -0.3020462723025989 -0.3438337437371373
720000000.0 0.014244178305131751 0.4467969508451607
740000000.0 -0.39900757506984896 0.08798221945126346
760000000.0 0.30295030646975035 -0.25843406703797267
780000000.0 0.2453072704692396 -0.29918094596109235
800000000.0 -0.2262839627541682 0.2656817130516333
820000000.0 0.21423310875544735 -0.19399387473958504
840000000.0 0.20602713532534728 -0.03688236105818007
860000000.0 -0.09973030902772084 0.12449600817686136
880000000.0 -0.1158690944653955 0.06747485631750785
900000000.0 -0.04944759583518135 0.08284624447512987
920000000.0 -0.052806804548332024 0.017232035380439197
940000000.0 -0.027470707217010674 -0.02509243126386992
960000000.0 -0.022648127606206967 0.030308544368454336
980000000.0 -0.0354623577313743 0.05521223108930272
1000000000.0 -0.0759337953613051 0.06762342286334648
1020000000.0 0.1272400772348543 0.028833369481254065
1040000000.0 0.10848900265983935 -0.09021668938493402
1060000000.0 -0.14188317080927598 0.07688380780254109
1080000000.0 0.17672523029595208 0.011851558609918426
1100000000.0 -0.11369006831501599 -0.1669203121303476
1120000000.0 0.18585865200375587 0.1339799232243121
1140000000.0 -0.23428441287102592 -0.10205381930839921
1160000000.0 -0.22526593650828 0.175343906391173
1180000000.0 -0.3101079019036406 -0.04154267412716397
1200000000.0 0.3421990659447595 -0.039393480874179376
1220000000.0 -0.3373683698189737 0.16022898672534702
1240000000.0 0.37117377903028786 -0.1355935833156618
1260000000.0 -0.29483580349282773 -0.28252406644023254
1280000000.0 -0.33340856055104573 0.2641819987525672
1300000000.0 0.2880872141114854 0.32443145133406726
1320000000.0 0.437459791159961 0.04080586436650025
1340000000.0 0.343652240529542 -0.27999570407885443
1360000000.0 0.13279405437532438 -0.41999870877490386
1380000000.0 -0.21313874045072426 -0.3717363347096402
1400000000.0 -0.3386873290407963 -0.24483326068431482
1420000000.0 -0.24541790523224116 0.3176975403628609
1440000000.0 0.23658236160174084 0.29448795037287545
1460000000.0 0.26349474680697876 -0.23395397319598563
1480000000.0 -0.23566616649497496 0.21994986392303253
1500000000.0 0.28388390596930685 0.017158654135533566
1520000000.0 0.17635580439600754 0.1736488401057354
1540000000.0 -0.004903344039762683 -0.21842798946202033
1560000000.0 0.013851501449681324 0.190053573729485
1580000000.0 -0.12144815018656721 0.11095194117327367
1600000000.0 -0.09383505229511972 0.0933474744521681
1620000000.0 -0.08701713618768268 0.05622529615395421
1640000000.0 -0.07901844793104393 -0.02325490207533343
1660000000.0 0.0007401319637542443 0.06624734792617686
1680000000.0 -0.020079140472560018 0.037607980191476285
1700000000.0 -0.019807605721854818 0.006458723686664986
1720000000.0 0.003760436026220312 0.002963487643290665
1740000000.0 0.005378127583367861 0.014490732699961865
1760000000.0 0.02154447176091221 -0.021920067880653243
1780000000.0 0.03438986066271804 -0.03845214492200337
1800000000.0 0.023624868267724457 0.08432409181797389
1820000000.0 0.12408645930409405 0.01398602482009491
1840000000.0 -0.12924348505320396 0.10960229753137683
1860000000.0 -0.13194685080087817 0.16118731902036532
1880000000.0 0.13579409555111718 -0.20582771337444844
1900000000.0 -0.03882905369927048 0.2861283364003423
1920000000.0 -0.17077765683056637 -0.27351721562213704
1940000000.0 -0.09991968901297395 0.3275226193873444
1960000000.0 0.14900105373403386 0.33290116238601236
1980000000.0 0.3737962264186424 0.12934277218956367
2000000000.0 -0.03580398093256199 -0.41637630662434183
2020000000.0 -0.4293546950891863 -0.02500954811323247
2040000000.0 -0.16748243225984963 0.40750574267915607
2060000000.0 0.4050576434443151 0.17767970943026384
2080000000.0 0.19307940824004902 -0.39152437257094325
2100000000.0 -0.2880966854067199 -0.314398610088473
2120000000.0 -0.3965355191618117 -0.11037373539132833
2140000000.0 -0.37681741260465 -0.11351547847167341
2160000000.0 0.35434134607200746 -0.14152692510983322
2180000000.0 0.23511571996902247 -0.2888854326964508
2200000000.0 -0.07717054399083978 -0.35417794578763406
2220000000.0 -0.3371627854587007 -0.10906670955080851
2240000000.0 -0.3137460385780383 0.15281886573221443
2260000000.0 -0.014127297159889802 0.3493008719973683
2280000000.0 0.31513975403673544 0.15409563614388438
2300000000.0 0.32758407163839987 -0.14890359310508133
2320000000.0 0.10968900904988552 -0.36865767064307275
2340000000.0 -0.3812110829819111 -0.1667060695704857
2360000000.0 -0.04094766928954157 0.45531203731227765
2380000000.0 0.11928764289485909 -0.49558450052076797
2400000000.0 0.08558072023007716 0.5566718627761474
2420000000.0 -0.48247800721472306 -0.38207720650044813
2440000000.0 0.6480947110692898 -0.13797573679825947
2460000000.0 -0.4240819791738253 0.5599534822599761
2480000000.0 -0.01973365152264487 -0.7325859309995004
2500000000.0 0.10101751416371031 0.7446933530043226
2520000000.0 0.08490908445590707 -0.757732510815379
2540000000.0 -0.32161975523165315 0.6931797726581185
2560000000.0 0.6766651991717202 -0.34261903977367597
2580000000.0 -0.6649545704285306 -0.3344485864825971
2600000000.0 0.18516206336839422 0.6967859464562491
2620000000.0 0.3883480639778055 -0.5733643855177901
2640000000.0 -0.05894906712717395 -0.6536461220561214
2660000000.0 -0.3818982229062683 0.47943147399623
2680000000.0 0.5570594744439198 -0.10296310666964803
2700000000.0 -0.44235019287757754 -0.2706153244022032
2720000000.0 0.32945456891519415 0.3363604335519833
2740000000.0 -0.09425162473824408 -0.4108323035756913
2760000000.0 -0.2810547514466587 0.25911386860051233
2780000000.0 0.30919670015332135 -0.16408217442019984
2800000000.0 -0.2771015310557558 0.17050733646961677
2820000000.0 0.2252307044380767 -0.211134883066825
2840000000.0 0.1440668661337781 0.265983066967182
2860000000.0 -0.21865352654088027 0.1968874038411005
2880000000.0 -0.10077284950614009 -0.26961480440025676
2900000000.0 -0.14606780769372224 0.2448770423681313
2920000000.0 0.2072430574486399 0.20355498823094745
2940000000.0 0.21418741400832375 -0.21351909228108226
2960000000.0 -0.2688698432682528 -0.1568904325410736
2980000000.0 -0.27377246631822616 0.1563860300239125
3000000000.0 -0.3091159526993513 0.06988269459292025
3020000000.0 -0.2448059883263194 -0.2048067484537795
3040000000.0 -0.013084815353538223 -0.3163500116385822
3060000000.0 0.27587303234646676 0.13957207007442518
3080000000.0 -0.2867517868131659 -0.07921109424622333
3100000000.0 0.16246202478608784 0.23802022734347444
3120000000.0 -0.029993271568656197 -0.28097280143222725
3140000000.0 0.02847250136849445 0.2731952761708547
3160000000.0 -0.07572036001305066 -0.2524606022090675
3180000000.0 -0.09571645733832503 0.23222456174543882
3200000000.0 -0.2301734025176325 0.024861359836474903
3220000000.0 -0.20381971346417221 -0.021895103256411336
3240000000.0 -0.08033821409773592 -0.15301665556453234
3260000000.0 0.008901664731166112 -0.13687423713269845
3280000000.0 -0.06459867179355522 0.07593226370605141
3300000000.0 0.03981262286493772 0.05795795734154779
3320000000.0 0.016025216277933723 -0.037677337282159724
3340000000.0 -0.0049895443831117796 0.023368575687287268
3360000000.0 0.003351698418905492 0.011650596491270903
3380000000.0 0.00107075614110848 0.002233321232508255
3400000000.0 0.007963903164255534 -0.011833753020206643
3420000000.0 -0.013077040617256579 0.030241391918049264
3440000000.0 -0.00860521478674032 0.04733547123472627
3460000000.0 -0.05738085629535089 0.02264668947593408
3480000000.0 0.07087379402328534 0.005586925748730014
3500000000.0 0.06837795300093596 -0.05345215070512579
3520000000.0 0.08006658869597322 0.059273869617930484
3540000000.0 -0.07864073753124501 -0.07911140824646923
3560000000.0 0.11285619676465675 -0.042105431106136494
3580000000.0 -0.06232865521738216 -0.11714771019644915
3600000000.0 0.14271983272180394 0.039929719913915696
3620000000.0 -0.14387379796171795 0.07605280136985466
3640000000.0 -0.16395068013098 0.07150012681497032
3660000000.0 -0.17473831244473656 -0.06787045647078577
3680000000.0 -0.19187456334597494 -0.029035712771264256
3700000000.0 -0.17519604402498942 0.0810112674371103
3720000000.0 -0.18492556786199355 -0.0357170194875132
3740000000.0 0.05865972668811546 -0.16967431215774562
3760000000.0 -0.1110589851200344 -0.1371362627012215
3780000000.0 0.026978032053296176 0.17088182957939282
3800000000.0 -0.09542993792457324 -0.13851258158428545
3820000000.0 -0.011468650576235629 0.15948129745586498
3840000000.0 0.010333541454294565 0.1484985897758765
3860000000.0 -0.12816815413588098 0.06700515211740055
3880000000.0 0.016915825650380845 -0.14357353894424182
3900000000.0 0.07637694575338688 0.1293104618591787
3920000000.0 0.1530083283491754 -0.05337326754946478
3940000000.0 0.07474375914450555 0.15640778504319114
3960000000.0 0.17673688276428987 0.03809633186485268
3980000000.0 0.031367082962725445 -0.17522100119590744
4000000000.0 -0.10640832482458523 -0.12953830106952094
