!Created with skrf (http://scikit-rf.org).
# Hz S RI R 50.0 
!freq ReS11 ImS11
400000000.0 0.8255574258943827 0.2636045312059962
420000000.0 0.7754334514980444 -0.32207704153102357
440000000.0 0.7751144172338619 -0.1605088074424676
460000000.0 0.7097318951394167 0.22475031464929487
480000000.0 0.0658585294555053 -0.687877750047219
500000000.0 0.2971190179538156 0.5309684823057556
520000000.0 0.31967586359011185 -0.39710852775722505
540000000.0 -0.3734063631287913 0.21458991770000893
560000000.0 0.17191013145901177 0.34357012830920186
580000000.0 -0.28974889640352613 -0.19487337190138898
600000000.0 0.3064705380943784 0.16286890389390526
620000000.0 0.3180055891634504 -0.15033761039939117
640000000.0 0.31535333171707874 0.26973272843979434
660000000.0 -0.36434104143692414 0.23119249829836136
680000000.0 -0.010153252602893362 0.4671814585593875
700000000.0 -0.40423189961565364 -0.21345832272227383
720000000.0 0.17378911281864506 0.41101584159797916
740000000.0 -0.3487885809348279 0.21176886827485475
760000000.0 0.29441407516792306 -0.2700855391689749
780000000.0 0.28656221566028106 -0.26357758623680416
800000000.0 -0.2851005478619103 0.20413636344470248
820000000.0 0.27361867249589455 -0.09535347469545982
840000000.0 0.2056674887291996 0.0381148655155053
860000000.0 -0.14272578841903125 0.0692956808901591
880000000.0 -0.12999654699062269 0.02433828607893347
900000000.0 -0.07985750185202417 0.0523050598781856
920000000.0 -0.0534588199249115 -0.01164263160814178
940000000.0 -0.02005283097529128 -0.030225918966209554
960000000.0 0.02049523347754727 0.031125347838235208
980000000.0 0.03457810048468241 0.05562948221946455
1000000000.0 -0.04795019425340966 0.08978114461640958
1020000000.0 0.12691111782460437 0.032401871986426245
1040000000.0 0.1240547289965467 -0.06889256234419629
1060000000.0 -0.16128641797990878 -0.016890854978973233
1080000000.0 0.14489107130848175 0.10219007281320341
1100000000.0 -0.04743258005950119 -0.19573990071396194
1120000000.0 0.18686755232531352 0.12998451817580509
1140000000.0 -0.2336497112482275 -0.10042862937524541
1160000000.0 -0.23100002934697972 0.16455400225159209
1180000000.0 -0.3124693406819402 -0.0014517409190782332
1200000000.0 0.3357596136914726 -0.07234735757255016
1220000000.0 -0.3249990439562049 0.18313417635196744
1240000000.0 0.3459362463604352 -0.19039623606653502
1260000000.0 -0.32490182076417523 -0.24685997370815516
1280000000.0 -0.3211545515215144 0.2778971825700766
1300000000.0 0.2619325477597811 0.3458129675389756
1320000000.0 0.43685304660725516 0.04760093253008113
1340000000.0 0.3438551469304702 -0.2806464032955964
1360000000.0 0.13075312919158727 -0.4214017613087576
1380000000.0 -0.19605983734764118 -0.3812903033304401
1400000000.0 -0.3333677402499852 -0.2515735430684904
1420000000.0 -0.2385973160187484 0.3222519491665992
1440000000.0 0.24437848766428608 0.28829879095616195
1460000000.0 0.2754149681196824 -0.21966388890337585
1480000000.0 -0.276490978617373 0.16637974136514017
1500000000.0 0.2788836245509282 0.054393274058964894
1520000000.0 0.18218889120485499 0.16722008021741105
1540000000.0 -0.021769355695681926 -0.2171385444334631
1560000000.0 0.038831979783480304 0.1859324811266603
1580000000.0 -0.11337251991306167 0.11859162636438862
1600000000.0 -0.09327212135101828 0.09317205132009929
1620000000.0 -0.09437418320983453 0.04232692827051877
1640000000.0 -0.07886043619912468 -0.0240285638013863
1660000000.0 -0.007164427978649809 0.06656628250699846
1680000000.0 -0.014422140263023402 0.040183166398938916
1700000000.0 0.0006108188446116034 -0.020732882533044377
1720000000.0 -0.005027813348244119 0.0011584503166698792
1740000000.0 -3.39426537045226e-05 0.015392313841300395
1760000000.0 0.031129078609377265 -0.004745256631329477
1780000000.0 0.02714133613434787 -0.04424163688613954
1800000000.0 0.021511122225518448 0.0858833373735125
1820000000.0 0.1234851124776087 0.01696515691107769
1840000000.0 -0.136533574459247 0.09995560776474785
1860000000.0 -0.1346186659596154 0.1586785042320343
1880000000.0 0.1345078820599176 -0.20655441587447249
1900000000.0 -0.03247415169597382 0.28667283938569765
1920000000.0 -0.17219811521384368 -0.2725792942235822
1940000000.0 -0.10522653700277998 0.32591027172356035
1960000000.0 0.16259812143073507 0.3264674916346449
1980000000.0 0.38074215774344333 0.10580160141459148
2000000000.0 -0.08791788155384882 -0.40837741405852057
2020000000.0 -0.42981642665428577 -0.007792078927682926
2040000000.0 -0.14663518552490712 0.4152558136163594
2060000000.0 0.4114176640448056 0.16304237419369513
2080000000.0 0.1658886231565809 -0.40438823987999256
2100000000.0 -0.29344589101633084 -0.31067335871647833
2120000000.0 -0.4002079285552912 -0.09753851318483239
2140000000.0 -0.3735846365063632 -0.1254851657520932
2160000000.0 0.3586117188267349 -0.13071717844894
2180000000.0 0.24181367431646802 -0.2829106063770445
2200000000.0 -0.056554551319254937 -0.35802511026770867
2220000000.0 -0.3255133092482495 -0.1414601631939763
2240000000.0 -0.3319497523495631 0.10900084465517876
2260000000.0 -0.05522563938318148 0.345075657057955
2280000000.0 0.30819406468390115 0.1681237302098501
2300000000.0 0.3363098606064702 -0.1278620594511146
2320000000.0 0.12710949333588972 -0.36241767365431926
2340000000.0 -0.38867368270413033 -0.14959738017276447
2360000000.0 -0.02197523246108013 0.4571359873157315
2380000000.0 0.13065519391098127 -0.4924316003027495
2400000000.0 0.13823146794380683 0.5463627227577774
2420000000.0 -0.5078060864737489 -0.3475331363791705
2440000000.0 0.6361025721516892 -0.1848956897036704
2460000000.0 -0.3835309982954957 0.5880450908250944
2480000000.0 -0.10116002884704015 -0.7256047726925609
2500000000.0 0.19095794029285687 0.7267121427007323
2520000000.0 -0.06706611528501207 -0.7591856179517423
2540000000.0 -0.17942726729258307 0.7427181475137724
2560000000.0 0.6338847710220675 -0.4174992993801676
2580000000.0 -0.6840850110534226 -0.29475428649498797
2600000000.0 0.215946956432739 0.688121790485858
2620000000.0 0.42511216532394946 -0.5478267785289959
2640000000.0 -0.04078914685114033 -0.6553082722860243
2660000000.0 -0.3988091266329784 0.4656820072017509
2680000000.0 0.5612987552453609 -0.07313121252994244
2700000000.0 -0.40927731565642816 -0.31772436880998867
2720000000.0 0.2757322697430092 0.3812019433095268
2740000000.0 -0.045682721518375234 -0.41881458210411776
2760000000.0 -0.29656291105744653 0.2404528445052547
2780000000.0 0.30830535119419616 -0.16398039204234988
2800000000.0 -0.26935896103546514 0.18136136881031026
2820000000.0 0.22375504317995654 -0.2115265339620627
2840000000.0 0.17056057968308938 0.24808096930285836
2860000000.0 -0.2015131845182192 0.2133296104307303
2880000000.0 -0.14256933470663616 -0.24970461792467782
2900000000.0 -0.10455599168170793 0.26472162873292066
2920000000.0 0.21865736479916603 0.1909272955844083
2940000000.0 0.176691156299236 -0.24553244410196878
2960000000.0 -0.26094089993052344 -0.17014951341436382
2980000000.0 -0.24981708874745284 0.1930861226832045
3000000000.0 -0.31582667879080123 0.032200331106097484
3020000000.0 -0.1993183037399246 -0.24934883675573058
3040000000.0 0.0002356180240977809 -0.3167901267079476
3060000000.0 0.2855931273592447 0.11857782407308738
3080000000.0 -0.28623377166559555 -0.08226469081706385
3100000000.0 0.15917179553923524 0.24060197643023695
3120000000.0 -0.03632556598487819 -0.2801242304889961
3140000000.0 -0.0027594293770616648 0.27453571993254827
3160000000.0 -0.03326530897564027 -0.26157781896215326
3180000000.0 -0.14168904137041416 0.2074331803592273
3200000000.0 -0.23087026326592416 -0.006977457112580519
3220000000.0 -0.19987820805057793 -0.043113037676792504
3240000000.0 -0.07154635136538506 -0.1568624172704523
3260000000.0 0.005027754478896219 -0.13641860462023886
3280000000.0 -0.07106132003324941 0.0688354104551152
3300000000.0 0.0379890135218863 0.05794372684148813
3320000000.0 0.021979241039938684 -0.033803648650934985
3340000000.0 -0.0027320562638427494 0.023449769999632004
3360000000.0 -0.0070910946291973635 0.009118064393292834
3380000000.0 -0.0007102366569628168 -0.002738715604818403
3400000000.0 -0.006507110349222836 0.013052541401031114
3420000000.0 0.010986687826687299 0.03126369376698151
3440000000.0 -0.006542689128930638 0.048256793880534776
3460000000.0 -0.062001997758470366 0.00039096801264150774
3480000000.0 0.06454084523251745 0.03107285701745802
3500000000.0 0.051389179833849656 -0.06988750337533291
3520000000.0 0.0986983925348418 0.01984946170699297
3540000000.0 -0.11221553964355853 0.00925904366405603
3560000000.0 0.08367098023576315 -0.0877969964945656
3580000000.0 -0.09505132887211669 -0.09255918432943562
3600000000.0 0.13264038896100613 0.06650387165359342
3620000000.0 -0.13608816737534535 0.09142952711047601
3640000000.0 -0.16323881877300248 0.0762767558404571
3660000000.0 -0.1801071725276548 -0.053019461071938064
3680000000.0 -0.19408483663963957 0.012377252454008895
3700000000.0 -0.14180086737675793 0.1321920303451789
3720000000.0 -0.1906780631725115 0.0036416075683932676
3740000000.0 0.05855580426534992 -0.17114923428403753
3760000000.0 -0.13558132848949828 -0.11432676488567996
3780000000.0 0.03874520309678558 0.16945523029334045
3800000000.0 -0.11615988519365199 -0.12344499599542458
3820000000.0 -0.00791404771311663 0.1613690620945785
3840000000.0 0.015878704005671946 0.14852516126491178
3860000000.0 -0.14047356800599103 0.036620110381129445
3880000000.0 0.06300061388821304 -0.13038534510938843
3900000000.0 0.05755307217260321 0.13857773173859386
3920000000.0 0.15723375586891622 -0.03952220987966967
3940000000.0 0.019684361580157444 0.1718188761572057
3960000000.0 0.17022873915832276 0.05801951287004001
3980000000.0 -0.01961666754286267 -0.17595685187799318
4000000000.0 -0.14301979253230754 -0.08521805659724253
