!Created with skrf (http://scikit-rf.org).
# Hz S RI R 50.0 
!freq ReS11 ImS11
400000000.0 0.5603707073288552 0.6655738252505691
420000000.0 0.8232747503705437 -0.18213234111682328
440000000.0 0.7466426846913911 -0.27398189687349894
460000000.0 0.6935187544905982 0.26198293854522553
480000000.0 0.020756627699357606 -0.6844875693095235
500000000.0 -0.07152748910970265 0.5987698946931009
520000000.0 0.08695026918263785 0.5027040164302183
540000000.0 -0.288090782864817 -0.3284288299293055
560000000.0 0.01664146403817332 0.3977313597093215
580000000.0 -0.3377347446039981 -0.12203741279710809
600000000.0 0.34387797077974835 0.06835317763420744
620000000.0 0.15085816627241452 -0.31963785900740554
640000000.0 0.36727467536316816 0.19327362730266082
660000000.0 0.26526263243389836 0.32705711559849066
680000000.0 -0.445312406748649 -0.06325378556018481
700000000.0 0.4541294625671162 0.05813443561168058
720000000.0 -0.2825577362927186 0.36107879292539635
740000000.0 -0.3161073158780432 0.2775933315954517
760000000.0 -0.13461890095834256 -0.3816171816278964
780000000.0 -0.36932167159652296 -0.08467486455511732
800000000.0 -0.31728738077197727 -0.11095632025005109
820000000.0 -0.15591320062066466 0.23454026549855314
840000000.0 -0.05571460266984531 -0.2060467925619099
860000000.0 -0.16861234015098575 -0.05471829998062349
880000000.0 -0.045430609098989196 0.1399619835461797
900000000.0 -0.09797528149568709 -0.002791997509358124
920000000.0 -0.047600287380380635 -0.027321081055592146
940000000.0 -0.03343647803862866 -0.007126904411207173
960000000.0 -0.0013995548508870237 0.03782076066176947
980000000.0 0.05352271769369816 0.025298193612511025
1000000000.0 -0.036645377464307224 -0.08842611487843671
1020000000.0 0.05130946074774122 -0.10690983126353729
1040000000.0 -0.1287202827078598 0.029768169830362796
1060000000.0 0.10963349291593416 0.11447621336944852
1080000000.0 -0.1595502560232626 0.09075813165371868
1100000000.0 0.08773353945264811 -0.18719087553932193
1120000000.0 0.22342637264741286 0.04757808191763402
1140000000.0 -0.25074013701899783 0.03130200379765644
1160000000.0 -0.23954078238609722 -0.14279005343434092
1180000000.0 0.024098951528016777 -0.30905790498683533
1200000000.0 0.2863535729502486 0.1963791555892197
1220000000.0 -0.323330277143616 -0.19329122733002058
1240000000.0 0.3645602852228186 -0.16120696707923435
1260000000.0 -0.40833464580587714 0.01969967139897145
1280000000.0 -0.3298587571075398 0.2638733960336118
1300000000.0 0.39446006781427806 0.16691541624289755
1320000000.0 0.4121227834791071 0.11778693304788032
1340000000.0 0.0423412915829742 0.4344965984485112
1360000000.0 0.35535344788940887 0.2707472060070337
1380000000.0 0.01560504088683326 -0.4394884977873704
1400000000.0 -0.29515002755360387 -0.3115109299897063
1420000000.0 0.1742440807402653 0.36792326161651767
1440000000.0 0.2576198930929475 -0.2728103837717452
1460000000.0 0.23583451036711428 -0.24826305415954408
1480000000.0 -0.16640402009252458 -0.267067933935232
1500000000.0 -0.136270095147115 0.2492855681417651
1520000000.0 -0.18709301211692772 0.1691429881939179
1540000000.0 0.09690530795439128 0.20232472647567254
1560000000.0 -0.1330920735550398 0.14212265521846318
1580000000.0 -0.17210742381813854 0.018949836175327854
1600000000.0 -0.02118310358197846 0.13718326820499574
1620000000.0 0.07117654229595352 -0.07255903075461365
1640000000.0 -0.07199984042334498 0.02888339915985093
1660000000.0 0.04483402057768364 0.044132140221982245
1680000000.0 0.03686246585330495 0.01978630673212257
1700000000.0 -0.021154823404287145 0.004614602608267606
1720000000.0 -0.006363450021724383 -0.0057631060245481695
1740000000.0 0.010601338374739207 0.003950283404426493
1760000000.0 0.027124845773631362 -0.0004022054465559975
1780000000.0 0.05163923968638415 -0.008882014034724337
1800000000.0 0.055581068985809064 0.07584634517171564
1820000000.0 0.059631318926382244 -0.10967264805659115
1840000000.0 -0.0453430660040959 0.15506321561014935
1860000000.0 -0.08821358449357981 0.18005599789247775
1880000000.0 0.19170261969266342 0.1421577280206727
1900000000.0 0.004085352541435045 -0.2806695141372114
1920000000.0 0.25966918394031036 -0.1898290657095557
1940000000.0 -0.3281357347344532 -0.1031660896391419
1960000000.0 -0.3270495261138715 0.16856073650460937
1980000000.0 0.39740516050164865 -0.021118893343616225
2000000000.0 -0.03626422149849976 -0.4152156451106837
2020000000.0 -0.28280265421093664 -0.31823053412549035
2040000000.0 -0.10466437768742701 0.4204194598418702
2060000000.0 0.11502413187856146 0.42008001363882125
2080000000.0 0.30771770631242695 0.30610089971325505
2100000000.0 -0.0007075666863308078 -0.4272074759009375
2120000000.0 -0.15095300389900604 -0.38622560746078927
2140000000.0 0.03660769578516513 -0.39552123515002846
2160000000.0 0.29474555114792833 -0.2448384303295833
2180000000.0 0.34494313933744103 -0.13945076877989265
2200000000.0 0.3007460124716045 -0.2018687030254206
2220000000.0 -0.3065567897152624 -0.17344452579875147
2240000000.0 -0.2529098759286428 -0.23805071296922334
2260000000.0 -0.33222574752130607 -0.09690319584162667
2280000000.0 0.15199667460284047 0.3130975908925328
2300000000.0 0.16426726305176195 0.3143364780074665
2320000000.0 0.14048046916744703 0.3496458640368093
2340000000.0 -0.0022216938577911296 -0.410016240023705
2360000000.0 -0.39123833991090984 -0.2199887715801813
2380000000.0 0.033867098003966985 0.4975736944564878
2400000000.0 -0.5165421166196827 0.21106097345447564
2420000000.0 0.5588032075576574 -0.24245494093507503
2440000000.0 -0.5592365170270688 0.34203435186949066
2460000000.0 -0.6500590063780851 -0.2581359125055483
2480000000.0 0.6454221628844259 0.3440813826423544
2500000000.0 -0.312160435798983 -0.6850596090251342
2520000000.0 0.7334994006811388 -0.222363526372425
2540000000.0 -0.5574640815399375 -0.5317784732190788
2560000000.0 -0.3811478023977031 0.6663871951693083
2580000000.0 -0.04026620805602075 -0.7532364013980937
2600000000.0 -0.7298042550185065 0.07473203796566215
2620000000.0 0.08706793878800946 0.7028101942936019
2640000000.0 0.47077015822040824 -0.4771126438598677
2660000000.0 -0.5595202669222418 -0.2912140421203484
2680000000.0 -0.03339352843900452 0.583862927080912
2700000000.0 -0.36538269648730154 -0.387023366752671
2720000000.0 -0.10641942604274587 0.4723553682629447
2740000000.0 0.4352357464802921 0.004358365226939536
2760000000.0 -0.3774084580796448 0.11052668333746923
2780000000.0 0.3315400499885934 0.14813083190643692
2800000000.0 -0.21194015340982883 -0.2640106999780463
2820000000.0 0.16120850649233326 -0.2740710314048952
2840000000.0 -0.01657645888036632 0.3082106117091862
2860000000.0 -0.1917364466612533 -0.22993526613529408
2880000000.0 0.06369322736632588 -0.2847432886701499
2900000000.0 -0.278824824715559 -0.07728084161105725
2920000000.0 -0.25047396249657755 0.15658887430726848
2940000000.0 0.20742973380149732 -0.22636090647569193
2960000000.0 -0.13207701548020875 -0.28695824742357035
2980000000.0 -0.2888251417611598 -0.1308563590211254
3000000000.0 -0.3145639971284103 0.045631663141076924
3020000000.0 0.307737189023593 0.08985850673262283
3040000000.0 0.3200477756393458 -0.004509824157669954
3060000000.0 0.25713392462627693 0.17739816052088472
3080000000.0 0.1783440292738084 -0.2434679895997709
3100000000.0 -0.04710847365839765 0.28857925159715314
3120000000.0 -0.1696836348398733 -0.22931925219214558
3140000000.0 -0.25955565209846454 0.09358243244132701
3160000000.0 0.1029056995513365 -0.24399897834838016
3180000000.0 -0.1887758215229121 0.16544465201189779
3200000000.0 0.21547943880107207 -0.09608185317899706
3220000000.0 0.04801440873018141 -0.20497323032691306
3240000000.0 -0.14749407900709421 -0.1001784743317397
3260000000.0 0.03754662913771333 -0.14232017177639542
3280000000.0 0.09890904118767563 -0.025515115871318852
3300000000.0 -0.01221788218389696 -0.06678060978590225
3320000000.0 0.035080400641446255 0.021890092726478443
3340000000.0 -0.022573618262718198 -0.005996041609029455
3360000000.0 -0.0016986583419595646 -0.012264588992482785
3380000000.0 -0.002423863350653247 0.0011139247099254527
3400000000.0 -0.00015440801484255042 -0.014538814659169425
3420000000.0 0.03180138177590284 0.011299082846110068
3440000000.0 0.0050907372277962494 0.048699267725857975
3460000000.0 0.022704055756664007 -0.05936006478837968
3480000000.0 0.07432539484815491 0.006338707789883793
3500000000.0 0.05270535301238882 -0.06627738532856155
3520000000.0 0.042566680489457456 0.08782642374999033
3540000000.0 -0.052861665178590304 -0.09840379760315737
3560000000.0 -0.06374830630828388 0.09888946229877611
3580000000.0 0.128833975538787 0.03347714270612207
3600000000.0 0.07008633138440505 0.1361883015749127
3620000000.0 -0.06709249195618525 -0.1486405383661087
3640000000.0 -0.17671266276088526 -0.029021155424311502
3660000000.0 -0.18689031071142342 -0.015780322965076095
3680000000.0 0.03486484701500933 -0.18698506827327396
3700000000.0 -0.0792066235651472 -0.17425379108197414
3720000000.0 0.10239594048695286 -0.15951163017406916
3740000000.0 0.09851950969629465 0.15488354507465094
3760000000.0 -0.006435335465875346 -0.17970206880288345
3780000000.0 0.10666020848108625 0.1385915093724135
3800000000.0 -0.06651451276466981 -0.153178265102179
3820000000.0 -0.14572970990046308 0.05446566171098717
3840000000.0 -0.09920810362193182 -0.10678318501425388
3860000000.0 0.11197561913743809 -0.08905158206919116
3880000000.0 0.10890667756533393 0.09602573661817183
3900000000.0 0.01486502567776442 0.14992966387986537
3920000000.0 0.15368534510026952 0.02444400859640532
3940000000.0 -0.1005198762130204 0.13341018008566627
3960000000.0 -0.0516313060889982 0.16485975109943388
3980000000.0 -0.01707267834691459 0.17031602616555389
4000000000.0 0.16228991377183713 0.021298432940930714
