!Created with skrf (http://scikit-rf.org).
# Hz S RI R 50.0 
!freq ReS11 ImS11
400000000.0 0.5408509630155013 0.6825725577283812
420000000.0 0.825884769029881 -0.17112167792992514
440000000.0 0.7551367948731439 -0.2498901632237983
460000000.0 0.7006474661490295 0.24253742766749065
480000000.0 0.02481302743161312 -0.6850136158621319
500000000.0 -0.034637189498562225 0.601789234322819
520000000.0 0.08895903654158167 0.5023913991187746
540000000.0 -0.3109238533311074 -0.30642506006218484
560000000.0 0.014743622992769606 0.39672521333312216
580000000.0 -0.3293098595846579 -0.1419963078683318
600000000.0 0.33846699890275167 0.09077498603893955
620000000.0 0.16508182129288676 -0.3121177152042679
640000000.0 0.3632102291427799 0.20169383923255982
660000000.0 0.31983094008011337 0.2735856989213952
680000000.0 -0.44539628021627586 -0.06544268477144062
700000000.0 0.45266927712765076 0.07413093214284187
720000000.0 -0.24878539221558135 0.3850921797346394
740000000.0 -0.29667584343088316 0.29732496458804275
760000000.0 -0.10955640147424961 -0.389290202764722
780000000.0 -0.3601457229166747 -0.1168988101665736
800000000.0 -0.31707429939603443 -0.11196215322000184
820000000.0 -0.16406063826160058 0.2299384304877787
840000000.0 -0.12183828570087968 -0.17622942497758595
860000000.0 -0.17734556822396072 -0.008861433617597886
880000000.0 -0.00871792466546598 0.14668496543081308
900000000.0 -0.09762580140310458 0.007590376212936238
920000000.0 -0.03932974562185158 -0.03821198479758792
940000000.0 -0.02309205439508547 -0.025427920068854068
960000000.0 -0.035711486246769654 0.01281582818562617
980000000.0 0.010187119112798808 0.05883721325297958
1000000000.0 0.010051874819212587 -0.09647294680065749
1020000000.0 0.052824382588687005 -0.10726357889043928
1040000000.0 -0.12668361717389395 0.04095593116275378
1060000000.0 0.12630370506007793 0.09668710633117718
1080000000.0 -0.13826643812254902 0.1199824193549528
1100000000.0 0.0768493147237542 -0.19209386968502706
1120000000.0 0.22861396301355918 0.002685068751993664
1140000000.0 -0.24183610393936653 0.07425926174413465
1160000000.0 -0.24748780582266922 -0.1280868129945792
1180000000.0 -0.02928701096674942 -0.3090698356532882
1200000000.0 0.3176610552580411 0.14232542396488623
1220000000.0 -0.3538787816443163 -0.13146478272761747
1240000000.0 0.35490636217879484 -0.1815438642099283
1260000000.0 -0.4091358298685925 0.006495663355257892
1280000000.0 -0.335383300558777 0.25865562108013823
1300000000.0 0.40189280255894055 0.15231104677992688
1320000000.0 0.41863792584624704 0.0969953189687318
1340000000.0 0.06791176514577052 0.43130117251378985
1360000000.0 0.3538461419845794 0.2709723653494932
1380000000.0 0.05354761966504877 -0.4354070043165666
1400000000.0 -0.25952249547160966 -0.3411032804208521
1420000000.0 0.14717762567151899 0.37967573325354914
1440000000.0 0.2504145190034196 -0.27980977593230344
1460000000.0 0.18244449460100912 -0.2891327318340675
1480000000.0 -0.21939554471907574 -0.22394513131176264
1500000000.0 -0.08917804570507494 0.26806784785902393
1520000000.0 -0.18470418575913822 0.17056689136371164
1540000000.0 0.1179417359775428 0.19114975667213402
1560000000.0 -0.0858825859852531 0.17579806151323968
1580000000.0 -0.15628432287251603 0.07628180458393326
1600000000.0 0.08184072947349043 0.11235888694834929
1620000000.0 0.025209563193940535 -0.09757205300150394
1640000000.0 -0.07091859605149801 0.02984052160501506
1660000000.0 0.015134757739070463 0.0616363172477337
1680000000.0 0.01562690847339088 0.03945598435094582
1700000000.0 0.021430895323291444 -0.007170287060526236
1720000000.0 -0.0074036245604957 0.0051476374470934136
1740000000.0 0.0073870653011475895 -0.009537110112755879
1760000000.0 0.02405346464791968 -0.01402969856086703
1780000000.0 0.051257229048586005 -0.014149486099144732
1800000000.0 0.06586779611138711 0.06782079128569173
1820000000.0 0.03737384300141642 -0.11991827890102581
1840000000.0 -0.025769688355076068 0.15968350225455713
1860000000.0 -0.08738527428569316 0.18077968139880626
1880000000.0 0.18776297190805338 0.14699665656699137
1900000000.0 0.03480585934340855 -0.2784210076012036
1920000000.0 0.2768529311503599 -0.16462801399640364
1940000000.0 -0.32725605407744424 -0.10756617749611988
1960000000.0 -0.3292523427059335 0.16555667536151691
1980000000.0 0.39797984749919324 -0.012086819268255585
2000000000.0 -0.03534136588767072 -0.4154903045326167
2020000000.0 -0.24186657780547452 -0.3501474292423355
2040000000.0 -0.09546097409381418 0.42185223231912033
2060000000.0 0.07335404296810033 0.42845251275438256
2080000000.0 0.29314166772027195 0.31899192090688766
2100000000.0 0.018658737893075084 -0.42648615094590936
2120000000.0 -0.14517897365972654 -0.38779763575168485
2140000000.0 0.02837574320460161 -0.39518137889812316
2160000000.0 0.27828247650507865 -0.2609572272386082
2180000000.0 0.33431993108269537 -0.159509929718507
2200000000.0 0.3038309245775959 -0.1949973435486565
2220000000.0 -0.30447420291083854 -0.17575685314222464
2240000000.0 -0.25433568978698734 -0.23548361032558807
2260000000.0 -0.3401075833953036 -0.06048714209627708
2280000000.0 0.19084210967892765 0.29038846260688034
2300000000.0 0.19483098437630172 0.2955764999065621
2320000000.0 0.1853569420108898 0.32703040125642807
2340000000.0 -0.03103259628982417 -0.4083343559769806
2360000000.0 -0.4033179152602041 -0.19656553530159981
2380000000.0 0.04730969351074671 0.495724806948746
2400000000.0 -0.5149280087392213 0.21288497307577545
2420000000.0 0.5640330631713915 -0.22978606611172603
2440000000.0 -0.5770360929732693 0.3112704790391469
2460000000.0 -0.6282233135180677 -0.30852482070015924
2480000000.0 0.637233875760831 0.3589838947772245
2500000000.0 -0.33887291318928603 -0.6721394825350266
2520000000.0 0.7350276375811016 -0.21700244474212513
2540000000.0 -0.5319437375568743 -0.5574201475355073
2560000000.0 -0.41065025007459627 0.6490756379926859
2580000000.0 0.011280222348804316 -0.7539873696130535
2600000000.0 -0.7325921200648648 0.01734578176989541
2620000000.0 0.032296743853502285 0.7068697689755833
2640000000.0 0.4535019352320379 -0.4932046096656419
2660000000.0 -0.5351865647112818 -0.3319366444411948
2680000000.0 -0.1031311803152334 0.5742692599807844
2700000000.0 -0.35373469958857456 -0.3960782915919879
2720000000.0 -0.10162007557685263 0.47270565657534647
2740000000.0 0.4304110736967731 -0.06076607198619119
2760000000.0 -0.3636053290627408 0.14807347982782754
2780000000.0 0.3440960412064964 0.11311295423581418
2800000000.0 -0.25132918664678255 -0.22602468619582855
2820000000.0 0.11314798477306544 -0.2963947801514276
2840000000.0 0.04419834066116579 0.30513439023250294
2860000000.0 -0.2391333614132656 -0.1802480659906381
2880000000.0 0.02948037610503007 -0.29119950688105783
2900000000.0 -0.28987612574532123 -0.01329719135960242
2920000000.0 -0.21328236197902037 0.20601335466220064
2940000000.0 0.19962052919666987 -0.2347481683848137
2960000000.0 -0.06565556223338648 -0.3094789760433393
2980000000.0 -0.2692904111054888 -0.16767434594855427
3000000000.0 -0.3174091264590071 0.0016707996883897932
3020000000.0 0.2864898305269083 0.14431577774818058
3040000000.0 0.3124659521776202 0.06808295434359575
3060000000.0 0.2526514464641703 0.18387812688226432
3080000000.0 0.1767541170603052 -0.2443545414550794
3100000000.0 -0.028880266124344037 0.29055581406659947
3120000000.0 -0.19916741206967067 -0.20388117832954897
3140000000.0 -0.25423896830815657 0.10530501682882061
3160000000.0 0.1132320367154271 -0.23857996193760844
3180000000.0 -0.1989340749942176 0.1518298161225639
3200000000.0 0.21981789153640138 -0.08558498637813863
3220000000.0 0.03143850134188537 -0.2088133804518768
3240000000.0 -0.14187336175021825 -0.10754393731778614
3260000000.0 0.03577724142534256 -0.14243410078078608
3280000000.0 0.09750966096523533 -0.028481184362226422
3300000000.0 -0.012921347708712456 -0.0665268409772023
3320000000.0 -0.020910051078998883 0.03515878568890854
3340000000.0 0.014340355294757684 -0.018930802790684074
3360000000.0 -0.007783223144565949 -0.009722623561110914
3380000000.0 0.0003413502715454299 0.0023383795607196845
3400000000.0 0.008110466635327543 0.012268309838379591
3420000000.0 0.03275423490361697 -0.011648607473375297
3440000000.0 0.04478953675775487 0.021925849219860797
3460000000.0 -0.02061544497438365 -0.06090801753544125
3480000000.0 0.06314539871412324 -0.04103797466145731
3500000000.0 0.0018388501732594057 -0.08520724428112326
3520000000.0 0.07580469869031378 0.06336933222602231
3540000000.0 -0.08235153533809578 -0.07676317069439861
3560000000.0 0.0022765095006203415 0.11891112310705308
3580000000.0 0.12493986988799002 -0.049032120400753394
3600000000.0 0.10397270500013943 0.11344981104312889
3620000000.0 -0.12253014468134114 -0.1086569422784709
3640000000.0 -0.17845676424821655 0.027316499005176957
3660000000.0 -0.1889656163106574 0.006089642840729827
3680000000.0 -0.005573676545812802 -0.19181458331864484
3700000000.0 -0.0890213449436192 -0.17086366921167565
3720000000.0 0.06727626292174169 -0.17953530941008483
3740000000.0 0.1381798934994065 0.122280568260635
3760000000.0 -0.02033613936856376 -0.18000933605732408
3780000000.0 0.12458563658843201 0.12392378210125465
3800000000.0 -0.09388130393540321 -0.13899780432531758
3820000000.0 -0.11180003388015625 0.10999177091902672
3840000000.0 -0.12081735809746277 -0.08249859563129322
3860000000.0 0.08435940038558172 -0.11593180824232655
3880000000.0 0.11844587456841865 0.08536068999024796
3900000000.0 -0.008542357843494193 0.15137151366674245
3920000000.0 0.14788549443300017 0.05125496835560321
3940000000.0 -0.1111983024682774 0.12517408317719758
3960000000.0 -0.08694567174868471 0.15005297903371778
3980000000.0 -0.023210004567424364 0.16961821536066699
4000000000.0 0.1637277051489473 0.010940224277768406
