!Created with skrf (http://scikit-rf.org).
# Hz S RI R 50.0 
!freq ReS11 ImS11
400000000.0 0.5352417662203556 0.687692096839013
420000000.0 0.8309434256493619 -0.15106157980266288
440000000.0 0.7545199086297266 -0.2531095953043361
460000000.0 0.6893045501128167 0.27380592736111875
480000000.0 0.03935253627232995 -0.68448950633393
500000000.0 -0.02287724590240283 0.6024872718685719
520000000.0 0.08392567020777618 0.5028985543962428
540000000.0 -0.3219954121155427 -0.2942235173303918
560000000.0 0.067849482213096 0.3911525772231065
580000000.0 -0.3491696925628831 -0.08195866367279624
600000000.0 0.3428740678502517 0.07495815679690826
620000000.0 0.20678064632270343 -0.28728164536998324
640000000.0 0.360067275654767 0.20856221155927457
660000000.0 0.29361032112014185 0.3024209073074329
680000000.0 -0.44482774564804134 -0.07141849171320395
700000000.0 0.45233284916584915 0.07974878435081377
720000000.0 -0.2760162370225611 0.3662860352664737
740000000.0 -0.3055859935113767 0.28847136318758543
760000000.0 -0.09542505786083233 -0.39297131966630505
780000000.0 -0.35401167116298804 -0.1344281349478581
800000000.0 -0.3133584716572719 -0.12155842634633438
820000000.0 -0.1565244919389939 0.23458363580682132
840000000.0 -0.1400269403006959 -0.16175964682609675
860000000.0 -0.17360984452650854 0.03624730544633378
880000000.0 -0.002836635158779658 0.14676058438693793
900000000.0 -0.0967549119004064 0.013329130577793497
920000000.0 -0.04497105638397698 -0.030729633325964185
940000000.0 -0.030138865141780675 -0.0163920499396848
960000000.0 -0.030572975960342752 0.023532502009836677
980000000.0 -0.016493492959774255 0.05738039370620922
1000000000.0 0.05063628806160171 -0.08198641617105354
1020000000.0 0.06258364258807242 -0.10100830314177292
1040000000.0 -0.1142309882176997 0.06770539134695056
1060000000.0 0.14877735369017345 0.056727248108564256
1080000000.0 -0.11534852211415982 0.14273774810275514
1100000000.0 0.061812778924650286 -0.1978207810310301
1120000000.0 0.22912471179020705 0.004956892328453694
1140000000.0 -0.2393341150694722 0.08345270396714718
1160000000.0 -0.2442189404008378 -0.13545045081975454
1180000000.0 0.00497431411951537 -0.3110342352460541
1200000000.0 0.3082982426749224 0.16199653612476012
1220000000.0 -0.3408144491819124 -0.16286193704340302
1240000000.0 0.3627717575217981 -0.16568301055292267
1260000000.0 -0.40847805641352614 -0.01858251791445583
1280000000.0 -0.3550980601011625 0.23042329700320893
1300000000.0 0.39421286373501174 0.17172241626473486
1320000000.0 0.4121392115625592 0.1212727203294179
1340000000.0 0.042193482143181596 0.4346882111509977
1360000000.0 0.34258774541253845 0.28498588196190966
1380000000.0 0.06952843695059888 -0.43302516063601804
1400000000.0 -0.25954178522518434 -0.34078619232578444
1420000000.0 0.14323845593610823 0.3817193239701674
1440000000.0 0.22753413810814566 -0.29895204802511965
1460000000.0 0.14880515028098235 -0.3082805153868966
1480000000.0 -0.23203574503144783 -0.21120402728618645
1500000000.0 -0.07072964555522586 0.27381418125782936
1520000000.0 -0.16236352583221472 0.1923576846081041
1540000000.0 0.12783308103783586 0.18516264051579243
1560000000.0 -0.07606727733266626 0.180730713618297
1580000000.0 -0.14708027923918268 0.09345264143748319
1600000000.0 0.06859398927985769 0.12118389271345423
1620000000.0 0.05111702121105995 -0.08699181846877264
1640000000.0 -0.0765803968923682 0.009549918450059917
1660000000.0 -0.029402060558947438 0.05610202431419198
1680000000.0 -0.017091796596950204 0.038447966996591476
1700000000.0 0.02176808366868341 0.0008103881521563452
1720000000.0 -0.007666725995189297 0.0023574513747860472
1740000000.0 -0.009634424072733329 0.007068161100082726
1760000000.0 0.021957519610067783 0.016831503580705832
1780000000.0 0.052732513597623 0.005861360197945778
1800000000.0 0.027892246949930838 0.09020384658739332
1820000000.0 0.06378008030902195 -0.1076781361368878
1840000000.0 -0.06490910740713222 0.14752107813832957
1860000000.0 -0.09735876169398018 0.17429390953559826
1880000000.0 0.1827031308785184 0.15161638231151583
1900000000.0 0.03079738045036805 -0.27831421415926894
1920000000.0 0.26495492142520394 -0.18247765331770366
1940000000.0 -0.3290129758169501 -0.10187771915172465
1960000000.0 -0.3171891005634391 0.1875929927362266
1980000000.0 0.39453940348498745 -0.054226801301013844
2000000000.0 -0.07346633216770322 -0.4107128717189664
2020000000.0 -0.2790329997577265 -0.3221491981461002
2040000000.0 -0.08880376011197029 0.4241186262042399
2060000000.0 0.057361228556460045 0.43172610216341856
2080000000.0 0.27521609500728844 0.3357115073737775
2100000000.0 -0.010252245877166437 -0.4277784621528524
2120000000.0 -0.13623127657493603 -0.39172253064302714
2140000000.0 0.03030569295619438 -0.3959300919416225
2160000000.0 0.29108634340020995 -0.24802703588306488
2180000000.0 0.345116934916429 -0.1353714186325699
2200000000.0 0.3161133798829817 -0.17327898985205475
2220000000.0 -0.3099820732890567 -0.1636480173277215
2240000000.0 -0.2391175459913576 -0.25078389400365036
2260000000.0 -0.33418995611378727 -0.08852207407404633
2280000000.0 0.18105129743548612 0.2966033735674058
2300000000.0 0.18019686538034038 0.3049537767526037
2320000000.0 0.17708431189822832 0.33163673645544256
2340000000.0 -0.025099468909146962 -0.4085614965484382
2360000000.0 -0.40705455924565437 -0.1883331662354854
2380000000.0 0.08872695195146141 0.4903227852680221
2400000000.0 -0.5113046770632238 0.22243366157295655
2420000000.0 0.5718446487114628 -0.21037326333261128
2440000000.0 -0.5733466102364312 0.31789606653797076
2460000000.0 -0.6434780379205174 -0.2751118073542293
2480000000.0 0.6306242599978368 0.37119315521771207
2500000000.0 -0.363358790755906 -0.6596271860120567
2520000000.0 0.7208172662438728 -0.25969195906432146
2540000000.0 -0.54923963129505 -0.5403524409887513
2560000000.0 -0.406004830177372 0.6516202419733851
2580000000.0 -0.051773661814119756 -0.7519715342094002
2600000000.0 -0.7299813461443018 0.06702330271048845
2620000000.0 0.09293875280045226 0.7013223404905048
2640000000.0 0.42734616472610404 -0.5165340894299734
2660000000.0 -0.5256136398230752 -0.34826834124671396
2680000000.0 -0.07897747318533548 0.5791575673310678
2700000000.0 -0.3600348953006848 -0.3918314287593634
2720000000.0 -0.13777103570830251 0.46360287957999013
2740000000.0 0.43402778674753906 -0.026236304781651693
2760000000.0 -0.3694610084669383 0.13337085191263887
2780000000.0 0.3342967629444622 0.13935515576839494
2800000000.0 -0.2413425436213764 -0.23612231213467447
2820000000.0 0.11766032965502217 -0.293926258854678
2840000000.0 0.07318944717134625 0.29902407312600515
2860000000.0 -0.26424620873406507 -0.14019774514807573
2880000000.0 -0.04343775860096263 -0.2892214625949189
2900000000.0 -0.28952488134453264 0.028398183613874934
2920000000.0 -0.18529088571334415 0.23176836794357103
2940000000.0 0.16141606576211875 -0.26305287258629995
2960000000.0 -0.15330429768641046 -0.27734117737360076
2980000000.0 -0.26781800728901817 -0.17267011353482375
3000000000.0 -0.31757328583757816 -0.018092982582519013
3020000000.0 0.2723260136402849 0.17050581730274586
3040000000.0 0.30793334030734987 0.09117154370052784
3060000000.0 0.23974021633933862 0.20256844920462752
3080000000.0 0.23550251739899114 -0.19091789275436558
3100000000.0 -0.10112797539323816 0.2752773696793317
3120000000.0 -0.12214074305760753 -0.25820973190198526
3140000000.0 -0.27388991785856304 0.030727012831609866
3160000000.0 0.17064450277205345 -0.20168054115649578
3180000000.0 -0.22138966360352663 0.11545647704362683
3200000000.0 0.22949485702133265 -0.05186255097868295
3220000000.0 0.08103788140028495 -0.19423546958436622
3240000000.0 -0.1238628600534347 -0.12686309826897255
3260000000.0 0.07189087205371192 -0.1266211098910814
3280000000.0 0.09585881719009116 0.030519791436197024
3300000000.0 0.01983445402285199 -0.06312939642217348
3320000000.0 0.010873995112168326 0.03829758923550135
3340000000.0 0.02225523587772499 0.004437217034377522
3360000000.0 0.006210950388247056 -0.009518394708147445
3380000000.0 0.0012556437125137124 0.0008990916642604385
3400000000.0 -0.005136712185488365 0.014708790421816394
3420000000.0 0.03339120985733296 -0.013284229109436082
3440000000.0 0.021768791856126832 0.046223973033872934
3460000000.0 0.005150575419294424 -0.06496499539834265
3480000000.0 0.07549722691667665 0.013505777393259307
3500000000.0 0.07650612657223652 -0.039878038087168874
3520000000.0 0.07190133782709576 0.06906157752770908
3540000000.0 -0.07408618541768867 -0.0858420270690709
3560000000.0 -0.037577257579486385 0.11292016131673827
3580000000.0 0.1342797525003507 0.004951937009469276
3600000000.0 0.09923707774360706 0.11856010643306394
3620000000.0 -0.0838318759967539 -0.14192593360743527
3640000000.0 -0.17081167585242937 -0.058299095060175624
3660000000.0 -0.1744249232288032 -0.07175980329359795
3680000000.0 0.0616251946502818 -0.18012736093547216
3700000000.0 -0.036472265950923746 -0.18782850688332853
3720000000.0 0.11619070156608065 -0.1502713394729345
3740000000.0 0.10021043927187995 0.15389734192063123
3760000000.0 0.02427536345839942 -0.17825114769073536
3780000000.0 0.11155462794315779 0.13430258985320498
3800000000.0 -0.08734054536669027 -0.1419009386992746
3820000000.0 -0.11395276107083956 0.10540095856240071
3840000000.0 -0.13637212483672687 -0.04979757977932232
3860000000.0 0.04497142447293553 -0.13529610631848515
3880000000.0 0.13136478142374264 0.06150155198510829
3900000000.0 0.022656275776739006 0.1491818006918979
3920000000.0 0.14708394288755766 0.04934020739160147
3940000000.0 -0.10487054538825234 0.12849185874820407
3960000000.0 -0.10423283410126681 0.13684407033716967
3980000000.0 0.0023475063688254126 0.17015633093271687
4000000000.0 0.1568151039493633 -0.04379398767350439
