!Created with skrf (http://scikit-rf.org).
# Hz S RI R 50.0 
!freq ReS11 ImS11
400000000.0 0.5562519904688445 0.670051073663467
420000000.0 0.8350888616129863 -0.1265197993638117
440000000.0 0.7536975349141842 -0.25509021738802784
460000000.0 0.6975506952009495 0.2505904378438435
480000000.0 0.024208144241818726 -0.684473566188346
500000000.0 -0.014286189444894803 0.6025429194387519
520000000.0 0.1130938281941745 0.4970837076567195
540000000.0 -0.35278867154377413 -0.25707280913832925
560000000.0 0.12622328879119696 0.3763397633597508
580000000.0 -0.3539099132602191 -0.05538670351909062
600000000.0 0.33914213288988837 0.08864971161798389
620000000.0 0.2139465820571099 -0.282105679485512
640000000.0 0.3668920937676596 0.19667162003867045
660000000.0 0.29208570282053087 0.30417502204554847
680000000.0 -0.44263293456074426 -0.08655346753934497
700000000.0 0.4509003189191452 0.08725141323336887
720000000.0 -0.26917320040220544 0.37119563254871635
740000000.0 -0.3208445809238279 0.27059553641862355
760000000.0 -0.08324778995704366 -0.3957412377016354
780000000.0 -0.3580772764861235 -0.12233474984810068
800000000.0 -0.3099756963649146 -0.12994092062332815
820000000.0 -0.1526297440287892 0.2375354271505209
840000000.0 -0.1493834800260464 -0.1531457336389271
860000000.0 -0.17266856866110913 0.04156346049255907
880000000.0 -0.00707762170774473 0.14733333722473038
900000000.0 -0.09720995060804904 -0.011131712656135571
920000000.0 -0.019435848142843104 -0.05077271529035357
940000000.0 -0.01966234669051146 -0.027121881004208825
960000000.0 -0.033324113207827966 0.017783051082908903
980000000.0 0.0015007357432294394 0.059868337515031345
1000000000.0 0.04303814646775556 -0.0865233584889538
1020000000.0 0.05973185832901231 -0.10302645785747058
1040000000.0 -0.11956152397235255 0.057798547189423295
1060000000.0 0.14108507370938783 0.07313011870445094
1080000000.0 -0.12585520961492658 0.13298113084622276
1100000000.0 0.08299387553334309 -0.18965786361179834
1120000000.0 0.22905471230552343 0.011478023553180183
1140000000.0 -0.2408027621849093 0.07988880275681252
1160000000.0 -0.23244476174097162 -0.15475892877161315
1180000000.0 0.02548384425126693 -0.3099502450041888
1200000000.0 0.28664203577685055 0.19767311751204017
1220000000.0 -0.3275620753895206 -0.18768567329727956
1240000000.0 0.3675791627503598 -0.15425130036345241
1260000000.0 -0.40749243018204134 -0.033086222248547965
1280000000.0 -0.3624830229886885 0.217579861642207
1300000000.0 0.3789965479992794 0.20251627437620445
1320000000.0 0.4162641060268943 0.10596391761150753
1340000000.0 0.05831677119698697 0.43270986145004703
1360000000.0 0.35296592257705445 0.27215793866815313
1380000000.0 0.05674602972634315 -0.43493112326091593
1400000000.0 -0.2652843373451672 -0.3365585311581812
1420000000.0 0.1404008023956487 0.38306998429868366
1440000000.0 0.22442584998626455 -0.3014909433248202
1460000000.0 0.15496501461530585 -0.3055155708813959
1480000000.0 -0.23629459357626154 -0.20657328914081866
1500000000.0 -0.07881600531252242 0.2720091752663025
1520000000.0 -0.1729562546933864 0.18340582743254424
1540000000.0 0.11801106694097407 0.19227298616170255
1560000000.0 -0.10797063730589378 0.16432338725616102
1580000000.0 -0.16489943721874836 0.05697087405396237
1600000000.0 0.05739926307392251 0.12661122420070686
1620000000.0 0.06624332071572771 -0.07565104256447783
1640000000.0 -0.0752040015150404 -0.016030054582112423
1660000000.0 -0.04477056474367053 0.044074600845813765
1680000000.0 -0.01218879730308979 0.04012200533328045
1700000000.0 0.004769845956582471 -0.021157499877095157
1720000000.0 -0.007436648521109397 0.002231068055467841
1740000000.0 0.008386909215313997 -0.008075728761543836
1760000000.0 -0.005713966539269337 0.026974417530660336
1780000000.0 0.0473889781865126 0.0232843138835378
1800000000.0 0.03226846297185341 0.0886254703159072
1820000000.0 0.059256215004865984 -0.10988348661549045
1840000000.0 -0.05207131733180998 0.15220268884861088
1860000000.0 -0.07688809296577875 0.1842129354671673
1880000000.0 0.1971739478878272 0.13238216696149915
1900000000.0 0.02301773297708799 -0.27911751572439064
1920000000.0 0.26291274301959056 -0.1858864728617354
1940000000.0 -0.32941558563646667 -0.10162224902549702
1960000000.0 -0.3208949066689604 0.18153863228924388
1980000000.0 0.3970013973253141 -0.03592330952964023
2000000000.0 -0.05795268883514753 -0.413322182345278
2020000000.0 -0.27230372196451014 -0.32791353980893645
2040000000.0 -0.10389000408550488 0.42075944098983964
2060000000.0 0.060009502625771406 0.4313237531548047
2080000000.0 0.2673298180772206 0.3424925329829784
2100000000.0 0.017159305480220537 -0.4275926511730973
2120000000.0 -0.10476901261012542 -0.40161052816971526
2140000000.0 0.0350521470034173 -0.395806489473067
2160000000.0 0.3088189584454171 -0.2255182833904822
2180000000.0 0.354696063645154 -0.1072854833312705
2200000000.0 0.32134833861240203 -0.16289036176570304
2220000000.0 -0.2800875658535055 -0.2104985906173126
2240000000.0 -0.24207374554077524 -0.2472701163995147
2260000000.0 -0.33348544261748403 -0.09081735741021914
2280000000.0 0.17565798430758792 0.29957620658879414
2300000000.0 0.1790298939570099 0.30553921181397936
2320000000.0 0.16158562454647957 0.33927503469123815
2340000000.0 -0.01957189842279561 -0.40873565673878026
2360000000.0 -0.4076830125433531 -0.1866877376611159
2380000000.0 0.09048379840727526 0.4900285195507326
2400000000.0 -0.5070847810583804 0.2321660078973208
2420000000.0 0.5616086394746841 -0.2361055875640343
2440000000.0 -0.5727997959955518 0.3189128676430531
2460000000.0 -0.6475483396145145 -0.26515339813257466
2480000000.0 0.6467430734137143 0.3419711790886743
2500000000.0 -0.2998788331373627 -0.6913408434928319
2520000000.0 0.7475017680230897 -0.1703316429875741
2540000000.0 -0.5596964403130286 -0.5298294106485845
2560000000.0 -0.43281416965251307 0.6343112623529521
2580000000.0 -0.07662886025864261 -0.7500681557560948
2600000000.0 -0.7334547953169002 0.008763810072571621
2620000000.0 0.07054055328367899 0.704050203992038
2640000000.0 0.4558515428324118 -0.4914194985532695
2660000000.0 -0.5134638550045115 -0.36535009569051846
2680000000.0 -0.11326266460471697 0.5731761457699441
2700000000.0 -0.3311344583589097 -0.4159500153230961
2720000000.0 -0.12312193516949733 0.46768509270790815
2740000000.0 0.43322214247784857 -0.03686794124223479
2760000000.0 -0.3737540311749786 0.11973449343417816
2780000000.0 0.33293712435867595 0.141776270360587
2800000000.0 -0.2450322824680001 -0.2319815887711708
2820000000.0 0.10259892380640026 -0.29950286958555933
2840000000.0 0.07989927596818229 0.2975889393133588
2860000000.0 -0.26841870446759597 -0.13261595279549926
2880000000.0 -0.038282539229207255 -0.29053688017756685
2900000000.0 -0.2907478196651791 0.018901951797077682
2920000000.0 -0.187271082504575 0.23037824029434656
2940000000.0 0.15830785011275816 -0.2653051958727338
2960000000.0 -0.12313762786241267 -0.29254075038947464
2980000000.0 -0.2579388492790484 -0.18723820820717815
3000000000.0 -0.3156851761745329 -0.042572455854956816
3020000000.0 0.2657924569711767 0.18103081857814135
3040000000.0 0.28110674121675056 0.1553911880593341
3060000000.0 0.20663007482698934 0.2361041363321019
3080000000.0 0.2350591798047126 -0.1913458259841528
3100000000.0 -0.170217577862039 0.23812802507443365
3120000000.0 -0.12595027930899277 -0.2563432117259409
3140000000.0 -0.27385271424073737 0.028387101692014766
3160000000.0 0.1732999480155221 -0.19918725729002404
3180000000.0 -0.2255420351459638 0.10673419753093163
3200000000.0 0.2299266745436117 -0.04817756584485567
3220000000.0 0.07959196635871653 -0.19401360337142626
3240000000.0 -0.13419543562410163 -0.11534869762810432
3260000000.0 0.05690079398912016 -0.13382712808913255
3280000000.0 0.09724806156462468 -0.024246778095527468
3300000000.0 0.006577596886353655 -0.06568004534238137
3320000000.0 0.025154643765106358 0.030733057932684833
3340000000.0 0.009870595562723563 -0.020209137385675754
3360000000.0 -0.00834750146730138 -0.007343716499315994
3380000000.0 -0.0009121988381100208 -0.0009497292829490015
3400000000.0 -0.015652445964151 -0.0009312588550803219
3420000000.0 0.035880860932084285 0.0028964981496911895
3440000000.0 0.02479231692502978 0.04463762926209555
3460000000.0 0.03696846673268448 -0.05326906580562092
3480000000.0 0.0534736347151437 0.054113988194044615
3500000000.0 0.08334736165701365 -0.021675105657831692
3520000000.0 0.032107279626144306 0.09371183826146577
3540000000.0 -0.05469611770922625 -0.09882454133197767
3560000000.0 -0.02512108262740232 0.11621864328324129
3580000000.0 0.13335546427655243 0.011984228770769826
3600000000.0 0.07831443648850189 0.13244079879144674
3620000000.0 -0.07506712211263168 -0.14616493061851082
3640000000.0 -0.1672791850502194 -0.06689533431936782
3660000000.0 -0.16816699492187628 -0.08418504241540123
3680000000.0 0.07485051196222912 -0.17502398964736385
3700000000.0 -0.02822338210359291 -0.18885599703211728
3720000000.0 0.11304052783954135 -0.1529279463839254
3740000000.0 0.09732664548985782 0.15536687629903978
3760000000.0 0.025937288002722884 -0.1780405961614626
3780000000.0 0.09975538849389379 0.14331770835147462
3800000000.0 -0.07792505096097613 -0.14723034126743573
3820000000.0 -0.13157380798217708 0.08271064147012737
3840000000.0 -0.1238263198217499 -0.07581622808489637
3860000000.0 0.06575860393936507 -0.12660826818125206
3880000000.0 0.11306746794001796 0.09084124883851374
3900000000.0 -0.006447768364919179 0.1507400488480883
3920000000.0 0.13958206863807282 0.06770047577203141
3940000000.0 -0.12202679906710098 0.11243695586779388
3960000000.0 -0.11907732663863223 0.12424996537391626
3980000000.0 -0.0033557137581712664 0.16973094790442328
4000000000.0 0.155400192607997 -0.04721195297849018
