!Created with skrf (http://scikit-rf.org).
# Hz S RI R 50.0 
!freq ReS11 ImS11
400000000.0 0.814604708115676 0.29401488872992637
420000000.0 0.7647617951338967 -0.3456299834107728
440000000.0 0.7840122068218804 -0.10928144062021337
460000000.0 0.7174045548883319 0.20147229932148028
480000000.0 0.019097618508840935 -0.6911235024180171
500000000.0 0.27435599236277297 0.5435242727794308
520000000.0 0.3225430795242215 -0.3943833157164309
540000000.0 -0.38723807741768695 0.18752089718798184
560000000.0 0.14615206726306584 0.3551037584992132
580000000.0 -0.23038225592915879 -0.2618531998068726
600000000.0 0.29209934318243674 0.18535496252096387
620000000.0 0.3248805942456483 -0.13323166070845693
640000000.0 0.335952086465947 0.24474701386402495
660000000.0 -0.37920780960018996 0.20940872493325388
680000000.0 -0.007305934166268541 0.46775664977531456
700000000.0 -0.4025875542177728 -0.21777436813305465
720000000.0 0.10516010777148953 0.43455599884222434
740000000.0 -0.37052044970161835 0.16991035326133816
760000000.0 0.3054658615637019 -0.25668306370063604
780000000.0 0.24896548164840412 -0.2972400595215848
800000000.0 -0.2575787933067762 0.2371205763716084
820000000.0 0.2587728357390073 -0.12931735721840978
840000000.0 0.2083813414654403 0.019714969692346818
860000000.0 -0.14086971378196497 0.07408279388107035
880000000.0 -0.13284696247717892 0.00848155708848646
900000000.0 -0.08364701560691515 0.045186193486046376
920000000.0 -0.047145583624333486 -0.026089858694789116
940000000.0 -0.027834507941086203 -0.02249224119602883
960000000.0 0.03356613828349659 0.016650494763518146
980000000.0 0.035076776622743874 0.05604934147536163
1000000000.0 -0.051214109006672295 0.08913059946582028
1020000000.0 0.11836540292765739 0.05733403460864193
1040000000.0 0.13433784543355595 -0.044062029742601615
1060000000.0 -0.1593061078597151 0.025666456875158315
1080000000.0 0.16697930399985594 0.05792401503969437
1100000000.0 -0.09440114346345715 -0.17802270600938797
1120000000.0 0.17330896635784523 0.14834290214134968
1140000000.0 -0.2290588607889682 -0.11153207041792931
1160000000.0 -0.22204584011485232 0.17691295894599687
1180000000.0 -0.3122654253039546 0.0013436648118484904
1200000000.0 0.33816996615282024 -0.05830342222632211
1220000000.0 -0.32082794609580173 0.18975266251575224
1240000000.0 0.36526760859253493 -0.1492658325873261
1260000000.0 -0.31619953925648653 -0.25750171739869104
1280000000.0 -0.32402928370268647 0.2746494722370588
1300000000.0 0.2726880790499219 0.3372018865393511
1320000000.0 0.4358319478354776 0.05381256688863727
1340000000.0 0.33405840411569426 -0.2913469151966974
1360000000.0 0.12057776444883825 -0.4237588741415234
1380000000.0 -0.2244093666205184 -0.36499131898064663
1400000000.0 -0.3354235365055735 -0.24899573324740573
1420000000.0 -0.2563542358858496 0.3091061546626916
1440000000.0 0.2441454234065512 0.28788537987746665
1460000000.0 0.25990047602341076 -0.237440949726179
1480000000.0 -0.2670850090522626 0.1798098649092441
1500000000.0 0.28020110904532175 0.04550551932036991
1520000000.0 0.1517089190293676 0.19519688369257485
1540000000.0 -0.010445633658351 -0.21789991520054594
1560000000.0 0.04433741401988002 0.18477452097637923
1580000000.0 -0.11768343353063242 0.11415871015825953
1600000000.0 -0.03823096043064908 0.12615717502717172
1620000000.0 -0.044036642669079806 0.09376399279608907
1640000000.0 -0.08127167632132269 0.012925848880778608
1660000000.0 0.001198265611064918 0.06684994235011656
1680000000.0 0.020021203115508566 0.03844608702626075
1700000000.0 -0.018620796431907206 0.011300284144710585
1720000000.0 0.005065832321576285 0.0028207645701084426
1740000000.0 -0.013281193875334447 0.006981476000789472
1760000000.0 -0.01288081927244189 -0.028415726960137385
1780000000.0 -0.017588551820478377 -0.04930873440911838
1800000000.0 0.06279583684316269 0.06256440964721954
1820000000.0 0.1249894536579056 -0.012157987786128045
1840000000.0 -0.11996009189211598 0.12077074039161029
1860000000.0 -0.13119149083933063 0.1630461494602075
1880000000.0 0.137046098761853 -0.2059807849120343
1900000000.0 -0.06172979397902302 0.2824965842903094
1920000000.0 -0.1408821878064644 -0.29030827560970757
1940000000.0 -0.14703817143812106 0.309656879652983
1960000000.0 0.11597145577679278 0.34572550487853226
1980000000.0 0.37109912160185654 0.13535576376365632
2000000000.0 -0.048188770756250936 -0.4141593418216303
2020000000.0 -0.42694004452440454 -0.044526918388664787
2040000000.0 -0.1439837705785365 0.4148729207260428
2060000000.0 0.4242398687833951 0.12150309058787419
2080000000.0 0.09756274257077063 -0.42486808296632517
2100000000.0 -0.34431695892890457 -0.25175328476333336
2120000000.0 -0.4057494238638706 -0.07017194409958162
2140000000.0 -0.3899057724643968 -0.054360209883386676
2160000000.0 0.2997206312736508 -0.2366098328616774
2180000000.0 0.14402986561783884 -0.34473244118058083
2200000000.0 -0.12363019075069578 -0.3421458766170935
2220000000.0 -0.3402113960268656 -0.10581746760510276
2240000000.0 -0.3043044262608507 0.17431278089620927
2260000000.0 -0.023013472421743807 0.34986247489500155
2280000000.0 0.3010007706765618 0.18167022787260162
2300000000.0 0.34780588303450843 -0.09563050456236535
2320000000.0 0.13459861435805157 -0.36094897449737123
2340000000.0 -0.3617383653186911 -0.20637312449492354
2360000000.0 -0.09023105511954375 0.44827518068371425
2380000000.0 0.14976078423156108 -0.48693018506731334
2400000000.0 0.09588948386231229 0.554766513020529
2420000000.0 -0.4790596565858736 -0.38551505270995723
2440000000.0 0.6468493569467267 -0.13999626569509532
2460000000.0 -0.3467563273679577 0.6094665378688879
2480000000.0 -0.10123050374342098 -0.7249079143311191
2500000000.0 0.21323492317029605 0.7207258005136583
2520000000.0 -0.11999596340546433 -0.7529851278972568
2540000000.0 -0.22759818020570116 0.7297702296766411
2560000000.0 0.6224032321199644 -0.43483771141075855
2580000000.0 -0.6947334966332483 -0.2685522462125731
2600000000.0 0.24146906535984186 0.679936526448221
2620000000.0 0.4038343378882408 -0.563245678404994
2640000000.0 -0.04950056443786941 -0.6551244522491032
2660000000.0 -0.3948509276166817 0.47015613869785705
2680000000.0 0.5554631275964523 -0.1127199138635265
2700000000.0 -0.44534540098688263 -0.2659062495169057
2720000000.0 0.29660630819938966 0.365917427094871
2740000000.0 -0.05398659615514054 -0.4180682179682442
2760000000.0 -0.3024485936686737 0.23301948017532323
2780000000.0 0.31324783974636533 -0.1550948111188873
2800000000.0 -0.2857310859226228 0.15477762588842095
2820000000.0 0.2382123889879281 -0.19578021727828931
2840000000.0 0.1374408710209344 0.26801100116894133
2860000000.0 -0.2274019498602218 0.18615746801959182
2880000000.0 -0.10073073258559449 -0.26901506453732543
2900000000.0 -0.1314034682950714 0.252314332085108
2920000000.0 0.21430600607403316 0.1958960457488763
2940000000.0 0.22945054825208797 -0.1965391959785854
2960000000.0 -0.2681131862161501 -0.15719310197554398
2980000000.0 -0.23810395687741243 0.20634404832582925
3000000000.0 -0.30583360181921665 0.07621874307856465
3020000000.0 -0.27795736025421774 -0.15487536485886386
3040000000.0 -0.0005699123136796801 -0.31656056242839725
3060000000.0 0.29385904620979447 0.0963295585585928
3080000000.0 -0.29363971621645646 -0.04782164566988477
3100000000.0 0.14437848240950735 0.2494428870428701
3120000000.0 -0.06276353187378952 -0.275559595317901
3140000000.0 0.02014487542170653 0.2737771167629006
3160000000.0 -0.07921404763735573 -0.2520561532189582
3180000000.0 -0.0693245852216819 0.24189550926826478
3200000000.0 -0.2287667471437236 0.03942855974750973
3220000000.0 -0.2047669361290851 -0.017826942396884083
3240000000.0 -0.09587843644756724 -0.14533184917389405
3260000000.0 0.022127816496014557 -0.13613872756066303
3280000000.0 -0.08638073559587976 0.051544717539356674
3300000000.0 0.013730085592718665 0.06957550638876804
3320000000.0 0.04106651983540386 -0.005456243779050808
3340000000.0 -0.020020052363790057 0.015674966036571814
3360000000.0 0.010528430794597967 0.007351418139715371
3380000000.0 0.0028068662405377454 -0.0014528511970039134
3400000000.0 -0.009728909332082468 0.009093377335881768
3420000000.0 0.02574260190686004 0.020009320691282514
3440000000.0 0.047653392519247155 0.0035035799177150417
3460000000.0 -0.029610598507739592 0.05352124522003568
3480000000.0 0.05730904262364052 -0.04246322813849057
3500000000.0 0.017628586795130675 -0.08439686584347089
3520000000.0 0.09114221129664535 -0.0411459968879013
3540000000.0 -0.08695662153598979 0.07080637329152377
3560000000.0 0.03925131236044236 -0.11431192009228157
3580000000.0 -0.11950120491866525 -0.058229130627550134
3600000000.0 0.14655754825588052 -0.025456374190462577
3620000000.0 -0.09988729089747769 0.12998705632383173
3640000000.0 -0.1378260241045046 0.11696002222633275
3660000000.0 -0.18877495522562326 -0.008510590092249278
3680000000.0 -0.1953189405067415 0.009891838081230786
3700000000.0 -0.1589169268201716 0.11357194587379944
3720000000.0 -0.1844850298740767 -0.04903299607973598
3740000000.0 0.09575866951051855 -0.15452926956401133
3760000000.0 -0.11755401901020757 -0.13383760397185604
3780000000.0 -0.015327750738671132 0.17487326665354272
3800000000.0 -0.07377196673264777 -0.1525274164697255
3820000000.0 -0.044006023981042745 0.1551938569443269
3840000000.0 -0.01812233258819811 0.1483338641741481
3860000000.0 -0.14473345350924885 0.01420484199730028
3880000000.0 0.09491182308700921 -0.11022564353285215
3900000000.0 -0.00433125945322248 0.1505489975263702
3920000000.0 0.16041057623458657 0.026783734261053925
3940000000.0 -0.06450191469815947 0.16158469532289202
3960000000.0 0.14833910698032018 0.10270198468839152
3980000000.0 0.08168192017210447 -0.1574797580943367
4000000000.0 -0.03162239915281756 -0.16431858494772716
