!Created with skrf (http://scikit-rf.org).
# Hz S RI R 50.0 
!freq ReS11 ImS11
400000000.0 0.5324915306232569 0.6878682493152838
420000000.0 0.8266461150207308 -0.1677361757701899
440000000.0 0.7669264063018123 -0.21247720886987703
460000000.0 0.6923449331280426 0.26675120846458067
480000000.0 0.003449237100065657 -0.6853143590929719
500000000.0 -0.068505434664612 0.5991378051949532
520000000.0 0.0760540279260127 0.5045120819936878
540000000.0 -0.2991493059091034 -0.31780901097024516
560000000.0 0.034378709504275434 0.3955972723004941
580000000.0 -0.33571696328286155 -0.126574959717908
600000000.0 0.34123027740835143 0.07985083795189593
620000000.0 0.1947881991859711 -0.29467059335593576
640000000.0 0.36481773119132876 0.19923003202928713
660000000.0 0.3150238967855881 0.27945971201381975
680000000.0 -0.4444951425152041 -0.0718690054078255
700000000.0 0.4503497058592667 0.08757453225289678
720000000.0 -0.2598279477037151 0.37766958694058483
740000000.0 -0.3070589527383323 0.2868479936326353
760000000.0 -0.09755751170709782 -0.39239436381488785
780000000.0 -0.3629281527660941 -0.10765406772916059
800000000.0 -0.3149194139147619 -0.11733139876559424
820000000.0 -0.1607523474098016 0.2322167775190283
840000000.0 -0.10827217147869944 -0.18457604879859954
860000000.0 -0.1763693283501695 -0.019432660696515083
880000000.0 -0.028028815956716434 0.14387251093280326
900000000.0 -0.09750353495550021 -0.002675306559338168
920000000.0 -0.042525241479503734 -0.034341174898098965
940000000.0 -0.02863168693516851 -0.018992707535133862
960000000.0 -0.03420137618457447 0.017163672216226247
980000000.0 -0.0018187156593989949 0.05969704464875637
1000000000.0 0.02702986275837925 -0.09298318751151353
1020000000.0 0.06089658450314538 -0.10276634761314296
1040000000.0 -0.12703564284112723 0.03917441605541792
1060000000.0 0.12590170680862825 0.09697944429353
1080000000.0 -0.12765154981942564 0.1312804312162217
1100000000.0 0.05958101652810325 -0.1981240484045238
1120000000.0 0.2285533401963658 -0.0006946890666625463
1140000000.0 -0.24656535523314851 0.05574037514566893
1160000000.0 -0.25569603647565375 -0.11158717746694433
1180000000.0 -0.013803240477229889 -0.31039284553671703
1200000000.0 0.31173425423618617 0.15500859862765315
1220000000.0 -0.34738521820706547 -0.1479680234673267
1240000000.0 0.35971996917359284 -0.17182288355164455
1260000000.0 -0.4091217768242333 -0.007286664485731698
1280000000.0 -0.33838684061576146 0.25472586323449886
1300000000.0 0.4034026723960989 0.1477777237950102
1320000000.0 0.419554732561177 0.09219647999009258
1340000000.0 0.04885384904637704 0.4337801503762296
1360000000.0 0.35162836276484505 0.2739848365360573
1380000000.0 0.050219660106530305 -0.4357790599787231
1400000000.0 -0.2740458133664124 -0.3292933779114272
1420000000.0 0.16315270707697685 0.3729028702491351
1440000000.0 0.24007078028081702 -0.2885486721497704
1460000000.0 0.17785135911510083 -0.2919457654753599
1480000000.0 -0.23015085144934527 -0.2129133704365966
1500000000.0 -0.08636665659158166 0.26924468742650776
1520000000.0 -0.17318845321805215 0.18218745825753674
1540000000.0 0.12215458506959001 0.18836574373309703
1560000000.0 -0.07627034623207904 0.18015354401466202
1580000000.0 -0.14935590058786224 0.08915515190371308
1600000000.0 0.08299714773745652 0.11177278204154473
1620000000.0 0.01799270902480146 -0.0993225313716389
1640000000.0 -0.06964227348295197 0.03310121113710151
1660000000.0 0.023045173005248793 0.059377119874666665
1680000000.0 0.035711063717811756 0.023232454195584406
1700000000.0 0.02201633111682312 0.004126162132415698
1720000000.0 0.002585355055965367 -0.008714474478332058
1740000000.0 0.006895220820369772 -0.010056946821136378
1760000000.0 0.02705451217870761 -0.006966734494702783
1780000000.0 0.05227388193582546 -0.009427359986535315
1800000000.0 0.05953466819649653 0.07355411757152573
1820000000.0 0.05084862473937727 -0.1149700717056892
1840000000.0 -0.03517660193060849 0.15782228482058516
1860000000.0 -0.10076116023534715 0.17356656959871694
1880000000.0 0.18802518425702924 0.14659059960770351
1900000000.0 0.03718026043295607 -0.2779706317446284
1920000000.0 0.27510002222875135 -0.16716829035963787
1940000000.0 -0.3259576846664206 -0.11078047347660905
1960000000.0 -0.3286434006186488 0.16644305118651156
1980000000.0 0.3976308843253368 -0.019380690796948888
2000000000.0 -0.034851557932961554 -0.41555041588939984
2020000000.0 -0.2583699060748576 -0.3382163832137345
2040000000.0 -0.08823697712708829 0.4235907650712404
2060000000.0 0.08814069897104777 0.42573096604465316
2080000000.0 0.3088148448073386 0.3040703187074828
2100000000.0 -0.0022818710190142654 -0.4272418665211582
2120000000.0 -0.14623216307186387 -0.3878411393387929
2140000000.0 -0.0014378401164690008 -0.3965512319709953
2160000000.0 0.2863288872208839 -0.25283942362158845
2180000000.0 0.3332129157970721 -0.16297418797111712
2200000000.0 0.3056812854758165 -0.19241587795013618
2220000000.0 -0.3030259272119692 -0.1784710509089962
2240000000.0 -0.26564205180899614 -0.22223960590175645
2260000000.0 -0.33821889104418806 -0.06971067709671433
2280000000.0 0.1805655408280115 0.2966227310142388
2300000000.0 0.19625721061908413 0.2944791397898901
2320000000.0 0.18820819818909912 0.3254766747950147
2340000000.0 -0.012639374268829983 -0.4090220499512456
2360000000.0 -0.40278534364937596 -0.1970250638245192
2380000000.0 0.06787888633918804 0.49339445049568076
2400000000.0 -0.5062878813979881 0.23214882829321862
2420000000.0 0.5604520145602601 -0.23851523208333042
2440000000.0 -0.560816473481122 0.33959156356152664
2460000000.0 -0.6448069669992248 -0.27129211507450673
2480000000.0 0.6182009918290142 0.3914711523019657
2500000000.0 -0.33762514157035584 -0.6732002192792013
2520000000.0 0.7271834890875113 -0.24270339107648442
2540000000.0 -0.5230671799886351 -0.5663555422751565
2560000000.0 -0.4165301893902242 0.6456587353174404
2580000000.0 0.011293351452535271 -0.754263777129756
2600000000.0 -0.7331712449184287 -0.00991646800761687
2620000000.0 0.03862360768227289 0.706394287337536
2640000000.0 0.49204090159796865 -0.45482591587372995
2660000000.0 -0.5362218321085228 -0.3306990341260858
2680000000.0 -0.11791949756707887 0.57140135923766
2700000000.0 -0.35569452231816273 -0.3944280343288256
2720000000.0 -0.10748837956993142 0.47105199126161207
2740000000.0 0.43136930297268045 -0.05080448311063625
2760000000.0 -0.36371089830964826 0.14748016954143656
2780000000.0 0.34722130081564334 0.10254314855245882
2800000000.0 -0.2540647436070717 -0.22273779753620981
2820000000.0 0.10582119148361387 -0.29903091143288035
2840000000.0 0.060673555005086095 0.30222151083002297
2860000000.0 -0.24087101147464748 -0.17808328957846292
2880000000.0 0.00965854991868011 -0.2924307270205769
2900000000.0 -0.2905425082502474 -0.00035940057112468586
2920000000.0 -0.21550453189502095 0.20427609927849155
2940000000.0 0.18589524059540025 -0.24624274981545166
2960000000.0 -0.10200099077160535 -0.2995074597315831
2980000000.0 -0.2519887931859489 -0.19379569245242373
3000000000.0 -0.3181582293369766 -0.003640777840323292
3020000000.0 0.288352912189435 0.14075740774954532
3040000000.0 0.31498455375225326 0.05599358722454487
3060000000.0 0.24885139414231594 0.18972119390924186
3080000000.0 0.20823011865327384 -0.21857165343872123
3100000000.0 -0.04740466558530903 0.2883323135081107
3120000000.0 -0.15781918135427983 -0.23726371526971723
3140000000.0 -0.260846967561576 0.08870273782793846
3160000000.0 0.1300451045718329 -0.2300496250298463
3180000000.0 -0.22293407243797236 0.11281313054504465
3200000000.0 0.2263416950494478 -0.06588401858172169
3220000000.0 0.05810021933772679 -0.202686746484282
3240000000.0 -0.12470207110770243 -0.126926244168437
3260000000.0 0.0518118356436753 -0.13698397678363247
3280000000.0 0.10061909904174418 0.012052681727617214
3300000000.0 0.009204828415447428 -0.06654396325495457
3320000000.0 -0.009151020584846186 0.03929942371819566
3340000000.0 0.0203441310040472 -0.011179932709275083
3360000000.0 0.01147228315382604 -0.003263402356386277
3380000000.0 0.0010447940388201835 0.0013355611879742261
3400000000.0 0.010970865094405107 0.01076456960285207
3420000000.0 0.034639632233739205 0.00702671671814127
3440000000.0 0.0202795864814113 0.046206906568297464
3460000000.0 -0.0015679004462672056 -0.06487994543787073
3480000000.0 0.06967778160999813 -0.030004311471078234
3500000000.0 0.004266105890918616 -0.08604666350239366
3520000000.0 0.05839594590758817 0.08045113979451875
3540000000.0 -0.06032286718276951 -0.09580377506661993
3560000000.0 -0.026737147364548998 0.11651892263344012
3580000000.0 0.13365574012621106 -0.013134045489387314
3600000000.0 0.10372160777923084 0.1146913302315781
3620000000.0 -0.08348805528296543 -0.14091638469749407
3640000000.0 -0.18100401818966727 -0.006855932464051104
3660000000.0 -0.18775174940294995 -0.023834848250610656
3680000000.0 0.026176362686077814 -0.19006004412330146
3700000000.0 -0.06210861035650644 -0.18255164232487206
3720000000.0 0.10216008906715257 -0.16141507054726223
3740000000.0 0.11867724148900584 0.1409736094083207
3760000000.0 0.01234609744947456 -0.1802744268110836
3780000000.0 0.10981927881205973 0.13640812132746816
3800000000.0 -0.0707810875430138 -0.1514520468131239
3820000000.0 -0.11715389607983487 0.10312065626555474
3840000000.0 -0.10598224997544582 -0.10052094091554047
3860000000.0 0.08850698389240322 -0.11212876636691212
3880000000.0 0.10706623945319381 0.09862516392771278
3900000000.0 -0.03309340119822017 0.1475602134007031
3920000000.0 0.14235142578775664 0.06348333031593745
3940000000.0 -0.12056097883475238 0.11536836698043279
3960000000.0 -0.08853429197835919 0.1485280983724827
3980000000.0 -0.024028139933579672 0.16891559090854283
4000000000.0 0.16349045669592552 0.0064053553855682125
