!Created with skrf (http://scikit-rf.org).
# Hz S RI R 50.0 
!freq ReS11 ImS11
400000000.0 0.8083788108232743 0.3115868720453821
420000000.0 0.7921775497858641 -0.27730137370222707
440000000.0 0.783486297731978 -0.10556761016252532
460000000.0 0.7050631335953065 0.23701304371436763
480000000.0 0.057623186117438156 -0.6887199231741817
500000000.0 0.2730911740022661 0.5437396373634622
520000000.0 0.36336447218605583 -0.3583029701298205
540000000.0 -0.3579656069381706 0.24125612872736296
560000000.0 0.1912137086303802 0.3340795315507354
580000000.0 -0.26772640168874906 -0.2261438669192399
600000000.0 0.32886648647667943 0.1090615074178255
620000000.0 0.27971831474275904 -0.20959239625905662
640000000.0 0.3262350492521925 0.2523107769967717
660000000.0 -0.4229970596373082 0.07853447550819465
680000000.0 -0.21016505181609663 0.41886224877865624
700000000.0 -0.40878966833126423 -0.2134386156917906
720000000.0 0.24957146444977205 0.3725530137344211
740000000.0 -0.30399342429063897 0.2716619903214529
760000000.0 0.25311483688097947 -0.30738438805737667
780000000.0 0.2638038150774024 -0.28275212630849417
800000000.0 -0.31862264763800013 0.1438493186403174
820000000.0 0.2903765951054491 0.01787504938584996
840000000.0 0.20915111243893464 0.036297458905341085
860000000.0 -0.057524749117159865 0.1494544912928871
880000000.0 -0.11103115380268237 0.07225055231357029
900000000.0 -0.09266709357268031 0.013083785878453968
920000000.0 -0.000747798800115141 -0.05348497275957253
940000000.0 -0.0265745371704348 -0.024227462010248117
960000000.0 -0.03276610517546409 -0.01968574165563554
980000000.0 0.0539717763388329 -0.037648552676787975
1000000000.0 -0.016571762567993923 0.10007043350737523
1020000000.0 0.0598008226820866 0.11502876592289998
1040000000.0 0.13417535131405392 0.043921923136025796
1060000000.0 -0.12856734689551577 -0.09889610302167078
1080000000.0 0.15326544206519524 0.09138472111892587
1100000000.0 -0.14283126836967208 -0.1423434211657412
1120000000.0 0.21747041061070213 0.06500282889602826
1140000000.0 -0.25259447632525833 -0.004425059460126098
1160000000.0 -0.22490654125114862 0.17037820737702628
1180000000.0 -0.31207429648335006 -0.011161788322569692
1200000000.0 0.3341417107585619 -0.08298715191879409
1220000000.0 -0.26443361157837575 0.2643502569688638
1240000000.0 0.2972162774176109 -0.2597763349990733
1260000000.0 -0.36218502617189674 -0.18544873996690636
1280000000.0 -0.2923459843514212 0.30678628614241665
1300000000.0 0.2526687769855327 0.3522143944700244
1320000000.0 0.4283246762930438 0.1018230455686893
1340000000.0 0.36276886705954264 -0.25705882189946766
1360000000.0 0.10983839331219107 -0.4280681014263684
1380000000.0 -0.2498646833302165 -0.3492498014030971
1400000000.0 -0.3596546463289838 -0.21251043825424323
1420000000.0 -0.2299339214852052 0.3276750492878509
1440000000.0 0.20742645651046074 0.31341462112280866
1460000000.0 0.324842562729236 -0.1322852371501694
1480000000.0 -0.3093714240714322 0.09189648249886173
1500000000.0 0.28501371975763884 0.01603490162280146
1520000000.0 0.23111691887638489 0.09042859638159655
1540000000.0 -0.14961772545651214 -0.1579311155431319
1560000000.0 0.11226048370759814 0.15129183248631428
1580000000.0 -0.09299322685924158 0.13344317627133487
1600000000.0 -0.058814482240640224 0.11671716148326264
1620000000.0 -0.09456245602923113 0.04189808978404483
1640000000.0 -0.0663771448484862 -0.05092535565100494
1660000000.0 -0.057257212535662766 0.03799082992388474
1680000000.0 -0.011800882790266474 0.043615471047758744
1700000000.0 -0.01727846669969576 -0.013943730415316482
1720000000.0 -0.0011824177849390938 -0.004946003767182695
1740000000.0 -0.007961018600209426 -0.01359350289126942
1760000000.0 -0.000524834490259209 -0.033041597630070196
1780000000.0 -0.02043165180592269 -0.04919659353197918
1800000000.0 0.08726600932855778 0.01823674989445633
1820000000.0 0.11651552823131327 -0.045385260431344186
1840000000.0 -0.12362314890635473 0.11615130113734852
1860000000.0 -0.1608543534989395 0.13321995067968814
1880000000.0 0.1886205469422543 -0.1597468285539303
1900000000.0 -0.11431671719283647 0.2659652279309882
1920000000.0 -0.1222448776536924 -0.2990099005865321
1940000000.0 -0.1457303495791665 0.31044883066125817
1960000000.0 0.12920941638402605 0.34133633121890666
1980000000.0 0.3822909684708856 0.099563186035813
2000000000.0 -0.12851644093632955 -0.39618257119006023
2020000000.0 -0.4269617525272202 0.03235211586873565
2040000000.0 -0.13330694869289889 0.4176294163427633
2060000000.0 0.4071546270463322 0.1702087360688771
2080000000.0 0.15574024373267567 -0.4081197502207503
2100000000.0 -0.3251892441344502 -0.27800695553173516
2120000000.0 -0.4126939081162082 0.001365041589932113
2140000000.0 -0.3951851679711246 0.001126039150261
2160000000.0 0.2962144527585179 -0.24196981648867177
2180000000.0 0.15949319190491518 -0.3366227776571201
2200000000.0 -0.05997300920092414 -0.35809653553010634
2220000000.0 -0.32612790386403934 -0.1422313735821341
2240000000.0 -0.32315916029716424 0.13652837487231978
2260000000.0 -0.005290073819803064 0.3520720239878088
2280000000.0 0.32901919798373297 0.1274250979069676
2300000000.0 0.32236983177215134 -0.16170183346424566
2320000000.0 0.09452831466633341 -0.3732413839220099
2340000000.0 -0.3818579484729516 -0.16661971972934025
2360000000.0 -0.015098169793935209 0.45775996964006765
2380000000.0 0.07401805929494167 -0.5050779469198294
2400000000.0 0.19187555918761878 0.5301540066064498
2420000000.0 -0.5451920267212922 -0.28545629929975663
2440000000.0 0.6245675759397008 -0.2206004637230666
2460000000.0 -0.2919444269168308 0.6377786145617947
2480000000.0 -0.13217917656603648 -0.7202267704908127
2500000000.0 0.22537255226658404 0.716616273951733
2520000000.0 -0.12946361643681584 -0.7506809756357704
2540000000.0 -0.17321316650669244 0.743644163476996
2560000000.0 0.5954541471786677 -0.4689690026469397
2580000000.0 -0.6924330811862915 -0.27072599964667277
2600000000.0 0.27838248654907305 0.6631176093906223
2620000000.0 0.2725737659272133 -0.6353523620368883
2640000000.0 -0.17982199033543073 -0.6295866750179384
2660000000.0 -0.3241344280016895 0.5186630457871239
2680000000.0 0.5451160685371306 -0.14700929066657004
2700000000.0 -0.4439187807672866 -0.2645641676925213
2720000000.0 0.3348434011025297 0.3288886797587139
2740000000.0 -0.08707257373410927 -0.41107196288746206
2760000000.0 -0.28273963110713407 0.25595855305404963
2780000000.0 0.31210879503612327 -0.1566651995717602
2800000000.0 -0.2815262048455757 0.16163215523570665
2820000000.0 0.25254162933349655 -0.176374694270765
2840000000.0 0.12588267666946087 0.27317231866541986
2860000000.0 -0.21361742700550299 0.19990545794769493
2880000000.0 -0.09425712957916302 -0.2703994833727163
2900000000.0 -0.1348127112858826 0.24901792097602846
2920000000.0 0.22452851327247883 0.1817965592720634
2940000000.0 0.18940480546013724 -0.23331917656615697
2960000000.0 -0.2721394692192735 -0.14729775854712643
2980000000.0 -0.2267824635357635 0.21679199450464684
3000000000.0 -0.29921668842268595 0.09784578124288654
3020000000.0 -0.28766281279899253 -0.1346572611648489
3040000000.0 -0.05451829029106477 -0.3104931460598953
3060000000.0 0.3079937618247517 0.022444932979232005
3080000000.0 -0.2959037136276179 0.028905772534013816
3100000000.0 0.22656898650767865 0.17803664207318204
3120000000.0 -0.08437514163484225 -0.2694129702369469
3140000000.0 0.07114946881456267 0.26535282718932207
3160000000.0 -0.10272373510275756 -0.24365544956262097
3180000000.0 -0.07250518225247228 0.2412215904873443
3200000000.0 -0.23144982110471055 0.023785966930921717
3220000000.0 -0.2005348099857292 -0.047278128350266395
3240000000.0 -0.06117582731182238 -0.16252756795829815
3260000000.0 0.0728294445190943 -0.11671606461053519
3280000000.0 -0.09047824213501905 0.0425281498033476
3300000000.0 -0.03433260232679409 0.06172191869092547
3320000000.0 0.0105040048424279 0.03978168068103601
3340000000.0 -0.021353983804160048 -0.012692452532881968
3360000000.0 -0.01009022791024121 0.007421137332768802
3380000000.0 -0.0011957439631565857 0.0034097175189756
3400000000.0 -0.012950226196727968 0.004514478140617792
3420000000.0 0.0037656570813977956 -0.03237341874280387
3440000000.0 0.0335886535640993 -0.034869498883138506
3460000000.0 -0.009017816400286267 0.061437538590197745
3480000000.0 0.026574048985222986 -0.06678554961242142
3500000000.0 -0.04761011915165621 -0.0734617393123555
3520000000.0 0.07787373366676223 -0.06430764874980396
3540000000.0 -0.05588635502152192 0.09838163290793321
3560000000.0 -0.012146659229790862 -0.12107059537738332
3580000000.0 -0.12975660969289346 -0.029902798895982536
3600000000.0 0.14764846799776762 -0.020842607731914257
3620000000.0 -0.09423344234295106 0.13511501437194176
3640000000.0 -0.13653987082985136 0.1182931788737826
3660000000.0 -0.18778744674913816 -0.016924975373083632
3680000000.0 -0.194766529979279 0.010594747925942278
3700000000.0 -0.16396904136295545 0.1050787617514412
3720000000.0 -0.18304522719960686 -0.05336694513795111
3740000000.0 0.08562718639969447 -0.15990713487905844
3760000000.0 -0.12850508594133728 -0.12325823872981996
3780000000.0 0.022483339088206964 0.17391776399482065
3800000000.0 -0.08080659820760457 -0.14966095700887472
3820000000.0 -0.021909346372325677 0.1602757759464773
3840000000.0 0.03219831284956221 0.14594640817581592
3860000000.0 -0.1341052263245599 0.053690380198235424
3880000000.0 0.07946285224243171 -0.12112211736586154
3900000000.0 -0.0028936240521311245 0.150053598822415
3920000000.0 0.16075286610534162 0.024701086904698914
3940000000.0 0.007342465932777353 0.172784351160439
3960000000.0 0.16938016051256133 0.06215397221658211
3980000000.0 0.04331261504689459 -0.17230390813970237
4000000000.0 -0.06570095377477839 -0.15373773368375604
