!Created with skrf (http://scikit-rf.org).
# Hz S RI R 50.0 
!freq ReS11 ImS11
400000000.0 0.81460466709475 0.29473653641852027
420000000.0 0.7688109924939931 -0.33685984983385925
440000000.0 0.7770703022515175 -0.14972874169798667
460000000.0 0.716129124069169 0.20407143063494393
480000000.0 0.0397302973330501 -0.6903201598985147
500000000.0 0.300234049974611 0.5293815884719268
520000000.0 0.3247865127569867 -0.3928219060754889
540000000.0 -0.37946264459986984 0.20364246766361588
560000000.0 0.14010389997004738 0.3577143474504372
580000000.0 -0.21035477481513884 -0.2785642356019937
600000000.0 0.29385576940275704 0.18285263722597714
620000000.0 0.3212549474524469 -0.14200974328506694
640000000.0 0.34562941155515253 0.23105328211941203
660000000.0 -0.37858305211097737 0.21070343601809688
680000000.0 0.004044786591212069 0.46780219611067575
700000000.0 -0.39788514876497977 -0.22575762607082728
720000000.0 0.10517872855644543 0.4346644458244096
740000000.0 -0.3726509028995957 0.16718347615157467
760000000.0 0.28548833796149314 -0.2793328746019527
780000000.0 0.24639020969258318 -0.299711861712114
800000000.0 -0.2536681289058902 0.24128657457481584
820000000.0 0.2600106721961753 -0.12697241100904735
840000000.0 0.20927755218289068 0.00890364402878981
860000000.0 -0.134408333037052 0.08587044602681995
880000000.0 -0.13296438936337684 0.011765974729094065
900000000.0 -0.08099851885275852 0.051144511355325384
920000000.0 -0.047136035656829785 -0.02673577138347992
940000000.0 -0.03406621500403255 -0.010485342747868866
960000000.0 0.03568181780618787 0.010691261004893822
980000000.0 0.038468293345681186 0.05382763427395662
1000000000.0 -0.053544158832625526 0.0880955906516416
1020000000.0 0.11506470548219273 0.06389178024325678
1040000000.0 0.13542124649058307 -0.040681643275248695
1060000000.0 -0.16027820581006347 0.018167480965068077
1080000000.0 0.1653349766170432 0.06197927541507926
1100000000.0 -0.09336938735357753 -0.17850613638752566
1120000000.0 0.1628824870501401 0.15955710733103054
1140000000.0 -0.24247167347856757 -0.07792504013116125
1160000000.0 -0.21926198793403182 0.18022045806764553
1180000000.0 -0.3116371642762028 0.016691034324941265
1200000000.0 0.3337998831954549 -0.0796330322143769
1220000000.0 -0.31237773752622777 0.2034128429313607
1240000000.0 0.3601484639404899 -0.1609813045149235
1260000000.0 -0.31022278264168096 -0.26449510119384717
1280000000.0 -0.32083614545959416 0.27823263004865995
1300000000.0 0.2849384297427008 0.3268638993647908
1320000000.0 0.4383188466511974 0.028207145612349188
1340000000.0 0.3314878081346693 -0.2942211002598045
1360000000.0 0.1302994050922415 -0.4210150746223807
1380000000.0 -0.21399846786240487 -0.37130060165531015
1400000000.0 -0.3335767365957839 -0.2516544981803111
1420000000.0 -0.259421689623029 0.3065988016260689
1440000000.0 0.23929856309906486 0.2919647903885308
1460000000.0 0.27079419701128576 -0.22501210005222191
1480000000.0 -0.2493617481005683 0.20368568844523854
1500000000.0 0.2794022756062879 0.05013546079870681
1520000000.0 0.15394841780550084 0.19322010419126046
1540000000.0 0.026672014785797178 -0.21680137657909226
1560000000.0 0.0554852060332814 0.18160833994664305
1580000000.0 -0.10882684332523539 0.12241061618776168
1600000000.0 -0.05686123290144976 0.11905692480714271
1620000000.0 -0.03776736204214961 0.09654913963855205
1640000000.0 -0.08168014244007675 0.010166525997403166
1660000000.0 0.0029340967473688055 0.06684264581156339
1680000000.0 -0.0067884982541697066 0.042674594781664715
1700000000.0 -0.021403473461510544 0.004942700392717496
1720000000.0 -0.006217947140638246 -0.0005470428253800184
1740000000.0 -0.00943455682892129 0.011786515839853434
1760000000.0 -0.019583537443602722 -0.024463700833063533
1780000000.0 -0.014157957767639123 -0.050336154644779064
1800000000.0 0.05544817908918736 0.06916872196157878
1820000000.0 0.12535531492078336 -0.00842740140380798
1840000000.0 -0.1305736006382285 0.10913417373038686
1860000000.0 -0.1326001044377755 0.1619167198191058
1880000000.0 0.1368195081435309 -0.20617905382192497
1900000000.0 -0.06491081314187383 0.2818309659933731
1920000000.0 -0.14004491670239194 -0.29072664827236727
1940000000.0 -0.14529664688145422 0.31038309410446996
1960000000.0 0.11667126624626496 0.34537078718236924
1980000000.0 0.3715707161751543 0.13347622136557385
2000000000.0 -0.03991108249367884 -0.414968764110641
2020000000.0 -0.4278737825369497 -0.03410203228829363
2040000000.0 -0.13548898316060254 0.4177215525153749
2060000000.0 0.4195615214641585 0.13733683390100335
2080000000.0 0.11556117495374113 -0.4202767022050841
2100000000.0 -0.32529621216026616 -0.2757384266526957
2120000000.0 -0.40997788792611056 -0.03303225904053714
2140000000.0 -0.3889195008532614 -0.06061401341905077
2160000000.0 0.31305056901096434 -0.2186225674947494
2180000000.0 0.14878747147345645 -0.3425226747087087
2200000000.0 -0.12029596003633544 -0.34311322188582055
2220000000.0 -0.3373626388913393 -0.11276477543875414
2240000000.0 -0.30117477001463355 0.1795323139111965
2260000000.0 -0.018490792362223032 0.3499425001764098
2280000000.0 0.2993308371609928 0.18400501416625373
2300000000.0 0.34801749969851303 -0.09442081305232172
2320000000.0 0.13560159207166095 -0.36044128511508394
2340000000.0 -0.3678577090415299 -0.1951277125500035
2360000000.0 -0.0771081524633815 0.45080384163244924
2380000000.0 0.15904808779525975 -0.48399848113073474
2400000000.0 0.09718866877113909 0.5545521172995881
2420000000.0 -0.46742819051834994 -0.3995568523837303
2440000000.0 0.6480943378178038 -0.1336406259608386
2460000000.0 -0.36148949581521533 0.6007806773030475
2480000000.0 -0.07101354944356068 -0.7284828644040443
2500000000.0 0.1367408404821367 0.7392063090213263
2520000000.0 -0.05215874039859531 -0.7607103463216077
2540000000.0 -0.20917119575950027 0.7351932646098717
2560000000.0 0.6326434463638178 -0.4198271239154052
2580000000.0 -0.700146955838695 -0.25363869267895883
2600000000.0 0.2444420685015363 0.6790393377370452
2620000000.0 0.3550975248641067 -0.5950050771598872
2640000000.0 -0.050555884455711506 -0.6548869221938513
2660000000.0 -0.3965518447099786 0.46855167080729626
2680000000.0 0.5571040389381745 -0.10479724915739545
2700000000.0 -0.4506592804226706 -0.2568347646360423
2720000000.0 0.30227903917193705 0.36130554807446075
2740000000.0 -0.04516126005061854 -0.4190848016873114
2760000000.0 -0.30665588080863065 0.22761666436154454
2780000000.0 0.3098444019412281 -0.16179473554843
2800000000.0 -0.2831308698837157 0.15975143207707565
2820000000.0 0.23900201799447052 -0.19530507985700565
2840000000.0 0.1391985079964832 0.26728650103937646
2860000000.0 -0.21590041887375436 0.1987225250574886
2880000000.0 -0.09887082018656558 -0.26959215728550545
2900000000.0 -0.13750653597096432 0.2487138997013692
2920000000.0 0.21669962376909396 0.1927054333339663
2940000000.0 0.21018904877458391 -0.21623917536074955
2960000000.0 -0.26441884334427723 -0.16318886087590986
2980000000.0 -0.2330912848898733 0.2124404088379292
3000000000.0 -0.3014951099989574 0.09387394026886996
3020000000.0 -0.26841385311215077 -0.1711116878154578
3040000000.0 0.0364995111379697 -0.31427704505164433
3060000000.0 0.2962678078697201 0.08784870352541464
3080000000.0 -0.2949159345901752 -0.03856649890371425
3100000000.0 0.2058948085625696 0.20200832072901628
3120000000.0 -0.1200721806827176 -0.25644432819527135
3140000000.0 0.041317686977267246 0.2714798010657643
3160000000.0 -0.09373482173340418 -0.24696290323107753
3180000000.0 -0.06221191243583765 0.2437033689719971
3200000000.0 -0.22805555096451507 0.04366963493794819
3220000000.0 -0.2053858620267225 -0.002423600816644776
3240000000.0 -0.1008997372604419 -0.14173824255898618
3260000000.0 0.015466472518097088 -0.13728237088379203
3280000000.0 -0.08908650171581671 0.04717913098944096
3300000000.0 0.03199217435523949 0.06344506664695561
3320000000.0 0.04110370704457326 -0.0067364977851991185
3340000000.0 -0.011537776740906376 0.02283109544357511
3360000000.0 0.012737301048151798 -0.0031032129568068154
3380000000.0 -0.0029367920500777745 0.001551760044389946
3400000000.0 0.00222188506780289 0.012971245486294854
3420000000.0 0.03198971532665116 0.006097969738396839
3440000000.0 0.046969019446314056 0.007419229040547982
3460000000.0 -0.004434768272564687 0.061137553707443455
3480000000.0 0.06070125748519927 -0.037318930803139146
3500000000.0 0.025210793721076895 -0.08219737086020348
3520000000.0 0.09406364095627792 -0.03475260904028606
3540000000.0 -0.08388268491319174 0.07445799535354457
3560000000.0 0.04006879788955851 -0.11406795226144895
3580000000.0 -0.12460891636280778 -0.046639725393734566
3600000000.0 0.14524689838285507 -0.03097298152007074
3620000000.0 -0.09167448344652375 0.1357034139724369
3640000000.0 -0.12336863922043548 0.13243080818194075
3660000000.0 -0.18906568256525996 -0.0048853293808488515
3680000000.0 -0.1934470527792517 0.027258281141834984
3700000000.0 -0.1533877101864107 0.12060137172129845
3720000000.0 -0.188601375769017 -0.03207495751118193
3740000000.0 0.09239552403731907 -0.15668237584334507
3760000000.0 -0.12829798063120793 -0.12338199231745682
3780000000.0 0.018935371586748947 0.17377330771895141
3800000000.0 -0.08212378421815726 -0.14861575745485228
3820000000.0 -0.049172677415241034 0.15424795569618832
3840000000.0 -0.02728989236956637 0.1473363642249039
3860000000.0 -0.14564829906185128 -0.006823159393908035
3880000000.0 0.10550566868308316 -0.10076598598724172
3900000000.0 -0.003461985887471402 0.1510343703663778
3920000000.0 0.15963316895588345 0.033666561223648896
3940000000.0 -0.06319284961990564 0.16198777111379156
3960000000.0 0.14542480663749824 0.10751756473279307
3980000000.0 0.08049910287404348 -0.1584760581592291
4000000000.0 -0.05938258261041477 -0.15692263480033675
