!Created with skrf (http://scikit-rf.org).
# Hz S RI R 50.0 
!freq ReS11 ImS11
400000000.0 0.5366035911753608 0.6833148608321054
420000000.0 0.8215206263286706 -0.18384712484319543
440000000.0 0.7600169777628745 -0.232867099157595
460000000.0 0.6974570258078768 0.25128813005765566
480000000.0 0.014854467711502494 -0.6847130694747926
500000000.0 -0.07453355878010325 0.597637593139242
520000000.0 0.05595500040200269 0.5066117116689193
540000000.0 -0.3141647641233238 -0.3026471718699549
560000000.0 0.08991529833769456 0.38684927617846326
580000000.0 -0.3569341752257566 -0.04140755614040982
600000000.0 0.35208374643849394 0.010983365754997643
620000000.0 0.1795384266506737 -0.3064860041962688
640000000.0 0.3356667002519602 0.24846119709846903
660000000.0 0.20183902360220302 0.3720083191094459
680000000.0 -0.4101119516728942 -0.188121731509784
700000000.0 0.42543485773520845 0.17153767032495423
720000000.0 -0.34878634915085155 0.2964205440412819
740000000.0 -0.35193284729849433 0.22768744971390245
760000000.0 -0.08472094331550191 -0.3941135328514532
780000000.0 -0.36680499315188486 -0.08920974003968198
800000000.0 -0.32447065191475016 -0.08441210442678136
820000000.0 -0.10838557704597664 0.25985182614506225
840000000.0 -0.1402207389014463 -0.1609320981573305
860000000.0 -0.17609365432279714 0.02001821005157376
880000000.0 0.01122084099748331 0.14669742955338022
900000000.0 -0.09655791513601837 0.02156541812814355
920000000.0 -0.040692261438304275 -0.038146285087041314
940000000.0 0.014443412940360069 -0.03215743303705332
960000000.0 -0.0038146305117069557 -0.03766443756250726
980000000.0 -0.021949418200048348 0.054471696848266624
1000000000.0 0.010921138593606897 -0.0946715740125193
1020000000.0 0.021539785478552672 -0.11621712671119556
1040000000.0 -0.10601911639756116 0.07897403606357699
1060000000.0 0.14547716233227248 0.06397293206241966
1080000000.0 -0.12785774596819627 0.13187042057299447
1100000000.0 0.06243547291661945 -0.19792013671935535
1120000000.0 0.22651169022314047 0.03560738729799578
1140000000.0 -0.25192058256411326 0.028456332454281592
1160000000.0 -0.21902543765521276 -0.17316143221549765
1180000000.0 0.032065508959281966 -0.3087829677863768
1200000000.0 0.28216823904328525 0.20352211333643977
1220000000.0 -0.3243093521571892 -0.19256375703025758
1240000000.0 0.37361445738001986 -0.13809813411166041
1260000000.0 -0.4081480654402615 -0.025176769076296443
1280000000.0 -0.3381810946452861 0.25421179075945066
1300000000.0 0.4063732827246105 0.13808273578870983
1320000000.0 0.42071721617519947 0.08524906739788592
1340000000.0 0.07573552960078705 0.4298055537970461
1360000000.0 0.3613287803695508 0.2616129635816463
1380000000.0 0.039356950962061016 -0.43761117545305406
1400000000.0 -0.27352684136678657 -0.3306560263521237
1420000000.0 0.14371442805599097 0.3816766597811468
1440000000.0 0.26295688978508147 -0.268687723038531
1460000000.0 0.20891674654955486 -0.2715624605119276
1480000000.0 -0.17973914837120228 -0.25747205854305366
1500000000.0 -0.11557866313332604 0.2587719757037713
1520000000.0 -0.20960038516372678 0.14082821800183248
1540000000.0 0.07719259358846084 0.2112016625384462
1560000000.0 -0.12947797022679444 0.14672653673560562
1580000000.0 -0.1728976206994048 0.01782772247785362
1600000000.0 0.042202387092752855 0.13244013830812548
1620000000.0 0.06159448130315299 -0.07970916574500651
1640000000.0 -0.07639830288892983 0.0063991075848890125
1660000000.0 0.01696319283678962 0.060386823319728604
1680000000.0 0.041755725873709744 -0.0005381195821787121
1700000000.0 -0.02073575902033936 -0.006725656665042321
1720000000.0 -0.005715580851059037 0.00604884923340299
1740000000.0 -0.008317528360603935 0.007948862496240081
1760000000.0 0.017355162745766095 0.020986869663937157
1780000000.0 0.04828628700777662 0.02073760954078301
1800000000.0 0.03569433548776286 0.08673170172680887
1820000000.0 0.06470134668148873 -0.10678451809152319
1840000000.0 -0.04385471306955114 0.15488951190342712
1860000000.0 -0.09047345743376811 0.17847250363403439
1880000000.0 0.18966995443774684 0.14367838224937726
1900000000.0 0.017521883901550257 -0.2795175860969115
1920000000.0 0.26017016193461934 -0.18912011016575986
1940000000.0 -0.3350213926660343 -0.07850289374627971
1960000000.0 -0.31592598889715867 0.18971373604409772
1980000000.0 0.3970112647381304 -0.03407088389169608
2000000000.0 -0.04414911222090597 -0.4151914317415823
2020000000.0 -0.26481321295263643 -0.3338102204877993
2040000000.0 -0.08468904665513617 0.42503493091689903
2060000000.0 0.056250607314335024 0.4321334166659558
2080000000.0 0.2888543310322734 0.32423221221262494
2100000000.0 0.02194869470603563 -0.42735975178016367
2120000000.0 -0.11484473398812751 -0.3991727136901817
2140000000.0 0.09161795447767743 -0.38676295135204725
2160000000.0 0.319676881747181 -0.210623073971762
2180000000.0 0.36076501012002093 -0.08930891170682538
2200000000.0 0.33745947134261356 -0.13088231434931072
2220000000.0 -0.2872303065997439 -0.20313311502081727
2240000000.0 -0.21867951033384986 -0.26872319864221206
2260000000.0 -0.3250098294780761 -0.1173150087199281
2280000000.0 0.15052878195220337 0.3134239038132098
2300000000.0 0.15779779359804305 0.31684685719130407
2320000000.0 0.15268626320627893 0.34348662196884133
2340000000.0 0.014387790022506744 -0.40907795527020013
2360000000.0 -0.39004287476356236 -0.22074788604406145
2380000000.0 0.06350178756414807 0.4940151428842229
2400000000.0 -0.5217019094867213 0.19572465455510002
2420000000.0 0.5599141632939806 -0.24047178569055389
2440000000.0 -0.5836368772559233 0.30012358928681937
2460000000.0 -0.6432506038443512 -0.2764277822852483
2480000000.0 0.6380819503024201 0.3590732217169477
2500000000.0 -0.3453685185610999 -0.6700487063157984
2520000000.0 0.7361904987928697 -0.21671438733049772
2540000000.0 -0.5189546552514044 -0.5713913823841829
2560000000.0 -0.46518069890265185 0.6127244088469985
2580000000.0 0.0519796060336699 -0.7532917371480924
2600000000.0 -0.7283373948683471 -0.09358627178096635
2620000000.0 -0.05830452379521974 0.7061427258241825
2640000000.0 0.5339003214716286 -0.40641155570039905
2660000000.0 -0.4778333850016365 -0.41161718274360176
2680000000.0 -0.14431601467982655 0.5661637801845214
2700000000.0 -0.31579926108807155 -0.4276016775778945
2720000000.0 -0.162245338924544 0.4555004391309394
2740000000.0 0.43413212677308366 -0.022572253576806738
2760000000.0 -0.3718029006599784 0.12634869355218065
2780000000.0 0.33896573123441326 0.12822131761487215
2800000000.0 -0.2437486301903471 -0.23462066660915784
2820000000.0 0.10793151248347799 -0.2987098469902287
2840000000.0 0.05469945771164359 0.3039102584082212
2860000000.0 -0.24412333094967462 -0.17407017532659497
2880000000.0 0.024292295871111536 -0.2920894086190464
2900000000.0 -0.2899052513506509 -0.02520088027312511
2920000000.0 -0.23527908443276227 0.182046458682444
2940000000.0 0.2107844659827699 -0.2260930315373639
2960000000.0 -0.039520479988744035 -0.3143811932667184
2980000000.0 -0.2396200747322618 -0.20934224598457896
3000000000.0 -0.31276870021901515 -0.056035223682673274
3020000000.0 0.26367974820497564 0.18324747585022513
3040000000.0 0.2906334907182126 0.13321666133952595
3060000000.0 0.21958535010624175 0.22251165905710693
3080000000.0 0.23098564290184173 -0.19373392513916388
3100000000.0 -0.09452134966600051 0.27609386750268405
3120000000.0 -0.14857309265697669 -0.2428169409041863
3140000000.0 -0.2705944967202247 0.0473139028189219
3160000000.0 0.12338739899678496 -0.2331871775888196
3180000000.0 -0.21272500509789113 0.13000682107132855
3200000000.0 0.22196611948603637 -0.07780802849776858
3220000000.0 0.03934035925074231 -0.2066357042021113
3240000000.0 -0.1433616770484013 -0.10483196422871802
3260000000.0 0.008055128885804059 -0.14631804222047942
3280000000.0 0.08237876511977803 -0.05931487299721713
3300000000.0 -0.06083038749255136 -0.029626587774821297
3320000000.0 0.03568519864534655 0.01923619489292379
3340000000.0 -0.015362293793874693 0.017210610138366347
3360000000.0 0.011656307452543169 -0.001097661699614417
3380000000.0 -0.0014022839001422858 0.001458153706788258
3400000000.0 0.015218162596041111 -0.0024520333976847286
3420000000.0 -0.021670678152238547 0.02739553449133562
3440000000.0 -0.043654651971376746 0.024623696807975822
3460000000.0 0.056794939598485 -0.03049440028820865
3480000000.0 0.07055847749143697 0.026366106271987443
3500000000.0 0.07032374134455666 -0.04829830887502985
3520000000.0 0.009622967300897801 0.09814679355085014
3540000000.0 -0.04016883051133637 -0.10534652751087051
3560000000.0 -0.0664156649668677 0.09859680949189399
3580000000.0 0.12656951823190626 0.04349724733845567
3600000000.0 0.02731955456069022 0.15070560774984013
3620000000.0 -0.06589092534537216 -0.1492853332794504
3640000000.0 -0.16324520567447368 -0.07345822510060333
3660000000.0 -0.17312428367415325 -0.07230278544196307
3680000000.0 0.06531081714842306 -0.17877003388844845
3700000000.0 -0.038499935719610814 -0.1873043660309848
3720000000.0 0.10574909893432138 -0.15782883029262437
3740000000.0 0.1238166759410765 0.1345120248911231
3760000000.0 0.008491145510444107 -0.1789928688850716
3780000000.0 0.10771364294755693 0.13647019516644332
3800000000.0 -0.0737576519484656 -0.14848877135241312
3820000000.0 -0.10335095842898644 0.11517341525555577
3840000000.0 -0.11452576622819743 -0.08792572260570766
3860000000.0 0.07218761231536495 -0.12151156562887343
3880000000.0 0.11219831767562292 0.09025887002069252
3900000000.0 -0.009935345723681216 0.14924913146529575
3920000000.0 0.14707564989146324 0.04697970733288539
3940000000.0 -0.10775044616428665 0.12627292941970536
3960000000.0 -0.07036103325271027 0.1568280594607371
3980000000.0 0.012487291067463886 0.16893650860690215
4000000000.0 0.15836170419897752 -0.03630093009737281
