!Created with skrf (http://scikit-rf.org).
# Hz S RI R 50.0 
!freq ReS11 ImS11
400000000.0 0.4195796224695579 0.7626018190005754
420000000.0 0.8448457004499603 -0.010925919713382682
440000000.0 0.797754237291008 -0.03555031493042314
460000000.0 0.6616346620111477 0.3423495996169926
480000000.0 0.05100528527620325 -0.6852720067918457
500000000.0 0.013041485066867125 0.605274670691016
520000000.0 0.20767173989986684 0.4690351216330344
540000000.0 -0.43487697106860473 -0.05739749837806594
560000000.0 0.2929902737512263 0.26912691859301624
580000000.0 -0.25055845043929126 0.2577364281774425
600000000.0 0.17920612614373835 -0.2988123355806536
620000000.0 -0.12754953054842252 -0.3269236430952906
640000000.0 0.39211378080517517 0.10874760273195719
660000000.0 0.2333446838614795 0.34263811081569834
680000000.0 -0.10280792903648421 -0.4272131646565464
700000000.0 -0.09124640071046439 0.44803926129606897
720000000.0 -0.4207092601306199 -0.19273415760755921
740000000.0 -0.41207364882290753 0.11886420882571228
760000000.0 -0.1907444646522008 -0.36636518934423257
780000000.0 -0.3165580027581894 0.2181505855094794
800000000.0 -0.12028935375496819 0.3197172302859176
820000000.0 0.2736925256871684 0.06481801203879936
840000000.0 -0.0897368290680328 0.18575427708516795
860000000.0 -0.15935143681350952 -0.050896354959043544
880000000.0 -0.12334985997616356 -0.06644647859153698
900000000.0 0.07070967615935547 0.060628723243595896
920000000.0 -0.009886016226809543 -0.05157640035802885
940000000.0 -0.01717854929929626 -0.029257822019529728
960000000.0 0.022795949303967916 -0.025048089187646276
980000000.0 -0.05338421624515167 -0.01567819632025494
1000000000.0 -0.05066140815729181 0.07980105515981586
1020000000.0 -0.025196253436086544 0.11668726565547488
1040000000.0 0.03907540591705662 -0.12884228232624512
1060000000.0 -0.12582608244768848 0.10214645412481997
1080000000.0 -0.1196822168885597 -0.14835504767707958
1100000000.0 0.13249171862960618 -0.16981634675510374
1120000000.0 0.20700553352518594 -0.11516826832794982
1140000000.0 -0.0468964858357428 0.2555307302111869
1160000000.0 -0.20341398055555415 0.1944528132038453
1180000000.0 -0.2730157230614883 -0.14257026055138827
1200000000.0 0.330671481884593 0.07656462615108733
1220000000.0 -0.23481396393763204 -0.28565213172794945
1240000000.0 0.33414979568896874 0.20729352843987156
1260000000.0 -0.27286905396518596 -0.30302524323670454
1280000000.0 -0.42297150661370125 0.0016823590891806108
1300000000.0 0.1915766947024105 0.3861992322347996
1320000000.0 0.3899592127762754 0.19170518717756307
1340000000.0 0.1755798092851129 0.40315830579033873
1360000000.0 0.4258573377163663 0.13866019148252767
1380000000.0 -0.22117261151168596 -0.3799801225872696
1400000000.0 -0.4111830235897019 -0.11113708043390182
1420000000.0 0.21297745866922965 0.3436492262823433
1440000000.0 0.2831066445025717 -0.2434720957211062
1460000000.0 0.20087184188049856 -0.2777945805827201
1480000000.0 -0.29179455917755753 -0.11435001307783955
1500000000.0 -0.11002046861869287 0.25877262705504994
1520000000.0 -0.24866142333251737 -0.03385115208252589
1540000000.0 -0.1368590059028988 0.18028639203578894
1560000000.0 -0.19697423087670282 0.02827586084976056
1580000000.0 -0.14417455709707896 -0.10441161592809588
1600000000.0 -0.07005930281621736 0.1265955466799271
1620000000.0 -0.04391311488648531 -0.09909919186873142
1640000000.0 -0.028219304969583567 -0.0770271824973145
1660000000.0 0.04897421748630619 -0.041514479963479546
1680000000.0 0.037515708632288765 0.0005393556410118452
1700000000.0 -0.005873488973084039 0.009550920054147122
1720000000.0 -0.006153516653179346 -0.005123234605640044
1740000000.0 0.01721962207261197 -0.01880793813391022
1760000000.0 0.019143230435641395 -0.03248001446884354
1780000000.0 0.050801113645613204 0.013259419857341822
1800000000.0 -0.07167628092979716 0.049282466060196886
1820000000.0 -0.06747265237932708 -0.09233801359692329
1840000000.0 -0.14716595957480333 -0.03484126311064852
1860000000.0 -0.13766848213778618 -0.13832703061247248
1880000000.0 -0.18049690505805646 0.15371632060043433
1900000000.0 0.276366722382954 -0.05415290414760044
1920000000.0 0.3254069570109353 0.029771275675231017
1940000000.0 -0.32570517558711054 -0.1273465148508235
1960000000.0 -0.24685290595687676 0.2797291452565374
1980000000.0 0.29451598236714077 -0.2744127925198176
2000000000.0 -0.3275757385776978 -0.2593140472758654
2020000000.0 -0.4199936753201292 -0.06306146116184601
2040000000.0 0.0674936682321268 0.42390853441110266
2060000000.0 0.06368578633219689 0.4260265419782897
2080000000.0 0.06818826423917942 0.4247628046174027
2100000000.0 0.2997330310409322 -0.3028580607406894
2120000000.0 0.2103140024576742 -0.35839840228786213
2140000000.0 0.3504932888110742 -0.19641352881085847
2160000000.0 0.36416918089402767 -0.1400156925506767
2180000000.0 0.28234854787726593 -0.2507708144486618
2200000000.0 0.15160414617428963 -0.3303489196968087
2220000000.0 -0.3482675409296697 0.032030793054493044
2240000000.0 -0.32588902389841745 -0.09900665382413966
2260000000.0 -0.29842494510513934 -0.1571663400582032
2280000000.0 -0.18765171209478426 0.28605088722244937
2300000000.0 -0.1812678492443917 0.30270262578072016
2320000000.0 -0.0984047367760515 0.36502303686515747
2340000000.0 0.09199010551283064 -0.4019761051307011
2360000000.0 -0.39924408312749793 -0.20737931342817506
2380000000.0 0.08432468226196971 0.4919909900441805
2400000000.0 -0.5105059546266375 0.22348784052816748
2420000000.0 0.5663701201598905 -0.2215249547337564
2440000000.0 -0.5841754392536389 0.29593082283857386
2460000000.0 -0.5935177983135868 -0.3709719756158314
2480000000.0 0.5572137607312814 0.4756461534033173
2500000000.0 -0.19685071714371957 -0.7286357407145491
2520000000.0 0.7683868041469686 -0.027253409103586874
2540000000.0 -0.39213068616409025 -0.6663653178908894
2560000000.0 -0.578132611094651 0.5084698312720008
2580000000.0 0.25419728532766267 -0.7124495204111576
2600000000.0 -0.6957029178536969 -0.23904714921075979
2620000000.0 -0.2734098365380188 0.6544399878725418
2640000000.0 0.6456289453497035 -0.18524670791892336
2660000000.0 -0.27757124705897207 -0.5670464468852199
2680000000.0 -0.3696889998116253 0.454542177240449
2700000000.0 -0.1830249506672221 -0.5009859319942869
2720000000.0 -0.18631830807003877 0.4490100339003534
2740000000.0 0.4119043405114799 -0.14271852103849947
2760000000.0 -0.27865285815246943 0.27452349345819654
2780000000.0 0.359081377786474 0.004022101194282267
2800000000.0 -0.3050535312743843 -0.13529450153829337
2820000000.0 0.13597126878363644 -0.2806991621100261
2840000000.0 -0.17300256918772805 0.25021483090140606
2860000000.0 0.09652469017930822 -0.28406207070900796
2880000000.0 0.24848697403047867 -0.1664568671098266
2900000000.0 -0.29732952893700315 -0.03880604401454064
2920000000.0 0.03255322567482349 0.30291912906639923
2940000000.0 -0.1868184707640198 -0.25035914230701817
2960000000.0 -0.3159288244282137 -0.004724867578113716
2980000000.0 -0.30975887329948765 -0.05547375246859503
3000000000.0 -0.2712406469718996 -0.1586479346399201
3020000000.0 0.03428046598134643 0.31663362784621113
3040000000.0 0.06367109808228785 0.31369540213668146
3060000000.0 0.04174407176812176 0.31314454658282687
3080000000.0 0.3040235035672104 0.029494102123705592
3100000000.0 -0.23383831351352888 0.1841318913329782
3120000000.0 -0.13075318079251347 -0.2580651012065705
3140000000.0 -0.21848012470533998 0.1723042863250215
3160000000.0 -0.037482586295310004 -0.259916132482622
3180000000.0 -0.162025525656439 0.1857893682842925
3200000000.0 0.2065934730667799 -0.10418477713295411
3220000000.0 0.13647986216833444 -0.15450081876879163
3240000000.0 0.07284718399809183 -0.15734191857530197
3260000000.0 0.02589164092810326 0.14174147396401443
3280000000.0 -0.07691837924860583 -0.06993744641033577
3300000000.0 0.042932559205048 -0.058339948150035605
3320000000.0 -0.04283399140945295 -0.015865829783700398
3340000000.0 0.021002007717682465 0.006463519865536144
3360000000.0 0.0043807392939998364 0.0018023206828635715
3380000000.0 -0.004735272492696579 -0.004567132524444344
3400000000.0 -0.017059660600540358 0.007975715291931175
3420000000.0 0.03207110164809137 0.00822965401917229
3440000000.0 0.0004430230817613839 0.045142849813780694
3460000000.0 0.0438515506197184 -0.03861125799718441
3480000000.0 0.013630778713567679 -0.0733480313863159
3500000000.0 -0.08901586875818279 0.001090252250802269
3520000000.0 -0.07572760126633865 0.07341776329929124
3540000000.0 -0.10065896212437683 0.06534425986646782
3560000000.0 0.12182035231102267 -0.01881733035964484
3580000000.0 -0.0848363187365914 -0.10488064130312794
3600000000.0 0.14413165762019275 -0.04114804033369499
3620000000.0 -0.017182993851823904 -0.15827961912750196
3640000000.0 0.0851109696113567 -0.1566534423293356
3660000000.0 0.13321266214839353 -0.13591654759676944
3680000000.0 0.164651605060975 0.10606982577653579
3700000000.0 0.02280674020861033 -0.1978150197965622
3720000000.0 -0.09213811970850745 -0.17277187717496492
3740000000.0 0.1034600124005248 -0.15379483595181934
3760000000.0 -0.16151779678108366 -0.07146354499691304
3780000000.0 -0.04065748181354023 0.16367554825236522
3800000000.0 0.16151498517250723 0.0170407223478216
3820000000.0 0.11784872949717377 -0.10295907325399051
3840000000.0 0.097445267091002 -0.1157175393286974
3860000000.0 0.06028102434606333 -0.13476532343619077
3880000000.0 0.05273571983975346 -0.13718348322411245
3900000000.0 0.10039072628306357 0.10674812287897043
3920000000.0 0.11613921233227262 0.09446098365959087
3940000000.0 -0.08939390133402579 -0.13511122990780383
3960000000.0 -0.10306376863836185 -0.13909057567496186
3980000000.0 -0.1702456101793144 -0.035566331823132
4000000000.0 0.13594992277587378 0.09668626528436657
