!Created with skrf (http://scikit-rf.org).
# Hz S RI R 50.0 
!freq ReS11 ImS11
400000000.0 0.43904133130762835 0.7517981894434963
420000000.0 0.8445647822368934 -0.027002400943822884
440000000.0 0.7979850575881271 -0.032414394035136164
460000000.0 0.6618242005841827 0.3422122046027361
480000000.0 0.06054371597014811 -0.6845225965352557
500000000.0 0.006436605487062842 0.6053511376556531
520000000.0 0.19757074094606578 0.47343391116242395
540000000.0 -0.43215537729707537 -0.07532180214141392
560000000.0 0.3009320357359671 0.2600123893424841
580000000.0 -0.25982751835101964 0.24833947245891475
600000000.0 0.17235842243965785 -0.30294770135896226
620000000.0 -0.13430206641098769 -0.32419453877407756
640000000.0 0.39562038749208256 0.09645557654413617
660000000.0 0.20201038425451132 0.36229355158067644
680000000.0 -0.06714664025422547 -0.43463843861144724
700000000.0 -0.06739646187345377 0.4521384108684286
720000000.0 -0.40677166165795975 -0.22064494787283354
740000000.0 -0.4161708248210602 0.10606763720185342
760000000.0 -0.19019061582332916 -0.36685075194948874
780000000.0 -0.32080248615245255 0.21186340270744533
800000000.0 -0.12973015652160355 0.3160142509889839
820000000.0 0.2723721520727515 0.06959700769093877
840000000.0 -0.08398633638678708 0.18831317569421582
860000000.0 -0.1634043522917212 -0.036480110776990864
880000000.0 -0.13213360423098194 -0.04686829717782284
900000000.0 0.07467393523801974 0.05568756381843774
920000000.0 -0.01591758091318696 -0.04989336972054703
940000000.0 -0.018625410475563372 -0.028258070423849938
960000000.0 0.009809423335600573 -0.032479228645972615
980000000.0 -0.055872950183942734 -0.003632992791829871
1000000000.0 -0.057799075934007973 0.07513143353708178
1020000000.0 -0.035227174023911 0.1140816439350363
1040000000.0 0.05023491411821801 -0.1248531549381627
1060000000.0 -0.1328995700300818 0.09279793344851846
1080000000.0 -0.13278087049918852 -0.1366649596079163
1100000000.0 0.13896624938500346 -0.16453786505312712
1120000000.0 0.190219527760386 -0.14130262799344842
1140000000.0 -0.04445320850249279 0.2560635286617098
1160000000.0 -0.18754200117920133 0.2100480540799002
1180000000.0 -0.27684666547350184 -0.13519098442627187
1200000000.0 0.3319704324037736 0.07156031703825277
1220000000.0 -0.23615725160786522 -0.284712347764817
1240000000.0 0.33057267234264365 0.21317621424826083
1260000000.0 -0.2672764851520702 -0.3079515654787363
1280000000.0 -0.4228574911817954 -0.006642387659086794
1300000000.0 0.17405453523355105 0.3943810024983036
1320000000.0 0.3830401041588207 0.20518180081152296
1340000000.0 0.16495901612321145 0.4074043237630678
1360000000.0 0.4225584807271719 0.1478153526229059
1380000000.0 -0.21694114302849302 -0.38220306781782504
1400000000.0 -0.4090032160721671 -0.11839103368347553
1420000000.0 0.2065872830437197 0.34745741366308436
1440000000.0 0.2890037190001193 -0.2365840495451656
1460000000.0 0.19712953852268011 -0.280359539738173
1480000000.0 -0.26001346893991706 -0.17555784995066354
1500000000.0 -0.09944502415018372 0.263102334402986
1520000000.0 -0.24926957574914918 -0.029785668701506146
1540000000.0 -0.1405296501255768 0.17769762851189172
1560000000.0 -0.19771199835537112 0.024240783537207163
1580000000.0 -0.13998325979284057 -0.11022596897215801
1600000000.0 -0.0849093651326799 0.11724797383022759
1620000000.0 -0.018077962080501834 -0.10680247748824374
1640000000.0 -0.02560766726510366 -0.07796430428010653
1660000000.0 0.049530738282148025 -0.04065061925571645
1680000000.0 0.0373013561248989 0.003879566587624424
1700000000.0 -0.0104244752917719 0.003834722584035123
1720000000.0 -0.008270468343682582 0.00036558899199437203
1740000000.0 0.024963653825901096 0.00404102159677511
1760000000.0 0.02425465294182236 -0.028936168643130485
1780000000.0 0.04650627581876497 0.024044093165286478
1800000000.0 -0.07847222586800785 0.03728444831830563
1820000000.0 -0.06502582176118173 -0.09402339071989768
1840000000.0 -0.14808051565186678 -0.03049737826164505
1860000000.0 -0.13341273863340253 -0.14234722570744862
1880000000.0 -0.17462437301834127 0.16036010128901373
1900000000.0 0.27543469123517766 -0.05811384028965316
1920000000.0 0.32569881949590124 0.025512288313026075
1940000000.0 -0.32740997342966727 -0.12309249997096575
1960000000.0 -0.24357544701179307 0.282478132524047
1980000000.0 0.2862023682481469 -0.28296818815107677
2000000000.0 -0.3330630450119883 -0.25192112273578826
2020000000.0 -0.4186414433627881 -0.0719093449345696
2040000000.0 0.06435009743200756 0.42437168675229114
2060000000.0 0.06233618172223823 0.42633789343599365
2080000000.0 0.0874669815601527 0.42118059567988075
2100000000.0 0.31662329395823025 -0.28544994317330546
2120000000.0 0.2524671377194399 -0.3304562790566897
2140000000.0 0.35193338938665153 -0.19402657459448983
2160000000.0 0.3595131656135717 -0.15160875753726652
2180000000.0 0.27131016912625544 -0.2626616152019437
2200000000.0 0.14371722436934917 -0.33387924380494616
2220000000.0 -0.34352481932730056 0.06711590199149606
2240000000.0 -0.3163515668968039 -0.12704061677730913
2260000000.0 -0.30846143082312727 -0.13681574822337145
2280000000.0 -0.18623247758886557 0.2870969079060529
2300000000.0 -0.20217275553655187 0.28867940493473654
2320000000.0 -0.09284267611266327 0.36653810258376396
2340000000.0 0.085916898990263 -0.4032922049201751
2360000000.0 -0.3932068022484122 -0.21881137785941068
2380000000.0 0.07633987696190239 0.4933398550015814
2400000000.0 -0.5039130668051752 0.23847750983763455
2420000000.0 0.5598796848370303 -0.23768840872680935
2440000000.0 -0.5808330086286713 0.3026801744099599
2460000000.0 -0.6069720024907157 -0.34786904004011476
2480000000.0 0.5702957025908233 0.4596116110828527
2500000000.0 -0.14138910732382154 -0.7417010886644968
2520000000.0 0.7686676881316372 0.02233332433626988
2540000000.0 -0.39063630761965723 -0.6672233738629525
2560000000.0 -0.5916143355840748 0.49302018431686134
2580000000.0 0.17620493798489834 -0.735530254798414
2600000000.0 -0.7044372375421738 -0.21306934795521618
2620000000.0 -0.25700993678876 0.6611736945419071
2640000000.0 0.6441461502507833 -0.1907574321941613
2660000000.0 -0.30609043672163627 -0.5522397050288862
2680000000.0 -0.34079767187574306 0.47676925917887497
2700000000.0 -0.20616031157348785 -0.49219575901003154
2720000000.0 -0.18032295231058593 0.45161607622710653
2740000000.0 0.4238620145684687 -0.10231829570455642
2760000000.0 -0.29179513511349053 0.2601184994465595
2780000000.0 0.35883807695217784 0.0025061453836648763
2800000000.0 -0.30303718492410164 -0.13935041362207704
2820000000.0 0.14221234616226508 -0.27750634320013823
2840000000.0 -0.1753945430076828 0.24838952888732174
2860000000.0 0.11216718875077182 -0.2782770791427614
2880000000.0 0.2483371436179987 -0.16653498847993797
2900000000.0 -0.29614240072275755 -0.0468165916306293
2920000000.0 0.024174471111665104 0.3037871673833717
2940000000.0 -0.20404885521563565 -0.23641073028805787
2960000000.0 -0.3160734878889042 -0.009650684535198885
2980000000.0 -0.3118511323521421 -0.04022705769074695
3000000000.0 -0.2661259187264475 -0.1677170974157809
3020000000.0 0.06167012719952227 0.3125584418369938
3040000000.0 0.07050227060183231 0.3125411544154722
3060000000.0 0.0172009272258837 0.3154078569814542
3080000000.0 0.3034667554582239 0.03478659028320633
3100000000.0 -0.25107667790590754 0.15991093268321174
3120000000.0 -0.14462178797574518 -0.2508692258318324
3140000000.0 -0.22073259096040423 0.16956591365289236
3160000000.0 -0.03495975086667346 -0.26046064605426156
3180000000.0 -0.16445624237884138 0.18382385965910447
3200000000.0 0.21146288452801992 -0.0938894383915122
3220000000.0 0.14381969289947624 -0.14721197441105327
3240000000.0 0.08529762697644946 -0.15094359733165247
3260000000.0 0.020377209208918275 0.1424237707815176
3280000000.0 -0.08800113665595548 -0.05506650586184348
3300000000.0 0.057020725400763514 -0.044496423558727585
3320000000.0 -0.036836759151857704 -0.026552001634339368
3340000000.0 0.02147901549239431 0.003436226891462054
3360000000.0 -0.004245299569535894 0.0017451545267949638
3380000000.0 0.002189241899419934 -0.006668370734150533
3400000000.0 -0.01901221459648531 -0.0002344691582371972
3420000000.0 0.025721426042081975 0.020817680929498598
3440000000.0 0.0006465198522351783 0.04533210982301
3460000000.0 0.05011595710277828 -0.030279525991028112
3480000000.0 0.04213594909436428 -0.06164717401393612
3500000000.0 -0.08944124347363602 0.0020993091953833936
3520000000.0 -0.09274271427900742 0.05066647830717356
3540000000.0 -0.11356857456741651 0.03901544040910252
3560000000.0 0.1233101367468987 -0.008777958281810598
3580000000.0 -0.08399691515845456 -0.10618968110880499
3600000000.0 0.14344627745110677 -0.04594079622862117
3620000000.0 -0.0005604380776093743 -0.15959972171198317
3640000000.0 0.08411682264718928 -0.15786024418573977
3660000000.0 0.13830925095467933 -0.13150410821831293
3680000000.0 0.16444952992431303 0.1066224756910614
3700000000.0 0.0351664893801209 -0.19622420394966392
3720000000.0 -0.08705526391591352 -0.17522816628846774
3740000000.0 0.10659681464367493 -0.1516186888519312
3760000000.0 -0.1621325102441179 -0.0698847328097908
3780000000.0 -0.03685241729676886 0.16428878637168193
3800000000.0 0.1603532480173768 0.024659922297225807
3820000000.0 0.13624965273519093 -0.07738176720438732
3840000000.0 0.10217575678701843 -0.111289821046052
3860000000.0 0.07462928405351602 -0.1273260567366993
3880000000.0 0.06066588400417209 -0.1338885499366447
3900000000.0 0.09941315290109176 0.10751193645299732
3920000000.0 0.11482181770590438 0.09557960396174188
3940000000.0 -0.09730162973182209 -0.12943122928908457
3960000000.0 -0.10805740785838114 -0.13511727678309898
3980000000.0 -0.171054123187114 -0.03185478486502637
4000000000.0 0.12598463879632654 0.10969491817974796
