!Created with skrf (http://scikit-rf.org).
# Hz S RI R 50.0 
!freq ReS11 ImS11
400000000.0 0.4244170605730523 0.7593683254409759
420000000.0 0.8446038643867412 -0.025933745745177546
440000000.0 0.7980923567124706 -0.03154706867880593
460000000.0 0.6604534436206442 0.34511681379765574
480000000.0 0.06452026388063062 -0.684111435890654
500000000.0 -0.0009014276790897338 0.6055821821056575
520000000.0 0.20373097020918174 0.4706631286805389
540000000.0 -0.43353342041900883 -0.06582564741634614
560000000.0 0.3021211399573441 0.25861355058632285
580000000.0 -0.2603080692461953 0.24788367934496436
600000000.0 0.17851237075218765 -0.29939537058807814
620000000.0 -0.13485375037362568 -0.32402277172890487
640000000.0 0.39384938025752525 0.10320633629169924
660000000.0 0.20273913138922958 0.36170291819023465
680000000.0 -0.09337360522260248 -0.42910838741592283
700000000.0 -0.07267507298337371 0.45133132207111804
720000000.0 -0.40524078225276866 -0.22322233300110908
740000000.0 -0.416980150346966 0.1026100798386316
760000000.0 -0.1845152831568749 -0.369764184847955
780000000.0 -0.3172224834425805 0.21699146991097687
800000000.0 -0.12819799031575324 0.31666343689820264
820000000.0 0.2746801023661936 0.06020731284157609
840000000.0 -0.08545431808869096 0.1878774103450137
860000000.0 -0.1648928682973461 -0.029240504430657937
880000000.0 -0.1323646816956866 -0.0463946498888187
900000000.0 0.06889359621179081 0.0631020334030836
920000000.0 -0.01797279937481248 -0.04940041416331679
940000000.0 -0.018837688957883243 -0.02830019746544616
960000000.0 0.006957417058448586 -0.03317628716178746
980000000.0 -0.05583293241050599 -0.003914653752560201
1000000000.0 -0.05547703948679595 0.07675653696591395
1020000000.0 -0.026371943016287883 0.1164649059356693
1040000000.0 0.038589276996265916 -0.12889843490187816
1060000000.0 -0.12457649230477734 0.10375343024759623
1080000000.0 -0.13104314898790653 -0.1384418891504415
1100000000.0 0.13519306005402568 -0.1677035833210601
1120000000.0 0.19248839763170916 -0.13828695689084652
1140000000.0 -0.06136061822718021 0.25243781664187187
1160000000.0 -0.1829377446667271 0.21431373818587796
1180000000.0 -0.27553860712543815 -0.13806912713506825
1200000000.0 0.33055491274042886 0.07714852084545566
1220000000.0 -0.2333040553420321 -0.28687260563624906
1240000000.0 0.3306187190133949 0.2128642857689502
1260000000.0 -0.2716492696275593 -0.3040587046005632
1280000000.0 -0.422862061762997 0.0006934883978648452
1300000000.0 0.17088672648177425 0.395589841928382
1320000000.0 0.3902657652170389 0.19123475727716435
1340000000.0 0.17350041411073247 0.40408651241883103
1360000000.0 0.4248820926833187 0.14129567320401087
1380000000.0 -0.22341395390280033 -0.378728331910863
1400000000.0 -0.409644767115196 -0.11670958437108327
1420000000.0 0.21593864427913037 0.34161033018459713
1440000000.0 0.2849707776891667 -0.24127614066781378
1460000000.0 0.19492492504709014 -0.2818983833809204
1480000000.0 -0.24758220114000676 -0.19253738564531422
1500000000.0 -0.10980352934267928 0.25910784142800325
1520000000.0 -0.2481759212355893 -0.03821930591693626
1540000000.0 -0.13874782499832247 0.17909552629021938
1560000000.0 -0.19672420852833694 0.030355843778800212
1580000000.0 -0.1490582855347802 -0.09748615765958034
1600000000.0 -0.07220559556699596 0.12550463163977282
1620000000.0 -0.042238448352805186 -0.09993787537753095
1640000000.0 -0.032824712240703754 -0.07520281931394203
1660000000.0 0.04491909138198143 -0.04585256064681034
1680000000.0 0.03677219689278839 0.006710388844592167
1700000000.0 -0.008404497036297882 -0.0069288804856816755
1720000000.0 -0.006537839494549056 -0.004957011909665273
1740000000.0 0.02413374071027394 0.007445774630934752
1760000000.0 0.0225492057530268 -0.030307175187379288
1780000000.0 0.04832020106034974 0.020101933284874054
1800000000.0 -0.07592966201086035 0.04289528537243502
1820000000.0 -0.06446705910590637 -0.09435643645566605
1840000000.0 -0.14676485773251224 -0.036344029091463816
1860000000.0 -0.13609129275050136 -0.13975853955798415
1880000000.0 -0.1820390754800229 0.15166027009116806
1900000000.0 0.2764424913078883 -0.05313131533783995
1920000000.0 0.32576950670010046 0.025139673629772295
1940000000.0 -0.32773038425827977 -0.12231097956005596
1960000000.0 -0.24259806797218023 0.283502578694254
1980000000.0 0.28818074401849914 -0.2810431447832995
2000000000.0 -0.32762546818193417 -0.25911487984051235
2020000000.0 -0.4197543980011684 -0.06555842743431738
2040000000.0 0.0874769239427348 0.42008763491137757
2060000000.0 0.07947644324331148 0.42327763775520794
2080000000.0 0.09265657501315085 0.41995751992526553
2100000000.0 0.291028302329333 -0.31130512954488454
2120000000.0 0.20780752378394768 -0.35998665222320764
2140000000.0 0.3417489030560569 -0.21112694063682846
2160000000.0 0.35646230218522607 -0.15885146614180282
2180000000.0 0.271557242450472 -0.2623353301173633
2200000000.0 0.14374984391649642 -0.334023280947831
2220000000.0 -0.3462491432440216 0.05264348809964796
2240000000.0 -0.3247178119312882 -0.1027997249414316
2260000000.0 -0.30967951016365297 -0.13392470993446318
2280000000.0 -0.17696845147809268 0.29307449849097233
2300000000.0 -0.19549887407383018 0.29367265449659297
2320000000.0 -0.09794307482435242 0.36518427435077827
2340000000.0 0.0867294132181525 -0.4032483053697423
2360000000.0 -0.40092084902373987 -0.20461721606791755
2380000000.0 0.09589139218814893 0.490157882974238
2400000000.0 -0.5053804560321418 0.23510625580443856
2420000000.0 0.5571278484958007 -0.24413783285120466
2440000000.0 -0.5771582689308604 0.3095016821465209
2460000000.0 -0.6094048585524341 -0.3436660737028573
2480000000.0 0.5727365260815457 0.4563614902158133
2500000000.0 -0.11862739214716929 -0.7458396977378764
2520000000.0 0.7685364544822892 0.02082240587976338
2540000000.0 -0.3987472851695141 -0.6624208316175466
2560000000.0 -0.5819696960375209 0.5040877652023544
2580000000.0 0.20939881975551605 -0.727039324743052
2600000000.0 -0.6840847699919584 -0.2702408278154015
2620000000.0 -0.21562344257925617 0.6756851158319077
2640000000.0 0.6421832638795801 -0.19649325963704245
2660000000.0 -0.29405426033112436 -0.5589069582844194
2680000000.0 -0.31711494212545716 0.492818453699589
2700000000.0 -0.20679920548901248 -0.49179404931678095
2720000000.0 -0.19528215685982542 0.44532634057984505
2740000000.0 0.4088127516022283 -0.15190121706905474
2760000000.0 -0.26806270460052 0.28486966010009385
2780000000.0 0.35897057462875764 -0.0008384496697297465
2800000000.0 -0.30282182199918883 -0.14014804183688853
2820000000.0 0.135748343960655 -0.2806291697191218
2840000000.0 -0.17362786948696807 0.24971992751456046
2860000000.0 0.08017801168178346 -0.2886201361605763
2880000000.0 0.2557609132495426 -0.1553380704949934
2900000000.0 -0.29700973309247714 -0.03997308498559866
2920000000.0 0.04519855581522179 0.3011552328261786
2940000000.0 -0.18448935685006368 -0.2520999645006624
2960000000.0 -0.3142985256569829 0.03146140012758146
2980000000.0 -0.31225989041861896 -0.04135925404627998
3000000000.0 -0.26775650844704135 -0.1648481781984245
3020000000.0 0.04382134101569647 0.31556452619790676
3040000000.0 0.03324133992573327 0.31862736974474615
3060000000.0 -0.0018038459386085061 0.3157667443424017
3080000000.0 0.30315034065823965 0.03901389020441495
3100000000.0 -0.23538156206157196 0.18252002841996529
3120000000.0 -0.11862821314768934 -0.26393945497921045
3140000000.0 -0.23121154714610648 0.15482428863581132
3160000000.0 -0.02336846988955198 -0.2615803558423821
3180000000.0 -0.15990786950331112 0.1877786550385085
3200000000.0 0.211441610853816 -0.09435947614199668
3220000000.0 0.14136824795905473 -0.15002483129178049
3240000000.0 0.08436624184569831 -0.15145043980383704
3260000000.0 0.009570244806924184 0.14370506504119804
3280000000.0 -0.07433748278609735 -0.07237296615408476
3300000000.0 0.051383895464219426 -0.05089105417349923
3320000000.0 -0.03859222546351353 -0.02410611015615295
3340000000.0 0.01850007186549304 0.011577731457637285
3360000000.0 -0.003987231677649479 0.002022924962863662
3380000000.0 0.004938896644765899 0.004860124354527743
3400000000.0 0.0015096546412050845 0.019315075655183433
3420000000.0 0.033454835774876145 -0.0007774667219693897
3440000000.0 9.476651590404418e-05 0.04530791516848995
3460000000.0 0.043230922351131004 -0.03973591379417373
3480000000.0 0.01936296888493113 -0.0723946275093239
3500000000.0 -0.08908870066556888 -0.0043469797403630816
3520000000.0 -0.08092475662483975 0.0684234971249456
3540000000.0 -0.10140113445847591 0.06491500173914401
3560000000.0 0.1232214594648801 -0.002186156064614953
3580000000.0 -0.0849827434257427 -0.10555922231856914
3600000000.0 0.14654232726487498 -0.03422008432329646
3620000000.0 -0.019597056209484345 -0.15851438545076585
3640000000.0 0.0666127767528358 -0.16601845680418392
3660000000.0 0.13685529816089917 -0.13312904767651365
3680000000.0 0.16940499797540004 0.09912129069253045
3700000000.0 0.02756967272488059 -0.19753736436766492
3720000000.0 -0.08989301713516568 -0.1744537524553837
3740000000.0 0.10215261182269295 -0.15485045584275625
3760000000.0 -0.15416023107262508 -0.08639443685509357
3780000000.0 -0.05124524700609667 0.16052123525016504
3800000000.0 0.15975439278452835 0.03026507209553265
3820000000.0 0.13751884427530772 -0.07562842786075545
3840000000.0 0.099885087266794 -0.1135345589207685
3860000000.0 0.07637651896703032 -0.1265410402144079
3880000000.0 0.051445530980079285 -0.13755881581055573
3900000000.0 0.1017309547162298 0.10517586301745749
3920000000.0 0.11811182606050116 0.09139120624423151
3940000000.0 -0.09865842870804517 -0.12783607579041847
3960000000.0 -0.12073314371115307 -0.12327357142414641
3980000000.0 -0.1719637850505202 0.023292719264041993
4000000000.0 0.16289832957733433 0.03583818565802036
