!Created with skrf (http://scikit-rf.org).
# Hz S RI R 50.0 
!freq ReS11 ImS11
400000000.0 0.4486248161617641 0.7444000954130695
420000000.0 0.8425018569634017 -0.037243046774078276
440000000.0 0.7978809734327138 -0.029440268487408876
460000000.0 0.6596491780141984 0.3476563163099346
480000000.0 0.012344753963252474 -0.6869234231712144
500000000.0 -0.04416527331032047 0.6041228586851314
520000000.0 0.2625054548574199 0.4422612325147289
540000000.0 -0.4366588337261925 -0.02214578860174232
560000000.0 0.2972895198863465 0.2634000031695978
580000000.0 -0.2663265337749727 0.2418175393388929
600000000.0 0.14780101411726623 -0.31532568536702704
620000000.0 -0.0977220799789391 -0.3365761772585185
640000000.0 0.4025575193431329 0.06266847377364279
660000000.0 0.18903772375674044 0.3667858137823135
680000000.0 -0.1229551571231 -0.42406882137649055
700000000.0 -0.12741266280616492 0.44004788589015065
720000000.0 -0.41789543874613444 -0.19791784648448052
740000000.0 -0.4135404096981168 0.11428792328137195
760000000.0 -0.15898084132919757 -0.3807349630179192
780000000.0 -0.33681172404564214 0.18570923036700515
800000000.0 -0.10397793446924439 0.3257050706694269
820000000.0 0.27642669067558356 0.04750369975122036
840000000.0 -0.09412059120501388 0.18398892679574633
860000000.0 -0.16089043920806295 -0.04663971273781271
880000000.0 -0.13261695015363223 -0.0457193367480179
900000000.0 0.08141392827537682 0.045445135186170306
920000000.0 -0.039414241449660624 -0.03479765264148377
940000000.0 -0.02731854852933203 -0.01916302686617721
960000000.0 0.02924671414130271 -0.015552686878216475
980000000.0 -0.047647308370646756 -0.028726768154444852
1000000000.0 -0.04433336115633778 0.084072618951504
1020000000.0 -0.04002564508276785 0.11261318923176875
1040000000.0 0.032535578614335356 -0.13059806400420254
1060000000.0 -0.12288887334256139 0.10557442121729381
1080000000.0 -0.13784036883465386 -0.13192841659164603
1100000000.0 0.11803060671682562 -0.18030500372664726
1120000000.0 0.20790723968839434 -0.11421264033113951
1140000000.0 -0.08261616157305138 0.24637813437481412
1160000000.0 -0.1902681680261801 0.2072915375746199
1180000000.0 -0.2701862861708063 -0.14600900216865106
1200000000.0 0.3296636233014732 0.08166147185322024
1220000000.0 -0.2234732086168076 -0.2947750631740536
1240000000.0 0.33155487891172825 0.2120433199551325
1260000000.0 -0.26120349886579225 -0.3127904086856187
1280000000.0 -0.42218204040515217 0.02166591924218756
1300000000.0 0.20799505179666178 0.37735802691288445
1320000000.0 0.3911390918708107 0.1892984821494987
1340000000.0 0.1868263792766092 0.398081680500225
1360000000.0 0.43104376602246297 0.12140384027755625
1380000000.0 -0.25492698345535614 -0.35799082830969725
1400000000.0 -0.41001912292664616 -0.11493343044924736
1420000000.0 0.2116452127563719 0.34495980874601684
1440000000.0 0.2830947248685026 -0.24414952799770928
1460000000.0 0.19388714461973716 -0.2826200278835768
1480000000.0 -0.24459031573012902 -0.19594371527456925
1500000000.0 -0.15571643343842473 0.23455385657514793
1520000000.0 -0.24055659933687712 -0.07100851490097979
1540000000.0 -0.1548837230841067 0.16574101220039394
1560000000.0 -0.1952982762097106 -0.03804066489765583
1580000000.0 -0.13595553411699288 -0.11432652013563827
1600000000.0 -0.060646130624896204 0.13097562514919062
1620000000.0 -0.05348850897649799 -0.09331732562379334
1640000000.0 -0.0655993309753773 -0.048908145405389264
1660000000.0 0.009817411044121907 -0.06300963785201112
1680000000.0 0.03152619425576021 -0.020756561381166567
1700000000.0 0.008797483965872982 0.007688243508127122
1720000000.0 -0.006522580627504974 -0.00381596996029857
1740000000.0 0.025308336758015016 -0.00212771143911644
1760000000.0 0.009414258042173733 -0.03670311684400952
1780000000.0 0.04820500672628636 0.021519572022063383
1800000000.0 -0.07782687251609756 0.03799999904283078
1820000000.0 -0.07067808210052434 -0.09031807872925898
1840000000.0 -0.15048699855019265 -0.020202054575839228
1860000000.0 -0.1595492725293571 -0.11363853004627097
1880000000.0 -0.16663423391314708 0.1693004580813268
1900000000.0 0.26962731131504025 -0.08216854521965902
1920000000.0 0.32690047773485126 -0.013291672964017402
1940000000.0 -0.33320402650648634 -0.10748138329012737
1960000000.0 -0.23667227992799314 0.288259449105678
1980000000.0 0.2941651329118221 -0.274714259736108
2000000000.0 -0.31969745173779973 -0.2687055565156841
2020000000.0 -0.42196159991315163 -0.04508382652703525
2040000000.0 0.043119931358560494 0.4271096200715644
2060000000.0 0.08447855923184928 0.42241745375896345
2080000000.0 0.09835274203904437 0.41897576967977257
2100000000.0 0.2845190428264048 -0.3171232797362706
2120000000.0 0.23325616522034115 -0.3439635777110951
2140000000.0 0.3466965080052964 -0.20226639207891903
2160000000.0 0.3584315004233148 -0.15212756399254448
2180000000.0 0.2891721340055336 -0.2423862812798022
2200000000.0 0.1591267568053421 -0.32700085021243724
2220000000.0 -0.3496465554353612 0.02400623429794022
2240000000.0 -0.32178697192777317 -0.11438273356087542
2260000000.0 -0.3055723408246714 -0.1450901040418075
2280000000.0 -0.13989655156627331 0.31301751578665565
2300000000.0 -0.1344959092512682 0.32662556720678215
2320000000.0 -0.051964953530812895 0.37459907082599225
2340000000.0 0.08452991778600702 -0.40344984277781454
2360000000.0 -0.40741943717139917 -0.19106725314618928
2380000000.0 0.1405480832099789 0.479297205946623
2400000000.0 -0.47256184014814945 0.2959929896228968
2420000000.0 0.5314249275296531 -0.29682420452923425
2440000000.0 -0.5512283033497217 0.3543907127750458
2460000000.0 -0.6214759985608386 -0.3228695635753882
2480000000.0 0.5990754147451762 0.4216773133810748
2500000000.0 -0.21537722487555686 -0.7235981716250817
2520000000.0 0.7600927812588615 -0.11256307925985828
2540000000.0 -0.454728878928119 -0.6245282741409336
2560000000.0 -0.5174336571041993 0.5689480563874169
2580000000.0 0.1154573950121352 -0.7461681315787857
2600000000.0 -0.7195374732783959 -0.1469272904413242
2620000000.0 -0.1400593908468869 0.6937062425566409
2640000000.0 0.6118764324333466 -0.2739053693320942
2660000000.0 -0.3811316266081436 -0.5022365067758738
2680000000.0 -0.2726869220462652 0.5173084658805653
2700000000.0 -0.2577692037140106 -0.4659497345003487
2720000000.0 -0.12099028801501722 0.46996172955275783
2740000000.0 0.40971551223252156 -0.1470353669219907
2760000000.0 -0.2518011210995711 0.29831360433753584
2780000000.0 0.3584425652057575 -0.0021128325477753613
2800000000.0 -0.2989104788421119 -0.14705402647182783
2820000000.0 0.13390611570803213 -0.2812954514896048
2840000000.0 -0.18141769784921713 0.24321888260049201
2860000000.0 0.1033031469404929 -0.28117560369247974
2880000000.0 0.24751579663762607 -0.16557832169724812
2900000000.0 -0.29792134678171683 -0.023233300798915776
2920000000.0 0.007769289809364588 0.3041030429064993
2940000000.0 -0.13893384739572823 -0.2796325849315849
2960000000.0 -0.31570847678304775 0.00752953565730276
2980000000.0 -0.31415579873724103 -0.010768314950650872
3000000000.0 -0.2947881898390294 -0.10747330896991501
3020000000.0 0.09654705874239038 0.3034853804129503
3040000000.0 0.09295427111748568 0.30719255951114605
3060000000.0 -0.00014286174715770939 0.31628416606004656
3080000000.0 0.3054237916025828 -0.0020420842944930497
3100000000.0 -0.2205241405742871 0.19918268997893493
3120000000.0 -0.07278672767159798 -0.2799727584345694
3140000000.0 -0.23582749145531368 0.14719585144556954
3160000000.0 -0.0023087595616850414 -0.2630653840936095
3180000000.0 -0.2159981718121524 0.11994596219722578
3200000000.0 0.23072886008448573 -0.019136937530717386
3220000000.0 0.18032854290459407 -0.09817946546832014
3240000000.0 0.12671469830983983 -0.11810403567543178
3260000000.0 0.012969155224505532 0.1432680248552056
3280000000.0 -0.08803694514241463 -0.05360955208167
3300000000.0 0.03787321031586597 -0.061541575251079665
3320000000.0 -0.04178263757865082 -0.01424985590510753
3340000000.0 -0.006471436386047741 0.019724011878650128
3360000000.0 -0.0031558155663219405 0.0017597380206624863
3380000000.0 0.0046528281496477355 -0.006264184946806376
3400000000.0 -0.007002608008361573 -0.018904830727443405
3420000000.0 -0.014315018594183073 0.030843016051838274
3440000000.0 -0.04226511252139341 -0.016317082748876607
3460000000.0 0.05739370404725359 0.010340754638730716
3480000000.0 0.0004181697391060477 -0.07409333674881936
3500000000.0 -0.0846657566519966 -0.02730270027411658
3520000000.0 -0.092798056193651 0.04942927613275443
3540000000.0 -0.1193395927649181 0.000892492573100043
3560000000.0 0.11924391079111703 0.028043213429988983
3580000000.0 -0.05698181319806462 -0.12194888699083463
3600000000.0 0.14976693584517645 0.005585750477940395
3620000000.0 -0.005268217541823752 -0.15913992443342184
3640000000.0 0.08228302469805206 -0.1579626201386746
3660000000.0 0.12750083289642608 -0.14185490229294184
3680000000.0 0.18230580186043474 0.07194124138793723
3700000000.0 0.00685218975660023 -0.19786554494007255
3720000000.0 -0.050324347255249265 -0.1890687209589709
3740000000.0 0.132646434638386 -0.12875327456735863
3760000000.0 -0.15612811259950918 -0.08184559153561942
3780000000.0 -0.009200117463656624 0.1679710366721153
3800000000.0 0.15958994729435133 0.028075023692424834
3820000000.0 0.10751979027301006 -0.11358873766532132
3840000000.0 0.08714990749691601 -0.12282922807939382
3860000000.0 0.06427666761005135 -0.1327929673814773
3880000000.0 0.08078541029981244 -0.12198335783335612
3900000000.0 0.13381643429863296 0.056914684496132906
3920000000.0 0.13485199890734306 0.06314909325236785
3940000000.0 -0.12075102092724745 -0.10658408752795913
3960000000.0 -0.1270103188237282 -0.11603501542187986
3980000000.0 -0.16369742618019953 0.05671133811528705
4000000000.0 0.1559919986911752 0.057748860883485506
