!Created with skrf (http://scikit-rf.org).
# Hz S RI R 50.0 
!freq ReS11 ImS11
400000000.0 0.4346945288411008 0.7542184334109475
420000000.0 0.8448653141928524 -0.021233659356212003
440000000.0 0.797281504893442 -0.04999587132949152
460000000.0 0.6581398604364529 0.34980224036500057
480000000.0 0.0635673306115244 -0.6843844803829279
500000000.0 0.011497640453971822 0.605389747319371
520000000.0 0.20645768222617816 0.46931896308661686
540000000.0 -0.4327326372792224 -0.07171887642218859
560000000.0 0.2923826265786243 0.26974951333747677
580000000.0 -0.2602163612013907 0.2481465610563282
600000000.0 0.17051322740415176 -0.30382278229743903
620000000.0 -0.12316103141677373 -0.32847911189401446
640000000.0 0.3929258211907146 0.10618677183342576
660000000.0 0.200510829078152 0.3630047482643787
680000000.0 -0.07356116105497112 -0.43349525882410345
700000000.0 -0.07561111235615252 0.451068061686454
720000000.0 -0.4071296397676478 -0.21943563463695986
740000000.0 -0.41059184810115035 0.12193013158336913
760000000.0 -0.1896937528038257 -0.3670847590893145
780000000.0 -0.31349700793266755 0.22251902162146164
800000000.0 -0.126941781622697 0.3171343036364379
820000000.0 0.27235809658467625 0.07024523763725748
840000000.0 -0.09693197220949518 0.18208319783522411
860000000.0 -0.16013340608133084 -0.048788938396279534
880000000.0 -0.13190154329017748 -0.04709231697682669
900000000.0 0.0703799141168038 0.061056129060603696
920000000.0 -0.013940517413128397 -0.05093612521371115
940000000.0 -0.014578443737162982 -0.031029459607529303
960000000.0 0.02571567702691316 -0.02183910509004546
980000000.0 -0.054265951310888315 -0.01305062343371716
1000000000.0 -0.052321232317510354 0.07897648116960475
1020000000.0 -0.018003454515688338 0.11787631540568051
1040000000.0 0.051877209181054734 -0.124186511486726
1060000000.0 -0.12770190247534552 0.10002754944641573
1080000000.0 -0.12397286472657021 -0.144574530293949
1100000000.0 0.14040446606584253 -0.16311627615675225
1120000000.0 0.19491170990270695 -0.1346722561898917
1140000000.0 -0.062312638928230336 0.25209004812475144
1160000000.0 -0.17990373104163243 0.21670769680667676
1180000000.0 -0.2772531540433553 -0.13441078194350117
1200000000.0 0.3321136009914698 0.07051941012431594
1220000000.0 -0.24622197138515192 -0.2761559063031985
1240000000.0 0.33850070691847745 0.20013925944551533
1260000000.0 -0.27667632683618015 -0.2995682580202086
1280000000.0 -0.42277058269877704 0.006322624346626543
1300000000.0 0.17995497996667448 0.3916360196366458
1320000000.0 0.39104348958610846 0.18988970218329193
1340000000.0 0.17510086967999444 0.4034135298504494
1360000000.0 0.42640068644316914 0.13705811512650776
1380000000.0 -0.22660586466836002 -0.37677033258608233
1400000000.0 -0.4097772016120494 -0.11659357156227633
1420000000.0 0.21890473519049025 0.33973221549370763
1440000000.0 0.28416639224430734 -0.24232478040408958
1460000000.0 0.1962552088670554 -0.28086695726345146
1480000000.0 -0.26104937898846464 -0.173656297711954
1500000000.0 -0.12030236961049477 0.2542404187573257
1520000000.0 -0.24787429386969065 -0.038748020846014516
1540000000.0 -0.13963493942417263 0.17815168366134498
1560000000.0 -0.19858499239277852 0.013943047898784325
1580000000.0 -0.1261223091721058 -0.1257105338377901
1600000000.0 -0.05747505290376304 0.13269515595039205
1620000000.0 -0.04139885928189868 -0.1001975982017723
1640000000.0 -0.0259842190917808 -0.07775394005420974
1660000000.0 0.04202434595442812 -0.048386272080016376
1680000000.0 0.03536645234372739 -0.013437748232013475
1700000000.0 -0.010233762782591624 0.004456263745620913
1720000000.0 -0.003602927534286235 -0.007013124152454884
1740000000.0 0.024143750843371045 -0.007091841713402874
1760000000.0 0.007678123080534956 -0.03726051879079682
1780000000.0 0.050283322083982944 0.015567526236374864
1800000000.0 -0.07177972820406266 0.04910153668424901
1820000000.0 -0.0707137132911592 -0.09013504643398555
1840000000.0 -0.14867272553190777 -0.028552197506184464
1860000000.0 -0.1449411107510632 -0.13085975022203702
1880000000.0 -0.1782815140694314 0.15633414263702744
1900000000.0 0.27523237350208546 -0.06004087096144123
1920000000.0 0.32540434564345544 0.030286669507096554
1940000000.0 -0.32553938303814955 -0.12801775727611608
1960000000.0 -0.25139791383523563 0.275596495644895
1980000000.0 0.3010014212049212 -0.26722663404611713
2000000000.0 -0.3182480445874636 -0.27055519752416757
2020000000.0 -0.4206722383367344 -0.05687895482896305
2040000000.0 0.07553740615254763 0.42235096013641266
2060000000.0 0.08272731015787393 0.4226087245418774
2080000000.0 0.09266263212355819 0.41992712578555486
2100000000.0 0.2882497977982305 -0.3137127092086125
2120000000.0 0.2275952382152996 -0.3480737744363392
2140000000.0 0.3429173971013141 -0.20926635610631913
2160000000.0 0.364355706066112 -0.13982474022109875
2180000000.0 0.2603336409849391 -0.27331867471275206
2200000000.0 0.13846798931827337 -0.3363148005688604
2220000000.0 -0.34894577116798714 0.032504665306880585
2240000000.0 -0.3297894040780105 -0.08520277208916004
2260000000.0 -0.30670055537351265 -0.14090274419931614
2280000000.0 -0.1802426694344963 0.2912483236015443
2300000000.0 -0.1924921624099155 0.2957630525957418
2320000000.0 -0.08818187087098073 0.3679536588816643
2340000000.0 0.10200368755738835 -0.3994279002749554
2360000000.0 -0.39725121180997686 -0.21130734741608648
2380000000.0 0.09207724501000858 0.4909437965133494
2400000000.0 -0.506089932541419 0.23341288898290438
2420000000.0 0.5606851307682662 -0.2356270753622073
2440000000.0 -0.5835997821296406 0.29682998736855465
2460000000.0 -0.6069224560593977 -0.3478201385329634
2480000000.0 0.5673822721632675 0.4631113629256133
2500000000.0 -0.16758397617948054 -0.7357430025935361
2520000000.0 0.7646882157530054 -0.07661490235681923
2540000000.0 -0.4272408056900477 -0.6441177370039003
2560000000.0 -0.5739003082337861 0.5130868132890993
2580000000.0 0.20817356404618256 -0.7270757513826117
2600000000.0 -0.7045872120729423 -0.21198646126218337
2620000000.0 -0.20561814576052426 0.6787872118012794
2640000000.0 0.634646361204041 -0.2196756756621328
2660000000.0 -0.2947301946067748 -0.5580547099881736
2680000000.0 -0.33859636512877617 0.4780119445703493
2700000000.0 -0.2199376693366289 -0.48599231110610747
2720000000.0 -0.17043787626172613 0.4551789772505772
2740000000.0 0.4172015003401194 -0.12611985924644947
2760000000.0 -0.2800959927443619 0.2727352684227347
2780000000.0 0.35885281281083353 -0.0036770637660922356
2800000000.0 -0.30682609344495615 -0.13059480892324707
2820000000.0 0.13096068903931027 -0.28285299233765915
2840000000.0 -0.17027189397026804 0.2519939268790898
2860000000.0 0.10041725718806244 -0.282847156374805
2880000000.0 0.2522054568993623 -0.1611422132835609
2900000000.0 -0.29653247500266916 -0.043482649711736536
2920000000.0 0.01009513485546058 0.3046611857319347
2940000000.0 -0.16043690919416284 -0.26809868295587996
2960000000.0 -0.31570940732080327 0.008566172046088815
2980000000.0 -0.31203680720039534 -0.04442021711526963
3000000000.0 -0.276916673168779 -0.1488596704617358
3020000000.0 0.06820654757374336 0.3112121873329122
3040000000.0 0.02658670454519029 0.3191679848189275
3060000000.0 -0.0254213283601096 0.31446558773065914
3080000000.0 0.301848561294651 0.045251494566080755
3100000000.0 -0.21212006856093915 0.20865073976193657
3120000000.0 -0.13345309197503483 -0.25648098518548285
3140000000.0 -0.21638020016909565 0.17494693255215346
3160000000.0 -0.03816458435180246 -0.2597088323388112
3180000000.0 -0.14266815902159755 0.2010297151699973
3200000000.0 0.20253938051232528 -0.1120340302347913
3220000000.0 0.12699296162701224 -0.1625552393415644
3240000000.0 0.07241056139202377 -0.15740085362033956
3260000000.0 0.03500568564615152 0.1397878006455135
3280000000.0 -0.0856096923328062 -0.05921718292918503
3300000000.0 0.03726763927358712 -0.06238890443808074
3320000000.0 -0.040462485002922655 -0.02128713905700061
3340000000.0 0.021716822083412447 0.004252049323318571
3360000000.0 0.004442653557782231 -0.0022014374825182373
3380000000.0 -0.001456709161104644 -0.006353245233786196
3400000000.0 -0.018699878991517892 0.00045310891207256393
3420000000.0 0.03217349323154849 -0.00771841415274868
3440000000.0 0.013941833794073618 0.043073510742057806
3460000000.0 0.04150581814366403 -0.04114201783225665
3480000000.0 0.00974306593174525 -0.07406728603351694
3500000000.0 -0.088322088134046 0.010635929720357637
3520000000.0 -0.060373846552598295 0.08708413420515997
3540000000.0 -0.10497281919744034 0.0575252599363701
3560000000.0 0.1199555734815605 -0.028811225015648555
3580000000.0 -0.0980069088337468 -0.0936116851028602
3600000000.0 0.12964834848811865 -0.07638894983111119
3620000000.0 -0.04067591039104128 -0.1544313312526606
3640000000.0 0.04673320774916008 -0.17275207407130255
3660000000.0 0.12076068239351724 -0.14819058054804307
3680000000.0 0.1734702738466282 0.09194901665656918
3700000000.0 0.027972961239039133 -0.19779608416700192
3720000000.0 -0.08677115504327364 -0.17648984180710284
3740000000.0 0.10832494186801957 -0.15105794836277023
3760000000.0 -0.1527099839692362 -0.08913997557387854
3780000000.0 -0.046425662361113895 0.1620802542597722
3800000000.0 0.15874786547165443 0.03566002306934957
3820000000.0 0.13977492637743388 -0.071745888911152
3840000000.0 0.1039012982785484 -0.11013714683095242
3860000000.0 0.08429664849492459 -0.12172611414941366
3880000000.0 0.07621779522602738 -0.12606006255752694
3900000000.0 0.09384877379483514 0.11259390206086717
3920000000.0 0.10285907160405176 0.10866006081343438
3940000000.0 -0.08377212174594151 -0.1385298697825775
3960000000.0 -0.0942132630507945 -0.14510704998241583
3980000000.0 -0.17047631179077843 -0.0337435656734059
4000000000.0 0.13039853028220078 0.10418886283324175
