!Created with skrf (http://scikit-rf.org).
# Hz S RI R 50.0 
!freq ReS11 ImS11
400000000.0 0.42635438761519523 0.7585823726045169
420000000.0 0.8444759587111883 -0.028360527948545964
440000000.0 0.7989945598879664 0.00408633559732576
460000000.0 0.6614314849693027 0.34306610700144713
480000000.0 0.0587260233470865 -0.6847256430886653
500000000.0 -0.0014917457670478003 0.6055616782237818
520000000.0 0.20608498153519786 0.46963277217062416
540000000.0 -0.43325266661555295 -0.06723973966449222
560000000.0 0.3054959098655987 0.25440955170521806
580000000.0 -0.28594715326363185 0.2179513905323237
600000000.0 0.18721121641512597 -0.29422435224711135
620000000.0 -0.1654034586833134 -0.30935100347205
640000000.0 0.39549768373182875 0.09588592065988324
660000000.0 0.2357312767911457 0.341085177076573
680000000.0 -0.1112410230391705 -0.42473340419995304
700000000.0 -0.08205595377866268 0.44984221212308256
720000000.0 -0.41806022800091786 -0.1984408901457489
740000000.0 -0.41539945869012723 0.108946839867111
760000000.0 -0.18985995969561784 -0.3669162641060776
780000000.0 -0.32294918447031856 0.20831057283634263
800000000.0 -0.12608464436995936 0.3174817825353675
820000000.0 0.27348212109615944 0.06451813699841531
840000000.0 -0.08812107048396517 0.18661942485422486
860000000.0 -0.1614268404361084 -0.04405563372818097
880000000.0 -0.12922410491324007 -0.053812938159205174
900000000.0 0.0725865050488786 0.05791635519903476
920000000.0 -0.01152096098454499 -0.051121534156268994
940000000.0 -0.017101602649895714 -0.02936808280195585
960000000.0 0.011583431679772384 -0.03188180666767417
980000000.0 -0.05597386635710762 0.0009069307938507123
1000000000.0 -0.05400698419822361 0.0778733531140138
1020000000.0 -0.025553952108461443 0.11652232670810848
1040000000.0 0.038580344493549655 -0.1288746503737138
1060000000.0 -0.12351718650713504 0.10503390917046075
1080000000.0 -0.12289157857618176 -0.14558427472747704
1100000000.0 0.134372729787918 -0.16829756989975872
1120000000.0 0.2036560199917478 -0.12117497127805944
1140000000.0 -0.04335927219589583 0.25615633291503975
1160000000.0 -0.20097286913240656 0.19686610213378544
1180000000.0 -0.2735877054375119 -0.14168085839304173
1200000000.0 0.33320978368009607 0.06555392814804346
1220000000.0 -0.23916638547563482 -0.28218716883916706
1240000000.0 0.33263690661546375 0.2097418616392212
1260000000.0 -0.26781800441900316 -0.3075652940618892
1280000000.0 -0.422913221115983 -0.0004220319057871407
1300000000.0 0.17662367326629994 0.3931806443572186
1320000000.0 0.39017053335984875 0.19152857548306298
1340000000.0 0.15737592804207734 0.4104805873652569
1360000000.0 0.4265956859623985 0.1362623549778891
1380000000.0 -0.22576072778659578 -0.377331955197708
1400000000.0 -0.40978603008744624 -0.11618560936630083
1420000000.0 0.22124416075833112 0.33802758727136106
1440000000.0 0.28549902124669246 -0.24067439703692697
1460000000.0 0.20069304308545255 -0.27779396712928234
1480000000.0 -0.27287484388980976 -0.15439097726696266
1500000000.0 -0.10470373433995836 0.2608813527864757
1520000000.0 -0.24761611354658083 -0.04093310697364595
1540000000.0 -0.13993879378145482 0.17840891286530655
1560000000.0 -0.19920448950830494 -0.002504106320246626
1580000000.0 -0.1501186638098802 -0.09576615002001265
1600000000.0 -0.05301544130133728 0.134609445886057
1620000000.0 -0.042699162082355524 -0.09959835005383261
1640000000.0 -0.01396446245756624 -0.0806226641202782
1660000000.0 0.048020904913208366 -0.04228866511293239
1680000000.0 0.03762105466987419 5.5528672584934464e-05
1700000000.0 0.009987235911775721 0.0060545525557470095
1720000000.0 -0.00735472007365988 -0.003510652233372566
1740000000.0 0.024591026303986824 0.005160310194189896
1760000000.0 0.025532985367852534 -0.027388000337742968
1780000000.0 0.049185174997915186 0.018285598351291305
1800000000.0 -0.07354111747853609 0.04666900830215154
1820000000.0 -0.07393396053745546 -0.08743972899228405
1840000000.0 -0.1489145415740558 -0.02663795636523925
1860000000.0 -0.13411323187944582 -0.14176666955549788
1880000000.0 -0.1736920908647653 0.16158323128337568
1900000000.0 0.2761089563292546 -0.055502314351229695
1920000000.0 0.3251144965946854 0.03202691275818941
1940000000.0 -0.32631383939142794 -0.12606442748807664
1960000000.0 -0.2483481251738592 0.2784684021473937
1980000000.0 0.2937939448466974 -0.27506662858492503
2000000000.0 -0.3347849195448052 -0.2496063653333102
2020000000.0 -0.4226104638341196 -0.04066904091543469
2040000000.0 0.04941145806819299 0.42641351965982377
2060000000.0 0.08300787339389328 0.42245780788254156
2080000000.0 0.10252634997172727 0.4175337951379223
2100000000.0 0.2975054950959438 -0.30491287026677577
2120000000.0 0.23096776379759415 -0.3458657641064565
2140000000.0 0.3550491498590412 -0.1880917646342596
2160000000.0 0.35808832441886923 -0.1553008567773638
2180000000.0 0.2663768984869861 -0.26768064839476796
2200000000.0 0.14040834277796002 -0.33544364033043605
2220000000.0 -0.34745279345806185 0.044573641323926966
2240000000.0 -0.32788436247179714 -0.09250208829775074
2260000000.0 -0.3069121067167543 -0.14015190023652915
2280000000.0 -0.17770692963499365 0.29272514637984326
2300000000.0 -0.18860781244654384 0.2981790092915988
2320000000.0 -0.09187939787501415 0.3669355819225375
2340000000.0 0.1027123935704665 -0.39932440052674106
2360000000.0 -0.3965473102222212 -0.21278820701538778
2380000000.0 0.09218696706315621 0.49088087559313986
2400000000.0 -0.5055240098181035 0.23461171113581136
2420000000.0 0.5670740451627256 -0.2200732578466836
2440000000.0 -0.5876975821666304 0.2885706722636431
2460000000.0 -0.6039428854986428 -0.3533533320084093
2480000000.0 0.5793766435768746 0.4481373289732156
2500000000.0 -0.17382218953459733 -0.7343924177565574
2520000000.0 0.7647514201440097 -0.07594956807055417
2540000000.0 -0.4207449238834291 -0.6485081570157428
2560000000.0 -0.5826719461881759 0.5032284511430362
2580000000.0 0.17515215743096965 -0.7356590528206142
2600000000.0 -0.6963858822084897 -0.2379472993812304
2620000000.0 -0.24350458796412874 0.6661703694056842
2640000000.0 0.6423252167529206 -0.19661452007903385
2660000000.0 -0.2992630504535732 -0.5560062289093651
2680000000.0 -0.3384245963241124 0.47827304335788745
2700000000.0 -0.20876131076643403 -0.4909622655634653
2720000000.0 -0.16411489815454544 0.45756519189913014
2740000000.0 0.41864776124309866 -0.12111871947792956
2760000000.0 -0.2729808145806958 0.2799418068575927
2780000000.0 0.35885933553106947 -0.0056151640299287545
2800000000.0 -0.30375205126370186 -0.13777044068362093
2820000000.0 0.13586393482054185 -0.2804758370843359
2840000000.0 -0.1749341592950197 0.24861755999229132
2860000000.0 0.10697265919024067 -0.2803537010355443
2880000000.0 0.24605593297263895 -0.17006924311213784
2900000000.0 -0.29766267962672144 -0.03411718912566665
2920000000.0 0.021831497248488464 0.30391551771057135
2940000000.0 -0.1742519796075591 -0.2593150002857046
2960000000.0 -0.3160598101578027 -0.0025457317732461254
2980000000.0 -0.3108674117760683 -0.04886022813326006
3000000000.0 -0.27109185898644117 -0.15723437694145384
3020000000.0 0.050848304668522304 0.31430910006952856
3040000000.0 0.0745560196550956 0.3112502184519309
3060000000.0 0.011176367379933237 0.3155944430529817
3080000000.0 0.3032297450093843 0.03645911848160074
3100000000.0 -0.22498361910367673 0.19486778242260946
3120000000.0 -0.13346453298178879 -0.25662559388054496
3140000000.0 -0.22030446223929256 0.16991294870237375
3160000000.0 -0.04380541190625556 -0.2589896721625158
3180000000.0 -0.15726867913377676 0.18977661575621166
3200000000.0 0.20810822497618037 -0.10141303169497819
3220000000.0 0.1359023235682136 -0.1551616910322251
3240000000.0 0.07405601808505947 -0.15683464380227222
3260000000.0 0.018124376296723983 0.14298468180124635
3280000000.0 -0.07394703450012365 -0.07314969769372028
3300000000.0 0.06936102215760614 -0.02099773985943631
3320000000.0 -0.03936417005336496 -0.023161423520516134
3340000000.0 0.02177015965265652 0.00286522931233451
3360000000.0 0.00409911714334147 -0.0026238789849475533
3380000000.0 0.0062586031941582205 -0.0020870183265074877
3400000000.0 0.0018284435816397879 0.01889065004401383
3420000000.0 0.03095021994804257 -0.012070156153471222
3440000000.0 -0.004845855443235679 0.04486781249750859
3460000000.0 0.024881339157918694 -0.05308648993068313
3480000000.0 0.01257376380638945 -0.07374268455615116
3500000000.0 -0.08846427229716008 0.011160960621978794
3520000000.0 -0.07401629152497151 0.07550582973275753
3540000000.0 -0.09448457995956153 0.07440392595693288
3560000000.0 0.1219151367518647 -0.01854265685790084
3580000000.0 -0.08932359926348536 -0.1014954858171274
3600000000.0 0.14561869900772678 -0.037561542903716306
3620000000.0 -0.02802920137266686 -0.1570876140572107
3640000000.0 0.06844699622482898 -0.16482660929759987
3660000000.0 0.12559067827387482 -0.14366242516622388
3680000000.0 0.16928070911567747 0.09889990869413759
3700000000.0 0.03222160233374956 -0.1970709648317665
3720000000.0 -0.08736644882813464 -0.17517267367033568
3740000000.0 0.10864760367462169 -0.15046845365850775
3760000000.0 -0.15395750992692417 -0.08696226110409377
3780000000.0 -0.04752345884199283 0.16200493046106562
3800000000.0 0.15895349850499774 0.034833517924297744
3820000000.0 0.1414940584456282 -0.0683734990331163
3840000000.0 0.10162106710806769 -0.11220183195732253
3860000000.0 0.058857014367631355 -0.1354556521947031
3880000000.0 0.06243387466699294 -0.13318455897006964
3900000000.0 0.10031860363317824 0.10703649321599132
3920000000.0 0.10818662876700612 0.1035668678134994
3940000000.0 -0.08227287653471269 -0.14014377654417373
3960000000.0 -0.09133273480048089 -0.14682453279861224
3980000000.0 -0.16656351011570064 -0.05064370025503346
4000000000.0 0.11415894282642138 0.12174604857674776
