!Created with skrf (http://scikit-rf.org).
# Hz S RI R 50.0 
!freq ReS11 ImS11
400000000.0 0.4511859462351622 0.7414926643066344
420000000.0 0.84010690843264 -0.07500017580654239
440000000.0 0.797171920528559 -0.04597295347894691
460000000.0 0.6613174853785692 0.34433235249953326
480000000.0 -0.0021014875534929017 -0.6869261953768898
500000000.0 -0.047837174135827804 0.6036412319778326
520000000.0 0.2733094681343331 0.4358552317905003
540000000.0 -0.4361693402117608 -0.031932459659551576
560000000.0 0.2910479502456607 0.27039825607672113
580000000.0 -0.2683708901349474 0.23915384419936403
600000000.0 0.1547249904548695 -0.3117564861035026
620000000.0 -0.10273771387799585 -0.33483703217220007
640000000.0 0.40228063704373207 0.06355975948020796
660000000.0 0.18088094700344964 0.37094085983448993
680000000.0 -0.10690675164091924 -0.4287734171943963
700000000.0 -0.12395101085193033 0.44103631759941114
720000000.0 -0.41901913093099946 -0.19519182567032242
740000000.0 -0.4137191603196381 0.11418661726134052
760000000.0 -0.17736599075353887 -0.37275279747192197
780000000.0 -0.3328781227610481 0.19302378833606687
800000000.0 -0.11022016831120189 0.32382811773916437
820000000.0 0.2752390305144044 0.05568713331029677
840000000.0 -0.10575542317674098 0.17749811893189157
860000000.0 -0.16223706249368228 -0.041809253807373145
880000000.0 -0.13567128268647974 -0.03601905648473875
900000000.0 0.08935950799193046 0.027586171350017986
920000000.0 -0.04654483914567513 -0.02518718210304664
940000000.0 -0.030416041082848636 -0.014442876480623493
960000000.0 0.029444109363328825 -0.01523233875920987
980000000.0 -0.04769074038388753 -0.028081372426933156
1000000000.0 -0.04085550810621018 0.08586065359025359
1020000000.0 -0.05100590402290126 0.10838779744368554
1040000000.0 0.04528278036596698 -0.12673758058289863
1060000000.0 -0.13010162680270518 0.0964136848451864
1080000000.0 -0.13576525517227522 -0.1339884325461268
1100000000.0 0.11639277542646885 -0.18133141666897545
1120000000.0 0.2070316212652257 -0.1158134222175082
1140000000.0 -0.0604116391190609 0.25291963471411094
1160000000.0 -0.1857929043415175 0.21148438029405003
1180000000.0 -0.2629674931372368 -0.15855604611980292
1200000000.0 0.3310308635758079 0.07655441704395105
1220000000.0 -0.1958176947171797 -0.31341583189884026
1240000000.0 0.340059808764521 0.1981353901423027
1260000000.0 -0.2584883074023195 -0.31507500063966415
1280000000.0 -0.4220143169212132 0.021943298928324115
1300000000.0 0.20041568210409702 0.38112978336214254
1320000000.0 0.3961087900107823 0.17856823415899092
1340000000.0 0.1881869065787186 0.39739967535481907
1360000000.0 0.4325187394134105 0.11666061762346443
1380000000.0 -0.25174319346309154 -0.36022725965099117
1400000000.0 -0.4062776102355601 -0.12822809629062143
1420000000.0 0.21048174605236558 0.34569165169084826
1440000000.0 0.29183549959755345 -0.2338728136265787
1460000000.0 0.19460340396596154 -0.28188297483059194
1480000000.0 -0.23464013549763446 -0.20740293272883326
1500000000.0 -0.16262799371699213 0.22985250966044685
1520000000.0 -0.24025334384142266 -0.07203771165917852
1540000000.0 -0.15384087650094455 0.16623379835287083
1560000000.0 -0.19742962192921423 -0.02403127029819216
1580000000.0 -0.12034521161756888 -0.1306825816511404
1600000000.0 -0.07022233522680876 0.1260163422738808
1620000000.0 -0.07140196845105833 -0.08055638158556945
1640000000.0 -0.07252863257496943 -0.03797745813249196
1660000000.0 0.006938167524101244 -0.0633676595183832
1680000000.0 0.025775095931750567 -0.02820696548980401
1700000000.0 0.005483076171067182 0.010713963246314297
1720000000.0 0.007598181795510334 -0.0015305815177313127
1740000000.0 0.006662481819689266 -0.02490431502871005
1760000000.0 0.01044430508936716 -0.03620171361392872
1780000000.0 0.05100362626777168 0.013739906790893963
1800000000.0 -0.06765476311053678 0.05492416402312548
1820000000.0 -0.0708673793879211 -0.09021454559468597
1840000000.0 -0.1500872771277612 -0.023138235083715732
1860000000.0 -0.157100151109434 -0.11718439563874739
1880000000.0 -0.16352557393927303 0.17273991473776165
1900000000.0 0.2721196700990466 -0.07307751537146699
1920000000.0 0.3271566116757923 -0.009493553908953324
1940000000.0 -0.3314239180315688 -0.11260519907431665
1960000000.0 -0.24016817843018848 0.28521493509619367
1980000000.0 0.3038880606369182 -0.2638474427764981
2000000000.0 -0.317080428971615 -0.2715235016563954
2020000000.0 -0.4203931977156805 -0.05725000042673406
2040000000.0 0.07916431548768385 0.4216900768548788
2060000000.0 0.08667449079981232 0.42188058569911396
2080000000.0 0.11470290585752148 0.4146283527278983
2100000000.0 0.25836713403561284 -0.33868413364439953
2120000000.0 0.21658176710920923 -0.35444197950116896
2140000000.0 0.3349697379913582 -0.22104647278798772
2160000000.0 0.34863732933609776 -0.173233378957245
2180000000.0 0.2763169958854782 -0.2569236717414947
2200000000.0 0.12183261429246492 -0.3427883739365615
2220000000.0 -0.3452122293587768 0.06212210139119304
2240000000.0 -0.32759173917741224 -0.09753716442304437
2260000000.0 -0.3086480739355974 -0.13910868148616484
2280000000.0 -0.12864197778923972 0.3181145609510734
2300000000.0 -0.1465624490130589 0.3212151904962782
2320000000.0 -0.06110488030457073 0.3732921366780644
2340000000.0 0.07276391303414842 -0.4061364316706259
2360000000.0 -0.4073311495400968 -0.19176355446893992
2380000000.0 0.12803405473884713 0.48289710455977086
2400000000.0 -0.46085176381049514 0.3140585109066422
2420000000.0 0.5390158925452248 -0.28287442480997366
2440000000.0 -0.5422726664125702 0.3677022586287508
2460000000.0 -0.6417384062313015 -0.2789532005630756
2480000000.0 0.6036972375205433 0.4146203843694159
2500000000.0 -0.3023823852898506 -0.6910995979026268
2520000000.0 0.7554333414707093 -0.13843672451318043
2540000000.0 -0.48030702902204914 -0.6047467345706135
2560000000.0 -0.4944306022331094 0.5888448763882684
2580000000.0 0.10956566432976544 -0.7470187413629079
2600000000.0 -0.728801928333605 -0.08637236579123696
2620000000.0 -0.1233149389736385 0.6967670376360028
2640000000.0 0.5975364178914657 -0.30358079258739884
2660000000.0 -0.39810597153604915 -0.4887504909746863
2680000000.0 -0.2459134147706063 0.5302644826342326
2700000000.0 -0.2632531813019673 -0.4628900100705931
2720000000.0 -0.14888394129434027 0.4616318500410057
2740000000.0 0.3991101956785465 -0.17397616044026953
2760000000.0 -0.25229567755590354 0.2977736289046806
2780000000.0 0.3583324942097584 0.002057550710091571
2800000000.0 -0.295129519813895 -0.1541387976889766
2820000000.0 0.13250514784354164 -0.281634963547134
2840000000.0 -0.17846480554259966 0.24526316973220189
2860000000.0 0.10517409992757544 -0.28028778235827395
2880000000.0 0.24534780258216365 -0.16830471234587582
2900000000.0 -0.29793648389744337 -0.02080933779290108
2920000000.0 0.01447427137513236 0.30348166929711845
2940000000.0 -0.1657324674539804 -0.2640773120989944
2960000000.0 -0.3157860964064043 0.008395033565322122
2980000000.0 -0.31136467728934736 -0.04190979219450771
3000000000.0 -0.3055985273201354 -0.0725964978577476
3020000000.0 0.08543948808115655 0.30697529335341567
3040000000.0 0.13989020331639493 0.28883431256310754
3060000000.0 0.009035227616305392 0.31573310255863574
3080000000.0 0.3051185451292734 -0.006724361907861662
3100000000.0 -0.20128387970424327 0.21854112038703374
3120000000.0 -0.11095427983623508 -0.2672147456533733
3140000000.0 -0.22272447692820904 0.16625785675737756
3160000000.0 -0.016177715033715876 -0.26250137732899653
3180000000.0 -0.21785704945388365 0.11574005213494665
3200000000.0 0.22906225182857473 -0.033922533015876145
3220000000.0 0.18007240570049698 -0.09790522836725506
3240000000.0 0.12670787548575466 -0.11830769394659324
3260000000.0 0.00984700128580573 0.14367168992694007
3280000000.0 -0.09809606453786192 -0.031834418107073506
3300000000.0 0.049397886317851664 -0.053026395920287926
3320000000.0 -0.0434876693708497 -0.008290032030255414
3340000000.0 0.007825694165601024 0.019223558734782174
3360000000.0 -0.0022976398710614094 0.0028809867389513314
3380000000.0 -0.0020618506365374122 -0.007610525521216639
3400000000.0 -0.017739862034146202 -0.009038154873600381
3420000000.0 0.0015537342516585397 0.03361284764363448
3440000000.0 -0.04112817160452682 0.018529845456170563
3460000000.0 0.05689433445109241 -0.012250990023896104
3480000000.0 -0.012846897995483395 -0.07278019815600395
3500000000.0 -0.0882764703915135 -0.008355284761368525
3520000000.0 -0.07533346767056773 0.07360482494258662
3540000000.0 -0.1162398496087491 0.027787320933882625
3560000000.0 0.12238907805784709 0.006489610386856758
3580000000.0 -0.07064336375968254 -0.1144301094270815
3600000000.0 0.1491543734856239 -0.018032484036325985
3620000000.0 0.00025404693307882223 -0.15898059997496342
3640000000.0 0.07856993305359818 -0.15995139350095025
3660000000.0 0.12483400525147921 -0.14441081751727794
3680000000.0 0.18383821068435185 0.06863942010177218
3700000000.0 0.010808532992546796 -0.19790280009827715
3720000000.0 -0.05014663638953557 -0.18938296127765192
3740000000.0 0.12854843915020378 -0.1330014771023658
3760000000.0 -0.15477791922864512 -0.0849831271737232
3780000000.0 -0.01157336144529961 0.16814285243872437
3800000000.0 0.15795744572255985 0.03721228240407779
3820000000.0 0.12702409439851656 -0.09213743450352169
3840000000.0 0.11779345547471441 -0.09473302201471097
3860000000.0 0.09634810679139855 -0.11263525870546368
3880000000.0 0.11126747697270498 -0.09586257071707671
3900000000.0 0.12491532580229997 0.07508367384662401
3920000000.0 0.1204786990595924 0.08845145362117546
3940000000.0 -0.096124338867238 -0.12951031679185454
3960000000.0 -0.09824698201514563 -0.14121379665696804
3980000000.0 -0.17167512751389366 0.023407366764723245
4000000000.0 0.14856451280826988 0.07478690490055749
