! Created with skrf (http://scikit-rf.org).
# Hz S RI R 50.0 
!freq ReS11 ImS11
400000000.0 -0.0709190175409628 0.8672000747230323
420000000.0 0.3896470655536016 0.7679075687690614
440000000.0 0.8173760496134822 -0.1430318767011045
460000000.0 0.31913912026464214 -0.7253108648268686
480000000.0 0.6412334568976669 -0.31688647679056914
500000000.0 -0.05586494196651965 -0.5689789790609846
520000000.0 -0.13807093536132375 -0.4736031706693316
540000000.0 0.3049385553690184 -0.30925570428857835
560000000.0 -0.29241284294214576 0.20569053399540485
580000000.0 -0.03153657568327953 0.3368431276614673
600000000.0 0.30781086768778476 -0.13626491206734984
620000000.0 -0.33725535772551307 0.11765800731553824
640000000.0 0.14618076061584712 0.35889223737565423
660000000.0 0.3989730238589695 -0.03960890499883118
680000000.0 0.015187424068542402 0.4199015897990068
700000000.0 0.19785956615849054 -0.385458932783361
720000000.0 -0.2922262257131345 -0.31219964661420013
740000000.0 0.4060628534103607 0.09681183155892287
760000000.0 0.17803058473795527 -0.36069418215435506
780000000.0 0.11127045564731441 0.355914019816988
800000000.0 0.14709407205654937 -0.3116135607669747
820000000.0 0.29229515199212036 -0.03715338352094996
840000000.0 -0.029547993033690313 -0.24667444686268541
860000000.0 0.17918742377871644 -0.11567032132155713
880000000.0 -0.08244057839468077 0.134902780774125
900000000.0 -0.040313628699185575 0.08438184335241831
920000000.0 -0.05430126538699427 0.031559827021532996
940000000.0 0.04520710682290092 0.015703560489039075
960000000.0 0.042644690328923644 -0.033466364406078405
980000000.0 0.05829884931102845 0.040027849965402415
1000000000.0 0.02949051527887305 -0.07450188185747433
1020000000.0 -0.02028582678499756 0.09613128455981532
1040000000.0 0.07931414153309667 0.0767229735502532
1060000000.0 -0.05764717337979258 0.13380293099119864
1080000000.0 -0.15466006575479083 -0.03769471336274511
1100000000.0 -0.09241410922397252 0.15529091774237463
1120000000.0 0.15306272508922303 0.13160388155070255
1140000000.0 0.2077269438711085 -0.10602945587649076
1160000000.0 0.2677028291819158 0.03614064090899074
1180000000.0 0.2289621810094866 0.2061657094460294
1200000000.0 -0.046663100281031496 0.3368428032302697
1220000000.0 0.016596504267756662 -0.3668541919521449
1240000000.0 -0.17712279144643928 0.35269550560027335
1260000000.0 0.40756365502091635 -0.11353933265145116
1280000000.0 -0.4422900425829146 0.04520476784932337
1300000000.0 0.4267651615393692 0.16388059095687088
1320000000.0 -0.20467961717963296 -0.40521285120895734
1340000000.0 -0.3858551676168586 -0.22058350111964747
1360000000.0 -0.3372988151049931 -0.27139205365264973
1380000000.0 -0.3639634853436959 -0.22634072235377062
1400000000.0 -0.39308301409965934 0.13175918355014973
1420000000.0 0.034233925305356315 0.39537810292890596
1440000000.0 0.3216099244906656 0.1855004292563651
1460000000.0 0.23292939645117372 -0.2523093199306699
1480000000.0 -0.09920180179415725 -0.2971295188837411
1500000000.0 -0.26214017146988455 -0.10586449451270642
1520000000.0 -0.25313123618560485 -0.03242590307432277
1540000000.0 0.21379876384442129 -0.07874821868228611
1560000000.0 -0.015294828665962178 0.19541184747609286
1580000000.0 -0.13657453705657266 -0.10607797804046258
1600000000.0 -0.02543942338328739 0.14377885559954012
1620000000.0 0.11738679185312012 -0.012101467097137563
1640000000.0 0.05956888863335261 -0.07345812701856269
1660000000.0 -0.06560110737894585 0.026265834874504106
1680000000.0 0.03142194620471339 0.03544085428758968
1700000000.0 -0.025902198216725965 0.011840508056424013
1720000000.0 0.00022571313136267754 0.013271427769981435
1740000000.0 -0.018642045288202708 0.008769210195341623
1760000000.0 0.00828017592703448 -0.04136206827444191
1780000000.0 -0.006313303918076102 0.07562562245135106
1800000000.0 0.004491309411957687 -0.11355249989684915
1820000000.0 0.05427514786538297 -0.13584880772577726
1840000000.0 0.14419989924214355 0.10729788127528385
1860000000.0 -0.20932629505785758 0.02254786549658755
1880000000.0 0.1081581927051411 0.2155256750793532
1900000000.0 0.22696533901703375 -0.15436918401670577
1920000000.0 -0.20376625832575293 -0.2275873874759395
1940000000.0 -0.33448643013045254 0.04321672607899655
1960000000.0 -0.04923641341346926 0.3645079451600382
1980000000.0 0.39319215723601597 0.00013098752850331256
2000000000.0 0.14722605014612117 -0.38779013203332763
2020000000.0 -0.4305795468581891 -0.004152283941437022
2040000000.0 -0.08524644094977817 0.42870641820318717
2060000000.0 0.43435279951997735 0.05206423245399878
2080000000.0 0.30096803622711127 -0.31158158097570454
2100000000.0 0.0984933710989302 -0.41513108462200077
2120000000.0 -0.19139115481286664 -0.3710836866634096
2140000000.0 -0.38913661638094904 -0.11712106832838454
2160000000.0 -0.2357861479070195 -0.312538641707811
2180000000.0 -0.36796515326451085 -0.06769993663641868
2200000000.0 -0.2732285916485512 0.2340808182520443
2220000000.0 -0.13866867955344328 0.3166561216753593
2240000000.0 -0.012481783426833369 0.34056475527844376
2260000000.0 0.08034592483384939 0.3312484689629535
2280000000.0 0.1422375803113505 0.31600342223101535
2300000000.0 0.36262828920248896 -0.01732779378340748
2320000000.0 -0.015241735310089863 -0.38917199508525985
2340000000.0 -0.3765542212607739 0.19277341528542896
2360000000.0 0.46299889376448816 0.0403805101340229
2380000000.0 -0.508645045254461 -0.047076185836874895
2400000000.0 0.5600425327332478 -0.01494195998413764
2420000000.0 -0.5559162423778632 0.25188695183461696
2440000000.0 0.31092939241996803 -0.5800814697991477
2460000000.0 0.10407069143105102 0.689699834120874
2480000000.0 -0.4280878396836057 -0.5883921099025248
2500000000.0 0.4182133636990237 0.6190026504162615
2520000000.0 -0.34825688511776015 -0.6721083702154537
2540000000.0 -0.009075322576955301 0.7588828345957971
2560000000.0 0.5287363721144067 -0.5360587698763061
2580000000.0 -0.7323574023327932 -0.0863785432898129
2600000000.0 0.3399182667871333 0.6274594625313452
2620000000.0 0.293794139961055 -0.6169126922857843
2640000000.0 0.008453585107597429 -0.6449879916994655
2660000000.0 -0.47483882751624257 0.36649176336408423
2680000000.0 0.5277924522279643 0.16284076234257194
2700000000.0 -0.17302502322309063 -0.474181296658466
2720000000.0 -0.2565751411437289 0.37838928981215875
2740000000.0 0.41459449167708556 0.02233133173520038
2760000000.0 -0.29943937066466364 -0.23179471931638804
2780000000.0 0.3324316030410678 0.11252221393305023
2800000000.0 -0.31283271852996347 0.09758225179077737
2820000000.0 -0.010151780227101698 -0.31135265269327844
2840000000.0 0.30004752980488547 0.008416207755176212
2860000000.0 -0.0765239286862144 0.2851790439320649
2880000000.0 -0.24848260684931162 -0.15370630404030297
2900000000.0 0.27378053114101714 0.10088014098577239
2920000000.0 -0.046072168030048655 -0.290386521325163
2940000000.0 -0.2847371349993064 0.08993966599252644
2960000000.0 -0.20943284682299645 0.21636445375346822
2980000000.0 -0.2931214046223762 0.08940851517821938
3000000000.0 -0.2727198659033209 -0.1490751960303381
3020000000.0 0.047046618440407015 -0.30904431291850226
3040000000.0 0.28726598988396407 0.12013204298012713
3060000000.0 -0.28696526820425694 0.11636046981584515
3080000000.0 0.20804035145842242 -0.22343021256472687
3100000000.0 -0.04065775317077983 0.2966107387872535
3120000000.0 0.013988968363486154 -0.28971420381736246
3140000000.0 0.16224493932797807 0.2293131251774243
3160000000.0 -0.25654229628284253 -0.07508593255065425
3180000000.0 0.14289612424525117 0.20545168487573828
3200000000.0 -0.17447905756738982 0.14654232903286443
3220000000.0 -0.16628008220789572 -0.1109641804109531
3240000000.0 0.11461731008966972 -0.12387697272637518
3260000000.0 -0.11681741118559841 0.06627550812827081
3280000000.0 0.09692760836878031 0.033441777172606796
3300000000.0 0.0743897813712113 0.015395410692563255
3320000000.0 0.031617427284119246 0.040185175805652486
3340000000.0 -0.017404406903623597 0.024486813992912394
3360000000.0 0.00697883043492282 -0.01088981246755393
3380000000.0 -0.003282580448932046 0.001954410591114403
3400000000.0 0.0188876153415799 -0.0012582633625640828
3420000000.0 0.031931803456992605 -0.016037661040546672
3440000000.0 0.04633313807275428 0.018703500039145768
3460000000.0 -0.034847662021010424 0.04656746392831509
3480000000.0 0.0040986317910763 0.06750373578737914
3500000000.0 0.042364655037641696 0.0649675776868634
3520000000.0 0.08108011137887661 0.038529110403092606
3540000000.0 -0.036146025947522725 -0.09705237032891563
3560000000.0 -0.0597885947397437 0.10146154748738781
3580000000.0 0.12912103646620876 0.03261363887576883
3600000000.0 -0.08249422387948435 0.131023414260995
3620000000.0 -0.04107312498372146 0.16463544797118868
3640000000.0 -0.10409150413033814 0.14803005718239617
3660000000.0 -0.03853789493155732 0.1865355053459433
3680000000.0 -0.13298944410402938 0.1400181473116804
3700000000.0 -0.19199340728082562 0.009472893543651776
3720000000.0 -0.0721524587288441 -0.17522659080797534
3740000000.0 0.12950407877845385 -0.13222861185643212
3760000000.0 -0.16815320368240638 0.06090210472268144
3780000000.0 0.170473451447814 0.017531912480323285
3800000000.0 0.012120102897095726 -0.16284407723974462
3820000000.0 -0.13052953217985333 -0.08539231996968445
3840000000.0 -0.055858729082562036 -0.13900455828012928
3860000000.0 0.14766706909229818 0.026273937750828823
3880000000.0 0.1535833501396357 -0.026928946584877482
3900000000.0 -0.016100798614638732 -0.1574041965572576
3920000000.0 -0.1354128126379185 0.09061462769119986
3940000000.0 0.12535106540336396 -0.11180574631932028
3960000000.0 0.17097020536420798 0.021913024227108422
3980000000.0 0.11966765060112465 -0.12608397135586502
4000000000.0 0.10542983851164615 -0.1299120323901791
