! Created with skrf (http://scikit-rf.org).
# Hz S RI R 50.0 
!freq ReS11 ImS11
400000000.0 -0.004166217151240496 0.8726601144914382
420000000.0 0.500213773286429 0.7013353596037336
440000000.0 0.8164074866295566 -0.14260420909441832
460000000.0 0.047331600711314176 -0.7892972713429041
480000000.0 0.4552154619408738 -0.5359548500562439
500000000.0 0.49462486089544283 -0.2514485951453108
520000000.0 0.4846288517375926 0.0585705915303918
540000000.0 -0.04300721986989005 0.43115738811910687
560000000.0 0.26214869669026014 -0.2579635047634129
580000000.0 -0.32112896609754776 -0.15165214421328585
600000000.0 0.24227995037509292 0.26268088426020847
620000000.0 -0.37620439684661283 -0.04294368423021615
640000000.0 0.38998699376613266 0.1323278856064316
660000000.0 -0.17992121489684618 -0.3769097064070509
680000000.0 -0.19913521807637363 -0.375109510786276
700000000.0 -0.3860356658183851 0.15249162706200214
720000000.0 -0.2827614635521254 -0.28844327440397416
740000000.0 -0.314026915213346 0.2547705156060495
760000000.0 0.25556748537265717 0.3067416155544526
780000000.0 -0.3523985994718871 -0.1420551567756223
800000000.0 0.35226255010990337 -0.07928928558477963
820000000.0 -0.09993632239859213 -0.29530454147058727
840000000.0 0.24740671267501746 0.05520300707812593
860000000.0 -0.0348004815181231 0.20697556285676091
880000000.0 -0.14923244491459667 0.01580689449772304
900000000.0 -0.0673922961067272 0.04210471435196438
920000000.0 -0.009373829260504648 0.044781218695644116
940000000.0 0.028810866393143227 0.004016801673321498
960000000.0 0.028273442478801182 0.02236159804944183
980000000.0 0.01284703785616779 0.044737528041705325
1000000000.0 -0.05312223679552169 -0.01940787998525828
1020000000.0 0.0661818440283819 0.04704854747846663
1040000000.0 0.07479647396675541 0.07626296658102423
1060000000.0 0.06773767316980217 -0.1384061614673136
1080000000.0 -0.08827209905650442 -0.153277368738266
1100000000.0 0.002126885853664079 -0.20723626611866708
1120000000.0 0.22056304236471194 0.05467431820913563
1140000000.0 -0.20745510492849364 0.14993446519027864
1160000000.0 0.01020418497672969 0.27718887643047857
1180000000.0 -0.27265700913165913 -0.1287554878616201
1200000000.0 0.32188319789226605 0.03451203543568227
1220000000.0 0.1056447237235874 -0.3325215190764923
1240000000.0 -0.35365452598667513 -0.1410258107232839
1260000000.0 0.04114317235993153 0.415270996470427
1280000000.0 -0.0026099741777193463 -0.44304601527729975
1300000000.0 -0.06721549137668677 0.45747535573155446
1320000000.0 0.04332109540277724 -0.46012847776009524
1340000000.0 -0.432836553083447 -0.13376210163168714
1360000000.0 -0.4150428315568683 0.14295602113292524
1380000000.0 -0.29035206514506434 0.31596474910359745
1400000000.0 -0.05916122684865352 0.4043191064327446
1420000000.0 0.18498758220109918 0.3403386145440116
1440000000.0 0.11794241246993777 0.34535945852050326
1460000000.0 0.30143612866924485 0.16307287097119302
1480000000.0 0.2248574904111234 -0.22798177238957498
1500000000.0 -0.18917815305712035 -0.22613994806045898
1520000000.0 -0.19788083104535256 0.1795529230698668
1540000000.0 -0.10617440612519283 -0.20961657775075646
1560000000.0 0.19423631231826982 -0.036623367609479957
1580000000.0 -0.038213944427597374 0.16378491789094832
1600000000.0 -0.034194434237129555 0.13337943460017085
1620000000.0 -0.09967206106502105 0.04311372107284712
1640000000.0 0.05282951668048334 -0.06941687366235047
1660000000.0 -0.007477269714470135 -0.06428457051359365
1680000000.0 0.03662731346565285 -0.025194692956510528
1700000000.0 0.017218138312472098 0.02374348614904139
1720000000.0 -0.008457316145701652 -0.010047360463857003
1740000000.0 0.01728546521844917 -0.003939919763091026
1760000000.0 -0.04003506107157276 0.004991533354242765
1780000000.0 0.0009050453003947251 0.07474054375035415
1800000000.0 0.006416789078195816 0.11298859638634273
1820000000.0 0.14586888594999753 -0.0072425714272753875
1840000000.0 0.16409675498975368 0.06967219191478864
1860000000.0 -0.1783309772807106 0.10335920123146479
1880000000.0 0.1160725871168572 0.20442614279510202
1900000000.0 0.2693339779390745 -0.00892881849538455
1920000000.0 0.007155598922303709 -0.30368104972445004
1940000000.0 -0.31030904008904303 -0.1366618873554257
1960000000.0 -0.048625457052977925 0.3685926214579432
1980000000.0 0.36282985748438573 -0.16029690303635794
2000000000.0 -0.08006850883284478 -0.4096850920394256
2020000000.0 -0.40324848302029814 0.1527836778147525
2040000000.0 -0.04891297896184134 0.43479318390027233
2060000000.0 0.4178084327035834 0.13424014009538682
2080000000.0 0.3875842894957724 -0.1982806964067617
2100000000.0 0.24753831293121728 -0.3507831290425447
2120000000.0 -0.028135418402720172 -0.4191200402278766
2140000000.0 -0.29861962854111085 -0.2791173239222451
2160000000.0 0.011603921669792325 -0.3923812653512946
2180000000.0 -0.16581168729213014 -0.33483766005966537
2200000000.0 -0.27343986367109363 -0.2312730601683771
2220000000.0 -0.3066948883328784 -0.16012569259553192
2240000000.0 -0.340010088678032 0.03442229526582785
2260000000.0 -0.28063051739156997 0.1960917347736728
2280000000.0 -0.16593712252953802 0.3051406422810015
2300000000.0 0.32715862972863 0.15673626796235382
2320000000.0 0.06742752916831785 -0.38008420943424254
2340000000.0 -0.39420057704410766 0.13391148347214382
2360000000.0 0.40309904435629684 0.21420420172667692
2380000000.0 -0.3559537540675074 -0.3566507335309787
2400000000.0 0.3748322111327996 0.4116770472673572
2420000000.0 -0.5743411203425206 -0.20692594537445771
2440000000.0 0.6028598971163598 -0.268937115186138
2460000000.0 -0.3184730603131051 0.6243004298708493
2480000000.0 0.022749030929778927 -0.7317377634828679
2500000000.0 -0.0690226353352144 0.7499072619920225
2520000000.0 0.2573044569590198 -0.719004853418171
2540000000.0 -0.5691407169298248 0.5118548825936228
2560000000.0 0.7593601233027979 0.00679299383267293
2580000000.0 -0.3644205278326972 -0.64970052400432
2600000000.0 -0.21903281514629533 0.6865896005734832
2620000000.0 0.6348651018763926 -0.2701819027168463
2640000000.0 0.44952154120158017 -0.47234502892224556
2660000000.0 -0.60718730444449 -0.004316338959566186
2680000000.0 0.32420098208163456 0.4553249748189008
2700000000.0 0.07750841223154559 -0.5059962570927519
2720000000.0 -0.3718120429655977 0.27824566458474354
2740000000.0 0.4213478253146445 -0.02947906799689786
2760000000.0 -0.3670069418848897 -0.1158044258721827
2780000000.0 0.35485202619417394 -0.024049672993917807
2800000000.0 -0.25573747536634056 0.21143227924008062
2820000000.0 -0.14745641922404285 -0.2778487417801502
2840000000.0 0.28918587656285516 -0.08889920670291417
2860000000.0 -0.09021334743727301 0.28380663345037327
2880000000.0 -0.12093640364286108 -0.26924761019846954
2900000000.0 0.07717490082759676 0.28620296081379476
2920000000.0 0.21678068001004225 -0.20639682252354702
2940000000.0 -0.26643863505518217 -0.14788116279503521
2960000000.0 -0.29580300399226617 0.08630028904322047
2980000000.0 -0.31034117026711255 0.03978613144569966
3000000000.0 -0.25650269814320525 -0.18292791389033067
3020000000.0 0.09168528837001787 -0.3010621070556484
3040000000.0 0.2831783356791366 0.13053013154904672
3060000000.0 -0.30952550048822 0.014415540180136922
3080000000.0 0.2743077532683877 -0.13537721806487235
3100000000.0 -0.2001220450053281 0.2236488412682837
3120000000.0 0.1228286545981984 -0.2647539987819705
3140000000.0 0.08618368729735781 0.26933962272752227
3160000000.0 -0.2548960302582436 -0.08043448090136875
3180000000.0 0.06305598213033393 0.2411437705038971
3200000000.0 -0.2126369305518199 0.0809606164428382
3220000000.0 -0.16948462189656394 -0.10710645931525897
3240000000.0 0.10058901910645364 -0.13487645661530412
3260000000.0 -0.0484373504404999 0.12441018193204549
3280000000.0 0.07216506649909568 -0.0707931962750024
3300000000.0 -0.03186289107329751 -0.06491529944551659
3320000000.0 -0.037879960453242205 -0.028571747860982523
3340000000.0 -0.0012115028970973087 -0.02618571202255114
3360000000.0 -0.0077767470487170275 -0.006852240140214636
3380000000.0 -0.006056822810224595 0.0011956686072306171
3400000000.0 0.0020737746397662842 0.020652797213035732
3420000000.0 0.02843376043953144 -0.024129996507676794
3440000000.0 0.014129442459399419 -0.04948408571175901
3460000000.0 0.058900903005803876 0.014671860124944935
3480000000.0 0.05344262058117255 -0.04637930796486164
3500000000.0 -0.0755584572453293 -0.028723176438293283
3520000000.0 -0.07880850689694525 0.04792977014818416
3540000000.0 0.10303174303782055 0.022505142051357643
3560000000.0 -0.05684822255128417 -0.10367912597114376
3580000000.0 -0.06366750714246736 0.11767280699384004
3600000000.0 -0.13972082693476356 -0.06850515285216648
3620000000.0 -0.15483312037075783 -0.07003583135667019
3640000000.0 -0.10600894894061065 -0.14661686994233009
3660000000.0 -0.18188877524998942 -0.05725065008199681
3680000000.0 -0.1809807425305626 -0.06681273466251861
3700000000.0 -0.18042568662150849 -0.06058186761165946
3720000000.0 0.012617838223387426 -0.18562644521755517
3740000000.0 0.17441393799365087 -0.04879726176280708
3760000000.0 -0.1692932589328486 -0.038577229059248666
3780000000.0 0.10987705246304685 0.12438681558390173
3800000000.0 0.14751482307953515 -0.05696255491044419
3820000000.0 0.00177974456343341 -0.1519943419296897
3840000000.0 0.05134681890469355 -0.13872304260389878
3860000000.0 0.1467700273044958 -0.010608338766655713
3880000000.0 0.1433533390268036 -0.04954767644430119
3900000000.0 -0.04837075718073078 -0.1449746659128422
3920000000.0 -0.1387772275628133 0.07401549021500817
3940000000.0 0.1563545149252372 -0.04408872080784406
3960000000.0 0.03068441794070424 0.1658525822740102
3980000000.0 0.16987486662982984 0.022750888608085735
4000000000.0 0.1437688071707903 -0.08491464941482622
