! Created with skrf (http://scikit-rf.org).
# Hz S RI R 50.0 
!freq ReS11 ImS11
400000000.0 0.09846579571636593 0.8655990348013523
420000000.0 0.5464756345005689 0.6643886140037955
440000000.0 0.8035200873531092 -0.19430440584310416
460000000.0 0.07179135200034989 -0.788290264725387
480000000.0 0.39208021473756177 -0.5848224907255557
500000000.0 0.4759576614649274 -0.2845122955315653
520000000.0 0.45886322935685375 0.1704421879643357
540000000.0 0.01777703025533182 0.4353618993392079
560000000.0 0.19191793736535534 -0.31490481356460037
580000000.0 -0.31115306609001736 -0.16854003345826585
600000000.0 0.22967937996322707 0.2740769634125446
620000000.0 -0.35883404737878555 0.12181498498700886
640000000.0 0.4095488516145769 -0.03292080555679028
660000000.0 -0.3306186073249293 -0.25102318962549486
680000000.0 -0.2857547093006028 -0.30859858517585437
700000000.0 -0.40193204287842993 0.09606936125873893
720000000.0 -0.20126504229450262 -0.35236320770251006
740000000.0 -0.35672311833744386 0.19749394812730647
760000000.0 0.26275262535728394 0.30525118325067035
780000000.0 -0.3805704746103948 -0.04159068998073142
800000000.0 0.2684743247638648 -0.24135417094847544
820000000.0 -0.16706117870186632 -0.2601052736423547
840000000.0 0.21850594313858962 0.12164009267858358
860000000.0 -0.1299233106093125 0.1614945790200629
880000000.0 -0.10323193802271258 -0.10653338765335656
900000000.0 -0.0762449490100165 0.019635521414571776
920000000.0 0.015462837242719915 0.043406670961460156
940000000.0 0.03039305192018039 0.00505247563879053
960000000.0 0.00574937975687545 0.036841100498867366
980000000.0 0.007987301190135344 0.0473232535647178
1000000000.0 -0.04672960724901149 -0.03316861670030777
1020000000.0 0.050447992132167795 0.06332960840400045
1040000000.0 0.0459601683553321 0.0941361150590961
1060000000.0 0.13771270713019984 -0.06242223592026079
1080000000.0 0.029435264234429246 -0.1727140507337014
1100000000.0 0.09978825791985177 -0.18206387429106463
1120000000.0 0.21447351435967782 0.07997940551052272
1140000000.0 -0.14732859108599844 0.21161007477078847
1160000000.0 0.1349116830472161 0.24430707079406802
1180000000.0 -0.3007478392927947 0.030164944190484135
1200000000.0 0.3018585759877786 -0.11933538412084181
1220000000.0 -0.01242028281317567 -0.3492920029150004
1240000000.0 -0.3779065120187277 -0.053297158421984646
1260000000.0 0.11800033606439528 0.4007244516492986
1280000000.0 -0.06390618540806021 -0.43878860596082403
1300000000.0 -0.025795248771418245 0.4618440707727821
1320000000.0 0.03710311819646955 -0.46050218144304356
1340000000.0 -0.4163407846417224 -0.17819431180562006
1360000000.0 -0.4382071449519857 0.01036050846347275
1380000000.0 -0.3758877760648184 0.20616716039849586
1400000000.0 -0.18322314608346663 0.3662907819306303
1420000000.0 0.11962263416173309 0.37030088279017226
1440000000.0 0.15414582536142427 0.33228159921072875
1460000000.0 0.3316896405253064 0.08900700644026706
1480000000.0 0.1894329793616282 -0.25681320407085084
1500000000.0 -0.2582322369020138 -0.1360913019652739
1520000000.0 -0.13835192871894902 0.22461357563099474
1540000000.0 -0.1625599007824858 -0.16508035756600678
1560000000.0 0.18479081753780127 -0.06037864062275392
1580000000.0 -0.11217898769801671 0.123446250018069
1600000000.0 -0.10060860017663632 0.09421600107702513
1620000000.0 -0.09473800579511597 0.055367293998733275
1640000000.0 0.023790808900944604 -0.08585475778549004
1660000000.0 -0.06322921884494463 -0.025132317895857133
1680000000.0 -0.00854104107523152 -0.04691783443559937
1700000000.0 0.013245279882257658 0.02918510238224951
1720000000.0 0.013142003189061897 0.005744438805744226
1740000000.0 0.017681293429766768 -0.0018645362760962047
1760000000.0 0.024727673887378083 0.03235479769535677
1780000000.0 0.07546416867280865 -0.010268724224952206
1800000000.0 0.10747292909447395 0.03959890430096349
1820000000.0 0.10752362234060583 -0.09963920677838436
1840000000.0 0.17238387484051457 0.046976064195666446
1860000000.0 -0.1941366452844845 0.07045106133147888
1880000000.0 0.04658261316918795 0.23097675131452725
1900000000.0 0.2682025715647912 0.03745586364127288
1920000000.0 0.01573956608606459 -0.30475923844074293
1940000000.0 -0.3279707136619897 -0.09144492074636429
1960000000.0 0.008575706440033923 0.3723635694639424
1980000000.0 0.34144912022506363 -0.2023403453448043
2000000000.0 -0.1336129251294233 -0.3946431140832354
2020000000.0 -0.3765531246270492 0.20706273817218787
2040000000.0 -0.004228327395140291 0.43572555092271653
2060000000.0 0.40575676280838513 0.16179849655763553
2080000000.0 0.36852079868204934 -0.22697121793017566
2100000000.0 0.19891300454595806 -0.3780621939424402
2120000000.0 -0.057117364117887856 -0.4147964064850963
2140000000.0 -0.3553536053968968 -0.19886070979965315
2160000000.0 -0.10730226336059098 -0.37699255441329166
2180000000.0 -0.3149514412001176 -0.20090696926983476
2200000000.0 -0.356593000790522 -0.03958061423425388
2220000000.0 -0.34193664612646946 0.059452150826784705
2240000000.0 -0.25830375448442633 0.22597938112707108
2260000000.0 -0.11654674975988863 0.32334934621795314
2280000000.0 0.05223334102901141 0.34479186826697084
2300000000.0 0.36096843847530136 -0.050806534422015256
2320000000.0 -0.1254444731258186 -0.36705556756390023
2340000000.0 -0.3343713800433002 0.2520474284095555
2360000000.0 0.4516918380548435 0.08235035336491157
2380000000.0 -0.43052256962350177 -0.26560026060685415
2400000000.0 0.4678038615833277 0.3044556197538068
2420000000.0 -0.6107428971183921 -0.0015025812326995862
2440000000.0 0.48854507451598145 -0.4428844399573587
2460000000.0 -0.0869986133912425 0.6936991689605971
2480000000.0 -0.18870776583237237 -0.7049997372446836
2500000000.0 0.2815899692845259 0.6942115207003395
2520000000.0 -0.07080683159855716 -0.7565724431875502
2540000000.0 -0.32272791871781475 0.6890176870594312
2560000000.0 0.6609735662353609 -0.3646148258282396
2580000000.0 -0.6573984851478829 -0.34000470616814876
2600000000.0 0.11988134718577449 0.7065653148677992
2620000000.0 0.42201970624002055 -0.5411678256923845
2640000000.0 0.12260576303845956 -0.636849747262008
2660000000.0 -0.5401736015642131 0.2691317295717418
2680000000.0 0.47869690584206676 0.2832154475856439
2700000000.0 -0.0964750227832872 -0.5004133570417154
2720000000.0 -0.314532246355142 0.3389700744432033
2740000000.0 0.41616446134707774 -0.05929112294383845
2760000000.0 -0.3506575707116718 -0.15320027147034043
2780000000.0 0.3501241787456985 0.04615539167187741
2800000000.0 -0.29365804866875905 0.1486567602275324
2820000000.0 -0.05109902899574269 -0.3077366709673006
2840000000.0 0.29918655967907737 0.02086941312681769
2860000000.0 -0.1571917996213533 0.2492352137715744
2880000000.0 -0.12422690217042598 -0.26417939242116995
2900000000.0 0.16126027433656462 0.244021339064457
2920000000.0 0.13417463461997015 -0.26350208585668966
2940000000.0 -0.2974909679862397 -0.05303865827260734
2960000000.0 -0.21020588387811423 0.22113838221511206
2980000000.0 -0.2643508342807671 0.1610602177560534
3000000000.0 -0.3059551436154693 -0.06308626483444314
3020000000.0 -0.059208747453080426 -0.3072515376573309
3040000000.0 0.30871854648187164 -0.032456140263158684
3060000000.0 -0.2886525681536205 0.1095289772985647
3080000000.0 0.21576048841923856 -0.21452557823034774
3100000000.0 -0.10866788913580981 0.27880588189182776
3120000000.0 0.04669628168224637 -0.2876674631996227
3140000000.0 0.14561788819480811 0.2421238701958798
3160000000.0 -0.2598129879221422 -0.0650934939226501
3180000000.0 0.12459500803516473 0.21753739306577394
3200000000.0 -0.19917476604059156 0.11169125501082079
3220000000.0 -0.15664932496320105 -0.12567256383318137
3240000000.0 0.11070923267767124 -0.12876232549825395
3260000000.0 -0.050798238759862765 0.12547799885744898
3280000000.0 0.08116788642697037 -0.06294650890085703
3300000000.0 0.025501229360057692 -0.06967915105163103
3320000000.0 0.04193737165339023 -0.024617376242431294
3340000000.0 0.021388036454645265 0.01746507749622949
3360000000.0 -0.005444457390196561 -0.010908625671759445
3380000000.0 -0.0038131076741450597 0.00044181884397167403
3400000000.0 -0.0015238349259482841 -0.018765317553972035
3420000000.0 -0.035092014653559246 -0.0026495873608474614
3440000000.0 -0.032178451160299326 -0.03815051163905178
3460000000.0 0.02291661388317548 -0.0539380251443679
3480000000.0 -0.05051147216760482 -0.046617030965259966
3500000000.0 -0.04132284955531991 0.06784819108944153
3520000000.0 0.04803248914214602 0.07773604171602687
3540000000.0 0.03126159949378328 -0.09960223209825872
3560000000.0 -0.11349197814754605 0.028920277063741607
3580000000.0 0.09773384421182425 0.089579074487321
3600000000.0 -0.1300217977769958 0.08241051794705206
3620000000.0 -0.16004784587739213 0.05550570287656099
3640000000.0 -0.17720664759573335 -0.037259293729231494
3660000000.0 -0.1752826678102087 0.07592767503745182
3680000000.0 -0.1687740035012011 0.09469447851955075
3700000000.0 -0.17111921318325482 0.08641841387663281
3720000000.0 -0.1186015416735917 -0.14626186957248044
3740000000.0 0.08629047805175376 -0.16100573410288685
3760000000.0 -0.14750185948670363 0.09544501369156594
3780000000.0 0.16685417458559182 0.018076500268719983
3800000000.0 0.05697248867256101 -0.14957243728177166
3820000000.0 -0.06087348500854759 -0.14196992703439365
3840000000.0 0.0034282668260445562 -0.1497390419722075
3860000000.0 0.14393104572513649 -0.0426256287553059
3880000000.0 0.10920312622303949 -0.1098561549026379
3900000000.0 -0.07727674663472503 -0.13537867368434459
3920000000.0 -0.1285754273806046 0.09504055846930516
3940000000.0 0.1483972963877776 -0.06980566549337856
3960000000.0 0.06598091171712904 0.1567323768881929
3980000000.0 0.16241533956671317 0.058999791080237306
4000000000.0 0.16803141931846646 -0.01397781519727846
