! Created with skrf (http://scikit-rf.org).
# Hz S RI R 50.0 
!freq ReS11 ImS11
400000000.0 0.03562010108319895 0.8687495670495321
420000000.0 0.5245838528180111 0.6823829884053848
440000000.0 0.8073965117988061 -0.18366571820550992
460000000.0 0.08282670621824105 -0.7865041521454238
480000000.0 0.44360313231912346 -0.5465670436263534
500000000.0 0.46117130320832117 -0.3122468524063779
520000000.0 0.4830504470746552 0.06885390714036353
540000000.0 -0.06382424974702375 0.42856971424816465
560000000.0 0.2551345363847991 -0.26850942818121826
580000000.0 -0.3526879368956864 -0.03380113687151858
600000000.0 0.27569006265489393 0.22647448926232722
620000000.0 -0.3774638828587193 0.030598681081968525
640000000.0 0.40854856391042954 -0.04730287634967326
660000000.0 -0.34023659494174546 -0.2376983683860715
680000000.0 -0.2894505907364242 -0.30464298364866177
700000000.0 -0.4049110021654002 0.08256449139993187
720000000.0 -0.12236387003499988 -0.38606800578564776
740000000.0 -0.3482868431112021 0.21095345054272988
760000000.0 0.26615984950331595 0.3019178022032149
780000000.0 -0.381833264248145 -0.02234886668919759
800000000.0 0.25526044238356416 -0.25524878710917426
820000000.0 -0.18384804188603834 -0.2482051492156401
840000000.0 0.21256476299502688 0.13243642023211752
860000000.0 -0.15912114276915024 0.1332423947397338
880000000.0 -0.10177845483332035 -0.1078145917733817
900000000.0 -0.06367508142848304 -0.04720515289407467
920000000.0 -0.00452149355325646 0.046195990822253515
940000000.0 0.026029940220403287 0.015799450705032993
960000000.0 0.009012393986491642 0.0357084877252187
980000000.0 0.018297063738069705 0.04354463975256571
1000000000.0 -0.05541289294629033 -0.012917387858050711
1020000000.0 0.07275663254093091 0.03559299211046881
1040000000.0 0.05184452062196746 0.09143003678574307
1060000000.0 0.14094904262529753 -0.05501265782056789
1080000000.0 0.07093177757136715 -0.1602980174014701
1100000000.0 0.12847656120193263 -0.16292281030209263
1120000000.0 0.21004996451084648 0.08956324750576071
1140000000.0 -0.17589183558676239 0.18796432040318325
1160000000.0 0.19583116420827507 0.19872345146696008
1180000000.0 -0.2886849698968944 0.0875833868479682
1200000000.0 0.2911210556734622 -0.14158581077825397
1220000000.0 -0.017041550768312 -0.3482701648576441
1240000000.0 -0.38045452856969914 -0.012081183559181285
1260000000.0 0.16396636677495027 0.38415657386694163
1280000000.0 -0.0912718398613615 -0.4341888202080785
1300000000.0 -0.005346013875714173 0.46258724871249496
1320000000.0 0.024246571613303087 -0.46156412399058516
1340000000.0 -0.4159252601493212 -0.17946328164919345
1360000000.0 -0.4376848113959001 0.03385858135636342
1380000000.0 -0.3875336576041387 0.1848598723005509
1400000000.0 -0.21375190938416294 0.3504451733225712
1420000000.0 0.11497402427961662 0.3725753633860793
1440000000.0 0.13688786271309836 0.3403402341469802
1460000000.0 0.3300409938573226 0.09477789944647257
1480000000.0 0.12296589825216317 -0.2935294186284984
1500000000.0 -0.2626065462862204 -0.125700626944938
1520000000.0 -0.0979437772440056 0.2434883790281612
1540000000.0 -0.1695368925586598 -0.15524620147787835
1560000000.0 0.1842825045719969 -0.05905499868292261
1580000000.0 -0.06230493072493408 0.15318014507718306
1600000000.0 -0.02067342812999418 0.13547612012080804
1620000000.0 -0.08865925294131036 0.06447315407341739
1640000000.0 -0.025700975930510284 -0.0863567646835602
1660000000.0 -0.06447111780139018 -0.023485435018616437
1680000000.0 -0.00699664182271727 -0.04806552940321018
1700000000.0 0.007661094874573399 0.0318468958684991
1720000000.0 -0.013294818616938604 -0.00537872941347042
1740000000.0 -0.010555046314287438 -0.013444314808126577
1760000000.0 0.0408134080532166 -0.00348039114412674
1780000000.0 0.0687487245913824 -0.03369196402904741
1800000000.0 0.11534506322059827 -0.001111676083780105
1820000000.0 0.10613806938577011 -0.10332206450870796
1840000000.0 0.16193658346757028 0.07853476434703231
1860000000.0 -0.2038075392385167 0.03863897197189838
1880000000.0 0.020939488387943336 0.23548772153213818
1900000000.0 0.2602228452102777 0.07572397273887321
1920000000.0 0.07528938060446828 -0.2961004663937842
1940000000.0 -0.2996190382376018 -0.16141523166026014
1960000000.0 -0.033619118363037256 0.3702860667523454
1980000000.0 0.3510441780502509 -0.18347647783741503
2000000000.0 -0.1301922349812742 -0.3947947009498878
2020000000.0 -0.36986004523629307 0.21850089383180266
2040000000.0 0.05786368473112881 0.43147093173024437
2060000000.0 0.4319798208782165 0.06531891747447938
2080000000.0 0.3208930888385837 -0.2908750930243504
2100000000.0 0.15275676401042962 -0.39919210405989297
2120000000.0 -0.09510683367972789 -0.4083513760631395
2140000000.0 -0.3774644655129508 -0.15505738810889189
2160000000.0 -0.1658106976907265 -0.35655943137013685
2180000000.0 -0.32167268864739984 -0.1905996005522742
2200000000.0 -0.35482247658706945 -0.05373627073457417
2220000000.0 -0.3438856715751511 0.04533416029136774
2240000000.0 -0.26279314664322184 0.22151398621058765
2260000000.0 -0.07940280920853703 0.33473400005662834
2280000000.0 0.03971771804087652 0.34705037165185604
2300000000.0 0.36365473239629964 -0.030169662981189907
2320000000.0 -0.10275856589563448 -0.3744343232331638
2340000000.0 -0.3257054725179914 0.26331282811941426
2360000000.0 0.45402100373549387 0.06786414390411934
2380000000.0 -0.45311078602339844 -0.22472458518401386
2400000000.0 0.48123748934036353 0.2822765888698501
2420000000.0 -0.6103463916042294 0.021830595807941867
2440000000.0 0.47600456793745594 -0.4560676590366963
2460000000.0 -0.05447998405813299 0.6970776318873134
2480000000.0 -0.28321618820621214 -0.6723834703198581
2500000000.0 0.30009415973801845 0.6865945205742578
2520000000.0 -0.161393299536242 -0.741981306938052
2540000000.0 -0.25258679476381257 0.717765949116664
2560000000.0 0.6439577575019372 -0.39384559394671365
2580000000.0 -0.6599022125324308 -0.3351391679206773
2600000000.0 0.14371349332446176 0.7010694781524982
2620000000.0 0.43711824772302954 -0.5269340711811804
2640000000.0 0.111339505760297 -0.637734848504636
2660000000.0 -0.5449755584819025 0.25667272567085103
2680000000.0 0.47231744883248206 0.2912313270692969
2700000000.0 -0.07972417007207469 -0.5017700140060389
2720000000.0 -0.2902950010473087 0.3583382921557257
2740000000.0 0.4119807551352527 -0.07668077994386717
2760000000.0 -0.3706394179534854 -0.09251943245106056
2780000000.0 0.3530873952593077 -0.0067231398376337796
2800000000.0 -0.2867252054015199 0.1619649444488547
2820000000.0 -0.05802426154561287 -0.30684549643920944
2840000000.0 0.2982296652181797 0.03397169133626511
2860000000.0 -0.15045828862484462 0.25325604271579005
2880000000.0 -0.11019619680245665 -0.27074217579575266
2900000000.0 0.13271756398654405 0.2610698740598758
2920000000.0 0.17074927802973405 -0.24091496626132877
2940000000.0 -0.29072286378529183 -0.07968164257955225
2960000000.0 -0.2333573785404066 0.1946210254924555
2980000000.0 -0.2724804941634242 0.14494211456340156
3000000000.0 -0.31170795961185943 -0.0007273723448632809
3020000000.0 -0.07133190465554265 -0.30394378279641165
3040000000.0 0.30921026130703694 -0.005679278480533874
3060000000.0 -0.2724787702649587 0.1416795029166012
3080000000.0 0.23497874963553192 -0.19198174287479164
3100000000.0 -0.1416966062536512 0.26300341222445406
3120000000.0 0.018495134398979273 -0.29026501950811656
3140000000.0 0.1745888345102749 0.22099844358293777
3160000000.0 -0.2674400672366612 0.008344902104787206
3180000000.0 0.16906359602847773 0.1854235719322185
3200000000.0 -0.16954318199136512 0.15277674229933236
3220000000.0 -0.18053337872695122 -0.08978481361163408
3240000000.0 0.09048600966950815 -0.14490913116901974
3260000000.0 -0.016449665971125703 0.13486197028001654
3280000000.0 0.07186320799451784 -0.07467077439882747
3300000000.0 0.0016662699583789196 -0.07543352005294399
3320000000.0 0.04740154493668329 -0.014738724821276769
3340000000.0 -0.01965312875100187 0.020207186764584606
3360000000.0 0.01253139185186257 -0.0006439498689633762
3380000000.0 0.0031315988064929876 -0.0006897975160391752
3400000000.0 0.005373363168719664 0.01723395983854813
3420000000.0 -0.017989483022149356 0.029329867300953716
3440000000.0 -0.047926485664950676 0.010718345389593598
3460000000.0 0.015312124089289796 -0.05604292284142079
3480000000.0 -0.06192666011510188 -0.028918539411050718
3500000000.0 -0.02103838616701721 0.07753918855535295
3520000000.0 0.091546850948294 0.0062798374454130605
3540000000.0 -0.018819616214617887 -0.10264799850704259
3560000000.0 -0.0980160448440423 0.06416460132142127
3580000000.0 0.11709882537119627 0.062441852965734436
3600000000.0 -0.13313887272618993 0.0771412721161775
3620000000.0 -0.1478316204194617 0.08157641323030654
3640000000.0 -0.1819144888928287 -0.0015220722008520515
3660000000.0 -0.17503595075782025 0.07880534944777236
3680000000.0 -0.1873307710596388 0.052719119793523526
3700000000.0 -0.1774969910669477 0.07250456975954785
3720000000.0 -0.09602995676582952 -0.16261185451979687
3740000000.0 0.09695992866580624 -0.15547273577140194
3760000000.0 -0.16355562201981524 0.06364207521920641
3780000000.0 0.14200881026150794 0.09040486947769387
3800000000.0 0.1252993764350966 -0.10056169935735457
3820000000.0 -0.017859099183000854 -0.15414042793759986
3840000000.0 0.0469836948049864 -0.14209210221381258
3860000000.0 0.14566507145530705 0.03756216218483935
3880000000.0 0.11704768539481408 -0.10139675943068929
3900000000.0 -0.11462630408533221 -0.10678841002450502
3920000000.0 -0.09864865897146406 0.12699637495170232
3940000000.0 0.1435734679649084 -0.08139089714175252
3960000000.0 0.07780417845750028 0.15218872893992613
3980000000.0 0.16902492881490355 0.03961628604968071
4000000000.0 0.16767555409907234 0.008956314315240911
