! Created with skrf (http://scikit-rf.org).
# Hz S RI R 50.0 
!freq ReS11 ImS11
400000000.0 0.10344843189465558 0.8647734749298732
420000000.0 0.5267692046321656 0.6795189684462719
440000000.0 0.8164064463797708 -0.1380932142152386
460000000.0 0.01743364238187803 -0.7921913494900588
480000000.0 0.3800687351382863 -0.5909366810812491
500000000.0 0.537396357150976 -0.13732429365735585
520000000.0 0.4832540976107869 0.09237065685945611
540000000.0 0.0611737587571515 0.42867332686208487
560000000.0 0.27079878966509957 -0.24956352088481665
580000000.0 -0.29346537041505577 -0.2005139555688194
600000000.0 0.3124259443519864 0.176160263886102
620000000.0 -0.3499280198531847 0.14261589014751674
640000000.0 0.4096468324653053 -0.016434921024149472
660000000.0 -0.33739634902315496 -0.24220377985390842
680000000.0 -0.30325659651673315 -0.2918703068065644
700000000.0 -0.39845053386513657 0.10773001020018619
720000000.0 -0.12207475622143393 -0.38660229942432783
740000000.0 -0.3431873958325016 0.22023385976918053
760000000.0 0.25964989399204574 0.30756573591704783
780000000.0 -0.38307146701149813 0.0043952013961630464
800000000.0 0.26237156268867007 -0.24777994701647335
820000000.0 -0.19229401965593856 -0.2415780896178847
840000000.0 0.20558694675073672 0.14276831925810504
860000000.0 -0.16002983514126984 0.13189746096722954
880000000.0 -0.08911196392588137 -0.11822024511528297
900000000.0 -0.07083088647323454 -0.03549907226915051
920000000.0 -0.0027043117369979323 0.046313039366396656
940000000.0 0.027997606313656165 -0.01080668047483631
960000000.0 -0.008863638165517121 0.03633655877058425
980000000.0 0.030591348531460717 0.036670586376948824
1000000000.0 -0.05315907924380931 -0.0207149406240052
1020000000.0 0.06262835704797448 0.0522975687006912
1040000000.0 0.03720768770049259 0.09790831435007358
1060000000.0 0.14776726459280667 -0.031153257119100712
1080000000.0 0.08949289923993758 -0.15043275977286397
1100000000.0 0.12341044047998885 -0.1669259775997587
1120000000.0 0.2150299228525944 0.07640283278325875
1140000000.0 -0.13006734209575643 0.22207539649447564
1160000000.0 0.2000909767011203 0.1940089599808822
1180000000.0 -0.2781937350974742 0.11765247966220183
1200000000.0 0.26404063258474264 -0.18787010303475357
1220000000.0 -0.07485218057122782 -0.34078357293172495
1240000000.0 -0.3803767385776393 -0.008497208638917154
1260000000.0 0.1600082466302273 0.38597616503187915
1280000000.0 -0.09757138159656066 -0.43266346495130564
1300000000.0 -0.00849677009415774 0.4624520647679837
1320000000.0 0.03284707014789439 -0.46117666458449713
1340000000.0 -0.4069618583828748 -0.19887787998114323
1360000000.0 -0.43882108125938984 0.0015057986139558005
1380000000.0 -0.39314817748474584 0.1725538074244833
1400000000.0 -0.2181860733562151 0.3477451094314745
1420000000.0 0.09451987343729264 0.37836486080148796
1440000000.0 0.14197590596126183 0.3379791679267142
1460000000.0 0.3341534947647701 0.077084970738086
1480000000.0 0.16523667628629982 -0.27166524914815376
1500000000.0 -0.2658862580284866 -0.11617740780977671
1520000000.0 -0.12261505863210251 0.2317413332351432
1540000000.0 -0.17072343742281265 -0.15369239569253565
1560000000.0 0.18239915521780845 -0.06292729511506388
1580000000.0 -0.07123698833994498 0.14916751815184456
1600000000.0 -0.03332333719049472 0.13288786906888128
1620000000.0 -0.08688686410187556 0.06717454099740865
1640000000.0 -0.020099663504694065 -0.08772120493659023
1660000000.0 -0.06548647270396883 -0.020756626454532235
1680000000.0 -0.0046085419298407026 -0.04857543577784476
1700000000.0 0.0011360796057269537 0.032853121966046145
1720000000.0 -0.01423523722627826 -0.0033333046326957413
1740000000.0 -0.01506524284138412 0.00721536058386151
1760000000.0 0.03243159057719009 -0.02517063004659656
1780000000.0 0.03981207284939261 -0.06559406699319124
1800000000.0 0.11369789823973032 -0.019568657556056076
1820000000.0 0.09128704060804498 -0.1168679513276649
1840000000.0 0.17198308304186563 0.05433776738826379
1860000000.0 -0.1971437323018418 0.06605301294164986
1880000000.0 0.04436530576894982 0.23264168857275272
1900000000.0 0.26343287776193564 0.06625699581494846
1920000000.0 0.06294910453160901 -0.29941809478074327
1940000000.0 -0.30356705623080316 -0.15427295903310564
1960000000.0 -0.04074431594106211 0.36969718636070736
1980000000.0 0.3640375783348648 -0.1560510052963525
2000000000.0 -0.11137561535863845 -0.40028896375071576
2020000000.0 -0.3737969587764136 0.21126065437756672
2040000000.0 0.0686960750844941 0.42958201975107946
2060000000.0 0.4297037845454599 0.07644730843630133
2080000000.0 0.3425683069029147 -0.2641804210216146
2100000000.0 0.15139830147241773 -0.3991377399974693
2120000000.0 -0.16098353586838146 -0.38594980639047705
2140000000.0 -0.39921883846497297 -0.08019071470340083
2160000000.0 -0.18314364159326293 -0.3469027369455853
2180000000.0 -0.3395366784106011 -0.1556038963038294
2200000000.0 -0.35861429384281707 0.009229542338720018
2220000000.0 -0.32389095986075767 0.12454715502275832
2240000000.0 -0.21626117180389803 0.26761199880682485
2260000000.0 -0.06053205909738282 0.33885388432336305
2280000000.0 0.0824642396682163 0.3401585701548579
2300000000.0 0.3604073991733175 -0.060600380895474024
2320000000.0 -0.1214886781775599 -0.36941161323909577
2340000000.0 -0.32261766294226696 0.2679783946335817
2360000000.0 0.45692718339301575 0.050529467954246586
2380000000.0 -0.45797238142675784 -0.2162579084942962
2400000000.0 0.49443383817850756 0.25964100812585256
2420000000.0 -0.6085202535840704 0.05228030004495911
2440000000.0 0.4448720258281818 -0.4863496079656637
2460000000.0 -0.01993331859949546 0.6984218532972989
2480000000.0 -0.2869458933002248 -0.6701333352970467
2500000000.0 0.33368625122821816 0.6699413553413927
2520000000.0 -0.19309837397621804 -0.7338123904283326
2540000000.0 -0.17882236364972057 0.7385705816134124
2560000000.0 0.6146371910306409 -0.43614489163136294
2580000000.0 -0.6897940658972899 -0.26488304417809455
2600000000.0 0.22750265980529052 0.6777829159661691
2620000000.0 0.3253966618498133 -0.6016276635336544
2640000000.0 0.09810716280763541 -0.6390376753817393
2660000000.0 -0.49558978310881274 0.34123342556674674
2680000000.0 0.5086041126818666 0.22048080774987494
2700000000.0 -0.13751698339899673 -0.48881172151545077
2720000000.0 -0.2849627176260307 0.3621162323586463
2740000000.0 0.4091459152733585 -0.09002414140756251
2760000000.0 -0.3720161657255694 -0.08541340623999372
2780000000.0 0.35268984009460413 0.000991750062420067
2800000000.0 -0.2951185594513959 0.14575869616225526
2820000000.0 -0.037769613557693996 -0.3095830267521902
2840000000.0 0.29509095665371665 0.05239192936401137
2860000000.0 -0.1900433471216498 0.2252213899385171
2880000000.0 -0.09411303549773814 -0.2762090652931137
2900000000.0 0.11205828742591568 0.27022356066102976
2920000000.0 0.19063993073621024 -0.2250241632599132
2940000000.0 -0.2902451934162705 -0.07879145536160591
2960000000.0 -0.22745080495827855 0.20013080901306737
2980000000.0 -0.25840408188965514 0.16693346076898696
3000000000.0 -0.3109003131538554 0.01034229813350453
3020000000.0 -0.08236010382063957 -0.30070581906019256
3040000000.0 0.3001606888514897 0.07292452277160022
3060000000.0 -0.2544706869954041 0.1712599221711704
3080000000.0 0.19792434495318914 -0.22937046656357035
3100000000.0 -0.11425603592945277 0.2753088992509464
3120000000.0 -0.056586983899993115 -0.285039006714687
3140000000.0 0.19954276662754442 0.19819377187298784
3160000000.0 -0.25972391828901054 0.06405610540396582
3180000000.0 0.20449055634247276 0.1458280823067248
3200000000.0 -0.15075385363146443 0.17183158189443298
3220000000.0 -0.1912599182915599 -0.0648851953868901
3240000000.0 0.08053208192916471 -0.1512267832322626
3260000000.0 -0.011090324171026017 0.13603333963674957
3280000000.0 0.06672472150847349 -0.08013002974264462
3300000000.0 0.016527125789127014 -0.07430033350239575
3320000000.0 0.04908129468008253 -0.01166306011194084
3340000000.0 -0.02892208253595598 0.0029381785891827317
3360000000.0 -0.0012863946958741844 0.013469745476634608
3380000000.0 0.002185164314607132 -0.0003354456621753924
3400000000.0 0.011041413058960363 -0.013088800298691281
3420000000.0 0.009517470038165242 0.03202741047705246
3440000000.0 -0.02618668390268598 0.04034085599724833
3460000000.0 -0.016387610180581002 -0.054823925535221835
3480000000.0 -0.05891523714806466 0.03461998724452133
3500000000.0 0.009371232737216564 0.07881760930929334
3520000000.0 0.08806287510548935 0.02040950062209816
3540000000.0 -0.03824037666282745 -0.09610039383088122
3560000000.0 -0.05204912376036729 0.10440101817273434
3580000000.0 0.12582720532206926 0.039360190344436725
3600000000.0 -0.1003979493454788 0.11624031458644632
3620000000.0 -0.12746606331107807 0.11018531275251868
3640000000.0 -0.17772057650087808 0.035634283300476896
3660000000.0 -0.1461666389560213 0.12495831172742601
3680000000.0 -0.17123681847127467 0.092993831923424
3700000000.0 -0.1556363179052103 0.11302608034137397
3720000000.0 -0.1341737942956685 -0.13300800314457628
3740000000.0 0.08560899944708845 -0.1627143875571922
3760000000.0 -0.15140309240308372 0.09017126761450764
3780000000.0 0.15511436567958806 0.06670069627028005
3800000000.0 0.10982215789325488 -0.11799233306578256
3820000000.0 -0.0491725304493788 -0.14726217383383794
3840000000.0 0.008748667096185901 -0.15004224714406572
3860000000.0 0.15116282860458213 -0.0018451699748903937
3880000000.0 0.0887636264142818 -0.1278154473784574
3900000000.0 -0.13297447791400294 -0.08396340159355614
3920000000.0 -0.06596833579878358 0.1474893697967999
3940000000.0 0.1258202605365332 -0.10781813428709817
3960000000.0 0.1102007696688347 0.1313219572587828
3980000000.0 0.17420205008699524 0.0004995173795248336
4000000000.0 0.16373439459082145 -0.03978841070577544
