! Created with skrf (http://scikit-rf.org).
# Hz S RI R 50.0 
!freq ReS11 ImS11
400000000.0 0.0699853376080347 0.8674866702503955
420000000.0 0.5512955748254835 0.6607753169617866
440000000.0 0.8003364836608367 -0.20736110733791746
460000000.0 0.08673961847011777 -0.7869940831988709
480000000.0 0.40592057909417634 -0.5755979200645658
500000000.0 0.4659757445119487 -0.2996984228269125
520000000.0 0.4509648320503623 0.18965743470313148
540000000.0 0.010540464445869405 0.43537653670445936
560000000.0 0.17677903744056828 -0.3237711966733617
580000000.0 -0.2886583558624528 -0.2042283453770367
600000000.0 0.21209721938046244 0.2882515497633976
620000000.0 -0.35137196487051575 0.14224743289034614
640000000.0 0.40092547176875415 -0.08540640950148842
660000000.0 -0.3275077504786316 -0.254742701174189
680000000.0 -0.26503260397671063 -0.32730464575895113
700000000.0 -0.3897347623052231 0.13696417949381023
720000000.0 -0.16047918426496063 -0.37233663532268
740000000.0 -0.3437433197248222 0.21730424594830053
760000000.0 0.2648687176793732 0.30331434471252183
780000000.0 -0.3824287763390689 -0.01914067129080947
800000000.0 0.2735613790320008 -0.23596467229264415
820000000.0 -0.16245793376532372 -0.26288683662886325
840000000.0 0.19701083733997224 0.15409611356311037
860000000.0 -0.15718797513164676 0.13494290644805035
880000000.0 -0.10367500853583067 -0.10509389235329496
900000000.0 -0.07830221061644903 -0.005692371693558457
920000000.0 0.0018274544927053167 0.04616766270630201
940000000.0 0.019418797108244318 0.023696754197082923
960000000.0 -0.003157906152023445 0.03685406718619858
980000000.0 0.02860607914211807 0.03851429607376173
1000000000.0 -0.049656760741823194 -0.027797791710765275
1020000000.0 0.047499406427732316 0.06553685979784962
1040000000.0 0.04118209620528895 0.09654199708641828
1060000000.0 0.13972614497806693 -0.05785960522835608
1080000000.0 0.04713182455367789 -0.168548831876775
1100000000.0 0.1051089976284513 -0.1787360157763475
1120000000.0 0.2115992235608343 0.08737555707349672
1140000000.0 -0.1677124367091645 0.19571963525040592
1160000000.0 0.13635079266132383 0.24310452787566456
1180000000.0 -0.30010017953654977 0.03411974214736078
1200000000.0 0.2884257478958636 -0.14939965189064539
1220000000.0 -0.03392479592646716 -0.34772406765899816
1240000000.0 -0.3791006299118131 -0.04441780370213743
1260000000.0 0.13478077445378336 0.39556098020566016
1280000000.0 -0.07678717524391977 -0.43685773027869146
1300000000.0 -0.03147191645691656 0.46156350149192005
1320000000.0 0.028295710618934895 -0.4613613789739979
1340000000.0 -0.4170994609853343 -0.1767061024183253
1360000000.0 -0.438304968282112 0.005372821898489904
1380000000.0 -0.3782540949935625 0.20246649717028836
1400000000.0 -0.18373615466772503 0.3660556182446862
1420000000.0 0.10878404007479466 0.3736416306886443
1440000000.0 0.14760578564047958 0.3353628058159591
1460000000.0 0.332325968136329 0.08619423952325121
1480000000.0 0.12441358190293987 -0.29339545661383676
1500000000.0 -0.2577828599543018 -0.13718867967996023
1520000000.0 -0.13271885442735024 0.2274505446033461
1540000000.0 -0.1713269666937106 -0.15540059695263803
1560000000.0 0.17792684099898984 -0.07756439821195951
1580000000.0 -0.08507157691030401 0.14301894793600162
1600000000.0 -0.07925985697313788 0.11279296360897591
1620000000.0 -0.09598704638524735 0.0530536830677586
1640000000.0 0.005171004007346702 -0.08905349629641388
1660000000.0 -0.05927223219809391 -0.032979594495679825
1680000000.0 -0.007530288788664476 -0.04739948161430512
1700000000.0 0.02541615883139402 0.020579149700353166
1720000000.0 0.00952263035317353 0.01082323254360653
1740000000.0 0.01759886346755269 0.0014567116976262641
1760000000.0 0.03146957048331779 0.025869601317507592
1780000000.0 0.0702848717357542 -0.029862065206491446
1800000000.0 0.10903928593194709 0.03540149868694951
1820000000.0 0.10387458938782411 -0.1045684763948432
1840000000.0 0.17001431455031266 0.05543072074645857
1860000000.0 -0.19396405918826456 0.07150640883184416
1880000000.0 0.04186817129818262 0.23198927854478626
1900000000.0 0.26680800038138724 0.04694263503924141
1920000000.0 0.01861848064147954 -0.30470881098964336
1940000000.0 -0.32168259473410854 -0.11167403302064925
1960000000.0 -0.014670166679738549 0.3719847368423994
1980000000.0 0.35265670184669373 -0.1820412904775617
2000000000.0 -0.10731754211842964 -0.40264944022217974
2020000000.0 -0.3743157341617156 0.210777150119294
2040000000.0 0.014303142552313724 0.43492501956638174
2060000000.0 0.4284683864485163 0.08170463804314257
2080000000.0 0.36240433809528794 -0.23648919819293304
2100000000.0 0.18633966890374812 -0.38417161457067417
2120000000.0 -0.14234395936043442 -0.39315196388241797
2140000000.0 -0.3627303716818833 -0.1849854895353642
2160000000.0 -0.1373518830907064 -0.36704503946174355
2180000000.0 -0.3112864677039377 -0.2066734130547233
2200000000.0 -0.35732764246999055 -0.03227936051693395
2220000000.0 -0.3385370642780446 0.07607814014043503
2240000000.0 -0.25881309934631197 0.22565054602757548
2260000000.0 -0.09863594722426067 0.3295813960957716
2280000000.0 0.06296397953489002 0.3433860450619007
2300000000.0 0.3619247621542608 -0.044508270709454296
2320000000.0 -0.13879883745941868 -0.3626625505976541
2340000000.0 -0.3151589861378554 0.27611956529128723
2360000000.0 0.45531668380096013 0.06094648699070287
2380000000.0 -0.44088584926073804 -0.24871837549483092
2400000000.0 0.47402051326156186 0.29478300431300275
2420000000.0 -0.6105757103712992 -0.024501505904829735
2440000000.0 0.49279759634201664 -0.4381202431733552
2460000000.0 -0.06548354935608337 0.6959817993248578
2480000000.0 -0.2502298151320965 -0.6849553865145565
2500000000.0 0.2675815417130618 0.6995404820405635
2520000000.0 -0.14432727593184538 -0.7454129743751639
2540000000.0 -0.23173409778661117 0.7245074894736816
2560000000.0 0.6705078855221605 -0.3462373440012513
2580000000.0 -0.6709982204917894 -0.31150271354493325
2600000000.0 0.1838190147475884 0.6922222766636712
2620000000.0 0.37933321886249893 -0.571241468570275
2640000000.0 0.05961124945548688 -0.6453028636014579
2660000000.0 -0.5131227477245975 0.3169072560514165
2680000000.0 0.49450748184825416 0.25376301465569867
2700000000.0 -0.14177660853409127 -0.4892056298201691
2720000000.0 -0.2722235878966296 0.373690116189841
2740000000.0 0.4118997318657651 -0.08360640679636604
2760000000.0 -0.3554357802114226 -0.141697204464002
2780000000.0 0.35137226974088104 0.03682545701376779
2800000000.0 -0.29726809740553645 0.14171188340180754
2820000000.0 -0.029003970309395805 -0.3106501043603938
2840000000.0 0.29842758659945107 0.0317364642862862
2860000000.0 -0.13775379318853034 0.25974522399747296
2880000000.0 -0.09837188367226236 -0.27429959820702143
2900000000.0 0.14721197245993528 0.2524332432503544
2920000000.0 0.10313822407255575 -0.2767123059010221
2940000000.0 -0.300895868622267 -0.019711761472965064
2960000000.0 -0.21021291232576678 0.2202750349915999
2980000000.0 -0.24254288137242652 0.1919968985079104
3000000000.0 -0.3088843983232354 -0.04172252414586068
3020000000.0 -0.09600724774917833 -0.2967648801717533
3040000000.0 0.30905316626377594 -0.022303351842150192
3060000000.0 -0.27342410755567553 0.14313235844269512
3080000000.0 0.1858330342756565 -0.2410199327016874
3100000000.0 -0.10873826015116139 0.2783527144558205
3120000000.0 0.012067649903988696 -0.2913798634659431
3140000000.0 0.17074942076384989 0.22597438892052002
3160000000.0 -0.2682541896390844 -0.005472184610358188
3180000000.0 0.13327328024242577 0.21281433837281774
3200000000.0 -0.201466163305313 0.10869875145387242
3220000000.0 -0.1626255381590718 -0.11906526712602841
3240000000.0 0.1236650195299557 -0.11657392598568143
3260000000.0 -0.07588803871855841 0.11253532104907325
3280000000.0 0.09077969686710402 -0.04883169290438104
3300000000.0 0.0350140848731902 -0.06546481957444109
3320000000.0 0.04866152767636 -0.001349037665268597
3340000000.0 -0.017424229802897668 0.02167214710157776
3360000000.0 -0.005486770277384708 0.010654824569420403
3380000000.0 0.001120684097818604 -0.0036617042983429406
3400000000.0 -0.018630418168723382 0.0009793181301986284
3420000000.0 -0.03093540070325926 0.016954344261430082
3440000000.0 -0.03791290481683925 -0.032324926812777974
3460000000.0 0.016451159304154448 -0.05656038078528284
3480000000.0 -0.05853934288323041 -0.035716494437597585
3500000000.0 -0.04023565403600039 0.06835259799291302
3520000000.0 0.046000363689243796 0.0793404572482395
3540000000.0 0.009794638294702824 -0.10426465285310135
3560000000.0 -0.11264790309766375 0.03205758866119481
3580000000.0 0.10142195668228332 0.08538563849203891
3600000000.0 -0.11824529489782258 0.09930836828665555
3620000000.0 -0.16106997128530867 0.0502818118103283
3640000000.0 -0.17396396295212915 -0.048753992786500416
3660000000.0 -0.17627874214390488 0.07269765905411746
3680000000.0 -0.1681308517230305 0.09618152832839412
3700000000.0 -0.1693993441344238 0.08969779551247542
3720000000.0 -0.11733374391616624 -0.14745228147217662
3740000000.0 0.07850323867037118 -0.16521560365987356
3760000000.0 -0.15167777946297628 0.08870900359528816
3780000000.0 0.16275292729360247 0.042871751605303696
3800000000.0 0.06930929426733295 -0.1444477022176412
3820000000.0 -0.040341691330741794 -0.14981099119680252
3840000000.0 -0.018340120817632408 -0.14859357834230508
3860000000.0 0.14140453088644028 -0.05058752553707964
3880000000.0 0.11074777494046108 -0.1088828479535317
3900000000.0 -0.09572723691561157 -0.12318675777569262
3920000000.0 -0.10574774221397637 0.11970251225962049
3940000000.0 0.13958300054637957 -0.08732836746047952
3960000000.0 0.11553164562549902 0.12498290640231692
3980000000.0 0.17178319524144417 -0.01672432606692851
4000000000.0 0.14930877875864443 -0.07869191759857042
