! Created with skrf (http://scikit-rf.org).
# Hz S RI R 50.0 
!freq ReS11 ImS11
400000000.0 0.06479320174599382 0.8672093804281887
420000000.0 0.5471409641589347 0.664530966874197
440000000.0 0.8059609843891177 -0.1896759767640696
460000000.0 0.0820943094423592 -0.7866902824571496
480000000.0 0.448752995617032 -0.5431205329506626
500000000.0 0.4668100160609793 -0.3028828739064049
520000000.0 0.4698317966903526 0.1333007241656144
540000000.0 -0.01977774565512188 0.43596150937621747
560000000.0 0.16130659137399628 -0.33254445146836603
580000000.0 -0.3437008185762212 -0.08573731881730574
600000000.0 0.2722897623540923 0.22883396197560602
620000000.0 -0.343373768205022 0.16185736399910722
640000000.0 0.40887585548096544 -0.039720395430285715
660000000.0 -0.3876607740069965 -0.14926433989326093
680000000.0 -0.2605459892736681 -0.33071819601048935
700000000.0 -0.39826460418801807 0.10914586550013884
720000000.0 -0.16169253799228894 -0.37190363170357454
740000000.0 -0.3766107243109601 0.1549877161460926
760000000.0 0.2156589346113446 0.3402548282240717
780000000.0 -0.3823500988539411 0.012053586716058542
800000000.0 0.2558838503515748 -0.25493546794590977
820000000.0 -0.19068240695043293 -0.24278673785124422
840000000.0 0.20490557063117862 0.1431414954261687
860000000.0 -0.14244011392515593 0.15046318822310312
880000000.0 -0.09264647528654131 -0.1129281517931177
900000000.0 -0.031520300434421764 -0.07283424035245387
920000000.0 0.012432751377584565 0.0440251540855737
940000000.0 0.02787166130609764 0.011917166819407255
960000000.0 -0.02888145469247578 0.02306810182634547
980000000.0 0.0071468123895281005 0.0474605629489852
1000000000.0 -0.05485864896709311 -0.015193890467430212
1020000000.0 0.0769011120121643 0.02658156214616736
1040000000.0 0.08037970441112309 0.06629936561948933
1060000000.0 0.15043680181570984 -0.0069098333372802564
1080000000.0 0.10324280501252632 -0.14174096617663245
1100000000.0 0.1304708425674784 -0.16179610126581037
1120000000.0 0.20414532928652596 0.10289721509229367
1140000000.0 -0.08497445807435687 0.2437955121211456
1160000000.0 0.17497867485603177 0.2170458681710334
1180000000.0 -0.2743939090023008 0.12727659123581853
1200000000.0 0.2599413855642282 -0.1929262281509357
1220000000.0 -0.04868459051593542 -0.3457368936362346
1240000000.0 -0.38077809305071486 0.012274387405363092
1260000000.0 0.18447452801025047 0.3746880746644047
1280000000.0 -0.08770395101304795 -0.4350268675800759
1300000000.0 -0.0038754150208972454 0.46238642268026964
1320000000.0 0.05441200980011444 -0.4588170422521224
1340000000.0 -0.4023895984901288 -0.20881079637449684
1360000000.0 -0.4382920026885235 -0.014549961890709605
1380000000.0 -0.3947634275517201 0.1688712552639502
1400000000.0 -0.22225023554375747 0.3454432160058027
1420000000.0 0.10121338867552356 0.3767138724914146
1440000000.0 0.157053517276875 0.33168104590164116
1460000000.0 0.3415600991814454 0.030095621288312585
1480000000.0 0.11409682956675053 -0.2963928023220368
1500000000.0 -0.26909061196013334 -0.10980622182623823
1520000000.0 -0.09844821267484428 0.2425759222558278
1540000000.0 -0.18365411200262552 -0.13772846492459598
1560000000.0 0.1812250715817734 -0.06531925564956238
1580000000.0 -0.07425498592023458 0.1476980030434754
1600000000.0 -0.027533870627226897 0.13482713430947718
1620000000.0 -0.08696484267890535 0.0669021806433227
1640000000.0 -0.02845971759175912 -0.08576603104748828
1660000000.0 -0.06444177018117583 -0.02548492286881461
1680000000.0 -0.022150027788088222 -0.044000219821427135
1700000000.0 0.019329119293237603 0.027154064077994654
1720000000.0 -0.014592112420014442 7.57763571374888e-05
1740000000.0 -0.01573979231487281 -0.006889968376737639
1760000000.0 0.04099014417584128 -0.0010945047338752891
1780000000.0 0.05741531609522588 -0.05101399956888219
1800000000.0 0.11579389534748095 -0.0005330723442714043
1820000000.0 0.09877779435772234 -0.11101791105855904
1840000000.0 0.1638705910311476 0.07542473830619541
1860000000.0 -0.20152995071577734 0.050752981757475175
1880000000.0 0.03744906388681885 0.2337618511347498
1900000000.0 0.26741089109120014 0.04688583758849697
1920000000.0 0.05664664120297376 -0.3002010636610137
1940000000.0 -0.30863963441788056 -0.14317091644416644
1960000000.0 -0.037199826405349676 0.36999768554559626
1980000000.0 0.3483246677827441 -0.1884870134397823
2000000000.0 -0.1287072978282741 -0.39510833415839275
2020000000.0 -0.37234648802742226 0.21430085886030303
2040000000.0 0.064027728610211 0.43057432662339723
2060000000.0 0.4279073690494683 0.08700303160078345
2080000000.0 0.32275938166618656 -0.2882291745271715
2100000000.0 0.12990753526452165 -0.40689613131701696
2120000000.0 -0.15139145655714098 -0.39019171407121
2140000000.0 -0.38490940303173715 -0.13424110362685077
2160000000.0 -0.1435168396752605 -0.3655684147255811
2180000000.0 -0.3319004228507003 -0.17206441814518078
2200000000.0 -0.3589747542540864 -0.006512641912512392
2220000000.0 -0.3334611102139053 0.09570966244518007
2240000000.0 -0.23441185223402733 0.251551117202915
2260000000.0 -0.03980519235209484 0.3422522786658339
2280000000.0 0.10210457390206465 0.3345402960110793
2300000000.0 0.35856201893380946 -0.0700140027223089
2320000000.0 -0.1178024862729849 -0.3703169950147882
2340000000.0 -0.325703385962618 0.26379728233407973
2360000000.0 0.4530501810145694 0.07536953331059376
2380000000.0 -0.44768652000626263 -0.23591196875993978
2400000000.0 0.4910796035611431 0.26543132022980204
2420000000.0 -0.6103420491473909 0.019715832669109295
2440000000.0 0.45968743173907667 -0.4722664067480861
2460000000.0 -0.02236601513793764 0.6982490225902235
2480000000.0 -0.3302878868737451 -0.6492893197716185
2500000000.0 0.3287131165093289 0.6723234660484076
2520000000.0 -0.21071230147869646 -0.7290188716265337
2540000000.0 -0.1785439674605041 0.738821671047008
2560000000.0 0.6321046193149465 -0.41150439091625074
2580000000.0 -0.7034804596087131 -0.22727869870011197
2600000000.0 0.21519387942869364 0.6821959934775096
2620000000.0 0.3251089519957423 -0.6024022157888897
2640000000.0 0.10268161263970464 -0.6389156631618625
2660000000.0 -0.5159659050493249 0.31074963348843665
2680000000.0 0.496089374696973 0.2486780083784713
2700000000.0 -0.0964723447179711 -0.49897293149305816
2720000000.0 -0.29733549627250255 0.35242949325099365
2740000000.0 0.41224504519852373 -0.0762474143363989
2760000000.0 -0.36170779213092114 -0.12182084097798909
2780000000.0 0.3523157565705216 0.012043234434400434
2800000000.0 -0.30078185652251455 0.13295547993473222
2820000000.0 -0.024024713465194174 -0.31062469659901365
2840000000.0 0.29623458806221725 0.04250235116984355
2860000000.0 -0.1813884011939048 0.23188313479906753
2880000000.0 -0.1255208006873326 -0.26318718709310973
2900000000.0 0.1488070147812134 0.2513892620158809
2920000000.0 0.16994321308737217 -0.24148394370933698
2940000000.0 -0.29904170816505016 -0.03676534209117399
2960000000.0 -0.20550609806289355 0.22323990412794026
2980000000.0 -0.2451429313265111 0.18782252597431925
3000000000.0 -0.31145292900341265 0.02034242098799944
3020000000.0 -0.1350273705091303 -0.28197700766554207
3040000000.0 0.30872989566474673 -0.020766423314340064
3060000000.0 -0.26404320802773845 0.15724247718888507
3080000000.0 0.22333151814698204 -0.20610743549060226
3100000000.0 -0.14732119885056633 0.26009669100946264
3120000000.0 0.011865734054442025 -0.2904013075543631
3140000000.0 0.18700943696931935 0.2111354934350075
3160000000.0 -0.26740440334026916 0.018824812724975454
3180000000.0 0.1776486231436591 0.1775747080895215
3200000000.0 -0.17230317601302786 0.14964982264697885
3220000000.0 -0.1788202464287322 -0.0929718142809327
3240000000.0 0.09157585915909226 -0.14412704010024677
3260000000.0 -0.023485037731387083 0.1339621758123841
3280000000.0 0.07361949563255461 -0.07294650790711514
3300000000.0 0.026058424324399025 -0.07107563001843725
3320000000.0 0.04843448347132631 -0.012195215296329033
3340000000.0 -0.02576187969824032 0.012098432594526786
3360000000.0 0.008254420654116853 -0.009778462506251496
3380000000.0 0.00022535567675317054 -0.0027601446335630375
3400000000.0 0.01745909022578096 -0.003529661365815719
3420000000.0 0.010204724982168891 0.03232170495080214
3440000000.0 -0.04750209262903948 0.009919866645189094
3460000000.0 -0.021528324238875553 -0.05388813146642256
3480000000.0 -0.06635705440751863 -0.01636601459479294
3500000000.0 -0.024134406275874917 0.07608929996619104
3520000000.0 0.08899759293990038 0.020030418226437568
3540000000.0 -0.04088205728227906 -0.09561787648910001
3560000000.0 -0.08410491207915656 0.08141679023038784
3580000000.0 0.13252306824890403 0.01155985982047576
3600000000.0 -0.1205980449130737 0.09513874930486653
3620000000.0 -0.13756987774266874 0.09754064822897579
3640000000.0 -0.1808146763453397 0.01691446109391718
3660000000.0 -0.16060660685520148 0.1058316270220604
3680000000.0 -0.1795488456409769 0.07592360787472134
3700000000.0 -0.1725044175498335 0.08510459164923083
3720000000.0 -0.11396162082615659 -0.1514098412522866
3740000000.0 0.09602623949255026 -0.15663177071525483
3760000000.0 -0.1645194636950736 0.06306218219295702
3780000000.0 0.15100353391405633 0.07455887121009838
3800000000.0 0.12219375235990834 -0.10504366987401721
3820000000.0 -0.019024737651562408 -0.1543466660089131
3840000000.0 0.04665409621485186 -0.14268318693453094
3860000000.0 0.14925600979836162 0.02307637710301493
3880000000.0 0.1194278612029212 -0.09997805865384113
3900000000.0 -0.12417655899243009 -0.09649489980749645
3920000000.0 -0.10014331679214063 0.12673645052569937
3940000000.0 0.1456183234281366 -0.07984186061348354
3960000000.0 0.0797894904247297 0.15162148576523296
3980000000.0 0.15352786248543063 0.08148023576638498
4000000000.0 0.1599452441551699 0.052262241329657795
