! Created with skrf (http://scikit-rf.org).
# Hz S RI R 50.0 
!freq ReS11 ImS11
400000000.0 0.06686092287894868 0.867087581304742
420000000.0 0.5355631051762693 0.6738013517980206
440000000.0 0.8048420594079769 -0.19376965978002286
460000000.0 0.09382772732818073 -0.7848661872770951
480000000.0 0.43629770763470355 -0.5526747475698973
500000000.0 0.4884458479869167 -0.2661263875784032
520000000.0 0.4756119066610102 0.11042571145275
540000000.0 -0.056516241930192314 0.43110872603030004
560000000.0 0.23457299608761298 -0.284589034720338
580000000.0 -0.33284638787754095 -0.1228332623814683
600000000.0 0.24532733690035943 0.25827796344857906
620000000.0 -0.3624333963142953 0.11102334203668163
640000000.0 0.40950035076941804 -0.03259439218522045
660000000.0 -0.3199982122363063 -0.2658365774640665
680000000.0 -0.2912503192832879 -0.30332580817537125
700000000.0 -0.39840767056610277 0.11158372393150014
720000000.0 -0.18266660106086682 -0.36219158682840635
740000000.0 -0.3369960626344912 0.22844567677400884
760000000.0 0.2296334671623459 0.33120692473058727
780000000.0 -0.38265933810273134 -0.008841225064109892
800000000.0 0.2919655031342926 -0.212216797043176
820000000.0 -0.14998163532635905 -0.27061691816347455
840000000.0 0.22560919633483106 0.1089759932474464
860000000.0 -0.13133984291703332 0.16006218784832735
880000000.0 -0.11600028258052174 -0.09191348361917431
900000000.0 -0.07797899005809894 -0.013882646866222075
920000000.0 0.015040068513948613 0.04383426603986583
940000000.0 0.02123610986537524 0.02171766523929829
960000000.0 -0.003573984207817765 0.03645260543948113
980000000.0 0.01228899542920082 0.046446157235878124
1000000000.0 -0.04863703849234412 -0.02981011976787617
1020000000.0 0.05155303551333665 0.06259692272563834
1040000000.0 0.040724688900924844 0.09689513181468516
1060000000.0 0.13206006234986561 -0.07380336532516776
1080000000.0 0.027693967759961288 -0.17292375580710762
1100000000.0 0.08565208237687878 -0.18911411583385757
1120000000.0 0.2155161836195987 0.07697661836735414
1140000000.0 -0.15398940247246526 0.2067645775262142
1160000000.0 0.12955886714643766 0.24708768743936538
1180000000.0 -0.3020494833466226 0.009400483462831706
1200000000.0 0.30254034877525793 -0.11797859343649644
1220000000.0 0.042604342842287556 -0.3465529850633177
1240000000.0 -0.37557938487431114 -0.06767899057612545
1260000000.0 0.11904050943250573 0.40051294012410704
1280000000.0 -0.06554682309689223 -0.4384101756847748
1300000000.0 -0.03806802126761289 0.460824297949625
1320000000.0 0.037202906010150416 -0.4603192431685987
1340000000.0 -0.42127014341348373 -0.166039283760563
1360000000.0 -0.437430462795585 0.027605543463927098
1380000000.0 -0.3717522848028846 0.21342832669086698
1400000000.0 -0.1719807071965994 0.3715064671992495
1420000000.0 0.12826634939479897 0.36736705214705384
1440000000.0 0.15670298527067705 0.33102428778072795
1460000000.0 0.3273472940406127 0.10479420031052002
1480000000.0 0.16897875326346848 -0.2709995276864344
1500000000.0 -0.261296303805605 -0.13101908649835184
1520000000.0 -0.13933501813092328 0.22443952383027954
1540000000.0 -0.1664755793821009 -0.16205706978990153
1560000000.0 0.18485649575472074 -0.061302390361347436
1580000000.0 -0.11385110326618363 0.12187438713660184
1600000000.0 -0.10770970521464278 0.08598522555736683
1620000000.0 -0.1044086046951984 0.032889421884846254
1640000000.0 0.021669111671090605 -0.08623083056680299
1660000000.0 -0.05763002934226412 -0.03530244340013175
1680000000.0 -0.007644235988026085 -0.04680803155019283
1700000000.0 0.02575937019377908 0.019260113861258858
1720000000.0 0.012357430072196954 -0.007639014609763766
1740000000.0 0.006469084758416385 -0.016557108857484324
1760000000.0 9.264469870575716e-06 0.040513110555883594
1780000000.0 0.07549898730677121 -0.007306850370073974
1800000000.0 0.10750141005562577 0.03896221988034594
1820000000.0 0.10895841519557913 -0.09820499668233128
1840000000.0 0.17358928174056368 0.04147391033102408
1860000000.0 -0.19134107811781279 0.07727418406166078
1880000000.0 0.061869442460336856 0.22707983155898986
1900000000.0 0.2683686255336435 0.035402649344424414
1920000000.0 0.00948555663265765 -0.305091243131183
1940000000.0 -0.3268946781870581 -0.09589793115788305
1960000000.0 0.004893680432893312 0.3724005995573355
1980000000.0 0.3359485947796157 -0.21137837391668632
2000000000.0 -0.1327301903264653 -0.3950927174136902
2020000000.0 -0.3737776176544781 0.21220580974610512
2040000000.0 -0.025506780345949654 0.435248593847691
2060000000.0 0.42404480829664926 0.10346157983827578
2080000000.0 0.3868949109490085 -0.19527351516687538
2100000000.0 0.2362607379586964 -0.3562969966663704
2120000000.0 -0.06926031743894442 -0.4129793006158819
2140000000.0 -0.3616377129973988 -0.18754165460891964
2160000000.0 -0.10709402963810025 -0.37701348701836895
2180000000.0 -0.3071121503932813 -0.21229252962142128
2200000000.0 -0.3556075409636634 -0.04650938717781138
2220000000.0 -0.34309069915197227 0.05043987551415823
2240000000.0 -0.27142823863852156 0.20976692531258334
2260000000.0 -0.13396934415297235 0.3164275184282055
2280000000.0 0.03898718475628546 0.34663529222030526
2300000000.0 0.36092175165921875 -0.05091960208684427
2320000000.0 -0.11901942407884478 -0.36884938100545334
2340000000.0 -0.3236843822041717 0.26584246078088114
2360000000.0 0.4533937996829432 0.07136166256198131
2380000000.0 -0.445563777782311 -0.23982422822794308
2400000000.0 0.4630189824550579 0.311563828352221
2420000000.0 -0.6101264028706386 -0.02607492075584864
2440000000.0 0.5069000723157798 -0.42204916974621753
2460000000.0 -0.09117953566781016 0.6933375358557309
2480000000.0 -0.20980305328124488 -0.6990867181335146
2500000000.0 0.23019433774781703 0.7132707184981494
2520000000.0 -0.09701020358672105 -0.7535461827638923
2540000000.0 -0.3059403888523332 0.6969302552731667
2560000000.0 0.6723952052106905 -0.34366049738115173
2580000000.0 -0.6478156731489818 -0.35824890026787065
2600000000.0 0.13307446251875468 0.7041981308188958
2620000000.0 0.48189882105729265 -0.488637792780133
2640000000.0 0.15424989091879288 -0.6299534843143013
2660000000.0 -0.5390169414019015 0.27117738978423095
2680000000.0 0.4715423059269836 0.29449950546888803
2700000000.0 -0.10221846999003144 -0.49896390984228467
2720000000.0 -0.3067104947272009 0.3457109503577548
2740000000.0 0.4156347205373876 -0.06062042463745527
2760000000.0 -0.3528263526339797 -0.14744155682651902
2780000000.0 0.35164389100548915 0.03223542862201853
2800000000.0 -0.28862881129609175 0.15802329810461535
2820000000.0 -0.05577001323631835 -0.3066597640019176
2840000000.0 0.2999846685434731 0.011361758843395997
2860000000.0 -0.1379658129307006 0.26063327559236277
2880000000.0 -0.12717716304859092 -0.2628398638836623
2900000000.0 0.14858392469669351 0.2523011478834009
2920000000.0 0.1436471907043298 -0.25940729539957896
2940000000.0 -0.30218517211954776 -0.011275208298439088
2960000000.0 -0.21166484645923314 0.21989256545783797
2980000000.0 -0.2771088975853243 0.14025355372686515
3000000000.0 -0.29958768903705557 -0.09126074748063054
3020000000.0 -0.04818383114462488 -0.30930945536013943
3040000000.0 0.3039253949747192 0.06281111533225739
3060000000.0 -0.2858541889840074 0.11726761162961785
3080000000.0 0.23228515711908024 -0.19700871319258692
3100000000.0 -0.1309552306705464 0.26872396801095816
3120000000.0 0.06283882393493742 -0.2842992763931601
3140000000.0 0.11581646029704193 0.2578455603201417
3160000000.0 -0.2595844297305013 -0.06704885230548224
3180000000.0 0.1143827737486195 0.22285726435519823
3200000000.0 -0.20887488512875838 0.09205192898887632
3220000000.0 -0.13963313507883743 -0.14403858346154708
3240000000.0 0.1181658444994983 -0.12175731740207825
3260000000.0 -0.047628449148966745 0.12612565011402777
3280000000.0 0.08266692097527134 -0.06050490600661618
3300000000.0 0.02723505830963421 -0.06861100133919815
3320000000.0 0.020440557802909327 -0.0437214127848171
3340000000.0 0.024561928644277843 0.01194442934181632
3360000000.0 -0.011214680304898453 0.0024640150460786114
3380000000.0 0.002242311182146375 -0.0035259207377794236
3400000000.0 -0.005238512570203248 -0.018306104507457364
3420000000.0 -0.03486259494419858 -0.006589512622212576
3440000000.0 -0.017131871294905267 -0.04697630148481266
3460000000.0 0.04023462366000427 -0.04285752828212067
3480000000.0 -0.03911150904430014 -0.05655513040662969
3500000000.0 -0.055656894483375643 0.05659460368109778
3520000000.0 0.030725766378286726 0.08599568097613763
3540000000.0 0.04279519401408587 -0.09538394784411064
3560000000.0 -0.11688168721819148 0.000998765658864225
3580000000.0 0.08965191527630534 0.09728180126518511
3600000000.0 -0.12870819308998457 0.08574790028453087
3620000000.0 -0.16082089502812155 0.05327929874859648
3640000000.0 -0.16668123248019345 -0.06886403143690549
3660000000.0 -0.18065389850473898 0.06077378662978082
3680000000.0 -0.1730880566894239 0.08717022124812841
3700000000.0 -0.17741752701722815 0.072543524929116
3720000000.0 -0.10815888807909779 -0.15426796425301842
3740000000.0 0.09380800416238412 -0.15670846113439474
3760000000.0 -0.15439593201783564 0.08345485075723731
3780000000.0 0.16274282751475325 0.040572656491873346
3800000000.0 0.06903864092020184 -0.1440701764531221
3820000000.0 -0.04275387934711626 -0.14875237743236175
3840000000.0 0.002254649870168373 -0.14949995529602508
3860000000.0 0.1476893397822127 -0.026940540540360228
3880000000.0 0.1264002221064707 -0.08966377616674319
3900000000.0 -0.06520446384078947 -0.1414446849718756
3920000000.0 -0.14312208102380938 0.0707215478708221
3940000000.0 0.15581498801976917 -0.051574035333320334
3960000000.0 0.04569046200062426 0.16396353703311206
3980000000.0 0.1618182008553433 0.059452875875838924
4000000000.0 0.16695776820923125 -0.01875501315773872
