! Created with skrf (http://scikit-rf.org).
# Hz S RI R 50.0 
!freq ReS11 ImS11
400000000.0 0.04991570212824918 0.868252739513368
420000000.0 0.5300387703667688 0.6779395839679935
440000000.0 0.7911801340075307 -0.24401715807834004
460000000.0 0.09248152926009774 -0.7855255565400279
480000000.0 0.44814862710777464 -0.5434707997227112
500000000.0 0.4673858806490529 -0.30155140962600335
520000000.0 0.46380932094737803 0.15234025872864426
540000000.0 0.029629843525459536 0.4347305882454018
560000000.0 0.17108389253703468 -0.3278160708270203
580000000.0 -0.32833015608600535 -0.1348211511234875
600000000.0 0.27520782361309964 0.22703919374374315
620000000.0 -0.3541247120667046 0.13551808721806505
640000000.0 0.40499380454242556 -0.0674057181979554
660000000.0 -0.37494584403566183 -0.17679604697502435
680000000.0 -0.27637943579789953 -0.31750767511028166
700000000.0 -0.4056128504602133 0.07813794641206716
720000000.0 -0.1498349750642479 -0.3761359346377917
740000000.0 -0.36647166859457053 0.17968636725827442
760000000.0 0.24306275764674046 0.3208966065302486
780000000.0 -0.3823867752038271 0.0063104310563852
800000000.0 0.27364591400066823 -0.23587341792430105
820000000.0 -0.19531616237332508 -0.23867360926709666
840000000.0 0.22642784883651884 0.10566714430465345
860000000.0 -0.1734945411213406 0.11304433835323903
880000000.0 -0.05901707353325311 -0.13526465034284765
900000000.0 -0.07706299854513302 -0.019409539820193666
920000000.0 0.000736334131525236 0.04552001223356082
940000000.0 0.027676079294227253 -0.013571324750795448
960000000.0 -0.00046576738621488864 0.03670271753734906
980000000.0 -0.012955137802439657 0.04634171050187691
1000000000.0 -0.056318627929059825 -0.008502709102460761
1020000000.0 0.056012714734236475 0.05877134088279641
1040000000.0 0.06688774794845866 0.08091730353892806
1060000000.0 0.14939803300542723 -0.022341473301848512
1080000000.0 0.10516224688708732 -0.14006701126611265
1100000000.0 0.12666156678858792 -0.16489009300446544
1120000000.0 0.1977720195706968 0.11375821108713671
1140000000.0 -0.10010631615818665 0.2378592583426195
1160000000.0 0.19328777581019832 0.20087012697690412
1180000000.0 -0.2746031405068839 0.12561227480141057
1200000000.0 0.2517975618907917 -0.2038594709425672
1220000000.0 -0.02626234844678897 -0.3479857010969701
1240000000.0 -0.3806829353017273 -0.010831003277721647
1260000000.0 0.16420714622412041 0.38400676220683877
1280000000.0 -0.08853270184950743 -0.4349710846052942
1300000000.0 -0.017864268615216217 0.4621877846247094
1320000000.0 0.026804706747534893 -0.46142627328141944
1340000000.0 -0.39711855384358513 -0.21852916385497811
1360000000.0 -0.437267906956061 -0.03239032792203443
1380000000.0 -0.3943853092556471 0.17048853753512694
1400000000.0 -0.2195649083217748 0.34740804263280944
1420000000.0 0.09362974475326626 0.3785621148072874
1440000000.0 0.1437478058523456 0.33780959178420417
1460000000.0 0.3384539739750925 0.05561662889738888
1480000000.0 0.07812367491042069 -0.3078957314769837
1500000000.0 -0.27427348278369773 -0.0963176513388931
1520000000.0 -0.13468815732216458 0.22450996042811608
1540000000.0 -0.17855293582344528 -0.1441726882484676
1560000000.0 0.182115710011547 -0.06384513213476528
1580000000.0 -0.09095030186330255 0.13807638020658408
1600000000.0 -0.028230138224377654 0.13424069293379615
1620000000.0 -0.0876744723240467 0.06678394117762414
1640000000.0 -0.03340297086721801 -0.084003114687179
1660000000.0 -0.06826711436542676 -0.009137513542392563
1680000000.0 -0.004474764817453952 -0.049150172247104475
1700000000.0 -0.008048258070374842 0.032270194754113364
1720000000.0 -0.013117624234675669 0.006852093894231436
1740000000.0 -0.0132625983002709 0.010509102548811572
1760000000.0 0.023324987587682935 -0.03438237770851878
1780000000.0 0.04761827192860837 -0.06034892431471083
1800000000.0 0.11560308709238205 -0.006457967584823006
1820000000.0 0.09878306409725393 -0.11137462875765167
1840000000.0 0.16611105149526648 0.07075649358075076
1860000000.0 -0.20093346136269344 0.052832034747795666
1880000000.0 0.023964763239542095 0.2356919355960272
1900000000.0 0.26274910695556786 0.06801407621034472
1920000000.0 0.056685549382326485 -0.30024034495456053
1940000000.0 -0.30252644828156317 -0.15606732211113308
1960000000.0 -0.03943279164097126 0.3694717505987586
1980000000.0 0.3538769834210768 -0.1773004742490999
2000000000.0 -0.12317493257157353 -0.3968710022832816
2020000000.0 -0.3768253320309474 0.2057198668298161
2040000000.0 0.06523133390036241 0.43017848464894587
2060000000.0 0.4311186431964127 0.06856270225393896
2080000000.0 0.3092955701263121 -0.3023687094654084
2100000000.0 0.13760561575665184 -0.4043684740067715
2120000000.0 -0.1516918188209184 -0.389925774357517
2140000000.0 -0.3943002941487215 -0.10369949125795286
2160000000.0 -0.17304113188930897 -0.3524835855523735
2180000000.0 -0.3331929129749689 -0.16960730659268336
2200000000.0 -0.35883901725502065 -0.006968070243404732
2220000000.0 -0.33417734862420173 0.09407045852055511
2240000000.0 -0.229899777465408 0.2556225790038148
2260000000.0 -0.03898420278502047 0.34238932937857225
2280000000.0 0.08696237883877342 0.3388652684944813
2300000000.0 0.3610221135671071 -0.055382828729430476
2320000000.0 -0.12425970013622796 -0.36832128502232225
2340000000.0 -0.32543791682384526 0.26435481848152487
2360000000.0 0.4563055923658071 0.05441670412835688
2380000000.0 -0.4588789545815544 -0.21374458719243783
2400000000.0 0.4921877461421564 0.26316785178699914
2420000000.0 -0.6103559856500567 0.022255295494612595
2440000000.0 0.46645997041287196 -0.4652824932482694
2460000000.0 -0.02927043093530705 0.698103130587164
2480000000.0 -0.3193596186232238 -0.6547709247474428
2500000000.0 0.33660055115479776 0.6683799057288994
2520000000.0 -0.219674903865441 -0.726383752466338
2540000000.0 -0.167189379665488 0.7417705005353293
2560000000.0 0.6459759943358654 -0.3895364080407594
2580000000.0 -0.6892541327129075 -0.26793054760189633
2600000000.0 0.2777939737305435 0.6591731940085702
2620000000.0 0.3268268261679959 -0.6011297990768721
2640000000.0 0.0885669084349539 -0.6407896427084492
2660000000.0 -0.5044420338058456 0.3290113796567084
2680000000.0 0.49676144051290627 0.2470178742012409
2700000000.0 -0.10698311068246454 -0.496782556386534
2720000000.0 -0.2907226304521603 0.3578248563772848
2740000000.0 0.4075944871386304 -0.09841299964453921
2760000000.0 -0.368039814203538 -0.10235291130626244
2780000000.0 0.3527348496897599 0.007178956459123023
2800000000.0 -0.29675149083145297 0.14268086790227613
2820000000.0 -0.020004894024193542 -0.31120576858678506
2840000000.0 0.2973316786904735 0.03655711316344284
2860000000.0 -0.189980385696824 0.22526401954109476
2880000000.0 -0.10560798143076384 -0.2719868570157003
2900000000.0 0.13781542635994587 0.25755563263468856
2920000000.0 0.17139337474251823 -0.2403697460282244
2940000000.0 -0.2972724485271759 -0.046609628695044335
2960000000.0 -0.21642977072506897 0.21252675485234926
2980000000.0 -0.25793421775570446 0.16862812529379353
3000000000.0 -0.3100924128371994 0.031155373184737895
3020000000.0 -0.14358567663982316 -0.2772309040304207
3040000000.0 0.3087076582386426 0.015774512996951897
3060000000.0 -0.2644879396556908 0.15628354483511034
3080000000.0 0.20329878171638668 -0.22565840925498132
3100000000.0 -0.08374834406683712 0.28694632444159673
3120000000.0 0.015249976063606225 -0.29013914838617866
3140000000.0 0.19208162614843477 0.20648584142956128
3160000000.0 -0.2670109973653864 0.02211538016655472
3180000000.0 0.17909500702207617 0.17586641334508682
3200000000.0 -0.17197224472063194 0.15063765434677479
3220000000.0 -0.17922639401800639 -0.09274049297067863
3240000000.0 0.08972583330767195 -0.14556377186552769
3260000000.0 -0.02912612637377986 0.13297853799924833
3280000000.0 0.07739598290537804 -0.06936059521712806
3300000000.0 0.031859546129411186 -0.06883748325871095
3320000000.0 0.050031488104656054 -0.002803075202312976
3340000000.0 -0.028545935969087884 0.0030083561507033923
3360000000.0 0.007494204612545663 0.01060722367964002
3380000000.0 -0.0016155705054709465 0.00246799229540762
3400000000.0 0.011518762833647472 0.013329904940957083
3420000000.0 -0.002465084800888371 0.03373340273167838
3440000000.0 -0.03626113973469166 0.03269890041251911
3460000000.0 -0.008258457265895325 -0.05736037827435814
3480000000.0 -0.06536715228156263 -0.019120661759904827
3500000000.0 -0.016406095982147446 0.07851337336887833
3520000000.0 0.09038583914291211 -0.016477068023863808
3540000000.0 -0.028163759511072983 -0.10018871005284695
3560000000.0 -0.08769307320768867 0.07756722699931536
3580000000.0 0.12763096054138084 0.03599115922092
3600000000.0 -0.11499132032602763 0.1019768087380577
3620000000.0 -0.1437999770602096 0.08799316618597577
3640000000.0 -0.18140859441506874 0.010334975397692906
3660000000.0 -0.15959274434287107 0.1069577194129911
3680000000.0 -0.1782572057930405 0.07915530784992504
3700000000.0 -0.16833602531297506 0.09263209097211392
3720000000.0 -0.11664056757809056 -0.14917342420962676
3740000000.0 0.08778326925233655 -0.16140414969005593
3760000000.0 -0.1593860445737269 0.07488920977454921
3780000000.0 0.14754618051596105 0.08284518290804072
3800000000.0 0.12369096412604293 -0.1034446747997403
3820000000.0 -0.011516168335301488 -0.15531115479184798
3840000000.0 0.04453728951765363 -0.14352864207580562
3860000000.0 0.15012697638340675 0.0166774775344655
3880000000.0 0.10585099797471784 -0.11433731111779849
3900000000.0 -0.11791500871364258 -0.10475040218261297
3920000000.0 -0.0950140889994999 0.13077513533338886
3940000000.0 0.1487693299722436 -0.07406603311737761
3960000000.0 0.07538452777306151 0.15413426318453866
3980000000.0 0.15947890954275 0.06970732890886065
4000000000.0 0.1647859365366745 0.035050110006434494
