!Created with skrf (http://scikit-rf.org).
# Hz S RI R 50.0 
!freq ReS11 ImS11
400000000.0 -0.7398196514855507 0.4652777383528672
420000000.0 0.12752721673111794 0.8594999113050797
440000000.0 0.8370918022218904 -0.09929045683122559
460000000.0 0.1400393891540514 -0.7906266563531834
480000000.0 0.6908208748654946 -0.24176543216423305
500000000.0 -0.5813023889042894 0.13421999258292425
520000000.0 0.2333097734823352 0.44583554319885177
540000000.0 -0.4219706360253615 0.01740812546198006
560000000.0 0.1615059348875918 0.323802445047136
580000000.0 -0.252287560080444 -0.22278397321280763
600000000.0 -0.21417203822890032 0.2595754248441646
620000000.0 0.15763775818660872 -0.3141896146197597
640000000.0 -0.08480327621090848 -0.37150201683784073
660000000.0 -0.38877801177080346 -0.013798359996801872
680000000.0 0.34911795985492156 -0.20631518389126563
700000000.0 -0.01866457517464338 -0.40923718598508746
720000000.0 -0.10473333896264848 -0.3948151605367342
740000000.0 -0.1876332187897987 0.3599274509445822
760000000.0 0.39153261300455633 0.02679221155537643
780000000.0 -0.3427889321730335 -0.11716518768360468
800000000.0 -0.11042499861627912 0.3198303585919522
820000000.0 -0.06510458454662425 -0.2913383557725691
840000000.0 -0.08853457252633962 0.247233155738047
860000000.0 -0.2235223174391302 0.0037853006494304718
880000000.0 0.12607435300443076 0.12613803263646162
900000000.0 -0.12076343756328835 0.004531858637692093
920000000.0 0.08326916922622102 0.015456872661961411
940000000.0 0.003168480253678676 0.058135857712766775
960000000.0 0.06057477462754197 -0.029436733256302236
980000000.0 -0.06522270249459738 0.05447890821407612
1000000000.0 0.007195876742755211 0.09767750665598192
1020000000.0 -0.10278956810621118 0.04439678013186658
1040000000.0 -0.09621996113651192 -0.07566646254509238
1060000000.0 0.10378797991735458 0.11471493639957016
1080000000.0 0.015727845065432757 0.16806963531587715
1100000000.0 0.13609549895222314 0.128999031827612
1120000000.0 -0.08390493145788848 -0.1872992359167199
1140000000.0 -0.0885223264020577 -0.2169212629207349
1160000000.0 -0.12071318865284728 -0.23351834007320052
1180000000.0 0.2888136899424726 0.08302899438625903
1200000000.0 -0.030803429357770862 0.32869848704636234
1220000000.0 0.0885612240565757 -0.3532159864994073
1240000000.0 -0.2182356484893308 0.32364733228987386
1260000000.0 0.35985596284846155 -0.21658528426071458
1280000000.0 -0.38866600340889385 -0.20069296086792807
1300000000.0 0.3633278717636163 0.2655132940308078
1320000000.0 0.38453537036349417 -0.23580521743097577
1340000000.0 0.03199418881589731 -0.4450617112249643
1360000000.0 0.07913048644681005 -0.43577976598417684
1380000000.0 -0.19227488076848195 -0.3904908484944526
1400000000.0 -0.3667025588164189 0.2147030186220634
1420000000.0 0.24970307046711107 0.32014277781103334
1440000000.0 0.28401057457078654 -0.2473540494226207
1460000000.0 -0.0796541920652652 -0.33485585581738625
1480000000.0 -0.31239668827859 0.02234851606983987
1500000000.0 -0.26905135132549873 0.07858583568747296
1520000000.0 -0.22417896518419997 0.11678613033513895
1540000000.0 0.2228697127631136 -0.03593051701624474
1560000000.0 -0.016114178867582367 0.19321153482942757
1580000000.0 -0.11215635066954723 -0.12714971451992352
1600000000.0 -0.13797812763179385 0.014859956516167703
1620000000.0 -0.11152262451344526 0.00947091555188648
1640000000.0 -0.053568344917829 -0.06871268524068154
1660000000.0 -0.0012017518047546614 -0.06506468493232785
1680000000.0 -0.028578047735911796 0.032862696059823164
1700000000.0 -0.023331550715501456 0.015902567095209992
1720000000.0 -0.002725723691079997 0.006856916420440316
1740000000.0 -0.007765045377921605 0.00823583621724866
1760000000.0 -0.02678257649403266 0.016551667268807167
1780000000.0 0.050508461739031354 -0.035220424543160773
1800000000.0 0.0844368830994097 -0.0431611338094816
1820000000.0 -0.08133313466927972 -0.10004011794221766
1840000000.0 0.1655536088583345 -0.017462684148000694
1860000000.0 -0.2019480456106384 0.02445338535226491
1880000000.0 0.23797184451020137 -0.05518843177607127
1900000000.0 -0.231964390078804 0.17291358405890747
1920000000.0 0.09762691968434425 -0.3082440065603317
1940000000.0 -0.17860983265980404 0.3084929899930653
1960000000.0 0.3292053052332903 -0.19357927574319764
1980000000.0 -0.3585761013793745 -0.17230981117915434
2000000000.0 -0.35484527757323003 0.21200628683445716
2020000000.0 0.11685064046869299 0.4049339869831548
2040000000.0 0.2711768245994017 0.33116366903084576
2060000000.0 0.4293102505631986 0.0005223198705301309
2080000000.0 0.31924569673322667 -0.28500781418485105
2100000000.0 0.27045703822089706 -0.3247722635183702
2120000000.0 0.11956984908987775 -0.3976331276743339
2140000000.0 0.030545552655437912 -0.406352784994308
2160000000.0 0.36733129672550235 -0.15150359758007517
2180000000.0 0.0057812588601160965 -0.3863610598372322
2200000000.0 -0.34572437948957735 -0.14533750829237696
2220000000.0 -0.25329403647174764 0.2588091972881546
2240000000.0 0.12857370217318526 0.3319719731824542
2260000000.0 0.2974299545392448 0.18961018444753125
2280000000.0 0.35054098300020714 -0.046474888026395954
2300000000.0 0.14432041773674814 -0.3344599595250318
2320000000.0 -0.24183085573821858 -0.3000908165866392
2340000000.0 -0.3780293595772357 0.17782869924780662
2360000000.0 0.39963674583157616 0.2283048671935414
2380000000.0 -0.3859417800375985 -0.33260896402277823
2400000000.0 0.5051027798601233 0.2414442844030199
2420000000.0 -0.5695709287264716 0.219819153384541
2440000000.0 0.3114512914389058 -0.5779932357026986
2460000000.0 0.24368042884529637 0.6503021414422214
2480000000.0 -0.48886190976127414 -0.5341353335867874
2500000000.0 0.5475318237479808 0.50107488856933
2520000000.0 -0.4762772449948784 -0.5828421217798859
2540000000.0 0.10944402708471934 0.7462808377142441
2560000000.0 0.3837037260766058 -0.6431234076602779
2580000000.0 -0.7337313997613778 0.04263385626427606
2600000000.0 0.42458523371257956 0.5712433027389023
2620000000.0 0.28021860598580833 -0.6227444733873677
2640000000.0 0.017062970730792233 -0.6474306776560236
2660000000.0 -0.45191752073396346 0.4020875554125169
2680000000.0 0.5465600017152864 0.12063790259173782
2700000000.0 -0.3914342391990864 -0.33357409566016877
2720000000.0 0.11968520629813147 0.4506091804353855
2740000000.0 0.22868898755134223 -0.35244307325156565
2760000000.0 -0.32896685712562 0.1868401976446172
2780000000.0 0.34573370992894337 0.008916960702988988
2800000000.0 -0.3157062619641737 -0.051183374947090444
2820000000.0 0.2973294057738182 -0.06138273172295694
2840000000.0 -0.2763862657142296 0.09944509846781445
2860000000.0 0.09134621599384239 -0.27848619248711254
2880000000.0 0.21846531745247755 0.19796999536048962
2900000000.0 -0.2811466452602484 0.09981179253113943
2920000000.0 0.2809383554904779 -0.11098134480745739
2940000000.0 -0.3057245638440373 -0.0035029639102010473
2960000000.0 -0.011081869011374286 0.30701326921358535
2980000000.0 0.0898494677355304 0.2944658884019603
3000000000.0 -0.10002359981684268 0.2900487852607689
3020000000.0 -0.3026829001316012 -0.04702658068703402
3040000000.0 0.22495026742468469 -0.20164925361099292
3060000000.0 -0.22355963639284257 0.1998016472244116
3080000000.0 0.2371376459644069 -0.17897503015188085
3100000000.0 -0.25988167204906154 0.1367520958939015
3120000000.0 0.17974500074123667 -0.2266256894334922
3140000000.0 -0.018450135898780487 0.2830362205596087
3160000000.0 -0.24380402149103408 -0.11703703266507662
3180000000.0 0.1799507290425944 0.18216288488297058
3200000000.0 -0.12493930347505082 0.19623554557522707
3220000000.0 -0.2057161654183647 -0.009788105323738494
3240000000.0 -0.04543778730689582 -0.16941977013805526
3260000000.0 0.13717528740117463 -0.03487603735894292
3280000000.0 -0.09452325688211953 0.05193013655082618
3300000000.0 0.07281908847537445 -0.023446882522633588
3320000000.0 0.041437078116527526 -0.025478760389429124
3340000000.0 -0.0118690876760171 -0.022205895977478657
3360000000.0 0.009133597648124638 -0.0013212235176550257
3380000000.0 0.003502151353219706 -0.003550611217311927
3400000000.0 0.0006828413695196364 0.014748980034744575
3420000000.0 0.0056836923544364435 -0.024961027799052796
3440000000.0 -0.024298001633457453 0.027117583019918467
3460000000.0 0.019123400648966296 -0.044581260258034675
3480000000.0 0.047304382233417736 -0.04145303653263338
3500000000.0 0.013860204861475501 0.07782179938509615
3520000000.0 -0.06174086825100662 -0.07106857398445089
3540000000.0 0.06310997212693295 -0.08954048682838414
3560000000.0 0.03740531597616422 0.11589255169216062
3580000000.0 -0.07167767057226297 -0.11250521507461918
3600000000.0 0.12454753064540976 -0.08041218960395656
3620000000.0 0.11828708176092152 0.1071551398248703
3640000000.0 -0.1348175081161572 0.10199120528637795
3660000000.0 -0.14375275622128858 -0.10857888198707503
3680000000.0 0.013988619589795312 -0.18645981201628156
3700000000.0 0.08094124406228458 -0.17150722074681307
3720000000.0 0.1857189384196758 -0.04103930198193002
3740000000.0 0.18691186074516156 0.01476939358045064
3760000000.0 -0.17665428415176807 0.044769509837642156
3780000000.0 0.09284529996405458 -0.14580040019386703
3800000000.0 -0.15978058829672542 0.04019660967287241
3820000000.0 -0.03251559832685179 0.15079306577774051
3840000000.0 -0.08142609754821202 0.11892874068046061
3860000000.0 0.14140547934599823 0.01759748596534488
3880000000.0 -0.023704173199126793 0.14673413833717158
3900000000.0 0.017158863675411924 0.15758568438382253
3920000000.0 0.05312104443986254 -0.15833472116002645
3940000000.0 0.17177656364426291 0.029133159003598332
3960000000.0 0.17574173930298292 0.037539815266891007
3980000000.0 1.2603042317564266e-05 -0.1786537847431467
4000000000.0 -0.11762634022170658 -0.12249934774505626
