!Created with skrf (http://scikit-rf.org).
# Hz S RI R 50.0 
!freq ReS11 ImS11
400000000.0 -0.7508076714712077 0.4426282099743996
420000000.0 0.12247953694382888 0.8606287943347534
440000000.0 0.8286527913780167 -0.15595203391177132
460000000.0 0.15225491399559557 -0.7886454544955069
480000000.0 0.7049211866363433 -0.19578312896573494
500000000.0 -0.575015805552034 0.161436293322477
520000000.0 0.29367057389928497 0.4089439732208121
540000000.0 -0.42061440668880357 -0.00781642685839022
560000000.0 0.09314732722078949 0.35007391269393473
580000000.0 -0.29786154620721167 -0.15670715753303668
600000000.0 -0.20384652407069329 0.2673910028228859
620000000.0 0.21909987898112684 -0.27420846818390204
640000000.0 -0.13595761621728872 -0.3558976570941813
660000000.0 -0.387782917037782 -0.03297429891589362
680000000.0 0.3463301402326634 -0.21116208672866427
700000000.0 -0.016240325657277434 -0.4094125926213842
720000000.0 -0.051767010954338166 -0.4046544273531124
740000000.0 -0.19178045532746463 0.35752092422199394
760000000.0 0.3916195198461911 0.023595778491049123
780000000.0 -0.3407502280662769 -0.12426205234866315
800000000.0 -0.09881458721803574 0.3238964371063453
820000000.0 -0.050584458622392574 -0.294249194576457
840000000.0 -0.10718114097370643 0.23997639602941193
860000000.0 -0.22119841678348032 -0.0330848881375168
880000000.0 0.13074237006984493 0.12175352955887873
900000000.0 -0.12086763219608926 -0.006241317223171162
920000000.0 0.08025765623043893 0.027203010443048046
940000000.0 -0.0206543689346516 0.05437829568587659
960000000.0 0.06487673645102134 -0.0179387603796405
980000000.0 -0.07493521552945488 0.039734928784326766
1000000000.0 0.02668021305209897 0.09458287783156316
1020000000.0 -0.09929635036049377 0.05180549623899127
1040000000.0 -0.08597083920382301 -0.08751962553093272
1060000000.0 0.11809545610218049 0.10035007027247383
1080000000.0 0.015770035273263282 0.16805074020314303
1100000000.0 0.12186336207537085 0.14216900881162892
1120000000.0 -0.0832079837186209 -0.18772527731262567
1140000000.0 -0.09941628882696818 -0.21196120521363992
1160000000.0 -0.12821254641899982 -0.22913982505752475
1180000000.0 0.28867209107761765 0.08297420602124156
1200000000.0 -0.025097080182277246 0.3290236720072601
1220000000.0 0.07447107545379408 -0.3562205420662369
1240000000.0 -0.2279833594054241 0.31668603211691393
1260000000.0 0.3545552587388774 -0.22520891653606118
1280000000.0 -0.38496167635655787 -0.20808693615501803
1300000000.0 0.34347984024541933 0.29045416508264726
1320000000.0 0.37690631367836747 -0.24826949338904883
1340000000.0 0.024439302066422745 -0.44562546385645907
1360000000.0 0.07346098925716535 -0.4367247994485509
1380000000.0 -0.2067817958424866 -0.38303534362669445
1400000000.0 -0.3674208148317649 0.21339021389188537
1420000000.0 0.25346804856744737 0.317082602609655
1440000000.0 0.27955753500588854 -0.2524963930350157
1460000000.0 -0.08156644124849884 -0.3343807898052284
1480000000.0 -0.31223763940089894 0.020771870026309917
1500000000.0 -0.26986760766402024 0.07392637169185862
1520000000.0 -0.2157801044103395 0.13126550420149036
1540000000.0 0.22443694296305441 -0.02413135119485651
1560000000.0 0.0057237444880457065 0.19349639322786838
1580000000.0 -0.09916584844624488 -0.1375325273814064
1600000000.0 -0.13838858548044589 0.00975964539806403
1620000000.0 -0.11150609446261135 -0.004694692174554062
1640000000.0 -0.054339920802851736 -0.06820575612355008
1660000000.0 0.005071916495367299 -0.06472628902847809
1680000000.0 -0.028406347087449872 0.03324406346168597
1700000000.0 -0.02114744761580492 0.018946065904871183
1720000000.0 -0.00610365722589732 -0.004024236491482519
1740000000.0 0.005227430858493688 -0.010035026407913202
1760000000.0 -0.018012304086508526 0.02576171411392638
1780000000.0 0.05007755173353039 -0.03620512075433889
1800000000.0 0.08586464213960904 -0.04047606667268804
1820000000.0 -0.08224338536675178 -0.09954659158107065
1840000000.0 0.16591742518436298 -0.015502940882509059
1860000000.0 -0.2031483708431746 0.01507982018506147
1880000000.0 0.24155150652352936 -0.03733460734760708
1900000000.0 -0.23780596981625873 0.16483332150418165
1920000000.0 0.10245633880270695 -0.30659088176641747
1940000000.0 -0.18297881995916995 0.30576668763982257
1960000000.0 0.33545724645823205 -0.1824979589309984
1980000000.0 -0.36220633621280074 -0.16423792095036752
2000000000.0 -0.3514813951877615 0.2175363822201613
2020000000.0 0.132040692236656 0.39999670771333085
2040000000.0 0.26619494248715636 0.33488575463606646
2060000000.0 0.4283804129986905 -0.02799699268374655
2080000000.0 0.31060977050524685 -0.2944281565123639
2100000000.0 0.27970921968697776 -0.3170809923499065
2120000000.0 0.12869907612265657 -0.39494870339538957
2140000000.0 0.05954469353997762 -0.4032453147227361
2160000000.0 0.3673015854851902 -0.15205136956112544
2180000000.0 -0.027388831413131417 -0.3854059687015781
2200000000.0 -0.34172491493623763 -0.15453328112656056
2220000000.0 -0.28044832495779387 0.22985512303307024
2240000000.0 0.11485085710992832 0.33684926048552327
2260000000.0 0.30060540391076995 0.18453025915886573
2280000000.0 0.3455503641919167 -0.07532250268427658
2300000000.0 0.1341388611356634 -0.3391199672197466
2320000000.0 -0.2529589002000717 -0.29102987682282494
2340000000.0 -0.386063420486421 0.15819281385600223
2360000000.0 0.4034057825649448 0.22088464663474583
2380000000.0 -0.3945171297596722 -0.3225149732942148
2400000000.0 0.5137845376710853 0.22246485421814227
2420000000.0 -0.565782777428288 0.22996709174718669
2440000000.0 0.27329269965542424 -0.5968367538625319
2460000000.0 0.23155414837961238 0.6548192268762436
2480000000.0 -0.5056616088983943 -0.5181731603865195
2500000000.0 0.6106727245258083 0.4210224074902991
2520000000.0 -0.5216099645980868 -0.54256896069928
2540000000.0 0.1449533587139407 0.740073007159979
2560000000.0 0.37568277964688945 -0.6474418563620195
2580000000.0 -0.7346841252447964 0.0027472893339035337
2600000000.0 0.4210460315576886 0.5735254307031386
2620000000.0 0.17817410103897116 -0.6590071721948757
2640000000.0 -0.00012008222756479144 -0.6473331989755844
2660000000.0 -0.4778492850740063 0.3704363796340052
2680000000.0 0.55152886482839 0.09356456711242174
2700000000.0 -0.3782014903555252 -0.3478327014018441
2720000000.0 0.10960429682322324 0.4526067396951905
2740000000.0 0.22150267270387486 -0.3569523801951405
2760000000.0 -0.31389717678481704 0.21126359334799782
2780000000.0 0.3458075167703545 -0.008823136086648368
2800000000.0 -0.3166366090712077 -0.046718936038584576
2820000000.0 0.2964237169309098 -0.06516772352502351
2840000000.0 -0.2786035020779862 0.09256457248858416
2860000000.0 0.09290985144155782 -0.2779159733695475
2880000000.0 0.21806338884199808 0.19811658455373737
2900000000.0 -0.2846859966542257 0.08907169491143964
2920000000.0 0.2810088790538918 -0.1105052942622993
2940000000.0 -0.305707389464667 -0.012293553566045494
2960000000.0 0.008290462574383591 0.30676598259433874
2980000000.0 0.08986269175134474 0.29437050293894823
3000000000.0 -0.07810632612205289 0.296940901651796
3020000000.0 -0.3057820866189488 -0.01413758942517531
3040000000.0 0.21918398665034167 -0.20773109566496573
3060000000.0 -0.24719528671289057 0.16971620439485985
3080000000.0 0.22586168729155387 -0.19296620560916752
3100000000.0 -0.2694878068931853 0.11589053326159161
3120000000.0 0.17687406660588925 -0.2291026687907643
3140000000.0 -0.018668823542496642 0.28299474502124816
3160000000.0 -0.2519134209633415 -0.09932089657075047
3180000000.0 0.17899258289486641 0.18332789332796498
3200000000.0 -0.13993369713014964 0.1858637787507579
3220000000.0 -0.2050299810592647 -0.020411904605936657
3240000000.0 -0.03338175413957904 -0.17234617099215901
3260000000.0 0.13960709182697686 -0.022955159812351914
3280000000.0 -0.0984412378725757 0.0434269779232604
3300000000.0 0.0757154528792182 -0.008867652951337452
3320000000.0 0.0379254288467662 -0.029910364952238238
3340000000.0 -0.018300117343589523 -0.016546595840271495
3360000000.0 -0.000696796663300359 0.008714636114458914
3380000000.0 0.00042589878734781674 0.005491630144015426
3400000000.0 -0.0030948485179689614 0.014825699239261645
3420000000.0 0.023154666485940258 -0.011991457544796729
3440000000.0 -0.029186494695080965 0.022554099992401485
3460000000.0 0.021643037361609642 -0.04389543237752688
3480000000.0 0.05327309326039799 -0.034395384176085356
3500000000.0 0.0068963478584491 0.07922563654806083
3520000000.0 -0.06897369051173136 -0.06502938608538131
3540000000.0 0.07558749039235549 -0.08027087571240453
3560000000.0 0.023722656182122322 0.12001186330869892
3580000000.0 -0.08718627378762499 -0.10264805237047168
3600000000.0 0.1326028868614599 -0.06685435784781034
3620000000.0 0.08241433382701642 0.13632449083793668
3640000000.0 -0.1384590017291723 0.09840354842083654
3660000000.0 -0.13969628347580718 -0.11380798465239084
3680000000.0 0.03355733539379316 -0.18414803840915972
3700000000.0 0.1114577135210394 -0.1535246563226655
3720000000.0 0.19019996046694257 -0.00418412342329904
3740000000.0 0.18494357260773406 0.029449306399526788
3760000000.0 -0.18228156910854568 0.0009680311523902002
3780000000.0 0.12396856050090851 -0.1210358104331428
3800000000.0 -0.16122071437430013 0.031434585430220936
3820000000.0 -0.02159751821205569 0.15202222345350463
3840000000.0 -0.09701126983054019 0.10657773385266195
3860000000.0 0.14113841692006932 0.015521715480668443
3880000000.0 -0.03290913379275737 0.14481056525372063
3900000000.0 0.008383981762247266 0.1578532441221361
3920000000.0 0.05084409514265576 -0.15883315270196977
3940000000.0 0.1698009197808822 0.03706333207722689
3960000000.0 0.1721506511237541 0.05101082864849821
3980000000.0 0.010003267068103264 -0.17804922193941888
4000000000.0 -0.11679272423023682 -0.12274173515169426
