!Created with skrf (http://scikit-rf.org).
# Hz S RI R 50.0 
!freq ReS11 ImS11
400000000.0 -0.7490964062180635 0.44593040217824453
420000000.0 0.1533659949175557 0.855293492630949
440000000.0 0.8372561908178695 -0.09824481331321572
460000000.0 0.14560617693021388 -0.7896749471574636
480000000.0 0.6824469755847133 -0.2638409159095087
500000000.0 -0.5783716840673923 0.14594201245364377
520000000.0 0.24165034276513114 0.4413364984987624
540000000.0 -0.4194850656103418 0.04715832360690894
560000000.0 0.1647419479798647 0.3221970810706946
580000000.0 -0.2589819807646539 -0.21458478628659874
600000000.0 -0.2115661437560909 0.26173947840126016
620000000.0 0.15442239580875758 -0.3159706764329041
640000000.0 -0.11356907362696292 -0.36371270056092225
660000000.0 -0.3889075254168212 -0.00941349953692303
680000000.0 0.34668286096678264 -0.21034259060924604
700000000.0 -0.02046681665530604 -0.4090188019615761
720000000.0 -0.10157943465037916 -0.3956051044590328
740000000.0 -0.15520086676430503 0.3731312149299082
760000000.0 0.39178904140436444 0.021397457548999233
780000000.0 -0.3383924131610482 -0.12989160351850135
800000000.0 -0.11661392048232176 0.31771570487764544
820000000.0 -0.060496051461775634 -0.29224255304205
840000000.0 -0.10428218616352955 0.24097036934496022
860000000.0 -0.22344578622201383 -0.008385831733793965
880000000.0 0.12126053062357785 0.13070564768932105
900000000.0 -0.12082903510100307 -0.00669233911179715
920000000.0 0.08310991271956625 0.016682560227861378
940000000.0 -0.006096472327705856 0.05793319699921286
960000000.0 0.0636247497029257 -0.022385842388719886
980000000.0 -0.07029752446334797 0.04848263515532706
1000000000.0 0.007110778028866218 0.0980940038195503
1020000000.0 -0.10088946643365909 0.04896116804140616
1040000000.0 -0.09152749199918395 -0.08174930586005506
1060000000.0 0.11243733812293091 0.10649795266117938
1080000000.0 0.005538329474398219 0.1688208211019478
1100000000.0 0.1479973660244615 0.11500724799507836
1120000000.0 -0.09384302487366003 -0.1824643072005475
1140000000.0 -0.10063381713471438 -0.21142306286137263
1160000000.0 -0.1434135512406334 -0.2201677729722973
1180000000.0 0.2905998651220073 0.07560265177008256
1200000000.0 -0.02610234888412965 0.3288994253297595
1220000000.0 0.07651860301568103 -0.3559793410821597
1240000000.0 -0.23141222951526078 0.3141741981451612
1260000000.0 0.3358795800002642 -0.25270298855408097
1280000000.0 -0.38996485269425113 -0.1986025092978463
1300000000.0 0.33404975030610073 0.30165729548632264
1320000000.0 0.38155377509067745 -0.241563615348063
1340000000.0 0.03691194505221778 -0.4450302393909317
1360000000.0 0.08908164442223498 -0.4339413440861901
1380000000.0 -0.19166476534917234 -0.3909474430581916
1400000000.0 -0.36932754474997354 0.21018531904636273
1420000000.0 0.2419963669792966 0.3259345355540222
1440000000.0 0.28882642156108324 -0.2416742770772009
1460000000.0 -0.0704741085917666 -0.3368077203183139
1480000000.0 -0.3129370831465282 -0.00278579642531384
1500000000.0 -0.26688014121562476 0.08456072486271311
1520000000.0 -0.2297521760873183 0.10517510918176656
1540000000.0 0.21882250850417567 -0.054313204115445775
1560000000.0 -0.004476003203318347 0.19355504551188335
1580000000.0 -0.11876447266358957 -0.12084010973736821
1600000000.0 -0.13600825221975907 0.028003261295514142
1620000000.0 -0.10889491933168403 0.026130311644651655
1640000000.0 -0.053664835752392476 -0.06899049713824225
1660000000.0 0.004832412757766264 -0.06517742375867275
1680000000.0 -0.03536887407912169 0.026049687430687717
1700000000.0 -0.02838730453488227 -0.00034401568782628744
1720000000.0 0.006818026569103439 -0.0026964759788218914
1740000000.0 0.006149553227602844 0.009555453014253978
1760000000.0 -0.024872770203043855 0.01920995582811504
1780000000.0 0.049812983466137946 -0.036710851878996545
1800000000.0 0.08873321540827993 -0.03420278293759129
1820000000.0 -0.06965242020635545 -0.10870859997108603
1840000000.0 0.16667935965159933 -0.0008164850845851858
1860000000.0 -0.2033771759881294 0.009181989902907261
1880000000.0 0.24159947995201247 -0.03660070510750718
1900000000.0 -0.23965645210330133 0.1620266228773522
1920000000.0 0.10564834032821425 -0.30542430362073164
1940000000.0 -0.18539792521307777 0.3042890310417296
1960000000.0 0.33109722199097574 -0.19016674326992364
1980000000.0 -0.3653096274860309 -0.15727225101721776
2000000000.0 -0.3421873594396056 0.2317060197308274
2020000000.0 0.136826487556437 0.39849494482507547
2040000000.0 0.28456821918201847 0.31946584648941884
2060000000.0 0.42965296638723227 -0.006532388900040938
2080000000.0 0.3399924156474235 -0.26033474740622337
2100000000.0 0.27686868291141686 -0.31963003027563897
2120000000.0 0.12324078624765139 -0.396844630480822
2140000000.0 0.06274182998958512 -0.4028716560272022
2160000000.0 0.3641854270854914 -0.15930911949137821
2180000000.0 0.008230042944664277 -0.38658205398180434
2200000000.0 -0.35204553795339005 -0.12930015589213484
2220000000.0 -0.2738488679745558 0.23757804539863733
2240000000.0 0.124707892187325 0.333451276219007
2260000000.0 0.2914338590058181 0.19817966162933587
2280000000.0 0.34903863210177055 -0.0553762753260278
2300000000.0 0.12936608735397784 -0.34033327500191246
2320000000.0 -0.25988307154444473 -0.28425488719424474
2340000000.0 -0.3601194322718633 0.21124316891224695
2360000000.0 0.4161414429775676 0.19614291601623032
2380000000.0 -0.4063766774879013 -0.30694911606910597
2400000000.0 0.5244784547603872 0.19604928821136294
2420000000.0 -0.5564120791946813 0.2517711453778407
2440000000.0 0.2585983850296908 -0.6036269082122417
2460000000.0 0.26035042671177144 0.6441469005301059
2480000000.0 -0.5168236662402967 -0.5075770809229422
2500000000.0 0.5513473308399527 0.49718398143664366
2520000000.0 -0.4943674767716616 -0.5674879429427528
2540000000.0 0.12671011912834515 0.7434540747686272
2560000000.0 0.3897954934797029 -0.6390860285241161
2580000000.0 -0.7284303917700844 0.09160456538316994
2600000000.0 0.4532708572713427 0.5479180074375595
2620000000.0 0.25351091853648317 -0.6328463151598673
2640000000.0 -0.06203198355864734 -0.643694035849195
2660000000.0 -0.44267905633654775 0.41046868725520674
2680000000.0 0.5570950670821048 0.04322298301573894
2700000000.0 -0.3989692711888661 -0.3231065093629337
2720000000.0 0.14317875945838046 0.44272600100169757
2740000000.0 0.21248193420222944 -0.3620240135039164
2760000000.0 -0.2982232739570605 0.23256877498691464
2780000000.0 0.3442771355505616 -0.03321497689997654
2800000000.0 -0.31821468442505074 -0.03199379130997846
2820000000.0 0.29341088363572476 -0.07732520820723958
2840000000.0 -0.2765044543734114 0.09868538068491614
2860000000.0 0.09023222173411301 -0.2785026541386047
2880000000.0 0.20100892978958065 0.21548553582059948
2900000000.0 -0.28419350848808117 0.09003488490141767
2920000000.0 0.28206794447076583 -0.10679582439483684
2940000000.0 -0.304205181691163 -0.029307732436972093
2960000000.0 -0.03278684942102036 0.3051185807189429
2980000000.0 0.09531723221289116 0.2926008089055574
3000000000.0 -0.09062855245203157 0.2928756002845403
3020000000.0 -0.30485613365166575 -0.026056415731959746
3040000000.0 0.22584257412535141 -0.20036652687645967
3060000000.0 -0.23532150255501585 0.18538611099077199
3080000000.0 0.2306238777705603 -0.1871190253021375
3100000000.0 -0.2647139504452722 0.12667543824417168
3120000000.0 0.18868927622321333 -0.21908589627091138
3140000000.0 -0.022478283005598135 0.2825159653834958
3160000000.0 -0.24052977057763256 -0.12360986626316889
3180000000.0 0.15773639897653735 0.20169629683344525
3200000000.0 -0.14505996144534627 0.18190847360128012
3220000000.0 -0.20238667348643613 -0.03778082182603856
3240000000.0 -0.021843668078250243 -0.17388482404975947
3260000000.0 0.14089823485646713 -0.006595861584718914
3280000000.0 -0.09949077031914365 0.04024546174540244
3300000000.0 0.07417764623833115 -0.015274858531756308
3320000000.0 0.04627519987729134 -0.01151156899161763
3340000000.0 -0.00611296779474049 -0.02339843944309727
3360000000.0 -0.005840278332311876 0.005393273085855924
3380000000.0 0.005670578149499961 0.00247832383029613
3400000000.0 -0.010545553760396252 0.012384409716337983
3420000000.0 0.02024232008112754 -0.017604351142947054
3440000000.0 -0.021474701849854658 0.030991876517006682
3460000000.0 0.016309628750466768 -0.0471441616888774
3480000000.0 0.05349991107416243 -0.03554555844239508
3500000000.0 -0.007865261219575361 0.07991999665132155
3520000000.0 -0.043131888205563594 -0.08506058135744647
3540000000.0 0.09353560856747416 -0.0594190503713487
3560000000.0 0.00587767809816622 0.12296358495590934
3580000000.0 -0.034485415376944085 -0.13001250897092595
3600000000.0 0.14537395387742325 -0.03249074535821398
3620000000.0 0.0688050375290714 0.14432658432467155
3640000000.0 -0.15531904465113142 0.06862802817963878
3660000000.0 -0.10565167476666984 -0.14647566480545232
3680000000.0 0.06420727433300703 -0.1755824187130464
3700000000.0 0.13118949951947734 -0.1367622298960218
3720000000.0 0.18968790647479677 0.011666487212205397
3740000000.0 0.17720704220313577 0.05908148843628975
3760000000.0 -0.1816404980030902 -0.010385877951905499
3780000000.0 0.11886213101574136 -0.12483229340186991
3800000000.0 -0.16430482255078316 0.003953571859583493
3820000000.0 -0.050935255545329294 0.14476801873528136
3840000000.0 -0.11358264460328138 0.08819972186621354
3860000000.0 0.1368847612184145 0.036047021307448204
3880000000.0 -0.03533105875848374 0.14357786919593196
3900000000.0 0.011409126089448824 0.15682423506307017
3920000000.0 0.06454028088940351 -0.15311197597136925
3940000000.0 0.1665394712242497 0.047113422145256954
3960000000.0 0.1739358844252455 0.04357596722889618
3980000000.0 -0.005226277450290598 -0.17787213223580295
4000000000.0 -0.1277847584762049 -0.11111290407058355
