!Created with skrf (http://scikit-rf.org).
# Hz S RI R 50.0 
!freq ReS11 ImS11
400000000.0 -0.7372159617075763 0.4679517994414468
420000000.0 0.12375800166634601 0.860274406002778
440000000.0 0.833565279462787 -0.12588746243387583
460000000.0 0.14532383978989177 -0.7901151381387507
480000000.0 0.6910305903268676 -0.24071145428362903
500000000.0 -0.5777868343732946 0.14926913707238426
520000000.0 0.2586017823362897 0.4317778236446995
540000000.0 -0.42172961727392383 0.0023865414876591737
560000000.0 0.13494364807476497 0.3358723053232052
580000000.0 -0.27117087449842775 -0.1997388636614693
600000000.0 -0.18808787702161492 0.2789651110996226
620000000.0 0.16676628911795358 -0.30885796115579045
640000000.0 -0.10194375273256671 -0.36743800392308035
660000000.0 -0.3893346064929048 -0.0036444491810315558
680000000.0 0.34971830502712514 -0.2053261465518732
700000000.0 0.009423326194383217 -0.4094857455412082
720000000.0 -0.0840568463596624 -0.39966014462171445
740000000.0 -0.1870497563295599 0.35946061116697786
760000000.0 0.3907244777487968 0.03556568176243543
780000000.0 -0.3397469599799446 -0.12600485145445894
800000000.0 -0.10937036741595235 0.32004210819030776
820000000.0 -0.06170616607113809 -0.2918608005076289
840000000.0 -0.10542290472859328 0.24028746250730953
860000000.0 -0.2234478848490343 -0.004964531119358394
880000000.0 0.13132149543859803 0.12048526260347954
900000000.0 -0.12085121427450367 0.005718785487386202
920000000.0 0.084286272325556 0.012445019523720824
940000000.0 -0.017484893146039227 0.0557244696847965
960000000.0 0.06611060469581667 -0.012229384014965226
980000000.0 -0.07529123390737227 0.0392076469370023
1000000000.0 -0.0017172375480046546 0.09788382247900392
1020000000.0 -0.09835821595258924 0.05343543396633033
1040000000.0 -0.09258940369911407 -0.08017310213950044
1060000000.0 0.10951312118683708 0.10927918426897841
1080000000.0 0.019442128726094382 0.16755170767599875
1100000000.0 0.13567067120350762 0.1292761030576929
1120000000.0 -0.09591668115035314 -0.1814864261217889
1140000000.0 -0.08793768178109253 -0.21718994610984346
1160000000.0 -0.14119521673990654 -0.22188613257811748
1180000000.0 0.29051673628981667 0.07679979760565121
1200000000.0 -0.027595927157207375 0.32906409403108605
1220000000.0 0.08857357283475618 -0.35327926509104574
1240000000.0 -0.22565352646566425 0.3183771951839285
1260000000.0 0.3328011827991828 -0.2566233829607687
1280000000.0 -0.387328640958174 -0.20365137996861046
1300000000.0 0.34696860607328456 0.2864755453899664
1320000000.0 0.37712052019080405 -0.24796598398031464
1340000000.0 0.024666254417988982 -0.4456927212470912
1360000000.0 0.08113210220211017 -0.4353192242961284
1380000000.0 -0.19696549013310197 -0.38830895259945414
1400000000.0 -0.3667903066478151 0.2145111658058584
1420000000.0 0.24534814606499175 0.32351745141624755
1440000000.0 0.28599552682649954 -0.24500680869711694
1460000000.0 -0.07259565398230194 -0.3365126969658189
1480000000.0 -0.3127961877754835 0.01047579494766677
1500000000.0 -0.26734742735238015 0.08291205770377398
1520000000.0 -0.21990870120651132 0.1238606586937807
1540000000.0 0.2181363877550025 -0.05729722700269666
1560000000.0 -0.001769681250040515 0.19372521439207158
1580000000.0 -0.1251626106405948 -0.11429792299003999
1600000000.0 -0.13873758543873782 0.007430296865191432
1620000000.0 -0.11169947104486924 0.006628084194031728
1640000000.0 -0.05841082837222247 -0.06497417656819762
1660000000.0 0.00797483839955725 -0.06463299898085438
1680000000.0 -0.02726012848650735 0.03443308938263032
1700000000.0 -0.024951244420475898 -0.013221151644058678
1720000000.0 0.0014389645550500771 -0.007298133053923848
1740000000.0 0.010316734529249947 -0.004879960042297115
1760000000.0 -0.018590294976732053 0.02554997809181477
1780000000.0 0.04941392330073618 -0.037260202172401155
1800000000.0 0.08794737249327501 -0.03576419390874483
1820000000.0 -0.08225802260610139 -0.09969838075078599
1840000000.0 0.16646058741337497 -0.009219176847679759
1860000000.0 -0.20323980737021397 0.013882624521214491
1880000000.0 0.240979429053302 -0.04072160831625167
1900000000.0 -0.23989768389107166 0.1617941242406221
1920000000.0 0.11185985590156357 -0.30335071277844694
1940000000.0 -0.18675025600987635 0.3034908571786223
1960000000.0 0.3329523975091742 -0.18693760371137938
1980000000.0 -0.3617386351377581 -0.16507313421055092
2000000000.0 -0.35179904249928645 0.21685428726385708
2020000000.0 0.12275098306150833 0.4029507569547692
2040000000.0 0.28119686785818526 0.3222322819704304
2060000000.0 0.42910117219673993 -0.015650445111930252
2080000000.0 0.308578106687705 -0.29633469024684717
2100000000.0 0.2755144144406188 -0.3206850098707388
2120000000.0 0.0833626890916071 -0.4066772688998604
2140000000.0 0.04218199931368176 -0.405436533907225
2160000000.0 0.3621479955822879 -0.16402331847998464
2180000000.0 0.014142585896401326 -0.3865617481943718
2200000000.0 -0.35210108776878346 -0.12946302000661067
2220000000.0 -0.23450410991502027 0.276709421351066
2240000000.0 0.12919929165939756 0.3319222794703034
2260000000.0 0.2887204898941668 0.2028859097631157
2280000000.0 0.35135904773367127 -0.04046297162273625
2300000000.0 0.14723868095399267 -0.33349690756767436
2320000000.0 -0.2431223164652128 -0.29945449141904584
2340000000.0 -0.39154509068357335 0.1446960401589873
2360000000.0 0.38979627720629795 0.24428830868465634
2380000000.0 -0.3688687988407562 -0.3510324676400692
2400000000.0 0.5112212160071015 0.2278193874567867
2420000000.0 -0.5769313670637227 0.19927173327499165
2440000000.0 0.30878273246642673 -0.5790593597935928
2460000000.0 0.23942276672198512 0.6517344102976542
2480000000.0 -0.5394285126991606 -0.4825801973428147
2500000000.0 0.5517202419817399 0.49661335712277155
2520000000.0 -0.4811894911225884 -0.5790268707574946
2540000000.0 0.20956581347701697 0.7243952870225149
2560000000.0 0.3880994143842464 -0.6405706378251036
2580000000.0 -0.7183485638878919 0.15421996329900076
2600000000.0 0.49212989131767537 0.5144913284995034
2620000000.0 0.2439682719543486 -0.6376344542278499
2640000000.0 0.01161473440389052 -0.647454201427727
2660000000.0 -0.4515521001799976 0.4023482733399427
2680000000.0 0.5514565778762883 0.09565121596891286
2700000000.0 -0.3542863830331572 -0.37241323320248676
2720000000.0 0.10175149085894268 0.45478888653427896
2740000000.0 0.22820774941195549 -0.3526936972577758
2760000000.0 -0.32477969746298785 0.19420360375089185
2780000000.0 0.3460031663240999 -0.0012749588747006412
2800000000.0 -0.3162993040882317 -0.04921513914269051
2820000000.0 0.296846247042417 -0.06344495813758652
2840000000.0 -0.27684366387627785 0.09745965966740931
2860000000.0 0.09057264427904858 -0.2786009013950513
2880000000.0 0.22616837022657876 0.1888110352697146
2900000000.0 -0.27913784423552285 0.10487448360036027
2920000000.0 0.2821592605423924 -0.10724772346591593
2940000000.0 -0.30570686258257973 -0.006310611224707008
2960000000.0 -0.009900873203110484 0.3069956831537335
2980000000.0 0.1137117684017646 0.2857193097664659
3000000000.0 -0.07038366753328779 0.29841259380567964
3020000000.0 -0.301590277225321 -0.053760970872140317
3040000000.0 0.2228497175917149 -0.2041462661034883
3060000000.0 -0.210176835857004 0.21390123921829285
3080000000.0 0.22569763954313798 -0.19318356144120846
3100000000.0 -0.24585884671204872 0.16117934942372686
3120000000.0 0.14703032647315545 -0.24964640300273314
3140000000.0 -0.0006331203193996067 0.2837578401230727
3160000000.0 -0.24861130250491587 -0.10705029772707418
3180000000.0 0.17980119620049353 0.1832901457174789
3200000000.0 -0.12749835079241267 0.19521147486888937
3220000000.0 -0.20551707732128863 -0.015511655000504646
3240000000.0 -0.02739753149882339 -0.17364844462948859
3260000000.0 0.14132502489676202 -0.010529804921280137
3280000000.0 -0.0929543197671983 0.05494864297433611
3300000000.0 0.07597810487877177 0.0065159468115523235
3320000000.0 0.04437151715628087 -0.019310669210964627
3340000000.0 0.010612491310906743 -0.022653252932868986
3360000000.0 0.007338629018801454 0.0052952923609009845
3380000000.0 0.005375336314728271 0.0020358877796605957
3400000000.0 0.006222440982172321 0.013914183674397103
3420000000.0 0.011877031758492643 -0.023039750852650507
3440000000.0 -0.013598664824511596 0.034119584534364436
3460000000.0 0.003060831571495866 -0.048782498743955495
3480000000.0 0.027289856761715702 -0.05713975241578745
3500000000.0 0.02985257845593281 0.07368885724236514
3520000000.0 -0.08890033896247071 -0.033846421627855394
3540000000.0 0.04650415225700481 -0.10001412569177234
3560000000.0 0.028057574647548492 0.1188898264000834
3580000000.0 -0.085004016984191 -0.10374592386348148
3600000000.0 0.12896561640084214 -0.07386833191203332
3620000000.0 0.0888527119047489 0.1320708528593214
3640000000.0 -0.14172306049081307 0.09276859877761173
3660000000.0 -0.13798593870381767 -0.11621848563581688
3680000000.0 0.020563373773793466 -0.1862620322594097
3700000000.0 0.10255636476717164 -0.15987561540253295
3720000000.0 0.1901952375514393 -0.011156257444316834
3740000000.0 0.18441511288879356 0.034780596374405906
3760000000.0 -0.18260813673335224 0.008692681353696927
3780000000.0 0.1301798359997523 -0.11443702507811356
3800000000.0 -0.16206229574969266 0.030212474604881193
3820000000.0 -0.04655726151850206 0.14683439737932527
3840000000.0 -0.10763372851875706 0.09615246487377047
3860000000.0 0.13491286975572955 0.04539405802258842
3880000000.0 -0.055014567807726636 0.1383836027344548
3900000000.0 -0.010247470476704022 0.1578505445913265
3920000000.0 0.0648176945826283 -0.1536797989689387
3940000000.0 0.1707786720755122 0.033721801795034784
3960000000.0 0.17699759579112495 0.030517868423067522
3980000000.0 -0.045194668894437656 -0.1722017162511911
4000000000.0 -0.16480136972845374 -0.039598422581114234
