!Created with skrf (http://scikit-rf.org).
# Hz S RI R 50.0 
!freq ReS11 ImS11
400000000.0 -0.7472194571870778 0.44484573634171015
420000000.0 0.14624478332850802 0.8546737127087212
440000000.0 0.8252638668896239 -0.16586433703159345
460000000.0 0.10846739994449317 -0.7951729327386071
480000000.0 0.6825300243410256 -0.2630298373632931
500000000.0 -0.5731771773796948 0.16688182939071444
520000000.0 0.24608579428748376 0.43867094160231485
540000000.0 -0.42205936601341093 0.007289542701616966
560000000.0 0.16872688329559712 0.31996300945680944
580000000.0 -0.27803897833755437 -0.1905174891345818
600000000.0 -0.18320451639327834 0.2827183503501762
620000000.0 0.14412557878823815 -0.3221984022160892
640000000.0 -0.08113310885149354 -0.37381770475495735
660000000.0 -0.3825002266770386 -0.07891090969782476
680000000.0 0.38187254410748833 -0.13844484874576476
700000000.0 0.056577057965027426 -0.40573139100943084
720000000.0 -0.020829814992351585 -0.40770742239381674
740000000.0 -0.20963807225433775 0.3448663442830974
760000000.0 0.3818242041706056 0.08662593688886527
780000000.0 -0.3282201451459022 -0.1512019117801656
800000000.0 -0.09574009212671183 0.3234002233115275
820000000.0 -0.09372558873487319 -0.282479786629897
840000000.0 -0.02908834530276901 0.2605834795517605
860000000.0 -0.20461487178068724 0.09070249826004374
880000000.0 0.17361396031501067 0.04648040372878452
900000000.0 -0.10563084831695048 0.06320238648944601
920000000.0 0.07643931501118911 0.04170560907688199
940000000.0 -0.04467031378736964 -0.0391863155248111
960000000.0 0.01106313662190464 0.06573648482184756
980000000.0 -0.08273407723011625 0.011861786445508124
1000000000.0 0.03537997283575748 0.08980838633252765
1020000000.0 -0.05947762621984257 0.09367274951409119
1040000000.0 -0.12164483026355391 0.011418362011649575
1060000000.0 0.15511900167890336 0.002705861613136046
1080000000.0 0.10334332808492518 0.13516418913494996
1100000000.0 0.1762956700339001 0.06924485160713047
1120000000.0 -0.11589550646093635 -0.1721414933134831
1140000000.0 -0.08579148978621777 -0.2202320731347338
1160000000.0 -0.09875552207816064 -0.24581161223743436
1180000000.0 0.26412822168816036 0.1467430266557433
1200000000.0 -0.12143057718699114 0.30825476947905145
1220000000.0 0.19019889636691406 -0.31139143040425726
1240000000.0 -0.30740234250715814 0.24108225828816116
1260000000.0 0.3832486395777142 -0.17288268602239404
1280000000.0 -0.3417412400706863 -0.2729674073444005
1300000000.0 0.30714595839413983 0.32831397810045637
1320000000.0 0.4069433560223181 -0.19367627586916933
1340000000.0 0.04970833931419548 -0.4430162126529691
1360000000.0 0.06668811398261766 -0.437406365476212
1380000000.0 -0.20535761135681183 -0.3834136730847659
1400000000.0 -0.35507104198230394 0.23299431385717884
1420000000.0 0.26471419223669174 0.3077727805954126
1440000000.0 0.2587312084259049 -0.2737908583421861
1460000000.0 -0.10458168746865094 -0.328226822146639
1480000000.0 -0.3108723559237606 0.04073165875109704
1500000000.0 -0.2528799781991035 0.12129797534868425
1520000000.0 -0.20785037064931394 0.14506185153081222
1540000000.0 0.21925096548932888 -0.05615216973666434
1560000000.0 -0.005346743692210212 0.19458303221758635
1580000000.0 -0.1059325216080768 -0.1333722690688224
1600000000.0 -0.1374787635823291 -0.023882145889861324
1620000000.0 -0.10909351661408898 -0.026635638382889307
1640000000.0 -0.016424686135662555 -0.08594726564711537
1660000000.0 0.04090869336183057 -0.050396059360503315
1680000000.0 -0.043062226330144275 0.005790885609400877
1700000000.0 -0.02548981323216264 -0.011557142532485994
1720000000.0 0.0024220590023567024 -0.00650851699881639
1740000000.0 -0.006584725194061353 0.009794768747336657
1760000000.0 -0.03125829487680024 -0.004908214763478666
1780000000.0 0.06039040399764769 -0.01301977098189415
1800000000.0 0.09392663322397776 -0.012150744387153826
1820000000.0 -0.06252102136594863 -0.11264972701387722
1840000000.0 0.16619016998053768 0.006857950801878288
1860000000.0 -0.2029523026244738 0.012744588140498008
1880000000.0 0.23956596550839848 -0.0473123702099568
1900000000.0 -0.23521217344622145 0.16789597637695436
1920000000.0 0.08933426326132221 -0.31053814561351095
1940000000.0 -0.17369699165107222 0.31123312474443354
1960000000.0 0.3271330454843631 -0.19722108640152006
1980000000.0 -0.3680548483834048 -0.15138785656960377
2000000000.0 -0.34475401678340234 0.22831125577737046
2020000000.0 0.1276837566230651 0.40174029205295464
2040000000.0 0.2804525206615743 0.32345875878510516
2060000000.0 0.42917384575707485 -0.018081466896133633
2080000000.0 0.32724229947981437 -0.2761552000198637
2100000000.0 0.2831307855234431 -0.31397947035334206
2120000000.0 0.11393932803858774 -0.3993790027771819
2140000000.0 0.017349153346415395 -0.40719273212515894
2160000000.0 0.3705645699114788 -0.1431854861202796
2180000000.0 0.017343117116849778 -0.3859180358103698
2200000000.0 -0.34976930744005497 -0.13449480180868864
2220000000.0 -0.24742154634302804 0.26501431383250257
2240000000.0 0.1449663751592753 0.3245047431873997
2260000000.0 0.3010527702431832 0.18256916486029512
2280000000.0 0.3463646843543426 -0.06839691176777092
2300000000.0 0.11144421539316174 -0.3464676283095235
2320000000.0 -0.2731649244671547 -0.2714913350278213
2340000000.0 -0.36018018257966367 0.2109882108105329
2360000000.0 0.41508532700907036 0.19817215530130514
2380000000.0 -0.4040789139263157 -0.3101016101667737
2400000000.0 0.519239818181081 0.20976628143795137
2420000000.0 -0.5640870302071433 0.23411245190635394
2440000000.0 0.2679609536530307 -0.5995096149314592
2460000000.0 0.23903696771385413 0.6523178131763702
2480000000.0 -0.49409082936915105 -0.5295510200814997
2500000000.0 0.5426779170489411 0.5063173705979103
2520000000.0 -0.4615305452436858 -0.5942636237250066
2540000000.0 0.15766644997302295 0.7369096277670913
2560000000.0 0.40539078561736547 -0.6288193609052379
2580000000.0 -0.7339756380558741 0.006722501994575733
2600000000.0 0.3774634083301951 0.6021782585263403
2620000000.0 0.23362446826560535 -0.63982576737158
2640000000.0 0.012230753506837007 -0.6457242191995712
2660000000.0 -0.4660851333208834 0.38263675463083996
2680000000.0 0.5522470922930143 0.0800661178553139
2700000000.0 -0.3890049026208862 -0.3338328060372799
2720000000.0 0.13808664315508276 0.44370601713178703
2740000000.0 0.1647989638436693 -0.3854759125336567
2760000000.0 -0.28722707152706434 0.24550393730634487
2780000000.0 0.341833950335088 -0.05007837832677442
2800000000.0 -0.31970813771996204 0.002522711123272028
2820000000.0 0.2814603221882253 -0.11371262109580782
2840000000.0 -0.2669168653429527 0.12362633147319133
2860000000.0 0.07739350251819 -0.2831621098513987
2880000000.0 0.22429328969698953 0.19166597019708254
2900000000.0 -0.29479472046928035 0.050617637443813444
2920000000.0 0.28580989813629093 -0.0989852425894885
2940000000.0 -0.2970679650727134 -0.07518748162662116
2960000000.0 -0.050604231065211905 0.30310743441147714
2980000000.0 0.030126952665356057 0.30662717832285735
3000000000.0 -0.1485382505385969 0.26888735266009905
3020000000.0 -0.28813230994948885 -0.10423753241134326
3040000000.0 0.29117116283150263 -0.08080622506926653
3060000000.0 -0.2669786354905297 0.13515464336000924
3080000000.0 0.26690720681027225 -0.1286691437991329
3100000000.0 -0.2831178064295876 0.07382550316077732
3120000000.0 0.2158549481904458 -0.19139192576379332
3140000000.0 -0.05324577509999597 0.277600424598067
3160000000.0 -0.23959372734695067 -0.12337675233644556
3180000000.0 0.13367679760643403 0.2167703654145314
3200000000.0 -0.15055884757734822 0.17588662869408292
3220000000.0 -0.20462946666832182 -0.01287272577201067
3240000000.0 -0.056639163403782486 -0.16481523021348063
3260000000.0 0.1295326555799439 -0.05428985611152299
3280000000.0 -0.06361280522901083 0.08604915251387973
3300000000.0 0.040715973969693224 -0.06367534977027753
3320000000.0 -0.01765232730820344 -0.04425991361221843
3340000000.0 -0.0107531458423138 0.02149485295540218
3360000000.0 -0.00798251007669808 0.00028334789812107933
3380000000.0 0.001256000844674817 0.005411622442118925
3400000000.0 -0.005892712326594783 -0.014674828698274382
3420000000.0 0.025529834721987974 -0.008326648050665386
3440000000.0 -0.03547196407715603 -0.011207296036882749
3460000000.0 0.04718313756571753 -0.01427189558587042
3480000000.0 0.06331588590669543 -0.00719408256402367
3500000000.0 -0.035030551436172334 0.07155364116373769
3520000000.0 -0.025343494777970144 -0.0916073625604465
3540000000.0 0.09642884326965341 -0.05417711204822831
3560000000.0 -0.017165149796508364 0.12126417846453394
3580000000.0 -0.022322374006113203 -0.1321196280819586
3600000000.0 0.14614397088837405 -0.0264591900438272
3620000000.0 0.06646048152305009 0.1446703837843269
3640000000.0 -0.1604343511883832 0.05311723704169835
3660000000.0 -0.10996485356569888 -0.1422852296126644
3680000000.0 0.06905744117084554 -0.17339144694535022
3700000000.0 0.1251785442610251 -0.14199018474833805
3720000000.0 0.18930179517885454 0.01580584551915869
3740000000.0 0.17563757812167477 0.06287669472915432
3760000000.0 -0.18133004718441992 -0.007863899114348922
3780000000.0 0.11988543520892983 -0.12348484097065979
3800000000.0 -0.16101326475427893 0.02948867948867465
3820000000.0 -0.03848882883981835 0.148278164589316
3840000000.0 -0.08863163320889465 0.11236070831030769
3860000000.0 0.13914855359008893 0.024235050380875357
3880000000.0 -0.05086804193421913 0.1388979255713056
3900000000.0 0.002098888928037875 0.1570869414354729
3920000000.0 0.05812765573510106 -0.15494610145709722
3940000000.0 0.1686473322601078 0.03802444190231345
3960000000.0 0.17541028384393964 0.03314471703005703
3980000000.0 -0.05806755756223489 -0.16724989463305082
4000000000.0 -0.16847706242792207 -0.007003741416350254
