!Created with skrf (http://scikit-rf.org).
# Hz S RI R 50.0 
!freq ReS11 ImS11
400000000.0 -0.7342823791449962 0.46812301190653577
420000000.0 0.1509524182664193 0.8556945766829351
440000000.0 0.824450821140223 -0.1768922969294525
460000000.0 0.1473445763082527 -0.7890761932149785
480000000.0 0.6867753931076018 -0.25232700954594245
500000000.0 -0.5850917186441713 0.12322210691531918
520000000.0 0.28030026326993907 0.4181152186266188
540000000.0 -0.42010924334271055 0.036572105705835
560000000.0 0.0966676868620119 0.3478375672516285
580000000.0 -0.25552934715311265 -0.22153144685245854
600000000.0 -0.15851250091986777 0.29499755712594355
620000000.0 0.13842930559010488 -0.3215876877181608
640000000.0 -0.10461899193221472 -0.3665225094396061
660000000.0 -0.3874328300334247 0.0435813679773148
680000000.0 0.34248401450992927 -0.21782378046951417
700000000.0 -0.03441237582975539 -0.40846293271115836
720000000.0 -0.09978531249192323 -0.3965800334810359
740000000.0 -0.15350683049948868 0.37417141133896203
760000000.0 0.38593875654407633 0.07233240071042395
780000000.0 -0.32388461110907185 -0.16347639652340953
800000000.0 -0.15097886415214046 0.30248633919984635
820000000.0 -0.025214605731160713 -0.29723322369458943
840000000.0 -0.11253768045335315 0.23694454121666023
860000000.0 -0.22325607713150086 9.773326827764315e-05
880000000.0 0.13465001074004335 0.11664805885654789
900000000.0 -0.11817988376946972 0.026040666735050382
920000000.0 0.07698071996493394 -0.036483075414788804
940000000.0 -0.0005516451571259015 0.05925994353317582
960000000.0 0.06817184887383465 0.0036804728751995406
980000000.0 -0.0838332736046794 0.017696625448455114
1000000000.0 -0.003944015596099044 0.09780523472505669
1020000000.0 -0.11158773887135916 0.0078070468793421935
1040000000.0 -0.08759867212270632 -0.08565514126598744
1060000000.0 0.11923269772869541 0.09838334421603433
1080000000.0 0.034655176160875226 0.16472487795837065
1100000000.0 0.15469443679936062 0.10501786657671969
1120000000.0 -0.12065196869167504 -0.16597722619991664
1140000000.0 -0.14423980530854683 -0.1844716733272562
1160000000.0 -0.16296329635299853 -0.2062506200250178
1180000000.0 0.2985905907755028 0.033786760364897445
1200000000.0 0.012018288207970459 0.3299738972639137
1220000000.0 0.05797650561751287 -0.35939791852332137
1240000000.0 -0.2237048473379208 0.31993163607560776
1260000000.0 0.35215339774347765 -0.22940916750134466
1280000000.0 -0.3721410271781103 -0.23053076493996913
1300000000.0 0.31629931129054273 0.3204253452299825
1320000000.0 0.3897529806580375 -0.22790325728870384
1340000000.0 0.03497983573552149 -0.4453097707953255
1360000000.0 0.08956605462529717 -0.43410294376094033
1380000000.0 -0.18575764087528057 -0.3936329794885755
1400000000.0 -0.3694120161967396 0.20991636947526693
1420000000.0 0.26010373651398017 0.3115096770225377
1440000000.0 0.2806356505143938 -0.2513027474362668
1460000000.0 -0.07724218705765902 -0.33516776174143653
1480000000.0 -0.3127473152357973 -0.01424313267970599
1500000000.0 -0.27333688362918496 0.06127581787271848
1520000000.0 -0.23344824392616925 0.09627575455172957
1540000000.0 0.2182222117475935 -0.05305051190806867
1560000000.0 -0.018843738585029676 0.19235018354297492
1580000000.0 -0.11161111272662619 -0.1268628946931724
1600000000.0 -0.1333302268406718 0.03795687129933191
1620000000.0 -0.11112177353953692 0.009743619932091526
1640000000.0 -0.050773712217807625 -0.07077640958541269
1660000000.0 -4.387907868312859e-05 -0.06465248309014285
1680000000.0 -0.010938816099506886 0.04301820644142154
1700000000.0 -0.028371033289497336 0.0029582375584215224
1720000000.0 -0.0007104927256901326 0.00797230246199774
1740000000.0 0.006577024851816411 -0.00814806505909384
1760000000.0 -0.0003431621276940758 0.030569337376724716
1780000000.0 0.011504718601040603 -0.060574021576179506
1800000000.0 0.07428898330199446 -0.05930742065120643
1820000000.0 -0.10643947266579318 -0.07343260181476009
1840000000.0 0.16318356668574302 -0.03632653311390765
1860000000.0 -0.19687045881401222 0.05529743068627539
1880000000.0 0.2398973943253349 -0.050254618287455484
1900000000.0 -0.22670388762870258 0.18085613562124697
1920000000.0 0.12080908634215731 -0.3003892365624741
1940000000.0 -0.21530372377028417 0.28463012549449035
1960000000.0 0.3441003614836279 -0.16619659571123127
1980000000.0 -0.35888962454791895 -0.17150876629680276
2000000000.0 -0.3645346583636827 0.19399653949286372
2020000000.0 0.10125560141986113 0.408427539482876
2040000000.0 0.2599303457629626 0.33885581687712235
2060000000.0 0.42805463266942273 -0.011219158906389188
2080000000.0 0.3199186623839133 -0.2821512188387459
2100000000.0 0.2726725532380413 -0.3215112444827967
2120000000.0 0.0638949395334733 -0.40865313202547066
2140000000.0 -0.017035105009447975 -0.40601663810472355
2160000000.0 0.33379560971670047 -0.21312220666359422
2180000000.0 -0.026401965900791066 -0.3847028814140291
2200000000.0 -0.3710845815555132 -0.04798132788872796
2220000000.0 -0.20437915118841807 0.29887778491422134
2240000000.0 0.16965387222801537 0.31335958840964684
2260000000.0 0.32309596602894314 0.14310385027147776
2280000000.0 0.34091346160252356 -0.09649145321635573
2300000000.0 0.10600581919865852 -0.34927623783724404
2320000000.0 -0.28087960157778963 -0.26439654034376825
2340000000.0 -0.3675740444018576 0.19956348962458262
2360000000.0 0.40856399921830894 0.21289355507485475
2380000000.0 -0.39015989068084106 -0.3279620472012723
2400000000.0 0.5104885042767501 0.22980816190532732
2420000000.0 -0.5707857589358247 0.2165105968066098
2440000000.0 0.27811808766832175 -0.594199969957659
2460000000.0 0.24437923528803046 0.6493231234514474
2480000000.0 -0.528852389099832 -0.4935782073109915
2500000000.0 0.5701481818253372 0.4746415763263814
2520000000.0 -0.4995984295969984 -0.56218645282636
2540000000.0 0.16322758218887107 0.7358187081180916
2560000000.0 0.3060963359563728 -0.6823711162513696
2580000000.0 -0.7256197422015878 0.11024159046219126
2600000000.0 0.4644870522962077 0.538567568194997
2620000000.0 0.13842239097310152 -0.6678475974030292
2640000000.0 -0.08570276132167895 -0.6414156124950022
2660000000.0 -0.4266945155278339 0.42796585536848003
2680000000.0 0.5576648951240619 0.04500382997361109
2700000000.0 -0.36748663390450814 -0.3591642479120288
2720000000.0 0.11613635126077708 0.45121464376900194
2740000000.0 0.1817971800868759 -0.3791346355443294
2760000000.0 -0.2906782218804412 0.24314922016608134
2780000000.0 0.34422730995176387 -0.03681236230539077
2800000000.0 -0.31828867194566934 -0.030750732422380467
2820000000.0 0.2953809915084034 -0.0698223652884485
2840000000.0 -0.2769602139284361 0.09793342617400935
2860000000.0 0.10334246054826926 -0.27381456414692573
2880000000.0 0.1788362994784157 0.23435919769856395
2900000000.0 -0.2890593719727439 0.07202108744028725
2920000000.0 0.28086933788733176 -0.10926349395823537
2940000000.0 -0.3004361019077836 -0.051241567309693814
2960000000.0 -0.044496573997819755 0.3036305840794543
2980000000.0 0.09363956926743457 0.2922416485135735
3000000000.0 -0.10816321138788489 0.28545856137097975
3020000000.0 -0.3019883890402085 -0.04092810757406504
3040000000.0 0.1940496665492561 -0.22907343876317054
3060000000.0 -0.17340761779235744 0.24327441566534924
3080000000.0 0.18083844489506662 -0.23368643739617476
3100000000.0 -0.2185758104715866 0.19423904787578927
3120000000.0 0.1047489665289229 -0.26911757642753165
3140000000.0 0.05592767316657518 0.276809309825507
3160000000.0 -0.2656728640732512 -0.04683975987833504
3180000000.0 0.20927330672675065 0.14796806634011295
3200000000.0 -0.09938908447744989 0.21079862811894481
3220000000.0 -0.20562160543543764 0.01584210483535487
3240000000.0 -0.03824524845155415 -0.17172419419051393
3260000000.0 0.13742056685554746 -0.036405758215376345
3280000000.0 -0.10007735184855719 0.04127519893743123
3300000000.0 0.0755399526306659 -0.010969466047048237
3320000000.0 0.012115446563129562 -0.046521249061002044
3340000000.0 -0.02314158944308321 -0.008146973860405114
3360000000.0 -0.0031162259195062813 -0.007375835155787882
3380000000.0 0.005625903769723657 -0.0031226548766887623
3400000000.0 -0.010788772256390924 -0.012444566412739722
3420000000.0 -0.017798702342575846 0.021041948478667312
3440000000.0 0.03631087713144755 0.011810209410712954
3460000000.0 -0.02245227818030628 -0.04470495468616782
3480000000.0 0.021157812957919263 -0.06069424482047913
3500000000.0 0.04879127677361133 0.06442181828842966
3520000000.0 -0.07675301524622179 -0.05813660465296015
3540000000.0 0.06808192620055183 -0.08797290397561433
3560000000.0 0.04929133317764551 0.11381819279807255
3580000000.0 -0.09135599984994668 -0.10010779706524191
3600000000.0 0.12195768067250787 -0.08864819051338593
3620000000.0 0.12580022384627884 0.10036356794710777
3640000000.0 -0.13012414963069402 0.1111784788174636
3660000000.0 -0.14344488425092813 -0.11129789544921558
3680000000.0 0.011221149871130596 -0.18759323918518195
3700000000.0 0.10760298583951133 -0.1585718980489098
3720000000.0 0.1924176206715121 0.008266002216399332
3740000000.0 0.1627123737968401 0.09737257788466026
3760000000.0 -0.17286838444652455 -0.06346971673756469
3780000000.0 0.16991110042292396 -0.039487728542458855
3800000000.0 -0.1497500893399301 -0.07058066766367682
3820000000.0 -0.10196993985931521 0.11611620554940091
3840000000.0 -0.12888945508680527 0.06462271827672329
3860000000.0 0.12437052561297303 0.06861572082152452
3880000000.0 -0.07597194719838946 0.12746834666235338
3900000000.0 -0.058857398531670636 0.1456569140839541
3920000000.0 0.11886160413491985 -0.1155937707415924
3940000000.0 0.1338948052271435 0.11036539686595113
3960000000.0 0.10735287207261972 0.14328036378240058
3980000000.0 0.035961922162930225 -0.1739042282461322
4000000000.0 -0.031992007794382646 -0.16598050551615184
