!Created with skrf (http://scikit-rf.org).
# Hz S RI R 50.0 
!freq ReS11 ImS11
400000000.0 -0.38823045759847086 0.7877493248065158
420000000.0 0.6975481037656401 0.5303986369437533
440000000.0 0.2891952329991009 -0.7957838960636552
460000000.0 -0.7573739673854377 -0.24333986203757768
480000000.0 -0.3985998722751418 -0.6008780239425261
500000000.0 0.03647463725387409 0.5716975454189642
520000000.0 0.3882757315790392 -0.26984314729801395
540000000.0 -0.053545289640431704 -0.37870488300351646
560000000.0 -0.28270912890922095 -0.19025489976417945
580000000.0 0.3047358839684407 -0.08502559169709353
600000000.0 -0.31220620153175416 0.06473055808512328
620000000.0 0.3192773070603831 -0.02714969095085158
640000000.0 -0.13609740910657978 0.3116464609277779
660000000.0 -0.32005926140814306 0.1770167027126727
680000000.0 0.28475830042203965 -0.28239752611601115
700000000.0 -0.31911572076651734 -0.2670312216185114
720000000.0 -0.3929111686552954 -0.17815428523344856
740000000.0 0.01686697645114249 -0.4393089938619501
760000000.0 -0.10684852158687379 0.4191156730915545
780000000.0 -0.31777708492384216 0.2556314158926104
800000000.0 -0.13456877785156207 -0.3547102205704084
820000000.0 -0.3142238733995412 -0.08709999790038464
840000000.0 -0.19834686150743322 -0.1884588164049167
860000000.0 -0.0731503968421116 0.2072414951657941
880000000.0 -0.07344878440735288 0.14530884268499294
900000000.0 0.005674125221775101 -0.09408497020423841
920000000.0 0.030104624648796006 0.05123084336732473
940000000.0 -0.022154485728819152 0.04468785377473669
960000000.0 -0.03729992244291097 -0.05094218106413571
980000000.0 0.04642768083964373 -0.05291884102467555
1000000000.0 0.04009329564239843 0.06811450977345085
1020000000.0 -0.048884716183039724 -0.0724374071906256
1040000000.0 0.07366701321010166 0.06329500927578165
1060000000.0 0.13168956231662113 -0.01030246749420204
1080000000.0 -0.0387637289199 0.14367427363176613
1100000000.0 -0.10960377757883279 0.12891521822404792
1120000000.0 -0.06519483417521721 0.17626228302760086
1140000000.0 -0.2070604616421082 0.08775595040121248
1160000000.0 -0.19943339097603677 0.1699196181943094
1180000000.0 -0.28862149721352287 -0.10448658865724282
1200000000.0 -0.08851114600364313 -0.32822552861007487
1220000000.0 0.36533534423622915 0.09368543410625835
1240000000.0 -0.39697680729358126 0.08574571211954252
1260000000.0 0.33528802499048566 -0.2765615687625948
1280000000.0 -0.41547825744588673 0.17580695423898696
1300000000.0 0.31345344944326753 -0.33379541290189224
1320000000.0 -0.3262303779610037 -0.3141118375444924
1340000000.0 -0.4400864298809732 0.02537413686926499
1360000000.0 -0.327859330752237 -0.2826962007360177
1380000000.0 -0.34367227168826237 -0.25158358948903364
1400000000.0 -0.298886676479236 0.288286408980287
1420000000.0 0.08059432462228762 0.38650539930786243
1440000000.0 0.34227129362831754 0.13834311431007215
1460000000.0 0.3059152455950506 -0.14593356417860281
1480000000.0 0.09141641198110272 -0.2962720732181028
1500000000.0 0.006766804485179264 -0.2808985869737117
1520000000.0 -0.2402384855167508 0.08863292378942991
1540000000.0 0.035814165627013284 0.22990916673061784
1560000000.0 -0.20371797528636856 0.028285449839518025
1580000000.0 -0.15137920910456523 -0.10379235174917166
1600000000.0 0.0945704167666961 0.11557981464264869
1620000000.0 0.0699763495618445 -0.09783668860175038
1640000000.0 0.0688292534267356 -0.06472318187290914
1660000000.0 -0.046391010686721225 -0.05575030468491904
1680000000.0 0.03817448522075651 0.033053333059439
1700000000.0 -0.027715979241713408 0.016759039115866764
1720000000.0 0.0068478300582928255 0.013667841681722484
1740000000.0 -0.0022218071295329483 0.01732893861524686
1760000000.0 0.03832416898539274 0.004709383974247579
1780000000.0 -0.06773531027707987 0.024429674787262556
1800000000.0 -0.031315709326953364 -0.10474778152527028
1820000000.0 0.030586688873488883 -0.1421272226016592
1840000000.0 -0.05273076078087623 -0.17800309414865842
1860000000.0 0.1965255449186958 -0.0974258208702255
1880000000.0 -0.034852767809492084 0.25012071553523035
1900000000.0 0.01722279491913284 -0.2877045508901497
1920000000.0 -0.09661587201880756 0.3004289043890858
1940000000.0 0.32865197060650175 0.08881583461161917
1960000000.0 0.23207294981771923 -0.2783830507555436
1980000000.0 -0.16057897180880715 -0.3436546035494515
2000000000.0 -0.1313744315055679 -0.3757719184013167
2020000000.0 -0.36132959421098115 -0.2000163595353858
2040000000.0 -0.4167523860589212 -0.08101772803083247
2060000000.0 -0.32435513312046654 0.28450126783311425
2080000000.0 0.053212540370848896 0.4332859925611253
2100000000.0 0.36944271528608136 0.23203532630684048
2120000000.0 0.25481562563276744 -0.34676562193866434
2140000000.0 -0.3438905066997289 -0.24218339723828858
2160000000.0 -0.31603588831718565 -0.25115488351741433
2180000000.0 -0.3107299342878043 0.2242379805972712
2200000000.0 0.1469643025247344 0.33320600673797085
2220000000.0 0.26814438258573137 0.21493373880754718
2240000000.0 0.2651507451438661 0.2025013357185175
2260000000.0 0.11877065287244219 0.3057276323273496
2280000000.0 -0.17380864384245134 0.28634740699096073
2300000000.0 -0.014446625792614676 0.351539749200696
2320000000.0 0.3521826098878795 0.14645469516284595
2340000000.0 -0.019521972727312285 -0.41814199847331823
2360000000.0 -0.1435249998967949 0.4406589320364045
2380000000.0 0.0392945834525017 -0.5108266223640017
2400000000.0 0.23874060971753852 0.5101795934092472
2420000000.0 -0.5615856099377377 -0.2452643628104769
2440000000.0 0.6386600026791498 -0.16252938861229888
2460000000.0 -0.4263429703384335 0.5526558998968624
2480000000.0 0.20545300476061296 -0.6992126532455687
2500000000.0 -0.18277750139808255 0.7269215602759616
2520000000.0 0.3461585770526418 -0.6785698458638881
2540000000.0 -0.6014264186091014 0.47220378308591293
2560000000.0 0.7595892045338343 0.03772430389154196
2580000000.0 -0.4385422915059381 -0.6040394828468656
2600000000.0 -0.13186817309302792 0.7103950182696301
2620000000.0 0.5465214170597049 -0.42414989014261695
2640000000.0 0.1996753161715331 -0.6238120939366539
2660000000.0 -0.5276340747146535 0.30258556548001186
2680000000.0 0.5478505553597796 0.1106351280414217
2700000000.0 -0.21673746660043172 -0.46067630804475806
2720000000.0 -0.2793330464698786 0.3664658846984695
2740000000.0 0.39089928882634967 0.14723318644900188
2760000000.0 -0.08840921989726737 -0.3715981588214121
2780000000.0 0.0015194932134633059 0.3562893754427956
2800000000.0 -0.16762634049596345 -0.2911222745294968
2820000000.0 0.29215855416007835 -0.13624350263088936
2840000000.0 0.19393188429145755 0.24665565104864934
2860000000.0 -0.11996235488215783 0.2859984314798473
2880000000.0 -0.3035962117398395 0.047677858017034794
2900000000.0 0.043512519294273674 -0.30013781722075017
2920000000.0 -0.2000305413180248 0.223792269018025
2940000000.0 0.21275641481147564 0.20792455254785908
2960000000.0 0.1570433600297537 0.2512297563494973
2980000000.0 -0.19209315767170435 0.22923427931709137
3000000000.0 -0.21832685147704534 -0.2087451720027025
3020000000.0 0.2910489504402211 -0.09977400842970091
3040000000.0 -0.11493422299719873 0.28755153631401975
3060000000.0 0.037376741387489976 -0.3112305483399755
3080000000.0 0.24722753376633627 0.19115826216510914
3100000000.0 -0.30785456716938514 0.03863859444945556
3120000000.0 0.056297801577094755 -0.29936319741166667
3140000000.0 0.2895162248799572 0.05166235849011909
3160000000.0 -0.22485115856837956 -0.1593948612800616
3180000000.0 0.13996310753899846 -0.21408397274887175
3200000000.0 0.22581840426097685 0.02004121721892585
3220000000.0 -0.07560625351172841 0.17817280149518444
3240000000.0 0.08133690093666444 -0.13677743337488865
3260000000.0 -0.007060438401507443 -0.12465310859183243
3280000000.0 0.060953842208226826 0.0773826124922883
3300000000.0 -0.050586996774576024 0.05827995691280547
3320000000.0 -0.047104211908171316 -0.03418691724550079
3340000000.0 0.015123035192844874 -0.038154565469572695
3360000000.0 -0.024655426955859306 -0.0011393427634233564
3380000000.0 -0.0034724269110717235 0.010884232242491753
3400000000.0 -0.004015025091975412 -0.02162745357039529
3420000000.0 0.02528766957070028 0.034239589210661066
3440000000.0 0.041725105671471904 -0.040701744251450664
3460000000.0 -0.06896946298965415 0.0029951045117814407
3480000000.0 -0.06674356970616069 -0.03599924567993969
3500000000.0 0.08104659785663332 0.014172345873794644
3520000000.0 0.0006201785710783044 0.08654949839408305
3540000000.0 -0.09171313590627668 0.03002970283476134
3560000000.0 -0.10332696408527892 -0.03941336710897653
3580000000.0 -0.11389375649211496 0.05988207810543043
3600000000.0 -0.006519180994949755 -0.15177795626752438
3620000000.0 -0.008740915763014681 -0.16913975612498308
3640000000.0 0.019006193768094145 -0.18496519850748608
3660000000.0 -0.1588745901771461 -0.11860613899838858
3680000000.0 -0.17483569303524193 0.10211431135143735
3700000000.0 -0.05796701190381732 0.19209302988227905
3720000000.0 -0.03245603828329411 0.1910470977581971
3740000000.0 -0.14470311315121803 0.1100038314023311
3760000000.0 0.10215885755171011 0.13661660016142038
3780000000.0 0.1463424953604451 -0.06075450244605633
3800000000.0 0.10607196757203316 0.11035367935773871
3820000000.0 -0.02877522001466134 0.1494496560097931
3840000000.0 -0.08359651139012289 0.12798931327642643
3860000000.0 -0.1451024106760168 0.06747857753251901
3880000000.0 0.15587956996950045 -0.05737517128141886
3900000000.0 -0.10685457480134347 0.12900833669187903
3920000000.0 -0.018731295299285532 -0.16425028103749728
3940000000.0 -0.020530551177901396 0.160867164544154
3960000000.0 -0.011498984860481067 -0.16201097760958366
3980000000.0 0.14499521931761716 -0.07156301805302462
4000000000.0 -0.08595521110411844 0.13243488632090256
