!Created with skrf (http://scikit-rf.org).
# Hz S RI R 50.0 
!freq ReS11 ImS11
400000000.0 -0.40175523642573724 0.7798294937898964
420000000.0 0.7533177486761714 0.4475370483061154
440000000.0 0.34276524976170925 -0.7736110563848788
460000000.0 -0.7533206374924147 -0.2533918096086764
480000000.0 -0.42082929937112296 -0.587309556105672
500000000.0 0.24291803204309248 0.519587271505635
520000000.0 0.3469033364909062 -0.3210099653624072
540000000.0 -0.08938181727264505 -0.3729002391089458
560000000.0 -0.25527010993762744 -0.22497017011383566
580000000.0 0.23452392237125247 -0.2150665339079588
600000000.0 -0.31544346883720514 0.004794360846240173
620000000.0 0.2815600888994786 -0.15278422619258908
640000000.0 0.08190768842027633 0.3304019818460101
660000000.0 -0.22185168345936382 0.2915117542655825
680000000.0 0.3606822679603922 -0.17227794549819586
700000000.0 -0.31383018706091514 -0.27436007078406527
720000000.0 -0.4259747242022982 -0.0710839308360855
740000000.0 0.15033856027286557 -0.41387472639001743
760000000.0 -0.07881432732555751 0.4254914506669892
780000000.0 -0.28089975831972014 0.29439305605239763
800000000.0 -0.10371924839481789 -0.36446258150994176
820000000.0 -0.31842408748203693 -0.07752589355755694
840000000.0 -0.19742156255892265 -0.19016934597831406
860000000.0 -0.07979969333751506 0.20623590160058544
880000000.0 -0.08882562700726275 0.13817501947647945
900000000.0 -0.01486939654967657 -0.0934409561233227
920000000.0 -0.010326648451389772 0.059310638560628376
940000000.0 0.01482442668392943 0.04718933152287613
960000000.0 -0.03303505934375701 -0.05541383782818798
980000000.0 0.06722914145013463 -0.021807940046636377
1000000000.0 0.03743981516094078 0.06844885438882051
1020000000.0 -0.05631016310901736 -0.0671679796652132
1040000000.0 0.07796991995007918 0.05879311267044816
1060000000.0 0.13253607984006677 -0.010542852133818097
1080000000.0 0.029745734085317416 0.14632771679528847
1100000000.0 -0.11977440263105917 0.11954983417868914
1120000000.0 -0.04714467555220795 0.18155261301671888
1140000000.0 -0.1969759442105783 0.10974265861230557
1160000000.0 -0.24666235942308373 0.08699232111755095
1180000000.0 -0.29172358404073095 -0.09465009077400065
1200000000.0 -0.11735905958378916 -0.3193664215670262
1220000000.0 0.36560281527794 0.09314284963072256
1240000000.0 -0.3911786504099957 0.1101617799206435
1260000000.0 0.3447101562629689 -0.26388508655819
1280000000.0 -0.4122551952744223 0.18282723697653822
1300000000.0 0.326603308669846 -0.32199180410726524
1320000000.0 -0.3508007472143069 -0.28552374660532354
1340000000.0 -0.43510088740218444 0.060479678249664964
1360000000.0 -0.3587850377810084 -0.239780714935329
1380000000.0 -0.36326424490133985 -0.22366359610637218
1400000000.0 -0.3033920314802436 0.2839464384558311
1420000000.0 0.06756535583923952 0.38859396152632075
1440000000.0 0.3457439051430579 0.1303923726994728
1460000000.0 0.3028616962019832 -0.15179666635756953
1480000000.0 0.08688954750813686 -0.29733077887353904
1500000000.0 0.009712411528240868 -0.28144482287000244
1520000000.0 -0.25047857503322335 0.054435339316845445
1540000000.0 0.028311556640351326 0.23070072696966934
1560000000.0 -0.2045295977609624 0.02355790172652671
1580000000.0 -0.12033673491215052 -0.13870267923883542
1600000000.0 0.06398360266039935 0.13448710131428168
1620000000.0 0.04534906213246657 -0.11149658477944975
1640000000.0 0.08081906541625608 -0.04980484680036542
1660000000.0 -0.008638112473003 -0.07258896223168279
1680000000.0 0.02680850904710419 0.04221924896007516
1700000000.0 0.002525919261136474 0.03348106098413952
1720000000.0 0.011331075943387402 0.009965260896432553
1740000000.0 0.009691869769517655 0.014321948640445635
1760000000.0 0.03213105576380724 0.022296605647072087
1780000000.0 -0.07062417133456333 0.015092485617012643
1800000000.0 0.022562386670153034 -0.10657838308178347
1820000000.0 0.024450136417639417 -0.14332379794422603
1840000000.0 -0.018024829154014602 -0.1853238028653639
1860000000.0 0.20446210938402176 -0.07925661479986373
1880000000.0 -0.06788361657109224 0.2434250897669704
1900000000.0 0.04102306051491663 -0.28521742747687945
1920000000.0 -0.10238493708331584 0.29842798418401495
1940000000.0 0.32678014169142544 0.09454269516355802
1960000000.0 0.23753825556078184 -0.2732027348485041
1980000000.0 -0.14946873448774411 -0.34849404604253753
2000000000.0 -0.11976902681212082 -0.3797104085203778
2020000000.0 -0.38929234530846646 -0.13734885190427804
2040000000.0 -0.40968475745832733 -0.11059917048404368
2060000000.0 -0.3136786492248557 0.29595865967847296
2080000000.0 0.04354729291337567 0.4347460766926786
2100000000.0 0.3726069305988222 0.2276844556500006
2120000000.0 0.2534296743114504 -0.34809326006975755
2140000000.0 -0.3219474104422907 -0.27092529131147036
2160000000.0 -0.2871662413919927 -0.28382754841977553
2180000000.0 -0.32996440734438254 0.19579640781932817
2200000000.0 0.13591581257395038 0.3384772318982317
2220000000.0 0.24590034960352197 0.24030173022702128
2240000000.0 0.2702536624912356 0.19476978313133794
2260000000.0 0.11754125605826016 0.30602127810793356
2280000000.0 -0.1498054977361983 0.29931701108069053
2300000000.0 -0.0489601710319439 0.3479050406591493
2320000000.0 0.35002428277887565 0.15073435734216148
2340000000.0 -0.020174789335351138 -0.41779497425494183
2360000000.0 -0.1467310838081728 0.43895934706223705
2380000000.0 0.02617194597441415 -0.5117234404918047
2400000000.0 0.20460383017292536 0.5243616472800621
2420000000.0 -0.5547023480049489 -0.25965704356823277
2440000000.0 0.6399618621305362 -0.1569505989629809
2460000000.0 -0.4291295127014359 0.5503346212586796
2480000000.0 0.26012939390452167 -0.6812362456992244
2500000000.0 -0.24359498329734366 0.7093142308267605
2520000000.0 0.319258170960214 -0.691761418013848
2540000000.0 -0.6435812570581614 0.4140952151713277
2560000000.0 0.7594987779776754 0.038389294988101653
2580000000.0 -0.4066306942933677 -0.6262521741881475
2600000000.0 -0.13358134649682485 0.7102917119694809
2620000000.0 0.5574075960747316 -0.40949006578840624
2640000000.0 0.26773889815041074 -0.5976525705819876
2660000000.0 -0.5356675851998307 0.2873397443480342
2680000000.0 0.5464538368395346 0.11735464638141899
2700000000.0 -0.19777989226781434 -0.46890400642431407
2720000000.0 -0.2504422594675342 0.386610827021147
2740000000.0 0.38219065757401194 0.16766148309183135
2760000000.0 -0.09767825253174012 -0.36851471032419714
2780000000.0 0.038856587093039796 0.3533448036902325
2800000000.0 -0.17967496643966221 -0.283660000849795
2820000000.0 0.29116566730634447 -0.1383470747403833
2840000000.0 0.19157281080115138 0.2487737177569133
2860000000.0 -0.11214033900626667 0.2893326103791685
2880000000.0 -0.30581151362120845 0.027637504638801918
2900000000.0 0.05717600161083854 -0.29794639636019915
2920000000.0 -0.1961218416080367 0.2279477405474007
2940000000.0 0.17116333222255753 0.24396175916983892
2960000000.0 0.17217541942606557 0.24148000381119952
2980000000.0 -0.18494903333936094 0.23617379403757585
3000000000.0 -0.1970287188228737 -0.22962910367996012
3020000000.0 0.29048424546178464 -0.10177278810120724
3040000000.0 -0.17722519798116665 0.25440309594058047
3060000000.0 0.034988339082509014 -0.31213049124807424
3080000000.0 0.2247233835768163 0.21730257132416636
3100000000.0 -0.30996799550633086 0.023207740388466073
3120000000.0 0.12319691952435219 -0.2782987735517076
3140000000.0 0.26889032050842243 0.11990767994043358
3160000000.0 -0.1683864501767872 -0.21812507968886385
3180000000.0 0.1434541124432646 -0.21194716410432504
3200000000.0 0.21377225224758697 0.07500682213948599
3220000000.0 -0.08142772605809467 0.1754818080846348
3240000000.0 0.09184219088084647 -0.12916982732832655
3260000000.0 0.018721562772035932 -0.12275390717186689
3280000000.0 0.07194561907731911 0.06680031039732708
3300000000.0 -0.057638720385108685 0.05108863312925604
3320000000.0 -0.04922280642022528 -0.03007679218575245
3340000000.0 0.017344596851035905 -0.03721268031517822
3360000000.0 0.01833160379715519 -0.015131497899703156
3380000000.0 0.009692769844024063 -0.006957469792605837
3400000000.0 0.006312227909806122 -0.021416786769655256
3420000000.0 0.042268956167757964 0.008780549405359741
3440000000.0 0.05084154359244883 -0.0300349672713175
3460000000.0 -0.06720137387558846 -0.017690113677928603
3480000000.0 -0.03796334876594044 -0.06701879795585877
3500000000.0 0.07202978003627312 0.040977290934654784
3520000000.0 -0.003074312739540153 0.0870940834746379
3540000000.0 -0.0901090899986017 0.03714852088029278
3560000000.0 -0.10003485759852535 -0.04799171784304041
3580000000.0 -0.12844270082443557 0.004180229921458891
3600000000.0 0.013792614416804133 -0.15114062935812822
3620000000.0 0.013373147597036979 -0.16881174651152145
3640000000.0 0.047329835845353864 -0.179645837561032
3660000000.0 -0.11309852827422369 -0.16340171665900577
3680000000.0 -0.19415291439923163 0.0602037420989266
3700000000.0 -0.12121194727082155 0.16024471686596103
3720000000.0 -0.06721062256542415 0.1819770259368857
3740000000.0 -0.16459748007247443 0.07715125993790364
3760000000.0 0.0729965469307882 0.15459455964494645
3780000000.0 0.154560700015137 -0.03308968461633983
3800000000.0 0.09824705833245702 0.11680231292948078
3820000000.0 -0.1077612635887604 0.10712774021654932
3840000000.0 -0.12478718640225682 0.08754530482792038
3860000000.0 -0.15772347853195848 0.024409747553353518
3880000000.0 0.16568167309689258 0.00430568060496156
3900000000.0 -0.12351044374535237 0.11320100488473782
3920000000.0 -0.017864503473067016 -0.16415839374170585
3940000000.0 -0.015259618031756223 0.16051030940103128
3960000000.0 -0.010580016698261011 -0.16112401706114035
3980000000.0 0.14970206284269005 -0.060228899626121206
4000000000.0 -0.0655413773254743 0.14222695618620812
