!Created with skrf (http://scikit-rf.org).
# Hz S RI R 50.0 
!freq ReS11 ImS11
400000000.0 -0.41640754596045715 0.7722777863874202
420000000.0 0.7423442132722635 0.46533453674158715
440000000.0 0.32955105839093013 -0.7798050910290605
460000000.0 -0.7342693806488353 -0.30832429073540635
480000000.0 -0.4107475171575046 -0.5927157859050387
500000000.0 0.14120920592247374 0.5544442959068819
520000000.0 0.4177515593757578 -0.2225584170670451
540000000.0 -0.05219906352491943 -0.3787180541178471
560000000.0 -0.2753820924937369 -0.20009131653633072
580000000.0 0.2768782307349525 -0.14983969776108208
600000000.0 -0.3014551502013563 -0.10205672564977859
620000000.0 0.3133028510672858 -0.06639049845881329
640000000.0 -0.12227721669381902 0.3175271697376456
660000000.0 -0.3083990707204703 0.19539178426430917
680000000.0 0.2586941141348601 -0.3064964510687945
700000000.0 -0.2935945313401845 -0.29511746916257703
720000000.0 -0.42992942274432605 -0.029037493601915414
740000000.0 0.066540698332309 -0.43469736458043934
760000000.0 -0.07959628714686552 0.42487632919539725
780000000.0 -0.33729259387041505 0.2304892379948199
800000000.0 -0.1422479903909992 -0.3510837407316848
820000000.0 -0.31454548634335683 -0.08982156208158566
840000000.0 -0.1837663261161168 -0.20204687831339452
860000000.0 -0.07247695281223815 0.20765011462389568
880000000.0 -0.10444695892479765 0.12444027432960503
900000000.0 -0.044004782088196595 -0.08390759858948335
920000000.0 0.022129330615116093 0.05501305487763476
940000000.0 -0.021283789110882682 0.044445120450402005
960000000.0 -0.020027596316854118 -0.05947451035176561
980000000.0 0.05935525486270755 -0.038062540068560274
1000000000.0 0.027413049854160293 0.07360623096431229
1020000000.0 -0.04611433406905747 -0.07439166337208968
1040000000.0 0.07309074174913187 0.0635452510154916
1060000000.0 0.13093730103297938 -0.01792994071356105
1080000000.0 -0.031045316591591897 0.14553736080830865
1100000000.0 -0.08710846683260892 0.14504809878655445
1120000000.0 -0.0861102681121834 0.16714604576589076
1140000000.0 -0.21117203746289634 0.07889015048836953
1160000000.0 -0.20043755477578507 0.16954050364254886
1180000000.0 -0.28015032221139646 -0.12528152208378968
1200000000.0 -0.0902307836725371 -0.32764120029314886
1220000000.0 0.36001087673375287 0.11218258383495491
1240000000.0 -0.3992972166234816 0.07377253313353857
1260000000.0 0.35188764040751475 -0.2550100269807097
1280000000.0 -0.4207677435472304 0.16292032914097976
1300000000.0 0.3410113682715333 -0.30573275018455526
1320000000.0 -0.3167512989078118 -0.32355234526195065
1340000000.0 -0.43992576118400095 0.025922730739072832
1360000000.0 -0.3101367676695967 -0.3017231662784047
1380000000.0 -0.3365299929323891 -0.26131811183342213
1400000000.0 -0.2690619990585892 0.3163338626196138
1420000000.0 0.06813489363788461 0.3891769588882492
1440000000.0 0.34953863538333707 0.11976983841793659
1460000000.0 0.2962579841970754 -0.16526304016282478
1480000000.0 0.0867335228695332 -0.2976941108777174
1500000000.0 0.008988627332822553 -0.2815263868232787
1520000000.0 -0.24521052619063616 0.0753158672439967
1540000000.0 0.003946550633789334 0.23312010032272418
1560000000.0 -0.20275740513815663 0.035357610775906545
1580000000.0 -0.13542151804145638 -0.12418497966792183
1600000000.0 0.040884194700195504 0.14414182684622484
1620000000.0 0.08543832513155006 -0.08504352908008082
1640000000.0 0.07907781969138525 -0.05224130810449882
1660000000.0 -0.04278161306894174 -0.05912841862174857
1680000000.0 0.0335014912470534 0.03724564498781559
1700000000.0 -0.02841669666071081 0.014992898784336616
1720000000.0 0.012715142544095472 -0.008866608159308842
1740000000.0 0.006682791242780133 0.01641235704514615
1760000000.0 0.015073076805683743 0.035787054543218164
1780000000.0 -0.07171564749648389 -0.0037503226055151063
1800000000.0 -0.012675018826056197 -0.1084779863526441
1820000000.0 0.026717918270426955 -0.1426977283078093
1840000000.0 -0.03404313338790184 -0.18257603250714902
1860000000.0 0.19951629741157545 -0.09065004980011995
1880000000.0 -0.047068630366953544 0.24768102632640004
1900000000.0 0.0018770689330951822 -0.28787823210878927
1920000000.0 -0.08842088225120498 0.3026372317857984
1940000000.0 0.32931083084212104 0.08503333941929962
1960000000.0 0.22475297865364488 -0.28395270858843635
1980000000.0 -0.17380339219282598 -0.33714135494229946
2000000000.0 -0.1394919959852174 -0.3728877999173968
2020000000.0 -0.3672239494458685 -0.18910401407218913
2040000000.0 -0.41307445426253225 -0.09998487810678404
2060000000.0 -0.33769371248744284 0.2692102804989953
2080000000.0 -0.005768308786665817 0.43698950134111825
2100000000.0 0.37057063156467357 0.23083404410151737
2120000000.0 0.25948819664684153 -0.34367550746376313
2140000000.0 -0.3145763170019323 -0.27968022870224396
2160000000.0 -0.3110353086099969 -0.2575194045620438
2180000000.0 -0.32885232818463056 0.19694916966762213
2200000000.0 0.12662852579181122 0.34141753623214033
2220000000.0 0.24830639359573825 0.23706625146389398
2240000000.0 0.23826663347513577 0.23273320683153687
2260000000.0 0.09607611259558978 0.3136585587923412
2280000000.0 -0.18018839256401903 0.28160700238735403
2300000000.0 -0.030318195820733012 0.3500150767001574
2320000000.0 0.35510166989359637 0.13825979296897423
2340000000.0 0.010094892366048536 -0.4173936262174327
2360000000.0 -0.1424694231288466 0.4402702600463496
2380000000.0 0.0358410373494611 -0.5105899952214868
2400000000.0 0.21292614120377468 0.5208898329489774
2420000000.0 -0.5473967203243374 -0.2744671601095543
2440000000.0 0.6469389622842671 -0.12414115693970133
2460000000.0 -0.44429944199775817 0.5380676668497063
2480000000.0 0.2698208828637812 -0.6770860096025564
2500000000.0 -0.26354802170937924 0.7020782698316006
2520000000.0 0.36822349826927175 -0.6671286365674003
2540000000.0 -0.6536087466836996 0.3975782470120028
2560000000.0 0.755510364010172 0.0902212213244076
2580000000.0 -0.36540518888901147 -0.651322489485353
2600000000.0 -0.17784943352982283 0.7008102645476485
2620000000.0 0.5930370858379582 -0.35678161483465853
2640000000.0 0.30410707604522813 -0.5806652942550278
2660000000.0 -0.5472165930509828 0.2662620342691119
2680000000.0 0.5400951858443845 0.14747812159789098
2700000000.0 -0.17592752831819586 -0.478567013347026
2720000000.0 -0.28933894464395016 0.35967779786789333
2740000000.0 0.374778104808368 0.18505497950106398
2760000000.0 -0.07718153691315666 -0.3744664181481873
2780000000.0 -0.006461621642987896 0.3566165828662934
2800000000.0 -0.1657039920455971 -0.2927144422054967
2820000000.0 0.28653199200789997 -0.14837854625087937
2840000000.0 0.18834395757798905 0.2516013770383713
2860000000.0 -0.13221491736689167 0.2808855739161541
2880000000.0 -0.30480526955671217 0.04150297747314062
2900000000.0 0.061190526411107615 -0.29736610055654494
2920000000.0 -0.19731467593940058 0.2264400678421921
2940000000.0 0.16286283752138841 0.24967993698634067
2960000000.0 0.15151374777446744 0.25538330330610937
2980000000.0 -0.19641128610083458 0.2261494528773136
3000000000.0 -0.19820471316149738 -0.22900852468574726
3020000000.0 0.29772386276404583 -0.08054323916236225
3040000000.0 -0.16191950848924255 0.26480639984983423
3060000000.0 0.01889140064909044 -0.3134226590319657
3080000000.0 0.22574363912100245 0.2163078637367801
3100000000.0 -0.30971259681162877 0.025233064097700608
3120000000.0 0.049396302914955496 -0.30093394157240916
3140000000.0 0.28440901248858896 0.07346961522422908
3160000000.0 -0.2085176237073735 -0.18042607359421775
3180000000.0 0.13341496898940258 -0.21852467181032403
3200000000.0 0.22472629858762502 0.029039123811438392
3220000000.0 -0.08058127458914352 0.17558034940432451
3240000000.0 0.10139768972336317 -0.12241808202425339
3260000000.0 -0.005828565142147798 -0.12469727846361853
3280000000.0 0.0855823919544264 0.04799984456050942
3300000000.0 -0.056064684297774975 0.052553550396146655
3320000000.0 -0.054816566205925336 -0.019635600345235423
3340000000.0 -0.02570700737855619 -0.032388822443186006
3360000000.0 0.012904988718613106 0.021551774902753475
3380000000.0 0.0018785592823374777 0.01166816037855276
3400000000.0 0.021199936606935442 0.006448076183316726
3420000000.0 -0.02909868672372964 0.031087597954303103
3440000000.0 0.03383217723404797 -0.04760210022001542
3460000000.0 -0.06293442252540522 -0.027849349844160806
3480000000.0 -0.045914509153604524 -0.06007520607519336
3500000000.0 0.07290417729227695 0.03757060037302273
3520000000.0 -0.019300808622249546 0.08428007121744928
3540000000.0 -0.09503854437989362 0.016069403639493853
3560000000.0 -0.08426227873163325 -0.07115728725702361
3580000000.0 -0.12831024725201573 0.006723203024364391
3600000000.0 -0.013585030438532836 -0.1514644600906838
3620000000.0 0.00913480701011452 -0.1688003683958618
3640000000.0 0.059586781193881395 -0.17533065548676738
3660000000.0 -0.15576102568005348 -0.12293193264675688
3680000000.0 -0.16888535059994186 0.11116607066550954
3700000000.0 -0.06021449673317857 0.1912701249910925
3720000000.0 -0.020207606593174807 0.1928238628576245
3740000000.0 -0.14170882059030607 0.11387913792337821
3760000000.0 0.10537799537248126 0.1343881430715868
3780000000.0 0.14448818353492807 -0.06399351999433217
3800000000.0 0.11812933288318468 0.09708308276284112
3820000000.0 -0.03473411240799974 0.14827403266689507
3840000000.0 -0.09086751503303901 0.12271127734094724
3860000000.0 -0.14751204799872752 0.061298719413409086
3880000000.0 0.15447766288479473 -0.059488604090700434
3900000000.0 -0.1159239995229959 0.1210094744105512
3920000000.0 -0.015742160098531018 -0.16434585958872489
3940000000.0 -0.001963248039615854 0.16132695013073023
3960000000.0 -0.01795514694454309 -0.16090067526853236
3980000000.0 0.14112894319798108 -0.07856624099183941
4000000000.0 -0.07223302283757517 0.14002503425555626
