! Created with skrf (http://scikit-rf.org).
# Hz S RI R 50.0 
!freq ReS11 ImS11
400000000.0 0.2083976792372587 0.8479668531042458
420000000.0 0.6666404004419292 0.5427892400604325
440000000.0 0.7828630933797893 -0.254960174821911
460000000.0 0.22703873938496516 -0.7536051976990933
480000000.0 0.6557145549300041 -0.24997532581562845
500000000.0 0.5543952633112632 -0.10928174465253492
520000000.0 0.43992700469822293 -0.22534624973015413
540000000.0 0.31018457050065074 0.30183720276966386
560000000.0 -0.28956299708155303 -0.21820473687615544
580000000.0 -0.2112836517481068 0.26900817663584664
600000000.0 0.3391925704446012 0.015089544453930544
620000000.0 -0.3551984464968563 -0.008951315299949539
640000000.0 -0.32742777093545167 0.20441373980240812
660000000.0 -0.08893004467722135 0.3889457937114241
680000000.0 -0.37398203031631155 -0.20340069420819645
700000000.0 0.24812947395731294 0.36763032938475687
720000000.0 0.14446487848650427 -0.42222167858267096
740000000.0 0.4277792650644886 -0.10482382740803232
760000000.0 -0.37517776868923297 -0.18676021713305907
780000000.0 0.12712543822803973 -0.36152695468811635
800000000.0 0.22473146458880203 0.2648548016449135
820000000.0 0.19279789526773444 0.2097012521615407
840000000.0 0.1011992504497952 0.20303348140858996
860000000.0 -0.05617153168028855 0.18565939324897712
880000000.0 0.10480010724918287 0.07830737455915264
900000000.0 0.07032811861316896 0.007343455810561467
920000000.0 0.026686483958269374 -0.030939250445719952
940000000.0 0.01570212483188043 0.02093907261138086
960000000.0 0.007457353014479262 0.0344751029032714
980000000.0 0.013995408760784428 -0.049463997832380556
1000000000.0 -0.05540138472833125 0.010760378312583582
1020000000.0 0.07034929880093864 0.02208556856483222
1040000000.0 0.07068414236262824 0.05018218349251164
1060000000.0 -0.12754693633780861 -0.0001701641195283426
1080000000.0 0.14291560994629776 -0.04031083936371637
1100000000.0 -0.021224939354825806 -0.17851006442325032
1120000000.0 -0.021641956103261927 0.2089303041733175
1140000000.0 -0.08778653006036775 -0.23517796737350977
1160000000.0 -0.2777884516779628 0.0877833912890649
1180000000.0 -0.07064328921559529 0.32257673284187866
1200000000.0 -0.11392660620761794 0.34288764170572383
1220000000.0 -0.33840135927082093 -0.1855071674169087
1240000000.0 0.40593199114715345 -0.016447351808918126
1260000000.0 -0.4079984593303295 -0.13111133113341444
1280000000.0 0.3544556440697594 0.26080687904887284
1300000000.0 -0.06901023810636721 -0.437821791730403
1320000000.0 -0.4334384382389452 0.01998920318502582
1340000000.0 -0.3501898957048512 -0.2368166319056503
1360000000.0 0.13467269901354972 -0.391900125351974
1380000000.0 0.32880096255006347 -0.2545026934505559
1400000000.0 0.2129410084456778 -0.34571173992996834
1420000000.0 -0.13400003037709177 -0.3733177948596312
1440000000.0 -0.37212400940178153 -0.07565485801903472
1460000000.0 -0.05071149198782012 0.35660717960995814
1480000000.0 0.26230366828970814 -0.21059589497659248
1500000000.0 -0.2656167443927202 0.15356887365604047
1520000000.0 0.27634623214919196 0.01805386947395105
1540000000.0 0.22433248485324742 0.09255704375748994
1560000000.0 0.19167933474947044 0.058236867603126255
1580000000.0 0.09487738024482419 0.13354948064455135
1600000000.0 0.08941315931101239 -0.09345733637054103
1620000000.0 0.07710182344080957 0.05163150018993614
1640000000.0 -0.0392588024409799 -0.05839517025479328
1660000000.0 -0.04456094774146708 0.012510059294342343
1680000000.0 -0.0017107999395485087 -0.024663261839988525
1700000000.0 -0.009482997933540637 0.006904533059973395
1720000000.0 0.009062403729527423 0.007760069866812491
1740000000.0 -0.014894623192306968 0.024763483229710382
1760000000.0 0.01008070634338843 -0.04234534285510597
1780000000.0 -0.017999810843296604 -0.06727087455412924
1800000000.0 -0.0003285144622699028 0.09858962986318752
1820000000.0 -0.11400524288834063 0.04660168018480439
1840000000.0 -0.0016236419397278282 0.15711824550038375
1860000000.0 0.1739280156304872 0.07621118447263613
1880000000.0 0.19345099789410097 -0.1220270006525555
1900000000.0 -0.1655419001922509 -0.21606651442549515
1920000000.0 0.14809243227798974 0.2752347509395173
1940000000.0 0.1060384797332825 -0.33468089074184987
1960000000.0 -0.2713723472758028 0.2704349987237146
1980000000.0 0.352456381939913 -0.20373552620436292
2000000000.0 -0.3051924272549739 -0.2964610071735474
2020000000.0 -0.06559111456040426 0.4306269579647765
2040000000.0 0.40208445808031246 0.1747767479750845
2060000000.0 0.24412050653045797 -0.3607299881393506
2080000000.0 -0.10642902201742178 -0.4125637165049363
2100000000.0 -0.10508640006004454 -0.40435990545740713
2120000000.0 -0.114520643756081 -0.39133761662767347
2140000000.0 -0.1878236084200381 -0.349944141474128
2160000000.0 0.3223163577667478 -0.21039748981507506
2180000000.0 0.1932937968081045 -0.31737266977463996
2200000000.0 0.06176184725324564 -0.35559341410334705
2220000000.0 -0.2974572186931509 -0.1911834543891999
2240000000.0 -0.2768095738530125 0.21237504038213964
2260000000.0 0.017295701641599617 0.34758439425342086
2280000000.0 0.24887817540179952 0.2451752967411933
2300000000.0 0.29540249385894285 -0.20838231426000292
2320000000.0 -0.14616521815163783 -0.3541814745741664
2340000000.0 -0.3881741896680978 0.14357623194074226
2360000000.0 0.35335681685995773 0.2856748061564409
2380000000.0 -0.2924087390545111 -0.40916144295430784
2400000000.0 0.2933312821572582 0.4710299308796635
2420000000.0 -0.5091229461509876 -0.3322525949126009
2440000000.0 0.6537170664371066 -0.07179584423764247
2460000000.0 -0.5049625676914364 0.4835700581699233
2480000000.0 0.23034640344765725 -0.6936906031638146
2500000000.0 -0.26742722036895966 0.7035146921267548
2520000000.0 0.376507991054011 -0.6638596484352464
2540000000.0 -0.6071345053562903 0.4659443064029109
2560000000.0 0.752733350917327 0.09923764999580327
2580000000.0 -0.4031814318665391 -0.6257961173472958
2600000000.0 -0.306861180193027 0.651823670806852
2620000000.0 0.6752376086382584 -0.13877111243514045
2640000000.0 0.4734685101287002 -0.44853155623428337
2660000000.0 -0.6068287140007319 -0.044138569187985914
2680000000.0 0.3461849723746005 0.44189665769075287
2700000000.0 -0.007586369011819449 -0.5139044085610003
2720000000.0 -0.18970398953858494 0.4248939378549664
2740000000.0 0.3619592834108831 -0.21354983730184854
2760000000.0 -0.37530033651536343 0.06559171319321462
2780000000.0 0.3218736143948627 -0.1392655657964611
2800000000.0 -0.20152233892847246 0.25615602525400516
2820000000.0 -0.12369951236742201 -0.28343852244266793
2840000000.0 0.29361985799277496 0.058115383849109165
2860000000.0 -0.1476748151041979 0.2564471651298249
2880000000.0 -0.1388381368244728 -0.26055650853985013
2900000000.0 0.1710517682728568 0.242112554435044
2920000000.0 0.06969361621669627 -0.29264386041385515
2940000000.0 -0.30329988019670107 0.04583945922577371
2960000000.0 -0.15136292089165954 0.2689955652236529
2980000000.0 -0.26517087902157993 0.16406722570997362
3000000000.0 -0.26551123989903447 -0.16946868634228363
3020000000.0 0.0926919121475403 -0.30243961609012654
3040000000.0 0.23136035799461643 0.21300035182001995
3060000000.0 -0.31279996792034565 0.023973798812228088
3080000000.0 0.26635954541342194 -0.1574798902454157
3100000000.0 -0.1658922665763263 0.2532140610180253
3120000000.0 0.0020084186080206916 -0.2946601995174349
3140000000.0 0.15165431775644037 0.23962576093377305
3160000000.0 -0.24365109059662476 -0.10953406325138103
3180000000.0 -0.009168189755903798 0.24869050508499485
3200000000.0 -0.18649313515951052 -0.12802758617669693
3220000000.0 0.15598921047519668 -0.12321764390548141
3240000000.0 0.00996021872410535 0.16902292358552037
3260000000.0 0.043096191002021715 -0.13069963357172848
3280000000.0 -0.05768492148355169 0.08983306211786903
3300000000.0 0.07827288969395385 -0.013778697857341954
3320000000.0 -0.048476463904139365 -0.017663417006847152
3340000000.0 0.01958247108872562 -0.01893399978249716
3360000000.0 -0.005345378716991644 0.003771517075167016
3380000000.0 0.0011436202529849025 -0.009849749907920646
3400000000.0 -0.018141043988381594 0.017104065109752736
3420000000.0 -0.02979817917303355 -0.024088573765878075
3440000000.0 -0.005160100585099903 0.04918957233869802
3460000000.0 0.03678583867719856 0.04268942051950374
3480000000.0 -0.04892740043151999 -0.043850006573654565
3500000000.0 -0.031137961411115023 -0.07241262659764652
3520000000.0 -0.09403639366395679 -0.011785245023204792
3540000000.0 0.10930288293244018 0.018135977257777804
3560000000.0 -0.09975093260582374 0.07524486531610525
3580000000.0 0.08389957498997007 -0.11081845165581787
3600000000.0 0.11646020525877766 0.10642457987821557
3620000000.0 0.05511741349509576 0.16012782212695278
3640000000.0 -0.1405400903464827 0.11282517242958816
3660000000.0 -0.18912878858426319 0.014570269302014155
3680000000.0 -0.15363675673743452 -0.11911518682346989
3700000000.0 -0.11119207383439629 -0.15839939742971834
3720000000.0 0.05331621764681925 -0.18558528019676931
3740000000.0 0.15816928197205093 -0.10242185452885318
3760000000.0 -0.15764770616357596 0.08858109052136283
3780000000.0 0.168212883941668 -0.024572434933779575
3800000000.0 0.024563030973544293 -0.15864473602314907
3820000000.0 0.023312242628571817 -0.15171711044938882
3840000000.0 0.13311751125674612 -0.06528084047515112
3860000000.0 0.042535223879742255 0.14329729575526362
3880000000.0 0.08167668626681046 0.13301532959110948
3900000000.0 0.033043098398247026 -0.15586867061124007
3920000000.0 -0.1358650718547664 0.08999939714592693
3940000000.0 0.1251987025195912 -0.1092965298965162
3960000000.0 0.1610961071561813 0.05327479552046938
3980000000.0 0.15747407571001812 -0.06346385678411308
4000000000.0 0.162871863593058 -0.017348206274020863
