! Created with skrf (http://scikit-rf.org).
# Hz S RI R 50.0 
!freq ReS11 ImS11
400000000.0 0.05746920681338375 0.8692939243401018
420000000.0 0.5259517753400371 0.6809035073820298
440000000.0 0.8108092609523757 -0.16689313189707244
460000000.0 0.07863857974530976 -0.7872514732181062
480000000.0 0.42861955383817996 -0.5589623277828525
500000000.0 0.4476149835256156 -0.3288666436998385
520000000.0 0.47190918616520483 0.1249598932580839
540000000.0 -0.04817890809273114 0.43215305985490987
560000000.0 0.21581938318354318 -0.3006837488198803
580000000.0 -0.3456434289153359 -0.0749893627839452
600000000.0 0.23342140940784326 0.27070881328902097
620000000.0 -0.37517317902387626 0.05437495973416248
640000000.0 0.4007468193583706 -0.09126519232172693
660000000.0 -0.35236908910566767 -0.21835834545117153
680000000.0 -0.2846897179791623 -0.30942333795041044
700000000.0 -0.4074719194402714 0.06995944293437806
720000000.0 -0.14378577060243017 -0.37883567466000934
740000000.0 -0.35278885355304684 0.20439305200803912
760000000.0 0.25663086490185766 0.30968694499120725
780000000.0 -0.38276890859319773 -0.004380448361429879
800000000.0 0.2514371167571266 -0.2593701467113044
820000000.0 -0.18407184469144916 -0.24823639409673515
840000000.0 0.20673049999273166 0.14096983800403068
860000000.0 -0.1702163463020987 0.11897778248226014
880000000.0 -0.0882142056988745 -0.11846467956871547
900000000.0 -0.06894758598575776 -0.03851398130195207
920000000.0 0.004417976080128069 0.04602830855048789
940000000.0 0.029929559615693258 0.00508489325850236
960000000.0 0.006065669311546378 0.036252288957455685
980000000.0 0.01813974528303072 0.0440968042044626
1000000000.0 -0.05662295783184012 -0.008549485101927488
1020000000.0 0.07089297824457948 0.039167296247533866
1040000000.0 0.04487508326073722 0.09494938676680488
1060000000.0 0.14703649735309027 -0.03525849452727869
1080000000.0 0.08156739794803074 -0.15499749867521645
1100000000.0 0.1354712411530339 -0.1572270649902003
1120000000.0 0.21153020670313183 0.08587037112685615
1140000000.0 -0.14428634574300436 0.21309460617183076
1160000000.0 0.18571451019763105 0.20807323438048844
1180000000.0 -0.28774162596496883 0.09112586310570796
1200000000.0 0.2810938503187653 -0.16071989701273307
1220000000.0 -0.0429200081648806 -0.3462090953066925
1240000000.0 -0.38058742503126725 -0.010454051388347048
1260000000.0 0.158246830974806 0.38660876187594356
1280000000.0 -0.08379584539040622 -0.4356459257353939
1300000000.0 -0.01703113176882642 0.46226433400771805
1320000000.0 0.03324448911059791 -0.46095729950824293
1340000000.0 -0.41457697530566107 -0.1826771209646833
1360000000.0 -0.438722523569704 -0.0065323512021086124
1380000000.0 -0.3902887188263748 0.17873203674761032
1400000000.0 -0.2111053477377708 0.35215226845127745
1420000000.0 0.1033628580374768 0.37585915248615315
1440000000.0 0.13391753547628912 0.34147175430295124
1460000000.0 0.3357354838453503 0.07013371326566506
1480000000.0 0.13575933566615012 -0.28772418649865966
1500000000.0 -0.2641925856762082 -0.12247771348557845
1520000000.0 -0.108197484965482 0.23901953172288856
1540000000.0 -0.17261289249971778 -0.15228542180039595
1560000000.0 0.18057797066212591 -0.06914212288280913
1580000000.0 -0.05994824312832042 0.15395541627600118
1600000000.0 -0.040339393880553166 0.13134548406450705
1620000000.0 -0.09023959760676312 0.06274804621395538
1640000000.0 -0.016180529468310417 -0.08849762455503035
1660000000.0 -0.0639857976002557 -0.02478368415044119
1680000000.0 -0.007323904667776154 -0.04799029218200818
1700000000.0 0.012198000756438378 0.030525014798380098
1720000000.0 -0.010830334580780176 0.009664365358265498
1740000000.0 -0.006943315404321084 -0.015852152232653797
1760000000.0 0.039982177086801816 0.009255700262941145
1780000000.0 0.05710483294027863 -0.05139980256587419
1800000000.0 0.1152868854205755 -0.0019320642437469706
1820000000.0 0.10504699075921967 -0.1044095038980796
1840000000.0 0.16255092763014228 0.07730840317725768
1860000000.0 -0.19986658318789965 0.055452896058207045
1880000000.0 0.032519780562163016 0.23406767889092
1900000000.0 0.26340148905045535 0.06358671111170627
1920000000.0 0.057139458576761386 -0.3000848225195935
1940000000.0 -0.31037280063274275 -0.13990271206526442
1960000000.0 -0.02004550076608633 0.37142075500746774
1980000000.0 0.34659492471394354 -0.19169079247169774
2000000000.0 -0.13302846044996866 -0.39399060363684185
2020000000.0 -0.364279309786788 0.22803525748736167
2040000000.0 0.07036819173885908 0.429844591356281
2060000000.0 0.4311915989868193 0.06939764542913832
2080000000.0 0.3320853178489412 -0.2780091056484135
2100000000.0 0.1780499252607462 -0.3888665953802048
2120000000.0 -0.12850488231367427 -0.398613585635064
2140000000.0 -0.37945322219339295 -0.1492486888582548
2160000000.0 -0.12088970026786489 -0.37368698448740784
2180000000.0 -0.32032292314531213 -0.19256043774487522
2200000000.0 -0.35809736992088337 -0.01850070768159409
2220000000.0 -0.3405517371188352 0.0675052883387746
2240000000.0 -0.24205904913557852 0.24350295479645573
2260000000.0 -0.08418468677718745 0.3331718028165958
2280000000.0 0.06754138857335958 0.3428807958000549
2300000000.0 0.36216271075188383 -0.04373603626121783
2320000000.0 -0.11498613124694829 -0.3707608056788193
2340000000.0 -0.3239861513456804 0.2655057568413536
2360000000.0 0.45581443838751257 0.055352262327767646
2380000000.0 -0.46099787649615337 -0.20879516831101838
2400000000.0 0.4866793320797825 0.27340372429392973
2420000000.0 -0.6098644557971823 0.03628587095397393
2440000000.0 0.48706826576102 -0.44456713259963865
2460000000.0 -0.059419690546433944 0.6967111044805844
2480000000.0 -0.26489039727378644 -0.6797212530643052
2500000000.0 0.2777380226652285 0.6956315753383964
2520000000.0 -0.1495503544663553 -0.7443504800046578
2540000000.0 -0.2553033229415005 0.7164550087377458
2560000000.0 0.637933169922815 -0.4026374824878736
2580000000.0 -0.6620730181118522 -0.3299596362399766
2600000000.0 0.1400732203144414 0.7014905668721846
2620000000.0 0.3698953140388399 -0.5756366649213012
2640000000.0 0.1387426146237438 -0.6319873988983579
2660000000.0 -0.5210068451803065 0.30226267828416026
2680000000.0 0.5041262882547254 0.23211179090616454
2700000000.0 -0.10173466723203281 -0.49797859109922005
2720000000.0 -0.2801345484273073 0.3666182746461034
2740000000.0 0.4118083049166675 -0.07920786469184317
2760000000.0 -0.3717803066037228 -0.08825161429205726
2780000000.0 0.3529208382739831 0.010047609392325072
2800000000.0 -0.29597821620181014 0.1447900017581861
2820000000.0 -0.04517989068180209 -0.3087531788896167
2840000000.0 0.29722054350992855 0.03895575288936407
2860000000.0 -0.18220019884687666 0.23176997380106956
2880000000.0 -0.11100027325716436 -0.27014424003274345
2900000000.0 0.14187866887760456 0.2558537438736291
2920000000.0 0.19514883382600753 -0.22183579573564483
2940000000.0 -0.29297058286662686 -0.0711346846338372
2960000000.0 -0.23091566903629776 0.19754668406264855
2980000000.0 -0.2576919662617863 0.1700123727216054
3000000000.0 -0.31085607216420963 -0.026480613395227073
3020000000.0 -0.06006912648115774 -0.3067683140766552
3040000000.0 0.30956401922645105 0.004840792805184875
3060000000.0 -0.262822199067514 0.15917878795811252
3080000000.0 0.23382700959302036 -0.19343252950772452
3100000000.0 -0.1328049585134605 0.26784106076035064
3120000000.0 0.030552894765519062 -0.2889693946297006
3140000000.0 0.1799091919481095 0.21667197473617963
3160000000.0 -0.2667873531236846 -0.01888698181696538
3180000000.0 0.16524037003084374 0.18889145962182785
3200000000.0 -0.1692427367842189 0.15294404101174042
3220000000.0 -0.17931519333335263 -0.09122551471962617
3240000000.0 0.09843681402281486 -0.13907704777779192
3260000000.0 -0.017585595190167173 0.13472739900294003
3280000000.0 0.06047175980042333 -0.08372281547658338
3300000000.0 0.004132191392491074 -0.07507187440505864
3320000000.0 0.045641949620343826 -0.019029853748178494
3340000000.0 -0.011704468382889912 0.025644706542413954
3360000000.0 -0.006928848977476395 -0.010249401119550616
3380000000.0 -0.002868906061391272 0.0017910962877578844
3400000000.0 -0.011044663162712612 0.014075636905479154
3420000000.0 -0.02618905135706498 0.022090326967194537
3440000000.0 -0.047630216856888834 -0.011297529269942373
3460000000.0 0.009701983051483733 -0.057273912565991555
3480000000.0 -0.06547777740637861 -0.0199671999208291
3500000000.0 -0.06065881731109935 0.05182442159913872
3520000000.0 0.07398836294942654 0.053259872780769484
3540000000.0 2.971196287733965e-05 -0.10366530144280743
3560000000.0 -0.10337525859005152 0.05363276238042159
3580000000.0 0.10503291568135838 0.0797655062540603
3600000000.0 -0.13194390039205897 0.0782564374128982
3620000000.0 -0.14625174635465318 0.08353808565330516
3640000000.0 -0.18025569157134066 -0.01422848195737503
3660000000.0 -0.1646328334935828 0.09851022553717864
3680000000.0 -0.17966932239692565 0.07311534851097086
3700000000.0 -0.16961019777418926 0.08878360755528915
3720000000.0 -0.1245417583579683 -0.14073423975262883
3740000000.0 0.06586262923435011 -0.1706220683828572
3760000000.0 -0.1481155878769525 0.0940896505446817
3780000000.0 0.15825727368374712 0.058205726316243774
3800000000.0 0.0977988494517027 -0.12755563572002812
3820000000.0 -0.04820150475960789 -0.14733373335283576
3840000000.0 0.0063321716275689275 -0.1498018445202847
3860000000.0 0.14976308700920576 -0.014371863441658262
3880000000.0 0.09483377687480474 -0.1234069534374143
3900000000.0 -0.1364748908759723 -0.07838685820957586
3920000000.0 -0.06607351526044464 0.14716297897871058
3940000000.0 0.12972122422772017 -0.10367170555156288
3960000000.0 0.09534505832619523 0.14288439226092298
3980000000.0 0.17257591252329577 0.02336489919915688
4000000000.0 0.1687542767896655 0.0008085873620879768
