! Created with skrf (http://scikit-rf.org).
# Hz S RI R 50.0 
!freq ReS11 ImS11
400000000.0 0.060525821147449914 0.8677913039910832
420000000.0 0.5255891316272882 0.6814308271675235
440000000.0 0.8070889481070023 -0.1833532365190547
460000000.0 0.10570431914317607 -0.7840154596532604
480000000.0 0.40624397479853275 -0.5751726891270231
500000000.0 0.46927857606052364 -0.29738082089595375
520000000.0 0.4730161954186784 0.12361745582687493
540000000.0 0.0001917133532946552 0.4348420782766583
560000000.0 0.19997732503249013 -0.3102361071752559
580000000.0 -0.31338419382646815 -0.16578462891898013
600000000.0 0.26007421210914117 0.24491617183396286
620000000.0 -0.3576834341900973 0.12568617419922365
640000000.0 0.40931282246635614 -0.03727419898912236
660000000.0 -0.34904800147282944 -0.22501908179868207
680000000.0 -0.2997536728206934 -0.29490115249737947
700000000.0 -0.4052876474106744 0.08245887208462888
720000000.0 -0.16444480413652166 -0.37077381654348035
740000000.0 -0.34553597595660046 0.215667951880199
760000000.0 0.24668988363827604 0.3180267847949059
780000000.0 -0.3824559253255159 -0.016065264759136652
800000000.0 0.26202362798029216 -0.24803012053853854
820000000.0 -0.19214530743277705 -0.2417862413753303
840000000.0 0.2225886280778742 0.11373536515107815
860000000.0 -0.15752761164995677 0.1352954604348802
880000000.0 -0.10260681948075139 -0.10671899238592501
900000000.0 -0.07275580552510294 -0.03191813292841508
920000000.0 0.0009958806652207103 0.04608133760867675
940000000.0 0.030174561605018538 0.0005791127151389524
960000000.0 0.004187297301333621 0.036893093898178346
980000000.0 0.01628997940809045 0.04496364311771095
1000000000.0 -0.0542988992378957 -0.016677253812274164
1020000000.0 0.07282352039256582 0.0364098014412552
1040000000.0 0.053005717098422334 0.09034113431698704
1060000000.0 0.14383716215493678 -0.04721969617570553
1080000000.0 0.06888823304593343 -0.1612430960609596
1100000000.0 0.11277501782382328 -0.1743146494503255
1120000000.0 0.21721364597471268 0.07051437376178137
1140000000.0 -0.12625070206117503 0.22455133512420805
1160000000.0 0.17624203438762612 0.21609836370825455
1180000000.0 -0.286072683281149 0.09663405880716602
1200000000.0 0.28302257681365944 -0.15748461500363115
1220000000.0 -0.006317762801979145 -0.34865968093543365
1240000000.0 -0.3794634592012338 -0.029396657953172825
1260000000.0 0.1452717763098148 0.3914425156173713
1280000000.0 -0.08468732163522726 -0.43531110207840057
1300000000.0 -0.016301308932915388 0.4622089067731972
1320000000.0 0.02913330349139396 -0.461086753269941
1340000000.0 -0.412868263213775 -0.18640640996057065
1360000000.0 -0.43849153937274865 0.010071229610740457
1380000000.0 -0.38284816349254686 0.1939123875354548
1400000000.0 -0.20508672171477604 0.35532091657722675
1420000000.0 0.10149325683485162 0.3761537345715911
1440000000.0 0.13001929430183096 0.3429105822768739
1460000000.0 0.33273156502645435 0.08419019855779108
1480000000.0 0.15254527896686057 -0.2795398572731052
1500000000.0 -0.26548728562599844 -0.11966958751276573
1520000000.0 -0.1268085842805181 0.23020710640679984
1540000000.0 -0.1666826100972046 -0.15935224871779152
1560000000.0 0.18078994651488423 -0.0684644664702628
1580000000.0 -0.09831802910687294 0.13307905092956665
1600000000.0 -0.049726577212852494 0.1279402578155121
1620000000.0 -0.09586527890117917 0.05315130146476872
1640000000.0 -0.013418261312842532 -0.08881243625542146
1660000000.0 -0.05991308005638347 -0.0330599909404287
1680000000.0 -0.006153543022639822 -0.04819657356587146
1700000000.0 0.014675548193020652 0.029411346375273508
1720000000.0 -0.00021453234214385394 0.014583282556789487
1740000000.0 -0.004903553591692655 -0.016715414898113363
1760000000.0 0.04078628764450072 0.005474642793271161
1780000000.0 0.05530458645762913 -0.05301151844782373
1800000000.0 0.11437196705096148 0.012777096955201607
1820000000.0 0.1064099975390526 -0.10287489959176145
1840000000.0 0.16795853286520712 0.06426134873658895
1860000000.0 -0.19934759960434872 0.05728027276520282
1880000000.0 0.029568919905421032 0.23435089721288863
1900000000.0 0.2624551133268321 0.06834684976459066
1920000000.0 0.06419798105442742 -0.29873160560697243
1940000000.0 -0.30721093511679354 -0.14671514335100888
1960000000.0 -0.027830931092153715 0.37082278451042017
1980000000.0 0.34869290450420753 -0.18793609118668902
2000000000.0 -0.14128374872950514 -0.39097470272707524
2020000000.0 -0.35577200037036527 0.2407447214089856
2040000000.0 0.05334104576968378 0.4323026882977777
2060000000.0 0.4238832851611586 0.10712979902212104
2080000000.0 0.3361649376545212 -0.2727718309588749
2100000000.0 0.14707175257172625 -0.401523571090273
2120000000.0 -0.12542782146239825 -0.3995745834974841
2140000000.0 -0.3712846724519666 -0.16898641899867936
2160000000.0 -0.1693016527964904 -0.3542741910022454
2180000000.0 -0.31990856712781707 -0.1935180100918824
2200000000.0 -0.3566822341854758 -0.0396293369223468
2220000000.0 -0.3413362438889297 0.0616703614003411
2240000000.0 -0.2547327528969043 0.23095269129030546
2260000000.0 -0.09235911055118808 0.33126460709616745
2280000000.0 0.0497961512151896 0.34589851974533575
2300000000.0 0.36330592754263924 -0.033143017623946024
2320000000.0 -0.08730210726778648 -0.3782086061602934
2340000000.0 -0.3232749054628996 0.26659323151271225
2360000000.0 0.45537898031251434 0.05881724911652203
2380000000.0 -0.45998841982139227 -0.21104655434868044
2400000000.0 0.48081891242172936 0.28356755358848346
2420000000.0 -0.6110680521026919 0.010777036031300997
2440000000.0 0.47253617807171433 -0.4598166758659379
2460000000.0 -0.027861220757530267 0.6985840058917578
2480000000.0 -0.31744023806957505 -0.6563652299682498
2500000000.0 0.30703943805400224 0.6832942608227213
2520000000.0 -0.179481195524455 -0.7381174013830607
2540000000.0 -0.24010256838919955 0.7219272730666183
2560000000.0 0.6509493189005736 -0.38186058359146796
2580000000.0 -0.6706544766676844 -0.31210966184559963
2600000000.0 0.14416871723043778 0.7009836771273167
2620000000.0 0.3668224767310753 -0.577815106627705
2640000000.0 0.13282085881778252 -0.6333336034166145
2660000000.0 -0.5350605967039094 0.27636790177042
2680000000.0 0.49844146713133225 0.24381903351142464
2700000000.0 -0.1070668579920973 -0.4967148690164795
2720000000.0 -0.28208013325791703 0.3648256682685448
2740000000.0 0.41423394111626405 -0.06272763783112482
2760000000.0 -0.37148250928124693 -0.08910307003081418
2780000000.0 0.3527349233042966 -0.0059491295823186855
2800000000.0 -0.2922095071307938 0.15140411554059127
2820000000.0 -0.047791498841537175 -0.3083800919179055
2840000000.0 0.29847212540441104 0.029911173984865022
2860000000.0 -0.14755956198056727 0.25459460363745423
2880000000.0 -0.11178739100075129 -0.26974212926810176
2900000000.0 0.12861613579092007 0.2630432949241026
2920000000.0 0.16074419193422126 -0.24787341565183335
2940000000.0 -0.2888105096820117 -0.08663939669373451
2960000000.0 -0.21924344489120628 0.21017819832108048
2980000000.0 -0.26459466367897955 0.1591695270125053
3000000000.0 -0.31071490959006803 -0.03430286261114329
3020000000.0 -0.07527191834354018 -0.3033576223297878
3040000000.0 0.30921406689461234 0.013465399657720062
3060000000.0 -0.2680372720656968 0.15077695793295162
3080000000.0 0.22881911367792 -0.199430471651748
3100000000.0 -0.12792768041114935 0.26974097967167127
3120000000.0 0.042547157192283296 -0.28741113452026706
3140000000.0 0.1713696509913211 0.2237014719490004
3160000000.0 -0.26717585205725203 0.013245473774677477
3180000000.0 0.1594050119898783 0.1933359974976814
3200000000.0 -0.18265493316104858 0.13669757012459846
3220000000.0 -0.1798144747390926 -0.09036766622154062
3240000000.0 0.08552789237075019 -0.1471994319189377
3260000000.0 -0.024311403872180788 0.13335345941188162
3280000000.0 0.05442270701455337 -0.08798124994980032
3300000000.0 -0.0005335028731662256 -0.07508524633315061
3320000000.0 0.04499375669745303 -0.020874805639814708
3340000000.0 -0.020736883154125182 0.019148313572812655
3360000000.0 0.01233456333094601 -0.00255785834656464
3380000000.0 0.0012607523103970247 0.003050496152195944
3400000000.0 0.005103128842072062 0.017207538536049304
3420000000.0 -0.0224016003821114 0.025951588892854954
3440000000.0 -0.03983625364936801 -0.028362996964871292
3460000000.0 0.0033845444919979382 -0.05803638134437458
3480000000.0 -0.06272742404954082 -0.027651487873272797
3500000000.0 -0.04890221113601928 0.0631070440334498
3520000000.0 0.07135286073485442 0.057053551908894655
3540000000.0 -0.0042175360800709655 -0.10373289010305892
3560000000.0 -0.09607371677429939 0.06694188599064312
3580000000.0 0.10887052388731452 0.07516516342797501
3600000000.0 -0.13510419874432383 0.07336067937964819
3620000000.0 -0.14507347937764384 0.0868737038789023
3640000000.0 -0.1804812516731522 -0.01864362666300125
3660000000.0 -0.17042453799056795 0.08888786677105345
3680000000.0 -0.1864874227358879 0.054701488774207094
3700000000.0 -0.17543171498845403 0.07806745547215198
3720000000.0 -0.10790147576246865 -0.1543041117661463
3740000000.0 0.09161004143832645 -0.15851538695447376
3760000000.0 -0.16295898624881838 0.06547394368824812
3780000000.0 0.15143796399202575 0.07325148716526637
3800000000.0 0.11489002045300693 -0.11250680044645636
3820000000.0 -0.03566459160880519 -0.15051517802702494
3840000000.0 0.03796202540329047 -0.14476524965261664
3860000000.0 0.14796203049729453 0.02768491714269472
3880000000.0 0.11082181304153228 -0.10844553127098816
3900000000.0 -0.1217156520819403 -0.09841632178507247
3920000000.0 -0.09725859185611962 0.1279388287350815
3940000000.0 0.14203637431510183 -0.08434298479585699
3960000000.0 0.08098933973871547 0.1502887138117448
3980000000.0 0.17050957571569053 0.031664932231704794
4000000000.0 0.16729884396741027 -0.01486495619763284
