! Created with skrf (http://scikit-rf.org).
# Hz S RI R 50.0 
!freq ReS11 ImS11
400000000.0 -0.8582187820077105 -0.06476783351325964
420000000.0 -0.12250537017490365 0.8548932202818821
440000000.0 0.7920534479405269 0.2658343718703764
460000000.0 0.7748605947580981 -0.14596509173734842
480000000.0 0.2594883064052317 0.6866046415298375
500000000.0 -0.16526961064283513 -0.5748778463151619
520000000.0 -0.43974727074204084 0.2696815459388705
540000000.0 -0.4156012728005575 0.13781619540660828
560000000.0 0.31848696655976305 0.2153671926994447
580000000.0 0.013008499063097312 0.3343471684835037
600000000.0 0.21535194639990435 0.2668926134203499
620000000.0 -0.0071817195593462165 0.34279730330956754
640000000.0 -0.23616937038544725 -0.2572449612962119
660000000.0 -0.0066831205108701 -0.3713757379377178
680000000.0 -0.14886391359827414 0.35696484893042046
700000000.0 -0.07912326905833457 0.4072600576356682
720000000.0 0.0600201469834817 0.4138329828296767
740000000.0 -0.4048667853362447 -0.15498478315570455
760000000.0 0.3973694045771766 -0.124533672185586
780000000.0 -0.2991801545713809 0.24569423777139623
800000000.0 0.08130850198234664 -0.3442239366240719
820000000.0 0.2854657208554282 0.09338904605983826
840000000.0 -0.25624386118471654 -0.024769527109955756
860000000.0 -0.0061982036641487345 -0.20452315250781744
880000000.0 -0.16557255605438334 0.015269264433670679
900000000.0 0.051700742834281777 -0.0785521830454322
920000000.0 0.03826669293560749 -0.03953184986836713
940000000.0 -0.03484637615827532 0.028135164316346134
960000000.0 -0.030239157619346643 -0.04021900598969736
980000000.0 0.06284853970123722 0.014039057218001973
1000000000.0 -0.047368914468465445 0.06565065093495488
1020000000.0 0.057636376659957 0.07909318395774596
1040000000.0 0.048140413936831106 -0.10758202950111305
1060000000.0 -0.06611304734130682 -0.1351561006361996
1080000000.0 0.11899625749509471 -0.12463253126285323
1100000000.0 0.0706733723293862 0.17387079404248748
1120000000.0 0.19455247852055385 0.07320745120172485
1140000000.0 -0.23785863787996406 -0.024455376034235764
1160000000.0 -0.009415052888750594 -0.27016331340267413
1180000000.0 0.04920847521883173 -0.30460156113794346
1200000000.0 0.24892474226978223 0.22139528006680612
1220000000.0 -0.3456391104306272 -0.11459634510462746
1240000000.0 -0.12010411618829304 0.3659702276231965
1260000000.0 0.3909152302538064 -0.15312571397622232
1280000000.0 -0.4338323886553417 -0.03395654818189042
1300000000.0 0.2930784465393995 0.34273604013791964
1320000000.0 0.20626793395152312 -0.3973512634361782
1340000000.0 0.2263456523968812 -0.3854494301083025
1360000000.0 -0.02947993517857353 -0.4390546030407669
1380000000.0 -0.24010518499768974 -0.3658719432347063
1400000000.0 -0.24456703143674596 0.3429575740007737
1420000000.0 0.17681421083977736 0.3615536412215201
1440000000.0 0.28293485874871227 -0.24735377575340942
1460000000.0 0.08556270382290959 -0.3333804677504584
1480000000.0 -0.29809401683469783 -0.10026594788491829
1500000000.0 -0.24873946771703404 0.13734273704596198
1520000000.0 -0.11556346904598082 0.2270505152829381
1540000000.0 -0.03805871925698315 -0.22432045242225912
1560000000.0 0.19409915096789485 -0.02531446672408255
1580000000.0 0.012632951556574158 0.1656615404856916
1600000000.0 0.13032079921223594 -0.045253026867991264
1620000000.0 0.10605604531350045 -0.0006560613061695145
1640000000.0 -0.049412867523585924 0.06580331378718456
1660000000.0 -0.05803786338196243 -0.010125852886424922
1680000000.0 -0.03819605552333642 -0.009119643939331089
1700000000.0 0.015816054631448744 -0.018041471852886303
1720000000.0 -0.004909095867969303 -0.0034723903649923884
1740000000.0 0.013383401857989623 -0.0027798972864121253
1760000000.0 0.02216264380249374 -0.02470342122914002
1780000000.0 0.062336348663936135 0.01875852371046933
1800000000.0 -0.04168378389906449 0.09188295513222254
1820000000.0 0.12805773044462845 -0.028619744854620138
1840000000.0 -0.10422663185547629 -0.12840911411569245
1860000000.0 0.08389288772385688 0.18329126414819585
1880000000.0 0.1879041241039025 -0.14646521488008318
1900000000.0 -0.279877758942142 -0.03320724945099043
1920000000.0 0.318597858004581 -0.02855995178795292
1940000000.0 -0.3247643505848401 -0.14145060078806473
1960000000.0 0.24902520469935632 0.29093248315190345
1980000000.0 0.04804423546577241 -0.39967137715880763
2000000000.0 -0.4154896952168803 -0.0643195465233173
2020000000.0 0.08798169699969413 0.41990695893731655
2040000000.0 0.4191694666282766 0.10987732065640528
2060000000.0 0.23059471283484131 -0.3641412012193351
2080000000.0 0.11251374389395746 -0.41001973406698994
2100000000.0 -0.044052036552223395 -0.4146874926504901
2120000000.0 -0.007106594117527576 -0.41054842194404045
2140000000.0 -0.16755681537641937 -0.3659741138766171
2160000000.0 0.2824601375268346 -0.27295565687806556
2180000000.0 -0.0072686191558829025 -0.3825757595573513
2200000000.0 -0.31479187761105054 -0.19873430428570785
2220000000.0 -0.3135538261313532 0.1852934826346898
2240000000.0 0.13617078334686983 0.3314081330276376
2260000000.0 0.35006055890361737 0.07094206279408119
2280000000.0 0.27210570493672703 -0.23183359345921986
2300000000.0 -0.07145827293480655 -0.3625728207130508
2320000000.0 -0.384893731257239 -0.0665940565210846
2340000000.0 -0.111133143578072 0.407805694297829
2360000000.0 0.4234271899874138 -0.1857046473449872
2380000000.0 -0.5102912031291769 0.016282545188550993
2400000000.0 0.5410212652594182 -0.15305789116362428
2420000000.0 -0.3792839394855537 0.48264876001189266
2440000000.0 -0.1502882597996342 -0.6430817686697461
2460000000.0 0.5877690995898753 0.3763645180641633
2480000000.0 -0.7259236032425623 0.01598018918719756
2500000000.0 0.7433892697587359 -0.03779633751624178
2520000000.0 -0.7499289328929024 -0.07243033297341109
2540000000.0 0.6291046075933823 0.41559401941598156
2560000000.0 -0.203633579934413 -0.7186882052537545
2580000000.0 -0.5402998059473363 0.4927207606621453
2600000000.0 0.6988058097641728 0.10233257161903525
2620000000.0 -0.27991698828271555 -0.6159680550125796
2640000000.0 -0.5471708442453682 -0.3325093386526513
2660000000.0 -0.06295381054649689 0.5926084434328238
2680000000.0 0.49661604452295477 -0.23778599618717652
2700000000.0 -0.47377609430469 -0.17420988984255983
2720000000.0 0.31623120369572955 0.3305793493126311
2740000000.0 -0.045746729290598226 -0.4105481223611626
2760000000.0 -0.1465578610794671 0.3437674050910943
2780000000.0 0.13380458208597937 -0.3136918069887888
2800000000.0 -0.22156987239672435 0.22255121275963918
2820000000.0 0.16272428314667337 -0.24787734459267438
2840000000.0 -0.10543341488610214 0.26730375305816473
2860000000.0 0.003543041709852839 -0.28566262917554064
2880000000.0 0.2377077638764933 0.16296582729452552
2900000000.0 -0.29166224332822016 -0.003918967304871502
2920000000.0 0.2891609449777808 0.07395043810974014
2940000000.0 -0.28050940196622615 -0.12031497293049563
2960000000.0 -0.03017418614054033 0.3053122908762508
2980000000.0 0.24693933946656071 0.1845437874953379
3000000000.0 0.08464957899177693 0.2951602499320136
3020000000.0 -0.2389188891613971 0.18861484197884956
3040000000.0 0.0384619442326046 -0.2957706011447212
3060000000.0 -0.04359359399001822 0.29238473803141435
3080000000.0 0.12416424927282883 -0.2653425758149478
3100000000.0 -0.11924873500689803 0.2648694159184913
3120000000.0 0.18528248266825115 -0.21541448371746
3140000000.0 0.01056999806034756 0.27750113363203577
3160000000.0 -0.1995500591747581 -0.175573199779671
3180000000.0 0.07163068657355906 0.24005878967819833
3200000000.0 -0.21787523746884424 0.07028553532587435
3220000000.0 -0.145896222528812 -0.14388390086751784
3240000000.0 0.034507981380182816 -0.1711578985459704
3260000000.0 0.13791268419747746 0.027905034608564288
3280000000.0 -0.06370793620280668 0.08535716248837938
3300000000.0 -0.0018455846778715193 -0.07377353325619045
3320000000.0 -0.018796529424427295 -0.040323580995760035
3340000000.0 -0.006716446626973045 -0.018953851155715233
3360000000.0 -0.0025552321854902882 -0.003894493540056401
3380000000.0 0.008238322729270336 0.006588114514866206
3400000000.0 -0.014239508561325552 -0.013694769773818507
3420000000.0 -0.028926929827275825 0.0023518768387827817
3440000000.0 -0.034543977880859375 -0.019223608480296268
3460000000.0 0.04485703397665674 0.01971865795879715
3480000000.0 -0.06166088823965687 -0.00532054041907001
3500000000.0 -0.06290490678826276 0.04766580935998145
3520000000.0 0.01915545461143311 -0.09371996534038407
3540000000.0 0.11175518412283186 -0.005643716519865178
3560000000.0 0.010796271966460476 0.12478149167615496
3580000000.0 -0.08901949708846849 -0.10357798148043651
3600000000.0 0.15245698968378432 -0.022514677612414945
3620000000.0 0.13619100087299188 0.0896001559702771
3640000000.0 -0.07411720605684093 0.15802260992018127
3660000000.0 -0.17534360978200433 -0.04973328160957036
3680000000.0 -0.002478386689002546 -0.18878671035173827
3700000000.0 0.14062566040262628 -0.12742096810257447
3720000000.0 0.1520194840934759 0.11756271640954817
3740000000.0 0.10677157550075735 0.15530345142037955
3760000000.0 -0.16096488595590858 -0.08875893313615581
3780000000.0 0.16077272798262993 -0.0673681073148009
3800000000.0 -0.1315633257218823 -0.0963529146162159
3820000000.0 -0.1521127556805025 0.012642086311062083
3840000000.0 0.06873061134336582 -0.12684448583249838
3860000000.0 -0.027645987171074096 0.1418112083388127
3880000000.0 -0.15104490882458801 0.02545916531100814
3900000000.0 0.009172134663884094 0.1592588289422322
3920000000.0 0.0768537139230284 -0.14879052284381825
3940000000.0 0.1698510422548804 0.04033750330661517
3960000000.0 0.1773950328944915 0.023930615237662187
3980000000.0 -0.0998265533305332 -0.14760377394653834
4000000000.0 -0.16753302562702596 -0.004596820008184697
