! Created with skrf (http://scikit-rf.org).
# Hz S RI R 50.0 
!freq ReS11 ImS11
400000000.0 0.08765024922467031 0.865522505940978
420000000.0 0.5560345258593755 0.6563303529138104
440000000.0 0.7964381205946421 -0.22158385113766726
460000000.0 0.08317164545540391 -0.7871480885479165
480000000.0 0.3997745482039559 -0.5795447608653328
500000000.0 0.4541240931381295 -0.31802853519147994
520000000.0 0.45574192183814893 0.17701704978509908
540000000.0 0.014549580809551205 0.43523001460149685
560000000.0 0.1969867266270162 -0.31230319201590395
580000000.0 -0.30847110712190084 -0.1722199026149551
600000000.0 0.2074201570035088 0.29126913190696574
620000000.0 -0.34697686563148045 0.15267345695219264
640000000.0 0.40107167218101064 -0.08664665147337171
660000000.0 -0.3361890686772064 -0.24325369862649024
680000000.0 -0.28843509326078 -0.3066189947253227
700000000.0 -0.39150421079229314 0.131964418521268
720000000.0 -0.17403530159228842 -0.36654388501659946
740000000.0 -0.3585320374104644 0.19451727923569923
760000000.0 0.27827280705382307 0.29162037936614765
780000000.0 -0.38009462494463114 -0.04724910104945643
800000000.0 0.272374149293829 -0.2372691371396368
820000000.0 -0.16433371362341162 -0.26200672735327196
840000000.0 0.209374366114014 0.1366962715191391
860000000.0 -0.14361194786914083 0.1492451573363183
880000000.0 -0.10861803230249709 -0.10067854811098505
900000000.0 -0.0785156427913913 0.004802273249871627
920000000.0 0.011133042561254039 0.04469030544240388
940000000.0 0.03051504235653201 0.005316852320099329
960000000.0 0.007907842107106053 0.03655616838346165
980000000.0 0.015881152800851502 0.04531247713715624
1000000000.0 -0.03513052984496517 -0.04541057281016363
1020000000.0 0.04965922138177575 0.06411192182909446
1040000000.0 0.03516654771804863 0.09858999799338405
1060000000.0 0.14114633039006746 -0.0537809124960625
1080000000.0 0.041895155324067304 -0.16986366870674707
1100000000.0 0.08929438923555111 -0.18740306533420995
1120000000.0 0.21757770760602502 0.07150629293350223
1140000000.0 -0.14222719080867602 0.21517922266838593
1160000000.0 0.1450607675429404 0.2385186532911964
1180000000.0 -0.2984062270175165 0.048372714300970586
1200000000.0 0.2928813554446363 -0.14037680360511745
1220000000.0 -0.022905523318328014 -0.34867061429130414
1240000000.0 -0.3772388841179143 -0.058076553167773125
1260000000.0 0.14325768062421007 0.39257471725168125
1280000000.0 -0.06844460109365155 -0.4380343720106879
1300000000.0 -0.030719733765790704 0.4614040553799428
1320000000.0 0.043014222899520914 -0.4600937554596285
1340000000.0 -0.4146514586910555 -0.1821419126095622
1360000000.0 -0.4380945160267113 0.011778909865462919
1380000000.0 -0.38715367113720467 0.18432030980518405
1400000000.0 -0.1956079725319618 0.3600041138645809
1420000000.0 0.11769180525089798 0.3711042301389264
1440000000.0 0.15592389062468837 0.3314269196721609
1460000000.0 0.33291722244783295 0.08278636487699176
1480000000.0 0.142207448731462 -0.2855470179085253
1500000000.0 -0.265909509595445 -0.11979054929982144
1520000000.0 -0.11820869784316966 0.23499375141533937
1540000000.0 -0.14755781168958282 -0.17879004251588002
1560000000.0 0.18221028777913278 -0.06772953109105055
1580000000.0 -0.1021988188223586 0.13154179039511008
1600000000.0 -0.08697791372105677 0.10649874106887942
1620000000.0 -0.10135314601680082 0.042015533405919236
1640000000.0 0.008254585547712204 -0.08888190909471894
1660000000.0 -0.06357316070553092 -0.02399460914704024
1680000000.0 -0.019341057403773915 -0.043761405537166204
1700000000.0 0.015722615431727694 0.02846674580552063
1720000000.0 0.007261491739626225 0.012572443565439772
1740000000.0 0.001235120207130196 -0.017316590475156542
1760000000.0 0.03872648683914326 0.013704240678843987
1780000000.0 0.07016131241800919 -0.029956856005246755
1800000000.0 0.11222931073155373 0.023239472949897026
1820000000.0 0.10271584826482415 -0.10524956601755521
1840000000.0 0.1761524983230993 0.03193917845986464
1860000000.0 -0.1907629747920874 0.08018349378634657
1880000000.0 0.06264257864546552 0.2275320308544619
1900000000.0 0.2692063931233663 0.032152936904975594
1920000000.0 0.008714584402374048 -0.30523921154298844
1940000000.0 -0.3262170582273923 -0.09831041997910803
1960000000.0 0.0008133062937589264 0.37248780629487954
1980000000.0 0.35076553904534274 -0.18586944816715653
2000000000.0 -0.10492158319904912 -0.4034114805837666
2020000000.0 -0.36197786093891093 0.23135840545470096
2040000000.0 -0.0017412471258992498 0.4355028029202217
2060000000.0 0.4217227345979986 0.11176376762503402
2080000000.0 0.3475515946223618 -0.25726264633868995
2100000000.0 0.18600793427013804 -0.38433998324245777
2120000000.0 -0.09135894091178229 -0.4081128221461594
2140000000.0 -0.36244308961902705 -0.18521401912324617
2160000000.0 -0.1174530192087 -0.3740128546309845
2180000000.0 -0.32966052515636085 -0.1757944696787334
2200000000.0 -0.3585349960051136 -0.01818952423631731
2220000000.0 -0.3392995874478508 0.07399046349992587
2240000000.0 -0.23065245051184075 0.2545763134643756
2260000000.0 -0.08523537641691921 0.33340850179386444
2280000000.0 0.08278224356077278 0.3393855377068436
2300000000.0 0.3580753266259595 -0.07085722908680751
2320000000.0 -0.16157751538674464 -0.3535368051233084
2340000000.0 -0.3172548959855559 0.2739641415543834
2360000000.0 0.45768545791305176 0.04279738481095762
2380000000.0 -0.4533075825299859 -0.22607000532627414
2400000000.0 0.4870116050466605 0.2730998453627904
2420000000.0 -0.6101317170610139 0.028691688049785558
2440000000.0 0.4509027099484854 -0.48099052905295525
2460000000.0 -0.038454868481438385 0.6976611627697744
2480000000.0 -0.24701620556315695 -0.6861672170509507
2500000000.0 0.3051882219186739 0.6835307529264948
2520000000.0 -0.16499640335852153 -0.7408356864569304
2540000000.0 -0.24478011435972952 0.7196085809353261
2560000000.0 0.6332879940678688 -0.40906417993306987
2580000000.0 -0.6822368443692132 -0.28455115351404403
2600000000.0 0.2157158460666815 0.68255870247808
2620000000.0 0.3735127900631658 -0.5745561382251668
2640000000.0 0.09441058274495191 -0.6407265269608469
2660000000.0 -0.5047350150974949 0.3293360338499572
2680000000.0 0.509197623531922 0.222524312894692
2700000000.0 -0.11067505292751764 -0.4964899780061406
2720000000.0 -0.31013888466177547 0.34227509345425433
2740000000.0 0.41395828540139235 -0.07025574601019062
2760000000.0 -0.3480707027499216 -0.15735363183381673
2780000000.0 0.34865976080855415 0.05251570541862526
2800000000.0 -0.300239933337403 0.13408671918420692
2820000000.0 -0.039324000711621086 -0.3090036949175052
2840000000.0 0.2984708916892482 0.024696753000304453
2860000000.0 -0.15446586395912815 0.25024395481074846
2880000000.0 -0.11918039213585332 -0.26609267209724957
2900000000.0 0.17027487229419422 0.23718722244023177
2920000000.0 0.11583125861695423 -0.2716371966798258
2940000000.0 -0.30122012976120516 -0.013843761323210232
2960000000.0 -0.19997320412004302 0.22991033757093055
2980000000.0 -0.24447557931784622 0.1890283675196712
3000000000.0 -0.30768213716937143 -0.05037409633126604
3020000000.0 -0.07362926452076339 -0.3035913146124139
3040000000.0 0.30961611193043315 0.01797845404109886
3060000000.0 -0.26523789481977356 0.15728956263154112
3080000000.0 0.20589058046774042 -0.22342092641778163
3100000000.0 -0.11122336626150515 0.2774162381710447
3120000000.0 0.004041137880398985 -0.2912901742023818
3140000000.0 0.18203711966305278 0.21642538387883012
3160000000.0 -0.266675357899553 -0.026994642402664703
3180000000.0 0.13065012560940223 0.21416249549518923
3200000000.0 -0.1902745402277555 0.126462869532724
3220000000.0 -0.16439977941126202 -0.115793818158751
3240000000.0 0.11479953204823552 -0.12566461137833154
3260000000.0 -0.04310449478348627 0.12833277752042907
3280000000.0 0.09080456675087657 -0.04866658099771435
3300000000.0 0.015634871954006837 -0.07279827847943081
3320000000.0 0.0391070115233557 -0.029304220798607495
3340000000.0 -0.014084451100744626 0.024076513780894315
3360000000.0 -0.009697177275559441 0.007482326097321802
3380000000.0 -0.003634978454289753 -0.0004999946298994695
3400000000.0 -0.0180219662223031 0.004069321317421326
3420000000.0 -0.02277662340438769 0.026713114757833452
3440000000.0 -0.04467040352478767 -0.021386382545325676
3460000000.0 -0.006402371194560493 -0.05836695357030377
3480000000.0 -0.06357163068027386 -0.026014266748427536
3500000000.0 -0.025355855494240763 0.07494991150313968
3520000000.0 0.06655377997756907 0.06272365291712047
3540000000.0 0.0025832734496806387 -0.10429455391636996
3560000000.0 -0.10937845456971886 0.0417306313066125
3580000000.0 0.11070951026150141 0.0726321555902899
3600000000.0 -0.09156465771100286 0.12454685066372267
3620000000.0 -0.1449650510518771 0.08792809440921243
3640000000.0 -0.17449188360305123 -0.04648712377476146
3660000000.0 -0.1696402548734206 0.08706904864654313
3680000000.0 -0.1550202748972787 0.11698757436035175
3700000000.0 -0.16787629814390742 0.09306231347590448
3720000000.0 -0.12462458859577338 -0.1421277032051294
3740000000.0 0.0767483024863259 -0.16603931047352277
3760000000.0 -0.14911353798809615 0.0933539656526289
3780000000.0 0.16514223461428068 0.03159573339297619
3800000000.0 0.06712885544149999 -0.1458378415693949
3820000000.0 -0.03981823603401585 -0.15011243113458977
3840000000.0 0.014061421828073765 -0.1495464160016013
3860000000.0 0.14960474457020662 -0.01965198465992272
3880000000.0 0.10964408132931872 -0.1098121637023062
3900000000.0 -0.07494637682546765 -0.13693148548154188
3920000000.0 -0.13194095826326413 0.09075825003235957
3940000000.0 0.15145698314685324 -0.06406737030267462
3960000000.0 0.059501526429713104 0.15978188420755243
3980000000.0 0.1635643002691128 0.0559252048990791
4000000000.0 0.16847727157860967 0.0002954275307851982
