! Created with skrf (http://scikit-rf.org).
# Hz S RI R 50.0 
!freq ReS11 ImS11
400000000.0 0.07839961350295366 0.8671383740507228
420000000.0 0.5297496270607228 0.6782911198063707
440000000.0 0.8010060051016726 -0.20482203596478382
460000000.0 0.0918104893159395 -0.7859583624613958
480000000.0 0.39608288249913104 -0.5824556995323785
500000000.0 0.46267990907482004 -0.30679201665725053
520000000.0 0.4577398168471107 0.17192914097737746
540000000.0 0.006290971582098008 0.43511565319399287
560000000.0 0.18637440050250867 -0.3192183662800016
580000000.0 -0.3362949013646006 -0.10938928893226309
600000000.0 0.22719688117084316 0.27632462494473814
620000000.0 -0.3703728921948005 0.08257935343847844
640000000.0 0.4091741993640815 -0.04025296279486238
660000000.0 -0.3593532040122206 -0.20716655342354318
680000000.0 -0.27501205705906934 -0.31846228206898297
700000000.0 -0.40748311297579587 0.06950681933624828
720000000.0 -0.18217275648157638 -0.3624356014062457
740000000.0 -0.3605072420060398 0.1896918626527032
760000000.0 0.2604875514966721 0.3065651586010272
780000000.0 -0.38083198260227286 -0.03769425544807102
800000000.0 0.26250197017671584 -0.247484014256678
820000000.0 -0.1979334895959185 -0.2372786089416545
840000000.0 0.22024857676861484 0.11895494757247026
860000000.0 -0.14291053017945043 0.15088888535254552
880000000.0 -0.10177598667466158 -0.10797602318606346
900000000.0 -0.0771423378161106 -0.017431110156864105
920000000.0 0.0012616040599708195 0.04635320483011299
940000000.0 0.029586951920632747 0.007663000612085546
960000000.0 0.006469124832341688 0.03635141491620401
980000000.0 0.02334726453472234 0.04189249275295564
1000000000.0 -0.05566796345623879 -0.012356448516384655
1020000000.0 0.06871656273102021 0.04315131529449105
1040000000.0 0.05394718770852345 0.09005260583226711
1060000000.0 0.14618670880432494 -0.03910620870043572
1080000000.0 0.07066536757843149 -0.16043941095046166
1100000000.0 0.10728616307359669 -0.17783790332059662
1120000000.0 0.20943750149447568 0.09085261344581497
1140000000.0 -0.13929834650788528 0.21640550471383363
1160000000.0 0.16955735859124454 0.2210813808211561
1180000000.0 -0.2902217525135837 0.08280083687895358
1200000000.0 0.28412544624718844 -0.15571306811021063
1220000000.0 -0.03587948907589413 -0.34710894294160255
1240000000.0 -0.3802497640836204 -0.016781365121904215
1260000000.0 0.15490573861651544 0.38786905354706125
1280000000.0 -0.08857283076203588 -0.4346084227429366
1300000000.0 -0.010106719368377138 0.46247925167217313
1320000000.0 0.02529121919324588 -0.4616043015967085
1340000000.0 -0.4126407092817015 -0.18694914963070874
1360000000.0 -0.43867753461717984 0.009918574140214584
1380000000.0 -0.3884360751740525 0.18265771752957533
1400000000.0 -0.21168519931315788 0.351554628265433
1420000000.0 0.1013388347238103 0.37637379371208907
1440000000.0 0.13263577062343052 0.3418811654755492
1460000000.0 0.33159937913192766 0.08773412329019692
1480000000.0 0.14522576888496358 -0.28351155037581927
1500000000.0 -0.26521224144327116 -0.12064507408151853
1520000000.0 -0.12873593753749468 0.22886121901085868
1540000000.0 -0.17205505410681976 -0.15312866843268835
1560000000.0 0.18220643751563942 -0.06502518291321172
1580000000.0 -0.05668155396239632 0.15520693153908702
1600000000.0 -0.0411202216323491 0.1308904327029714
1620000000.0 -0.09190547600111897 0.05981531954753192
1640000000.0 -0.029019404187160223 -0.08499225085361872
1660000000.0 -0.06462584369063487 -0.02242238821782328
1680000000.0 -0.01121528936228533 -0.04718153014783582
1700000000.0 0.01649120403091527 0.028675533539915046
1720000000.0 -0.014351552920693095 -0.0007094861574380213
1740000000.0 -0.009269849463315223 -0.014476072559219427
1760000000.0 0.040568761565848 -0.007742750508312003
1780000000.0 0.06315125259037759 -0.04289589218408705
1800000000.0 0.11514711296990375 0.0007538601863050638
1820000000.0 0.10367746764880516 -0.10573235465190078
1840000000.0 0.1678906054031869 0.06459828384410805
1860000000.0 -0.20114378551903894 0.05056190003002356
1880000000.0 0.03175458664678986 0.234110910945969
1900000000.0 0.2618410510236688 0.07004746736193164
1920000000.0 0.06647024385978206 -0.29823099096309896
1940000000.0 -0.30338216380383043 -0.15442304803139495
1960000000.0 -0.04141704393050664 0.3697354502055648
1980000000.0 0.3465006054335583 -0.1917562134637557
2000000000.0 -0.12987650809556076 -0.395000347886856
2020000000.0 -0.35794425397768614 0.23754400743983212
2040000000.0 0.04889316435010656 0.43266166641605236
2060000000.0 0.43276931991884454 0.06037703490264848
2080000000.0 0.3141136830916984 -0.2975993230106272
2100000000.0 0.15673484472144544 -0.3975800800400624
2120000000.0 -0.15007771093676325 -0.39115007624530723
2140000000.0 -0.3810824505854897 -0.14499954089959768
2160000000.0 -0.17590605174498433 -0.3512263569013792
2180000000.0 -0.31118678525653337 -0.20744736930518098
2200000000.0 -0.35822301492373015 -0.023492866545351085
2220000000.0 -0.34010277120324345 0.0674563460634593
2240000000.0 -0.26302012648179846 0.2210406751019191
2260000000.0 -0.08791958319030695 0.33252521502924764
2280000000.0 0.04834313411045645 0.34620961488899743
2300000000.0 0.36322998442177895 -0.035472949118447755
2320000000.0 -0.10969831888513734 -0.3726599774163003
2340000000.0 -0.3209618232336484 0.2692154093033818
2360000000.0 0.4551397917405706 0.061722610735267115
2380000000.0 -0.4588667144061928 -0.2131017561911519
2400000000.0 0.4821176798165534 0.28078643837979333
2420000000.0 -0.6103978469465284 0.021069115135501505
2440000000.0 0.47148394832422574 -0.4606900287872112
2460000000.0 -0.04568297378568508 0.6973671595340358
2480000000.0 -0.2777195263077558 -0.6742634064811494
2500000000.0 0.3107686452212894 0.6814858580876252
2520000000.0 -0.15277551727146868 -0.7439507474002648
2540000000.0 -0.23323251599984118 0.7241765099317987
2560000000.0 0.6439008233665012 -0.39358966395653044
2580000000.0 -0.6627826160069779 -0.32896791942368003
2600000000.0 0.13734821607939676 0.7021345486071451
2620000000.0 0.45380305303237134 -0.5126957711485605
2640000000.0 0.1697231562709218 -0.6243756225244058
2660000000.0 -0.5303790639239485 0.28496108209776194
2680000000.0 0.4638162768342477 0.3038664057831274
2700000000.0 -0.08280936969301467 -0.5013778383038394
2720000000.0 -0.3125538421591798 0.338734655118241
2740000000.0 0.4141714227372901 -0.06310938384509752
2760000000.0 -0.3684384838066352 -0.09973645837895814
2780000000.0 0.3527573486085357 0.0043162188648431694
2800000000.0 -0.2895909727118219 0.1566788093779437
2820000000.0 -0.05710907635892545 -0.30687518827934984
2840000000.0 0.2980218691338581 0.036756268395243305
2860000000.0 -0.17051772061299708 0.2406933074453286
2880000000.0 -0.11145927725063481 -0.2702180582415723
2900000000.0 0.1121691759473728 0.2705927001288536
2920000000.0 0.19185574254240678 -0.22497720020283682
2940000000.0 -0.2866476100212804 -0.09361170411595524
2960000000.0 -0.2277457082223164 0.2013200545350769
2980000000.0 -0.27012541713689825 0.15038056496807908
3000000000.0 -0.31068613300073217 -0.016968431228223207
3020000000.0 -0.0639831794804126 -0.30581532074754475
3040000000.0 0.302197988869884 0.06582307436759231
3060000000.0 -0.27002032527905423 0.14606653742623335
3080000000.0 0.230600325379043 -0.19697360447266915
3100000000.0 -0.12756712718644428 0.2700844702820569
3120000000.0 0.016272756172673524 -0.2898040594598159
3140000000.0 0.18218066753749682 0.21473147808370233
3160000000.0 -0.26690401294604704 0.022202988984825915
3180000000.0 0.1842118447393839 0.1703376444578971
3200000000.0 -0.16521925940842214 0.1569936934296801
3220000000.0 -0.18626487538036557 -0.07697828396554383
3240000000.0 0.07908841394046948 -0.15083620974296155
3260000000.0 -0.003504703390051485 0.13578620313777937
3280000000.0 0.04714939619346268 -0.09205924808665535
3300000000.0 0.008747405119804295 -0.07492656548704879
3320000000.0 0.04571241250672548 -0.01973795411978135
3340000000.0 -0.016079889749144472 0.02329719480080783
3360000000.0 0.012187431047481316 -0.0030364296589221033
3380000000.0 0.0030239815808512506 -0.0007315357863021272
3400000000.0 0.005356702565994133 0.016862717763513165
3420000000.0 -0.03300274589649867 0.00825156027149578
3440000000.0 -0.048716675589092574 0.004352104040489206
3460000000.0 -0.006109050531595703 -0.057665075601601834
3480000000.0 -0.06802188379943981 -0.007442427433197968
3500000000.0 -0.037104574054498456 0.07076449215763815
3520000000.0 0.09169104491447716 0.0007840413911905765
3540000000.0 -0.029126326889352114 -0.09986857501018026
3560000000.0 -0.08821465760203646 0.07666189504960355
3580000000.0 0.12181108636958562 0.0526587673813143
3600000000.0 -0.12116740638381102 0.09478377398241636
3620000000.0 -0.137758400626487 0.09816187341119191
3640000000.0 -0.18160068265805693 0.005770873760606257
3660000000.0 -0.16650708677728343 0.09605897995408451
3680000000.0 -0.1833631393864519 0.0657878188098629
3700000000.0 -0.17719755614512733 0.07380484296151513
3720000000.0 -0.10771500788005181 -0.1551606994135872
3740000000.0 0.095867547786201 -0.15647968130265866
3760000000.0 -0.16421708753771322 0.06239817705288365
3780000000.0 0.14365155357862472 0.08817660978260497
3800000000.0 0.12275125918629275 -0.10417725935464808
3820000000.0 -0.018630301352444315 -0.15383989412425297
3840000000.0 0.039057910579329655 -0.1446451080465456
3860000000.0 0.1450160737165093 0.04114003191543453
3880000000.0 0.11088763986140354 -0.10868246874786187
3900000000.0 -0.10677270457287792 -0.11504471921082444
3920000000.0 -0.10810908632871138 0.1191497758897399
3940000000.0 0.15041334029314501 -0.06856735109226139
3960000000.0 0.0724208812147075 0.1549146407669427
3980000000.0 0.17305996395818588 0.007584024212751301
4000000000.0 0.16237784421973014 -0.042509727153124836
