! Created with skrf (http://scikit-rf.org).
# Hz S RI R 50.0 
!freq ReS11 ImS11
400000000.0 -0.8553476495565756 -0.07045971067039095
420000000.0 -0.029147871309168998 0.8604337670474898
440000000.0 0.8043004039772891 0.21925167476561538
460000000.0 0.7669221014225838 -0.18221622571761775
480000000.0 0.2718543743389221 0.6817565166498848
500000000.0 -0.19822858162055532 -0.5644417202473002
520000000.0 -0.42587768958928207 0.2909116707482709
540000000.0 -0.4293978948002999 0.0868453752621385
560000000.0 0.3414255039558929 0.1772957667110902
580000000.0 0.04532005021432718 0.3308400524550308
600000000.0 0.22044813368743815 0.2631500319816049
620000000.0 -0.006333610530456964 0.3445712233606812
640000000.0 -0.20839246083945162 -0.2832126924360798
660000000.0 0.08532793671314291 -0.362551179600478
680000000.0 -0.2162306322436989 0.3217626421231857
700000000.0 -0.1482417714643119 0.38750921351761053
720000000.0 0.014176686561840518 0.4184826163011129
740000000.0 -0.37205604380656315 -0.2222066603455698
760000000.0 0.4046065714702649 -0.09750973281649104
780000000.0 -0.32220348221162415 0.21216026841856542
800000000.0 0.0654274751274379 -0.3466000104490618
820000000.0 0.2990359997172269 0.017944123387930937
840000000.0 -0.25456241642825206 0.036436055326866446
860000000.0 -0.05441544430665336 -0.19710096155908513
880000000.0 -0.1527911283393531 0.0663255782808414
900000000.0 0.005843920461286823 -0.09496884710865537
920000000.0 0.017491947704633932 -0.05353390791063274
940000000.0 0.01434923320494585 -0.04321243064933893
960000000.0 0.027905265722167213 -0.04029538937536227
980000000.0 0.040728099464285544 0.04729247147462935
1000000000.0 -0.010330429138908347 0.07825431833064529
1020000000.0 0.09481092659390462 0.019116081711067896
1040000000.0 -0.03905930620774295 -0.11039999435971477
1060000000.0 -0.12523524173720116 -0.08338115760713735
1080000000.0 0.04486140553924323 -0.1669925470676348
1100000000.0 0.1352345400786034 0.13190959594704324
1120000000.0 0.20732730418034087 0.029860464842527093
1140000000.0 -0.22728741081573345 -0.08134506339793644
1160000000.0 0.058400565394360456 -0.266281380858342
1180000000.0 0.09768605816610984 -0.29473414802053904
1200000000.0 0.16621293730081238 0.29030328673283495
1220000000.0 -0.28652155531086415 -0.2261614999214025
1240000000.0 -0.21002585230878285 0.3239341041219481
1260000000.0 0.41246303532723255 -0.08033770948466797
1280000000.0 -0.4267899452898045 -0.08595495349036461
1300000000.0 0.27876743867277076 0.3540376276870058
1320000000.0 0.2087668513314433 -0.39545807443912273
1340000000.0 0.2504682394659539 -0.369803931638106
1360000000.0 -0.03406081242169424 -0.43816995099417616
1380000000.0 -0.2625942195979662 -0.3493948514317794
1400000000.0 -0.22685395350217608 0.3544131728407262
1420000000.0 0.20010029381953476 0.3485153772646843
1440000000.0 0.2770976773876125 -0.25343464395410786
1460000000.0 0.06929400223770052 -0.33735112852313326
1480000000.0 -0.31529790249119044 0.0014319321618716093
1500000000.0 -0.2316022849758655 0.16612626450137935
1520000000.0 -0.09678465344629239 0.23618968904227913
1540000000.0 -0.01975950874117058 -0.2278802655698277
1560000000.0 0.1968063219343078 -0.009531692821685398
1580000000.0 -0.00928362268340066 0.16761489553493664
1600000000.0 0.13652387760405807 0.026740137789177318
1620000000.0 0.10068691149194418 0.036532601444538966
1640000000.0 -0.080322461512321 0.01716561028940571
1660000000.0 -0.05749725508233002 -0.00829915792165571
1680000000.0 -0.02148096399146975 -0.031358675218684975
1700000000.0 -0.01794752202563253 -0.015543638334482022
1720000000.0 -0.0029724070583090605 0.004446378277619548
1740000000.0 0.0004804970354741084 -0.014394491286868018
1760000000.0 -0.0010776920704009367 0.033797952094361115
1780000000.0 0.020091623192144536 0.06181826381295741
1800000000.0 -0.08057658987838037 0.05966063447959347
1820000000.0 0.1305038417740224 0.010023261247487448
1840000000.0 -0.10617956764879241 -0.126193264270161
1860000000.0 0.09619147412327594 0.17607853091448492
1880000000.0 0.16949920664221393 -0.16668216039599096
1900000000.0 -0.2811585691015146 -0.008582252451808312
1920000000.0 0.3130331773171964 -0.0638876256844739
1940000000.0 -0.3400159472892365 -0.09831298388965648
1960000000.0 0.27444639461996856 0.2675577424681176
1980000000.0 0.022916490437348776 -0.4025614589553252
2000000000.0 -0.4202208841420849 -0.019841250014305856
2020000000.0 0.06593446668607293 0.42480438300519097
2040000000.0 0.41705910227010606 0.12042573547956163
2060000000.0 0.2758891396911144 -0.3319490926921266
2080000000.0 0.10551114723782662 -0.4125743252230725
2100000000.0 0.010492470003252971 -0.4173469397026981
2120000000.0 0.05269512607714035 -0.407348973663463
2140000000.0 -0.08913001418891912 -0.39230248334935
2160000000.0 0.3472271381940568 -0.1833129448885014
2180000000.0 0.05798379472249556 -0.37724676777465904
2200000000.0 -0.28184583939023766 -0.2417478313226326
2220000000.0 -0.3296546925574276 0.15115568203069185
2240000000.0 0.09304673160083776 0.34477468967878994
2260000000.0 0.3486854032230389 0.07172044953609755
2280000000.0 0.24766401109717306 -0.25642452114235337
2300000000.0 -0.12380874953756553 -0.3475642724074006
2320000000.0 -0.38978132759344697 -0.016094151545895576
2340000000.0 -0.04087243359912511 0.42022051380154296
2360000000.0 0.3950491831328972 -0.23981722806428793
2380000000.0 -0.5086633650712271 0.04589966319973547
2400000000.0 0.5450116957820799 -0.13938748059113168
2420000000.0 -0.3830517091764383 0.4799111382252289
2440000000.0 -0.10906931784547937 -0.6515033726060202
2460000000.0 0.5450224461245848 0.43640465995829897
2480000000.0 -0.7188794332983773 -0.10673938841854784
2500000000.0 0.7439438991577415 -0.0025333614223514147
2520000000.0 -0.7425441981531813 -0.12089818119870423
2540000000.0 0.6022740762975871 0.45173225287360086
2560000000.0 -0.10108745575996317 -0.7385909157816883
2580000000.0 -0.5409536861124201 0.48934243430298763
2600000000.0 0.6930401637286496 0.12941127345988787
2620000000.0 -0.3269562942923475 -0.5905815166529695
2640000000.0 -0.47928283211743483 -0.4218524125340306
2660000000.0 -0.04723944259374371 0.5929801124885313
2680000000.0 0.46182277454229975 -0.29898603185650324
2700000000.0 -0.4919710541537525 -0.11007146095205174
2720000000.0 0.34184360886325194 0.3035633318047613
2740000000.0 -0.07040712900650445 -0.40714680807248665
2760000000.0 -0.11972724561987745 0.3538308102592748
2780000000.0 0.10838773347827309 -0.3230556432443999
2800000000.0 -0.19950218925048993 0.24251035970350257
2820000000.0 0.12574668426706737 -0.268688118315929
2840000000.0 -0.09085699303430128 0.27338500385545345
2860000000.0 -0.011628964391956821 -0.28567549393486424
2880000000.0 0.23505376803518307 0.16702725337131125
2900000000.0 -0.29187812537581026 -0.01706518700719683
2920000000.0 0.28786436905917473 0.08180991520904073
2940000000.0 -0.2710954269865759 -0.14320121786455367
2960000000.0 -0.09311784749082522 0.2933262306115368
2980000000.0 0.18853127752883148 0.24451433682124704
3000000000.0 -0.005920757422986922 0.30748293535656374
3020000000.0 -0.2864169094029029 0.1022324928886012
3040000000.0 0.12232718644110627 -0.27245642835306133
3060000000.0 -0.09175663198923002 0.28150337704112804
3080000000.0 0.19350345023904644 -0.21980634081567021
3100000000.0 -0.21373488663367038 0.1961899496966082
3120000000.0 0.20214163987422926 -0.19987022660213627
3140000000.0 -0.010552695171441195 0.2776861648209561
3160000000.0 -0.1929948528872802 -0.18144257179564693
3180000000.0 0.04088132843867924 0.2460157539064348
3200000000.0 -0.22448296162855047 0.03949428776464237
3220000000.0 -0.1236651164388768 -0.16180619002129074
3240000000.0 0.06963053833897204 -0.1594137863841556
3260000000.0 0.13898707106358793 0.013066792321565823
3280000000.0 -0.0533643266333638 0.09105093670781475
3300000000.0 -0.009960686115933053 -0.07190274304533228
3320000000.0 -0.028996957158417658 -0.03244700744105361
3340000000.0 -0.008760418056356677 -0.016697640875605425
3360000000.0 0.0019936671507297973 0.0025441937850143545
3380000000.0 0.005720112248686106 0.00971266925930771
3400000000.0 0.020394197550516774 0.004443540757836234
3420000000.0 -0.013181449560415453 -0.027579121912105098
3440000000.0 0.0031690995700109823 -0.04096568205204876
3460000000.0 -0.014546723395891564 0.047482218528312664
3480000000.0 -0.03075500495681658 -0.0556608396844289
3500000000.0 -0.06438578365918855 0.04747453223230055
3520000000.0 0.046354080348365294 -0.08477914306388849
3540000000.0 0.1017451873667153 0.04771809570083251
3560000000.0 -0.04734512245318936 0.11608607474196786
3580000000.0 -0.022316225016557504 -0.13441204461211076
3600000000.0 0.14965094517148175 0.035170765451837796
3620000000.0 0.09643706104525666 0.1315023032021184
3640000000.0 -0.10868139092165825 0.13586378736748833
3660000000.0 -0.1695859302808249 -0.06748278724900794
3680000000.0 0.02315926704516365 -0.18778206900848643
3700000000.0 0.1686959704256374 -0.08902555006996529
3720000000.0 0.14883956432708828 0.12173305834826233
3740000000.0 0.12255573768561488 0.14257169243403575
3760000000.0 -0.15886378675289511 -0.09057844605172641
3780000000.0 0.158201304630827 -0.0726691965988679
3800000000.0 -0.13276770378599928 -0.09356028883384784
3820000000.0 -0.1515730189965594 0.012503811178422485
3840000000.0 0.07257787403775864 -0.1238071808961829
3860000000.0 -0.03417405363524951 0.13921681842185316
3880000000.0 -0.14524656716447087 0.0445296169061263
3900000000.0 -0.006804291040778359 0.15836805613659924
3920000000.0 0.11451682714711775 -0.12127056467878877
3940000000.0 0.16286876768093947 0.06146142314800476
3960000000.0 0.16834147720904624 0.06088868202546542
3980000000.0 -0.02795931459471762 -0.17616643617470543
4000000000.0 -0.09863883615190133 -0.13649590235259432
