! Created with skrf (http://scikit-rf.org).
# Hz S RI R 50.0 
!freq ReS11 ImS11
400000000.0 0.06085525620984846 0.8677228118398383
420000000.0 0.5323010350798842 0.6763146259625841
440000000.0 0.7968354878572387 -0.22085015904211178
460000000.0 0.10018596083928959 -0.7846576880037062
480000000.0 0.43505958712582316 -0.553820198147205
500000000.0 0.4634388152195349 -0.30739139023298767
520000000.0 0.47233969792429825 0.12327821594375336
540000000.0 -0.05549235392248879 0.43109500959323993
560000000.0 0.2274755572570569 -0.2917412544620416
580000000.0 -0.3458923917906222 -0.07411370405682743
600000000.0 0.22707109950138027 0.27499502768113454
620000000.0 -0.370741925968847 0.0777821172335169
640000000.0 0.40898963140562505 -0.04370813261528774
660000000.0 -0.328490829499133 -0.2541153480547588
680000000.0 -0.2836114871464283 -0.31085926884482223
700000000.0 -0.39967992321933904 0.10478961786137937
720000000.0 -0.17514129614102125 -0.36604997045495374
740000000.0 -0.3531796629705305 0.20352316794069866
760000000.0 0.27273037256800164 0.29586609770609
780000000.0 -0.38139677781123904 -0.03526555013488161
800000000.0 0.2832915745720238 -0.22409060011847143
820000000.0 -0.17010184785277266 -0.25818441057764024
840000000.0 0.21993200875340618 0.1196836715416966
860000000.0 -0.13839555367089262 0.15444713091341447
880000000.0 -0.11777283322083336 -0.09008095671659763
900000000.0 -0.07861402663663417 0.00223923505288771
920000000.0 0.0028190161687915894 0.04623917031059398
940000000.0 0.027206649676291644 0.0144647618951944
960000000.0 0.0062185562007295095 0.03636015423406065
980000000.0 0.01527098138226983 0.04542201008563237
1000000000.0 -0.04264011400200517 -0.0386386408961613
1020000000.0 0.052757287242466706 0.06128890678561702
1040000000.0 0.036160955971707376 0.09853354021975687
1060000000.0 0.13381620624865262 -0.07038946045983127
1080000000.0 0.03280965110951725 -0.17204043961256452
1100000000.0 0.09865553767759506 -0.18245461326686585
1120000000.0 0.22318453925197657 0.05136857053131232
1140000000.0 -0.15731854353905186 0.20426044568879773
1160000000.0 0.12888507205174113 0.24722587182979888
1180000000.0 -0.3007695885324422 0.028740995066513723
1200000000.0 0.3051201349148034 -0.11072055545690981
1220000000.0 -0.006559993316652639 -0.34935846761001815
1240000000.0 -0.3751124538715399 -0.07040025854047559
1260000000.0 0.11533277448162826 0.4017055226561353
1280000000.0 -0.06600720483419617 -0.43860520231205674
1300000000.0 -0.033461862806989526 0.4612417953793498
1320000000.0 0.03610600164667229 -0.460704997002252
1340000000.0 -0.4176914006069568 -0.17510259524404115
1360000000.0 -0.4374589133840434 0.027401200699179173
1380000000.0 -0.3789074257604598 0.2005348650476876
1400000000.0 -0.18633417791673101 0.36479332105388634
1420000000.0 0.12422626213859873 0.3688887664644793
1440000000.0 0.1491467073172198 0.33450456267933454
1460000000.0 0.33089356283966204 0.09141492462657831
1480000000.0 0.19171486108894728 -0.25561229288810267
1500000000.0 -0.25898266805033204 -0.13590468235557593
1520000000.0 -0.12440933013077421 0.23235072565001105
1540000000.0 -0.15432694357149263 -0.17311216920171532
1560000000.0 0.1830060333893172 -0.066832773541277
1580000000.0 -0.10163310964138599 0.13222176402040564
1600000000.0 -0.09203853875807742 0.1024401606365788
1620000000.0 -0.10672162324945202 0.025440002115812207
1640000000.0 0.027110900324780265 -0.08472011941064031
1660000000.0 -0.0577969068683242 -0.0350219990481945
1680000000.0 -0.006967405711132276 -0.04680969470835974
1700000000.0 0.026609326457332334 0.018156250313419508
1720000000.0 0.014068693088850677 -0.003705921187937594
1740000000.0 0.015037073969368724 -0.009390497545701197
1760000000.0 0.02579376008613972 0.03157530036257694
1780000000.0 0.07532572696484548 -0.01110595422107919
1800000000.0 0.1088637492297107 0.03527866429002507
1820000000.0 0.11474434167838314 -0.09172065275496685
1840000000.0 0.17209909744943314 0.04797325990792064
1860000000.0 -0.1922368980068588 0.0750010728262167
1880000000.0 0.05151454006606411 0.22959009326615362
1900000000.0 0.26668153958795393 0.045742508046018586
1920000000.0 0.02259034691709263 -0.30417787987451594
1940000000.0 -0.32591770781497476 -0.09837683328227255
1960000000.0 0.0049522964402680895 0.37242252442121593
1980000000.0 0.3343222372462232 -0.2137150848305926
2000000000.0 -0.12706178098691367 -0.39683729442106613
2020000000.0 -0.37781886238534174 0.20511202757101366
2040000000.0 -0.014632670410860383 0.43541244756696357
2060000000.0 0.4171990322685324 0.12899469887646645
2080000000.0 0.36591859414426425 -0.23183432588898137
2100000000.0 0.21641777841077006 -0.36860740711855644
2120000000.0 -0.07291125652987636 -0.4122785350093673
2140000000.0 -0.363543528780244 -0.18407284891950368
2160000000.0 -0.11262911619081248 -0.37538325677151413
2180000000.0 -0.3038670015053138 -0.21721975145775888
2200000000.0 -0.35453337946111907 -0.05543102662411052
2220000000.0 -0.3438599583969217 0.04647906996173915
2240000000.0 -0.2710568877614924 0.20997485054289539
2260000000.0 -0.11546562992089383 0.3235631578579945
2280000000.0 0.03314083909485384 0.3468711237550645
2300000000.0 0.36295137502611413 -0.02891707762198073
2320000000.0 -0.1359272152255411 -0.3632088760573715
2340000000.0 -0.3317171837631755 0.2553855482690462
2360000000.0 0.45325519008508486 0.07143585473315583
2380000000.0 -0.43316465213767646 -0.2613115457838235
2400000000.0 0.4692777152836587 0.3017649266518266
2420000000.0 -0.6101995336460283 -0.025848650191117647
2440000000.0 0.4934235530332709 -0.43776281425519614
2460000000.0 -0.12898445490260846 0.687382027499893
2480000000.0 -0.23475558425840584 -0.6906741274475701
2500000000.0 0.216987124440468 0.717526100682486
2520000000.0 -0.07565913963374117 -0.7561515574960201
2540000000.0 -0.31345926223003834 0.6936263355478318
2560000000.0 0.6778641947760429 -0.3322816969120807
2580000000.0 -0.6319097788254748 -0.3856865282692871
2600000000.0 0.13775519448171267 0.7035551018402785
2620000000.0 0.4308347539038437 -0.5343883894027504
2640000000.0 0.16164709016486004 -0.6281585062204174
2660000000.0 -0.5373277185362723 0.27509303222652537
2680000000.0 0.4986397566273972 0.24706139416866857
2700000000.0 -0.09184393288406406 -0.5012351578793057
2720000000.0 -0.29801901749893445 0.353805820034922
2740000000.0 0.41700736418349327 -0.05327968155551646
2760000000.0 -0.35174174262747565 -0.15053315003087378
2780000000.0 0.3517433056204327 0.03197428687697033
2800000000.0 -0.2908971871217618 0.15492885579531002
2820000000.0 -0.053558367016905174 -0.3075484893881092
2840000000.0 0.29946823170397235 0.019523555441356862
2860000000.0 -0.15727065255620526 0.24981699768633614
2880000000.0 -0.12841466868498697 -0.2624452773163603
2900000000.0 0.1480525097373217 0.2525825169414377
2920000000.0 0.14702675125504377 -0.2569934529093658
2940000000.0 -0.2977802772462278 -0.05273310245434019
2960000000.0 -0.2061519159155249 0.22532828302251817
2980000000.0 -0.2685463618544126 0.15397020774056325
3000000000.0 -0.3025291263184722 -0.07826202743456658
3020000000.0 -0.008934573170351826 -0.31311459496067384
3040000000.0 0.3077911831190168 0.04077346738860755
3060000000.0 -0.2747509371223245 0.14112774547942133
3080000000.0 0.22599763857547997 -0.20409742219039909
3100000000.0 -0.13246475708310274 0.2684216905382204
3120000000.0 0.02680732514518411 -0.29028030572325425
3140000000.0 0.13475051263874577 0.24846926052543247
3160000000.0 -0.25930494729440573 -0.06821526304082802
3180000000.0 0.131151520609764 0.21394580621686002
3200000000.0 -0.20528997752833741 0.09975491775510867
3220000000.0 -0.15671722058621623 -0.1260109886258453
3240000000.0 0.11307293816726646 -0.12662863871681818
3260000000.0 -0.04722337326886894 0.12657158979565322
3280000000.0 0.0965727520245159 -0.0348068312982747
3300000000.0 0.0006965491149236904 -0.07392966689981333
3320000000.0 0.03152684679504299 -0.03663873755129222
3340000000.0 0.005281441426354225 0.026908310086651697
3360000000.0 -0.009774498035967746 -0.006109339946279403
3380000000.0 0.0039373089589890544 0.0004066306654339015
3400000000.0 -0.013570548591628187 -0.013232742806223854
3420000000.0 -0.03545377855554202 0.0047332587635670765
3440000000.0 -0.02497246273345196 -0.04311204152717147
3460000000.0 0.02175188442878144 -0.054929228040143246
3480000000.0 -0.04252674984762724 -0.054098603112267836
3500000000.0 -0.041504219371882915 0.06789453220423838
3520000000.0 0.04397731504985906 0.08011954359179431
3540000000.0 0.05468162317759133 -0.08902375588117797
3560000000.0 -0.11702575151601967 0.003899471546265603
3580000000.0 0.09839657005281734 0.08893829975503598
3600000000.0 -0.12454399339625664 0.091839309192233
3620000000.0 -0.1581274847909122 0.061190501633781084
3640000000.0 -0.1709127034749074 -0.058443833428997
3660000000.0 -0.17847514166549103 0.0669629231585802
3680000000.0 -0.17610944927728428 0.07977485737984863
3700000000.0 -0.1728270953834814 0.08251689926789574
3720000000.0 -0.11112693331375602 -0.15154676175759513
3740000000.0 0.08125088822214682 -0.16362316106709104
3760000000.0 -0.14240769566986802 0.10217381012599201
3780000000.0 0.1648187190380177 0.03124504275264996
3800000000.0 0.053055753271446404 -0.15078981727893584
3820000000.0 -0.05042606842041501 -0.14638674417095013
3840000000.0 -0.007186430126941805 -0.14948203772373844
3860000000.0 0.14525677931009331 -0.03780671494957303
3880000000.0 0.11476258587244934 -0.1040857132303831
3900000000.0 -0.08156391224612199 -0.1330074338670259
3920000000.0 -0.12899788732072626 0.09440008992841208
3940000000.0 0.15000762924185626 -0.06639467936769634
3960000000.0 0.07606905395818432 0.15223303414108233
3980000000.0 0.17122230826220258 0.020134798204391277
4000000000.0 0.15916759154773122 -0.05547634099012411
