! Created with skrf (http://scikit-rf.org).
# Hz S RI R 50.0 
!freq ReS11 ImS11
400000000.0 -0.6960886359018721 0.48999725372469244
420000000.0 -0.2171893614910372 0.8341581149359708
440000000.0 0.686734417477195 0.4726698252846017
460000000.0 0.6657920811715977 -0.4397985170719007
480000000.0 0.6116017730958475 0.41304714298923684
500000000.0 -0.549030904028129 0.22174429594190753
520000000.0 -0.32227589374900306 0.37161858815250537
540000000.0 0.2665371483744232 -0.3366637674645859
560000000.0 -0.17930017466342268 0.3177559633298556
580000000.0 0.2112369128409649 -0.2652736714308855
600000000.0 -0.32028161200299043 -0.09570364888890254
620000000.0 0.3308171905588159 0.11863813029320383
640000000.0 0.37027353571809446 0.051952942849919706
660000000.0 0.3714680125005182 -0.12306846935196158
680000000.0 0.10946353378038437 0.39772354605503374
700000000.0 0.4060961797104105 -0.12601926694733392
720000000.0 0.0030389282591687557 -0.42335401636538583
740000000.0 0.25470872392423 0.3297756637193118
760000000.0 0.3251986653688727 -0.22895552287942367
780000000.0 -0.2430983369750499 0.2811614030972761
800000000.0 0.3353911735100843 0.07242882559440737
820000000.0 -0.07783134990890189 0.29289050314232923
840000000.0 -0.0950385330417741 -0.24136138758157638
860000000.0 0.11171412427063913 -0.18541108835785347
880000000.0 -0.07450869111662799 0.1536049258959671
900000000.0 0.012190055415281278 -0.108631395626923
920000000.0 -0.03455017443421596 0.05607462632365948
940000000.0 -0.047453123560286026 0.01683637642868257
960000000.0 0.04770070804674318 0.031428373369690565
980000000.0 -0.07414254859208817 0.006177913130074963
1000000000.0 0.061923415782328316 0.052719235820019146
1020000000.0 -0.09852294047565507 0.007508656887608625
1040000000.0 -0.0771945581924304 -0.07158137189662984
1060000000.0 0.06490521563453285 0.12388029973527893
1080000000.0 -0.102178153709215 -0.11523214821135067
1100000000.0 -0.1748156652739681 -0.03145496855415909
1120000000.0 -0.10094018641964013 0.17137692468215637
1140000000.0 0.10909110249960158 0.20904754205033155
1160000000.0 0.1623451631171579 0.22003437870500472
1180000000.0 0.104777183282406 0.29388359031234357
1200000000.0 -0.08522694430858124 0.3353816362518713
1220000000.0 -0.13428129568337846 -0.34984776085506314
1240000000.0 0.2105199606107036 0.34014298655276887
1260000000.0 -0.01540366624554106 -0.42513081939501707
1280000000.0 -0.1346561635007934 0.4206349156281065
1300000000.0 0.40064262222052527 -0.20178398754658408
1320000000.0 -0.2711614969934305 -0.35074240072667606
1340000000.0 -0.18718434298053233 -0.39417040028823264
1360000000.0 0.06443277879729832 -0.425531723729678
1380000000.0 -0.04536124522087708 -0.42657662876318525
1400000000.0 -0.4178847053541868 0.0005367889128285104
1420000000.0 -0.10132937163472348 0.38788956429636884
1440000000.0 0.35389550368962575 0.12399117279447196
1460000000.0 0.28132704738022796 -0.20022235504218008
1480000000.0 -0.11483545337216768 -0.2955123510669589
1500000000.0 -0.277316126861845 -0.07255025813361372
1520000000.0 -0.22576155770639444 0.13363084271246084
1540000000.0 -0.056292164368793786 -0.22870778601798644
1560000000.0 0.09630432749296086 -0.1775213015807072
1580000000.0 0.15412336844416058 -0.07497054383530219
1600000000.0 -0.12341830376867513 -0.06397540041164734
1620000000.0 -0.10360396120935265 -0.017439053270063856
1640000000.0 -0.000378092773470313 -0.08027423975156103
1660000000.0 -0.024258582377404192 -0.048661038807045386
1680000000.0 -0.03036285034640933 -0.007010097870624115
1700000000.0 -0.0023576393953823453 -0.01444508367138602
1720000000.0 0.0044370764325735 0.003160890812252399
1740000000.0 -0.01535002193446706 0.013786461167310745
1760000000.0 0.02643959190155107 -0.025040922147417353
1780000000.0 -0.04137222642040896 -0.05108319799345637
1800000000.0 0.03148086872496023 0.09343814196810313
1820000000.0 0.1271093537219852 0.027903542564057037
1840000000.0 -0.1498825913341146 -0.07598263779366089
1860000000.0 0.16185842895962355 0.12628034942945945
1880000000.0 -0.15510950657854727 -0.18961045993980796
1900000000.0 0.15576946361074964 0.23893538712336976
1920000000.0 -0.1284582162848901 -0.2936785913553935
1940000000.0 -0.16824831205941995 0.30740761690844315
1960000000.0 0.3762044170184 -0.016159190301312083
1980000000.0 -0.08541088007683324 -0.38591358585016766
2000000000.0 -0.3401107167905539 -0.2338295183278011
2020000000.0 -0.3330234677665081 0.267133322866588
2040000000.0 0.011004505523893553 0.4354237970919741
2060000000.0 0.43519141907207465 0.059550374962584536
2080000000.0 0.25199840005128726 -0.35552135017276604
2100000000.0 -0.09997791489215785 -0.4170859614717473
2120000000.0 -0.30868839116829255 -0.28388574168986486
2140000000.0 -0.4077187882101073 -0.011253333607327637
2160000000.0 -0.23872465826731284 -0.31152176210056365
2180000000.0 -0.3669821824727948 -0.08326970096884122
2200000000.0 -0.33203480303090693 0.1470341119896828
2220000000.0 -0.2059448504613096 0.2851672666904403
2240000000.0 0.02422165361681932 0.34843410251957846
2260000000.0 0.2592431971803837 0.2363478427680485
2280000000.0 0.34271375065240783 -0.10302991119339036
2300000000.0 -0.16474550310442543 -0.3342704164182565
2320000000.0 -0.31454758182218395 0.24181748801085517
2340000000.0 0.4046483241151546 0.14122262140937136
2360000000.0 -0.30941967618352734 -0.3520594780119803
2380000000.0 0.32567329670576417 0.39876536194689416
2400000000.0 -0.4194536405589041 -0.3768415319292891
2420000000.0 0.5992653878345597 0.12882426201518193
2440000000.0 -0.5828437899297735 0.30395424235274815
2460000000.0 0.3334615850467969 -0.6077814679231757
2480000000.0 -0.1267732953955712 0.7085347003692057
2500000000.0 0.19401283353717033 -0.709802624947269
2520000000.0 -0.42592837538700457 0.6086456195700175
2540000000.0 0.7210262677294534 -0.17618270423712507
2560000000.0 -0.6043176694434492 -0.4154026109875639
2580000000.0 -0.12958823459706545 0.703418210531077
2600000000.0 0.6508725515598741 -0.22769190032431968
2620000000.0 -0.43122309645064133 -0.49727382561468225
2640000000.0 -0.5242769854843613 -0.3315821275706279
2660000000.0 -0.1316881073691816 0.561189754162699
2680000000.0 0.5281710799322158 -0.053610264414872544
2700000000.0 -0.28913941990925135 -0.39051604215595687
2720000000.0 -0.07060448037964082 0.43553728570660366
2740000000.0 0.32451314551601823 -0.23378178444103986
2760000000.0 -0.3573098548244228 0.06532336383954544
2780000000.0 0.3297133025425991 -0.04588127096023402
2800000000.0 -0.2856922225756532 0.11800772716736033
2820000000.0 0.16389238058051023 -0.2425787175076386
2840000000.0 0.05186559745986247 0.279037683999858
2860000000.0 -0.23103419465140973 -0.16216355713433334
2880000000.0 0.2548104050779653 -0.12598685323200595
2900000000.0 -0.16494125498402976 0.23654223518648912
2920000000.0 0.2136575885729472 -0.20230512571159498
2940000000.0 -0.2925535585174632 0.06225866541391127
2960000000.0 -0.05192160317577996 0.2950850655776124
2980000000.0 -0.05796732865554786 0.2966963440823637
3000000000.0 -0.2520099944441794 0.16750047434902546
3020000000.0 -0.15342918801167316 -0.2595047004304033
3040000000.0 0.28540742653439527 0.08995502400771088
3060000000.0 -0.2957984661749541 -0.04149062491671825
3080000000.0 0.29635834755830665 0.013532149253006935
3100000000.0 -0.2764539195180076 0.09717874137523298
3120000000.0 0.24716368728722105 -0.14424217508618217
3140000000.0 -0.0753310203036422 0.26905988414766896
3160000000.0 -0.19373584041897127 -0.18106013452353806
3180000000.0 0.08994625509536001 0.23206585426552806
3200000000.0 -0.16741373971368403 0.14937529420036327
3220000000.0 -0.16547470337111758 -0.1062557426497724
3240000000.0 0.11220913709861526 -0.11969249023583003
3260000000.0 -0.11313357683672286 0.06395382078811603
3280000000.0 9.86859045599609e-05 0.09888926378677929
3300000000.0 0.02447379562310483 0.06764828533348127
3320000000.0 -0.04416997313149498 0.014795246395788463
3340000000.0 0.024831982733443045 0.010303826087007648
3360000000.0 0.009959436659864367 -0.004025773201082034
3380000000.0 0.0023296014103577887 -0.004726149621306986
3400000000.0 0.0058615311107311375 -0.01841297917849629
3420000000.0 -0.03401154311638931 0.005764821057836332
3440000000.0 0.045487027178433934 -0.012720999574454113
3460000000.0 -0.015931350946378688 -0.054652512506249334
3480000000.0 -0.03451735235063156 -0.056831045103950276
3500000000.0 -0.07367592619865614 0.025918059245815635
3520000000.0 -0.05761114446783837 0.06991355434317356
3540000000.0 0.09133077321040459 -0.04731473107524942
3560000000.0 -0.11280241315280415 -0.02788249906973626
3580000000.0 0.038846978685435254 0.12538559994590273
3600000000.0 -0.1518195627935415 -0.006324208074785765
3620000000.0 -0.16551379335166383 -0.010328247532236146
3640000000.0 -0.09971516602064029 -0.14816334574613133
3660000000.0 -0.17671497943580142 -0.06486975965040448
3680000000.0 -0.17750994628025887 -0.0732847143268248
3700000000.0 -0.1701553304916013 -0.08487078805345821
3720000000.0 -0.042959400495017355 -0.1825406292459721
3740000000.0 0.09975327317423367 -0.1510214630512443
3760000000.0 -0.1571221365705927 0.07302751301082382
3780000000.0 0.12175821739238592 0.1098723001472772
3800000000.0 0.14293936879410313 -0.06470657433341079
3820000000.0 0.129697475526145 -0.08045208313907787
3840000000.0 0.11896600657091666 -0.09014289936569406
3860000000.0 0.15044738507588906 0.0015915983509953635
3880000000.0 0.12690409227646263 -0.08942829259166728
3900000000.0 -0.10810003470799304 -0.11257241472057793
3920000000.0 -0.014291617649770045 0.15869097908638424
3940000000.0 0.029488207710878515 -0.16055069105183303
3960000000.0 0.16345662006605294 0.04223910364350102
3980000000.0 0.16740992667324772 -0.030999780004544956
4000000000.0 0.14030746774479824 -0.08792212656385037
