! Created with skrf (http://scikit-rf.org).
# Hz S RI R 50.0 
!freq ReS11 ImS11
400000000.0 0.0826342565767938 0.8677739168225465
420000000.0 0.5302883130430245 0.6774261106558274
440000000.0 0.8138465682944882 -0.15186931516601282
460000000.0 0.0839466441518265 -0.7873576959847801
480000000.0 0.37074531793543664 -0.598255964448485
500000000.0 0.49941128871199214 -0.240376074232059
520000000.0 0.45856691642533404 0.17140331576735152
540000000.0 0.051049831659598144 0.4320456581940631
560000000.0 0.20086697289381847 -0.3088198974989928
580000000.0 -0.2998530726399371 -0.1891342989417227
600000000.0 0.23980076210197276 0.26633074319112515
620000000.0 -0.3455255198381531 0.15628285049099266
640000000.0 0.4065981589690648 -0.0556682659923117
660000000.0 -0.3376504090869972 -0.2410491344049311
680000000.0 -0.2802504263934374 -0.31366578374326237
700000000.0 -0.40371123099566325 0.08940324989893411
720000000.0 -0.13203018038792114 -0.38307458372469866
740000000.0 -0.35509606418945694 0.20033350445703302
760000000.0 0.2590513853876084 0.3080170990814819
780000000.0 -0.382310148620988 -0.015473941576280048
800000000.0 0.2595264571511244 -0.2509145915281945
820000000.0 -0.19180911211847826 -0.24218296014535368
840000000.0 0.21105084077926958 0.134275085727102
860000000.0 -0.1590314795424853 0.1335637867343962
880000000.0 -0.09846469157575734 -0.11137416877229293
900000000.0 -0.0755825245955813 -0.024089034345828216
920000000.0 -0.009394884125874855 0.04561474082986996
940000000.0 0.030216387540675845 0.0019751741064645795
960000000.0 0.007050993755491885 0.036523990162112246
980000000.0 0.025277203550632 0.04040044290455665
1000000000.0 -0.056117815185251566 -0.00835194505785815
1020000000.0 0.068646352638816 0.04344804587269826
1040000000.0 0.046646583517286164 0.09379857275833016
1060000000.0 0.14450963272826997 -0.0448509103339989
1080000000.0 0.08680656824031271 -0.15222212904822022
1100000000.0 0.12259667690412202 -0.16749737124751354
1120000000.0 0.20664387952993474 0.09699801104446237
1140000000.0 -0.1302040600336247 0.2222545921387103
1160000000.0 0.1729310028178716 0.21877654281333503
1180000000.0 -0.28435939377976155 0.10146112725254919
1200000000.0 0.28079453654194575 -0.1612613605026719
1220000000.0 -0.052790577958344784 -0.34483670403023736
1240000000.0 -0.38042467944130914 -0.005477571686541336
1260000000.0 0.14864964326977118 0.3900864362197431
1280000000.0 -0.09643126655566948 -0.43287620239526936
1300000000.0 -0.010370610877959839 0.46233803183238864
1320000000.0 0.02062477667249962 -0.4617017053785443
1340000000.0 -0.41698618915752567 -0.17695874553494734
1360000000.0 -0.4386665813293511 0.0008243719175728753
1380000000.0 -0.38382194428595845 0.19242707339659618
1400000000.0 -0.20649025318060943 0.3546445052108969
1420000000.0 0.09464894005126967 0.37826329255217866
1440000000.0 0.1304578361381038 0.3428561708764115
1460000000.0 0.33357356152331863 0.08114232763407915
1480000000.0 0.1658047550069802 -0.27131884195997025
1500000000.0 -0.26203942084922527 -0.12592215717398
1520000000.0 -0.13508496590066704 0.22504061383562515
1540000000.0 -0.1714495533839994 -0.15321805182081905
1560000000.0 0.18650498875719929 -0.04967395659195202
1580000000.0 -0.08494653700277223 0.14168939270129582
1600000000.0 -0.025416268324325444 0.13467359588042133
1620000000.0 -0.07295249711857957 0.08182185695304446
1640000000.0 -0.038168323402546805 -0.08161837145720388
1660000000.0 -0.06606743806187156 -0.01894382316606051
1680000000.0 -0.01376564128269882 -0.04675315484464968
1700000000.0 -0.003061561489471998 0.03281800458829904
1720000000.0 -0.014306785823685315 0.0038013831252006903
1740000000.0 -0.01650187090349217 -0.0026784379336983292
1760000000.0 0.03903035175395265 -0.012105757938877188
1780000000.0 0.04175935350658592 -0.06439613207522765
1800000000.0 0.11495536239701779 -0.011395493530532425
1820000000.0 0.0895363863663506 -0.11836050176366539
1840000000.0 0.17000912785363959 0.06012752342738877
1860000000.0 -0.1996094903803633 0.0582009592721417
1880000000.0 0.028194704701459187 0.23499317650113893
1900000000.0 0.26185335247457087 0.07130489838023936
1920000000.0 0.0694774047536719 -0.29767830538639434
1940000000.0 -0.30391641877640163 -0.1533451507224658
1960000000.0 -0.04120926209678843 0.3696298552572505
1980000000.0 0.356964034983655 -0.17137072032558223
2000000000.0 -0.116049417239777 -0.399131906344199
2020000000.0 -0.36579406609977727 0.22491548727214045
2040000000.0 0.07332382000188982 0.4288825553032912
2060000000.0 0.4306128212890553 0.07115198624639807
2080000000.0 0.32054278304083855 -0.2905986717110925
2100000000.0 0.15423106254856117 -0.39843972659479504
2120000000.0 -0.13807275716845832 -0.395111604159115
2140000000.0 -0.3833347028942809 -0.13900263353340703
2160000000.0 -0.15659462840199798 -0.3600278499693615
2180000000.0 -0.33156041954000626 -0.17214337920404205
2200000000.0 -0.35823282287998237 -0.019473893272460865
2220000000.0 -0.3359077599446777 0.0865169725553272
2240000000.0 -0.24552143436899493 0.2404672447769043
2260000000.0 -0.06314162668394749 0.33848753842678364
2280000000.0 0.05826051078311309 0.3450046956488146
2300000000.0 0.3629965049139605 -0.0407673723512292
2320000000.0 -0.10165237282014995 -0.37507901406388156
2340000000.0 -0.3244716071841902 0.26527228785107104
2360000000.0 0.4553389160820464 0.06032693568315745
2380000000.0 -0.45663934716208243 -0.21825044381412556
2400000000.0 0.48510360435871147 0.27611545849740293
2420000000.0 -0.6099207845716089 0.029940806299412415
2440000000.0 0.47807351563664496 -0.45384322787978865
2460000000.0 -0.06706552412774004 0.6958283468489529
2480000000.0 -0.32736413484894533 -0.6512061410590526
2500000000.0 0.36687975525014643 0.6527684141980696
2520000000.0 -0.20520363158391308 -0.7308113200015703
2540000000.0 -0.22925246009987393 0.7252246163539985
2560000000.0 0.6179329814984518 -0.4327173281588831
2580000000.0 -0.6765024022203354 -0.2991560503229093
2600000000.0 0.19701059511711735 0.6876421645516366
2620000000.0 0.32370559124403847 -0.6026674654158648
2640000000.0 0.1254154440310015 -0.6347327644268719
2660000000.0 -0.5188584478229454 0.30559748421682126
2680000000.0 0.501759375073493 0.23644341937222496
2700000000.0 -0.11753329304914635 -0.4941096925608162
2720000000.0 -0.2821947811453439 0.36431735170984825
2740000000.0 0.41133890640047227 -0.07928635648696443
2760000000.0 -0.3737172121270938 -0.07867620081460508
2780000000.0 0.35283285509392354 0.0003927720774719377
2800000000.0 -0.2903563937019258 0.15507851379837098
2820000000.0 -0.05004150899606165 -0.3079975071896417
2840000000.0 0.2974867385385119 0.03878235861232542
2860000000.0 -0.156713540492956 0.24918423865095163
2880000000.0 -0.12353529546055492 -0.26434300375171393
2900000000.0 0.1220603555856988 0.26600172986794424
2920000000.0 0.16327003706759483 -0.24592781748359074
2940000000.0 -0.29170108270679596 -0.07523635343461635
2960000000.0 -0.22885657484864907 0.19899458552054594
2980000000.0 -0.2642483541759025 0.15842611263201378
3000000000.0 -0.3113144833171309 -0.01618125181913439
3020000000.0 -0.09096455209304392 -0.2985854865539174
3040000000.0 0.30799346208191364 0.02589900324333266
3060000000.0 -0.2654964591809365 0.15462586552678473
3080000000.0 0.209104222493654 -0.21944481775242503
3100000000.0 -0.13449503978787708 0.26637665754206047
3120000000.0 -0.004178903399189898 -0.2905981714525557
3140000000.0 0.19464538073017065 0.20323064644589325
3160000000.0 -0.2662771133718841 0.026346466250169377
3180000000.0 0.18404186619057322 0.17070579036035696
3200000000.0 -0.14780544537335644 0.17421853911722107
3220000000.0 -0.18835861765581804 -0.07195904675708574
3240000000.0 0.07836517978606344 -0.1517212912017895
3260000000.0 -0.014991230777943067 0.13552867556620765
3280000000.0 0.05398559459466739 -0.08884598068111466
3300000000.0 0.006143105902376866 -0.07560520980187109
3320000000.0 0.04946884252185981 -0.007443312218232296
3340000000.0 -0.024370309034871942 0.015173423588683213
3360000000.0 0.011499183014188437 0.006508012167679127
3380000000.0 -0.0026700181407734763 0.0003683179842381621
3400000000.0 0.012564094078490287 0.012140699586048475
3420000000.0 0.005610314243866289 0.03337878246834774
3440000000.0 -0.04512222457204944 0.01799511015372394
3460000000.0 -0.01871897990406327 -0.05495462752238329
3480000000.0 -0.0671626523433368 0.014016768940947928
3500000000.0 -0.028447109524098565 0.07442540027479613
3520000000.0 0.08980061506139661 0.01664807846106336
3540000000.0 -0.03991609263469068 -0.09612092679293956
3560000000.0 -0.07891270368762882 0.08636596936302536
3580000000.0 0.13259825036697118 0.012685571832414567
3600000000.0 -0.12972113875172797 0.0823389187426803
3620000000.0 -0.1441409431703745 0.08789079950517198
3640000000.0 -0.1815426625699465 0.008067806906484563
3660000000.0 -0.1699137612281303 0.08983804550887275
3680000000.0 -0.1809174964492902 0.07272719725107313
3700000000.0 -0.17400324909966924 0.0817693684858814
3720000000.0 -0.10350488701910163 -0.1582100377492922
3740000000.0 0.09085491971569536 -0.15931920629459706
3760000000.0 -0.16074645102464205 0.07126423922904357
3780000000.0 0.15124038096904938 0.07434913003274579
3800000000.0 0.12036009834330774 -0.10681980506359867
3820000000.0 -0.022072769528737293 -0.15369966206336014
3840000000.0 0.020787147637916392 -0.1482906271226179
3860000000.0 0.1502412362810688 -0.002565383861336818
3880000000.0 0.10201379188206312 -0.11700397801248416
3900000000.0 -0.12816426376667003 -0.09063418959615756
3920000000.0 -0.07666683044128925 0.14137655910724972
3940000000.0 0.13311525578604355 -0.09853945442809259
3960000000.0 0.10228989377693261 0.13715636863186872
3980000000.0 0.17257935927575468 -0.016175489920998688
4000000000.0 0.15749319264259892 -0.05887239465100866
