! Created with skrf (http://scikit-rf.org).
# Hz S RI R 50.0 
!freq ReS11 ImS11
400000000.0 -0.6955048851452529 0.4941355730796631
420000000.0 -0.23122842966879234 0.8301994343888006
440000000.0 0.6997966905630063 0.45307350937483065
460000000.0 0.6630518654213884 -0.44444771115395837
480000000.0 0.6407448069866819 0.3652895276671965
500000000.0 -0.5507405694336927 0.21735827943127536
520000000.0 -0.3301381235489683 0.36418728524147237
540000000.0 0.27844921518148485 -0.32676504396876754
560000000.0 -0.19856336676467845 0.30606579129717076
580000000.0 0.19682502441213076 -0.2761310447766171
600000000.0 -0.3248773612192655 -0.079461372509021
620000000.0 0.3104666340074911 0.1650337685976935
640000000.0 0.3681905719283297 0.06517192524613667
660000000.0 0.37835423464885043 -0.10094942988144232
680000000.0 0.1357115628733707 0.389169284946682
700000000.0 0.39615233074457123 -0.1545340858549501
720000000.0 0.018268559411266552 -0.4229021788522761
740000000.0 0.2613824751220128 0.3237570826826449
760000000.0 0.33260081147080944 -0.218146405607719
780000000.0 -0.24865169126243367 0.2760988518838762
800000000.0 0.3380191978229367 0.058561550279792075
820000000.0 -0.060650551470099394 0.29668881440648864
840000000.0 -0.09618339540244125 -0.24088094210706715
860000000.0 0.11739256321667489 -0.1818148228404823
880000000.0 -0.08378028157381619 0.1483045995511461
900000000.0 0.02786379388618986 -0.10520902309669193
920000000.0 -0.036358413484193504 0.05445429198226749
940000000.0 -0.04719333903441031 0.016919712619863896
960000000.0 0.03923869463451959 0.04165039530426588
980000000.0 -0.07376266471349509 -0.00968006916388686
1000000000.0 0.05557843464516467 0.059228477403905015
1020000000.0 -0.0980354841506341 0.011726954249724555
1040000000.0 -0.08288300678428408 -0.06522703242962066
1060000000.0 0.08172955328577067 0.11366101473295319
1080000000.0 -0.10245189274957699 -0.11509233636339586
1100000000.0 -0.17481503580239036 -0.03158695343587946
1120000000.0 -0.10657089142155024 0.16806358636145763
1140000000.0 0.13559253895268386 0.19295581223634947
1160000000.0 0.17204361386652778 0.21283640984227992
1180000000.0 0.11367961029975221 0.29045319008564485
1200000000.0 -0.05849817646070823 0.3410924593497115
1220000000.0 -0.15177261599439024 -0.3425401107359151
1240000000.0 0.20770960625302434 0.3416598578708953
1260000000.0 0.0015679927857210724 -0.42527560978529483
1280000000.0 -0.14864492452859754 0.41606234874029463
1300000000.0 0.3924199234709921 -0.21794794706441725
1320000000.0 -0.2859018594118273 -0.3392139960748975
1340000000.0 -0.20482767952963496 -0.38513813941579544
1360000000.0 0.07251211744382317 -0.4241259455743734
1380000000.0 -0.02600009904547679 -0.42805398396000716
1400000000.0 -0.41767115754610284 -0.01152397260266785
1420000000.0 -0.12086393848952269 0.38272043525888827
1440000000.0 0.3584953360981081 0.11052957796931007
1460000000.0 0.28024415903804556 -0.20269955826055663
1480000000.0 -0.1094354755527333 -0.2979256220965506
1500000000.0 -0.28316566818509153 -0.04588970129251224
1520000000.0 -0.2148236096304188 0.15022050799362532
1540000000.0 -0.07339556578737579 -0.22329978069673262
1560000000.0 0.11908846419047912 -0.1625707915176527
1580000000.0 0.1594706931538475 -0.06160169588534395
1600000000.0 -0.0913753907372194 -0.10465991655690078
1620000000.0 -0.1052254905469056 -0.00011402091112840994
1640000000.0 0.022327886375119295 -0.0773484812717331
1660000000.0 -0.02330143988615669 -0.04967862034595443
1680000000.0 -0.031234079940552988 0.0024951440358566813
1700000000.0 -0.0020788853485984625 0.014943014669557386
1720000000.0 0.0030587874260467143 0.003992817026466092
1740000000.0 -0.01884721197054038 -0.007991543363952244
1760000000.0 0.03431900711164625 -0.013066067210525752
1780000000.0 -0.02673283181087046 -0.060502871990155624
1800000000.0 0.027266580150334556 0.09469372459512966
1820000000.0 0.13014419764414564 0.00996848615735495
1840000000.0 -0.15757818019814512 -0.05813260890759495
1860000000.0 0.16914313164738837 0.11642376810057382
1880000000.0 -0.1576434050004634 -0.1872512657027455
1900000000.0 0.15958986943786832 0.23652173698446344
1920000000.0 -0.12395784539956464 -0.29558902150211763
1940000000.0 -0.1666702227517013 0.30826382318582246
1960000000.0 0.3765152500457421 -0.014035047755017328
1980000000.0 -0.08749617791280334 -0.38562771312109245
2000000000.0 -0.3411878825401302 -0.23261139195421768
2020000000.0 -0.3438333769733179 0.25337458976784677
2040000000.0 -0.002726615811799536 0.4357216411088667
2060000000.0 0.4327710258659365 0.07664684983651938
2080000000.0 0.2724629427835888 -0.3403244474094019
2100000000.0 -0.09355316142049816 -0.41868576002157853
2120000000.0 -0.31900818955861093 -0.2721821703583178
2140000000.0 -0.40738825608758905 0.018306523726312304
2160000000.0 -0.25085018585778524 -0.30186942011117196
2180000000.0 -0.3661134868828457 -0.08647231039091709
2200000000.0 -0.33656457302945136 0.1365527555679957
2220000000.0 -0.20677460989463142 0.2846904930653478
2240000000.0 0.028781399179403703 0.3487685356379576
2260000000.0 0.26118071401403525 0.23478175720438274
2280000000.0 0.3461687545259088 -0.09205754933493457
2300000000.0 -0.16107769616713494 -0.33631899769504864
2320000000.0 -0.3019640208595391 0.2581449042838058
2340000000.0 0.4183508433264192 0.09786642415228318
2360000000.0 -0.3326495520040746 -0.33152021111376684
2380000000.0 0.33279011055443924 0.39365839251067114
2400000000.0 -0.4477396721045704 -0.34429483027041163
2420000000.0 0.6119388844764372 0.044339970832690756
2440000000.0 -0.5540085421133262 0.3550867436508589
2460000000.0 0.25909064220127354 -0.6436701982144658
2480000000.0 -0.03127412736790716 0.7194827410544796
2500000000.0 0.12728764364711578 -0.7253162355593495
2520000000.0 -0.39917100898598307 0.6268681552056035
2540000000.0 0.6736039668341456 -0.31097006212889594
2560000000.0 -0.6369893237184262 -0.3639045516389852
2580000000.0 -0.017177207968049377 0.7149150636236369
2600000000.0 0.626915248348035 -0.2867246927566226
2620000000.0 -0.47085449190082196 -0.4590828883692854
2640000000.0 -0.5449562350349869 -0.2949050252938825
2660000000.0 -0.1065510948742811 0.5657529512491647
2680000000.0 0.5217233485188728 -0.09438126574348472
2700000000.0 -0.32000936352539994 -0.364858533694464
2720000000.0 -0.05494278856345784 0.4370327734604588
2740000000.0 0.32956729752910546 -0.225139325795388
2760000000.0 -0.3559279611258117 0.06806199953545099
2780000000.0 0.3271628942244481 -0.0574647111452355
2800000000.0 -0.28280061737069534 0.12361485825985802
2820000000.0 0.14950105728414492 -0.2513088235218193
2840000000.0 0.07418649992105332 0.2736143185804527
2860000000.0 -0.24593296125847178 -0.1381417247457464
2880000000.0 0.25079516337007435 -0.13355451904863236
2900000000.0 -0.15095506522229843 0.24533377584794133
2920000000.0 0.18071751540495082 -0.23140843514310563
2940000000.0 -0.28333874354487937 0.09477752276131383
2960000000.0 -0.03413508161221029 0.29742586732007337
2980000000.0 -0.052644285774552914 0.2967978452172477
3000000000.0 -0.25653187682632606 0.16043478427912158
3020000000.0 -0.13641955612958498 -0.26852309202040164
3040000000.0 0.2802140896515978 0.10392412611011281
3060000000.0 -0.29765346185723884 -0.02309147400554203
3080000000.0 0.29517004686973064 0.02651301665045595
3100000000.0 -0.27965053751468744 0.08703615601410813
3120000000.0 0.25151674735956636 -0.13624479270135526
3140000000.0 -0.09074993481630349 0.26396159112395606
3160000000.0 -0.19441926167634663 -0.18009412511475287
3180000000.0 0.09060939486938473 0.23148931863513586
3200000000.0 -0.17074152267743223 0.14524847169203586
3220000000.0 -0.16112839825237188 -0.11236898613197517
3240000000.0 0.11349888217267928 -0.11769316303439482
3260000000.0 -0.10786449987316267 0.07156874797989304
3280000000.0 0.030457251471731714 0.09350782388684221
3300000000.0 0.017019510452192098 0.06953363343541524
3320000000.0 -0.04451815558160273 0.012201726801391017
3340000000.0 0.025520105112785088 -0.008321967674795119
3360000000.0 -0.00872641352975583 0.006353924413901056
3380000000.0 0.002746972746380237 0.004727324161160325
3400000000.0 0.01173653838489818 -0.015345355019241488
3420000000.0 -0.034408981265597584 -0.0012723988698915376
3440000000.0 0.04454761328692901 -0.015405134293199934
3460000000.0 0.0004667143602085607 -0.056368651406594764
3480000000.0 -0.0432318391583251 -0.05035211530995764
3500000000.0 -0.06770638357603216 0.0387045798386282
3520000000.0 -0.05944306767798745 0.06790335623029885
3540000000.0 0.07415289681948677 -0.07198452889269397
3560000000.0 -0.10956256787016909 -0.03722046453840066
3580000000.0 0.04509202354833291 0.12308943302756638
3600000000.0 -0.14693851500538274 -0.0351461060335913
3620000000.0 -0.15870249196207062 -0.04538622757584828
3640000000.0 -0.1055349329232912 -0.14377540439324865
3660000000.0 -0.17737646665797419 -0.062065487503953284
3680000000.0 -0.17761232137136765 -0.0721267159124614
3700000000.0 -0.17611148308081495 -0.0708787042960726
3720000000.0 -0.06058602955338962 -0.17708406538145532
3740000000.0 0.09401100911055364 -0.15436569851815227
3760000000.0 -0.149841181958144 0.08644744855724273
3780000000.0 0.1344549078596606 0.0931722732867131
3800000000.0 0.14037570696520904 -0.0694619297423279
3820000000.0 0.12441908109994555 -0.08829106045887486
3840000000.0 0.12454956375816094 -0.08265519745873366
3860000000.0 0.15040003081429104 0.005291190962175756
3880000000.0 0.12916056298856166 -0.08676466840403106
3900000000.0 -0.0941573955982474 -0.12456734253895485
3920000000.0 -0.018749704212601158 0.15867174721643723
3940000000.0 0.033966632001434356 -0.1602381872934035
3960000000.0 0.16279354007570407 0.04669092767814102
3980000000.0 0.1708571950246265 0.0013012320374159354
4000000000.0 0.1645166973750562 -0.022202962295531706
