! Created with skrf (http://scikit-rf.org).
# Hz S RI R 50.0 
!freq ReS11 ImS11
400000000.0 0.07951855105138654 0.8661928030504784
420000000.0 0.5297659394335581 0.6775344073438488
440000000.0 0.7989124323830924 -0.21486594452080054
460000000.0 0.07758085500461971 -0.7874640875979458
480000000.0 0.3934075592832137 -0.5837244563770447
500000000.0 0.5017072471493085 -0.23690190785663987
520000000.0 0.475675161281768 0.1212880424406822
540000000.0 0.03894847208199031 0.4323856073145423
560000000.0 0.23296209109214353 -0.28623416495869775
580000000.0 -0.3115074735347007 -0.16920621239873027
600000000.0 0.2777088391438916 0.2257609579276148
620000000.0 -0.35171049699638246 0.13977346335471774
640000000.0 0.40546501839353927 -0.06040518502013599
660000000.0 -0.33949348269118396 -0.23868755355439172
680000000.0 -0.30751846428005203 -0.2876471493693251
700000000.0 -0.40068203765417115 0.10073453563450926
720000000.0 -0.13169990618588057 -0.3833444067304734
740000000.0 -0.34795032778712465 0.2124861428099237
760000000.0 0.2555394004867957 0.31142397505546093
780000000.0 -0.3831146650012358 -0.007043611023435563
800000000.0 0.2678996824472259 -0.24180773125973642
820000000.0 -0.18294384999491256 -0.2484509304342992
840000000.0 0.20445421035858577 0.14400805937856143
860000000.0 -0.16447323493251867 0.12640673587675488
880000000.0 -0.09161895288359034 -0.11638303600888704
900000000.0 -0.07476484244172585 -0.025938389731504134
920000000.0 0.0053430961358497805 0.0456604259271239
940000000.0 0.02979300834992523 -0.007040249004332131
960000000.0 0.008093088399681137 0.0368214424148251
980000000.0 0.013002771206155637 0.046115501050543906
1000000000.0 -0.049729889783008255 -0.028426300047597244
1020000000.0 0.06275460177372415 0.05181485174567082
1040000000.0 0.03104067391631294 0.10002797120158272
1060000000.0 0.1486702213279322 -0.02638910634593632
1080000000.0 0.10322036486398056 -0.1411554044767876
1100000000.0 0.11608060785807411 -0.17190612766483912
1120000000.0 0.21304280581503704 0.08208780383792487
1140000000.0 -0.1183463181131221 0.22867074743584645
1160000000.0 0.19924781299364855 0.19509178614733413
1180000000.0 -0.27190659569045345 0.131519411883943
1200000000.0 0.2685849032298589 -0.18099865667239792
1220000000.0 -0.08141441726846495 -0.3393326714226649
1240000000.0 -0.3805402670846764 -0.0028836885473409305
1260000000.0 0.1838626446632408 0.3752035966152049
1280000000.0 -0.09689051985891912 -0.43273946157195287
1300000000.0 -0.015281968699194052 0.4623614865700665
1320000000.0 0.03179051851407058 -0.4613077544557708
1340000000.0 -0.407889951600765 -0.19692652081449138
1360000000.0 -0.4383468535476638 -0.017959092044412737
1380000000.0 -0.39766626115787623 0.16198487957255758
1400000000.0 -0.223162275007996 0.34452298344145676
1420000000.0 0.09075133976167261 0.37929257241171094
1440000000.0 0.14243025728421554 0.33791291853386657
1460000000.0 0.33646566774469 0.06605659927207548
1480000000.0 0.14310060537825622 -0.2837513688901456
1500000000.0 -0.27172051366249567 -0.10198230767449266
1520000000.0 -0.09519210534492258 0.2436920922036187
1540000000.0 -0.18139279406253647 -0.14077383641819632
1560000000.0 0.18966744591364015 -0.03573225917321655
1580000000.0 -0.08362993365953592 0.14251910542107082
1600000000.0 -0.04587340076749758 0.12910028003427992
1620000000.0 -0.08001489279698548 0.07532089722519224
1640000000.0 -0.02656128005356977 -0.0861655042644061
1660000000.0 -0.0660577751204142 -0.019734364754374713
1680000000.0 -0.02078828697582345 -0.044395817954238415
1700000000.0 0.015024069639623059 0.029629842930145284
1720000000.0 -0.0030475773710070923 -0.014063152570242328
1740000000.0 -0.007723082657870793 0.01501453193128166
1760000000.0 0.029731718315392664 -0.028654166016663492
1780000000.0 0.040953929022697164 -0.06501859534309698
1800000000.0 0.11447689145423545 -0.01617865224057969
1820000000.0 0.09029211978294134 -0.11803733892587885
1840000000.0 0.17058977191621477 0.058983250458025924
1860000000.0 -0.19821556135851479 0.06310430161123862
1880000000.0 0.03394617982695831 0.23436510234056146
1900000000.0 0.26105719227685165 0.07473635665256365
1920000000.0 0.06636545513284833 -0.2985901782879371
1940000000.0 -0.30584486007170714 -0.14953206107221634
1960000000.0 -0.044725620226719165 0.369197241222213
1980000000.0 0.3525402613099175 -0.18000789103777148
2000000000.0 -0.12115907187093812 -0.3973761150013218
2020000000.0 -0.3702565054995639 0.21723938442734836
2040000000.0 0.06320432342715145 0.43049881823924385
2060000000.0 0.4300469025939462 0.07423479927805073
2080000000.0 0.31657333373680613 -0.294594013087385
2100000000.0 0.13287237123475 -0.4057684254429499
2120000000.0 -0.16048343905953047 -0.38623572167670606
2140000000.0 -0.3928617396879502 -0.10811363525359546
2160000000.0 -0.17350327865556214 -0.3520906886202887
2180000000.0 -0.33988943122264537 -0.15496900837944674
2200000000.0 -0.3582606258491965 0.019859487378193996
2220000000.0 -0.3306155033138615 0.10504916479019562
2240000000.0 -0.22220854930905828 0.2624682753055483
2260000000.0 -0.041208265250136045 0.3418013533863498
2280000000.0 0.0879773952413743 0.3387107123306273
2300000000.0 0.35819057482618505 -0.07211487891793178
2320000000.0 -0.12910907667153174 -0.36681114434794887
2340000000.0 -0.31180105098514865 0.28063346349352647
2360000000.0 0.45777808059448377 0.043098056248709576
2380000000.0 -0.44722482381615164 -0.23769249654033836
2400000000.0 0.4819934453368381 0.2818304154725389
2420000000.0 -0.6108912198850884 0.011319088338655154
2440000000.0 0.47260820110721335 -0.45921908345849694
2460000000.0 -0.024259795386952096 0.6980355717908282
2480000000.0 -0.340899067199032 -0.6434650825982848
2500000000.0 0.37359654295568323 0.6481165580926873
2520000000.0 -0.20133403642508096 -0.7312454469956445
2540000000.0 -0.20345553584439588 0.7321533181710939
2560000000.0 0.6139956435030782 -0.4374768733943972
2580000000.0 -0.6954872263000451 -0.24992054574097008
2600000000.0 0.22387769561175913 0.6788814733841755
2620000000.0 0.3303173834080457 -0.5987852601698227
2640000000.0 0.07777423371591613 -0.6419309335437077
2660000000.0 -0.515046797846007 0.3114727289584895
2680000000.0 0.4981989775563417 0.2436605691045882
2700000000.0 -0.12409565844175266 -0.4926012413327169
2720000000.0 -0.2917618962539827 0.3570156360167687
2740000000.0 0.40833338723404056 -0.09559958978521661
2760000000.0 -0.3694316271345577 -0.09750334814733863
2780000000.0 0.3526991172594773 0.0081539924259181
2800000000.0 -0.30191473149737896 0.13145889702217414
2820000000.0 -0.02786413456586255 -0.31085536220368654
2840000000.0 0.2957478761727162 0.0476703487356292
2860000000.0 -0.19744338579601262 0.218468519341586
2880000000.0 -0.09586661093932541 -0.2755426133978178
2900000000.0 0.1261807561608844 0.2636440868016131
2920000000.0 0.17451349619231127 -0.23775653295549057
2940000000.0 -0.28814982235684783 -0.08616714622353167
2960000000.0 -0.22893169382189119 0.19866471801136526
2980000000.0 -0.245084397370977 0.1861957910503836
3000000000.0 -0.3112260476040813 0.012214077093833637
3020000000.0 -0.10600267367471307 -0.29372734102467224
3040000000.0 0.30760534583031307 0.03293845608235425
3060000000.0 -0.23431966687250932 0.1984235152450372
3080000000.0 0.20353044158079325 -0.22460119112930638
3100000000.0 -0.10110527408153616 0.28095946857284265
3120000000.0 -0.017728634638827834 -0.29018008110218096
3140000000.0 0.22540012746400456 0.1696182511367441
3160000000.0 -0.2647303109037076 0.04105515266859955
3180000000.0 0.17809900560001862 0.17726740498429877
3200000000.0 -0.15707471740672388 0.16623239295899261
3220000000.0 -0.18514922804113632 -0.0807814882008637
3240000000.0 0.09898828664622475 -0.13929866256200127
3260000000.0 -0.015126606230140631 0.13559164566270357
3280000000.0 0.07993655322834999 -0.06677534717099064
3300000000.0 0.006907446959745906 -0.0756465415681006
3320000000.0 0.04388249123527492 -0.0246595596295701
3340000000.0 -0.027535438583581043 -0.008573643911998727
3360000000.0 -0.010892809695569532 0.007295242198943053
3380000000.0 0.00031215934881142793 -0.0027089315379353086
3400000000.0 -0.012334823532866312 -0.012448692170348922
3420000000.0 -0.004758919399164037 0.03346201257621106
3440000000.0 -0.04186010148663683 0.024652319489508988
3460000000.0 -0.042352700860209334 -0.03962465068855108
3480000000.0 -0.0675322531377502 0.008689009666940237
3500000000.0 -0.018811049631649406 0.07732020146977323
3520000000.0 0.0870806840082174 0.02679309413160984
3540000000.0 -0.04010511236095563 -0.09563796005484505
3560000000.0 -0.0760873267166321 0.0885166504563303
3580000000.0 0.12259281658831404 0.048839525523675605
3600000000.0 -0.09508064552670752 0.12131881346210925
3620000000.0 -0.1208834986762337 0.11789173587231776
3640000000.0 -0.18091329223745412 0.0034466092479104316
3660000000.0 -0.1550916437359439 0.11319310886851161
3680000000.0 -0.1724955586756098 0.09047987358154287
3700000000.0 -0.16531487061292427 0.09813648241134885
3720000000.0 -0.12751646289027002 -0.13919959859435804
3740000000.0 0.07317485638693884 -0.16835048436403396
3760000000.0 -0.1519235317381525 0.08913497979851767
3780000000.0 0.1630214410777441 0.04319603969539955
3800000000.0 0.10686602441758115 -0.12073830069248755
3820000000.0 -0.05819770134369088 -0.1439511853276914
3840000000.0 0.010265007878893046 -0.149993132044567
3860000000.0 0.1511869740382649 -0.002198434643421555
3880000000.0 0.0843804744942508 -0.13096367050834543
3900000000.0 -0.13076728267037183 -0.08761487916451301
3920000000.0 -0.07290943570007061 0.14404793899853716
3940000000.0 0.12823920941786038 -0.10531000206406767
3960000000.0 0.10246773593234042 0.13758268887610375
3980000000.0 0.17300310243225134 0.0192595869176982
4000000000.0 0.16756729031693907 -0.01971620767267115
