! Created with skrf (http://scikit-rf.org).
# Hz S RI R 50.0 
!freq ReS11 ImS11
400000000.0 0.06533796317847981 0.8689445900345069
420000000.0 0.5381554117655835 0.6718674822247415
440000000.0 0.7855527904937527 -0.2595036715114892
460000000.0 0.0702419410327046 -0.7872972622517967
480000000.0 0.46347419146945545 -0.5300823517967524
500000000.0 0.44607613208345354 -0.3336539375979281
520000000.0 0.4856816884852123 0.03870013461037328
540000000.0 -0.12158133217190585 0.41602810025933906
560000000.0 0.2746312703084608 -0.24828151867552106
580000000.0 -0.35107524427009346 -0.051875726264248655
600000000.0 0.23838618087229324 0.26414619764132513
620000000.0 -0.3748069148354085 0.04760383930064626
640000000.0 0.40870030199187 -0.050888806104926736
660000000.0 -0.3501567037064024 -0.22371764617186968
680000000.0 -0.2860008904449197 -0.30847521448528537
700000000.0 -0.40255217509932834 0.09308333303256565
720000000.0 -0.1752624890168434 -0.36605628312885513
740000000.0 -0.3342965638353328 0.23041219996141807
760000000.0 0.2680249123470762 0.30040647317106356
780000000.0 -0.38153343856899435 -0.03449573107889768
800000000.0 0.2798358641264339 -0.22824765640432804
820000000.0 -0.1411509022545054 -0.2751798473270187
840000000.0 0.20390735081712005 0.14536939433079074
860000000.0 -0.14199903047591178 0.15085424825839097
880000000.0 -0.10602266255468862 -0.10310272764851176
900000000.0 -0.07826064163143656 0.006863716616026119
920000000.0 -0.001031587365165745 0.04626764025668321
940000000.0 0.028604108844509868 0.01141361962719274
960000000.0 0.005346208892050205 0.036426187001210864
980000000.0 0.0072910701425905255 0.047118321346872986
1000000000.0 -0.04052480287406013 -0.04022171481887965
1020000000.0 0.04669782676347705 0.06591758146258377
1040000000.0 0.03671541980461052 0.09840628281583334
1060000000.0 0.12716649674873642 -0.08183673346559839
1080000000.0 0.0379721382546177 -0.17079030596558675
1100000000.0 0.091917384511923 -0.18593988130027145
1120000000.0 0.21472294770833142 0.07917794922129398
1140000000.0 -0.15870361737346708 0.20317459648110722
1160000000.0 0.12825560115455284 0.24769876287234854
1180000000.0 -0.3020498087472197 0.012346034988427507
1200000000.0 0.30715325470756466 -0.10506196064345383
1220000000.0 0.006226214485351854 -0.3494225743116859
1240000000.0 -0.37410531910482947 -0.07558803020925271
1260000000.0 0.11927401252041205 0.40044721694200885
1280000000.0 -0.06049524278837054 -0.43936187586428227
1300000000.0 -0.03308846294650693 0.46123152048952093
1320000000.0 0.03736985005881424 -0.46038896843280447
1340000000.0 -0.42001251080359314 -0.16898562409055293
1360000000.0 -0.4370360287549517 0.033374964015231
1380000000.0 -0.3689025612313754 0.21804631328973312
1400000000.0 -0.17988183793556656 0.3678114579159051
1420000000.0 0.13386128239140604 0.36519409875222686
1440000000.0 0.160892757638739 0.32920025015273086
1460000000.0 0.3338034532979369 0.08044848263451591
1480000000.0 0.13403783569224786 -0.28942409663869245
1500000000.0 -0.2532878818525137 -0.14690185748940557
1520000000.0 -0.1251285209971926 0.23247373238444172
1540000000.0 -0.16094493232690757 -0.16682403589947747
1560000000.0 0.1876906825113338 -0.05203056589638644
1580000000.0 -0.0910804985907446 0.1398683038170547
1600000000.0 -0.08585307271325077 0.10765155744582969
1620000000.0 -0.10553657463344128 0.028695497362886447
1640000000.0 0.030685102726791442 -0.08332527854782741
1660000000.0 -0.05695086534861513 -0.036191574158933114
1680000000.0 -0.007539704496926237 -0.046609783712450295
1700000000.0 0.031868746615535355 0.004665457763805869
1720000000.0 0.013743102359897534 -0.0043852447880319
1740000000.0 0.01717382148194889 -0.004661040193273816
1760000000.0 0.014650413927493368 0.037936021733921035
1780000000.0 0.07589667472811812 -0.0047265888499948205
1800000000.0 0.10994270930772043 0.031854794149418435
1820000000.0 0.10590129443377837 -0.10163276547597845
1840000000.0 0.17270912585042753 0.04528231428858744
1860000000.0 -0.18550594634333686 0.09035025157499914
1880000000.0 0.05871177740450661 0.2280556624031536
1900000000.0 0.2692933790020149 0.027871995098177157
1920000000.0 0.008414584360585555 -0.30511565989661765
1940000000.0 -0.3284366515928443 -0.09094496518497447
1960000000.0 0.0033959010401579982 0.3726454803881972
1980000000.0 0.33960520040616493 -0.2059166775675087
2000000000.0 -0.11946131081589188 -0.39950374692599705
2020000000.0 -0.3781057476200852 0.20481648124912508
2040000000.0 -0.004897075251897305 0.43573958645915034
2060000000.0 0.41858363123933673 0.12468134580820588
2080000000.0 0.35874066671447474 -0.24274058030722828
2100000000.0 0.20975599475728243 -0.37219021880769976
2120000000.0 -0.0218822671810808 -0.4181870147139888
2140000000.0 -0.36119981518729877 -0.18792368565797368
2160000000.0 -0.09440249406408661 -0.38042831011044864
2180000000.0 -0.30355904940629064 -0.21736341552886987
2200000000.0 -0.3571245547986389 -0.032514317349158994
2220000000.0 -0.3471861453532359 0.0031889582969162476
2240000000.0 -0.27040541172781674 0.21091604090157484
2260000000.0 -0.10229364409806463 0.32817882741262755
2280000000.0 0.0463340843209393 0.34564671421108933
2300000000.0 0.3609641246196673 -0.050593442585601056
2320000000.0 -0.14240730573358867 -0.36106265880026434
2340000000.0 -0.3179908371396927 0.27289920524110356
2360000000.0 0.4559534407950405 0.05569856253685052
2380000000.0 -0.4437892378536437 -0.24336692181083444
2400000000.0 0.46987636472574057 0.30159907407640424
2420000000.0 -0.6109617056738318 0.0014715871042138803
2440000000.0 0.4784725855004614 -0.454088923510313
2460000000.0 -0.09790596653255078 0.6925072016990675
2480000000.0 -0.1992816280147322 -0.7024268573060944
2500000000.0 0.3079210530037224 0.6832070972091213
2520000000.0 -0.09078590946326645 -0.7543570017827653
2540000000.0 -0.28277019774561585 0.7067349419333405
2560000000.0 0.6587354091779382 -0.3682671406689098
2580000000.0 -0.6566912785856586 -0.3417722663071857
2600000000.0 0.1457876071581589 0.701656920432484
2620000000.0 0.47613763946756155 -0.4941155064163191
2640000000.0 0.09909461265253318 -0.6409560199672416
2660000000.0 -0.5446309986866398 0.2596692302646399
2680000000.0 0.4997293844564579 0.2439164261435822
2700000000.0 -0.11660695972681417 -0.4957640501397415
2720000000.0 -0.2982400039049413 0.3530835857981168
2740000000.0 0.41702625922327424 -0.04905219644565871
2760000000.0 -0.35312747723184024 -0.14641184609097654
2780000000.0 0.3520739186649942 0.02500274749823875
2800000000.0 -0.2875247086980155 0.16034295419062822
2820000000.0 -0.06304900226822649 -0.3051314618228876
2840000000.0 0.29949322228755276 0.01480675664299425
2860000000.0 -0.13254809600011977 0.2628005612179121
2880000000.0 -0.1479079940050312 -0.25153816492130715
2900000000.0 0.16698663072066205 0.24024176445573867
2920000000.0 0.11170210209025236 -0.27387601571150544
2940000000.0 -0.3015528140007091 -0.02108006438106751
2960000000.0 -0.1896815451818776 0.2391474681369133
2980000000.0 -0.2635730231528603 0.1631093379985557
3000000000.0 -0.3056958759575521 -0.06428854753973302
3020000000.0 -0.047652358782549906 -0.30942174183845444
3040000000.0 0.2924022059964563 0.10388029217636363
3060000000.0 -0.27933656777016025 0.1312969538233447
3080000000.0 0.23508958828498594 -0.19312589238349917
3100000000.0 -0.1743761439394138 0.2430660946739116
3120000000.0 0.024499902706378984 -0.29034854365453105
3140000000.0 0.13896287666465632 0.24572591259895427
3160000000.0 -0.2545325893406278 -0.08318669166176226
3180000000.0 0.12344787247565586 0.21827076974861195
3200000000.0 -0.19587030992673995 0.11646110164198978
3220000000.0 -0.1480860121134691 -0.13496534014573608
3240000000.0 0.11196740239989773 -0.1276873276806807
3260000000.0 -0.024437835087591866 0.13273890084101275
3280000000.0 0.08192790095733643 -0.061141492007848915
3300000000.0 0.011306408933974187 -0.07313760937330355
3320000000.0 0.028984828727566664 -0.03879357011060285
3340000000.0 0.023785581410350507 0.013421724584033831
3360000000.0 0.010675017124998194 -0.005174501560289429
3380000000.0 0.0038732560568719375 0.0007239152667203374
3400000000.0 0.018695437947342873 -0.00297241561415723
3420000000.0 -0.02674104439631184 -0.023346719459151975
3440000000.0 -0.038892312496707944 -0.03143374413067132
3460000000.0 0.05248197787271107 -0.025735723561288643
3480000000.0 -0.021054297317797118 -0.06504843119412522
3500000000.0 -0.04939621427622809 0.062176383587614785
3520000000.0 0.039033466391431744 0.08239326525982389
3540000000.0 0.04764839552253664 -0.0930562812827907
3560000000.0 -0.11664456632692455 0.00887626840286507
3580000000.0 0.10210651130388176 0.08489363208417311
3600000000.0 -0.14417448478076633 0.0531781060649874
3620000000.0 -0.16574211793698249 0.032905014229341785
3640000000.0 -0.16994688718435447 -0.06115310862044386
3660000000.0 -0.18057452162125046 0.061304362905735536
3680000000.0 -0.17290119829186923 0.08747284183051679
3700000000.0 -0.17710899114774076 0.07255361169263656
3720000000.0 -0.1041479597815225 -0.15707536815669643
3740000000.0 0.0940363410968597 -0.15675305219767666
3760000000.0 -0.15331292252522266 0.0856804527303408
3780000000.0 0.16151123255752023 0.04641804885215471
3800000000.0 0.07635388582058163 -0.14062222566615867
3820000000.0 -0.03043673844423099 -0.15184999430415874
3840000000.0 0.00110415282559324 -0.1492958013158908
3860000000.0 0.14801203003644045 -0.02375113648137222
3880000000.0 0.11955866233749139 -0.09840799771179883
3900000000.0 -0.07509644646725099 -0.13601784451852375
3920000000.0 -0.13082020635090075 0.09128637064747362
3940000000.0 0.15845205251177008 -0.043967444043645165
3960000000.0 0.07089469262889668 0.15463965774348679
3980000000.0 0.1642346904938085 0.05271541344465272
4000000000.0 0.16693248454953108 0.02163270211837596
