! Created with skrf (http://scikit-rf.org).
# Hz S RI R 50.0 
!freq ReS11 ImS11
400000000.0 -0.8598206227333789 -0.044660137955557996
420000000.0 -0.0821339648013945 0.859625528609532
440000000.0 0.767343622777667 0.33105648663129267
460000000.0 0.7721911483856025 -0.1640532804559135
480000000.0 0.25813703842098035 0.6876352148270928
500000000.0 -0.15162918277956372 -0.5779545558900138
520000000.0 -0.4423997149863727 0.2647552965439626
540000000.0 -0.4307973893778071 0.08393957306893197
560000000.0 0.34578488411511404 0.16895270252406386
580000000.0 0.030208045895632293 0.33191041409284083
600000000.0 0.16991399046667374 0.29834706103168485
620000000.0 0.022213351771704734 0.34270910451296666
640000000.0 -0.25853810526969717 -0.23560632841988102
660000000.0 -0.03481130339650472 -0.36929947036988003
680000000.0 -0.1578208879669806 0.3526970864706898
700000000.0 -0.10592317679490715 0.40105310601287836
720000000.0 0.08497537229884176 0.4097933350920873
740000000.0 -0.3999835173776917 -0.16664890243033373
760000000.0 0.39162260800703064 -0.1418452079776511
780000000.0 -0.3201160210250172 0.217395357336121
800000000.0 0.09503983898879512 -0.341085976771304
820000000.0 0.2863592221013053 0.09052034804275347
840000000.0 -0.2565029067640108 -0.019736992722704946
860000000.0 0.0009657148281583734 -0.20470674912949577
880000000.0 -0.16391855124914706 0.029813738203026165
900000000.0 0.055735816684976736 -0.07633289594208101
920000000.0 0.03935699161490009 -0.038356095424417355
940000000.0 -0.03983599786585403 0.021179482917530426
960000000.0 -0.03771662546551213 -0.033226197428002334
980000000.0 0.06128511883566122 0.019595422748630974
1000000000.0 -0.05707030386243834 0.05747763386347127
1020000000.0 0.044992159653423264 0.08706835521856786
1040000000.0 0.06536093159549045 -0.09819252637620787
1060000000.0 -0.051300598960649764 -0.14163223346917378
1080000000.0 0.12043855297474429 -0.12348543502932782
1100000000.0 0.08802523855343737 0.16574681481683007
1120000000.0 0.1994732682122973 0.05872665034820205
1140000000.0 -0.23903281586257485 -0.008531576532431782
1160000000.0 -0.03130643292286361 -0.26879496030279826
1180000000.0 0.046033518924008324 -0.3049367349976401
1200000000.0 0.24046746772114133 0.2303510597100304
1220000000.0 -0.33461079428816365 -0.14347842541432718
1240000000.0 -0.1240171389503064 0.3647193178877392
1260000000.0 0.3918890654404635 -0.1508048390824705
1280000000.0 -0.4324626041328794 -0.04952099869605732
1300000000.0 0.2945328633169516 0.34166862563366174
1320000000.0 0.2153740380654383 -0.3923595114088045
1340000000.0 0.24283227471527905 -0.3753451939978345
1360000000.0 -0.02818488605316199 -0.4391828873995348
1380000000.0 -0.23881711231677125 -0.36654236643459975
1400000000.0 -0.24439506794548504 0.34279695931403703
1420000000.0 0.1743919441922735 0.36256497829199646
1440000000.0 0.2948260909360827 -0.23357355252846573
1460000000.0 0.08917398234477106 -0.3324900684959904
1480000000.0 -0.29518609677784574 -0.10917168563082681
1500000000.0 -0.2513448941799152 0.13246481657952566
1520000000.0 -0.11011270471081318 0.2295579957474686
1540000000.0 -0.032230198086329105 -0.2251001567354749
1560000000.0 0.19464582181111148 -0.020117007930140155
1580000000.0 -0.005480815625680182 0.1659786216025236
1600000000.0 0.1340409045772539 -0.03320808167092895
1620000000.0 0.10068326428424376 -0.03410255504976319
1640000000.0 -0.06297447952774397 0.05315950301142319
1660000000.0 -0.05589395065675578 -0.019705259402158278
1680000000.0 -0.015534713637071698 -0.03580272365417714
1700000000.0 -0.021729974372729305 -0.011591265938039318
1720000000.0 -0.006077456637446423 -0.0007913471698482983
1740000000.0 0.01172586464695247 -0.007217653097780221
1760000000.0 0.028114507241996177 -0.01778460438483119
1780000000.0 0.06029623793948243 0.02486743121714107
1800000000.0 -0.06717928528479357 0.0746899279125265
1820000000.0 0.13041909572610533 -0.018566876761210212
1840000000.0 -0.10519697388308838 -0.12800608150357368
1860000000.0 0.0892209615822606 0.18078221108086812
1880000000.0 0.181931463031019 -0.15381839214659335
1900000000.0 -0.280488408704891 -0.02939251216031651
1920000000.0 0.31742750688126925 -0.03989506963499756
1940000000.0 -0.3257706657391844 -0.13875366260434432
1960000000.0 0.24807185027754816 0.2914676524482138
1980000000.0 0.039875162936142634 -0.40042855484885614
2000000000.0 -0.41927808143058143 -0.023757086485907904
2020000000.0 0.08398290765341399 0.42054426132220457
2040000000.0 0.4127883545639251 0.1324716163403878
2060000000.0 0.2566932064393464 -0.34677736443916674
2080000000.0 0.09879590302140792 -0.41364529240624837
2100000000.0 -0.05495860189759073 -0.4134800768953053
2120000000.0 -0.04470117436689004 -0.4080302037419693
2140000000.0 -0.20512624905137267 -0.3461738191848296
2160000000.0 0.2814767120727427 -0.2740461628138266
2180000000.0 -0.023044349177793796 -0.3817361785667893
2200000000.0 -0.31853460324373817 -0.1929029416696718
2220000000.0 -0.3070259392598826 0.19627615911724802
2240000000.0 0.14050472833513028 0.32993130519595987
2260000000.0 0.3507641613737222 0.06893077303057656
2280000000.0 0.2620129355485251 -0.24372052608781927
2300000000.0 -0.07098530388125032 -0.362789481651581
2320000000.0 -0.38774326164823164 -0.04978133907818379
2340000000.0 -0.1254810986277888 0.40344100990577664
2360000000.0 0.4257666675806089 -0.17981933108582937
2380000000.0 -0.5089921692282044 0.04364628482423777
2400000000.0 0.5430371081499824 -0.14588440515264406
2420000000.0 -0.36881771536611757 0.4906876765242704
2440000000.0 -0.1304224822262214 -0.6473274638268887
2460000000.0 0.592797910043249 0.36831341069273843
2480000000.0 -0.7261004299313616 0.008967658589080538
2500000000.0 0.7391602015836336 -0.08544237910644814
2520000000.0 -0.7512965145771909 -0.05183959413927712
2540000000.0 0.6375546735791077 0.4021754480646655
2560000000.0 -0.218959866557106 -0.7139608654882003
2580000000.0 -0.5353333490113336 0.49804319978660594
2600000000.0 0.7015195540106665 0.08107384868917912
2620000000.0 -0.3141620668186223 -0.5993457960427694
2640000000.0 -0.5183316452617066 -0.3759124877724976
2660000000.0 -0.05985794142623995 0.593201837237665
2680000000.0 0.5057295384512434 -0.21822913745639844
2700000000.0 -0.46516366326155223 -0.19595081710492465
2720000000.0 0.30005418644335036 0.34524084582784814
2740000000.0 -0.040406689039427963 -0.4111718263749806
2760000000.0 -0.1650483264336227 0.3353282497783036
2780000000.0 0.14392791580036102 -0.3090041502895297
2800000000.0 -0.22976140337263773 0.21379132516990618
2820000000.0 0.16544564456492064 -0.24584968185782816
2840000000.0 -0.09350793678140465 0.2716079341903396
2860000000.0 -0.04188845743498362 -0.28167793081072445
2880000000.0 0.2319973149330936 0.17121720718459943
2900000000.0 -0.29024507366537283 0.025788447071166367
2920000000.0 0.29546474969533837 0.0393059640126849
2940000000.0 -0.2761427302339363 -0.12946864660262367
2960000000.0 -0.062166079976377235 0.30058090238464763
2980000000.0 0.23014077690748366 0.2048983768776514
3000000000.0 0.09540674387189169 0.2917958024598599
3020000000.0 -0.24670129242884878 0.17875052440982822
3040000000.0 0.038261554154041644 -0.296257195854358
3060000000.0 -0.05933650622691808 0.28974380940586
3080000000.0 0.12933809335664861 -0.2625724542505621
3100000000.0 -0.12181538493999251 0.2636515199992092
3120000000.0 0.17616765131521217 -0.2232503337914667
3140000000.0 0.05289263819561216 0.2728380403123214
3160000000.0 -0.1995113999598665 -0.17522060343289012
3180000000.0 0.05517947352473251 0.2441851730150311
3200000000.0 -0.2192006428969847 0.06576988470027112
3220000000.0 -0.1419942864774674 -0.14727083965812796
3240000000.0 0.04151168284541254 -0.16960613061954025
3260000000.0 0.13686390532915332 0.031600043695784286
3280000000.0 -0.04236997308578489 0.09760029230008123
3300000000.0 -0.00143263519896003 -0.0732645887641165
3320000000.0 -0.03671731356913683 -0.0242453578093308
3340000000.0 -0.01894450482676028 0.005783424467556999
3360000000.0 0.00362926435566998 -0.001299703383002653
3380000000.0 -0.008244767349801117 -0.006821205117934975
3400000000.0 -0.0075283069892747205 -0.018635447591881547
3420000000.0 -0.025804200296979083 -0.013885310282414038
3440000000.0 -0.02101496217749196 -0.03364754038568639
3460000000.0 0.041221035274140436 0.027074490653324963
3480000000.0 -0.061386749381202886 0.011202814265730141
3500000000.0 -0.06600657077191172 0.04376106726564496
3520000000.0 0.0276782039248517 -0.09204451062823049
3540000000.0 0.11248126351126368 -0.000914903484409477
3560000000.0 -0.01028237363284598 0.12512704384103987
3580000000.0 -0.06495919494743366 -0.12056060004975988
3600000000.0 0.15226778906518335 -0.026792057374168034
3620000000.0 0.14277200664859294 0.08017151904726484
3640000000.0 -0.08508344960329073 0.15251521211556024
3660000000.0 -0.17584335874019144 -0.0503404647826831
3680000000.0 -0.002862828012615967 -0.18892072843982108
3700000000.0 0.15083295738348035 -0.11550442512986933
3720000000.0 0.1407631596655716 0.13071116460007415
3740000000.0 0.0960299936302938 0.16256026687049815
3760000000.0 -0.15888239702847023 -0.09184782622376257
3780000000.0 0.16559009077038803 -0.05490562563554843
3800000000.0 -0.12307313254144354 -0.10721810759340211
3820000000.0 -0.15255613076351196 0.0055098317692209775
3840000000.0 0.07004060939214418 -0.12620788490147633
3860000000.0 -0.05496284570066892 0.13387145894160346
3880000000.0 -0.15311514373727428 -0.007046095500109106
3900000000.0 -0.027980965400197847 0.1572426855147253
3920000000.0 0.11712562670799441 -0.12015206590040545
3940000000.0 0.14721255230250674 0.09415336477118204
3960000000.0 0.14837547935597337 0.10111973500453045
3980000000.0 -0.013194155065527168 -0.17760044609514145
4000000000.0 -0.11887878581968604 -0.11740542204371392
