! Created with skrf (http://scikit-rf.org).
# Hz S RI R 50.0 
!freq ReS11 ImS11
400000000.0 -0.692538450288037 0.4973324454303572
420000000.0 -0.2266919036176417 0.8316150566011599
440000000.0 0.6995889247392872 0.45224431500019935
460000000.0 0.669030207577478 -0.43548136472215393
480000000.0 0.6308679763665929 0.3832162359744693
500000000.0 -0.5373675186391089 0.24855909048602695
520000000.0 -0.32789683002509856 0.3666600146266609
540000000.0 0.2783831508062282 -0.32772461021463717
560000000.0 -0.14473009218178082 0.33558849457722256
580000000.0 0.14619338604334825 -0.30552648043334657
600000000.0 -0.3139036219077011 -0.1136719860997384
620000000.0 0.32858609738120187 0.12547962810864963
640000000.0 0.37095882461605595 0.0423331461401184
660000000.0 0.37821237415617165 -0.09954236527325938
680000000.0 0.09874901953124826 0.40097328909117286
700000000.0 0.4005632575514864 -0.14218781504198796
720000000.0 -0.015031571729581776 -0.4235486651881993
740000000.0 0.27206126065698844 0.31333680334590513
760000000.0 0.33556845057055135 -0.21486416820784943
780000000.0 -0.23359958701936107 0.28820871765069855
800000000.0 0.3374120428789691 0.06292091448560123
820000000.0 -0.06745149581236833 0.29531665755864955
840000000.0 -0.07068189211182302 -0.2497359809605743
860000000.0 0.11105605045552112 -0.1860029931030176
880000000.0 -0.07805184952628223 0.15113352753266424
900000000.0 0.015167744613151077 -0.10793509088750354
920000000.0 -0.01006393470724605 0.06546305020906613
940000000.0 -0.033788732756473844 0.03767955126530876
960000000.0 0.05280398375081131 0.022920448784513422
980000000.0 -0.064122793329118 0.037946161150556594
1000000000.0 0.06904005352258455 0.041855880968926264
1020000000.0 -0.09741371900212203 0.014018905140169449
1040000000.0 -0.08783809727319458 -0.05762124549262059
1060000000.0 0.06576362437140855 0.12358391780400964
1080000000.0 -0.10279475833394756 -0.11427712215718545
1100000000.0 -0.17449111207604967 -0.03225252608574947
1120000000.0 -0.09593261150729607 0.17410766651394877
1140000000.0 0.13447410884762473 0.19356192492411045
1160000000.0 0.174096018052924 0.21145319646231617
1180000000.0 0.10295762568590176 0.29466901597340367
1200000000.0 -0.07415188244056622 0.33818395731352124
1220000000.0 -0.13050621791010775 -0.3517124567441874
1240000000.0 0.22257917607040215 0.33310890955154426
1260000000.0 -0.03908338862928597 -0.4239536843992916
1280000000.0 -0.1257917169182256 0.4232471942883072
1300000000.0 0.4070368295735451 -0.18814778412936384
1320000000.0 -0.2716379523948539 -0.3506622365632446
1340000000.0 -0.18615965798437373 -0.39491525406805833
1360000000.0 0.07332515957959906 -0.4241701788190995
1380000000.0 -0.05413118956921788 -0.42565428525856847
1400000000.0 -0.417635206342142 0.011939081645209855
1420000000.0 -0.09405455737818813 0.38955908868449896
1440000000.0 0.35690535228030784 0.11291490302790921
1460000000.0 0.29355371869032104 -0.1809919940837872
1480000000.0 -0.09556989371494361 -0.3022590139935544
1500000000.0 -0.276575993227954 -0.07626475697571834
1520000000.0 -0.21972096601697108 0.14336915436297434
1540000000.0 -0.030788790129945114 -0.2335698078021309
1560000000.0 0.06581363623764105 -0.19094151536880036
1580000000.0 0.11493562574642134 -0.12724793962496542
1600000000.0 -0.1286516217309994 -0.05273151167774127
1620000000.0 -0.0996394541931335 0.032913220402537115
1640000000.0 -0.027791181915029828 -0.07498679341472507
1660000000.0 -0.049240761554714615 -0.02262822873776844
1680000000.0 -0.027533098771334592 -0.012901882255353886
1700000000.0 0.013833568092230327 -0.003872004742254183
1720000000.0 0.003881105887873256 0.004607979220384653
1740000000.0 -0.005528940378963896 0.019931662765357187
1760000000.0 0.00360860803790501 -0.036421923955918846
1780000000.0 -0.058206205292060484 -0.03019815137776638
1800000000.0 0.03597558660922729 0.09130209878066174
1820000000.0 0.12745334877727474 0.02654212572326841
1840000000.0 -0.14757873899965696 -0.08042070994432951
1860000000.0 0.16261768117697928 0.12542626023824813
1880000000.0 -0.14732873579410122 -0.19579023899093506
1900000000.0 0.15869626619832883 0.2374333729505426
1920000000.0 -0.12704643334407908 -0.29453816092623963
1940000000.0 -0.1685455461805332 0.3072026589025253
1960000000.0 0.3764580410699174 -0.01817879544114519
1980000000.0 -0.08920759485780942 -0.3851810973170299
2000000000.0 -0.34640167514112374 -0.2249230999958341
2020000000.0 -0.3264879894722168 0.2752579176457944
2040000000.0 0.016622680318712196 0.43528426236917755
2060000000.0 0.43437784169291066 0.06400228788046339
2080000000.0 0.26653734565959797 -0.3443552405380089
2100000000.0 -0.09498413283851563 -0.4177985249556531
2120000000.0 -0.3094125615064669 -0.2828037644686672
2140000000.0 -0.40779565038821175 -0.007727640762098257
2160000000.0 -0.2359776276045161 -0.31387200108359037
2180000000.0 -0.37068164683386506 -0.0657033811212905
2200000000.0 -0.3242505696181885 0.16377135852132407
2220000000.0 -0.1624454384801792 0.3122404593184391
2240000000.0 0.061799569109453174 0.34381681917592816
2260000000.0 0.2745278114930622 0.21861206156263782
2280000000.0 0.3375919283351813 -0.11926599901095326
2300000000.0 -0.16998882896062997 -0.3317486095403285
2320000000.0 -0.30568253262567824 0.25342947879407063
2340000000.0 0.41301111003942415 0.11652663229469232
2360000000.0 -0.3348664876625096 -0.32899890574137874
2380000000.0 0.3425626309208964 0.38476309925877256
2400000000.0 -0.4377897809302545 -0.35562727256228155
2420000000.0 0.6049823503563639 0.09831635478420353
2440000000.0 -0.5679460043114634 0.33056671686054523
2460000000.0 0.2953614766089827 -0.6270349022803672
2480000000.0 -0.039248579741907416 0.7179382329139823
2500000000.0 0.10871554301020848 -0.7272457488541628
2520000000.0 -0.402917568402853 0.6239238090238778
2540000000.0 0.6888995321470471 -0.274354052109001
2560000000.0 -0.6221589541450299 -0.3882221482197007
2580000000.0 -0.0820647263770643 0.7102030375248791
2600000000.0 0.6447493782719397 -0.24273418658689086
2620000000.0 -0.4744778097905496 -0.4553775039107346
2640000000.0 -0.5458980696130636 -0.2936373655428668
2660000000.0 -0.11538821210271082 0.5642110515757608
2680000000.0 0.5240736310198527 -0.08093890015176228
2700000000.0 -0.29708219805655256 -0.38403124725032356
2720000000.0 -0.05936866210944937 0.4366652887188919
2740000000.0 0.3247046553029294 -0.23264635613675513
2760000000.0 -0.3579770752993084 0.05868413191754944
2780000000.0 0.32929023511603683 -0.04608371742222297
2800000000.0 -0.2836250301569728 0.1222126128952987
2820000000.0 0.14998415291760905 -0.2510050162983608
2840000000.0 0.06160948710532932 0.27658216706260175
2860000000.0 -0.23257535044625788 -0.15903655676632983
2880000000.0 0.2531883727977833 -0.12894095992950025
2900000000.0 -0.14992186790177456 0.24605508343973992
2920000000.0 0.1874631446946788 -0.22582443876832523
2940000000.0 -0.2917461418336505 0.06440746083393187
2960000000.0 -0.04304587960258109 0.296227230905633
2980000000.0 -0.04582460768964687 0.2983848320417515
3000000000.0 -0.23786320270086386 0.18700618451740494
3020000000.0 -0.17012175504782043 -0.24921983146493562
3040000000.0 0.28758859160381967 0.08272758994180208
3060000000.0 -0.29884892575615163 -0.00535346977366415
3080000000.0 0.29642592340413054 -0.005526689047044858
3100000000.0 -0.28955751155130743 0.04384496388672045
3120000000.0 0.2246177421940763 -0.17811983481245502
3140000000.0 -0.06428797289738208 0.27184759524161545
3160000000.0 -0.2152983078584448 -0.1549862143525057
3180000000.0 0.07858731485003446 0.23594231466488852
3200000000.0 -0.1628892877295373 0.15428856294707105
3220000000.0 -0.16093924132031123 -0.11203186697962893
3240000000.0 0.12598540051726567 -0.10499789613505298
3260000000.0 -0.12123243211762817 0.0464917380442779
3280000000.0 0.004173322159625274 0.09860967438611032
3300000000.0 -5.7968907302490704e-05 0.07203364583380675
3320000000.0 -0.046518013570775806 -0.0020602463118617907
3340000000.0 0.026662212324571433 0.004035004108122826
3360000000.0 -0.005455740323411093 -0.009294453442567291
3380000000.0 0.0025539428283779904 0.004992306868404849
3400000000.0 0.00694735574370496 -0.017997386443139758
3420000000.0 -0.028548039988025138 0.01962116656217924
3440000000.0 0.030318936947481143 -0.03611123770073434
3460000000.0 -0.00267259981102315 -0.056411809390103214
3480000000.0 -0.058015975872253885 -0.03208616225566646
3500000000.0 -0.06787405302825837 0.03762948463074364
3520000000.0 -0.05258292175427182 0.07327358084914316
3540000000.0 0.08864544389498362 -0.05218065340531383
3560000000.0 -0.1130546387468229 -0.026659543982857994
3580000000.0 0.04636458858365336 0.12254802316468856
3600000000.0 -0.15170672112729425 0.0018939065941627063
3620000000.0 -0.16502490386004784 -0.013235101791089436
3640000000.0 -0.12273938963853218 -0.12990857194912628
3660000000.0 -0.18413525787871887 -0.04016792572784234
3680000000.0 -0.18071753758530004 -0.06426948533015314
3700000000.0 -0.1741206330864618 -0.07637472615148662
3720000000.0 -0.051060976740138375 -0.17987276659604248
3740000000.0 0.09084467262066352 -0.15651703290259147
3760000000.0 -0.1580545782067281 0.07100380488550916
3780000000.0 0.12566997827308157 0.10560648850454074
3800000000.0 0.14846448509557958 -0.051654516167788184
3820000000.0 0.1251414086953661 -0.08844680261258805
3840000000.0 0.12142076191667793 -0.0877083305242368
3860000000.0 0.1502506988581154 -0.009302983490681007
3880000000.0 0.12654538464230738 -0.09011275275348334
3900000000.0 -0.10631670427056195 -0.1145077453614671
3920000000.0 -0.03330551520224573 0.15607438508275864
3940000000.0 0.06941317558425641 -0.14911363040252834
3960000000.0 0.1545458992735485 0.06929049001235404
3980000000.0 0.16658611800295783 0.03817821223085105
4000000000.0 0.165577726796628 -0.008398759231833527
