! Created with skrf (http://scikit-rf.org).
# Hz S RI R 50.0 
!freq ReS11 ImS11
400000000.0 0.056107335331091135 0.8680081405593653
420000000.0 0.5230492276509568 0.6825825745979975
440000000.0 0.7983964979049744 -0.21641777691559894
460000000.0 0.0802589814143004 -0.7872145328498684
480000000.0 0.39004106636945063 -0.5864351060658968
500000000.0 0.4810278971299463 -0.27631650938776553
520000000.0 0.46180722278130076 0.1624021764499206
540000000.0 0.02789870462901952 0.4342850096289993
560000000.0 0.20123655404023144 -0.30960066958660915
580000000.0 -0.31687877793226715 -0.15781873418563114
600000000.0 0.23715546688628633 0.2679020931912854
620000000.0 -0.3596567657195852 0.11949741546178787
640000000.0 0.4041103041922681 -0.07123827416489134
660000000.0 -0.352023585222815 -0.21909895844307756
680000000.0 -0.2827134694975057 -0.31120832615699423
700000000.0 -0.40339061034624213 0.09162471313202297
720000000.0 -0.1468435316138456 -0.3779296170035962
740000000.0 -0.34047689741620085 0.22326327333052143
760000000.0 0.24884861708931455 0.31658371811157493
780000000.0 -0.3824203214585424 -0.020046790011693075
800000000.0 0.25974723941556616 -0.2507752981097228
820000000.0 -0.1881126974103928 -0.24476458183651753
840000000.0 0.19392084393804512 0.15815626484767314
860000000.0 -0.171930997234252 0.11605627408897175
880000000.0 -0.08956913994464019 -0.11783237816493335
900000000.0 -0.0716931964437609 -0.032331995429926486
920000000.0 0.01035372777923924 0.04489469563556912
940000000.0 0.029231657931430195 -0.008840843620066022
960000000.0 0.01018021579164966 0.035779767856051574
980000000.0 0.01993304403358817 0.04344354373900365
1000000000.0 -0.05415967522659489 -0.016944943049438953
1020000000.0 0.0654461398038034 0.04820471229088158
1040000000.0 0.04300205395091509 0.09549813216559594
1060000000.0 0.14878090006940758 -0.026823569672536563
1080000000.0 0.09331407176085696 -0.1481340911864698
1100000000.0 0.12585273051146165 -0.16493760060227816
1120000000.0 0.21126656488483786 0.08643380675031241
1140000000.0 -0.12040797620430124 0.22751372468556594
1160000000.0 0.18888883680622964 0.20508585120259706
1180000000.0 -0.2787514708514973 0.1159707062122647
1200000000.0 0.27395649500117125 -0.17283368786711054
1220000000.0 -0.07007875985585227 -0.34179226900800247
1240000000.0 -0.38048029330086847 -0.004316429351708325
1260000000.0 0.18485057171922264 0.3746724217444693
1280000000.0 -0.09856464480846791 -0.432636471340637
1300000000.0 -0.004590574083287338 0.462668427340031
1320000000.0 0.03110912933641643 -0.46125660891325604
1340000000.0 -0.41113529037909957 -0.19071306001704863
1360000000.0 -0.4387157198862208 -0.010127335400803184
1380000000.0 -0.39275858207704034 0.17344762880612918
1400000000.0 -0.21576091340413833 0.3491847774495939
1420000000.0 0.09004759681380295 0.37938078543113624
1440000000.0 0.14573416731316982 0.33655477514408155
1460000000.0 0.33593914661805063 0.06925777568540772
1480000000.0 0.15621486559337952 -0.27678232400411207
1500000000.0 -0.26967057438421727 -0.10826459262289713
1520000000.0 -0.12278787297460936 0.23177698817017062
1540000000.0 -0.17465260006004468 -0.1491039213750083
1560000000.0 0.1870029664268016 -0.04811830243733403
1580000000.0 -0.07398455339847067 0.14776404957165187
1600000000.0 -0.012294915420341045 0.13642115560211704
1620000000.0 -0.08514194794914012 0.06907498785057561
1640000000.0 -0.021821163587042038 -0.08726966659459101
1660000000.0 -0.06670124620561989 -0.016962736762817846
1680000000.0 -0.015915689095697745 -0.04610671494374028
1700000000.0 -0.0025351354707929515 0.03280904872812075
1720000000.0 -0.014299072064057883 -0.0033443218070960553
1740000000.0 -0.016109773057704942 0.004932168160182594
1760000000.0 0.04012680978325224 -0.007595582908315348
1780000000.0 0.03846360941799796 -0.06651306459526067
1800000000.0 0.11444028167877142 -0.015700058217126153
1820000000.0 0.08676670831277428 -0.12042782732199012
1840000000.0 0.1667124157804606 0.06857096577428823
1860000000.0 -0.20022508159199914 0.056248808254125225
1880000000.0 0.03200570564533514 0.23462965697993923
1900000000.0 0.2635300918180429 0.06526924210703224
1920000000.0 0.06796148635210862 -0.29815238115369685
1940000000.0 -0.30390116498884373 -0.15348198161030782
1960000000.0 -0.041295120890192896 0.36968208879898856
1980000000.0 0.352194964486796 -0.18093687236713163
2000000000.0 -0.11713749510936716 -0.39872218088048395
2020000000.0 -0.3767119350991768 0.20617960586907413
2040000000.0 0.05527001735357179 0.4315324176877921
2060000000.0 0.4246994010389094 0.10141423939039873
2080000000.0 0.34920819428103694 -0.2550396347011137
2100000000.0 0.1538271924571173 -0.39831039251524486
2120000000.0 -0.15586510190573707 -0.38829995202882367
2140000000.0 -0.3950570551954873 -0.09933034761921064
2160000000.0 -0.17969955567547394 -0.348826708840926
2180000000.0 -0.3376865818943936 -0.15954861286063576
2200000000.0 -0.3584548417817953 0.013620373240782736
2220000000.0 -0.32695410854644036 0.11586143730483074
2240000000.0 -0.21706754801397565 0.26657331108567167
2260000000.0 -0.0440755298093768 0.3413412484257266
2280000000.0 0.08836435930308513 0.33867218743579347
2300000000.0 0.3618329165603995 -0.05000098919577073
2320000000.0 -0.12988479083008533 -0.3665176505421327
2340000000.0 -0.3230389449230565 0.2674903920300912
2360000000.0 0.45593482516240524 0.0580727952590102
2380000000.0 -0.4537113734275576 -0.22443878863317823
2400000000.0 0.480779957175589 0.28383904616971645
2420000000.0 -0.6108458805444684 -0.0024614329142577454
2440000000.0 0.4749811083198082 -0.4567990652534685
2460000000.0 -0.03274324302263471 0.6976140159255223
2480000000.0 -0.2535858378366506 -0.6836371377539121
2500000000.0 0.3054430123502921 0.6832579158317117
2520000000.0 -0.18517849820625093 -0.7356020808498336
2540000000.0 -0.17832627762140532 0.7387669470535742
2560000000.0 0.6179384746008486 -0.43160886276330723
2580000000.0 -0.6892670152912473 -0.2673267522493043
2600000000.0 0.202734378632744 0.6855551409871744
2620000000.0 0.38905368142985974 -0.5628836695238789
2640000000.0 0.04558955167325332 -0.6453276800407873
2660000000.0 -0.5141016890951123 0.3134776131294945
2680000000.0 0.49023293540857993 0.2595215733831326
2700000000.0 -0.11069996486294162 -0.495830561478811
2720000000.0 -0.2796484580715155 0.36654433191349256
2740000000.0 0.41503661645654594 -0.05769075415977822
2760000000.0 -0.3652058850307531 -0.11134732943954537
2780000000.0 0.3528046053483986 0.010797546117475763
2800000000.0 -0.2962995421176737 0.14385840032767974
2820000000.0 -0.038362924532890766 -0.3095878655769971
2840000000.0 0.2930531310449751 0.06383669760232068
2860000000.0 -0.1869933402056967 0.22784517689637837
2880000000.0 -0.11709619713786505 -0.26731496085136447
2900000000.0 0.12197278390845027 0.26545416031533325
2920000000.0 0.19807008434508863 -0.21864301872652378
2940000000.0 -0.28678909459204066 -0.09225176831984952
2960000000.0 -0.21970292979849912 0.20912181773231917
2980000000.0 -0.2567917862531823 0.17051782781373126
3000000000.0 -0.3105050754075818 -0.024231550475386585
3020000000.0 -0.0963474355551233 -0.2967587811658106
3040000000.0 0.30503644846869915 -0.04878887907150656
3060000000.0 -0.24442465350298895 0.18563961221654643
3080000000.0 0.21644274684665268 -0.21246414724159826
3100000000.0 -0.0941768432110933 0.2832904872477878
3120000000.0 0.004143231789847676 -0.29018852851133425
3140000000.0 0.2002082089838794 0.19814244497498953
3160000000.0 -0.265767840763931 0.029564149359986847
3180000000.0 0.19889016329490655 0.15298089198083045
3200000000.0 -0.15280837386602894 0.16986993317983495
3220000000.0 -0.19068568703901037 -0.06634826922668205
3240000000.0 0.07286394156621351 -0.15466197123644718
3260000000.0 -0.01200859800736766 0.13596207801091295
3280000000.0 0.06277247560140971 -0.0832468596764547
3300000000.0 0.009797819726392236 -0.07543499467889132
3320000000.0 0.048790480171468836 -0.012105778019213429
3340000000.0 -0.028906017001733644 -0.002781701404076892
3360000000.0 -0.009224486442098223 0.009752225046768736
3380000000.0 -0.0020517552849953786 -0.0009993444820623149
3400000000.0 0.013939093085609403 -0.010083876805394867
3420000000.0 -0.006065197130792567 0.03281885985775221
3440000000.0 -0.030543702564178037 0.03731785606066828
3460000000.0 -0.02335443847619211 -0.05264257138721937
3480000000.0 -0.05966804787739258 0.033266789297989936
3500000000.0 -0.024992436649358307 0.07513281531354142
3520000000.0 0.09041867504311515 -0.009063113344868064
3540000000.0 -0.051026718396914035 -0.09018136459398529
3560000000.0 -0.06331401937025108 0.0980901307645634
3580000000.0 0.1293729926408957 0.024966173044693483
3600000000.0 -0.1078087572541132 0.10918323992985662
3620000000.0 -0.1223778708741369 0.11577144215865852
3640000000.0 -0.17890309638098367 0.02735205178997979
3660000000.0 -0.14487148340281064 0.12649705541801207
3680000000.0 -0.1739934834543827 0.08781146552458412
3700000000.0 -0.1600992381856762 0.10662554237172314
3720000000.0 -0.13243386900333748 -0.1348352358019629
3740000000.0 0.07427232523598624 -0.16814215326816834
3760000000.0 -0.15491543361792584 0.08433734160060237
3780000000.0 0.15020360058267707 0.07866573194698546
3800000000.0 0.1072159884471353 -0.12057965911754243
3820000000.0 -0.03882244883065801 -0.15076748839802145
3840000000.0 0.02489736619075942 -0.1482590481428717
3860000000.0 0.1501518385921919 0.01890403163657083
3880000000.0 0.09286650350879586 -0.12518903263368944
3900000000.0 -0.1339046501639127 -0.08266783150973557
3920000000.0 -0.06728678283378495 0.1468253103259034
3940000000.0 0.127318806834026 -0.10715294073956422
3960000000.0 0.12281139774932677 0.11932226660575918
3980000000.0 0.17247873276010228 -0.0228673417225472
4000000000.0 0.15125948087959262 -0.07511194292041633
