! Created with skrf (http://scikit-rf.org).
# Hz S RI R 50.0 
!freq ReS11 ImS11
400000000.0 -0.8594721680139437 -0.057572521219441196
420000000.0 -0.10288313591926916 0.8571467064572693
440000000.0 0.7578612816617218 0.35276646590445193
460000000.0 0.7772335865880214 -0.1371706915992859
480000000.0 0.2639894165759355 0.6854817284529102
500000000.0 -0.17236629963162384 -0.5715717435465972
520000000.0 -0.47490254042300184 0.202303896101902
540000000.0 -0.4108300235164904 0.15433788578718177
560000000.0 0.33791986324036916 0.18450532435970682
580000000.0 0.024957394840639368 0.331826813146949
600000000.0 0.13199666975525362 0.31753914158309177
620000000.0 0.04296380919069792 0.3408848713852956
640000000.0 -0.26410640463971874 -0.22846248250977177
660000000.0 -0.024601244000267225 -0.37052916952610015
680000000.0 -0.1553488232853334 0.3540649236943777
700000000.0 -0.10110535349727802 0.40235320594791857
720000000.0 0.08530029609598998 0.409631388139114
740000000.0 -0.39577931160796 -0.17710337892627392
760000000.0 0.3961503367705925 -0.12833364670222386
780000000.0 -0.31695222680573854 0.22188695706349765
800000000.0 0.07579039505522478 -0.34581643087635466
820000000.0 0.28847767368859445 0.0832995579965253
840000000.0 -0.25538476117267894 -0.031650021422877955
860000000.0 0.006599495080155903 -0.2046802068016513
880000000.0 -0.16541926941753546 0.01462246096380409
900000000.0 0.04681945842394244 -0.08151251810757258
920000000.0 0.04365709544881603 -0.0331766135916456
940000000.0 -0.03648526860932793 0.026384851961672576
960000000.0 -0.027326241375273938 -0.04200299635559233
980000000.0 0.06238274316795453 0.015965436839159797
1000000000.0 -0.06088888413288417 0.05366788068050868
1020000000.0 0.050464414958542446 0.08369137758592368
1040000000.0 0.06480996483161859 -0.09872103372501924
1060000000.0 -0.06510834965812111 -0.13599525541183236
1080000000.0 0.11859301592733716 -0.12556257240193291
1100000000.0 0.07946105557268136 0.17014020890302098
1120000000.0 0.19597361157349852 0.06928753079743925
1140000000.0 -0.23909696654016413 -0.005635374033429953
1160000000.0 -0.0268361083448811 -0.2690840903165827
1180000000.0 0.04566272410722639 -0.30511131042041595
1200000000.0 0.2483437099957824 0.22188038923460235
1220000000.0 -0.3467749486142194 -0.1112074712855406
1240000000.0 -0.11673123433431452 0.3669269047823912
1260000000.0 0.39071039081247383 -0.15421957616279422
1280000000.0 -0.43325187917225166 -0.04350606339396461
1300000000.0 0.3017832544375096 0.33571987571548895
1320000000.0 0.2128683261588628 -0.39426010056054395
1340000000.0 0.2505450905662585 -0.370345930046647
1360000000.0 -0.015509218140321477 -0.43994673084365254
1380000000.0 -0.22508008157866585 -0.3752634432945737
1400000000.0 -0.26154479238748574 0.3302543231405574
1420000000.0 0.15708085572042566 0.37084864783755256
1440000000.0 0.3036437781566327 -0.222041293675136
1460000000.0 0.10155279042340046 -0.3291996217401876
1480000000.0 -0.3043929531217667 -0.08072779531768624
1500000000.0 -0.2524407203583477 0.13087462082472026
1520000000.0 -0.10568285998573536 0.23133992640976356
1540000000.0 -0.03004849260957516 -0.22536997038225068
1560000000.0 0.1953293957678555 -0.005958330207860855
1580000000.0 0.011160876031143381 0.1654638951289588
1600000000.0 0.1377798044093628 -0.0025215795273220076
1620000000.0 0.10603593759560849 -0.001321848688206024
1640000000.0 -0.06131483339516626 0.05511913977199306
1660000000.0 -0.054834183508949585 -0.022562235261034996
1680000000.0 -0.020423931141961622 -0.03354030200167115
1700000000.0 -0.021586029373864626 -0.011859876936440928
1720000000.0 -0.0030311385668184473 0.005557127388643491
1740000000.0 0.011140162225321213 0.007928819468733207
1760000000.0 0.032700375457605804 -0.005245454379227958
1780000000.0 0.058284586522093236 0.029740083447570686
1800000000.0 -0.07521479264363826 0.06678782072604096
1820000000.0 0.13132200542128356 -0.006747021879181482
1840000000.0 -0.09265328221334623 -0.1371039822308735
1860000000.0 0.075448726689671 0.1868392967053213
1880000000.0 0.1939193140862374 -0.13788556294763504
1900000000.0 -0.28041300237618055 -0.028414090078248792
1920000000.0 0.3168905166285473 -0.041691781436355616
1940000000.0 -0.32890690169491354 -0.13050487066343708
1960000000.0 0.2576588731230772 0.283123744152801
1980000000.0 0.054996418787296705 -0.3988042988267346
2000000000.0 -0.41761125480785444 -0.04791848082217398
2020000000.0 0.1003063916851295 0.4171967231205167
2040000000.0 0.4220212684833377 0.09942706087476154
2060000000.0 0.22994534131349623 -0.3650632691939074
2080000000.0 0.08969303334656456 -0.41577182748645836
2100000000.0 -0.07371283802731057 -0.4107410620712138
2120000000.0 -0.044515855357284834 -0.4084094975798023
2140000000.0 -0.20393081781649489 -0.3470968913281262
2160000000.0 0.28126280060870923 -0.27425781813976513
2180000000.0 -0.01843983253677214 -0.3822225319939229
2200000000.0 -0.3103048329466237 -0.20591524033096936
2220000000.0 -0.2962772238660146 0.21156796316639342
2240000000.0 0.11406170961614637 0.339876715019769
2260000000.0 0.3453999637779828 0.09057215772845334
2280000000.0 0.26207650878621797 -0.2437980111990986
2300000000.0 -0.08435448236600382 -0.359909424101007
2320000000.0 -0.3876587367775744 -0.04871114601760224
2340000000.0 -0.10326737128032851 0.4096470323304374
2360000000.0 0.4104348251460891 -0.2131449533711596
2380000000.0 -0.5065247317530881 0.06595543436440512
2400000000.0 0.5418863071248363 -0.15056562660937092
2420000000.0 -0.3616492934513942 0.4962807169894031
2440000000.0 -0.15707023037109405 -0.6416607790143588
2460000000.0 0.5976163734802511 0.3607913542699564
2480000000.0 -0.7263594793231446 -0.026488956850503814
2500000000.0 0.7409928287823474 -0.06933577271995754
2520000000.0 -0.75081503143854 -0.06113635757021405
2540000000.0 0.634963657703467 0.40660158918257955
2560000000.0 -0.19358410328230577 -0.7212037327019122
2580000000.0 -0.5177943771355505 0.5159398066195632
2600000000.0 0.7017577894241156 0.07753544315275022
2620000000.0 -0.33351786779708165 -0.5881015255355543
2640000000.0 -0.553708563026273 -0.32130412380182166
2660000000.0 -0.05863386823748311 0.5930381394881595
2680000000.0 0.4928403724310772 -0.24571377895478178
2700000000.0 -0.4725735257590854 -0.177011909981122
2720000000.0 0.3065492553808806 0.33966620556972765
2740000000.0 -0.04801520316778854 -0.4103469520953202
2760000000.0 -0.16439136116810407 0.3352995255644445
2780000000.0 0.13560891678293618 -0.3126763360408083
2800000000.0 -0.22641045615294716 0.21760266831127975
2820000000.0 0.16481242374711488 -0.24648898610307166
2840000000.0 -0.1019476949283381 0.2685944993085438
2860000000.0 -0.04889995525010824 -0.2807085070695379
2880000000.0 0.22467988727804572 0.18055907421717593
2900000000.0 -0.29096538705679903 0.015652908894130874
2920000000.0 0.2848780343854046 0.08805782856790241
2940000000.0 -0.27337283844332927 -0.13528447245405073
2960000000.0 -0.06175040092035268 0.3006490091635194
2980000000.0 0.23988852787513623 0.19345153789028727
3000000000.0 0.07694911624312344 0.2973061614677808
3020000000.0 -0.23210980321951502 0.1975050988067357
3040000000.0 0.10299626343420021 -0.27988554787181813
3060000000.0 -0.028596197187712922 0.2945131559950371
3080000000.0 0.1344813106751038 -0.2603302005957079
3100000000.0 -0.12298924064882481 0.2633356873785838
3120000000.0 0.1519758565590483 -0.24026424615168798
3140000000.0 0.03172387223683429 0.27630950178814506
3160000000.0 -0.18314556490042272 -0.19271964646490344
3180000000.0 0.02173903883830744 0.24922051899496037
3200000000.0 -0.2251413372302633 0.04054628443486343
3220000000.0 -0.1116571334105885 -0.17054068803688266
3240000000.0 0.06932280837084182 -0.15987207291933006
3260000000.0 0.13047564848363255 0.050691737442193074
3280000000.0 -0.049815598341983146 0.09305696685029247
3300000000.0 0.018513617682443567 -0.07045504831599214
3320000000.0 -0.02428609187005271 -0.03594172319909232
3340000000.0 -0.015086527658375148 0.011149030087862107
3360000000.0 0.002337548639583715 -0.002342660851964609
3380000000.0 -0.0069171179700718835 -0.009321207826237214
3400000000.0 0.012633412436250137 -0.01607666687692625
3420000000.0 -0.027846055826512808 -0.010947843623038645
3440000000.0 -0.039245082270573974 -0.009774633855395324
3460000000.0 0.03731980029705012 0.0326613383031652
3480000000.0 -0.054874132130899235 -0.029577557323530287
3500000000.0 -0.04658483609118578 0.06483404398022345
3520000000.0 0.04789324004968352 -0.08356429019989756
3540000000.0 0.11252030298260231 0.00481370388489424
3560000000.0 -0.016355328053240664 0.12446653087337797
3580000000.0 -0.0555504881110304 -0.12519168725677393
3600000000.0 0.1538265380486215 -0.015349004883679702
3620000000.0 0.1283500091705577 0.10013504508597605
3640000000.0 -0.10331128055772172 0.140811943015252
3660000000.0 -0.16639454480856147 -0.07537992975550023
3680000000.0 0.02051141792893684 -0.18769324322973172
3700000000.0 0.16397580203867576 -0.09626981847868737
3720000000.0 0.12040696025981018 0.14944258445089498
3740000000.0 0.08703540054022722 0.16763618964984928
3760000000.0 -0.15197045642004547 -0.10295517560517725
3780000000.0 0.17135626088345685 -0.033581450148239995
3800000000.0 -0.11043841185200165 -0.11999228170120517
3820000000.0 -0.15177288160854305 -0.016941981308724187
3840000000.0 0.08222236024090261 -0.11850396139678325
3860000000.0 -0.05189534021330945 0.1351081235807721
3880000000.0 -0.1531851195637252 -0.004600036450467923
3900000000.0 -0.03508945902120701 0.155767799285824
3920000000.0 0.1207051015186879 -0.11627238506695997
3940000000.0 0.142197118408527 0.10160931150188157
3960000000.0 0.1496842532452505 0.0986356156172114
3980000000.0 0.01652352984674991 -0.17752494862383705
4000000000.0 -0.08992238565269639 -0.14124266492778476
