! Created with skrf (http://scikit-rf.org).
# Hz S RI R 50.0 
!freq ReS11 ImS11
400000000.0 -0.6875926539004635 0.5029429396100442
420000000.0 -0.2652375980863129 0.8194967444029817
440000000.0 0.7242803345559953 0.41259693167291794
460000000.0 0.6571686758514752 -0.45276603058237797
480000000.0 0.6353846500410558 0.37364320013559515
500000000.0 -0.562811550392329 0.18418372765874516
520000000.0 -0.33290439480365697 0.36338179035888035
540000000.0 0.23808710954298123 -0.3575538095914696
560000000.0 -0.18220823992257676 0.316011740588617
580000000.0 0.1948839789702501 -0.27629520520045087
600000000.0 -0.3146819573143033 -0.11653332549123524
620000000.0 0.34381308706891456 0.07594872772507785
640000000.0 0.3696239664116815 0.05218321801321471
660000000.0 0.37245060417828085 -0.12050200141555586
680000000.0 0.15221032874630996 0.38354206113770073
700000000.0 0.36307032326518995 -0.2198475445463343
720000000.0 0.038052337822359575 -0.4208573317448706
740000000.0 0.21016003318254192 0.3591660344301822
760000000.0 0.32461598404240627 -0.23164709663019822
780000000.0 -0.2664786627025496 0.2579682351380182
800000000.0 0.3377003411333645 0.06400235453897785
820000000.0 -0.0769048481758747 0.29310642333284403
840000000.0 -0.11184444605096168 -0.23425192235043485
860000000.0 0.12016023877171134 -0.1796073167548457
880000000.0 -0.05185184283007418 0.16244872521942982
900000000.0 0.024463300466305835 -0.10606180205244209
920000000.0 -0.04937156687188229 0.04326351342317363
940000000.0 -0.04747212357723673 -0.015155610735263938
960000000.0 0.03797541438014774 0.04249748881977954
980000000.0 -0.06357809024828726 -0.038242222530309476
1000000000.0 0.02392293401166787 0.07803980703649173
1020000000.0 -0.09753733218576023 0.017941031288408904
1040000000.0 -0.07983516947618233 -0.06923825527283926
1060000000.0 0.09216114438355713 0.1057920969099629
1080000000.0 -0.11567184984264665 -0.10146666439616338
1100000000.0 -0.17453991648687273 -0.032828652527098455
1120000000.0 -0.1102350742082144 0.16580085100629902
1140000000.0 0.14660201276117235 0.1849601689167367
1160000000.0 0.18214838311486412 0.20396715479169428
1180000000.0 0.111012539312424 0.2914643304753884
1200000000.0 -0.07245062973461662 0.3382044057081794
1220000000.0 -0.1694265512880302 -0.3342084750711214
1240000000.0 0.1947190476665254 0.3493655274395429
1260000000.0 0.010581043303289102 -0.4251930215776171
1280000000.0 -0.14926796116933688 0.4160638430818926
1300000000.0 0.40000936172555956 -0.203760360573482
1320000000.0 -0.2974086596258331 -0.3289266087234573
1340000000.0 -0.20483381276369206 -0.384683272283888
1360000000.0 0.08869644946057441 -0.4204518382387572
1380000000.0 -0.01501597819413495 -0.4284465634784221
1400000000.0 -0.4160533968570929 -0.04176865234868258
1420000000.0 -0.12505394970126044 0.3818553713864893
1440000000.0 0.3608829305008832 0.10365895128679098
1460000000.0 0.24999179133917268 -0.2388419104556514
1480000000.0 -0.1692298437697713 -0.2684482669053037
1500000000.0 -0.28558367282272146 -0.02683595326555951
1520000000.0 -0.20683302844683185 0.16076811597052457
1540000000.0 -0.06595258424911998 -0.22497206395419234
1560000000.0 0.11114617156218065 -0.16682366541622784
1580000000.0 0.17078836559502886 -0.0027048718935984446
1600000000.0 -0.07140876594088634 -0.1192208159493941
1620000000.0 -0.08944867911673965 -0.055638716512438575
1640000000.0 0.05823563590031058 -0.055882616829847034
1660000000.0 -0.00039453321647050555 -0.055568779730087045
1680000000.0 -0.027960392188705333 -0.015500267117538283
1700000000.0 0.014704586541995284 0.005146349072631648
1720000000.0 -0.0036149316489521464 -0.00214664332604637
1740000000.0 0.019394587700998608 0.004678090955831496
1760000000.0 0.0312745030638092 0.019496306587721415
1780000000.0 0.0008716367155696891 -0.06620500652693567
1800000000.0 0.020307692393214664 0.0971446574457137
1820000000.0 0.1301190367205415 0.013314905346068735
1840000000.0 -0.16219153446469228 -0.04541142766706997
1860000000.0 0.1838091589527718 0.09161836668910353
1880000000.0 -0.18630021597701948 -0.1585630407397158
1900000000.0 0.17503705596798824 0.2250085370013418
1920000000.0 -0.13640644067899393 -0.2896586047022111
1940000000.0 -0.1629386265339987 0.30987189617005106
1960000000.0 0.37639776626822063 -0.007986983118882107
1980000000.0 -0.08276991444667331 -0.38642120613821845
2000000000.0 -0.3344651014476163 -0.2418370278443743
2020000000.0 -0.34947660934038494 0.24557258621378913
2040000000.0 -0.01708961179364208 0.435572846564497
2060000000.0 0.4353056830672351 0.059718167714042834
2080000000.0 0.24075980769466104 -0.3634993878991877
2100000000.0 -0.12627675599343188 -0.40983136148020627
2120000000.0 -0.3279020678680802 -0.2616483992341928
2140000000.0 -0.4038312419500772 0.053959295598838476
2160000000.0 -0.26188033744878425 -0.2917543219438348
2180000000.0 -0.3687174472795992 -0.07196931201539752
2200000000.0 -0.33853729088271695 0.13065079685889805
2220000000.0 -0.21542909727706677 0.27814696094999003
2240000000.0 0.012059946875492103 0.349536013068122
2260000000.0 0.2521625185013839 0.24447907410858166
2280000000.0 0.3443836184491318 -0.09911714731525821
2300000000.0 -0.17297604331121683 -0.3305320644803778
2320000000.0 -0.30359335298609347 0.25558519128595286
2340000000.0 0.40909258222882594 0.12826309625449966
2360000000.0 -0.31889771150962576 -0.3436126457611094
2380000000.0 0.3152472608522339 0.40688938279675535
2400000000.0 -0.41771553278681467 -0.378782347865721
2420000000.0 0.6003206164662948 0.1242345811848543
2440000000.0 -0.581813998430154 0.30626100523994154
2460000000.0 0.31954364100276883 -0.6153076344150032
2480000000.0 -0.1083370396738227 0.7117302718603957
2500000000.0 0.15262501079594476 -0.7198787960332148
2520000000.0 -0.4147353748973607 0.6167766149799263
2540000000.0 0.6977251988057174 -0.2531328064995948
2560000000.0 -0.5942866676277561 -0.43058825609462587
2580000000.0 -0.07280011365801971 0.7118219326495759
2600000000.0 0.6613028022883964 -0.19620131605019037
2620000000.0 -0.4758633451070078 -0.45478620466747377
2640000000.0 -0.5398614482631063 -0.3055941882560468
2660000000.0 -0.1478094352771502 0.5571248961512777
2680000000.0 0.5264466231791796 -0.06700881893217976
2700000000.0 -0.29272280937234857 -0.3879229530893284
2720000000.0 -0.07775145842996507 0.434080200019111
2740000000.0 0.3257474433127274 -0.23171264774980507
2760000000.0 -0.35641676068919026 0.06911124730130229
2780000000.0 0.32506221903874744 -0.07089454442130387
2800000000.0 -0.2755748262197695 0.13926479725805335
2820000000.0 0.13961830965236777 -0.2569740295529479
2840000000.0 0.0783507266040549 0.27257959551202443
2860000000.0 -0.22915231781789033 -0.16475915310340783
2880000000.0 0.24915106689185293 -0.137091560181474
2900000000.0 -0.1592292470077757 0.24075739417032072
2920000000.0 0.19727991098303918 -0.218291548700641
2940000000.0 -0.28647289908188917 0.08605549546161674
2960000000.0 -0.0728710970204522 0.29084424318150753
2980000000.0 -0.08086636737971996 0.2909688488004734
3000000000.0 -0.2485119068908078 0.17237456292386602
3020000000.0 -0.16737781350690192 -0.2508808668401004
3040000000.0 0.2843744244064929 0.09256757098479945
3060000000.0 -0.29755792692136546 -0.029667668423901398
3080000000.0 0.2961649015068035 0.015638049955991554
3100000000.0 -0.2924140346499671 0.005190147467534749
3120000000.0 0.24421818427380254 -0.14940823187009913
3140000000.0 -0.07321841389674472 0.26970621018512725
3160000000.0 -0.2021906834584455 -0.17206681272161464
3180000000.0 0.08325463202545812 0.23423413370491894
3200000000.0 -0.16924287175026712 0.14739816372183723
3220000000.0 -0.16538862286735606 -0.10561225777811337
3240000000.0 0.12242260671279265 -0.1091765861142231
3260000000.0 -0.10818658113897013 0.07165994673114487
3280000000.0 0.037652617058330055 0.091030667850863
3300000000.0 0.0178129966789101 0.06950004878222517
3320000000.0 -0.043677829744087585 0.015193316151062215
3340000000.0 0.02610896526732574 0.006371298026940959
3360000000.0 0.010695354734876941 0.001415755550372277
3380000000.0 0.005139903301907175 -0.0022610559393429343
3400000000.0 -0.009055625851106938 -0.016981293067828817
3420000000.0 -0.03135303797378726 0.014059986871142613
3440000000.0 0.04692895670228084 0.004599160027135337
3460000000.0 -0.012580153639831762 -0.055666690888713156
3480000000.0 -0.05714464621578133 -0.03475536471399011
3500000000.0 -0.06636092067910603 0.04164052141574123
3520000000.0 -0.04035534885002507 0.08143692344929956
3540000000.0 0.07631327150329968 -0.06957822154874257
3560000000.0 -0.1135232961421225 -0.023187493464693957
3580000000.0 0.04339998863629636 0.12358127948453529
3600000000.0 -0.1506870879306029 -0.018910278729787417
3620000000.0 -0.16243523799731066 -0.032689104289725164
3640000000.0 -0.1120433762450736 -0.1394420282939487
3660000000.0 -0.17744478223620133 -0.06416090280164681
3680000000.0 -0.17632379826762476 -0.07612236287638462
3700000000.0 -0.171931634775997 -0.08218762560342492
3720000000.0 -0.05805300424118597 -0.17843583456075826
3740000000.0 0.0951370425626725 -0.15418632636648485
3760000000.0 -0.15722477373586338 0.07291802672142027
3780000000.0 0.12082659969010758 0.1109316621671307
3800000000.0 0.14492830293737285 -0.05970034688512941
3820000000.0 0.12774189857746365 -0.08289794683250713
3840000000.0 0.14005794408799457 -0.05335037386868338
3860000000.0 0.14955556081755042 0.015837520992097485
3880000000.0 0.13984416670221156 -0.06797953357694793
3900000000.0 -0.093325160487218 -0.12537976666091538
3920000000.0 -0.022846496485251166 0.15795967304360334
3940000000.0 0.011115176679477872 -0.16288201539113106
3960000000.0 0.16467945722078095 0.035724036979890024
3980000000.0 0.16785000456303037 -0.02630666287280954
4000000000.0 0.1405219632748643 -0.08664905663529116
