! Created with skrf (http://scikit-rf.org).
# Hz S RI R 50.0 
!freq ReS11 ImS11
400000000.0 -0.6931370285280171 0.4975310851789026
420000000.0 -0.2440306118082971 0.8269604011471569
440000000.0 0.7329329001591114 0.39690555303628483
460000000.0 0.6673578708681519 -0.43614418323092535
480000000.0 0.5889580995252615 0.4445639707249452
500000000.0 -0.5425091358826498 0.24123933165120173
520000000.0 -0.3020843755156301 0.3881512523709667
540000000.0 0.25377579134766504 -0.34466051331304615
560000000.0 -0.20925743374016165 0.29896211493651303
580000000.0 0.13457153882441777 -0.3118334274060689
600000000.0 -0.3339671553034059 0.00024615263021695525
620000000.0 0.3176185549732497 0.14878136906726933
640000000.0 0.36795108149758127 0.06351739335720216
660000000.0 0.38380560195221164 -0.07398716338233627
680000000.0 0.08444094356546589 0.4043601890536305
700000000.0 0.40505740593842643 -0.12969879884224475
720000000.0 -0.007757134222819764 -0.42399888549596887
740000000.0 0.2864386694986648 0.30129118332764415
760000000.0 0.32205403966201024 -0.23439144223888342
780000000.0 -0.24935014358168225 0.2753390019120281
800000000.0 0.33254018320508977 0.08542928492352897
820000000.0 -0.07846390110657547 0.29250524508007
840000000.0 -0.10930326938969268 -0.23593017258645577
860000000.0 0.08839465905832661 -0.19748261771862596
880000000.0 -0.07194298201003384 0.15565951321169874
900000000.0 -0.018820778884862055 -0.10771512761659201
920000000.0 -0.0023832738000404557 0.06621641629666078
940000000.0 0.0014088933611432536 0.05112192484393226
960000000.0 0.04318288821711717 -0.038143814725120226
980000000.0 -0.056955654706180636 0.04824725540887876
1000000000.0 0.0807986580584122 0.004148227156526278
1020000000.0 -0.09307388245730276 0.032404450163544575
1040000000.0 -0.0835987359431067 -0.0631021182783927
1060000000.0 0.04831411302982103 0.13084492306111062
1080000000.0 -0.08767291428091828 -0.12616486713497072
1100000000.0 -0.17066413585218948 -0.04966050823936083
1120000000.0 -0.11277574677611256 0.16413333960152726
1140000000.0 0.11127477367967983 0.20773236914932489
1160000000.0 0.13854519042434235 0.23618901936519543
1180000000.0 0.09271501891985735 0.29816605137014246
1200000000.0 -0.08250199888178512 0.33641654179235436
1220000000.0 -0.15700874506113743 -0.34088803909785
1240000000.0 0.21561700167819367 0.3372612246183117
1260000000.0 -0.07041331095251702 -0.4192296399229056
1280000000.0 -0.11453065508536259 0.4258525911277614
1300000000.0 0.38984209152238525 -0.22109871700285655
1320000000.0 -0.26319227206730467 -0.3566514299530552
1340000000.0 -0.17962625954475758 -0.39833819266979964
1360000000.0 0.06047232541105846 -0.42679872892816106
1380000000.0 -0.082866323942147 -0.42134382797069136
1400000000.0 -0.41638285753026394 0.032199267114100434
1420000000.0 -0.08293182069758624 0.3917341575673302
1440000000.0 0.3552557744421952 0.11695084485217949
1460000000.0 0.30574654500912546 -0.15987903502329073
1480000000.0 -0.056755729457903706 -0.31236940502595634
1500000000.0 -0.26105096166669806 -0.11969363902414418
1520000000.0 -0.2333805475135938 0.12067339049929313
1540000000.0 -0.030709026826358735 -0.23429259589194376
1560000000.0 0.07279434125963692 -0.18971611276606376
1580000000.0 0.12170141991176045 -0.12180690672096871
1600000000.0 -0.13878863935047306 0.005658388882133504
1620000000.0 -0.09160689607538144 0.05056024337537614
1640000000.0 -0.048703598032667196 -0.06272277977339412
1660000000.0 -0.052750380682710166 -0.0073939260337358165
1680000000.0 -0.029653562338064095 0.0037284628209910665
1700000000.0 -0.012319982678902972 0.006314231941196284
1720000000.0 0.00660245176099525 -0.0013673867476418813
1740000000.0 0.017016482619506185 -0.012272029499317686
1760000000.0 -0.019349803455133662 -0.031040206325337286
1780000000.0 -0.05694419178935586 -0.03146009337873505
1800000000.0 0.03867945260682465 0.08978974074515693
1820000000.0 0.12546098411261306 0.03218079112436087
1840000000.0 -0.13394597935734104 -0.1008125118759232
1860000000.0 0.14997041047061013 0.14035310019203273
1880000000.0 -0.13421961583077793 -0.20507582918611553
1900000000.0 0.14519717134998236 0.24581056789853561
1920000000.0 -0.12030141223753808 -0.29714518835581977
1940000000.0 -0.18287556656816084 0.2991000586024131
1960000000.0 0.37670793311412937 -0.012832247700057501
1980000000.0 -0.0801388178330707 -0.3872807819672131
2000000000.0 -0.3480529657765359 -0.22262507378781257
2020000000.0 -0.3044118818586912 0.2994296523936118
2040000000.0 0.015308198712379812 0.4354687723544708
2060000000.0 0.43765199332639876 0.03272259314211058
2080000000.0 0.25036489346799656 -0.35592883860804253
2100000000.0 -0.07106125444099594 -0.4223212385043167
2120000000.0 -0.3027753959569428 -0.28958137773963954
2140000000.0 -0.4077739120095609 -0.011524128035848055
2160000000.0 -0.21999593571236398 -0.3255064517283753
2180000000.0 -0.3675207936838479 -0.08373938500627105
2200000000.0 -0.333949400204611 0.1439146087897697
2220000000.0 -0.1925703161295356 0.29476434957349235
2240000000.0 0.05476758127021489 0.34504151476428074
2260000000.0 0.2674624621769872 0.2270075688221742
2280000000.0 0.3441466592779472 -0.09699046933348883
2300000000.0 -0.1382997202669218 -0.3456080440395858
2320000000.0 -0.31884496571989346 0.23580490787712166
2340000000.0 0.40309782250715553 0.145942143499065
2360000000.0 -0.31292691822079355 -0.34939128770675676
2380000000.0 0.3373090451334682 0.38923456521651195
2400000000.0 -0.43000583847493906 -0.3648669315149031
2420000000.0 0.6008688271591407 0.12068291530895607
2440000000.0 -0.5671327844846814 0.3318849657808063
2460000000.0 0.3024667321584562 -0.6238410337919083
2480000000.0 -0.0745938010396542 0.7157173966364159
2500000000.0 0.16032002039089915 -0.7182967575601055
2520000000.0 -0.41149199159318167 0.6188330608281627
2540000000.0 0.6981874669511112 -0.2513222974876769
2560000000.0 -0.5949650093912648 -0.4293600608938211
2580000000.0 -0.10690940915547126 0.7073508247687456
2600000000.0 0.65184634708751 -0.22503848561295997
2620000000.0 -0.4131521784044488 -0.5119746563515222
2640000000.0 -0.5288998578082356 -0.32398359285211425
2660000000.0 -0.12918101585025477 0.5615589382462365
2680000000.0 0.5270291967264652 -0.060968038375746804
2700000000.0 -0.27710046049888 -0.39870801994752875
2720000000.0 -0.07116190783542267 0.4350254954526354
2740000000.0 0.3249631752867819 -0.2325523959431018
2760000000.0 -0.3589662834352531 0.05360991564143505
2780000000.0 0.32897402331960074 -0.04997777700380094
2800000000.0 -0.2806297514489157 0.129725606612331
2820000000.0 0.14245130537365397 -0.25585507958753195
2840000000.0 0.07181408396870399 0.2746615938413244
2860000000.0 -0.2307836803264484 -0.1629112360550227
2880000000.0 0.25396404386599936 -0.12876763400594016
2900000000.0 -0.1437411846073055 0.25003053661547514
2920000000.0 0.22637723637204432 -0.18752131664954833
2940000000.0 -0.29866666136097725 0.01699352396859512
2960000000.0 -0.04083299569008625 0.29704493155871525
2980000000.0 -0.06636993930346194 0.29396195311960643
3000000000.0 -0.26451916213644133 0.14711971040662059
3020000000.0 -0.1432187447946053 -0.26604676692987256
3040000000.0 0.2939867475736617 0.05766685134126523
3060000000.0 -0.2988994759463168 -0.006403669417691265
3080000000.0 0.2933292382468115 0.04379918460181426
3100000000.0 -0.28159975843479024 0.08237458907336435
3120000000.0 0.23079798624621806 -0.1696356790694601
3140000000.0 -0.06303439230612692 0.27172660839551876
3160000000.0 -0.19924567855420594 -0.17507711378737414
3180000000.0 0.10865096809381855 0.22403125886301525
3200000000.0 -0.1500785170631721 0.1664226473827275
3220000000.0 -0.16481433631893913 -0.1052237763931166
3240000000.0 0.12724833647785383 -0.10329013125236955
3260000000.0 -0.11533126419053465 0.05994198188010601
3280000000.0 0.019867880351552767 0.09661834384448091
3300000000.0 0.021078754035868896 0.06904302329869917
3320000000.0 -0.039667304391025435 0.02478636681028634
3340000000.0 0.02084103323465671 -0.017717768427440155
3360000000.0 0.010563723887077919 0.002001628863934411
3380000000.0 0.0027917964142115106 0.005089394398052569
3400000000.0 0.01885290537562751 -0.004832983181944378
3420000000.0 -0.027567882304649696 0.021399705498221278
3440000000.0 0.041861592183811844 -0.021868333579510735
3460000000.0 -0.03728888183847776 -0.0431359435539773
3480000000.0 -0.05986338059962484 -0.02864573291631788
3500000000.0 -0.0763130560890721 0.01522440233121983
3520000000.0 -0.06971836869404764 0.0576504329342587
3540000000.0 0.09897846452395231 -0.028514173601095618
3560000000.0 -0.10626501014854176 -0.04782208904223952
3580000000.0 0.013203293667699609 0.13114829800300917
3600000000.0 -0.14953014661562722 -0.026816286419365065
3620000000.0 -0.15988690684971632 -0.042766499125192245
3640000000.0 -0.11152279357869856 -0.14037284571217093
3660000000.0 -0.17569411999604947 -0.06875885212860164
3680000000.0 -0.166648041708222 -0.0946451727361575
3700000000.0 -0.15700886570071584 -0.10665442181610729
3720000000.0 -0.006551878635402656 -0.18661051050560717
3740000000.0 0.1205039682991374 -0.134350744828418
3760000000.0 -0.16800755179702995 0.038880901562746144
3780000000.0 0.10170031284717561 0.12880079478195763
3800000000.0 0.14427028470307543 -0.06098918820730797
3820000000.0 0.12729174854327768 -0.08476018890711887
3840000000.0 0.11602727733853027 -0.09347797041616661
3860000000.0 0.14908627420098616 -0.01586712712107421
3880000000.0 0.12557195800088083 -0.090258001783448
3900000000.0 -0.09557140311988513 -0.12207020081144104
3920000000.0 -0.04751260729105766 0.15132294877189142
3940000000.0 0.06930640698530274 -0.14763271166281644
3960000000.0 0.14888491867991982 0.07919747128483026
3980000000.0 0.170099088576499 -0.008747954868453995
4000000000.0 0.13810494137049953 -0.09094590463153719
