! Created with skrf (http://scikit-rf.org).
# Hz S RI R 50.0 
!freq ReS11 ImS11
400000000.0 0.10993235370070746 0.8640468186344759
420000000.0 0.5469542741087302 0.6636894439569377
440000000.0 0.8160513594251717 -0.13700694442093322
460000000.0 0.08008983592537962 -0.7882167800371532
480000000.0 0.38294342332704445 -0.5907705914879869
500000000.0 0.5004065310722354 -0.23813824660987418
520000000.0 0.45758811596976856 0.17560577211814957
540000000.0 0.03663468961891387 0.4333930831251
560000000.0 0.21821120545925055 -0.2977525630342025
580000000.0 -0.3085961813888352 -0.1723228254689454
600000000.0 0.2162396245718112 0.28548083665930324
620000000.0 -0.32989068003244976 0.18597026610490655
640000000.0 0.39503583516806917 -0.11148130076335136
660000000.0 -0.3283730817181831 -0.25411321439793816
680000000.0 -0.29106048500331216 -0.3042587911427214
700000000.0 -0.4015091072189148 0.09926704732275043
720000000.0 -0.17248838930583885 -0.3669791881314483
740000000.0 -0.3432280373174198 0.21807637031494145
760000000.0 0.2571156551317432 0.3098337819030178
780000000.0 -0.3795777364611598 -0.05296113704150709
800000000.0 0.2809915698279593 -0.22710526183790664
820000000.0 -0.14971937865623994 -0.2699622742332323
840000000.0 0.20044663962385076 0.1496904898717687
860000000.0 -0.14977062378662268 0.14289303981617463
880000000.0 -0.11995648555515612 -0.0860895856875007
900000000.0 -0.07882162819687942 -0.0024465469606791703
920000000.0 0.019088570997405824 0.04224274539060104
940000000.0 0.010166262091652317 0.029021755496360137
960000000.0 -0.016806987749830755 0.03255319823647595
980000000.0 0.02574906433139331 0.04031101135670518
1000000000.0 -0.04200635574714202 -0.03849048339915024
1020000000.0 0.04195205521943628 0.06900654094740612
1040000000.0 0.0444040667551295 0.09505304888435676
1060000000.0 0.1359388576587024 -0.06587865089799028
1080000000.0 0.03557275646488327 -0.17126367801645404
1100000000.0 0.09475901209513858 -0.18449755333757734
1120000000.0 0.2186948197758152 0.06826737269950149
1140000000.0 -0.14952570202033685 0.2101135220535512
1160000000.0 0.13044137551776633 0.24647638341074415
1180000000.0 -0.3016364357727072 0.02106008881670303
1200000000.0 0.3055213935967373 -0.11016518118394818
1220000000.0 0.005323037529374913 -0.349413040596961
1240000000.0 -0.37709137496273976 -0.05949024909295579
1260000000.0 0.12045056194453335 0.4001247815549141
1280000000.0 -0.0629285945095757 -0.43905081501552196
1300000000.0 -0.039775339761619094 0.46066582049445887
1320000000.0 0.042374358001218936 -0.45995711682656765
1340000000.0 -0.4142234417700637 -0.18271980173120891
1360000000.0 -0.43773322945128446 0.018783524016750004
1380000000.0 -0.3723316336473292 0.21203476786018094
1400000000.0 -0.17624418315165252 0.36944625349560367
1420000000.0 0.12342374095560159 0.36908423152176345
1440000000.0 0.16188446099563267 0.3287532356553603
1460000000.0 0.33541305097814933 0.07311328640052285
1480000000.0 0.14602361365492547 -0.2837330850365318
1500000000.0 -0.26398844564437174 -0.1254099520811905
1520000000.0 -0.11371710184003338 0.237960894635166
1540000000.0 -0.15743108595127403 -0.1700477809680879
1560000000.0 0.18597336404528464 -0.057585531613628435
1580000000.0 -0.11034678110307149 0.12542979092523507
1600000000.0 -0.0898570354054446 0.10437011700670275
1620000000.0 -0.10684572455291097 0.02340919285241547
1640000000.0 0.04482033696036654 -0.07671876218336607
1660000000.0 -0.0593298323680706 -0.03235410255414635
1680000000.0 -0.03425065015353828 -0.03314215938369378
1700000000.0 0.018242063222666006 0.025935901905644227
1720000000.0 0.013445408120446012 -0.005392961215537297
1740000000.0 0.016937631968137523 -0.005397304403149026
1760000000.0 0.02454593518733506 0.032615849097161025
1780000000.0 0.07533678720962868 0.010747841705891053
1800000000.0 0.10789191448345024 0.03821203933499441
1820000000.0 0.11563318478551544 -0.09004329263839742
1840000000.0 0.17039056274184536 0.05319978904045286
1860000000.0 -0.18885583520367263 0.08305031343523693
1880000000.0 0.06646603904146794 0.2258773901484817
1900000000.0 0.2691586371482502 0.030338278572367774
1920000000.0 0.00917521386580047 -0.30521320146296893
1940000000.0 -0.3294276860300058 -0.08686709963994403
1960000000.0 0.0058095863333302985 0.3725929542820121
1980000000.0 0.33837440727639323 -0.20743016991326996
2000000000.0 -0.1341380600438365 -0.3946164297973069
2020000000.0 -0.38909368459053917 0.18305597127650095
2040000000.0 0.0012666519161756836 0.4357567187663269
2060000000.0 0.40952169900277346 0.1513144740611699
2080000000.0 0.3614333323707451 -0.23840921403938242
2100000000.0 0.21123806414187185 -0.37135376293062594
2120000000.0 -0.08504635731450844 -0.40967217595101996
2140000000.0 -0.38133019617897757 -0.1426752751653442
2160000000.0 -0.11776536451214084 -0.3737020782916127
2180000000.0 -0.3165372892379047 -0.19803255165045644
2200000000.0 -0.357122686819559 -0.03236542394214019
2220000000.0 -0.3400567324772275 0.0691299465687484
2240000000.0 -0.2557505813052269 0.2288511331189864
2260000000.0 -0.10593387200197972 0.32699931444846253
2280000000.0 0.0620229198482025 0.34341026188070206
2300000000.0 0.36004708089528054 -0.058306557320910786
2320000000.0 -0.13822297862533586 -0.3627078799516464
2340000000.0 -0.3316894075966959 0.25577787904329613
2360000000.0 0.45372321277625993 0.07028611560962018
2380000000.0 -0.4395052345875626 -0.25118009893843934
2400000000.0 0.46188671759657524 0.3131995644211609
2420000000.0 -0.6106318842680158 -0.014243139757260753
2440000000.0 0.5018574920824849 -0.4279542539972061
2460000000.0 -0.10698208339738655 0.6909791509014666
2480000000.0 -0.24595987684128887 -0.6864970383918686
2500000000.0 0.24635187447620593 0.7075572317214255
2520000000.0 -0.12130341669013747 -0.7497990772431902
2540000000.0 -0.2715017183494923 0.7107900332503135
2560000000.0 0.6695004593345169 -0.3487590671860281
2580000000.0 -0.6678955934074793 -0.31969466205926195
2600000000.0 0.11161570188856382 0.708035804166018
2620000000.0 0.41456039643408177 -0.5469446327872582
2640000000.0 0.17077620516855072 -0.6258006226744053
2660000000.0 -0.5424387330358112 0.2649072009284421
2680000000.0 0.4955192423282046 0.2532649723420317
2700000000.0 -0.08305634558342284 -0.5026097294606233
2720000000.0 -0.2995703639900535 0.35244788759915263
2740000000.0 0.41635768924953886 -0.05723536972453878
2760000000.0 -0.35186067818051486 -0.1499777662784992
2780000000.0 0.3512699344145504 0.03668107719925818
2800000000.0 -0.2939706524580629 0.14824900624565449
2820000000.0 -0.04742331733129501 -0.30827142922499695
2840000000.0 0.2997094771988263 0.012346974045680621
2860000000.0 -0.14693581369865413 0.25533154755134635
2880000000.0 -0.1300433717657684 -0.26124760285289506
2900000000.0 0.16069092649410807 0.24465234573813469
2920000000.0 0.11385751480716219 -0.2731113929038811
2940000000.0 -0.3009179766943513 -0.029372544244481054
2960000000.0 -0.20717885634694283 0.22382247798514907
2980000000.0 -0.27343708581273163 0.1458290155833976
3000000000.0 -0.30208537164953014 -0.07950799288040195
3020000000.0 -0.032345111783464546 -0.3111806107643508
3040000000.0 0.3099703763145909 -0.013584121897641783
3060000000.0 -0.28650222542177084 0.1154103137164275
3080000000.0 0.2251859989116742 -0.2046843336235988
3100000000.0 -0.12863484169211026 0.26991716267914995
3120000000.0 0.058559388513074094 -0.28539092757630946
3140000000.0 0.16545205299633384 0.2295950740191897
3160000000.0 -0.26246055645461386 -0.05357963140011704
3180000000.0 0.11854411386048724 0.22125622401108233
3200000000.0 -0.197286306876184 0.1150424232022622
3220000000.0 -0.15287102200100444 -0.1304525567091388
3240000000.0 0.1156418154952683 -0.12490781880287591
3260000000.0 -0.03894367806893161 0.12942384160287407
3280000000.0 0.087783241808647 -0.0533406830294778
3300000000.0 0.01062733293223612 -0.07330989810527103
3320000000.0 0.028326472772008393 -0.03945983327386496
3340000000.0 0.00983054732896072 0.025596377299217463
3360000000.0 0.011895966572188783 -6.071255366027364e-05
3380000000.0 -0.0018406553101073884 -0.0036619373104163446
3400000000.0 -0.014493006975599076 -0.01200207725158902
3420000000.0 -0.03520306888160786 -0.0040206629226197076
3440000000.0 -0.026164897392706013 -0.04248338089155065
3460000000.0 0.012121113500464279 -0.05754969465584106
3480000000.0 -0.05239188128715714 -0.04444003608176537
3500000000.0 -0.04213191983417755 0.06733774588159244
3520000000.0 0.05642304261262007 0.0721763043946067
3540000000.0 0.03072724731813263 -0.09990513283682696
3560000000.0 -0.11557746816078722 0.01858074817606104
3580000000.0 0.12496822709836712 0.047332332510210844
3600000000.0 -0.12005870229970066 0.09733910129930753
3620000000.0 -0.1564285691868961 0.06563162815854552
3640000000.0 -0.1782035038284341 -0.03372784039894712
3660000000.0 -0.1766320671826086 0.07244798246087919
3680000000.0 -0.16628259252135663 0.09957663453553484
3700000000.0 -0.17622441427434216 0.07599545312662791
3720000000.0 -0.11057406454633219 -0.1528369268724923
3740000000.0 0.09177218797053326 -0.1583387832938171
3760000000.0 -0.1578280360517879 0.07785583088609815
3780000000.0 0.16412844109401015 0.036504349744130436
3800000000.0 0.07828100802234986 -0.13979903559593415
3820000000.0 -0.05908571890059609 -0.14271402014318652
3840000000.0 -0.0015573486275435532 -0.14949615259684407
3860000000.0 0.14641327724556277 -0.03348052644683858
3880000000.0 0.11580654350118315 -0.10316461253376523
3900000000.0 -0.06997209435502985 -0.13946275629684193
3920000000.0 -0.1375522355756392 0.0818179047585559
3940000000.0 0.15548686990090257 -0.05324145150560955
3960000000.0 0.04304111658310156 0.16494792599413724
3980000000.0 0.1511892127171577 0.08325969172533712
4000000000.0 0.16776527801894675 0.01306030097594065
