! Created with skrf (http://scikit-rf.org).
# Hz S RI R 50.0 
!freq ReS11 ImS11
400000000.0 0.09590065802439854 0.864656417336433
420000000.0 0.5060323480184676 0.6959427155658993
440000000.0 0.790672806016638 -0.24448007120378284
460000000.0 0.013264460298888538 -0.7910264886416327
480000000.0 0.45853407562690907 -0.5336838080277698
500000000.0 0.49004395894951663 -0.2615536272275814
520000000.0 0.48251925360059317 0.0810876013162633
540000000.0 -0.011897338783157236 0.43359356866906956
560000000.0 0.24291603126919176 -0.27852893854858557
580000000.0 -0.3077630389217547 -0.17446459097475817
600000000.0 0.2761507890179471 0.22661754599214495
620000000.0 -0.3722031592674133 0.06629193087745372
640000000.0 0.40594989527204184 -0.06485318380354925
660000000.0 -0.35099436953277313 -0.22157925566702025
680000000.0 -0.2752775860150238 -0.31886614430043697
700000000.0 -0.4012430948243664 0.09622362147902826
720000000.0 -0.16390579586883264 -0.37172947882416457
740000000.0 -0.35289962290631177 0.2028178096440677
760000000.0 0.25837977161041364 0.30815833488283784
780000000.0 -0.3812011120757539 -0.0420274112066924
800000000.0 0.2854641211114039 -0.2208692050119318
820000000.0 -0.17122418982554904 -0.25729047944111677
840000000.0 0.1931624588247673 0.15836616968625644
860000000.0 -0.14164524903089898 0.15121023808428383
880000000.0 -0.11645374545973024 -0.09127938739912766
900000000.0 -0.07724275942727149 0.016921379948213303
920000000.0 0.006728918484292001 0.045729745885913664
940000000.0 0.014015623409893912 0.027159097965548527
960000000.0 -0.008750662053459651 0.036071919510755876
980000000.0 0.01738190284704984 0.0439079913410371
1000000000.0 -0.045877802174790185 -0.034673317208565785
1020000000.0 0.056325390007535905 0.05769649214460984
1040000000.0 0.0356760520387215 0.09817131583071147
1060000000.0 0.13719378777400854 -0.06346251643517425
1080000000.0 0.032626887269312364 -0.17192387732515169
1100000000.0 0.0938167384793225 -0.1849037629740873
1120000000.0 0.21991579924197666 0.06406653422890701
1140000000.0 -0.14331732450689344 0.21446568830986323
1160000000.0 0.14625131752755285 0.2375484370514563
1180000000.0 -0.30142711990377996 0.02574630717043336
1200000000.0 0.30005353402841584 -0.12405576127003695
1220000000.0 -0.026223433476361562 -0.3485927895749624
1240000000.0 -0.37708472851442304 -0.059383155739677514
1260000000.0 0.13587730371345558 0.3953661023552027
1280000000.0 -0.06393431461154599 -0.4388972037791432
1300000000.0 -0.04037014892616829 0.4606433024701542
1320000000.0 0.03903678762262529 -0.46026631000816914
1340000000.0 -0.41445410738587224 -0.18211133919033665
1360000000.0 -0.43795846647009506 0.021447493434506137
1380000000.0 -0.37256632977245263 0.21174832489310208
1400000000.0 -0.19452480128891345 0.36036022127034106
1420000000.0 0.12365260817131324 0.3691826862184742
1440000000.0 0.15937014029841487 0.32967884904741357
1460000000.0 0.33424238177560317 0.07782159190060302
1480000000.0 0.1481448133534056 -0.282484739151713
1500000000.0 -0.2611362855251965 -0.13077785837018058
1520000000.0 -0.12412812559108016 0.23221968949361893
1540000000.0 -0.1622985108542237 -0.16521085674178862
1560000000.0 0.17890240464513604 -0.07600794227933064
1580000000.0 -0.09884427075184612 0.13417028303375028
1600000000.0 -0.08805508741193772 0.10586793078308773
1620000000.0 -0.10618394932136319 0.027073209771651358
1640000000.0 0.013475958072256388 -0.08826697845960249
1660000000.0 -0.05960456628806243 -0.03236812967663802
1680000000.0 -0.007911212656959592 -0.04705930804177629
1700000000.0 0.012450482299643484 0.029805478120287363
1720000000.0 0.012245942212979314 0.007455149527744109
1740000000.0 0.01489602008684584 0.009282189175684782
1760000000.0 0.007188667711101058 0.040039163915157536
1780000000.0 0.07608279506711185 0.0016289082266177717
1800000000.0 0.10848289055527305 0.036503825402834256
1820000000.0 0.10730542479471401 -0.10051993868561383
1840000000.0 0.1711792783966819 0.05103898799522995
1860000000.0 -0.19499925509143431 0.06813775615250306
1880000000.0 0.05746636990134536 0.2286792498084383
1900000000.0 0.26785567789686904 0.04095716889678914
1920000000.0 0.0063699321211845355 -0.30531186368268154
1940000000.0 -0.32574465990403423 -0.09913537720692188
1960000000.0 -0.0027859948620915557 0.37266530620078586
1980000000.0 0.3420384277762919 -0.20112298821788657
2000000000.0 -0.12542420873187804 -0.39730792794770964
2020000000.0 -0.3690081806322302 0.21981981814980395
2040000000.0 -0.014216545638550028 0.4353954368509069
2060000000.0 0.42349441300023033 0.10475789291312358
2080000000.0 0.35068785524646734 -0.2532779893110278
2100000000.0 0.2146158501769146 -0.3693309180529496
2120000000.0 -0.10361384102545375 -0.40528718677858727
2140000000.0 -0.3693997284152074 -0.17141784575573377
2160000000.0 -0.12540188846381922 -0.3713501032298121
2180000000.0 -0.3228304579957434 -0.1874867336435077
2200000000.0 -0.35862626458851876 0.0006508307616198181
2220000000.0 -0.3406739930827492 0.0662069605595751
2240000000.0 -0.24053034500355538 0.24486368205890596
2260000000.0 -0.10172056270091284 0.32848958950862717
2280000000.0 0.06789611486325929 0.34266329681896895
2300000000.0 0.360010684809037 -0.05899851134621094
2320000000.0 -0.14953282229254322 -0.3585105049605983
2340000000.0 -0.3255493744166177 0.26367027807576937
2360000000.0 0.4519068918341382 0.08177217457640233
2380000000.0 -0.4446458568092212 -0.24206572130639775
2400000000.0 0.47944457748527186 0.2860791154196751
2420000000.0 -0.6105665659060654 -0.022069911429117416
2440000000.0 0.4895564380356427 -0.4419687347136708
2460000000.0 -0.0882032945813087 0.6936086509548887
2480000000.0 -0.2505632920453452 -0.6847665010204819
2500000000.0 0.2598941019422797 0.7026517726876335
2520000000.0 -0.11806295595265191 -0.7502686915310843
2540000000.0 -0.27263042617110766 0.7100937221594411
2560000000.0 0.6498429177280791 -0.3832598392614352
2580000000.0 -0.655884214146598 -0.3425560941219995
2600000000.0 0.20518709885253306 0.6866205375840763
2620000000.0 0.39131543771780297 -0.5632683201696984
2640000000.0 0.11695962415062316 -0.6377018497935938
2660000000.0 -0.5118399818319858 0.31929858676727224
2680000000.0 0.5061289623280715 0.23056953220192433
2700000000.0 -0.11430315129526325 -0.4961877415461167
2720000000.0 -0.3059272537903978 0.34637392692928193
2740000000.0 0.41534921320791396 -0.06375620491770641
2760000000.0 -0.3537363890831572 -0.14509112671426036
2780000000.0 0.35037978565712563 0.04372493374201176
2800000000.0 -0.295521702531862 0.1450232179328802
2820000000.0 -0.043349782422519675 -0.30869130165421416
2840000000.0 0.2986697044048204 0.02617547514883397
2860000000.0 -0.1587117775140273 0.24809694420548448
2880000000.0 -0.1133086453121426 -0.26881952940649295
2900000000.0 0.16576958107647669 0.24074025154090445
2920000000.0 0.12129245031393822 -0.26961813202648793
2940000000.0 -0.30090157366361575 -0.025335087146986505
2960000000.0 -0.20426174471835 0.22619276759779058
2980000000.0 -0.2526946145577051 0.17829061789974307
3000000000.0 -0.3111320884183808 -0.02096603636532294
3020000000.0 -0.0667573069655238 -0.30537392438619543
3040000000.0 0.310373965210435 0.003206672455713024
3060000000.0 -0.26249896327326877 0.16202255767206694
3080000000.0 0.22625391914290335 -0.20329771529623816
3100000000.0 -0.09819747472951251 0.2829193345523926
3120000000.0 0.013267951959151 -0.2908268015888281
3140000000.0 0.14649772236388953 0.24168901041037744
3160000000.0 -0.2606297325165018 -0.06355015839991675
3180000000.0 0.14722669640827676 0.2031244061286046
3200000000.0 -0.1997835422731822 0.11029376882885976
3220000000.0 -0.14494089075417332 -0.13918563735742692
3240000000.0 0.11022807491591874 -0.12965573194216323
3260000000.0 -0.047509855461838155 0.12658836637389959
3280000000.0 0.09324662446372428 -0.04313247743954351
3300000000.0 0.03205586134545086 -0.0671954912322171
3320000000.0 0.03744523635670418 -0.030908847547535975
3340000000.0 0.010276520318572612 0.025541688698327278
3360000000.0 0.01169947276699975 0.00369630648236825
3380000000.0 0.0037036617888271833 -0.000872757855826995
3400000000.0 0.0018457052481188545 -0.018626236637217162
3420000000.0 -0.030130154674697207 0.018402609830059036
3440000000.0 -0.04718645639830307 -0.016050250875504855
3460000000.0 0.006472749483764437 -0.05861540339489757
3480000000.0 -0.05727250781191507 -0.03786373391658585
3500000000.0 -0.03720874335626359 0.0697730609639018
3520000000.0 0.0834361640501308 0.03903784109436279
3540000000.0 0.017062937965457006 -0.10315536480902877
3560000000.0 -0.11409162616399994 0.025483504885453905
3580000000.0 0.1189190306719518 0.05976846385900568
3600000000.0 -0.12223510554284686 0.0941166226723552
3620000000.0 -0.14925808432239465 0.08031825626734154
3640000000.0 -0.17978787969622606 -0.02354819985465817
3660000000.0 -0.1708795827582841 0.08501598249828572
3680000000.0 -0.15864196208631348 0.11157827857390389
3700000000.0 -0.1691507936432461 0.09064905767109199
3720000000.0 -0.11786046881071267 -0.1477713234129386
3740000000.0 0.08062043264542622 -0.1644345675267942
3760000000.0 -0.15283038179456687 0.08688389094595317
3780000000.0 0.16564604148238316 0.028007689370928856
3800000000.0 0.0624659946230752 -0.14769251254035565
3820000000.0 -0.05519743582502528 -0.14489089777103498
3840000000.0 -0.0050251646083519595 -0.15007703064491057
3860000000.0 0.14496111288911895 -0.0406376345036302
3880000000.0 0.09859917034913175 -0.11979043322825919
3900000000.0 -0.09738148635195225 -0.1220840928166169
3920000000.0 -0.11819445679921908 0.10810485855131736
3940000000.0 0.13951330532991693 -0.0863597335658365
3960000000.0 0.06917222011159621 0.15598866136477943
3980000000.0 0.1708958990669421 0.026600476224064515
4000000000.0 0.16434917292340345 -0.03803297799375017
