! Created with skrf (http://scikit-rf.org).
# Hz S RI R 50.0 
!freq ReS11 ImS11
400000000.0 -0.681320425492673 0.5139174182125389
420000000.0 -0.23834325010361562 0.8275836646536135
440000000.0 0.7117002067033338 0.4344233911827298
460000000.0 0.658153344486241 -0.45144229635957606
480000000.0 0.6104232268505168 0.4144140377293618
500000000.0 -0.556366857586871 0.2034267546888513
520000000.0 -0.32973608746868305 0.3658958902315878
540000000.0 0.29095815536005676 -0.3157826264748243
560000000.0 -0.20529396963461627 0.3019303360722588
580000000.0 0.14502745258489977 -0.3063897303646578
600000000.0 -0.3093640221160051 -0.12707217792144815
620000000.0 0.32927147435242865 0.1252140545475002
640000000.0 0.37261603868685045 0.03591592204571306
660000000.0 0.3530886391538078 -0.16801026930919913
680000000.0 0.17942473269112547 0.3707801192553186
700000000.0 0.3842875657251279 -0.17961123235737764
720000000.0 0.026049454422800173 -0.4220829948929075
740000000.0 0.2311617604119725 0.3452073638842945
760000000.0 0.32953362098346434 -0.22444442991300664
780000000.0 -0.24496279769704643 0.27818502551483004
800000000.0 0.3385652874442056 0.061234899347354405
820000000.0 -0.07068568536469483 0.2949332513464402
840000000.0 -0.12407129280956788 -0.22825255816207576
860000000.0 0.11533932177289477 -0.18168819045944892
880000000.0 -0.07481411076505863 0.1534256260880175
900000000.0 0.027023103066846223 -0.1054052247169501
920000000.0 -0.04175149041361767 0.051834504493409796
940000000.0 -0.04496247549480345 0.021448945225628617
960000000.0 0.014396446519718734 0.054358517351121
980000000.0 -0.04978440676257957 -0.05505386301482429
1000000000.0 0.015657398568826617 0.08034575878467923
1020000000.0 -0.09647989109584812 0.024208098660612822
1040000000.0 -0.09219345790430349 -0.05150369911055381
1060000000.0 0.08296213170403548 0.11280111624105962
1080000000.0 -0.12502757900853367 -0.08986437610956725
1100000000.0 -0.1775835407904594 -0.006741494559572086
1120000000.0 -0.08364688894351269 0.18066886316411745
1140000000.0 0.15192742268822787 0.18054402523474772
1160000000.0 0.19398184496448612 0.19323051609314848
1180000000.0 0.12677185730857374 0.28542563958466977
1200000000.0 -0.04834162099375814 0.3429470764845298
1220000000.0 -0.13743218383084926 -0.34845912242572913
1240000000.0 0.1954964610534063 0.349175326562854
1260000000.0 0.02072252824959309 -0.42498258879393774
1280000000.0 -0.1629152400471691 0.41102905910628307
1300000000.0 0.40022389031315314 -0.2036596195797313
1320000000.0 -0.2790765049321634 -0.34441561644032875
1340000000.0 -0.19560613180250097 -0.38965229987588557
1360000000.0 0.08672234752283728 -0.4209074031776805
1380000000.0 -0.00579628846410312 -0.428498823489552
1400000000.0 -0.41448329565147324 -0.05499192282339527
1420000000.0 -0.13257106677467492 0.3792516287149319
1440000000.0 0.36204320239345816 0.09987184595760076
1460000000.0 0.2406686238521085 -0.24798599767296098
1480000000.0 -0.1918598915016184 -0.2523960465812229
1500000000.0 -0.28644938919915264 -0.003297728713228626
1520000000.0 -0.18715824237551723 0.18232061548908968
1540000000.0 -0.0773528079481488 -0.22082402895366404
1560000000.0 0.09136979276525178 -0.17831781599367924
1580000000.0 0.16858414914074374 -0.026437871493151043
1600000000.0 -0.09412641373371602 -0.10216631847552088
1620000000.0 -0.09121370836926365 -0.05324208440357789
1640000000.0 0.04263052855139417 -0.06923048475874363
1660000000.0 0.0019512222578688429 -0.05600704438239817
1680000000.0 -0.03294962875759318 -0.002132403449414239
1700000000.0 0.003861501377270873 0.01556782293261196
1720000000.0 0.0014824760928206226 -0.00390903240485996
1740000000.0 -0.005842810645809319 -0.01944166045064218
1760000000.0 0.03692866005741495 -0.004764078885859951
1780000000.0 -0.009921062847591467 -0.06601012855363213
1800000000.0 0.024218450200451797 0.09673090578440996
1820000000.0 0.1314361822498767 0.004130508104598474
1840000000.0 -0.16547655062530023 -0.03352122606303577
1860000000.0 0.1850875404975965 0.08976443715925324
1880000000.0 -0.1765952349087848 -0.16974450374899752
1900000000.0 0.161263126935873 0.23535000842675635
1920000000.0 -0.12764043229453081 -0.2936443915237847
1940000000.0 -0.1725830429103635 0.3045136952524955
1960000000.0 0.37622229901984516 0.002525107939398154
1980000000.0 -0.062285349843986454 -0.3900616945044076
2000000000.0 -0.3106507704934626 -0.2715761206757798
2020000000.0 -0.3389881384739064 0.2590849482183798
2040000000.0 -0.019245327287276626 0.4350013085701587
2060000000.0 0.4293143064715075 0.0932980688720187
2080000000.0 0.26095036530527677 -0.3490076736876261
2100000000.0 -0.1317243897061964 -0.40783726278900084
2120000000.0 -0.33571138720478244 -0.2506949632563085
2140000000.0 -0.40470706875914325 0.04344050003871769
2160000000.0 -0.26493255681689015 -0.28820813668665674
2180000000.0 -0.3721393223474533 -0.04646158116518695
2200000000.0 -0.3277012990794347 0.15383907615226677
2220000000.0 -0.20037257816544174 0.28837030242060363
2240000000.0 0.03715691657191538 0.34734365103582654
2260000000.0 0.28597328564808755 0.20322231468633453
2280000000.0 0.33418320898325293 -0.12722355107219455
2300000000.0 -0.19419665301756056 -0.3171363649519582
2320000000.0 -0.27282900282178396 0.28730332518851437
2340000000.0 0.4226622310145897 0.06981969511623491
2360000000.0 -0.33803604170658264 -0.3238284345604014
2380000000.0 0.320543213266767 0.40177020009071274
2400000000.0 -0.4189909497970578 -0.3767950817806975
2420000000.0 0.5993680300261762 0.12653187278644185
2440000000.0 -0.5969943842963306 0.27484015990802146
2460000000.0 0.3323992682192824 -0.6082589795375604
2480000000.0 -0.09903230281563398 0.7125436784958055
2500000000.0 0.2697970003065271 -0.6850408367619455
2520000000.0 -0.49026374700184755 0.5587811761801014
2540000000.0 0.7238755509804559 -0.16482683593868797
2560000000.0 -0.5961455066389184 -0.4273631236426058
2580000000.0 -0.12154682501174845 0.7047279399640444
2600000000.0 0.6517227241529306 -0.22424127145123016
2620000000.0 -0.46447672077476215 -0.4656124584300704
2640000000.0 -0.4641322175631302 -0.410274116706936
2660000000.0 -0.19484336568107033 0.5412229800309402
2680000000.0 0.5249373123186573 -0.07242535913166938
2700000000.0 -0.28615295816323644 -0.39168313388852927
2720000000.0 -0.08380726542598509 0.43212627455397024
2740000000.0 0.3276009990124107 -0.22748810485775522
2760000000.0 -0.3551516782612355 0.0706473122244698
2780000000.0 0.32431317573716556 -0.06984102949420602
2800000000.0 -0.26948332475055986 0.1487989396613711
2820000000.0 0.13125218931862567 -0.2607390835966281
2840000000.0 0.09156102949589817 0.2678019915972714
2860000000.0 -0.24563590080273145 -0.13793010251418442
2880000000.0 0.24443738004767768 -0.14457621814296878
2900000000.0 -0.13176532824700551 0.25661363127672393
2920000000.0 0.18541006695615014 -0.22846271584065006
2940000000.0 -0.2761836277331895 0.1152547271759014
2960000000.0 -0.027402072315772092 0.29901671142799496
2980000000.0 -0.04224385737378581 0.29950103462565514
3000000000.0 -0.25167509305381214 0.17005175047729132
3020000000.0 -0.1643076843306934 -0.2538113340751659
3040000000.0 0.2783318436636997 0.11144447012243422
3060000000.0 -0.2974984175475604 -0.033232589197767386
3080000000.0 0.2936632672270758 0.04475128831016236
3100000000.0 -0.2851562926087715 0.06942290634415482
3120000000.0 0.2633990829331902 -0.11296749437380851
3140000000.0 -0.10423778305246063 0.2597011360397665
3160000000.0 -0.17324178819795663 -0.20161689683248885
3180000000.0 0.054789224400285934 0.24330949821072
3200000000.0 -0.198721247068139 0.10497965821444769
3220000000.0 -0.12964939621309177 -0.1481766650543141
3240000000.0 0.14623677631310109 -0.07426938818320121
3260000000.0 -0.12748050515345904 0.024224438194143154
3280000000.0 -0.04278455018890358 0.0888438856838684
3300000000.0 -0.05712515843197131 0.04320228170802955
3320000000.0 -0.0285967855399604 -0.03623431070593358
3340000000.0 -0.017154294414208023 0.020344367754485976
3360000000.0 -0.009690058679003959 -0.004425837816484044
3380000000.0 0.0009251231905580274 -0.0055772827281345945
3400000000.0 -0.012996700864234297 0.014722484627946154
3420000000.0 -0.006538827236520607 0.03404324489004725
3440000000.0 0.025334894936463046 -0.04035324193988196
3460000000.0 -0.04867653668260867 -0.030757452537212494
3480000000.0 -0.06646290452964171 -0.010386369868855716
3500000000.0 -0.03210299766025269 0.07194679705950222
3520000000.0 0.0021529328219395535 0.09110172394187564
3540000000.0 0.04231792646823775 -0.09452093208764059
3560000000.0 -0.11408253462012545 0.0231628850993716
3580000000.0 0.09377364466598886 0.09262471625547304
3600000000.0 -0.1501503041648296 0.02590966125995342
3620000000.0 -0.16629350475966273 0.0005070243140739819
3640000000.0 -0.13569066219988818 -0.11838097830816703
3660000000.0 -0.18600025722281804 -0.03650027803205306
3680000000.0 -0.18101727631266748 -0.06643363819523923
3700000000.0 -0.17645203679180427 -0.07372826820991582
3720000000.0 -0.05337258417992164 -0.18030368255168971
3740000000.0 0.0981260209032792 -0.1528532398317995
3760000000.0 -0.154586757880507 0.07994766710413818
3780000000.0 0.12152678764503956 0.11097213812757963
3800000000.0 0.1437798105364847 -0.06373576998853084
3820000000.0 0.12867981560950748 -0.08284307769302585
3840000000.0 0.13805421338409402 -0.059127479245442996
3860000000.0 0.1501168495988095 0.01642294541584139
3880000000.0 0.14191099700239027 -0.06543424006204888
3900000000.0 -0.0885745806475725 -0.12932468505465347
3920000000.0 -0.04455136896715429 0.15397891967606606
3940000000.0 0.04916164707818935 -0.15648112069920841
3960000000.0 0.14836537823091034 0.0813507263835152
3980000000.0 0.1654963108195541 0.04087127520439656
4000000000.0 0.16369049036506783 -0.02452542384074167
