! Created with skrf (http://scikit-rf.org).
# Hz S RI R 50.0 
!freq ReS11 ImS11
400000000.0 -0.858331198932789 -0.04886499711480579
420000000.0 -0.08545562303113687 0.8582030460954936
440000000.0 0.7743520488736362 0.31339795004081794
460000000.0 0.7753869599414002 -0.1477208091765977
480000000.0 0.2780814367335263 0.6797035830180171
500000000.0 -0.19577523528988794 -0.5638846315954243
520000000.0 -0.46002961616228477 0.23508889306281266
540000000.0 -0.4080195678575927 0.16153053681117163
560000000.0 0.3216752485113864 0.21219308943469425
580000000.0 0.05056265195943123 0.3287262876611853
600000000.0 0.16826164446047087 0.299618400504761
620000000.0 0.026834556221022786 0.3429052401479114
640000000.0 -0.24422000630702245 -0.2490980621577431
660000000.0 -0.026713201006348483 -0.37025834342714986
680000000.0 -0.1405954327130548 0.3597970684326465
700000000.0 -0.06218809842852617 0.40985791048004205
720000000.0 0.12203899367342612 0.4000239772512393
740000000.0 -0.3997136822907108 -0.16890022524950257
760000000.0 0.3943099941218647 -0.1339098796970286
780000000.0 -0.32269289229506704 0.21348801598011902
800000000.0 0.07608826420242638 -0.345543556162989
820000000.0 0.2867842127837516 0.08857101719616049
840000000.0 -0.24596485604993215 -0.07655810507916475
860000000.0 0.042545150727499606 -0.19970141206904682
880000000.0 -0.16480502191783988 0.014533012952997401
900000000.0 0.023329775290775498 -0.09084353731078176
920000000.0 0.03379810400250895 -0.0436430885875637
940000000.0 -0.04514477375460681 0.0015163551026478686
960000000.0 -0.018455875009701632 -0.04637966865672269
980000000.0 0.05987491167501409 0.02307814233226129
1000000000.0 -0.06370958233254528 0.0503499334577355
1020000000.0 0.009042933729202035 0.0976148148999476
1040000000.0 0.09345226832120315 -0.07181707580070368
1060000000.0 -0.05619045624260773 -0.13948007040052904
1080000000.0 0.10392271973406049 -0.13763611670648745
1100000000.0 0.10154107199182989 0.15774836278077686
1120000000.0 0.2000840752045803 0.056740249250392776
1140000000.0 -0.23952098956104992 0.013120751084041607
1160000000.0 -0.027729246534543034 -0.26910016515106183
1180000000.0 0.04297715704055378 -0.30598412863931856
1200000000.0 0.2357584895442581 0.23566752142006417
1220000000.0 -0.33295740221118036 -0.14820521630780026
1240000000.0 -0.1338305864217284 0.36122635731079367
1260000000.0 0.3952178698836549 -0.14249594404393012
1280000000.0 -0.43139693595740897 -0.05857666103156037
1300000000.0 0.26326286367151014 0.3664175359136367
1320000000.0 0.22198846052796795 -0.388932581050731
1340000000.0 0.24950059345039688 -0.3709921664770365
1360000000.0 -0.017164111932847174 -0.43969026596886346
1380000000.0 -0.21854292862733757 -0.37886972222954457
1400000000.0 -0.2662149585638103 0.32604389318403265
1420000000.0 0.13991495835553625 0.377450679614482
1440000000.0 0.29898074070541786 -0.2279256957453307
1460000000.0 0.10332362300972434 -0.32850632735149193
1480000000.0 -0.2765044859788976 -0.1516946188922144
1500000000.0 -0.25657890135716455 0.12258727497524785
1520000000.0 -0.12598531476382052 0.22091059415061723
1540000000.0 -0.022087091470313125 -0.22649681378469008
1560000000.0 0.19457779796359795 0.020504724216474583
1580000000.0 -0.003202387666105352 0.166400562478705
1600000000.0 0.13501487204027468 0.0264312157952087
1620000000.0 0.10413896926046956 0.01975759731201555
1640000000.0 -0.05751464134895048 0.0585987391947984
1660000000.0 -0.05896701494534497 -0.0005502775687220826
1680000000.0 -0.03377809605369389 -0.019490041367615635
1700000000.0 -0.00253225349083978 -0.024298274693714348
1720000000.0 0.0022729276334559722 -0.005594824877488085
1740000000.0 -0.011746841207150896 -0.005949802209861198
1760000000.0 0.01132878140268477 0.03086043188836396
1780000000.0 0.037407041711400385 0.0534265358677082
1800000000.0 -0.06258681554135222 0.07913635212024722
1820000000.0 0.13102365420288783 -0.01279082487970375
1840000000.0 -0.10907350704814701 -0.12467017315511075
1860000000.0 0.10245910305575993 0.17371140566627388
1880000000.0 0.15960201722061162 -0.1769736294360772
1900000000.0 -0.2810047467282785 0.019740168880976496
1920000000.0 0.3133607574267415 -0.0636384609694409
1940000000.0 -0.33782603906126685 -0.10551233608931733
1960000000.0 0.2660362411755224 0.2754332570466733
1980000000.0 0.04442426855714741 -0.40028519709610144
2000000000.0 -0.418301833572029 -0.040946169043137415
2020000000.0 0.057494138592728124 0.4256265291941771
2040000000.0 0.4032798474352612 0.16068010839393465
2060000000.0 0.2710294653301149 -0.3362014127072097
2080000000.0 0.09136801780336538 -0.41528802950509575
2100000000.0 -0.08092293058362607 -0.40909919586265914
2120000000.0 -0.02001511301160506 -0.40995173574139576
2140000000.0 -0.15751176142472906 -0.36975449799165094
2160000000.0 0.2901491145910715 -0.2634137410125378
2180000000.0 -0.006700904558176968 -0.38152962220540837
2200000000.0 -0.32067366380295254 -0.18774707530175946
2220000000.0 -0.2898170056160727 0.21926937712348027
2240000000.0 0.14939675749792788 0.3249157375146221
2260000000.0 0.35235777231809373 0.054699259639167164
2280000000.0 0.2468686586027614 -0.2586940912461154
2300000000.0 -0.10865077148510117 -0.3531038036726671
2320000000.0 -0.3901933672196498 -0.022137580111459984
2340000000.0 -0.08734272265278772 0.4135288439073253
2360000000.0 0.41307259989777884 -0.20756055535811205
2380000000.0 -0.5069195135748331 0.06526428376988899
2400000000.0 0.5392622882710653 -0.16012814124652996
2420000000.0 -0.3787679754473983 0.48308591867022194
2440000000.0 -0.14520445178125427 -0.6439603715940578
2460000000.0 0.578184189886344 0.39051625961039044
2480000000.0 -0.7250274272134528 0.009309739334801755
2500000000.0 0.7367997817617835 -0.09511679483614208
2520000000.0 -0.7506886652201462 -0.03628459817994535
2540000000.0 0.642184618777292 0.39158497885675975
2560000000.0 -0.23737730809380536 -0.7064504697370416
2580000000.0 -0.5161138648230347 0.5156626650524286
2600000000.0 0.7046147497845123 0.029215809516919232
2620000000.0 -0.3657674842179519 -0.5669291354553135
2640000000.0 -0.5516513239273443 -0.32224317444109235
2660000000.0 0.004113306090162281 0.5948378205858599
2680000000.0 0.43247036995911786 -0.3400446633704416
2700000000.0 -0.49595502271749786 -0.09124788674004065
2720000000.0 0.32923917683171416 0.31787850125336353
2740000000.0 -0.06751725589300198 -0.4082183079453904
2760000000.0 -0.14417371119293398 0.34464773666358756
2780000000.0 0.12704585509028427 -0.3163138404334808
2800000000.0 -0.22359371091489025 0.22077480213433723
2820000000.0 0.17119444140335735 -0.24198503186859105
2840000000.0 -0.1311497568001128 0.25575017064935635
2860000000.0 -0.0243557538263896 -0.2834480570693919
2880000000.0 0.22830784698383355 0.1742928074304989
2900000000.0 -0.2901639318020841 0.01711723672409148
2920000000.0 0.29436148533919654 0.046320084336854916
2940000000.0 -0.2822004082826103 -0.11493794135515772
2960000000.0 -0.051893796571831984 0.30184645987991315
2980000000.0 0.18992981857682864 0.2433556418506129
3000000000.0 0.06337502603104009 0.2994780566987851
3020000000.0 -0.2103641044312115 0.21958603610913666
3040000000.0 0.047132008964674 -0.29504842135475856
3060000000.0 -0.06584998214796801 0.2882304653240402
3080000000.0 0.13284585266413368 -0.2611896246857053
3100000000.0 -0.15549564015895023 0.24445682950922693
3120000000.0 0.1807781115451903 -0.21896337200580385
3140000000.0 -0.012593305589740771 0.27781374930435015
3160000000.0 -0.17959302426093848 -0.1950208870359724
3180000000.0 0.05659466015410425 0.24312456167703972
3200000000.0 -0.22894407144335138 -0.00044621333246012935
3220000000.0 -0.10182532187862739 -0.1769671834823423
3240000000.0 0.06350902921803002 -0.16184373745321434
3260000000.0 0.1359116256121872 0.033854598975921926
3280000000.0 -0.08340753143341324 0.0651350152995011
3300000000.0 0.023482330333686185 -0.06902238608983884
3320000000.0 -0.004611078792952827 -0.042865627569108354
3340000000.0 0.015175196933750294 -0.010177015797832471
3360000000.0 -0.0021726149985120675 -0.0034495979199274233
3380000000.0 0.011474886045479218 -0.0035147758970590975
3400000000.0 0.009958166337283669 -0.018827765217071607
3420000000.0 -0.026110837312826495 -0.016728049338722014
3440000000.0 -0.03716753122226142 0.01561687241246074
3460000000.0 0.03507866369498909 -0.035449370004135165
3480000000.0 -0.053407320705873604 0.03356686195781977
3500000000.0 0.015937443586689005 0.07825350125088407
3520000000.0 -0.036141729667082984 -0.09045919904295542
3540000000.0 0.11077728249259328 -0.02002062031875935
3560000000.0 0.02961852785624239 0.1222643158221992
3580000000.0 -0.08207361812250503 -0.11041626200917093
3600000000.0 0.15085771366262904 -0.03326731166216706
3620000000.0 0.1488195471631006 0.06940176960468797
3640000000.0 -0.07972933628997086 0.1553360787766649
3660000000.0 -0.1763557406077167 -0.052114853953536176
3680000000.0 -0.004230578801963044 -0.18999326492547927
3700000000.0 0.14531159364103038 -0.12449455056571876
3720000000.0 0.16171474111826653 0.10482407246753171
3740000000.0 0.1257393714029567 0.14193089775254283
3760000000.0 -0.16642738742075283 -0.07921450560502091
3780000000.0 0.1641901111525645 -0.05980197683453023
3800000000.0 -0.13766216671697884 -0.08873241749737418
3820000000.0 -0.15186410083453 0.01648353050793594
3840000000.0 0.07749968741682119 -0.12234494807435649
3860000000.0 -0.06480700579783807 0.12971598482763821
3880000000.0 -0.1533529715372851 -0.004273209547461046
3900000000.0 -0.018223807660805665 0.1592281516267897
3920000000.0 0.13715088123319072 -0.09709347359210056
3940000000.0 0.14523666989044046 0.09917250035061702
3960000000.0 0.12482069247602648 0.13033705852415498
3980000000.0 0.07874597360259424 -0.1624176199155949
4000000000.0 0.0071953187463709494 -0.17009058779230268
