! Created with skrf (http://scikit-rf.org).
# Hz S RI R 50.0 
!freq ReS11 ImS11
400000000.0 -0.8576826446862469 -0.061626623991628625
420000000.0 -0.12267131984973804 0.8543867744786099
440000000.0 0.7917596978206513 0.26662239885452577
460000000.0 0.7772004803286839 -0.13255974830872114
480000000.0 0.2401981631623868 0.6937810675627685
500000000.0 -0.20330406915686092 -0.5635779706994735
520000000.0 -0.41258092685903547 0.3082957363479981
540000000.0 -0.42759700877009926 0.09739670927012735
560000000.0 0.3336948999002725 0.19125102032471028
580000000.0 0.022006171009584626 0.3337792379589971
600000000.0 0.23928318688555536 0.24483280912556876
620000000.0 0.0017154426682419975 0.34343067625362544
640000000.0 -0.2169673711591292 -0.27437407058199864
660000000.0 -0.02793961361096345 -0.3705164127845558
680000000.0 -0.12794922001741155 0.36409269488954005
700000000.0 -0.056786508877140304 0.41037080097460354
720000000.0 0.1109933704398211 0.4034566000754895
740000000.0 -0.4101693830869305 -0.14175505684061349
760000000.0 0.4013140759699886 -0.11079706657651492
780000000.0 -0.3146615751262373 0.22516287117262548
800000000.0 0.08610232853174545 -0.34318978900807084
820000000.0 0.2851840456864128 0.09474874861818244
840000000.0 -0.24993935370345174 -0.06402442979150214
860000000.0 0.04291790088986464 -0.19969404381195316
880000000.0 -0.16547276129423788 0.008330762317705177
900000000.0 0.03796278179702286 -0.08581014376907037
920000000.0 0.020032297709082342 -0.05148197101899322
940000000.0 -0.040141050311861146 0.0201406610438415
960000000.0 -0.02112539352912749 -0.04526468631999676
980000000.0 0.04959520353002484 0.04154897087856663
1000000000.0 -0.06018456079135836 0.05446897551207829
1020000000.0 -0.0014323183092094381 0.09829311994097109
1040000000.0 0.09589042462383585 -0.06911847947644095
1060000000.0 -0.04579532559191579 -0.14356813047363098
1080000000.0 0.09294627756327627 -0.1454617473519088
1100000000.0 0.1052496228353636 0.15550786163809277
1120000000.0 0.20381049603602802 0.04187308944382842
1140000000.0 -0.23925581797574677 0.013687569223586325
1160000000.0 -0.05025891006429434 -0.26592302214986596
1180000000.0 0.020140471951246037 -0.3080318732846138
1200000000.0 0.24485836026309157 0.22605186651738174
1220000000.0 -0.3360462245372006 -0.14101798978994615
1240000000.0 -0.14425723208491562 0.3573372931929396
1260000000.0 0.39903535892628006 -0.1308798153266684
1280000000.0 -0.43128446875722537 -0.06124461684831011
1300000000.0 0.2547388272460381 0.3723671035223977
1320000000.0 0.22324480772598565 -0.38833875683782126
1340000000.0 0.24847945379405822 -0.372090431633577
1360000000.0 -0.007459476248197954 -0.4402291722227737
1380000000.0 -0.22028273019174024 -0.37811734582218015
1400000000.0 -0.26848336873023493 0.32420942856582974
1420000000.0 0.15728090849959392 0.3700842795935144
1440000000.0 0.299822488091143 -0.22650596792683683
1460000000.0 0.10402973109579786 -0.3280960938804775
1480000000.0 -0.28860939422119664 -0.12647796407618198
1500000000.0 -0.2537844781692773 0.12800248266855507
1520000000.0 -0.12926239385734814 0.218920218610259
1540000000.0 -0.009421137360140323 -0.22752221809673975
1560000000.0 0.19444258778319662 0.021352392952174386
1580000000.0 -0.015445509285880487 0.1655748177305916
1600000000.0 0.12995692226703875 0.046523690726846374
1620000000.0 0.10618044112321895 0.004447388848167722
1640000000.0 -0.0655750267757313 0.04940004626450885
1660000000.0 -0.056910369811442096 -0.01592829703650785
1680000000.0 -0.007290240223347619 -0.03849449331470884
1700000000.0 -0.0037515445246599863 -0.024508968142825525
1720000000.0 -0.0059710702497035705 -0.0010136657706331705
1740000000.0 -0.011532750452551605 0.006819036106459498
1760000000.0 -0.006825357813532274 0.03232600634828545
1780000000.0 0.015266607481060065 0.06315439377678793
1800000000.0 -0.06932211253884381 0.07378670475812191
1820000000.0 0.1317629825215679 -0.007029439204027047
1840000000.0 -0.11005168186135643 -0.12410838641819584
1860000000.0 0.10320007728102615 0.17305537130896026
1880000000.0 0.15168232206119975 -0.18360313002513567
1900000000.0 -0.28155997564815555 0.013727584071966826
1920000000.0 0.3125647593766866 -0.06638248379332885
1940000000.0 -0.34063807261837276 -0.0958065542171364
1960000000.0 0.26881539536067284 0.272239222329365
1980000000.0 0.014002338839912334 -0.40214040488048497
2000000000.0 -0.41938839714565745 -0.026373539497089538
2020000000.0 0.07264734793725577 0.42334242229051944
2040000000.0 0.41413466777172336 0.1305435482479861
2060000000.0 0.27674907771918744 -0.3316426539385622
2080000000.0 0.09079986062604721 -0.4158576176618388
2100000000.0 -0.05749747736949478 -0.4132507628893296
2120000000.0 -0.015057696151811309 -0.41031974830854046
2140000000.0 -0.17041444959371588 -0.3641182781357861
2160000000.0 0.29879244627896123 -0.25416168280343737
2180000000.0 -0.006957143153816002 -0.3816233934001682
2200000000.0 -0.310635138418584 -0.204232673938369
2220000000.0 -0.2897291429955265 0.21952911882923665
2240000000.0 0.13904873441512294 0.3293658085193483
2260000000.0 0.3515729098493832 0.05994577937031426
2280000000.0 0.2587975504815024 -0.24601849886123742
2300000000.0 -0.1008597721097926 -0.3549980756058401
2320000000.0 -0.3899952882019754 -0.019886342475514143
2340000000.0 -0.056462602899987106 0.4189496228396937
2360000000.0 0.4013437618593406 -0.22974409571306256
2380000000.0 -0.50363238725556 0.08838792723571276
2400000000.0 0.5307693291760175 -0.18688870426385057
2420000000.0 -0.3379268642845363 0.512467654464569
2440000000.0 -0.17536515578913373 -0.6365895906778126
2460000000.0 0.6006991466659202 0.3544403392985256
2480000000.0 -0.7249060485219698 0.02147004459595838
2500000000.0 0.7299296157088444 -0.13812228608549484
2520000000.0 -0.7470596595302088 -0.08337111724214154
2540000000.0 0.6493512442158759 0.37935774786117793
2560000000.0 -0.22297647684875743 -0.7112297816899544
2580000000.0 -0.4961019936846753 0.5347094096801362
2600000000.0 0.7040828509400308 0.02986544978692136
2620000000.0 -0.3903389828365487 -0.549786510747993
2640000000.0 -0.5412745157643648 -0.33851213018053455
2660000000.0 0.00862088368867518 0.5944342414558769
2680000000.0 0.414784820220708 -0.36108814180348753
2700000000.0 -0.4981335802587975 -0.07686565092948686
2720000000.0 0.3400252620053082 0.30597733891260537
2740000000.0 -0.033860174188319665 -0.4120851830406828
2760000000.0 -0.1552148400516808 0.33980778613402735
2780000000.0 0.12331213868654259 -0.31760649814788317
2800000000.0 -0.22395822248813657 0.2199035143221578
2820000000.0 0.17525737906559397 -0.2390062022979052
2840000000.0 -0.1224268523966323 0.2599458962198176
2860000000.0 0.004603677448087274 -0.2845682567121124
2880000000.0 0.2203579418662751 0.18430362380254564
2900000000.0 -0.29073257644169964 0.010222591306525412
2920000000.0 0.2953849047158569 0.039058021571463306
2940000000.0 -0.2917998379108379 -0.08564928921476848
2960000000.0 -0.060628742088466574 0.300473326147896
2980000000.0 0.21030520054726906 0.22615224564094907
3000000000.0 0.07155125061034283 0.2989741599529044
3020000000.0 -0.2258399343198287 0.20423227435749164
3040000000.0 0.09661081505113008 -0.28327849539959804
3060000000.0 -0.021101195395108813 0.29534609266999046
3080000000.0 0.13811351886523976 -0.25827139057119575
3100000000.0 -0.15002083105735736 0.24790129829878638
3120000000.0 0.18122017482379488 -0.21940364173924193
3140000000.0 0.003744870524700381 0.2781620103640493
3160000000.0 -0.1832909319569795 -0.19165143838836515
3180000000.0 0.015677157611696944 0.2489954585562056
3200000000.0 -0.22883074505952058 0.006188546424633298
3220000000.0 -0.0815408314882343 -0.18680085876848093
3240000000.0 0.0883703612734437 -0.14962545351059406
3260000000.0 0.13413673921484848 0.03962797205176965
3280000000.0 -0.06210850135803548 0.0854904164525202
3300000000.0 0.030593919685329256 -0.06564675409549454
3320000000.0 0.010242819129001483 -0.04180258825431589
3340000000.0 0.01784251195482692 0.004596932896782307
3360000000.0 -0.000324165142664553 0.0034134988073544997
3380000000.0 0.012017156855902307 -0.0025497987738394945
3400000000.0 -0.002770254143840866 -0.021571472236769283
3420000000.0 -0.018332700207775745 -0.024905954650591845
3440000000.0 -0.02679688372321072 0.030558922421713153
3460000000.0 0.04614057221723307 -0.018396128880188253
3480000000.0 -0.058064429188136396 0.024515143441865037
3500000000.0 0.01611931112161841 0.07831322591879782
3520000000.0 -0.026119251814735154 -0.09346700745868121
3540000000.0 0.112441999364502 -0.004210755097427398
3560000000.0 0.030539816875999267 0.12208435518473991
3580000000.0 -0.06032882534744992 -0.1232623528901484
3600000000.0 0.14381292370031912 -0.057622521588745826
3620000000.0 0.14231241543276826 0.08198909955473742
3640000000.0 -0.07813664659513125 0.15599932533583594
3660000000.0 -0.17475735593034517 -0.056862498633782003
3680000000.0 -0.006064965879236984 -0.18975898114843187
3700000000.0 0.14666137830650766 -0.12264349977140473
3720000000.0 0.1642833490327967 0.1006570108952658
3740000000.0 0.1292593378362019 0.13845877385688285
3760000000.0 -0.16747134109368314 -0.07690964072390698
3780000000.0 0.16100313299297359 -0.06773125651185043
3800000000.0 -0.1289288090514582 -0.10092398791236419
3820000000.0 -0.1524539921757852 0.006767232047069574
3840000000.0 0.08039787596816433 -0.1205717149994039
3860000000.0 -0.08809241837567688 0.11540407599240897
3880000000.0 -0.15090481006549317 -0.025741441033155527
3900000000.0 -0.03144398326485055 0.15726884888779769
3920000000.0 0.15084071059367213 -0.07443398672444744
3940000000.0 0.1318776830329211 0.1168060866821089
3960000000.0 0.10316854616970886 0.1482263823297533
3980000000.0 0.10086640378980452 -0.14939815647767038
4000000000.0 0.01473481664331749 -0.16943076366134857
