! Created with skrf (http://scikit-rf.org).
# Hz S RI R 50.0 
!freq ReS11 ImS11
400000000.0 -0.860219269515589 -0.0269139808779203
420000000.0 -0.13587962560767253 0.8514534826632709
440000000.0 0.779476289649166 0.30205729068486814
460000000.0 0.7680885405345496 -0.1818491501579968
480000000.0 0.29111028936876127 0.6733012318964263
500000000.0 -0.08321266253634622 -0.592578371566801
520000000.0 -0.4109217170310085 0.3147463470444097
540000000.0 -0.38871161478004007 0.19640569500139776
560000000.0 0.2798330937272554 0.26686812417447076
580000000.0 -0.05681375978413674 0.3269763819213356
600000000.0 0.32345671811496 0.12142759179045527
620000000.0 -0.010886164566436382 0.34168601883377964
640000000.0 -0.18246646670734712 -0.2978255258489465
660000000.0 -0.07895801101758929 -0.36399889757561266
680000000.0 -0.16389332855227273 0.34897847557855666
700000000.0 -0.028292210401054896 0.4137004822197592
720000000.0 0.09052729043191649 0.40851489579600736
740000000.0 -0.41142408962099647 -0.13876351850582264
760000000.0 0.39311120970330576 -0.13485261600439444
780000000.0 -0.32833253594519873 0.20494284265787874
800000000.0 0.024460796667634982 -0.3523903291810879
820000000.0 0.270321705442142 0.13062049914009768
840000000.0 -0.25550383205773597 -0.03158742700181495
860000000.0 0.06069316661712199 -0.19477357794132882
880000000.0 -0.1650684270227031 -0.0017360820479240162
900000000.0 0.05324616123061682 -0.07694288223739278
920000000.0 0.006728330068330362 -0.0547343495280418
940000000.0 -0.045216523975767975 0.00272474044769075
960000000.0 -0.04136466483944128 -0.02784063637044814
980000000.0 0.05219729669098104 0.037086127791957635
1000000000.0 -0.06613007999015831 0.04841671395966349
1020000000.0 0.0008248915277687417 0.09747708882875676
1040000000.0 0.08958761267630715 -0.07737634587812232
1060000000.0 -0.046623293907973186 -0.14304148134114913
1080000000.0 0.09845612077088677 -0.142076796592613
1100000000.0 0.11243686461463788 0.15043466997640173
1120000000.0 0.20339178895812027 0.04423234552436208
1140000000.0 -0.23891485089997877 0.020762972636724192
1160000000.0 -0.024959579280263457 -0.2692098551629408
1180000000.0 0.033794785791170276 -0.3069154634837323
1200000000.0 0.2263538123898849 0.24399564778238927
1220000000.0 -0.3261783547786575 -0.16231647113507996
1240000000.0 -0.14222463262786797 0.35795582754425315
1260000000.0 0.40205199823810017 -0.12177598624827302
1280000000.0 -0.4307696907716995 -0.06464616920832278
1300000000.0 0.2723330580271563 0.35969070711879103
1320000000.0 0.23214531728092497 -0.38332339422614436
1340000000.0 0.2361516871633436 -0.3797898845554443
1360000000.0 -0.010015481985864463 -0.440347307038327
1380000000.0 -0.21751235199694055 -0.37912122582414687
1400000000.0 -0.27086928510065766 0.3226833864952759
1420000000.0 0.16147034284367265 0.36830887391596684
1440000000.0 0.2980129748340869 -0.2285671123647859
1460000000.0 0.10711151600000893 -0.3274091677536282
1480000000.0 -0.2790655520591114 -0.14699035640904917
1500000000.0 -0.26103507328567566 0.11197788719375498
1520000000.0 -0.11548224021573998 0.22657245335981377
1540000000.0 0.010068290212990622 -0.2274038313051642
1560000000.0 0.19472240017131429 0.020404135942746756
1580000000.0 -0.012876287543058938 0.16577832556296804
1600000000.0 0.1290967838136076 0.04864376303937939
1620000000.0 0.10291314021555335 0.0257706728604009
1640000000.0 -0.06938031883450711 0.044117790001562074
1660000000.0 -0.05864480840340991 -0.008190170316839607
1680000000.0 -0.009893659719744518 -0.038212213197257774
1700000000.0 0.0042159658014554804 -0.024151152843700594
1720000000.0 -0.0033565372552477016 -0.005085251331550579
1740000000.0 -0.009876922263813032 0.009103684302444966
1760000000.0 0.001032014732924814 0.03307032069188537
1780000000.0 0.030000911109297475 0.05790216262154618
1800000000.0 -0.06334435103322192 0.07847996804453643
1820000000.0 0.13166642600266157 -0.00472217047828636
1840000000.0 -0.10631742660597701 -0.12730039272297045
1860000000.0 0.09575113906632962 0.17736752088420127
1880000000.0 0.16258408280376577 -0.17398041283090862
1900000000.0 -0.28142919761168905 0.012928102121791256
1920000000.0 0.3125924421482002 -0.06674179902687319
1940000000.0 -0.33872307208430935 -0.1015547933229172
1960000000.0 0.2706936524249627 0.27064160888578054
1980000000.0 0.028161111312638713 -0.4014928262411186
2000000000.0 -0.4190840201422741 -0.031537312978310215
2020000000.0 0.06071312693405354 0.4253263287890087
2040000000.0 0.4148685727056182 0.1277440762721565
2060000000.0 0.2740816801119725 -0.3337853243737362
2080000000.0 0.09728044331038763 -0.4143355508424962
2100000000.0 -0.059319394426434885 -0.4128771390333027
2120000000.0 -0.004330726014786938 -0.4104901070555505
2140000000.0 -0.15174565165637424 -0.3723012118452251
2160000000.0 0.2987464209665967 -0.2537908603496862
2180000000.0 -0.014874916890214213 -0.3814167342169599
2200000000.0 -0.31706556039564987 -0.19358726229789044
2220000000.0 -0.29004274786032785 0.2190225253907197
2240000000.0 0.1406577738613537 0.3285889662267583
2260000000.0 0.3548304794124146 0.03566775402761915
2280000000.0 0.2429222720837907 -0.2621375627069382
2300000000.0 -0.1098389883839956 -0.3524133988999545
2320000000.0 -0.39058866150146543 -0.00936006452278018
2340000000.0 -0.07040276946585877 0.4170916641951695
2360000000.0 0.4094029334625944 -0.2146768175304452
2380000000.0 -0.5067123362493875 0.06842716686906332
2400000000.0 0.5364489289468882 -0.16989170457081884
2420000000.0 -0.3597431652025135 0.4975535439146041
2440000000.0 -0.1573497659859726 -0.6411053994283515
2460000000.0 0.5946704058863862 0.3643968358191663
2480000000.0 -0.7252663951745413 0.00349754849200418
2500000000.0 0.7365930394368713 -0.0975357349448608
2520000000.0 -0.7507935543467703 -0.03271588435778866
2540000000.0 0.6320898207301816 0.4077724666173774
2560000000.0 -0.23528922872503216 -0.7070163330027156
2580000000.0 -0.5106772375106977 0.5208032571422325
2600000000.0 0.7042774532943202 0.02791032563721578
2620000000.0 -0.33729058890563735 -0.5841307173350228
2640000000.0 -0.5411253530042639 -0.3390950333052702
2660000000.0 0.012251141014312038 0.5944880107226259
2680000000.0 0.4493115966064139 -0.3169605982030392
2700000000.0 -0.4932929979191862 -0.10379025169862871
2720000000.0 0.3276378762774331 0.31932022815888356
2740000000.0 -0.054655629358700705 -0.4099002586598829
2760000000.0 -0.14425131591963017 0.34459159867333566
2780000000.0 0.12808400862968605 -0.3156717262172501
2800000000.0 -0.22283158176971507 0.2213219689327562
2820000000.0 0.16676464291849877 -0.24514031584170362
2840000000.0 -0.12400536861854147 0.25911323420874854
2860000000.0 -0.005512500098469328 -0.2845390787088693
2880000000.0 0.22489766706626238 0.17861145297134315
2900000000.0 -0.29032370178812883 0.013743167088142232
2920000000.0 0.2930449708458886 0.053671996035231255
2940000000.0 -0.2850303515707604 -0.1068726785591366
2960000000.0 -0.05079472072674271 0.30245818278009867
2980000000.0 0.22177723694618828 0.21406496571602193
3000000000.0 0.09984471240854063 0.289695436300951
3020000000.0 -0.20080650927150734 0.22854622886896517
3040000000.0 0.019976750280348628 -0.2985344488398101
3060000000.0 -0.04887319761665622 0.29170717656286954
3080000000.0 0.11878979532223105 -0.26801978291383055
3100000000.0 -0.1993426744302726 0.21020424353423528
3120000000.0 0.1589615280915835 -0.23621167417004385
3140000000.0 0.0031360206710489306 0.2782229786974187
3160000000.0 -0.17240159418764153 -0.20151095418696863
3180000000.0 0.026142935599825626 0.24844650562990758
3200000000.0 -0.22826903906957363 0.015935792725959987
3220000000.0 -0.0749887686962933 -0.18932785484514544
3240000000.0 0.07600718022230747 -0.15674351418591775
3260000000.0 0.12830086437767932 0.05560795305158383
3280000000.0 -0.07871477365284556 0.07030119795523802
3300000000.0 0.040563984412764625 -0.06019507341607389
3320000000.0 0.010135070285159687 -0.04171765579987107
3340000000.0 0.013976354505068731 -0.011880454596886782
3360000000.0 0.0019899628184051384 -0.0025734838889479744
3380000000.0 0.01237283724018861 0.0007967082387249894
3400000000.0 0.013880045456906532 -0.016380821630604715
3420000000.0 -0.02629753201698743 -0.016423793394922056
3440000000.0 -0.028893416495479874 0.028672524771068242
3460000000.0 0.03783457263298961 -0.03218090782695186
3480000000.0 -0.05089432938204845 0.037383703696978444
3500000000.0 0.027903006874079418 0.07481400632417769
3520000000.0 -0.02222694201404793 -0.09432675155865622
3540000000.0 0.11225620793344654 -0.008702620434715699
3560000000.0 0.03152078570945994 0.1217789536584838
3580000000.0 -0.07174812854856628 -0.11708076725780592
3600000000.0 0.1494179743779134 -0.039041704778209924
3620000000.0 0.1520862865266142 0.06208034447981518
3640000000.0 -0.08108622728395992 0.15462584876389185
3660000000.0 -0.1756681438833725 -0.05455385184190236
3680000000.0 -0.014282312313906748 -0.18936069831506339
3700000000.0 0.14789759180888767 -0.12098475107579282
3720000000.0 0.16521447479180001 0.09892646066615277
3740000000.0 0.13251832707323258 0.1356391906444957
3760000000.0 -0.16623100044192302 -0.07935637284557578
3780000000.0 0.16869741824996265 -0.047755720291609544
3800000000.0 -0.12988115532252478 -0.10018146259146728
3820000000.0 -0.1530863965634779 -0.0007540648084389011
3840000000.0 0.09591570824770529 -0.10871318710605789
3860000000.0 -0.07202047826558515 0.12584374248105054
3880000000.0 -0.15123253227383504 -0.02546537361352685
3900000000.0 -0.022903526961331758 0.15842548317796912
3920000000.0 0.14429991375652362 -0.08615430637164212
3940000000.0 0.13415568791133653 0.11429897255749051
3960000000.0 0.10077218182933699 0.15024723199572187
3980000000.0 0.06892119969114557 -0.1666917516603468
4000000000.0 -0.03430215002044909 -0.16674532282723492
