! Created with skrf (http://scikit-rf.org).
# Hz S RI R 50.0 
!freq ReS11 ImS11
400000000.0 -0.8599288419040793 -0.027436424949692527
420000000.0 -0.05203599341737808 0.8611254290629302
440000000.0 0.7971265021009365 0.24974231447256853
460000000.0 0.7727041795310413 -0.15935463315308276
480000000.0 0.2566371177068777 0.6881742734722422
500000000.0 -0.1812140756213454 -0.5701128585366082
520000000.0 -0.448639647722842 0.25528839260697717
540000000.0 -0.4196018216569298 0.1264529913275769
560000000.0 0.3056600254508802 0.23298387366406667
580000000.0 -0.014286795249377813 0.3331182506084206
600000000.0 0.21539089510932247 0.2664013149951066
620000000.0 0.04648203478981336 0.3402068048231376
640000000.0 -0.23578633571139862 -0.2574958196915569
660000000.0 5.781848076239755e-06 -0.37207526767225074
680000000.0 -0.11682685014747178 0.3686773890363899
700000000.0 -0.0556422703228205 0.4112303033448547
720000000.0 0.10400504474299481 0.4058487542684314
740000000.0 -0.4086583614984244 -0.1469161310120056
760000000.0 0.40363908259668413 -0.10352961880100342
780000000.0 -0.32326758539999123 0.21340192750914658
800000000.0 0.0921515325490512 -0.34126331392161763
820000000.0 0.2844450889140459 0.0958155824397434
840000000.0 -0.25231789055793885 -0.050579008080970975
860000000.0 0.03173924275373525 -0.20136265582915963
880000000.0 -0.16506997959805753 0.0020909793981085056
900000000.0 0.03402272365701855 -0.08662344836035439
920000000.0 -0.005778495103780137 -0.054454563551254366
940000000.0 -0.03297316840106349 0.030957166583243084
960000000.0 -0.02293507023978898 -0.04460076285143601
980000000.0 0.056998204182623094 0.029800569330964238
1000000000.0 -0.03877536866620857 0.07069274181570767
1020000000.0 0.056828659803368604 0.07943757929590618
1040000000.0 0.0495219164230689 -0.10652346235097379
1060000000.0 -0.07430857117791473 -0.13032659938652577
1080000000.0 0.10243547056312942 -0.13773690028637153
1100000000.0 0.09139223239118079 0.1632412072024964
1120000000.0 0.20305917077903657 0.04383167606687046
1140000000.0 -0.2391965532957105 -0.015650944751873352
1160000000.0 -0.007904591813901482 -0.27090630522929937
1180000000.0 0.027797356529257827 -0.30795315709055676
1200000000.0 0.23150002733462813 0.24064859163322458
1220000000.0 -0.3419317645833428 -0.1268388818426569
1240000000.0 -0.13959642321415472 0.35966940122244884
1260000000.0 0.39655632525489093 -0.1391422444222096
1280000000.0 -0.43267043965109225 -0.04850666782710321
1300000000.0 0.2935147991151427 0.34228670538229883
1320000000.0 0.2016193291573148 -0.39968237908535165
1340000000.0 0.23504380305490155 -0.38003987512785636
1360000000.0 -0.03128341191620445 -0.43859073152338707
1380000000.0 -0.2504642985669081 -0.3583758716336566
1400000000.0 -0.24607369319043798 0.34142343779085754
1420000000.0 0.1821520133644884 0.3583221692589633
1440000000.0 0.28266859374673 -0.24708728180276077
1460000000.0 0.088857426736755 -0.33253188643852777
1480000000.0 -0.3049854565849266 -0.07848262764614199
1500000000.0 -0.24989133041714376 0.13552606060315459
1520000000.0 -0.10808359469452473 0.23066499727813639
1540000000.0 -0.038385963096047256 -0.22473598596921118
1560000000.0 0.19624304260064357 0.009950022099756164
1580000000.0 -0.0042809672765901025 0.16774288967851483
1600000000.0 0.1364161795459959 0.02573352718828182
1620000000.0 0.1065633471299853 -0.004780452879007586
1640000000.0 -0.06449966174706853 0.05110481149183826
1660000000.0 -0.055811746034544946 0.017462513488270843
1680000000.0 -0.03857925978605964 0.0019534510504344064
1700000000.0 -0.00264742266896629 -0.023709021328681915
1720000000.0 -0.0036384715401034944 -0.0043581993549360225
1740000000.0 0.0024050374886797816 0.014463931083331192
1760000000.0 0.023358113566173854 0.02442887688566346
1780000000.0 0.030707054821853444 0.05774181861443078
1800000000.0 -0.06995795806820063 0.07227760732269888
1820000000.0 0.13121528633266638 -0.0006652915938002384
1840000000.0 -0.10610584424288534 -0.12663288369017411
1860000000.0 0.08355442242818209 0.18280300363366983
1880000000.0 0.18258912757270823 -0.15244017005575572
1900000000.0 -0.28061714684276723 -0.020012738109465633
1920000000.0 0.3160264813476306 -0.046908219800849756
1940000000.0 -0.3361850860786172 -0.1102206763725112
1960000000.0 0.2706693866573903 0.271168474423685
1980000000.0 0.030591000320752487 -0.401954959465308
2000000000.0 -0.41956791693190404 -0.0291678525032142
2020000000.0 0.10205129883886926 0.4173862796466151
2040000000.0 0.4195489315926895 0.11037962571899931
2060000000.0 0.24413385698154624 -0.35570934633869017
2080000000.0 0.08778004865497628 -0.4166906321015294
2100000000.0 0.018805352847109342 -0.41731374899193224
2120000000.0 0.06412290659184952 -0.40601325810956407
2140000000.0 -0.1383655486275849 -0.3779273932095223
2160000000.0 0.3381002920731072 -0.20044025781287036
2180000000.0 0.04179460570228716 -0.38002853738046005
2200000000.0 -0.296792844392779 -0.22404121450098632
2220000000.0 -0.31052681917195557 0.18775703691962822
2240000000.0 0.09604351756817534 0.3443131398575485
2260000000.0 0.34117529231054 0.10390100108958197
2280000000.0 0.26173660782672475 -0.24328625298084516
2300000000.0 -0.0873724410807633 -0.3587874972471651
2320000000.0 -0.38531448483375597 -0.06339004327136401
2340000000.0 -0.09240894002835648 0.41192079978671403
2360000000.0 0.4160855677940438 -0.20025873146077294
2380000000.0 -0.5093723995840137 0.03650701895428305
2400000000.0 0.5493952831818634 -0.1186023047664366
2420000000.0 -0.40170721004603777 0.46411441697059236
2440000000.0 -0.1407888081870833 -0.6450461595402825
2460000000.0 0.5748038377506377 0.3957302131509041
2480000000.0 -0.7243573236237069 -0.056981804540257544
2500000000.0 0.7439524830459322 -0.012903648640627282
2520000000.0 -0.7478369599474991 -0.08394957375774145
2540000000.0 0.6153740453091944 0.4342054280212154
2560000000.0 -0.1798553890952642 -0.7238407131277416
2580000000.0 -0.5419342381634412 0.4894675173641643
2600000000.0 0.7022752086651829 0.07061921454982578
2620000000.0 -0.3116649687603501 -0.5998515444404388
2640000000.0 -0.5119667775110486 -0.383281245538268
2660000000.0 -0.0294094211079005 0.5950712764895648
2680000000.0 0.4390598606171452 -0.3332036200436302
2700000000.0 -0.492049959735994 -0.11448841885475146
2720000000.0 0.31902114201726933 0.3286042850468009
2740000000.0 -0.045301284436095 -0.4114374521029096
2760000000.0 -0.15454935013784005 0.34046205441348104
2780000000.0 0.142826741017541 -0.30954320615087555
2800000000.0 -0.2287953451300908 0.21527375624856696
2820000000.0 0.15455974581140702 -0.2530293283449604
2840000000.0 -0.11334438684990776 0.2640524424414455
2860000000.0 -0.008637365813549238 -0.28464324413965575
2880000000.0 0.23016287862235416 0.17292058485459574
2900000000.0 -0.29079966171156657 0.018779054317381222
2920000000.0 0.29726612568352323 0.02676339878390668
2940000000.0 -0.2909330964966088 -0.09563831634715673
2960000000.0 -0.01881273000745651 0.30669657757830493
2980000000.0 0.22836460286404678 0.2076194592781815
3000000000.0 0.06289510838025025 0.3006924127263982
3020000000.0 -0.2463135246659103 0.17850166227907474
3040000000.0 -0.0057961498127395185 -0.29929784858839703
3060000000.0 -0.038190837741913855 0.294353499456089
3080000000.0 0.1853097420110237 -0.22783398238940641
3100000000.0 -0.1481046595491212 0.25061336057290917
3120000000.0 0.15211823036104133 -0.24147143955726852
3140000000.0 -0.026841923297875252 0.27690432575937407
3160000000.0 -0.19032842374997322 -0.18560098679334397
3180000000.0 0.023346553083491366 0.2488772586812738
3200000000.0 -0.2267393451204871 0.029003964900723458
3220000000.0 -0.11369548701490075 -0.17003709398157305
3240000000.0 0.0917850648238038 -0.14772396606687807
3260000000.0 0.13271031088482338 0.04415801110271571
3280000000.0 -0.08442372942749217 0.06348231999625047
3300000000.0 0.05498121291493978 -0.047255040152045895
3320000000.0 -0.012557738203950095 -0.04158734691755886
3340000000.0 0.010621603086269454 -0.015646394785065753
3360000000.0 0.0006738913139160018 -0.003406253687918291
3380000000.0 0.00934568116842092 0.006808697259968513
3400000000.0 0.00266392761611035 -0.021084744552654577
3420000000.0 -0.015556041151965938 -0.02639479538326158
3440000000.0 -0.009078625126789279 -0.04010646518851216
3460000000.0 0.03540009092059248 0.03585662245866645
3480000000.0 -0.058720193276550044 -0.024885007166701355
3500000000.0 -0.05341510585572433 0.059868980536346886
3520000000.0 0.004914142334143714 -0.097171753164534
3540000000.0 0.11275083596957428 -0.00543488208517256
3560000000.0 -0.025627025171330333 0.12321401211718547
3580000000.0 -0.05648258601623176 -0.12482950161638984
3600000000.0 0.15506077363318904 -0.00834500169091579
3620000000.0 0.11791744306122616 0.11395458130469201
3640000000.0 -0.09333707633252109 0.14801223774719485
3660000000.0 -0.17688224866432048 -0.04896093718502112
3680000000.0 0.014707057981424531 -0.18962311508994434
3700000000.0 0.1646867808547557 -0.0982543908668557
3720000000.0 0.1388553358531851 0.13429989264625186
3740000000.0 0.10913021376727276 0.154713255401214
3760000000.0 -0.1563827024697829 -0.09618567885012251
3780000000.0 0.1588455909065826 -0.07178221764621398
3800000000.0 -0.12176355768423486 -0.10841129297329755
3820000000.0 -0.15259784770802112 -0.0033387707685864697
3840000000.0 0.08903575457964824 -0.1136622458796363
3860000000.0 -0.05093738033803593 0.13506535398318312
3880000000.0 -0.14980973314380994 0.028842807965381623
3900000000.0 -0.020192087828244727 0.15794831358012779
3920000000.0 0.11599541022596219 -0.1206765143053178
3940000000.0 0.16173586483373598 0.06590350382416728
3960000000.0 0.1684110036128956 0.060907971438380885
3980000000.0 -0.030961202751669508 -0.17581533811777503
4000000000.0 -0.11888790715219416 -0.11926173260415529
