! Created with skrf (http://scikit-rf.org).
# Hz S RI R 50.0 
!freq ReS11 ImS11
400000000.0 -0.7848008143578707 0.31966283104159576
420000000.0 -0.33660131883070254 0.7915025153238987
440000000.0 0.6444259504232722 0.5228754577473566
460000000.0 0.6978083607697455 -0.3679593013637415
480000000.0 -0.10182006172662879 0.7137928913890258
500000000.0 0.30188551129867947 -0.5132917806357099
520000000.0 -0.20562192492475315 -0.4631031890336475
540000000.0 0.35014584904584917 0.2778125572935045
560000000.0 -0.3224699755235349 -0.21796922516029693
580000000.0 0.30305444106001134 -0.19317480154066738
600000000.0 -0.32512926613316484 -0.15497134855149644
620000000.0 0.3608445117239912 -0.10191304432068311
640000000.0 -0.06605803292319395 -0.39209460166878185
660000000.0 -0.40272907230327315 -0.05817500137077669
680000000.0 0.028049667979435946 -0.4155192863810279
700000000.0 -0.3400843984831703 -0.25193345014526963
720000000.0 -0.39862515920259955 0.12745144160310676
740000000.0 0.304518718623737 -0.2730399928011967
760000000.0 -0.27359001050900617 -0.2763924602370884
780000000.0 0.2165018966296793 0.2855767233926345
800000000.0 0.22740771019980194 -0.22876270103061142
820000000.0 -0.2712137290568016 0.06514832249493077
840000000.0 -0.047780519594829075 0.2337770956947079
860000000.0 -0.1815121867327822 -0.0897146145813029
880000000.0 0.10370559554111322 0.12200326558845948
900000000.0 0.10923919222014852 -0.016339080020875984
920000000.0 -0.061768953942109135 -0.039482400034209324
940000000.0 -0.007580553604209813 0.04729710862852604
960000000.0 0.024108801269587792 -0.04672634772648361
980000000.0 0.03867907890625724 -0.061065563982201934
1000000000.0 0.07919288151011776 -0.02992002568236067
1020000000.0 -0.07090090804820098 -0.08014853090711675
1040000000.0 0.1214427733075301 0.009392188457432027
1060000000.0 0.14971735240094242 -0.05372999568045627
1080000000.0 0.17410321204411103 -0.01815617707023314
1100000000.0 -0.1823077478313032 -0.07842854223187573
1120000000.0 0.21312925932823226 0.042815218451281924
1140000000.0 -0.07943943199929639 -0.23704703036179903
1160000000.0 -0.20569355108890938 -0.19115841863746516
1180000000.0 -0.1097392398138376 -0.29425606368209717
1200000000.0 0.2231417343853768 -0.25926555052159345
1220000000.0 -0.24343054760585345 0.27233048994109726
1240000000.0 0.3872973263886048 -0.01824874206815393
1260000000.0 -0.14731164216538062 -0.3821491914024118
1280000000.0 -0.3058190767826856 0.2986309785304816
1300000000.0 0.2929673013845157 0.3269433630713062
1320000000.0 0.40566835951957886 -0.16960024655159886
1340000000.0 0.41726713430414497 -0.13925742990297946
1360000000.0 0.40160817084185363 -0.17637601808752396
1380000000.0 0.16964719915116175 -0.40523216250835153
1400000000.0 -0.4186211282145717 -0.08451982494211573
1420000000.0 0.0316823776595018 0.40775025308659174
1440000000.0 0.3698017249661043 -0.09570789529686217
1460000000.0 -0.024425917333624484 -0.3510564907044366
1480000000.0 -0.3138884794597442 0.06448645745474203
1500000000.0 -0.002435510723878458 0.28548698019444685
1520000000.0 0.1559638793028896 0.20270313214928887
1540000000.0 -0.21109864022190838 -0.08172521935369252
1560000000.0 0.1220381796925192 -0.1481257427877744
1580000000.0 0.07873488816392377 0.1420195300273171
1600000000.0 0.12738388555607866 0.035884322640926336
1620000000.0 0.04655083254961152 0.09001940406597783
1640000000.0 -0.07211132394271648 -0.03068819577423828
1660000000.0 0.03184861609510643 -0.043991710939803606
1680000000.0 -0.003423578625800889 0.034365969709546564
1700000000.0 0.016829201898651627 -0.010127568891772404
1720000000.0 0.007224115029593786 -0.0006532948330550685
1740000000.0 0.01664958248495723 0.006194780885458913
1760000000.0 -0.029793903116651442 -0.016577977676834194
1780000000.0 -0.037607663353553276 -0.05158241284028922
1800000000.0 0.04250984156732156 0.08711747481777427
1820000000.0 0.07593253982553574 0.10301724063405819
1840000000.0 -0.04005115670045698 -0.16087269616277922
1860000000.0 -0.03661927188812499 0.20117949500771087
1880000000.0 0.038605723281151465 -0.2419358548264033
1900000000.0 -0.03342411142012426 0.2847877828815238
1920000000.0 0.008663739749227958 -0.32295900908217023
1940000000.0 -0.20116235988206524 0.2919411124857975
1960000000.0 0.37141723228870965 -0.08594350762377387
1980000000.0 -0.23152225625069262 -0.3255487866815197
2000000000.0 -0.41617607765101067 0.025438090242507278
2020000000.0 -0.048778191524452064 0.42608201310151733
2040000000.0 0.2734215551727082 0.3406675704569592
2060000000.0 0.40080025960244625 -0.17939826890229263
2080000000.0 0.11242659467272093 -0.42014889199908784
2100000000.0 -0.13220130278897926 -0.4076003554927461
2120000000.0 -0.2980400871043198 -0.294821495781935
2140000000.0 -0.3965634691398859 -0.1008378945046992
2160000000.0 -0.08012865185254647 -0.3876976967245535
2180000000.0 -0.3189033895692087 -0.21141630029045722
2200000000.0 -0.36237406470730216 0.07799276275607121
2220000000.0 -0.1691563430976826 0.31879990731899066
2240000000.0 0.1608675310027007 0.31956924406670656
2260000000.0 0.3521999666859594 0.06392752503378607
2280000000.0 0.2363094770462295 -0.2758910880893686
2300000000.0 -0.27858070679689545 -0.2548040323821869
2320000000.0 -0.24432073658291367 0.31861922053729735
2340000000.0 0.43354210522163195 0.033288080864952795
2360000000.0 -0.43212569832674735 -0.2011799932076212
2380000000.0 0.49467319004162713 0.16956853710815098
2400000000.0 -0.5714054914204242 0.02853535524461104
2420000000.0 0.4379958627463072 -0.4387206923380616
2440000000.0 0.0005073306374728133 0.6624138179829647
2460000000.0 -0.4519041164073612 -0.5301355659053566
2480000000.0 0.6257948628429075 0.35781704938646497
2500000000.0 -0.5726118285156355 -0.46169173020939386
2520000000.0 0.4033052326046653 0.6217385056391855
2540000000.0 0.07933917630320544 -0.7346090664840631
2560000000.0 -0.5847525859605127 0.4352395583932133
2580000000.0 0.6132201296645536 0.3593309512013021
2600000000.0 0.0404592467500491 -0.6828082853525603
2620000000.0 -0.6066463262251359 0.2367316803847064
2640000000.0 -0.5553894136482868 0.25938606737586684
2660000000.0 0.39710096337980144 0.4069035405701448
2680000000.0 0.23360377936144547 -0.4680741973853042
2700000000.0 -0.4776781322066124 -0.030396742421933295
2720000000.0 0.2047558209306058 0.3819119119176968
2740000000.0 0.2074635503884527 -0.33326767774631866
2760000000.0 -0.3395084494772705 0.10896168564064888
2780000000.0 0.3281858699462741 -0.015571327965256497
2800000000.0 -0.29944479851149486 0.06475410014726557
2820000000.0 0.13728914527167338 -0.2563666098109393
2840000000.0 0.16829447843533937 0.22560085226705187
2860000000.0 -0.27694030371190836 0.026393364826011796
2880000000.0 0.09984257327259181 -0.25990248956468653
2900000000.0 0.03138980912112031 0.27808734698159304
2920000000.0 0.13172024968662913 -0.25285592360471687
2940000000.0 -0.29025539524813304 -0.0010565216185715062
2960000000.0 -0.14405359786854 0.2543358185790391
2980000000.0 -0.21091495851567335 0.20965127621129603
3000000000.0 -0.28792623933023026 0.08656402169734911
3020000000.0 -0.19850259518237617 -0.2254175218511228
3040000000.0 0.2859460995855374 -0.08687475052033665
3060000000.0 -0.18482350034807027 0.23301948774283568
3080000000.0 0.16847106657501937 -0.24085680152087457
3100000000.0 -0.08667296809853849 0.27537499439505253
3120000000.0 -0.04489226334351012 -0.2774818577412397
3140000000.0 0.1190269405345957 0.245374095370522
3160000000.0 -0.23941850735794384 -0.10011800507607722
3180000000.0 0.10729886005740218 0.218595014071427
3200000000.0 -0.2052990604947693 0.08314168430951302
3220000000.0 -0.10709767932856556 -0.16335525030184592
3240000000.0 0.1561374924536715 -0.0566553904369381
3260000000.0 -0.09523900565839263 0.09324365816097079
3280000000.0 0.0906176676595365 -0.04809390169550655
3300000000.0 -0.0728387790680813 -0.01872484839370999
3320000000.0 -0.025599454667773778 0.0407974070289108
3340000000.0 -0.00813291981109737 0.024041176862819032
3360000000.0 -0.006506682662829525 -0.0035603476130222247
3380000000.0 -0.005352639857737195 0.005631466448541787
3400000000.0 -0.010808458386546501 0.017051149942939575
3420000000.0 -0.00330357817933621 0.03227161864208566
3440000000.0 0.009421055265835084 0.040854818120604874
3460000000.0 -0.0479013179324654 -0.009458682783357165
3480000000.0 0.059649917362450476 0.003551983342482489
3500000000.0 0.0636683708496449 -0.03747362435964949
3520000000.0 0.012375475546381775 -0.08717442672702257
3540000000.0 0.0695074578892009 0.07535716462789946
3560000000.0 -0.1008058279935331 -0.05786993755365101
3580000000.0 0.0978508588086153 0.0863138084839736
3600000000.0 -0.10089020241083091 0.10941501836232054
3620000000.0 -0.11939559125719204 0.10800485238767986
3640000000.0 -0.16121388831916328 -0.06334395500233697
3660000000.0 -0.16445901170926844 -0.07993146694912423
3680000000.0 -0.1028463868896371 -0.15737691405421872
3700000000.0 -0.00040852391135788027 -0.18779895854258274
3720000000.0 0.14327284228684997 -0.1196337871374459
3740000000.0 0.17019750202647366 -0.06430013610239269
3760000000.0 -0.17100687092828318 0.0375803928591234
3780000000.0 0.16447852856057427 -0.017543658209238266
3800000000.0 0.012762783168797084 -0.15657217604232987
3820000000.0 -0.05065555703281624 -0.14224241925681258
3840000000.0 0.06538733235088445 -0.13051388891654364
3860000000.0 0.12910388428494626 0.07010466663176511
3880000000.0 0.14067348416781789 0.06104222405232911
3900000000.0 0.09470825052147479 -0.12565609159430796
3920000000.0 -0.14234017929536744 0.08080542268047179
3940000000.0 -0.0008109601578658446 -0.16755713660390484
3960000000.0 0.10972043621353093 -0.13241578600237475
3980000000.0 -0.019135382481066353 -0.17188632328003975
4000000000.0 -0.12276677683161438 -0.11192594481120169
