! Created with skrf (http://scikit-rf.org).
# Hz S RI R 50.0 
!freq ReS11 ImS11
400000000.0 -0.7737833576810804 0.34777698331448564
420000000.0 -0.35507253428724295 0.7814019184729705
440000000.0 0.5745955451938081 0.5978123873539078
460000000.0 0.7262199982767262 -0.31034042269872814
480000000.0 -0.13021564862635437 0.7098214483297745
500000000.0 0.38033077180261465 -0.45836797044911537
520000000.0 -0.11318324280594878 -0.4970385507456947
540000000.0 0.3925409618742781 0.221694591114226
560000000.0 -0.3711507126460751 -0.12026987301715193
580000000.0 0.26046547115710006 -0.2463602345822637
600000000.0 -0.33356461717860914 -0.13794780713488308
620000000.0 0.337493880274598 -0.1613317507974166
640000000.0 -0.10358130899058617 -0.3832735142243688
660000000.0 -0.40637362051267145 -0.02086185717008577
680000000.0 -0.046279907551107925 -0.4131882219496951
700000000.0 -0.3531896375033639 -0.23299315848565627
720000000.0 -0.40126208132081553 0.117836760801482
740000000.0 0.3140325106199236 -0.26185288610683555
760000000.0 -0.24856780887081717 -0.2993930307655053
780000000.0 0.18887415377885106 0.3047923144451754
800000000.0 0.24340251329074725 -0.2122432309471513
820000000.0 -0.2752737170952903 0.043878462314317135
840000000.0 -0.09758372663681651 0.21810519255446634
860000000.0 -0.16047340579122096 -0.12295664741947687
880000000.0 0.0965933893988836 0.12695835530143018
900000000.0 0.10982005689537679 0.004626994580371482
920000000.0 -0.06388610582590158 -0.03509600619647944
940000000.0 -0.01835312369679727 0.04429121050560319
960000000.0 0.03930934116096903 -0.035118053120993184
980000000.0 0.05288542909036721 -0.049149133907579294
1000000000.0 0.08351617620176456 -0.014576513447263323
1020000000.0 -0.06037141558891462 -0.08870545739480898
1040000000.0 0.11987352638178957 0.02286441640105408
1060000000.0 0.1545654954356372 -0.03863949679909054
1080000000.0 0.17346333487758098 -0.02536897459447046
1100000000.0 -0.1881355646696757 -0.06230254027843956
1120000000.0 0.21668356393493832 0.014965507614435972
1140000000.0 -0.09243936946797157 -0.23179726717033627
1160000000.0 -0.21569507970145232 -0.17897772387504965
1180000000.0 -0.08484206579499032 -0.3017856860948203
1200000000.0 0.21775746074101668 -0.26402736641513774
1220000000.0 -0.2389665119198943 0.27620752642835766
1240000000.0 0.38616463598071515 -0.03390225202099662
1260000000.0 -0.16434257459250387 -0.3752223496979668
1280000000.0 -0.29417974725348467 0.3101075359527812
1300000000.0 0.2906392214919028 0.3290253632920761
1320000000.0 0.40011249577239033 -0.18236101445403993
1340000000.0 0.41561271349293594 -0.14419643192440104
1360000000.0 0.402840494332983 -0.17372998275352539
1380000000.0 0.1908171172580555 -0.39563563212334174
1400000000.0 -0.420061629083099 -0.07714129410801888
1420000000.0 0.004446848877717986 0.40927393112055765
1440000000.0 0.36989929528309234 -0.09747059922228529
1460000000.0 -0.030936757720919215 -0.3505547685316535
1480000000.0 -0.31677335645900756 0.04785852153358329
1500000000.0 -0.00802431655050954 0.2856746495067875
1520000000.0 0.15691501462568994 0.20191502996127064
1540000000.0 -0.20765662441510907 -0.09001062507490724
1560000000.0 0.14667970906154243 -0.1239119388881983
1580000000.0 0.08730082791564872 0.136718476235316
1600000000.0 0.13161142394076647 0.012735191834418614
1620000000.0 0.06943996366482465 0.07351417867709756
1640000000.0 -0.07411490554203305 -0.025817994230617414
1660000000.0 0.02133319653879835 -0.050425117512994166
1680000000.0 -0.01193314018215502 0.032295215052630034
1700000000.0 -0.005670775973990242 -0.018654061061422075
1720000000.0 0.00675980736690118 -0.0022486132877705205
1740000000.0 0.005344939085882058 0.016751742388394428
1760000000.0 -0.025078314759884826 -0.022639862551818258
1780000000.0 -0.03306224128332602 -0.05475603371054188
1800000000.0 0.034416118882847895 0.09091932505216743
1820000000.0 0.07467430292056369 0.10387115191302905
1840000000.0 -0.016161301892119232 -0.164843408742535
1860000000.0 -0.05731944109727001 0.1963298875363926
1880000000.0 0.054283459710714334 -0.23880886147945343
1900000000.0 -0.04658244457299994 0.2825185166125677
1920000000.0 0.02698678962554866 -0.32173743043458436
1940000000.0 -0.2114260202238414 0.283872568403646
1960000000.0 0.37551375018147953 -0.06237152757519159
1980000000.0 -0.22400180280484014 -0.33017880307704317
2000000000.0 -0.41611856939128367 0.0058392278978608835
2020000000.0 -0.08060621971383135 0.4205926012002088
2040000000.0 0.29539625794834656 0.32061295282316027
2060000000.0 0.395425398985103 -0.18956738933694126
2080000000.0 0.12483256328815143 -0.4160940840183884
2100000000.0 -0.14233058442435875 -0.40364125236742704
2120000000.0 -0.2853527126330351 -0.30712697766287217
2140000000.0 -0.40269326138551126 -0.07088923869381535
2160000000.0 -0.097213411790121 -0.3838757761403164
2180000000.0 -0.3063465136563146 -0.2295166588105228
2200000000.0 -0.3583426588569773 0.09487182887673866
2220000000.0 -0.19044910580933128 0.30674682037017903
2240000000.0 0.14284936725616112 0.3278293643452177
2260000000.0 0.34401890321797934 0.0960450316155444
2280000000.0 0.25274290137403077 -0.25989396914330576
2300000000.0 -0.2526463364155704 -0.27920281156537
2320000000.0 -0.28162668889975484 0.284521260894877
2340000000.0 0.425016634637107 0.08601178021933457
2360000000.0 -0.3768765273287603 -0.28924079773881806
2380000000.0 0.4228102383058561 0.30389564978128875
2400000000.0 -0.5514207425035965 -0.14325003218033003
2420000000.0 0.5749434790109074 -0.22601413781249968
2440000000.0 -0.2319254324770401 0.6182223911680714
2460000000.0 -0.16553694377747816 -0.6749257907543363
2480000000.0 0.3952897882086916 0.6013491478288695
2500000000.0 -0.35052963566165324 -0.6460598465616297
2520000000.0 0.19785971511489567 0.7138536226237375
2540000000.0 0.2822671263582679 -0.6828290444496821
2560000000.0 -0.7103259204348673 0.1687230742641818
2580000000.0 0.4303493659369813 0.5679346870039327
2600000000.0 0.3308140359542388 -0.6019972858274789
2620000000.0 -0.6525844371447342 -0.04439887489164888
2640000000.0 -0.6107045309857332 0.08791057250949216
2660000000.0 0.29563109617144273 0.49106031991638277
2680000000.0 0.35451717695037693 -0.39079500915544507
2700000000.0 -0.46130061375391496 -0.14426413125226278
2720000000.0 0.128943886582466 0.4184898706754078
2740000000.0 0.28542743105209883 -0.2756056184658666
2760000000.0 -0.356426837210168 0.05394871480855887
2780000000.0 0.32970674648954784 0.04126334287858546
2800000000.0 -0.3090178333037288 0.019085177592705338
2820000000.0 0.18324218094535016 -0.2294175687929
2840000000.0 0.1074976674694454 0.2625955849404192
2860000000.0 -0.27412108776784344 -0.05745894824167982
2880000000.0 0.15660965700330787 -0.2321715719537663
2900000000.0 -0.030681475961916064 0.2797486076011186
2920000000.0 0.19213397064023788 -0.21249547660520615
2940000000.0 -0.28138376437678964 -0.07704216742941283
2960000000.0 -0.17658596354372114 0.23470211639592226
2980000000.0 -0.20748863500416173 0.2134449648908544
3000000000.0 -0.2899684893193035 0.08231835870709298
3020000000.0 -0.19565152245080936 -0.22961597414798413
3040000000.0 0.2917463184158971 -0.07010806059058494
3060000000.0 -0.18986682161361332 0.2300512981112047
3080000000.0 0.18132079085336045 -0.23263099354264724
3100000000.0 -0.07579567296094747 0.2801702767119177
3120000000.0 -0.07293195777753031 -0.2729019302941343
3140000000.0 0.11312239084336555 0.249561364873437
3160000000.0 -0.2437971415939243 -0.09222091119372262
3180000000.0 0.1054861814339377 0.22063803773583524
3200000000.0 -0.20035507298738847 0.09700943404576527
3220000000.0 -0.12149598097303936 -0.15414248134910397
3240000000.0 0.15552166607662468 -0.061128759790662096
3260000000.0 -0.07288462714256021 0.11261536591345289
3280000000.0 0.07536787160668373 -0.07055933730771281
3300000000.0 -0.07567784034533291 -0.0012771690797693607
3320000000.0 0.013503030163146848 0.04658544308353612
3340000000.0 0.018994083242878993 0.01748480996457447
3360000000.0 0.0063246528025631115 -0.0040067661874020775
3380000000.0 0.007555226006225012 -0.0021047692927899627
3400000000.0 -0.004635233973232747 -0.019511517828535503
3420000000.0 -0.030180133385684874 0.011752198570014033
3440000000.0 -0.0412588018717489 0.007615415406673137
3460000000.0 -0.03679712000506834 -0.033259825845403865
3480000000.0 0.054954361434541146 0.02429189009283773
3500000000.0 0.07306014658382909 0.011999739265262701
3520000000.0 -0.017950213232498232 -0.08754007174803909
3540000000.0 0.09431807677201806 0.0448328893240665
3560000000.0 -0.0884678047199642 -0.0758384713357848
3580000000.0 0.08532189489535172 0.09983106492213317
3600000000.0 -0.10781612174224021 0.1040227262204532
3620000000.0 -0.1386164810995374 0.08316156655177129
3640000000.0 -0.1444821596241056 -0.0966578669693437
3660000000.0 -0.15737460665592354 -0.09516390340686309
3680000000.0 -0.08599481913231956 -0.16783667307457178
3700000000.0 0.006378728764837795 -0.18846648611656233
3720000000.0 0.1480056737319408 -0.11447524611889331
3740000000.0 0.17574185505812032 -0.047670059030080036
3760000000.0 -0.17398857311692326 0.020065121378305257
3780000000.0 0.16526045616101875 -0.001117717488308184
3800000000.0 0.03449856347563409 -0.1534794856336196
3820000000.0 -0.05310442666162999 -0.1409898471055076
3840000000.0 0.08615735452747725 -0.11726478581061672
3860000000.0 0.10368560659468788 0.10364932726087507
3880000000.0 0.1157344676631451 0.100505167419508
3900000000.0 0.12357006087636323 -0.09646597721046073
3920000000.0 -0.16006242158318182 0.029782865676028857
3940000000.0 0.04824872116621091 -0.15939390221311264
3960000000.0 0.15490256252628526 -0.07228454761117103
3980000000.0 0.06239853483037733 -0.16018442602830313
4000000000.0 -0.03250294440022457 -0.16156290615453325
