! Created with skrf (http://scikit-rf.org).
# Hz S RI R 50.0 
!freq ReS11 ImS11
400000000.0 -0.7713092206737803 0.353077645879871
420000000.0 -0.34132404837010966 0.7876919033321189
440000000.0 0.6012460017443844 0.5701185267903986
460000000.0 0.7212463820432787 -0.32066066377140134
480000000.0 -0.13076147132444768 0.709375255281702
500000000.0 0.3716569550222814 -0.4650964202603927
520000000.0 -0.09599203655031263 -0.5009272284941803
540000000.0 0.4071358648541583 0.19308625201765486
560000000.0 -0.36706282594225137 -0.1318493559335556
580000000.0 0.2552228760162281 -0.25148431557887574
600000000.0 -0.34010604141639567 -0.12198661878718724
620000000.0 0.3444806718935651 -0.14518084492809688
640000000.0 -0.0888262242313032 -0.38725042955960776
660000000.0 -0.4048145739795101 -0.03774668013101458
680000000.0 -0.05223767964704113 -0.4120454250536433
700000000.0 -0.36063465015419033 -0.22093795262185723
720000000.0 -0.39946581257256514 0.1251010969312483
740000000.0 0.305247696718066 -0.27223604424498005
760000000.0 -0.23591635223940247 -0.3096394305818838
780000000.0 0.18252324505971984 0.3083101866713256
800000000.0 0.2106790879681921 -0.24462650451898688
820000000.0 -0.27162102495581586 0.0622077364437584
840000000.0 -0.08669985017751572 0.2230585417214548
860000000.0 -0.1731220883065327 -0.10424071418634523
880000000.0 0.09499341858964166 0.12847570432203093
900000000.0 0.1097219301860403 0.004749726632822801
920000000.0 -0.0663026116254575 -0.030395702042774184
940000000.0 0.0031748025166047486 0.047547425435979125
960000000.0 0.008346063823895604 -0.05191502301571912
980000000.0 0.029799994848758154 -0.06608516423883377
1000000000.0 0.08449209377651981 -0.009463428571926082
1020000000.0 -0.05926571657368635 -0.08957292978084644
1040000000.0 0.1202304990600704 0.02155423594902188
1060000000.0 0.14898537792342328 -0.05607074770658424
1080000000.0 0.17466876439057377 -0.011949778257984905
1100000000.0 -0.19045153249854438 -0.05480312099717631
1120000000.0 0.21625813523794538 0.019347008480887416
1140000000.0 -0.11297146345090221 -0.22242308958101217
1160000000.0 -0.21201454864634872 -0.18268896316956137
1180000000.0 -0.11426415538037464 -0.29164430623638393
1200000000.0 0.20600454705630658 -0.27286537473016165
1220000000.0 -0.2301002520581189 0.2833008264837181
1240000000.0 0.38613756658129783 -0.03546052924919397
1260000000.0 -0.16484987713177693 -0.3751828742365583
1280000000.0 -0.2840270173662182 0.3198952848739397
1300000000.0 0.31231804789060175 0.30910067544751624
1320000000.0 0.4056441641675971 -0.16996020776719986
1340000000.0 0.42117115412322637 -0.12768235401088865
1360000000.0 0.40170957908792304 -0.17687295922315088
1380000000.0 0.19340319356487393 -0.39459092351037395
1400000000.0 -0.4131699198030503 -0.10953695905431292
1420000000.0 0.0019268855717026923 0.4090259901952597
1440000000.0 0.37526214546408193 -0.07353740522040349
1460000000.0 -0.029500008131574166 -0.3504096591459421
1480000000.0 -0.313590607052095 0.06491115464085723
1500000000.0 0.002120893164737877 0.28561959171130435
1520000000.0 0.1373382540102529 0.2159741231346035
1540000000.0 -0.21736054048173584 -0.06005304603622733
1560000000.0 0.13597175652017768 -0.1349958107295752
1580000000.0 0.09021859062211504 0.13475192022757568
1600000000.0 0.13158899091524073 0.010424358592699511
1620000000.0 0.06725444096065794 0.07530676616018543
1640000000.0 -0.0778477720465802 -0.010965834584248772
1660000000.0 0.01443169996438713 -0.05306359043692055
1680000000.0 -0.009742261594168551 0.03344024336938367
1700000000.0 -0.0013918180027985365 -0.019834442350588618
1720000000.0 0.001351311676139073 -0.007089095995121835
1740000000.0 0.015158548465876772 -0.009645553163106302
1760000000.0 -0.03356738224114432 0.005928815283103756
1780000000.0 -0.045006631145426704 -0.04558450416959075
1800000000.0 0.05559896686810326 0.08012162533605122
1820000000.0 0.08848633704292608 0.09280635743087166
1840000000.0 -0.035031148506679904 -0.16240287887605429
1860000000.0 -0.04268108816249137 0.20057182535862889
1880000000.0 0.054753235486118636 -0.23903399941417697
1900000000.0 -0.039904670072969314 0.28399011277084196
1920000000.0 0.03780612823176413 -0.32085457657147065
1940000000.0 -0.22301428568608403 0.27507837422572656
1960000000.0 0.37559083269997184 -0.062333203485966555
1980000000.0 -0.21637753404148966 -0.3352355845432849
2000000000.0 -0.41584447152134596 0.016705179135896843
2020000000.0 -0.06439228806299294 0.42318036583266205
2040000000.0 0.27886787018944004 0.3353115114129955
2060000000.0 0.3976978321590645 -0.18533447205419454
2080000000.0 0.11323700102458303 -0.4192431375877991
2100000000.0 -0.15836983143176553 -0.3975086190566198
2120000000.0 -0.3121315386985621 -0.2794458845609015
2140000000.0 -0.3987119497551041 -0.09089063611297933
2160000000.0 -0.12828384780792304 -0.374326863491097
2180000000.0 -0.3420399455830582 -0.17175684522949305
2200000000.0 -0.35302157688999886 0.11336512704465171
2220000000.0 -0.1416091111864936 0.33241325873045385
2240000000.0 0.18988833656860643 0.3035059682877815
2260000000.0 0.3571405180193347 0.02622901197819986
2280000000.0 0.2191473153679888 -0.28995284446274505
2300000000.0 -0.2846799150641234 -0.24812579197267273
2320000000.0 -0.23441206774348802 0.32626612811985284
2340000000.0 0.43173058774272566 0.05064129976174316
2360000000.0 -0.4161008834169801 -0.23193291406821834
2380000000.0 0.47653305213191244 0.2137660040542943
2400000000.0 -0.5694773470050699 -0.04272470864630408
2420000000.0 0.503312119224123 -0.35997745797502106
2440000000.0 -0.13125220810050292 0.6477927840798328
2460000000.0 -0.33051250442464114 -0.611276752559167
2480000000.0 0.5478574322789493 0.4663918440011302
2500000000.0 -0.5084647770240374 -0.5297076051549919
2520000000.0 0.2923887731864713 0.6799527335881882
2540000000.0 0.156451197685001 -0.7211732105783236
2560000000.0 -0.6573119709480723 0.3153428181058521
2580000000.0 0.5201133437598275 0.484886818127323
2600000000.0 0.14133639776922247 -0.6702945940695192
2620000000.0 -0.6434299043601098 0.10963919450996461
2640000000.0 -0.5719179283744192 0.22636328672938824
2660000000.0 0.34808352974626877 0.4527300290767065
2680000000.0 0.29223812757913276 -0.43700214548674493
2700000000.0 -0.47218842473001527 -0.09388495940177019
2720000000.0 0.15608358352273446 0.40708131789345076
2740000000.0 0.24885010533026686 -0.30717837823397426
2760000000.0 -0.3504952831694313 0.07736366753829645
2780000000.0 0.32919557694060475 0.032487113381169705
2800000000.0 -0.3073174235674541 0.024333215182330316
2820000000.0 0.17393666304351615 -0.23490327988180587
2840000000.0 0.11837530247763825 0.2563801856116052
2860000000.0 -0.27266324760579963 -0.059743997473506505
2880000000.0 0.14459495813011167 -0.23839377262430644
2900000000.0 -0.012401115255193792 0.28017595831257275
2920000000.0 0.16920631610391781 -0.22955579394043246
2940000000.0 -0.2831324671836146 -0.06330709839691613
2960000000.0 -0.14813813890629832 0.2523259761028363
2980000000.0 -0.20257063478344248 0.217320977000183
3000000000.0 -0.2835523095500352 0.0996928129436815
3020000000.0 -0.1901621322912158 -0.23308270308142082
3040000000.0 0.2950537884231828 -0.050425657008139835
3060000000.0 -0.16669802272634118 0.24635072255473728
3080000000.0 0.15668550288879202 -0.24897003080748636
3100000000.0 -0.020356630555663054 0.28878910193840746
3120000000.0 -0.04973327265687525 -0.27718948357288675
3140000000.0 0.12261787309137771 0.2443636521306237
3160000000.0 -0.24917828672428655 -0.0752328518700931
3180000000.0 0.12950089546506557 0.20729184806698006
3200000000.0 -0.20484009269627917 0.08675333735274343
3220000000.0 -0.1374327299120011 -0.14071448595228853
3240000000.0 0.1469270422632832 -0.07882085768192085
3260000000.0 -0.0845092379258809 0.10415879581110846
3280000000.0 0.08632218442462411 -0.05691173214535022
3300000000.0 -0.07594643020715879 -0.0016668834882725228
3320000000.0 -0.006250675274555871 0.04813185663365961
3340000000.0 0.000412495826303269 0.026047471659411923
3360000000.0 -0.0073532792870192555 0.0026220207279556646
3380000000.0 -0.007360859193231912 0.0005912712895272569
3400000000.0 -0.018852645226972012 0.00687791819387562
3420000000.0 0.020728499133466163 0.024635267009429734
3440000000.0 -0.016273744669953162 0.03787166687219885
3460000000.0 -0.04899078939484395 -0.00297596392754256
3480000000.0 0.05737210742270595 -0.017269340048984862
3500000000.0 0.0560427671952852 -0.04790332003672735
3520000000.0 0.00598920822883502 -0.08782379606578844
3540000000.0 0.07972528444289426 0.06516295963241964
3560000000.0 -0.10592077979794808 -0.047897359971185424
3580000000.0 0.11042290682381982 0.07056137442505571
3600000000.0 -0.09370318639268792 0.11609043932233296
3620000000.0 -0.1025005362693005 0.1253507029616774
3640000000.0 -0.1672239358522811 -0.046301341880778356
3660000000.0 -0.17640147956203545 -0.05191183638134861
3680000000.0 -0.11292294712138538 -0.1509369077213775
3700000000.0 -0.027434084666129704 -0.18694120072488696
3720000000.0 0.13386093662456133 -0.13118816022294916
3740000000.0 0.16834381929038747 -0.06977774947616561
3760000000.0 -0.17014817686474398 0.042895237025733085
3780000000.0 0.16280097555740283 -0.028949718090262623
3800000000.0 0.02235438407484418 -0.15623852138230568
3820000000.0 -0.0454110284592436 -0.14435946849409156
3840000000.0 0.09317400267900225 -0.11347012205894498
3860000000.0 0.12095448836866222 0.08435080595188464
3880000000.0 0.13111587522736184 0.08089684961684103
3900000000.0 0.10330356580495481 -0.11884852252845272
3920000000.0 -0.15247928754362117 0.05954930870465181
3940000000.0 0.04230350707487355 -0.16205686322804136
3960000000.0 0.147448334168377 -0.08782948477064775
3980000000.0 0.04602221047795015 -0.16608852855303113
4000000000.0 -0.041836765115864975 -0.15993113301056397
