! Created with skrf (http://scikit-rf.org).
# Hz S RI R 50.0 
!freq ReS11 ImS11
400000000.0 -0.7949502081671103 0.2961253827124027
420000000.0 -0.33463245191770136 0.79099863086972
440000000.0 0.6166377923677192 0.5543257137853065
460000000.0 0.7143369292469476 -0.33429000757625005
480000000.0 -0.1771702242265782 0.6990295591339339
500000000.0 0.35934363570068584 -0.4756627187905038
520000000.0 -0.1761510741743698 -0.4787591557389036
540000000.0 0.40499088778496417 0.19353900533968238
560000000.0 -0.351791120451775 -0.1669170651755612
580000000.0 0.2635125697508427 -0.24387899188060444
600000000.0 -0.344725962096537 -0.10499772092897447
620000000.0 0.33700738671354763 -0.1626791315489207
640000000.0 -0.09234966697328738 -0.38663315967118506
660000000.0 -0.4074927582022908 0.000574513996793329
680000000.0 -0.11592308943028926 -0.3998685415391723
700000000.0 -0.38381658489783044 -0.17695958972958248
720000000.0 -0.3952387316987887 0.13712390932927743
740000000.0 0.3162731885487712 -0.2598849547107746
760000000.0 -0.2241782561916347 -0.3188140943740445
780000000.0 0.14259282055375574 0.3288525331460881
800000000.0 0.24971000491780265 -0.20496885457285843
820000000.0 -0.2772009823427317 0.03191981336131791
840000000.0 -0.026306513322058814 0.2375571540783253
860000000.0 -0.19233829951686068 -0.061217986261471964
880000000.0 0.11961787580636586 0.10525922001740558
900000000.0 0.07984931065644266 0.07616375492159852
920000000.0 -0.0616323768836348 0.039841267314295346
940000000.0 -0.009077108156991706 0.04624495812389009
960000000.0 0.049953677590789856 -0.016720058874489963
980000000.0 0.06093667521878682 -0.039650241007241294
1000000000.0 0.08519312184957868 -0.0032989982544636993
1020000000.0 -0.058558391303744316 -0.09005122224029141
1040000000.0 0.1207690241263987 0.015896626075255764
1060000000.0 0.1472781256518255 -0.06062473703988589
1080000000.0 0.17227699610174288 -0.030210450955950742
1100000000.0 -0.1933484769679322 -0.04508630733796457
1120000000.0 0.21576515706967106 0.02508219148317706
1140000000.0 -0.08532255665087912 -0.23433303959315882
1160000000.0 -0.20647562173730002 -0.18820596460144845
1180000000.0 -0.1308552798406053 -0.28408110605060594
1200000000.0 0.22319972715371955 -0.25977645143785555
1220000000.0 -0.18584943024567474 0.31487452081919415
1240000000.0 0.3778522113845024 -0.08693538665998098
1260000000.0 -0.17323920556705874 -0.37116423497350415
1280000000.0 -0.2886464483614131 0.31463130045912585
1300000000.0 0.29721780697122685 0.32358893056154003
1320000000.0 0.40109171491871765 -0.18073723974186343
1340000000.0 0.42067654858822906 -0.12959761677820406
1360000000.0 0.406144773341537 -0.16629465237201474
1380000000.0 0.20689061476161869 -0.3874834832942126
1400000000.0 -0.4094241400354035 -0.12170670699985482
1420000000.0 -0.03160047306091865 0.40793573879217065
1440000000.0 0.3764762612824309 -0.06386654674041896
1460000000.0 0.0012869836920296567 -0.35167894229214003
1480000000.0 -0.3190614675416582 0.026787036546190194
1500000000.0 -0.02754481083789906 0.2840411714356783
1520000000.0 0.16740268221278395 0.1930460118370269
1540000000.0 -0.20777810091384807 -0.08666566075533673
1560000000.0 0.12767362659112863 -0.14217486806093838
1580000000.0 0.0916917685613011 0.13337384655705295
1600000000.0 0.1307835600995586 -0.01407056352639618
1620000000.0 0.07522600983835459 0.0670820983902954
1640000000.0 -0.07776217984086818 -0.004002121678293621
1660000000.0 -0.0074656292577620275 -0.05462928926558375
1680000000.0 0.027472525590103762 0.02178085408649214
1700000000.0 0.003863550483176703 -0.01999542268194099
1720000000.0 0.007338030242290734 -0.0008945730960968631
1740000000.0 0.012642442810885614 -0.012264891095434143
1760000000.0 -0.025495743490524657 0.021977482161340968
1780000000.0 -0.05564139942935959 -0.030440819107244377
1800000000.0 0.07456929339330719 0.06187203101288001
1820000000.0 0.11481760317614989 0.05670482059695937
1840000000.0 -0.06197332121048239 -0.15447882911202612
1860000000.0 -0.004345458718549656 0.20515917918371648
1880000000.0 0.030475995713935354 -0.24392861603812893
1900000000.0 -0.05950904590298808 0.2808991023390158
1920000000.0 0.03562407692241926 -0.32138333882979625
1940000000.0 -0.21412540513973138 0.28256257701043663
1960000000.0 0.3762261098999467 -0.05935150588816823
1980000000.0 -0.2113566046140578 -0.33826307124185484
2000000000.0 -0.4132024313684739 -0.050343566518084464
2020000000.0 -0.08482997728984117 0.41920588625517186
2040000000.0 0.23552798235115838 0.3662438045749975
2060000000.0 0.38869296927509533 -0.2005538190803896
2080000000.0 0.0939680758908235 -0.42299587011949263
2100000000.0 -0.1347595266712454 -0.40523154435129427
2120000000.0 -0.335940253843185 -0.24847051084948957
2140000000.0 -0.40694520642146215 0.024875890057182454
2160000000.0 -0.17446532153500907 -0.3546511815568837
2180000000.0 -0.35137882822147803 -0.1487195151706529
2200000000.0 -0.3289101200571009 0.17112639672641164
2220000000.0 -0.06963231864846599 0.35405323751401774
2240000000.0 0.24247841998539765 0.2637542566088547
2260000000.0 0.35824254129564254 -0.020794028153858026
2280000000.0 0.20365840781700523 -0.3019973375237047
2300000000.0 -0.2971259661180273 -0.23365531713510432
2320000000.0 -0.23744999004197068 0.3242564197875708
2340000000.0 0.43150932726717506 0.05269781710603386
2360000000.0 -0.40704599370561234 -0.24693215141804065
2380000000.0 0.47842044584158405 0.2096665623418402
2400000000.0 -0.5680480234741596 -0.054560026467598936
2420000000.0 0.5044994826054863 -0.3567342119779532
2440000000.0 -0.10835137075873025 0.6507903608045398
2460000000.0 -0.36790285299539616 -0.5885415845822658
2480000000.0 0.5913774312949743 0.40742770107577136
2500000000.0 -0.4826117949179284 -0.5534738477516573
2520000000.0 0.2966610476903435 0.6784201593824121
2540000000.0 0.15246741878823186 -0.7223275753836388
2560000000.0 -0.6479414080478083 0.3327360552480053
2580000000.0 0.5571796328692936 0.4412746389467115
2600000000.0 0.1511585325464788 -0.6680005475370809
2620000000.0 -0.6406805733942608 0.12806996600406842
2640000000.0 -0.5813997474682524 0.20256422639350544
2660000000.0 0.3553099832286021 0.4473248927908145
2680000000.0 0.2778470405650418 -0.44702550015575454
2700000000.0 -0.476072228607418 -0.07653664324624668
2720000000.0 0.12940027653095157 0.41684872338966034
2740000000.0 0.2718910256243118 -0.28771248328445087
2760000000.0 -0.35679871027032395 0.04517475173885894
2780000000.0 0.32877231143721863 0.03816756679307544
2800000000.0 -0.30682784485082004 0.030683155895070664
2820000000.0 0.18192230274443233 -0.22883378362149295
2840000000.0 0.10469509164083186 0.26259895812264566
2860000000.0 -0.2697888111525335 -0.07132005023328797
2880000000.0 0.14454122813448433 -0.23841683778819134
2900000000.0 -0.03379501841898182 0.2782881086011149
2920000000.0 0.17854000386108576 -0.22117639502396852
2940000000.0 -0.28842974182250913 -0.025595714725789368
2960000000.0 -0.20281012924144062 0.21009139908255675
2980000000.0 -0.18430228134886195 0.2323697365112091
3000000000.0 -0.28067316061084774 0.1054964856935014
3020000000.0 -0.20548299927555838 -0.21905402593818624
3040000000.0 0.2521965215949559 -0.16094366063060667
3060000000.0 -0.1481582406309612 0.25727797622968296
3080000000.0 0.0886141391427851 -0.27856735765466684
3100000000.0 0.0656865820832411 0.2812085215132196
3120000000.0 -0.14909601987245819 -0.23832159520235852
3140000000.0 0.2243058216121147 0.1547839000548649
3160000000.0 -0.25234055309261233 0.0593309075721395
3180000000.0 0.19582071474659932 0.14642316726204532
3200000000.0 -0.13896227642292344 0.17352147291362108
3220000000.0 -0.16843450051396322 -0.1027350837351702
3240000000.0 0.1204268855927015 -0.11685921428687973
3260000000.0 -0.070583239493661 0.1159290422904477
3280000000.0 0.08668464424042858 -0.058967492809421665
3300000000.0 -0.07377405040410726 -0.023194949378388497
3320000000.0 -0.04219583229054127 0.027297980159974613
3340000000.0 -0.027120891512049848 -0.005196501424461162
3360000000.0 0.008163439420527597 0.0034473964258308256
3380000000.0 0.0050357677351041226 0.003652152018563863
3400000000.0 -0.00044194817014785745 -0.019189136179613014
3420000000.0 0.022765358220313146 -0.021702094385770063
3440000000.0 0.040743508952234365 0.0023501320742361767
3460000000.0 -0.005050531850161534 0.04866820899237592
3480000000.0 0.04066320910302938 -0.04303093097125247
3500000000.0 0.04842597643100648 -0.055394123797797165
3520000000.0 -0.05013843590508993 -0.07309545810515565
3540000000.0 0.0999780847393235 0.026188907738371764
3560000000.0 -0.11325730495066462 0.029810466651100622
3580000000.0 0.12989262799513077 0.01656554696042703
3600000000.0 -0.04324787075174537 0.1434258849580382
3620000000.0 -0.10389299883058377 0.12524944302474525
3640000000.0 -0.17025874605827487 -0.0381028125568698
3660000000.0 -0.17981528006951003 -0.03896355353387462
3680000000.0 -0.14690496141338055 -0.11844291544136218
3700000000.0 -0.06286517201220501 -0.17794119561782895
3720000000.0 0.12627353291857682 -0.13951318975994234
3740000000.0 0.17601814162641427 -0.0512959581915491
3760000000.0 -0.17607455617268833 -0.001958593303008355
3780000000.0 0.16230663189658823 0.038885352753316074
3800000000.0 0.03858342178335488 -0.15432532079765057
3820000000.0 -0.040671475681936846 -0.14710090657580133
3840000000.0 0.09462808819368314 -0.11260179678110616
3860000000.0 0.13330429045694378 0.0644230301903284
3880000000.0 0.12660851642200488 0.0888722855350097
3900000000.0 0.0826541684833119 -0.13456516605939947
3920000000.0 -0.15686186584597392 0.04715089951564602
3940000000.0 0.06949509841630623 -0.1536539690939561
3960000000.0 0.15681032096035896 -0.07153949411955667
3980000000.0 0.0625695808621376 -0.16157912793473192
4000000000.0 -0.07486962407141934 -0.14755195001364593
