! Created with skrf (http://scikit-rf.org).
# Hz S RI R 50.0 
!freq ReS11 ImS11
400000000.0 -0.7619423342934886 0.37295916839027166
420000000.0 -0.37557462901918093 0.7728667630338971
440000000.0 0.6061640689815045 0.5668402604858198
460000000.0 0.7164815015378877 -0.3310679474838172
480000000.0 -0.10966847050096284 0.7129668923247233
500000000.0 0.3146513518170578 -0.505576881793229
520000000.0 -0.17508410941928831 -0.4767548350982529
540000000.0 0.3672627208956246 0.256494015374612
560000000.0 -0.3419627778975501 -0.1862439085503904
580000000.0 0.27538027962430534 -0.23085358357300734
600000000.0 -0.33652255788077257 -0.1299213814259081
620000000.0 0.3581815485281802 -0.11015236277242825
640000000.0 -0.027144456619057518 -0.3969851806097267
660000000.0 -0.40324009912478836 -0.05258628964152357
680000000.0 0.001554345344041621 -0.4157409405660519
700000000.0 -0.33771865050624866 -0.2541601347259032
720000000.0 -0.40661319083595937 0.10022615202998375
740000000.0 0.3100268071149961 -0.26614343834991144
760000000.0 -0.25461040498787246 -0.29439922051323136
780000000.0 0.22544993865123017 0.27752392533660236
800000000.0 0.19980812511034263 -0.2532822339949318
820000000.0 -0.27394300642487635 0.05010594769490168
840000000.0 -0.04320255010125916 0.23504123159150442
860000000.0 -0.15743480419293351 -0.1271633319902467
880000000.0 0.11511443817353031 0.11266533208853767
900000000.0 0.09954476033190246 -0.04591259077683178
920000000.0 -0.03907981099962978 -0.06276285029107871
940000000.0 -0.02286043776335502 0.042362696500762013
960000000.0 0.03814918511846919 -0.035549878607534606
980000000.0 0.045489325139005436 -0.055778714095637554
1000000000.0 0.08151509403836588 -0.02209273436892368
1020000000.0 -0.07773296375890912 -0.07426056740269787
1040000000.0 0.12171916856819576 -0.009965263323600345
1060000000.0 0.15125955447512693 -0.050703481292436306
1080000000.0 0.1723047837694513 -0.03341923728213526
1100000000.0 -0.19142898174923034 -0.05353804897490997
1120000000.0 0.21574651515036275 0.02587528126568408
1140000000.0 -0.07370274984200512 -0.23896406608137502
1160000000.0 -0.19263457127893024 -0.2037357945185735
1180000000.0 -0.078325282682815 -0.3035352054460098
1200000000.0 0.23624136855582226 -0.24674505469516098
1220000000.0 -0.2664038124772666 0.24934123209140305
1240000000.0 0.38764292864717137 -0.004449818642809803
1260000000.0 -0.13058842433642642 -0.387889539802545
1280000000.0 -0.30724722348901745 0.29686973264230604
1300000000.0 0.306223077528701 0.31421391663221854
1320000000.0 0.40444925212248384 -0.17140348723724594
1340000000.0 0.4160942604472768 -0.1423948699363501
1360000000.0 0.40094563069983546 -0.1774716682961436
1380000000.0 0.17867085687177092 -0.4012621805712463
1400000000.0 -0.4206811392815329 -0.07416062016320632
1420000000.0 0.030775523498557254 0.4080782121234331
1440000000.0 0.36730891188749315 -0.10654189493262305
1460000000.0 -0.04333413779991787 -0.3496417961180521
1480000000.0 -0.31753842427323314 0.04698777586171621
1500000000.0 -0.023736994893901395 0.285172985184547
1520000000.0 0.1425175025498261 0.21279184473595686
1540000000.0 -0.20157111746907497 -0.10288997743964069
1560000000.0 0.13958289304201948 -0.13189367604892188
1580000000.0 0.054547466524599034 0.15304928985581326
1600000000.0 0.1228721508094983 0.04911918083907169
1620000000.0 0.07395451121281982 0.06924057113493694
1640000000.0 -0.07067862668580764 -0.03346171123104254
1660000000.0 0.04210878629764986 -0.03387261524474729
1680000000.0 -0.0031960856692823535 0.03406299370444559
1700000000.0 -0.0010035101184358093 -0.019353845657469178
1720000000.0 -0.00044958403251303284 -0.006419186931776001
1740000000.0 -0.0004183068036271605 0.017758349815557233
1760000000.0 -0.023971431534815048 -0.023727928887262894
1780000000.0 -0.028061306918174878 -0.05710390308893705
1800000000.0 0.03172715530281592 0.09163568775341718
1820000000.0 0.06473742841260846 0.11007273767897556
1840000000.0 -0.01300680445519201 -0.16480051674367152
1860000000.0 -0.04511492539142296 0.19917796584224254
1880000000.0 0.05450538073503419 -0.2384141907231801
1900000000.0 -0.040179667305294965 0.28357118061827846
1920000000.0 0.010243360722388992 -0.3227805467257524
1940000000.0 -0.20731399322019467 0.28707143252673295
1960000000.0 0.37350990990491717 -0.07520226773465025
1980000000.0 -0.23098205609960515 -0.32561684513460626
2000000000.0 -0.4162754234900649 0.015396562813731293
2020000000.0 -0.06816905629929404 0.4230498724215326
2040000000.0 0.2551634347266216 0.3543417890754425
2060000000.0 0.408902405454945 -0.1600856710895156
2080000000.0 0.16965916988867777 -0.400552318086897
2100000000.0 -0.11221493092051185 -0.4135393569235452
2120000000.0 -0.2622275036384404 -0.32749672400879154
2140000000.0 -0.3975701272257563 -0.09619738747586427
2160000000.0 -0.05780394260026344 -0.3918082210159281
2180000000.0 -0.31222030255721955 -0.22122060654228137
2200000000.0 -0.364289799510603 0.06769204268738298
2220000000.0 -0.1807798849913886 0.31217759372791504
2240000000.0 0.12869079121660024 0.33371912524090785
2260000000.0 0.3399287235428093 0.10883791855929897
2280000000.0 0.2765644861262797 -0.23370849083064105
2300000000.0 -0.22761262367941953 -0.2991868111071693
2320000000.0 -0.28476807158692097 0.281218605600506
2340000000.0 0.42327735788457593 0.09366483360207191
2360000000.0 -0.3863118508029153 -0.2763857965865512
2380000000.0 0.44222020605100204 0.2753447823260098
2400000000.0 -0.5592273459725128 -0.1118552926618156
2420000000.0 0.5468717689601668 -0.2890190500894734
2440000000.0 -0.20483744543303004 0.6286820423279076
2460000000.0 -0.24364742479326407 -0.6517662764688182
2480000000.0 0.493954891998223 0.5241495218888217
2500000000.0 -0.35833992803637116 -0.6427888152170528
2520000000.0 0.14202401363178968 0.7279046387058945
2540000000.0 0.25053075035785005 -0.6958765134146468
2560000000.0 -0.7097884921241274 0.1738090984408005
2580000000.0 0.4667449806502642 0.5386235405737889
2600000000.0 0.3136210076857851 -0.6109736391410274
2620000000.0 -0.6508747534697833 -0.06333298720545681
2640000000.0 -0.6052445491887697 0.11648270839472981
2660000000.0 0.26621570549077206 0.506446528502627
2680000000.0 0.3533314082696692 -0.3905921751481764
2700000000.0 -0.4574644277802572 -0.15255723032624732
2720000000.0 0.13134197804410536 0.4165032469039671
2740000000.0 0.275283213837729 -0.28427854926673746
2760000000.0 -0.35537577944399834 0.05388705819699304
2780000000.0 0.33037122064439467 0.02581627968667282
2800000000.0 -0.30591351654635845 0.042724267268159345
2820000000.0 0.16154298862167465 -0.24448244076841666
2840000000.0 0.1220491166651557 0.2565005140913961
2860000000.0 -0.2765284759369789 -0.04779005334462426
2880000000.0 0.14049724924977458 -0.24230044937737488
2900000000.0 -0.043032733907431134 0.27886206549608444
2920000000.0 0.18435661769457568 -0.2196021582742804
2940000000.0 -0.2888984729592091 -0.04149820721339086
2960000000.0 -0.18635687700028541 0.22719248971238037
2980000000.0 -0.2366203284013988 0.18139075885807623
3000000000.0 -0.29780836805108923 0.04730694804685026
3020000000.0 -0.1712582265050285 -0.2483724853101326
3040000000.0 0.2794874674118574 -0.10877186332448151
3060000000.0 -0.18139167179228846 0.2366861961452035
3080000000.0 0.17793550297186544 -0.23493386814353442
3100000000.0 -0.07083495694404124 0.28072523247950537
3120000000.0 -0.007122760048107626 -0.28116931985338656
3140000000.0 0.11076382373436432 0.24968896846483793
3160000000.0 -0.23971659130234332 -0.10040862402026515
3180000000.0 0.10939497903104958 0.21829916632492022
3200000000.0 -0.20498217302469335 0.08525442605120813
3220000000.0 -0.114505492507327 -0.15913087756137131
3240000000.0 0.15202629821504307 -0.0682734253167191
3260000000.0 -0.07823167853053682 0.1086634886992263
3280000000.0 0.08657446388963033 -0.0562043055839235
3300000000.0 -0.07524305319982312 -0.006913909399795052
3320000000.0 0.029781382030355675 0.03840276087564282
3340000000.0 0.025201036135320064 -0.005498551291562819
3360000000.0 -0.003348169728005079 -0.006862041346170681
3380000000.0 0.0006690034805518564 0.007615319202560853
3400000000.0 -0.0047385060865082675 -0.019383134143374666
3420000000.0 -0.025941233271758898 0.019724309452315954
3440000000.0 -0.04135786787251332 0.006665688425844734
3460000000.0 -0.041998646082341946 -0.026516207287189585
3480000000.0 0.051167174540214126 0.031698836592961924
3500000000.0 0.07319877040918997 0.011867714968350774
3520000000.0 0.03220803225272702 -0.0826037781534664
3540000000.0 0.0507812577775118 0.08981023763124345
3560000000.0 -0.08208849981639418 -0.0826662076324049
3580000000.0 0.08475887653591366 0.0997816613565634
3600000000.0 -0.11516037482721932 0.09484182021507452
3620000000.0 -0.14207055087947018 0.07639402846358587
3640000000.0 -0.13120451057933297 -0.11257721649208857
3660000000.0 -0.13597864059337061 -0.122707095470064
3680000000.0 -0.0664488285481201 -0.17598637846782908
3700000000.0 0.024807034802447513 -0.18653369178495585
3720000000.0 0.15955748177818913 -0.09753142096383731
3740000000.0 0.17715984084784311 -0.041111895407816276
3760000000.0 -0.1729599541695526 0.024574765739374973
3780000000.0 0.1639311702826804 -0.018190973687063683
3800000000.0 0.022862098279729553 -0.15531544396079214
3820000000.0 -0.05768658125791985 -0.13896967158129894
3840000000.0 0.08567009837750506 -0.11741455903897169
3860000000.0 0.12077155195765997 0.0823186362619574
3880000000.0 0.11897201863759428 0.09601948768973972
3900000000.0 0.11869443971393799 -0.10236446094361853
3920000000.0 -0.1585155774927367 0.03715226856108908
3940000000.0 0.05136313223843988 -0.15848083958100542
3960000000.0 0.15492439765776006 -0.07282173877588596
3980000000.0 0.039790100792192896 -0.16716013113585115
4000000000.0 -0.05910979743092233 -0.15408272584483568
