! Created with skrf (http://scikit-rf.org).
# Hz S RI R 50.0 
!freq ReS11 ImS11
400000000.0 -0.794482672743326 0.29756695524045773
420000000.0 -0.32724666860114976 0.7940768245962672
440000000.0 0.6230618318862918 0.5474365919664316
460000000.0 0.7113599790667612 -0.34069335650507854
480000000.0 -0.19073924502304726 0.6955221957201421
500000000.0 0.36762697655046983 -0.469327507015619
520000000.0 -0.18018203830486776 -0.4772415620108695
540000000.0 0.39377722312942315 0.21458747971088343
560000000.0 -0.33258859685657516 -0.2031739335407613
580000000.0 0.2874930632036375 -0.21582026448108063
600000000.0 -0.342458618195354 -0.1112033166987451
620000000.0 0.3470580779030437 -0.13980408249279688
640000000.0 -0.08835924383811336 -0.38764560852262664
660000000.0 -0.40516227889207984 -0.045488314491942954
680000000.0 -0.10468379270674649 -0.4029769361837595
700000000.0 -0.3885603713722203 -0.16707537270628098
720000000.0 -0.4039972734758248 0.10703624983977027
740000000.0 0.33428783674463436 -0.23524987282004672
760000000.0 -0.23815070940967187 -0.3080505135209512
780000000.0 0.15286075989791797 0.3246382660498131
800000000.0 0.2505076569430277 -0.20420427020610354
820000000.0 -0.2776911461155608 0.027222295812037
840000000.0 -0.05018435186596223 0.23374703736391533
860000000.0 -0.19200226567467474 -0.06262888477278133
880000000.0 0.11400092181907587 0.11096130287563033
900000000.0 0.07942251926328532 0.07676840259831032
920000000.0 -0.05122390339251241 0.0527750123842358
940000000.0 -0.03338719364302122 0.03377333045150943
960000000.0 0.05181237333087766 0.007689882634003247
980000000.0 0.05838728995515178 -0.042397213865586356
1000000000.0 0.08208977297825071 -0.02178662082723734
1020000000.0 -0.07274986603268324 -0.07865911829990904
1040000000.0 0.12100698828035308 0.014403288770526488
1060000000.0 0.1516500860152103 -0.0486658139933598
1080000000.0 0.17384474477123715 -0.021813768362281417
1100000000.0 -0.17764954735409977 -0.08843252070085406
1120000000.0 0.2090248731568891 0.05931696269122158
1140000000.0 -0.04797521256394621 -0.2446285391119861
1160000000.0 -0.21872022761472037 -0.17460607578024076
1180000000.0 -0.11469503068909327 -0.2911635286739052
1200000000.0 0.23309694755120783 -0.2510945349586843
1220000000.0 -0.20330763680690483 0.30365592096604355
1240000000.0 0.37934488522623966 -0.07878505052225071
1260000000.0 -0.18653644034000877 -0.3644901850293769
1280000000.0 -0.28727565641463026 0.31559807252972066
1300000000.0 0.2875865716538494 0.331561724652209
1320000000.0 0.39181930636498064 -0.1998461097755157
1340000000.0 0.41274805117833574 -0.15253409383143807
1360000000.0 0.4022268419030774 -0.17481445104313445
1380000000.0 0.18793294222997764 -0.39701003745341656
1400000000.0 -0.41590076954257144 -0.09758170301085883
1420000000.0 0.0022163602291949028 0.40932400162640065
1440000000.0 0.3748129930122266 -0.07446412536458123
1460000000.0 0.010841766177642393 -0.3514596003276742
1480000000.0 -0.30959173530149847 0.0811648352953829
1500000000.0 -0.02149541540825076 0.2849202230440283
1520000000.0 0.1621016327459088 0.1980148507405971
1540000000.0 -0.20970334139060678 -0.0824791551930218
1560000000.0 0.14913903523422617 -0.1201709457485429
1580000000.0 0.061865715852035506 0.14977444381779026
1600000000.0 0.13151487582973947 0.0019242438799570187
1620000000.0 0.0908918292437989 0.044300856583880624
1640000000.0 -0.07750979113052844 -0.008634948082845541
1660000000.0 -0.005694399070100329 -0.05421560172989583
1680000000.0 0.03439632496327671 0.002911446775468946
1700000000.0 -0.020149692811103674 0.0016776426614960689
1720000000.0 -0.0010327421037826358 -0.0069851069079400275
1740000000.0 0.012018781217157973 -0.01265510575281839
1760000000.0 -0.033107126812902406 0.0037123535875141227
1780000000.0 -0.05845357395505209 -0.02416455257954561
1800000000.0 0.07076842318321191 0.06514646696582484
1820000000.0 0.11920905405381893 0.04724862082471773
1840000000.0 -0.08173213397236632 -0.14474700030193205
1860000000.0 0.011609599628338053 0.2046468143460759
1880000000.0 0.0194979290096302 -0.24480256730929376
1900000000.0 -0.046438242638976605 0.28326518932261785
1920000000.0 0.0414586972106379 -0.32087615565314537
1940000000.0 -0.2121337381215897 0.28436465613138295
1960000000.0 0.37653942911302024 -0.05950449018314623
1980000000.0 -0.19722697369541525 -0.347326988086343
2000000000.0 -0.4138648676340644 -0.04598766158720906
2020000000.0 -0.1064531644823439 0.4145080227095951
2040000000.0 0.24641429677111162 0.35882526072636706
2060000000.0 0.401890875190151 -0.17298733446986309
2080000000.0 0.1146615250470315 -0.41773295945117334
2100000000.0 -0.1498285421104575 -0.39948850439064537
2120000000.0 -0.3060933019462089 -0.2842824519103657
2140000000.0 -0.40694879281312124 -0.02499672530052088
2160000000.0 -0.15270204794308995 -0.3644633777099398
2180000000.0 -0.3367999341049191 -0.17911159708389487
2200000000.0 -0.3374679670091597 0.1533259428702957
2220000000.0 -0.07261368599315507 0.3532921356422085
2240000000.0 0.24651966769727343 0.2596870709757706
2260000000.0 0.35830921851617425 -0.02461876070241426
2280000000.0 0.20921099879039215 -0.29845631216057933
2300000000.0 -0.2945618657821429 -0.2372630505770222
2320000000.0 -0.24480494499017738 0.3190034895736636
2340000000.0 0.43098325683665606 0.05894382536616416
2360000000.0 -0.4018644829793894 -0.2556727992137195
2380000000.0 0.4719344738507549 0.22405523381305964
2400000000.0 -0.5662467646911062 -0.07079369494972926
2420000000.0 0.5130208139518718 -0.34438322545948463
2440000000.0 -0.12480542325141454 0.6479062712679312
2460000000.0 -0.3426872061233475 -0.6034478524079389
2480000000.0 0.5716806071872874 0.43535095398802476
2500000000.0 -0.5135978940606071 -0.5248348355103246
2520000000.0 0.29023762415413085 0.6813909966238267
2540000000.0 0.13998470631661528 -0.7250238628654959
2560000000.0 -0.6719077226445017 0.28308229422723025
2580000000.0 0.487643936687788 0.5181789478110108
2600000000.0 0.23218179533742128 -0.6451702447591622
2620000000.0 -0.6506691285681434 0.06740675229560215
2640000000.0 -0.5877295161286287 0.18661322092854257
2660000000.0 0.3154764753499069 0.4776232097966173
2680000000.0 0.3207261374057102 -0.41858088522943604
2700000000.0 -0.4583858144352539 -0.152890960333081
2720000000.0 0.0828906368074031 0.4293523647706397
2740000000.0 0.28909156085886917 -0.27170943602654196
2760000000.0 -0.35905635242993117 0.031365140641163185
2780000000.0 0.329380882097987 0.04038144810117271
2800000000.0 -0.30725800066794884 0.034516684134369764
2820000000.0 0.18341983694314276 -0.22861772404510125
2840000000.0 0.1172763855365136 0.25825571842893036
2860000000.0 -0.27386444152908973 -0.05933714095603976
2880000000.0 0.1505594311201903 -0.2358457422061574
2900000000.0 -0.06439286739199965 0.2739409078890209
2920000000.0 0.20568365246129838 -0.19829425439976262
2940000000.0 -0.27535762832829797 -0.09262653718464446
2960000000.0 -0.23416177660217646 0.17560109764375154
2980000000.0 -0.21542754314214743 0.20470713151982786
3000000000.0 -0.28840990968279356 0.08269860843333834
3020000000.0 -0.16376537996120605 -0.25114318727040014
3040000000.0 0.2722108513995208 -0.123014420694428
3060000000.0 -0.16859245200591844 0.24427318758432107
3080000000.0 0.09096530033030226 -0.2777745144893643
3100000000.0 0.024836679378787804 0.28706909331975355
3120000000.0 -0.1484209693877786 -0.2387221121297111
3140000000.0 0.22533417308545495 0.15344705733235472
3160000000.0 -0.2446612550857049 0.08570609133240334
3180000000.0 0.21077165721554134 0.1239970499170553
3200000000.0 -0.10775450424022917 0.19513537293779049
3220000000.0 -0.18927791526668697 -0.05742181260200441
3240000000.0 0.09163969718142484 -0.14121341135212023
3260000000.0 -0.040732070319661924 0.13020217084125843
3280000000.0 0.06238403557478632 -0.08531522750417105
3300000000.0 -0.07563145589606604 0.019062769663882047
3320000000.0 -0.020042657186858312 0.04669466442332219
3340000000.0 -0.02085297463686455 0.019382112361988366
3360000000.0 -0.0005302828712307226 -0.009728668650954772
3380000000.0 0.0054627598267728604 0.0014400777195961655
3400000000.0 0.018242680163427977 -0.0031575903880968334
3420000000.0 0.02660079691723842 -0.015789950411860005
3440000000.0 0.03891392716210166 0.011238508066558942
3460000000.0 -0.023779069453697583 0.041981052479154214
3480000000.0 0.056081034727970824 -0.016152001555635936
3500000000.0 0.04299805800300635 -0.05942056311473796
3520000000.0 -0.07029124197260832 -0.05417090180879179
3540000000.0 0.10358981299824539 -0.003274719191455405
3560000000.0 -0.11159126343592342 0.033863590339385324
3580000000.0 0.13017819201959518 -0.014542339091677924
3600000000.0 -0.030133677110127776 0.14671433708212414
3620000000.0 -0.08128671389815313 0.14078545851923532
3640000000.0 -0.17448999452351258 0.00367503292109309
3660000000.0 -0.1832293106700961 -0.01616932801892431
3680000000.0 -0.17151361998844591 -0.07836180499935165
3700000000.0 -0.09768355699558175 -0.16162842836386956
3720000000.0 0.10074212841105251 -0.15937716308736938
3740000000.0 0.1681429034341562 -0.07340789127174725
3760000000.0 -0.17427522181947397 0.0266909364210495
3780000000.0 0.16639733580569882 0.01249899927317143
3800000000.0 0.013064294465329432 -0.15854090613171296
3820000000.0 -0.05115115106708538 -0.14396581421708737
3840000000.0 0.08754908249087541 -0.11851166706566632
3860000000.0 0.14189719222969593 0.04153326838869203
3880000000.0 0.14086212238416476 0.06420709130754444
3900000000.0 0.057347416427533965 -0.14708030362318014
3920000000.0 -0.14387112065122262 0.07896140959801749
3940000000.0 0.03809925678451415 -0.1638699598291229
3960000000.0 0.1514008854786621 -0.08373992026234951
3980000000.0 0.05488884485002688 -0.16471513682747793
4000000000.0 -0.047540322884047095 -0.15864865433566225
