! Created with skrf (http://scikit-rf.org).
# Hz S RI R 50.0 
!freq ReS11 ImS11
400000000.0 -0.754709390903734 0.3871497925919907
420000000.0 -0.3610642903411215 0.7785795258510142
440000000.0 0.6124428738974478 0.5593300490953269
460000000.0 0.6985691138857464 -0.3678391680117287
480000000.0 -0.10839781067497085 0.7122779253533262
500000000.0 0.3957805819124079 -0.4444650743923827
520000000.0 -0.1659808121667393 -0.48313614853983006
540000000.0 0.43259874960702727 0.12217433195679252
560000000.0 -0.3439156723050552 -0.1793848690623701
580000000.0 0.32024218516338127 -0.16231134951517293
600000000.0 -0.3537643990625822 -0.07776215392603777
620000000.0 0.31314842796026776 -0.20378266746623802
640000000.0 -0.04134563423312036 -0.3945922375321106
660000000.0 -0.4043612284474383 -0.045885301294459516
680000000.0 -0.06126179458634307 -0.4113008625246818
700000000.0 -0.36468909732904753 -0.2135808817474404
720000000.0 -0.407648788355325 0.09454120854431894
740000000.0 0.3178643238650662 -0.2583056376988028
760000000.0 -0.25552837697787295 -0.293959127221123
780000000.0 0.1838741752959284 0.3076945686797667
800000000.0 0.22073879240112085 -0.23533339376041687
820000000.0 -0.27575080223065185 0.043590703915145954
840000000.0 -0.0842630518332304 0.22375612176876766
860000000.0 -0.16565239809393498 -0.11598434265512654
880000000.0 0.09638052234194326 0.127664635373613
900000000.0 0.11017312612531815 -0.0010154810233008633
920000000.0 -0.05200732124662479 -0.05123264172796801
940000000.0 0.005217521107633297 0.04763634943449374
960000000.0 0.024392381006427048 -0.04682066347513911
980000000.0 0.032528118961605 -0.06483670989096162
1000000000.0 0.08507116367424387 6.726367956195061e-05
1020000000.0 -0.05075291759224769 -0.09498456729862592
1040000000.0 0.11939920755363057 0.025815379141866587
1060000000.0 0.14887859020764924 -0.05627753163678038
1080000000.0 0.17396711857809313 -0.01780305965252044
1100000000.0 -0.1889826547942858 -0.05920455304397069
1120000000.0 0.21698748271518792 0.007953766259097014
1140000000.0 -0.10155109199041708 -0.2278454912573978
1160000000.0 -0.2056059145180058 -0.19009355798245525
1180000000.0 -0.11784686691127143 -0.29081619414370513
1200000000.0 0.20146414877503369 -0.2765058750958086
1220000000.0 -0.21890260219631838 0.2923514207363491
1240000000.0 0.3843353280140902 -0.05141409720392554
1260000000.0 -0.15443204859339574 -0.3793771727796894
1280000000.0 -0.2847126248412468 0.31881313863048516
1300000000.0 0.3114283266139264 0.3096573826299849
1320000000.0 0.4056893364104593 -0.1695350283377333
1340000000.0 0.4185073027000229 -0.1359760060263645
1360000000.0 0.3998206937998972 -0.18050540651675553
1380000000.0 0.19715347596923716 -0.3925024526027661
1400000000.0 -0.41575648644402713 -0.09739634540985415
1420000000.0 -0.0027319698283718697 0.4091635237226624
1440000000.0 0.36945951538412525 -0.09719307079693797
1460000000.0 -0.03957817322421347 -0.3494255106069045
1480000000.0 -0.3183320138633507 0.038025601873256536
1500000000.0 -0.018461802852492704 0.2851136601687164
1520000000.0 0.15083860719302322 0.2060114194496934
1540000000.0 -0.2077903091168539 -0.08755502826661757
1560000000.0 0.11412186122933653 -0.15373727995442182
1580000000.0 0.10638461775976037 0.12178175846568534
1600000000.0 0.1314220117639318 0.012295871008566113
1620000000.0 0.07632055501761562 0.0666085094717644
1640000000.0 -0.07786015693121923 -0.009632786572220432
1660000000.0 0.00939736078173904 -0.05374228345812634
1680000000.0 -0.00797665765445531 0.03392366509155587
1700000000.0 -0.019815827188140088 0.0034346334154909215
1720000000.0 -0.007094896708454179 0.0022082689572913154
1740000000.0 0.014549536122455027 -0.010070237915619945
1760000000.0 -0.031145174598598 0.013266890240110107
1780000000.0 -0.05728358842693059 -0.02813783159977295
1800000000.0 0.06038697861374156 0.07621221321077443
1820000000.0 0.09323836032166608 0.08810924667278494
1840000000.0 -0.03898426035539732 -0.16157050228690006
1860000000.0 -0.024681043587818526 0.20346663953889713
1880000000.0 0.03863299672181144 -0.24227677918842833
1900000000.0 -0.038530325340724286 0.2840767292323572
1920000000.0 0.021625462906825408 -0.32276576044771915
1940000000.0 -0.22794127599538216 0.2713987746659873
1960000000.0 0.3769722601174833 -0.05424806337236855
1980000000.0 -0.20960643278527125 -0.33962215857210093
2000000000.0 -0.4162057863224875 0.0022474974594894176
2020000000.0 -0.06273558577336087 0.423420217573913
2040000000.0 0.27827014409308354 0.3354848399512326
2060000000.0 0.398707101568087 -0.1821752399612748
2080000000.0 0.08685398575314918 -0.425179788351901
2100000000.0 -0.18348888944682443 -0.3859920953332241
2120000000.0 -0.30243072830634177 -0.2895564535698959
2140000000.0 -0.4056568920564265 -0.047482456129028634
2160000000.0 -0.1404782755251052 -0.36962576329845953
2180000000.0 -0.33972284796659624 -0.1757641708543441
2200000000.0 -0.3384769869779847 0.15131441265691697
2220000000.0 -0.13943128729303703 0.33350174726434834
2240000000.0 0.20954067672920856 0.29079258598933455
2260000000.0 0.35815414937521556 0.0152454968271314
2280000000.0 0.22861048702426193 -0.2827514455178718
2300000000.0 -0.28532254528713813 -0.247263075555155
2320000000.0 -0.23390305747242196 0.327222100790429
2340000000.0 0.4348542438384005 0.020141996430139877
2360000000.0 -0.4222172713777508 -0.22116468546103601
2380000000.0 0.4794847645649267 0.20714947229394645
2400000000.0 -0.5712584494677246 -0.003964151870508446
2420000000.0 0.4725216182038244 -0.39984928669762976
2440000000.0 -0.0520839204212047 0.659116851087592
2460000000.0 -0.3802907360000326 -0.5817298167966471
2480000000.0 0.5976118153570971 0.40022897262990015
2500000000.0 -0.5205644776490154 -0.5179918747875512
2520000000.0 0.32680254526253544 0.664040425501952
2540000000.0 0.12742503519973955 -0.7268288395614734
2560000000.0 -0.6364203353162444 0.3552240599366131
2580000000.0 0.5956046672097822 0.38770377787202553
2600000000.0 0.13054781303351937 -0.6721245481081054
2620000000.0 -0.6353674054744876 0.1469039120923313
2640000000.0 -0.5685548237282717 0.23329816666174963
2660000000.0 0.37881345254731524 0.42640175613662423
2680000000.0 0.2952996217632956 -0.4340544591511101
2700000000.0 -0.47632595072459083 -0.06601724281726586
2720000000.0 0.18262883014906078 0.3953010396497728
2740000000.0 0.22079131006238595 -0.3272170452040217
2760000000.0 -0.3528920033750849 0.06328362867588962
2780000000.0 0.3299719534147053 0.01628307018040106
2800000000.0 -0.30549925920972804 0.03710206288502891
2820000000.0 0.17070921084170373 -0.23704654282227383
2840000000.0 0.14352396518241423 0.24330256615811346
2860000000.0 -0.2764740584014877 -0.03659380604699069
2880000000.0 0.1445559909171636 -0.23841608037277223
2900000000.0 -0.014084769365699927 0.28022493649182045
2920000000.0 0.14818760125029776 -0.243460847611661
2940000000.0 -0.2885801955396349 -0.029488744021737654
2960000000.0 -0.1624003190804967 0.24318517219853344
2980000000.0 -0.19104007991619906 0.22750013509592007
3000000000.0 -0.2786565862933064 0.11217436035474343
3020000000.0 -0.2011608020517522 -0.22339820549417724
3040000000.0 0.2811760511242422 -0.1025550412041099
3060000000.0 -0.16408830581109543 0.24843480628739165
3080000000.0 0.12497535981718041 -0.2659642453921034
3100000000.0 -0.0313789573025142 0.28752729321512266
3120000000.0 -0.05384238481907757 -0.2766720971012912
3140000000.0 0.14750206140707414 0.23008842069527605
3160000000.0 -0.24857481596701886 -0.07612823650764766
3180000000.0 0.11554778190153388 0.21557232294387346
3200000000.0 -0.18736438096833782 0.12113247691904
3220000000.0 -0.139151469366372 -0.1388510307694234
3240000000.0 0.15159970848768317 -0.07080704715545018
3260000000.0 -0.08682653426403604 0.10282521084393655
3280000000.0 0.08863847952660239 -0.05403004790412298
3300000000.0 -0.07486838623223159 -0.01436425130392086
3320000000.0 -0.02094730227785321 0.04425059672613989
3340000000.0 -0.024907687312870738 0.008369765744244471
3360000000.0 -0.004928313570310474 0.006483941028666232
3380000000.0 -0.005771575765811156 0.0044330905298358815
3400000000.0 0.006400179338769785 0.018823469615381165
3420000000.0 0.030876868359271878 0.008529094010120237
3440000000.0 0.004692642626628715 0.04118872210861629
3460000000.0 -0.028259988923156266 0.040422673982523895
3480000000.0 0.053770100337803904 -0.025483355073339573
3500000000.0 0.054137706861645735 -0.04962584053666516
3520000000.0 -0.027763050033378183 -0.08377056127358716
3540000000.0 0.09715413215232857 0.03452587363864837
3560000000.0 -0.11288987753078303 -0.027542249292538415
3580000000.0 0.12138461894755316 0.0490946692443638
3600000000.0 -0.06406406434636522 0.1350298621107689
3620000000.0 -0.08405870169408793 0.13846387772246682
3640000000.0 -0.17090529905931842 -0.03167990256360365
3660000000.0 -0.17842129444413063 -0.04577610408792494
3680000000.0 -0.13501159876029536 -0.13212650836561948
3700000000.0 -0.03077235441297755 -0.18625071234508775
3720000000.0 0.13789872089961222 -0.127393716823395
3740000000.0 0.1645534792717298 -0.07916644773835656
3760000000.0 -0.17209228610807778 0.033240646670796445
3780000000.0 0.16562738176102604 0.004099986153214456
3800000000.0 0.03417295615391753 -0.1541916696867235
3820000000.0 -0.051312378315691784 -0.14271384508113644
3840000000.0 0.09709080096720502 -0.1101806468532747
3860000000.0 0.11527821481550532 0.09223802005797697
3880000000.0 0.1337666694192964 0.07691162871722568
3900000000.0 0.10201349721023927 -0.12039694576783394
3920000000.0 -0.14808442748003967 0.07041061734355454
3940000000.0 0.018533277736317536 -0.1664980544668225
3960000000.0 0.1418072156510042 -0.0968815359018712
3980000000.0 0.01625231835590088 -0.17175063504829555
4000000000.0 -0.09923928958677458 -0.1325917076766548
