! Created with skrf (http://scikit-rf.org).
# Hz S RI R 50.0 
!freq ReS11 ImS11
400000000.0 -0.777649192819087 0.33805390378864547
420000000.0 -0.349402485346185 0.7845230340882386
440000000.0 0.6009595571624345 0.5720419065660889
460000000.0 0.7127370187811035 -0.3372431581863302
480000000.0 -0.1541857899138787 0.7046741270509131
500000000.0 0.3396974710952827 -0.4900667270973308
520000000.0 -0.17484086520537587 -0.47731459085271133
540000000.0 0.3641016444639638 0.26297025278653136
560000000.0 -0.350783954067713 -0.17065468511694248
580000000.0 0.25844841087543796 -0.24984599574213662
600000000.0 -0.3370781791753509 -0.1264056748885635
620000000.0 0.35482049518846387 -0.11962417604807876
640000000.0 -0.0746266586131825 -0.3904255058036578
660000000.0 -0.4046106824650878 -0.04227234835149672
680000000.0 -0.018043747599951428 -0.41546109094347644
700000000.0 -0.3498136546763291 -0.23787567554965303
720000000.0 -0.4045018577103989 0.10814356367361136
740000000.0 0.3075834886877626 -0.2696015473477811
760000000.0 -0.25308993021189796 -0.2952822701370993
780000000.0 0.19880556172542704 0.29784524224257647
800000000.0 0.2133394323193641 -0.24158069546939695
820000000.0 -0.27448673985892835 0.0496971383959611
840000000.0 -0.06363310121549023 0.23009805839067354
860000000.0 -0.16220782074406861 -0.12063605404998119
880000000.0 0.0932120030219304 0.12985689763882446
900000000.0 0.10916453585356756 -0.01474741648509314
920000000.0 -0.05186745435016728 -0.05174643128217286
940000000.0 -0.009165569301773353 0.04713099993032395
960000000.0 0.033166202673136656 -0.040855991354285436
980000000.0 0.0515698220520822 -0.050515245128792456
1000000000.0 0.08335591996422047 -0.013778099511935463
1020000000.0 -0.07089938426237617 -0.0805089070579248
1040000000.0 0.12162794146842981 -0.012031118035521681
1060000000.0 0.1483730110295479 -0.05783166154641079
1080000000.0 0.17420561879003393 -0.018468446224695206
1100000000.0 -0.19219449322264373 -0.04944563393908657
1120000000.0 0.2162460503191646 0.020092888922048576
1140000000.0 -0.08312389615122363 -0.23552361191616222
1160000000.0 -0.18350705455047475 -0.21168221662435283
1180000000.0 -0.09523271710085249 -0.29891783978471
1200000000.0 0.2271111731068792 -0.2555113466882386
1220000000.0 -0.24169471930359032 0.2736881946867398
1240000000.0 0.3874831398590678 -0.014332487296386249
1260000000.0 -0.14425314526707836 -0.3831231292972578
1280000000.0 -0.30206092073661145 0.3022952917821254
1300000000.0 0.31711743833411116 0.3037570547207729
1320000000.0 0.4011805274581187 -0.1793812020066886
1340000000.0 0.41709228283251104 -0.1399839712522943
1360000000.0 0.40155744490542405 -0.1765766134584604
1380000000.0 0.17765323266857286 -0.4018542413917199
1400000000.0 -0.41580967293374066 -0.0982131324281373
1420000000.0 0.011763095501353824 0.4091399145457557
1440000000.0 0.36542238982960334 -0.11197944091791885
1460000000.0 -0.04485888107689741 -0.34926476264986606
1480000000.0 -0.314941710594424 0.061673105459725486
1500000000.0 -0.026363119344008295 0.2847927800803646
1520000000.0 0.12579988639941989 0.2230317194633806
1540000000.0 -0.2080687478958187 -0.08844565884776891
1560000000.0 0.1328880581160914 -0.13839721637987024
1580000000.0 0.06551912154920458 0.14839583752615199
1600000000.0 0.1318424942175467 0.008218388692843704
1620000000.0 0.05263307517134998 0.08653943663458735
1640000000.0 -0.07316645909794976 -0.027922505141202144
1660000000.0 0.028883077675635957 -0.04603477648770142
1680000000.0 -0.005468883491988816 0.03384360627400971
1700000000.0 -0.0029231587539546647 -0.019296930901294827
1720000000.0 0.0010741083655211802 -0.006474591620626408
1740000000.0 0.005486392875346841 0.01684953426044993
1760000000.0 -0.016354611790410773 -0.0294943273443464
1780000000.0 -0.04108012052937033 -0.048676911625549144
1800000000.0 0.023986564569289614 0.09351677159247142
1820000000.0 0.08074471757964098 0.09979079070443937
1840000000.0 -0.027430243842899302 -0.16337664640870478
1860000000.0 -0.049587590079028465 0.1982094942476504
1880000000.0 0.05586155973441784 -0.23830134634248418
1900000000.0 -0.046794009073191534 0.2825873380301003
1920000000.0 0.017518836856784695 -0.32259630400646816
1940000000.0 -0.21232643517062155 0.28346601705297525
1960000000.0 0.3745987500713208 -0.06851433966655175
1980000000.0 -0.22174588220526129 -0.33183087981893816
2000000000.0 -0.41599319542471846 0.01818914390953662
2020000000.0 -0.08121919011417966 0.42073878070326537
2040000000.0 0.2653520918389535 0.3465149910086549
2060000000.0 0.4043161295273366 -0.1708524518735891
2080000000.0 0.1211478423334812 -0.41748978574440143
2100000000.0 -0.1492011442237095 -0.4014827862006745
2120000000.0 -0.30748446256047385 -0.28515781424100045
2140000000.0 -0.4024093785484214 -0.07477548976649188
2160000000.0 -0.112916272134568 -0.3797255889059057
2180000000.0 -0.324539748828801 -0.2035275246351439
2200000000.0 -0.36211137445037966 0.08164736892867686
2220000000.0 -0.16750999807804762 0.3201252623643971
2240000000.0 0.1529242227658033 0.32401253992177936
2260000000.0 0.35076656349437935 0.07150027441060741
2280000000.0 0.26000775751271527 -0.2532659046427135
2300000000.0 -0.24783614694478853 -0.2841919405485988
2320000000.0 -0.2786608545686311 0.2885741274199422
2340000000.0 0.4264154109852934 0.08379367912728745
2360000000.0 -0.3840344297200321 -0.28081463998094114
2380000000.0 0.4476996222249127 0.2676252056978374
2400000000.0 -0.5612095679326496 -0.10329153116229454
2420000000.0 0.5343182607320959 -0.31134689329823206
2440000000.0 -0.20746984865600349 0.6277319892234322
2460000000.0 -0.264406917556128 -0.6430143822813813
2480000000.0 0.5011172839437612 0.5170020437879039
2500000000.0 -0.4321155392013962 -0.5947193108236734
2520000000.0 0.2241056054314041 0.7064368730652192
2540000000.0 0.20860678625295231 -0.7089956658771734
2560000000.0 -0.6949240258648833 0.22495127176672974
2580000000.0 0.5187115373989846 0.488424814464273
2600000000.0 0.2246243799327196 -0.6487753545108235
2620000000.0 -0.6524490498576526 0.04243878789236236
2640000000.0 -0.5854718010386971 0.19275821214254313
2660000000.0 0.3154511581618273 0.4772334913957182
2680000000.0 0.33736660587229184 -0.40447033066409
2700000000.0 -0.46912432356796363 -0.11154358559466514
2720000000.0 0.15657190384404557 0.4076385922741722
2740000000.0 0.2646366255662243 -0.2941348116744597
2760000000.0 -0.3535895539138328 0.06423204942916111
2780000000.0 0.33024175020792607 0.023354674523334104
2800000000.0 -0.30611656196085724 0.03838447939529248
2820000000.0 0.16511724441842218 -0.2417169151067943
2840000000.0 0.13666837693830317 0.24768618563652273
2860000000.0 -0.27826132967681894 -0.025300385923667505
2880000000.0 0.1419760645169654 -0.24085328193377772
2900000000.0 0.00024611908016113965 0.28097568177370796
2920000000.0 0.16961886454446515 -0.2299564703292936
2940000000.0 -0.288991000305731 -0.03332010221676279
2960000000.0 -0.1662237666290735 0.24176358609928086
2980000000.0 -0.21522226626509827 0.20580048617312083
3000000000.0 -0.2947474851021497 0.06122070783366034
3020000000.0 -0.17572566212200502 -0.24427817235949886
3040000000.0 0.2918125702676291 -0.0674143085601412
3060000000.0 -0.19560414290879338 0.22422110714591859
3080000000.0 0.17987843649284857 -0.23303864656666717
3100000000.0 -0.06518377578622887 0.28213094208013756
3120000000.0 -0.03013847218810724 -0.27975039742574365
3140000000.0 0.1118716259854478 0.2489358881822327
3160000000.0 -0.2393292457166111 -0.10072778195716701
3180000000.0 0.1095643923527219 0.21801878827707988
3200000000.0 -0.1913958006279599 0.11233662772464544
3220000000.0 -0.137472422735062 -0.13950352362975846
3240000000.0 0.14043357622947758 -0.08910275355303364
3260000000.0 -0.06463736934137078 0.11708094178410794
3280000000.0 0.08170411084791479 -0.06295851299746306
3300000000.0 -0.05667362844118216 0.0500129584441863
3320000000.0 0.01274158215959455 0.04698529700718121
3340000000.0 0.022449428386515622 0.012967660748015001
3360000000.0 0.004300976197701572 -0.006341478955630403
3380000000.0 -0.005973873434785963 -0.004685421774716012
3400000000.0 -0.016270065888101395 -0.011338606151279861
3420000000.0 -0.031153827234334325 0.006971799645882176
3440000000.0 -0.03482134974929088 0.02290380301528194
3460000000.0 -0.04245042982005166 -0.024754255599345906
3480000000.0 0.04589052325403926 0.037967402805653416
3500000000.0 0.07221765126606412 0.014677538153025312
3520000000.0 0.030736861676459712 -0.08298843854732316
3540000000.0 0.049856764893691646 0.08989890218952415
3560000000.0 -0.10011079096113783 -0.059913052510983944
3580000000.0 0.09869345311879552 0.08623048236434266
3600000000.0 -0.10139706327983611 0.1102080919734148
3620000000.0 -0.12890515456273238 0.09728220306185802
3640000000.0 -0.1590352794430203 -0.0706937680123309
3660000000.0 -0.15507276912916457 -0.0979778030689313
3680000000.0 -0.09491068202780242 -0.16258057024021316
3700000000.0 0.0005856408840165628 -0.18845121651876276
3720000000.0 0.14079900804541043 -0.12234857731888336
3740000000.0 0.1728572994736347 -0.05742083443620157
3760000000.0 -0.17228668509780773 0.029891633055611752
3780000000.0 0.16506061375795383 -0.0017306546587633517
3800000000.0 0.03857641597738803 -0.1524510913397774
3820000000.0 -0.03452443603596875 -0.14692201995921464
3840000000.0 0.10340789764715624 -0.1027667748784796
3860000000.0 0.09318536987844761 0.11333692435408059
3880000000.0 0.108889049468086 0.10825764614202692
3900000000.0 0.12904086914068186 -0.08944461173786082
3920000000.0 -0.16193954758798595 0.019056673398999142
3940000000.0 0.05466485105238047 -0.1576022778276187
3960000000.0 0.1584201697222739 -0.06490842026494818
3980000000.0 0.058457085412911516 -0.16167796403520024
4000000000.0 -0.02104608077386615 -0.16361265324822452
