! Created with skrf (http://scikit-rf.org).
# Hz S RI R 50.0 
!freq ReS11 ImS11
400000000.0 -0.7792331269550793 0.32537723016592274
420000000.0 -0.3361541696120677 0.7882208553089838
440000000.0 0.6380418468075126 0.5269742249456938
460000000.0 0.6671825040985194 -0.4192551040324588
480000000.0 -0.14214288087954646 0.7066952958518826
500000000.0 0.36680726423027876 -0.4690686983216287
520000000.0 -0.20562060229279192 -0.4678617468889648
540000000.0 0.4202854210637172 0.15643322281942706
560000000.0 -0.34632081770356066 -0.18011366218279
580000000.0 0.24627398696874592 -0.2603969066507056
600000000.0 -0.362551139552058 -0.027971368134389912
620000000.0 0.3536285660256884 -0.12258193172240167
640000000.0 0.0042994214768780166 -0.3977441176931548
660000000.0 -0.4012438522130426 -0.0744983525349415
680000000.0 -0.01209002919060529 -0.4158926465119075
700000000.0 -0.3396256181740317 -0.250420759275434
720000000.0 -0.41844580174236207 0.01831447935053154
740000000.0 0.3364014592382534 -0.23035466543995312
760000000.0 -0.226434957771344 -0.3156880452392123
780000000.0 0.1759615525041919 0.31110972869908815
800000000.0 0.19817356695310365 -0.254204235046628
820000000.0 -0.2661659494629587 0.08213230793257285
840000000.0 0.0014924721029407524 0.2390483622147178
860000000.0 -0.19899948717680013 -0.03755990323505739
880000000.0 0.15603633199857095 0.035064577655706954
900000000.0 0.11169890839750907 0.0035818591479716837
920000000.0 -0.07373934653503621 -0.010172229630131006
940000000.0 -0.045503941328415586 0.018273282242874302
960000000.0 0.036285520527660695 0.03721642131770003
980000000.0 0.0676950749360084 -0.01987927521056336
1000000000.0 0.08394386954504103 -0.003481019249372155
1020000000.0 -0.10085133267170045 -0.031203085449251294
1040000000.0 0.11148343134961866 -0.04775242823805862
1060000000.0 0.07250604326448154 -0.14177597424850213
1080000000.0 0.1405965716044858 -0.10599843395960049
1100000000.0 -0.19930473743939234 0.012325549998843862
1120000000.0 0.21847167768118214 -0.021665421007356706
1140000000.0 -0.08505697490067907 -0.23728979016578466
1160000000.0 -0.16971229443414773 -0.2256414581719471
1180000000.0 -0.04467272404496857 -0.3124266480301615
1200000000.0 0.2958110820198073 -0.17514514523661015
1220000000.0 -0.2951238177795135 0.2175666819977406
1240000000.0 0.38019777782311925 0.0797963632782366
1260000000.0 -0.049821631024986386 -0.40669537901026465
1280000000.0 -0.35302620732828627 0.24050429824085198
1300000000.0 0.24626944556391092 0.363196020905129
1320000000.0 0.41098283173621647 -0.15477922288829074
1340000000.0 0.42053453697862575 -0.126983520634966
1360000000.0 0.4085552972329037 -0.1581100360308249
1380000000.0 0.16097719045382314 -0.40788141230267744
1400000000.0 -0.4205017753202947 -0.07315250244566975
1420000000.0 0.06276723470243377 0.40393116876008234
1440000000.0 0.3586854817151047 -0.13175654015768357
1460000000.0 -0.08189136335844965 -0.3424338327698113
1480000000.0 -0.3066713979571351 0.09559274432738013
1500000000.0 0.0456838132303071 0.28305772931480616
1520000000.0 0.18477582787082705 0.1782808171380661
1540000000.0 -0.21952038187235362 -0.05800974534918972
1560000000.0 0.11326568458837914 -0.15614918294155417
1580000000.0 0.0765812744776739 0.14428144288413627
1600000000.0 0.1272288264429097 0.03896381946638447
1620000000.0 0.03601863415250586 0.09517873230922337
1640000000.0 -0.05104091773266885 -0.06023586645893138
1660000000.0 0.053263218005439546 -0.011391537926330977
1680000000.0 -0.03160804038792589 -0.013669136050012432
1700000000.0 0.018170241377735402 -0.006443541670084299
1720000000.0 0.002418125722619134 -0.006732717187257627
1740000000.0 -0.011847706161586438 0.013760209352429626
1760000000.0 9.195306574563456e-05 -0.03413925469620091
1780000000.0 -0.005499419910165752 -0.06381336864589082
1800000000.0 -0.0011633252947002388 0.09682545863974186
1820000000.0 0.05108399863706921 0.11742913890320739
1840000000.0 -0.01395322449400754 -0.16492280469571094
1860000000.0 -0.055977103015655005 0.19674304684136354
1880000000.0 0.055184210055701434 -0.23843036115076985
1900000000.0 -0.034023705997616116 0.28431717574342413
1920000000.0 0.019247031633500424 -0.3222533443111784
1940000000.0 -0.20757801973322632 0.28672177771572993
1960000000.0 0.3712818912442606 -0.08434781067050896
1980000000.0 -0.2289099337526522 -0.32698833141014927
2000000000.0 -0.41465569753834614 0.03787488732318701
2020000000.0 -0.045766410214727486 0.4260360331748611
2040000000.0 0.2878774132774008 0.32805162478579375
2060000000.0 0.387816187021549 -0.20550830442109433
2080000000.0 0.09390770459070087 -0.42454177733718773
2100000000.0 -0.11722180293337806 -0.41228571205581865
2120000000.0 -0.3390590333167848 -0.24662035848307326
2140000000.0 -0.4005326585279025 -0.08303683875410905
2160000000.0 -0.12338823759100147 -0.37614193016942343
2180000000.0 -0.33149226719166797 -0.19113511957491502
2200000000.0 -0.35782844014917725 0.09732152047340169
2220000000.0 -0.17037225845295356 0.31864479884950364
2240000000.0 0.19021949328429424 0.303058030373798
2260000000.0 0.35592572238692477 0.035440346627045094
2280000000.0 0.2160925525762069 -0.2914317912053582
2300000000.0 -0.28329458105506766 -0.24876958710317637
2320000000.0 -0.2468591791239219 0.316174915081415
2340000000.0 0.4319746698409719 0.0459255428463126
2360000000.0 -0.4014909882077653 -0.2552602814975036
2380000000.0 0.4680418744365983 0.23004363568874017
2400000000.0 -0.5547554240162594 -0.13253991612061675
2420000000.0 0.533048512032591 -0.31276786278311786
2440000000.0 -0.17445382502223825 0.6370029454518453
2460000000.0 -0.2765100561488746 -0.636901582061406
2480000000.0 0.48934014150611266 0.5270514134674354
2500000000.0 -0.46966237070953015 -0.5639797178982661
2520000000.0 0.2553933991863148 0.6941154600033744
2540000000.0 0.20573893817747727 -0.7085824931804601
2560000000.0 -0.6721411853548384 0.28112895685589273
2580000000.0 0.5479596010294124 0.45291029607198724
2600000000.0 0.20329986645367734 -0.6540647801075791
2620000000.0 -0.6402363862597864 0.12475670187979043
2640000000.0 -0.5984293573335433 0.1404502951446981
2660000000.0 0.33318776518098175 0.46328139832995885
2680000000.0 0.2955480766306861 -0.4344915006533921
2700000000.0 -0.4729831296722152 -0.08904365900805156
2720000000.0 0.1831414050490479 0.39586707045277897
2740000000.0 0.23606076664506992 -0.3171587751503406
2760000000.0 -0.3493172893219055 0.08365583573351244
2780000000.0 0.33038874290490466 0.018404759333430557
2800000000.0 -0.30632650588738947 0.03651209534186346
2820000000.0 0.16675891200931062 -0.24063928525311168
2840000000.0 0.12472252520862881 0.25397934667760813
2860000000.0 -0.2744413457447899 -0.05381525140236857
2880000000.0 0.14708240141243661 -0.23745088821413088
2900000000.0 -0.0467093516992657 0.2770126777251745
2920000000.0 0.1879750775185761 -0.21497987100555824
2940000000.0 -0.28386499541886784 -0.060621286055262485
2960000000.0 -0.19046000912349176 0.2218184720943217
2980000000.0 -0.229743720479612 0.18797650055347476
3000000000.0 -0.29359170557856273 0.06293496610901002
3020000000.0 -0.14681268588685345 -0.26187667943999826
3040000000.0 0.29200563258737783 -0.0628103188454204
3060000000.0 -0.2158432394736058 0.20342811123753932
3080000000.0 0.1663886036510905 -0.24133137324730036
3100000000.0 -0.10364015913198564 0.26877148536293194
3120000000.0 -0.031334831791611964 -0.27872163589404186
3140000000.0 0.13640431681764847 0.2357589705217849
3160000000.0 -0.2547478027421463 -0.04805822561870001
3180000000.0 0.1306120225895023 0.20533541086844537
3200000000.0 -0.17680385990368738 0.13365057807150252
3220000000.0 -0.15893974876505218 -0.11396695870322276
3240000000.0 0.11626547043414914 -0.11901560691293252
3260000000.0 -0.037561950726406036 0.12828592083397825
3280000000.0 0.06693041426462529 -0.07896769590890579
3300000000.0 -0.04460315398238958 0.06170713429819346
3320000000.0 0.02907070268199241 0.039386304214188046
3340000000.0 0.009956928682132967 0.024560805901769383
3360000000.0 -0.007847580917211262 0.002418834896601461
3380000000.0 0.00677202402017819 0.0018030411654628299
3400000000.0 -0.017156010319514112 0.008840570056492178
3420000000.0 -0.014263267336914262 0.028228106848361453
3440000000.0 -0.0050022405259236395 0.04089051213844664
3460000000.0 -0.04373916289504347 0.021839439746185376
3480000000.0 0.058507372134755785 0.010103017097455605
3500000000.0 0.06823828065498455 -0.02613334301098979
3520000000.0 0.015930033063571387 -0.0861164050339155
3540000000.0 0.07639510830751754 0.06828615493530059
3560000000.0 -0.09949851237609172 -0.05864794008272893
3580000000.0 0.10556198840737799 0.07633352744693786
3600000000.0 -0.09300161200520371 0.11611442630554646
3620000000.0 -0.09533689610937733 0.12998374772571755
3640000000.0 -0.1678312393161421 -0.04124791173587885
3660000000.0 -0.1763016437662293 -0.05030111355819806
3680000000.0 -0.12247226295799218 -0.1428661010887012
3700000000.0 -0.02977929384909617 -0.1858442940614486
3720000000.0 0.12997882294966057 -0.1344401780457486
3740000000.0 0.15748967626048874 -0.0908750619806516
3760000000.0 -0.1699191238279138 0.041501997197428996
3780000000.0 0.16204964413580192 -0.03168082541824608
3800000000.0 0.026392609625647483 -0.15533899272957225
3820000000.0 -0.058615512083687 -0.13905417575998938
3840000000.0 0.07312787840115521 -0.1264748884561675
3860000000.0 0.12570496173775123 0.07689434591395136
3880000000.0 0.1321148493171506 0.07993818014637821
3900000000.0 0.10116243223428846 -0.12110004889752866
3920000000.0 -0.15370724509887482 0.056692219413359946
3940000000.0 0.024359501175053953 -0.16562145234330747
3960000000.0 0.1537928952777033 -0.07701041270480305
3980000000.0 0.02600316966115418 -0.170282544974487
4000000000.0 -0.08788672079227959 -0.1399743824124827
