! Created with skrf (http://scikit-rf.org).
# Hz S RI R 50.0 
!freq ReS11 ImS11
400000000.0 -0.10400784404123768 0.8632818991527093
420000000.0 0.4014707168331037 0.763218740000226
440000000.0 0.818442379335066 -0.14284640431253762
460000000.0 0.3408608641565978 -0.7156063682227235
480000000.0 0.6668540839891431 -0.25961563444161956
500000000.0 -0.049023395070125285 -0.5704175092879321
520000000.0 -0.14140732863921718 -0.4718228380220617
540000000.0 0.30862184310092156 -0.3043050444873423
560000000.0 -0.3245339031667251 0.15250670480775227
580000000.0 0.017307962824328546 0.33892641523739525
600000000.0 0.2717577796509993 -0.20016216678528242
620000000.0 -0.33972084105506956 0.11192326650155035
640000000.0 0.15720843125622358 0.35531640887518984
660000000.0 0.3997582224363202 -0.03420346478825843
680000000.0 -0.0015218284181531632 0.4199601195623175
700000000.0 0.25238022894574935 -0.35081874585058453
720000000.0 -0.271324034658647 -0.3297565503782804
740000000.0 0.3774854595759648 0.18247383631530598
760000000.0 0.08607051705797286 -0.392432892924993
780000000.0 0.09200358905155505 0.3607272325503211
800000000.0 0.1285618439991328 -0.319318834452021
820000000.0 0.2839838193852177 -0.0775805409274469
840000000.0 0.02543208252611243 -0.2469318292940424
860000000.0 0.18848301011515034 -0.10164103404686209
880000000.0 -0.06928606538640456 0.14268359755979965
900000000.0 -0.04972487933183782 0.08020597505027827
920000000.0 -0.06114027788415586 0.01581718425654208
940000000.0 0.00047413241599655073 0.047994897038655254
960000000.0 -0.016177457051016413 -0.050988553650263106
980000000.0 0.033881900495544424 0.062126422344894565
1000000000.0 -0.005208104213175016 -0.07998491171896494
1020000000.0 -0.023438998905975304 0.09587804961270012
1040000000.0 0.10739753576305991 0.025022301005069237
1060000000.0 -0.06070851869091338 0.13225524818654522
1080000000.0 -0.14838781324474876 -0.05885727038609171
1100000000.0 -0.13741517358563557 0.11697532525481827
1120000000.0 0.15523215082308423 0.1299906202906468
1140000000.0 0.215423910938162 -0.08974757370399053
1160000000.0 0.2699246864512214 -0.021108897034161
1180000000.0 0.24967253912937742 0.17867669884965626
1200000000.0 -0.06535074287023422 0.33366288327165766
1220000000.0 0.06528489119112554 -0.360628138010047
1240000000.0 -0.16415915599004322 0.3591230294609298
1260000000.0 0.4074969885317352 -0.11288177137323613
1280000000.0 -0.4396471570353995 0.06544637244576682
1300000000.0 0.43400722597254754 0.1412556692741139
1320000000.0 -0.18589552254648034 -0.41387879240565617
1340000000.0 -0.3661273243683807 -0.2515314095460919
1360000000.0 -0.34278121518453536 -0.26580165416187596
1380000000.0 -0.36166604196641455 -0.22913621219628832
1400000000.0 -0.3967472173294385 0.11780846541034831
1420000000.0 0.03321245180036069 0.39548641782217797
1440000000.0 0.30676296661476776 0.20872992337337373
1460000000.0 0.2081959111687842 -0.27337088274472765
1480000000.0 -0.15235029966285774 -0.2740449080268359
1500000000.0 -0.2706482273866174 -0.08188464950485104
1520000000.0 -0.2554881130712133 -0.00011010059257560593
1540000000.0 0.21853838817195467 -0.06553469716341626
1560000000.0 -0.008547926648530916 0.1962655326271913
1580000000.0 -0.14672982642283855 -0.09236533669446922
1600000000.0 -0.04154848504457097 0.1401131765633999
1620000000.0 0.11820808402850773 0.006463747890222826
1640000000.0 0.09058762397397291 -0.02963279329461111
1660000000.0 -0.06995561239432935 0.010635360523194677
1680000000.0 0.03841014283911345 0.028156578341129244
1700000000.0 -0.025325695563836022 0.01271534677622564
1720000000.0 -0.008443899656691047 0.010098799882067936
1740000000.0 -0.011497638657467129 -0.017848626713981967
1760000000.0 0.04163956044099185 -0.008408071354703832
1780000000.0 -0.04057907566216941 0.06481962512140571
1800000000.0 0.048320058101358636 -0.10278266681715492
1820000000.0 0.09682376527403953 -0.11009391197373132
1840000000.0 0.12372596021338682 0.1297975074249164
1860000000.0 -0.2054744319085377 -0.04386672882977488
1880000000.0 0.08962306166466127 0.22287273500035176
1900000000.0 0.2316946056771464 -0.14622210192060497
1920000000.0 -0.21501128393134422 -0.2159068219182503
1940000000.0 -0.33114077137731923 0.062244412645785126
1960000000.0 0.01196516925616094 0.36696274771746457
1980000000.0 0.39052255764921695 -0.040376086867566066
2000000000.0 0.07526942349101028 -0.40768205581715955
2020000000.0 -0.430441101987035 0.0029347514097506707
2040000000.0 -0.03096939592259258 0.43659499923928646
2060000000.0 0.4281723825286431 0.09652976152926289
2080000000.0 0.3131550957454466 -0.3014273626842361
2100000000.0 0.13643095303083694 -0.4058009818980982
2120000000.0 -0.13570172347792372 -0.3962335040450913
2140000000.0 -0.3584512104720057 -0.19413406706402975
2160000000.0 -0.11024068219648477 -0.3773404735397688
2180000000.0 -0.35087498416446405 -0.13427228357897494
2200000000.0 -0.3282311161871276 0.15038605779355635
2220000000.0 -0.22023662836422342 0.2674320308886118
2240000000.0 -0.10600040872251874 0.3245426199198541
2260000000.0 -0.03289328534055736 0.3394414688308318
2280000000.0 0.033451107164841926 0.3447685073847096
2300000000.0 0.3530151690818905 0.08262574100774464
2320000000.0 0.03383213532897172 -0.3872030011639964
2340000000.0 -0.39242924501790644 0.1560037457394901
2360000000.0 0.46267217398664384 0.039307069474918924
2380000000.0 -0.5096623835617675 -0.03044986725448842
2400000000.0 0.5599524312867733 0.0030547493161594374
2420000000.0 -0.5560772230643806 0.25214018282395806
2440000000.0 0.34543861995529623 -0.5610100752701447
2460000000.0 0.10123635466455722 0.6907985455656668
2480000000.0 -0.39927721679243944 -0.6092993000005233
2500000000.0 0.3935719335881799 0.6365831662066752
2520000000.0 -0.22985686508636713 -0.7227518905127778
2540000000.0 -0.07641064926316468 0.7560728006430777
2560000000.0 0.5611069445098035 -0.5028957570415734
2580000000.0 -0.7144834442011446 -0.18740559391319048
2600000000.0 0.23247290086861797 0.6761300866991683
2620000000.0 0.4031110238530344 -0.5522559453514057
2640000000.0 0.050028331654630914 -0.6441079858285087
2660000000.0 -0.4801220239651231 0.36247222566457094
2680000000.0 0.5420977497178608 0.10950437818943098
2700000000.0 -0.16203525063893157 -0.4791214744734247
2720000000.0 -0.27765485013801766 0.3645074241400577
2740000000.0 0.4154608430311491 0.030242351210368706
2760000000.0 -0.2943524213545641 -0.24028871041138158
2780000000.0 0.32714081934838635 0.13137063435597837
2800000000.0 -0.3205341949830112 0.07511309185661268
2820000000.0 0.012555358721865759 -0.31241460096133694
2840000000.0 0.292453528977516 0.07119293856988852
2860000000.0 -0.1291125830964882 0.26673644506574645
2880000000.0 -0.20966867392539 -0.20477153090040404
2900000000.0 0.2600325220141223 0.13276869148880152
2920000000.0 -0.020903176236057627 -0.29309408635237777
2940000000.0 -0.29307011036727115 0.05882977874476087
2960000000.0 -0.18988091727503917 0.23329829085084816
2980000000.0 -0.28317284329046766 0.11385037405082593
3000000000.0 -0.26173602891781667 -0.16692001527675768
3020000000.0 0.028296745642465218 -0.31148646568630584
3040000000.0 0.2793492069490248 0.13634718228494996
3060000000.0 -0.30206833254772014 0.06814033548093425
3080000000.0 0.22278523791524737 -0.20906035214881874
3100000000.0 -0.012005062747383504 0.29948347537272213
3120000000.0 -0.020838761856650862 -0.28933042351344634
3140000000.0 0.14792126969528446 0.23887488560788334
3160000000.0 -0.26676846736915255 -0.023067641751100657
3180000000.0 0.17837403648290143 0.17643081987115802
3200000000.0 -0.12771408897813835 0.1883980197762911
3220000000.0 -0.18655173945286724 -0.07363025828854698
3240000000.0 0.08083278093554079 -0.1481054918523823
3260000000.0 -0.06975631161691796 0.11510510914955123
3280000000.0 0.10149537500161618 0.017296606249018468
3300000000.0 0.05906226034878872 -0.04805957511861661
3320000000.0 0.04175394434781164 -0.02951054260393112
3340000000.0 0.03061010057369499 -0.003247686934613655
3360000000.0 0.011677055995433748 0.006642708570113744
3380000000.0 0.0001555648547280171 0.004246702635866974
3400000000.0 -0.0024658538974036445 -0.01921459505927305
3420000000.0 -0.028739977379488753 0.020488375656688745
3440000000.0 -0.02176704069458906 0.04461781629605353
3460000000.0 -0.046794124910989096 -0.03360357352901289
3480000000.0 -0.056658679675432415 0.03752499984841499
3500000000.0 -0.041637941987373125 0.06586211631533252
3520000000.0 0.07331424279120798 0.05390289728241315
3540000000.0 0.09475611076967204 -0.042263447390154925
3560000000.0 -0.11702484710587242 0.014111564830018448
3580000000.0 0.07067744516445464 0.11373769985923901
3600000000.0 -0.11043925796748072 0.10895021871753274
3620000000.0 -0.1421801309800153 0.09220217424592529
3640000000.0 -0.1708733398704258 0.06060766110258895
3660000000.0 -0.1268315709467161 0.14260949346329857
3680000000.0 -0.1677040124618647 0.09484896775342988
3700000000.0 -0.19079567845180728 -0.018352234192132572
3720000000.0 -0.031166911562671085 -0.18630872981906643
3740000000.0 0.15221848596666945 -0.10200367858823531
3760000000.0 -0.17696810504802807 0.00011662399972276725
3780000000.0 0.16523838397776816 0.03728849999772012
3800000000.0 0.010021793035799321 -0.16119171105517513
3820000000.0 -0.12026628098450444 -0.0973716074992979
3840000000.0 -0.009555176097385546 -0.147916183188767
3860000000.0 0.14216342460488834 0.04337219832481873
3880000000.0 0.15395160232441166 0.010162647092975204
3900000000.0 -0.008579043044114994 -0.15644714532164658
3920000000.0 -0.12581212216096288 0.10091590241520583
3940000000.0 0.06642734411703076 -0.1518534601465197
3960000000.0 0.1701982429640004 0.020222648553486686
3980000000.0 0.1361219791616659 -0.10583253454096803
4000000000.0 0.15761812448629875 -0.053263776499461624
