! Created with skrf (http://scikit-rf.org).
# Hz S RI R 50.0 
!freq ReS11 ImS11
400000000.0 0.19893565547967118 0.848374109077909
420000000.0 0.6568252174040291 0.5546118886400043
440000000.0 0.7519705879177174 -0.3395481446309925
460000000.0 -0.023897297062396933 -0.7854290564880865
480000000.0 0.5441574263103864 -0.4328430228897509
500000000.0 0.4854438153748975 0.2740303538509253
520000000.0 0.3345089448850291 0.35951234056709386
540000000.0 -0.39136977748790563 0.20455713370273165
560000000.0 0.23343951844787786 -0.29990295293705965
580000000.0 -0.20391196911795906 0.3010292468889547
600000000.0 0.23186785183883887 -0.27557110343102376
620000000.0 0.1509602199628174 0.34401726301738184
640000000.0 0.21347050929761005 -0.336730034013257
660000000.0 -0.23336644063666104 -0.32828516921551937
680000000.0 0.4098244967131281 0.02717160448852246
700000000.0 0.26927722768558104 -0.32417563105694824
720000000.0 0.11494959318926527 -0.40769759995568694
740000000.0 0.14429323366983624 0.3980574909161227
760000000.0 0.13936499727138535 -0.38604585033361793
780000000.0 0.35791567282280723 0.12246437223171668
800000000.0 -0.3248540772450916 -0.11688415783818155
820000000.0 -0.19380156540132776 -0.21637791296357478
840000000.0 -0.20019664646820806 0.12565358714845523
860000000.0 0.1521964092590735 -0.1294747652420111
880000000.0 -0.13263676736209337 -0.045696300952815495
900000000.0 0.08169986318783957 0.006534964172528469
920000000.0 -0.05357938314556445 -0.022584018705612826
940000000.0 0.03127595031754073 0.020355816333480384
960000000.0 -0.03336363384385463 0.025849422596712333
980000000.0 0.024858861782933037 0.057798136620350625
1000000000.0 0.05708802245803069 0.06117356024210427
1020000000.0 -0.09373710905412022 -0.06022875587621168
1040000000.0 -0.11004933949260286 0.06559312544416747
1060000000.0 0.1242154334342615 0.10224729184121391
1080000000.0 0.1474733713014552 0.0870554135984757
1100000000.0 -0.010799097582705685 -0.1853438123315881
1120000000.0 -0.0056254888397026465 -0.19855090755663202
1140000000.0 0.06619706366373514 -0.21727869990364043
1160000000.0 0.15677787469876206 0.21132839933168726
1180000000.0 -0.24553895625943 0.18387544910716552
1200000000.0 -0.3413194923677661 -0.042970999639208356
1220000000.0 0.27299574801345206 -0.25751176127179376
1240000000.0 -0.04877634190770289 0.39890629583470294
1260000000.0 0.1641348518668227 -0.3934628482830714
1280000000.0 -0.25979415213555 0.35530986670515796
1300000000.0 0.44767355065034514 0.031330639367288006
1320000000.0 -0.028160769888226706 -0.4434181913379417
1340000000.0 -0.007181055306530553 -0.4385822021799673
1360000000.0 0.14647292241894325 -0.4065965838956306
1380000000.0 -0.1056122142632642 -0.41897404408665
1400000000.0 -0.4167013814475162 0.02277384651658657
1420000000.0 0.026213273951422315 0.3979237826498498
1440000000.0 0.33560883454563034 0.1646141800912692
1460000000.0 0.21260174812240765 -0.27164268956345466
1480000000.0 -0.17749879175200406 -0.2596212549395472
1500000000.0 -0.2830318661932326 0.02215117001312573
1520000000.0 -0.23537700435400274 0.10240077957525215
1540000000.0 0.1003689308206243 -0.2049321125808852
1560000000.0 0.15853304681476807 0.1139472822150911
1580000000.0 -0.146143776520954 0.08461698004519934
1600000000.0 0.08722633426437101 0.10939123551258534
1620000000.0 0.0679611990620245 0.08624685087260853
1640000000.0 -0.075105172062052 0.04440479692106258
1660000000.0 -0.03680698944995068 0.05419652140638865
1680000000.0 -0.022611631800726444 -0.038863251488175904
1700000000.0 -0.029891641931333666 3.81819883844321e-06
1720000000.0 0.0010488618420736225 -0.01041088085197546
1740000000.0 -0.013277873219896858 0.0036674624778139735
1760000000.0 0.031213550313752773 0.01863136116584546
1780000000.0 0.04148989659044479 -0.05871992760184864
1800000000.0 0.051313144984733446 0.09815938520833409
1820000000.0 0.09476112920470281 0.10975935215214633
1840000000.0 -0.05834368952005391 0.17132736751368458
1860000000.0 -0.19674966858451895 -0.07786147006603891
1880000000.0 0.09163048282257778 0.22296623698326823
1900000000.0 0.2433403344672505 -0.12498480453290997
1920000000.0 -0.11751150081283296 -0.2803814349420135
1940000000.0 -0.31829766777411006 -0.10865080687304794
1960000000.0 -0.15612579121405953 0.3327602817613382
1980000000.0 0.37755816334866554 0.10799330967128906
2000000000.0 0.2400949771985478 -0.33987206291145655
2020000000.0 -0.42791176329631275 -0.061059061702488114
2040000000.0 -0.10075893520907088 0.428486378874708
2060000000.0 0.44084581934951644 0.006647282843112562
2080000000.0 0.12256102609133236 -0.41648827450359244
2100000000.0 -0.16159585312520552 -0.39296511871342443
2120000000.0 -0.326861412644667 -0.2525371330984601
2140000000.0 -0.3964639025965256 -0.0542552624813634
2160000000.0 -0.064595148631693 -0.3789980598998907
2180000000.0 -0.14956723338221445 -0.33661091951748956
2200000000.0 -0.2052285940394027 -0.29099046382290167
2220000000.0 -0.28207914560540037 -0.20388819065489805
2240000000.0 -0.3335419224667372 0.09476413731311538
2260000000.0 -0.09692874143341486 0.3337826100289609
2280000000.0 0.15086816704304232 0.31792869696912046
2300000000.0 0.290206942580004 -0.22164367095308907
2320000000.0 -0.2547608122817542 -0.28965871318662256
2340000000.0 -0.2808193976225748 0.30440310682977345
2360000000.0 0.426514453486627 0.15371506731836038
2380000000.0 -0.31074011544331026 -0.39240431227699635
2400000000.0 0.25457688521737043 0.49201157358625874
2420000000.0 -0.5040168886422572 -0.34081383584753355
2440000000.0 0.6521717122983541 -0.09253220729677687
2460000000.0 -0.41087006639094853 0.5660939481620233
2480000000.0 0.06225953800051267 -0.7279524962647355
2500000000.0 -0.09904016926126606 0.7451807149423209
2520000000.0 0.23345039668079792 -0.7259980532872763
2540000000.0 -0.4713213589707314 0.6026007944704189
2560000000.0 0.7547716889456616 -0.08095702325761861
2580000000.0 -0.47327181522930967 -0.5748305881056187
2600000000.0 -0.19726460935460277 0.6927810008763111
2620000000.0 0.5758184376704312 -0.3801881031706538
2640000000.0 0.3307942123831062 -0.5621218202081033
2660000000.0 -0.5902176356908105 0.1432267281020218
2680000000.0 0.464618351333519 0.31168236751840384
2700000000.0 -0.09633868287136428 -0.5026908730500067
2720000000.0 -0.26827111757318994 0.3778729119869629
2740000000.0 0.3943902158037942 -0.14531296014581802
2760000000.0 -0.38126191274840543 -0.02261513072069367
2780000000.0 0.33735326099936386 -0.1018007109723107
2800000000.0 -0.21376866026660762 0.2483252554817937
2820000000.0 -0.12217218782252696 -0.2848889167968256
2840000000.0 0.2983009713409124 0.00710576445296223
2860000000.0 -0.1762775910984418 0.23621596643380746
2880000000.0 -0.07492583544888336 -0.2840745418997
2900000000.0 0.11505318112888192 0.27273103751888556
2920000000.0 0.15738141894507326 -0.2551486212348136
2940000000.0 -0.30420507160908544 -0.038287705230523
2960000000.0 -0.20420624885364327 0.23252015512188945
2980000000.0 -0.24707747176325573 0.1931667132010452
3000000000.0 -0.31583365343196335 -0.0015096909064526449
3020000000.0 -0.10454215717021591 -0.29795611874880273
3040000000.0 0.3098032123732291 -0.04294148767168384
3060000000.0 -0.26821240176143996 0.15577269497146726
3080000000.0 0.24927465527372836 -0.17504862165451285
3100000000.0 -0.19188205409921702 0.22969409410622396
3120000000.0 0.1664812579680102 -0.2401061073503664
3140000000.0 -0.016822499291319626 0.28192517506919257
3160000000.0 -0.16071726087515056 -0.21440231769596416
3180000000.0 -0.09221119566663992 0.23423711669942543
3200000000.0 -0.192985557405187 -0.12404755130363133
3220000000.0 0.05515982229444464 -0.19539391920365803
3240000000.0 0.16398708062537964 0.051822004372360155
3260000000.0 -0.13648160195154538 0.020944853413465355
3280000000.0 0.10085834915958201 -0.031323995804402115
3300000000.0 -0.07106133174041362 -0.02569515207555108
3320000000.0 0.00540587146408303 0.04676494166135996
3340000000.0 -0.022903461455483387 -0.0008179737122564173
3360000000.0 0.0005218721738885936 0.004643844921981327
3380000000.0 -0.009323652798424615 0.0021545651391909897
3400000000.0 0.018778221342315438 0.010024186137380245
3420000000.0 0.0011888941231664961 -0.03372820945660243
3440000000.0 -0.002956038846196207 -0.045178391074135654
3460000000.0 0.054412754594027786 -0.005699514218671664
3480000000.0 -0.013070783427460951 0.06655332930553129
3500000000.0 0.078264561049416 -0.026220794044600242
3520000000.0 -0.0978345753537032 -0.01146460592809351
3540000000.0 0.005438485074135473 -0.11298894730316694
3560000000.0 0.10777059708513621 0.06329251685012602
3580000000.0 -0.08478089184478924 -0.10648388419388383
3600000000.0 0.15237276251538426 0.009909917847526945
3620000000.0 0.05589444518208899 0.1556390847389467
3640000000.0 -0.17618601733974165 0.016305685048807257
3660000000.0 -0.15004286919614468 -0.11258697193321794
3680000000.0 -0.03335575519711287 -0.1907889760673569
3700000000.0 -0.011515716879975036 -0.19458600047633173
3720000000.0 0.10817732196397654 -0.1623094158297094
3740000000.0 0.1202816607292965 -0.1471574463522398
3760000000.0 -0.022801223219578455 0.18076321478135038
3780000000.0 0.02274729193904713 -0.16977965906691841
3800000000.0 -0.14337823785630438 -0.07069288972637676
3820000000.0 -0.11408147868875214 -0.09988760028191182
3840000000.0 0.10467097191971912 -0.10203643225938293
3860000000.0 -0.022484579846152288 0.14727057447382624
3880000000.0 0.06233147164602875 0.14376241891516303
3900000000.0 0.11791213500771192 -0.10969184380292579
3920000000.0 -0.16109769721367415 0.03982028253428008
3940000000.0 0.07698057717995346 -0.15213989607368752
3960000000.0 0.17150031613010203 0.024285683444296872
3980000000.0 0.12475693833774754 -0.12039088412965192
4000000000.0 0.10274780303115313 -0.13084085806627596
