! Created with skrf (http://scikit-rf.org).
# Hz S RI R 50.0 
!freq ReS11 ImS11
400000000.0 0.2273214843282806 0.84152546715057
420000000.0 0.6467220924631899 0.565433100480797
440000000.0 0.7685729547885876 -0.30015521763982805
460000000.0 -0.10495800549782755 -0.7804024104287148
480000000.0 0.48445150881357685 -0.49784219496784926
500000000.0 0.4104685875341547 0.3745840628157033
520000000.0 0.3860625790408604 0.30906667412942135
540000000.0 -0.34272546012964755 0.2746775085670185
560000000.0 0.21367366439395827 -0.315979477350313
580000000.0 -0.279603470404031 0.22955368615747684
600000000.0 0.12453163122018156 -0.3391953036200704
620000000.0 0.07182834897268894 0.3680833574508131
640000000.0 0.14972240993612312 -0.36820584100929327
660000000.0 -0.19962639567516077 -0.34915450913402585
680000000.0 0.39862256329952905 0.09918669573846614
700000000.0 0.26244169081933155 -0.3288257488869593
720000000.0 0.15873487503869077 -0.3927822789804529
740000000.0 0.09382219142851482 0.41384694918911424
760000000.0 0.11045269076349586 -0.3947642590165461
780000000.0 0.3309274711025876 0.18524190000409246
800000000.0 -0.33767161673138274 -0.07640077265336617
820000000.0 -0.23265723708887018 -0.17361407057662867
840000000.0 -0.20069451297458252 0.12317528345224076
860000000.0 0.1585136784584776 -0.12097023463538518
880000000.0 -0.13281237215239083 -0.04222692981824592
900000000.0 0.0804133132195999 0.006690735707156748
920000000.0 -0.013501515111338727 -0.05617606870551952
940000000.0 0.017916798491057415 -0.031732361316785314
960000000.0 -0.023563145848200517 0.03396606779680274
980000000.0 -0.012496382465174571 0.06051497378984743
1000000000.0 0.03136464977081003 0.0773769192370047
1020000000.0 -0.05685037740690713 -0.09440441557903491
1040000000.0 -0.12335400811582116 -0.03243513382146015
1060000000.0 0.046141768166036434 0.15520910427316517
1080000000.0 0.14403423979528704 0.09499784325650448
1100000000.0 -0.02112050161672758 -0.18498169282286964
1120000000.0 -0.0676637315705715 -0.18811600760002786
1140000000.0 -0.011827373095604273 -0.2273348594429454
1160000000.0 0.22120878478037395 0.14210903378945386
1180000000.0 -0.1590965248193259 0.2623348661344531
1200000000.0 -0.3352373718544265 0.07459685579616075
1220000000.0 0.18401131908097387 -0.3260601963853469
1240000000.0 -0.01572535485304566 0.4005720277640912
1260000000.0 0.12860332485794473 -0.40569976377206846
1280000000.0 -0.2457254377606079 0.3650666096399045
1300000000.0 0.4484446238441929 -0.015358838684253674
1320000000.0 -0.06799278195313214 -0.43936299578863125
1340000000.0 -0.0379807085178646 -0.4372347546739595
1360000000.0 0.09372971984078876 -0.4225728200463301
1380000000.0 -0.16485972139329763 -0.3998717121660217
1400000000.0 -0.413567486597325 0.0625560084503706
1420000000.0 0.08475740305686921 0.3911956407494005
1440000000.0 0.36210179905869505 0.09431491473513158
1460000000.0 0.15885971285619446 -0.3068662931399082
1480000000.0 -0.20000191922604574 -0.24377178014154532
1500000000.0 -0.2752710107072868 0.07178443748667865
1520000000.0 -0.21157437911830224 0.1452281240201679
1540000000.0 0.10330239456586451 -0.20391254089630742
1560000000.0 0.15531346472788804 0.11968724360960722
1580000000.0 -0.11055442636378869 0.12767532930809952
1600000000.0 0.09018278915800855 0.10695025726842335
1620000000.0 0.055520962441425625 0.09491272653713193
1640000000.0 -0.06979264742411562 0.05176006123671715
1660000000.0 -0.04570401707490938 0.045486208253774016
1680000000.0 0.025646646039931907 -0.035732152091004214
1700000000.0 0.023748540858076077 -0.015768077512837063
1720000000.0 0.009567626539065887 -0.0016065825130974515
1740000000.0 -0.007391486853898175 -0.011462361132926426
1760000000.0 0.033639721882383074 0.012538598644406018
1780000000.0 0.038035112074986735 -0.060233991453818816
1800000000.0 0.01980909703457132 0.10839030832017374
1820000000.0 0.05144130569164341 0.13553731353990736
1840000000.0 -0.08815536655715711 0.1581932347506519
1860000000.0 -0.179504748587691 -0.11284418663228594
1880000000.0 0.07768381612973181 0.22919508845561304
1900000000.0 0.23839474752300072 -0.13580676319539373
1920000000.0 -0.16635625207372276 -0.25551396505199897
1940000000.0 -0.33262545644548913 -0.05073910942296939
1960000000.0 -0.10008220298256114 0.35358620843548144
1980000000.0 0.3809066796800538 0.09488431001768768
2000000000.0 0.2590033371604759 -0.3261217928322925
2020000000.0 -0.4232916589821021 -0.08910208261169475
2040000000.0 -0.07068524437063488 0.4347667107596342
2060000000.0 0.43936221546288834 -0.03895525261573161
2080000000.0 0.04086984541046448 -0.43228968961828657
2100000000.0 -0.19806922977438662 -0.376084147866974
2120000000.0 -0.34342078380055585 -0.22978419068544756
2140000000.0 -0.3997768379699536 -0.021242829300134755
2160000000.0 -0.062451550028681586 -0.37964611783829016
2180000000.0 -0.1435934660313559 -0.33971783083036644
2200000000.0 -0.2214155503248415 -0.27992697967713925
2220000000.0 -0.29054491487036527 -0.19332279362702412
2240000000.0 -0.3190809106458664 0.13704304513462667
2260000000.0 -0.05334820063117326 0.34387775543215204
2280000000.0 0.18232354569050563 0.30145462866475264
2300000000.0 0.2732096597400471 -0.24312079204403003
2320000000.0 -0.27241532034505667 -0.2746103764082587
2340000000.0 -0.267715553506045 0.31793304361993996
2360000000.0 0.44245760513393745 0.10549862932843493
2380000000.0 -0.36783697279909666 -0.3416504701877124
2400000000.0 0.3381614247233274 0.4399476360203993
2420000000.0 -0.5493899760039174 -0.2631280520475687
2440000000.0 0.6220989349517286 -0.21692279845136722
2460000000.0 -0.28889809864485866 0.6369115918753433
2480000000.0 -0.08985862671400668 -0.7246585291403111
2500000000.0 0.06690837374506321 0.7479621056954252
2520000000.0 0.06505321556465926 -0.7589663411025874
2540000000.0 -0.36284050267192874 0.6722906751938728
2560000000.0 0.7272820669941018 -0.21329316752278876
2580000000.0 -0.5934075036529187 -0.44708861446086373
2600000000.0 -0.013193995904527144 0.7189896821107981
2620000000.0 0.5398908182605155 -0.4273691358638288
2640000000.0 0.255268751259316 -0.5984759642834592
2660000000.0 -0.5697741967589351 0.20561836438261982
2680000000.0 0.5013706550704614 0.24459141218086197
2700000000.0 -0.11747569275371492 -0.49626951481559745
2720000000.0 -0.2457360655058002 0.39047424000766356
2740000000.0 0.4047306055893702 -0.10585827542144696
2760000000.0 -0.37709660783834964 -0.04815135117859242
2780000000.0 0.3396631905934652 -0.08716216471132018
2800000000.0 -0.22893203225627667 0.23229943998549626
2820000000.0 -0.11099471321554524 -0.28824853613151696
2840000000.0 0.2971205790782108 0.0026187729959215636
2860000000.0 -0.16171550532559828 0.2452606010594113
2880000000.0 -0.09564112390719141 -0.2769076574291516
2900000000.0 0.1403197688867855 0.25954786230904425
2920000000.0 0.15959216018188513 -0.2536282618584124
2940000000.0 -0.30350388135090073 -0.04049079591399925
2960000000.0 -0.1974906776813996 0.2374114575753488
2980000000.0 -0.24247543830218998 0.19885527617854112
3000000000.0 -0.31441632634105876 0.028550869103687558
3020000000.0 -0.07786697375348955 -0.3057358675921507
3040000000.0 0.3069899879165343 0.060840978001077725
3060000000.0 -0.2863007846184831 0.11770461778928513
3080000000.0 0.26264677051036583 -0.1534993138298565
3100000000.0 -0.18996625259010896 0.23134115172424372
3120000000.0 0.12871388593227742 -0.2625743143886429
3140000000.0 -0.04227943289059907 0.27860738256428713
3160000000.0 -0.12425796986367287 -0.23707538578744328
3180000000.0 -0.13011756727679286 0.21495449134644962
3200000000.0 -0.19008998513936204 -0.12741081699875245
3220000000.0 0.07553970596581865 -0.1876862008662918
3240000000.0 0.1611844772540948 0.05846185960845633
3260000000.0 -0.13635499911229196 0.01845744882495117
3280000000.0 0.10381165412781189 -0.014660311225319939
3300000000.0 -0.07217270661115736 -0.020339786630684566
3320000000.0 -0.0194121529041354 0.04224661702759795
3340000000.0 -0.007030629296470369 -0.021570501113554765
3360000000.0 -0.0035435943716919057 0.0030151803445606566
3380000000.0 -0.005033936370011397 0.008425071055664441
3400000000.0 0.006500104203649817 -0.020315625420540363
3420000000.0 -0.006754896020586855 -0.03293343497515738
3440000000.0 -0.023986347244890984 -0.038906789944632654
3460000000.0 0.03647925064586537 -0.04076926778943221
3480000000.0 -0.016077380062836537 0.06588722560316024
3500000000.0 0.07617457332719466 -0.03131826587032973
3520000000.0 -0.09699296590608542 -0.015541350982627329
3540000000.0 0.013537232428122981 -0.11193266123710711
3560000000.0 0.10554013461063516 0.06631002601351886
3580000000.0 -0.09703592181774864 -0.09587869317373753
3600000000.0 0.15313147968866245 -0.0033198003633610083
3620000000.0 0.07205804471787002 0.14933617819091702
3640000000.0 -0.1760635157654123 0.02135458957235479
3660000000.0 -0.15125873550194216 -0.11108993889326263
3680000000.0 -0.022198946057383387 -0.19243912593012763
3700000000.0 -0.0009835192577993734 -0.195142326410168
3720000000.0 0.12975997108963863 -0.14545764197376573
3740000000.0 0.133451719613078 -0.1356319434798609
3760000000.0 -0.04528737973056422 0.1771403940672766
3780000000.0 0.040246738815661404 -0.16682570147031528
3800000000.0 -0.13257141728581323 -0.08970024539255103
3820000000.0 -0.10704783502945689 -0.10773873688407017
3840000000.0 0.12954399188627058 -0.06930707969944871
3860000000.0 -0.04245020586876553 0.14259354417317457
3880000000.0 0.046048713967356415 0.1500534109773033
3900000000.0 0.12992949572116325 -0.09547263817325691
3920000000.0 -0.16348725905102096 0.029756993846966673
3940000000.0 0.07591499869551113 -0.15251861759632865
3960000000.0 0.17319125256677112 0.005614413793497379
3980000000.0 0.08120506659722178 -0.1526666457678166
4000000000.0 0.05243293579721472 -0.15740108846749676
