! Created with skrf (http://scikit-rf.org).
# Hz S RI R 50.0 
!freq ReS11 ImS11
400000000.0 0.2426857347207262 0.8381924581174177
420000000.0 0.6649664425583215 0.5435514222858983
440000000.0 0.7808860913748673 -0.26731695373886927
460000000.0 -0.060459831901914306 -0.7853603410856517
480000000.0 0.48854781204918674 -0.4940217915212884
500000000.0 0.43898144870049816 0.3387907600357087
520000000.0 0.29568500823555555 0.39591837986641143
540000000.0 -0.3072847009902283 0.31667659355490146
560000000.0 0.2087043828462833 -0.3172288875164132
580000000.0 -0.26101214569050113 0.2513051745016277
600000000.0 0.2459081513151445 -0.2662988535340403
620000000.0 0.17117119774377684 0.3339625908417777
640000000.0 0.14104206209859516 -0.3716117898047165
660000000.0 -0.14557376451992118 -0.3751174605939343
680000000.0 0.4102360388304799 0.02181251754109567
700000000.0 0.2728613739897338 -0.3216251033347704
720000000.0 0.18956962041138214 -0.37773161798837884
740000000.0 0.12997266491953702 0.4035602338146507
760000000.0 0.08283496351695396 -0.40190895401954096
780000000.0 0.32878390807997043 0.18783979498516942
800000000.0 -0.3341763621829515 -0.09196782915158974
820000000.0 -0.22418063636311994 -0.1841744823000207
840000000.0 -0.20104550737834623 0.12358553054998007
860000000.0 0.1551685947770954 -0.12512155381349263
880000000.0 -0.13903144045188986 -0.018944523969352985
900000000.0 0.08048437965219424 0.008964052162377683
920000000.0 -0.03875346722262491 -0.04334739674504812
940000000.0 0.03293333947405215 0.016235454114228182
960000000.0 -0.04042206713064417 0.009320776652147767
980000000.0 0.027160841350090458 0.056118732946164436
1000000000.0 0.03690018076066178 0.07472549129463006
1020000000.0 -0.06344943741786437 -0.0906838379052878
1040000000.0 -0.1275182156212801 0.010703002138368362
1060000000.0 0.07940165484682711 0.14034580133518748
1080000000.0 0.14065930041429955 0.09926531984350305
1100000000.0 -0.03549910133354994 -0.18289884827967437
1120000000.0 -0.06314149275361663 -0.1891279746716388
1140000000.0 0.06616207456569813 -0.21771176784088977
1160000000.0 0.20301657454181352 0.1672968704044132
1180000000.0 -0.1766587139196938 0.25092248165646497
1200000000.0 -0.33974301700132326 0.052495449034551174
1220000000.0 0.19426753209489023 -0.3202664619148443
1240000000.0 -0.00635854307826209 0.400957753064816
1260000000.0 0.11975066659359669 -0.4082839130677285
1280000000.0 -0.2527522374123753 0.3599379548731603
1300000000.0 0.4482490935497356 -0.017526808935840944
1320000000.0 -0.05474783791118178 -0.4410391644229753
1340000000.0 -0.034882593763323415 -0.43734878601352833
1360000000.0 0.10425334311089308 -0.419798789343597
1380000000.0 -0.15100741224775455 -0.40548406467507014
1400000000.0 -0.4116318480334815 0.07476277931809056
1420000000.0 0.0770467393669907 0.3923721182044728
1440000000.0 0.3620720964942924 0.0948405660722763
1460000000.0 0.15487447986325137 -0.3089493066483931
1480000000.0 -0.20711271768163825 -0.23729118657203377
1500000000.0 -0.27266038146923716 0.08066978015629167
1520000000.0 -0.21652947505459486 0.13843687725570628
1540000000.0 0.10209242031464305 -0.204725324865084
1560000000.0 0.1599448308817421 0.11338938985975999
1580000000.0 -0.13488121084675456 0.10211182083053863
1600000000.0 0.09290952077505497 0.10496481358711333
1620000000.0 0.05286690016142999 0.09669488021611486
1640000000.0 -0.07903654816228907 0.03590904163140575
1660000000.0 -0.055296197245903816 0.03331095985957835
1680000000.0 0.014188972735036633 -0.04214685476385112
1700000000.0 -0.0010944247230310488 -0.028742666280076098
1720000000.0 -0.0020014076864104608 -0.009294904351810535
1740000000.0 0.006267498711414043 -0.012308466018382074
1760000000.0 0.032905483027089955 0.014998223143884057
1780000000.0 0.057844188462779667 -0.04220818654840632
1800000000.0 0.016909755026981787 0.10895458278930788
1820000000.0 0.051208790454687014 0.13543926301350642
1840000000.0 -0.08115608709439741 0.16179574255247292
1860000000.0 -0.18555698175997348 -0.10185793010078188
1880000000.0 0.08012999870356623 0.2274476868535364
1900000000.0 0.23911081959515038 -0.13393087610918097
1920000000.0 -0.1551372401524714 -0.2618955591601155
1940000000.0 -0.33193504786636224 -0.05469485966603838
1960000000.0 -0.11020482589403698 0.3504471203188772
1980000000.0 0.3827856167030374 0.08679186446060004
2000000000.0 0.22810931809337176 -0.348072878910219
2020000000.0 -0.42624101001856746 -0.0748276886898423
2040000000.0 -0.06464901633843377 0.43557701916001607
2060000000.0 0.4411928736632463 -0.01006379055628668
2080000000.0 0.12052861730578547 -0.41769418974957134
2100000000.0 -0.17032589553936722 -0.38954908882298583
2120000000.0 -0.3202929698057584 -0.26094371398154936
2140000000.0 -0.3940336760091482 -0.07012028258996672
2160000000.0 -0.031081927745940447 -0.38327445150743134
2180000000.0 -0.13362210126435786 -0.3433887305562943
2200000000.0 -0.2075141819546573 -0.289909618506365
2220000000.0 -0.28155157346760895 -0.20514515400947678
2240000000.0 -0.3221031156819934 0.12792432668860124
2260000000.0 -0.0782657119075691 0.33856217787858345
2280000000.0 0.17697866397472992 0.3045560315963335
2300000000.0 0.27910021767695425 -0.2357330985174434
2320000000.0 -0.2588355731668114 -0.28676470202878496
2340000000.0 -0.28667156901659047 0.2996143194237652
2360000000.0 0.436871481632899 0.12319150207727142
2380000000.0 -0.3520357110003659 -0.3568042801499565
2400000000.0 0.2855673439138276 0.47509778762442734
2420000000.0 -0.5169981367654182 -0.32134507957623853
2440000000.0 0.6423964982754814 -0.14527954165926527
2460000000.0 -0.37219124207487075 0.5921026368378857
2480000000.0 0.022641932015002697 -0.7301498726251292
2500000000.0 0.03071462017726647 0.7503803856898014
2520000000.0 0.11967776658762663 -0.7525581463759833
2540000000.0 -0.47802652319886224 0.596633835374382
2560000000.0 0.7475171818462821 -0.12971192605978038
2580000000.0 -0.506361421309863 -0.5449350527930251
2600000000.0 -0.08554143472903357 0.7147244990746963
2620000000.0 0.556806440653789 -0.4063110745447921
2640000000.0 0.32066509454069736 -0.5672090494806098
2660000000.0 -0.5842631668933805 0.1637325888049336
2680000000.0 0.4817564533364845 0.28349201122911444
2700000000.0 -0.0913934015296726 -0.5028204981820246
2720000000.0 -0.26446492712188585 0.3793033784232434
2740000000.0 0.4059169596277686 -0.10525990003400926
2760000000.0 -0.37790330004024136 -0.04876885368360461
2780000000.0 0.3434810658556784 -0.07389509610536497
2800000000.0 -0.22090610568524038 0.2409270314228171
2820000000.0 -0.09904479845351322 -0.29299158047411217
2840000000.0 0.2976785431185039 -0.0031026952416599004
2860000000.0 -0.16070858970299393 0.24660939591371608
2880000000.0 -0.09108177162476365 -0.2790260290454298
2900000000.0 0.13481748172635064 0.26334866338533836
2920000000.0 0.1493032164052292 -0.26023280860411024
2940000000.0 -0.3007917218241893 -0.06068123476104404
2960000000.0 -0.20695824912868363 0.22996135189946854
2980000000.0 -0.2422844129187351 0.20035025114269361
3000000000.0 -0.31566163829038063 0.018869541523126167
3020000000.0 -0.07119228737495982 -0.3080912668126714
3040000000.0 0.3130650968532345 -0.007607398690097125
3060000000.0 -0.29366776387984217 0.09903755024157306
3080000000.0 0.2673009657288759 -0.1465633421034653
3100000000.0 -0.1941481276393391 0.22815304659421196
3120000000.0 0.17953641221583355 -0.2301809087192313
3140000000.0 -0.06103642662096408 0.2757125851997783
3160000000.0 -0.11291244485579688 -0.24289855224458315
3180000000.0 -0.12725555550689077 0.2164942301935101
3200000000.0 -0.17374364434126718 -0.14902960638425464
3220000000.0 0.07107727158183953 -0.1895374355630506
3240000000.0 0.16028359834211775 0.060686082722715064
3260000000.0 -0.13702705659584102 0.011286378418694488
3280000000.0 0.08925847377339977 -0.054788575333138356
3300000000.0 -0.06425856931950996 -0.038325265465458946
3320000000.0 -0.00877069086012016 0.0456313296414874
3340000000.0 -0.022464833257329554 -0.0011414257713685087
3360000000.0 -0.0041675126699902915 0.0014520969929141291
3380000000.0 -0.009312354497340497 -0.003312666730507807
3400000000.0 -0.0012061370986957756 0.021353889236607627
3420000000.0 0.005307653379258696 -0.033511043411897444
3440000000.0 0.009346248449333615 -0.04444848165142063
3460000000.0 0.054197613068618054 0.007386816152830489
3480000000.0 -0.036747509083723186 0.05691326918098404
3500000000.0 0.08045986818715078 -0.01985068544018819
3520000000.0 -0.09365331930610729 0.03248870015500159
3540000000.0 0.025120290403974 -0.11036012963548533
3560000000.0 0.10004503251187075 0.07447217216088813
3580000000.0 -0.09502053200855103 -0.09821696591426475
3600000000.0 0.1527668119585139 0.008818860262652458
3620000000.0 0.040606321791802014 0.16017737629344264
3640000000.0 -0.17701249404785901 -0.0023079843902700714
3660000000.0 -0.14307528109202466 -0.12126560748986921
3680000000.0 -0.008470066475208492 -0.19323893558366115
3700000000.0 0.014818063844812289 -0.19393115012661924
3720000000.0 0.1303682230719698 -0.14468316385334157
3740000000.0 0.13031255238421902 -0.1382871353174395
3760000000.0 -0.03437377719592057 0.17902205341725688
3780000000.0 0.03134952756502042 -0.16836507454194274
3800000000.0 -0.13977140859053538 -0.0769656950982824
3820000000.0 -0.11191370394244768 -0.10225622290297098
3840000000.0 0.11953510224179939 -0.08483321505804188
3860000000.0 -0.048883996557548874 0.14054450889369277
3880000000.0 0.04718010536648728 0.14949323091523614
3900000000.0 0.13175543524262165 -0.09248846887005553
3920000000.0 -0.16465525032983286 0.021026306207724593
3940000000.0 0.0919303918278674 -0.14355689946060096
3960000000.0 0.1704868933440913 0.03009785682997679
3980000000.0 0.129311892069567 -0.11482153357900494
4000000000.0 0.11317773386817967 -0.12094862498471215
