! Created with skrf (http://scikit-rf.org).
# Hz S RI R 50.0 
!freq ReS11 ImS11
400000000.0 0.2730685957336577 0.8286215646266462
420000000.0 0.6204251910705343 0.5949121041171553
440000000.0 0.7684325387037595 -0.30104906028191497
460000000.0 -0.1499352184617234 -0.7719452730928889
480000000.0 0.5726978624558872 -0.3940422980179229
500000000.0 0.4975217841332487 0.24690406005572937
520000000.0 0.34529091008048396 0.35278576500961323
540000000.0 -0.35496197801060153 0.26025460304822146
560000000.0 0.18167186863720822 -0.33546172243656286
580000000.0 -0.286921744283547 0.2193243574839946
600000000.0 0.1811567731524735 -0.3144056836708733
620000000.0 0.16401744938037785 0.33799234485327617
640000000.0 0.17562538626315066 -0.3562953987117922
660000000.0 -0.20987785426809266 -0.3443026081026857
680000000.0 0.4002811803550597 0.09246178194754145
700000000.0 0.25487508416279825 -0.33558426847354833
720000000.0 0.19601277709623074 -0.3762540472865539
740000000.0 0.11307912974925628 0.40803391780307324
760000000.0 0.11377372361292058 -0.3944132507394997
780000000.0 0.3327201335368745 0.18079078795411213
800000000.0 -0.33783857992084965 -0.07181596743311408
820000000.0 -0.20034561470459236 -0.21073322288542784
840000000.0 -0.19556816891555898 0.1321176366294966
860000000.0 0.14958445809563062 -0.1317400077052007
880000000.0 -0.13814292216682822 -0.026188863869069077
900000000.0 0.07760807358955725 -0.025122131662928142
920000000.0 -0.017425100204151275 -0.055684619938101504
940000000.0 0.03458201216511845 0.01328942530431504
960000000.0 -0.04154400304720803 -0.005054896459475269
980000000.0 0.025127783421106793 0.05660773153349407
1000000000.0 0.05145370885074133 0.06665140050062116
1020000000.0 -0.0875922359895375 -0.06751935324535038
1040000000.0 -0.12754826364393793 0.009996576489962754
1060000000.0 0.1064228517886013 0.12134955270737224
1080000000.0 0.1522954269158332 0.07958090677190367
1100000000.0 -0.04381287371572477 -0.18047919206466567
1120000000.0 -0.04166080221957285 -0.19471453174777825
1140000000.0 0.03905116260109255 -0.2240539031367539
1160000000.0 0.18437299035517965 0.1877045332026744
1180000000.0 -0.19319605494249 0.23866677339251932
1200000000.0 -0.3407116780465261 0.04820819929368272
1220000000.0 0.21413408449059432 -0.3076832322786884
1240000000.0 -0.008905575770805486 0.40111246245245386
1260000000.0 0.13089884294010498 -0.4050812516066953
1280000000.0 -0.2494788335132065 0.362081081366153
1300000000.0 0.4482634746851374 0.010857653739337388
1320000000.0 -0.04058515529307421 -0.4423771346708834
1340000000.0 -0.03426465403081788 -0.43702147675035974
1360000000.0 0.10172488086551637 -0.42043005565824354
1380000000.0 -0.13948923350966752 -0.40936608133399527
1400000000.0 -0.413917848395861 0.06284932522887274
1420000000.0 0.061417590830773854 0.39528173606265987
1440000000.0 0.36060066565330556 0.10095686100376286
1460000000.0 0.16062893415614277 -0.3059924977447753
1480000000.0 -0.20965720141110922 -0.23556035029904923
1500000000.0 -0.275184249343125 0.07221924410827203
1520000000.0 -0.22562700053936804 0.12401863144892394
1540000000.0 0.11995907627749898 -0.1949902680288492
1560000000.0 0.14625152388149906 0.1307674686264039
1580000000.0 -0.13314512175118481 0.10423405091491153
1600000000.0 0.09702174903476851 0.10110571658716686
1620000000.0 0.04772852084110904 0.09913664556237223
1640000000.0 -0.08637116822302784 0.010484201030229491
1660000000.0 -0.04785260451096501 0.043605106103837415
1680000000.0 -0.006072199242174551 -0.044097046194533106
1700000000.0 -0.015854663593785692 -0.024020792654466366
1720000000.0 0.005647459839334478 -0.008156970967997501
1740000000.0 -0.003182130482286257 0.013672948491835795
1760000000.0 0.010963373019262264 0.034577945795810014
1780000000.0 0.04690888975748371 -0.05400358040449096
1800000000.0 0.03115618445406555 0.10598212370326972
1820000000.0 0.06751088438215944 0.1282616229465056
1840000000.0 -0.06196127463453692 0.17017342724675968
1860000000.0 -0.18975657455927633 -0.09355231514549688
1880000000.0 0.08573271790334573 0.22542758032138263
1900000000.0 0.24107599530251395 -0.1297843144211067
1920000000.0 -0.14128448912369435 -0.2695056733973304
1940000000.0 -0.32704766109523215 -0.07845832722420978
1960000000.0 -0.12212843553361849 0.34665681443372304
1980000000.0 0.37939411702086007 0.1011382310799355
2000000000.0 0.23428703406217152 -0.34397065290462353
2020000000.0 -0.42719211789375633 -0.06738327814197047
2040000000.0 -0.07810840008842437 0.43337019973587904
2060000000.0 0.43908243909542516 -0.041511451613435175
2080000000.0 0.0979773103723781 -0.42318550240423725
2100000000.0 -0.18082089871514023 -0.38457379067139036
2120000000.0 -0.2968594746772943 -0.2877482384524529
2140000000.0 -0.3990561834357785 -0.029294959563586527
2160000000.0 -0.0447714387224513 -0.38217684233864113
2180000000.0 -0.1132264376593246 -0.35080714980978556
2200000000.0 -0.2021138273993685 -0.293733598541311
2220000000.0 -0.2666622792579666 -0.22486331063659015
2240000000.0 -0.32475483323369164 0.12117542163107688
2260000000.0 -0.11277420653525665 0.3286074728962926
2280000000.0 0.14452064262696943 0.3208144144980125
2300000000.0 0.2962055480872522 -0.21356445981714445
2320000000.0 -0.2531046100979837 -0.29155813662119123
2340000000.0 -0.28978111720299876 0.29644332638820725
2360000000.0 0.4277385163438685 0.15148200995326014
2380000000.0 -0.3137210188589425 -0.3905623429722719
2400000000.0 0.2754591219212977 0.4808967645461743
2420000000.0 -0.5123834155089557 -0.3285211149019507
2440000000.0 0.6478593196031415 -0.11966709402827891
2460000000.0 -0.3776477335348321 0.5888464205414767
2480000000.0 0.017025528357280256 -0.7304256638777329
2500000000.0 -0.05719755766194297 0.7495693974532395
2520000000.0 0.18181762967136003 -0.740550027852633
2540000000.0 -0.42980777815685073 0.6329174131470713
2560000000.0 0.7514603726974134 -0.1079558154015157
2580000000.0 -0.5234515369353937 -0.5292488538943975
2600000000.0 -0.14449855617321136 0.7061327710621222
2620000000.0 0.5431977841205032 -0.42587040695565564
2640000000.0 0.3276049206048024 -0.5640325669418235
2660000000.0 -0.5908546988366803 0.140021914918739
2680000000.0 0.45525999683759705 0.3247293303791656
2700000000.0 -0.07486768130645476 -0.5059068144652636
2720000000.0 -0.2775005415924526 0.37020184656790556
2740000000.0 0.4001029634426984 -0.12646238817116928
2760000000.0 -0.37800675979328374 -0.04903621434214543
2780000000.0 0.33744152823532086 -0.09785123357097157
2800000000.0 -0.21271250008495216 0.24821833733709023
2820000000.0 -0.12659074174078694 -0.28228378574248303
2840000000.0 0.2971954268416506 -0.01675174795811862
2860000000.0 -0.16032199554812102 0.2469017691108767
2880000000.0 -0.09550246628178917 -0.27794304153336
2900000000.0 0.14609424484682282 0.25751128343032953
2920000000.0 0.126766122861807 -0.2717279345813567
2940000000.0 -0.30640555135228087 -0.017830032627251063
2960000000.0 -0.2001336722305118 0.23667940339551838
2980000000.0 -0.24594519091158393 0.19614641283680473
3000000000.0 -0.31531746201389926 0.025797331324386857
3020000000.0 -0.04466103835119117 -0.3133654834198338
3040000000.0 0.31299697671618815 0.01789928626095926
3060000000.0 -0.2980215594272997 0.085164260885848
3080000000.0 0.27278031196128244 -0.13543670964728394
3100000000.0 -0.20994736477041334 0.2135744108970525
3120000000.0 0.14462108725330794 -0.2541344874665969
3140000000.0 -0.054493175712178286 0.27650672393329556
3160000000.0 -0.1263284210465062 -0.23596178990223765
3180000000.0 -0.11877542547031322 0.22129394567873106
3200000000.0 -0.18787428247708052 -0.13045493000372918
3220000000.0 0.0612633521127817 -0.19296274334687777
3240000000.0 0.16475076922181914 0.0475056927248097
3260000000.0 -0.13107026829867474 0.04127273315600649
3280000000.0 0.09545161528673357 -0.04351108332859917
3300000000.0 -0.07487037292485607 0.005536079631425494
3320000000.0 0.00492313786313532 0.04628519633605723
3340000000.0 -0.022765898718287794 -0.00028094473030452734
3360000000.0 0.0032205457604669793 0.0032979199353986065
3380000000.0 -0.009237466541462297 0.0030389658073933785
3400000000.0 0.020920387223764117 0.003367531903072299
3420000000.0 0.011546898186178439 -0.03142457642590546
3440000000.0 -0.006889064961073502 -0.04486725759085653
3460000000.0 0.04835069793326156 -0.025468041027908516
3480000000.0 -0.019925275668452456 0.06493235826437409
3500000000.0 0.07948042060360838 -0.02229378656878994
3520000000.0 -0.095940462227159 -0.021814176121785694
3540000000.0 0.021003246923872388 -0.11078103961596301
3560000000.0 0.10718830433123354 0.06352714816477577
3580000000.0 -0.10666348518011948 -0.0855044178432652
3600000000.0 0.15219178739243683 -0.018788732240560563
3620000000.0 0.07520482349656821 0.14764804317519112
3640000000.0 -0.17677069778918125 0.013775086773503323
3660000000.0 -0.15227877518624117 -0.1100567060002989
3680000000.0 -0.02096714273062116 -0.19243447104349304
3700000000.0 0.007752828170730782 -0.19500914351574133
3720000000.0 0.12996265637333773 -0.1454354126552092
3740000000.0 0.13037773401256053 -0.13858606283893882
3760000000.0 -0.05498427532295616 0.1740463053631464
3780000000.0 0.03926506602466396 -0.16686343655606112
3800000000.0 -0.12886571226926571 -0.09444881430615015
3820000000.0 -0.09635135149023936 -0.11696107702135806
3840000000.0 0.13182149220306832 -0.06465025472975507
3860000000.0 -0.06867343553940373 0.13230702328324215
3880000000.0 0.030463547385236767 0.15371750466186843
3900000000.0 0.14353222013417744 -0.07222202172772271
3920000000.0 -0.16590249845758756 -0.000929965260053208
3940000000.0 0.10522675687342344 -0.1333877205467138
3960000000.0 0.16474505429597688 0.051983228218797105
3980000000.0 0.1287136519255888 -0.1145725089368433
4000000000.0 0.10251232087930136 -0.1298858353237753
