! Created with skrf (http://scikit-rf.org).
# Hz S RI R 50.0 
!freq ReS11 ImS11
400000000.0 0.2576652801504987 0.8319596034353164
420000000.0 0.6347377874451644 0.5782791853649993
440000000.0 0.7612702507829432 -0.3184492561096088
460000000.0 -0.08441078396830953 -0.7822937585864774
480000000.0 0.5136732673944053 -0.46767413641545597
500000000.0 0.38913210061840237 0.39570167293168473
520000000.0 0.36382625033904625 0.3343987421118398
540000000.0 -0.3007763333541966 0.321660816756753
560000000.0 0.24445924924792228 -0.29106078139715114
580000000.0 -0.2537089459764711 0.2584512663166495
600000000.0 0.19539211803168272 -0.30593374291907505
620000000.0 0.1559393715200893 0.34032741650654486
640000000.0 0.15268264352355188 -0.36701953374996654
660000000.0 -0.14570521097091974 -0.3756451910941473
680000000.0 0.4094938203106779 0.030096081746036497
700000000.0 0.2629342725361986 -0.32990223319734646
720000000.0 0.20177843522700692 -0.37162400054609057
740000000.0 0.11843520408168999 0.4076102013705456
760000000.0 0.10213172158427672 -0.39719407152632435
780000000.0 0.33203323536099355 0.1825465614404583
800000000.0 -0.33530564483903524 -0.08650447981306165
820000000.0 -0.24226666209596223 -0.15934374756863157
840000000.0 -0.17906046065891737 0.153243200371809
860000000.0 0.1532565412175301 -0.12796697528141512
880000000.0 -0.13865427250362333 -0.019723063716834723
900000000.0 0.0800994663244842 0.013256020554199603
920000000.0 -0.026801839983432618 -0.05087205953607402
940000000.0 0.035010932375879926 0.010044266683498027
960000000.0 -0.02703595100654947 0.03180968720704406
980000000.0 0.03017628752485611 0.05431481530180044
1000000000.0 0.03132772104891987 0.07736419710504776
1020000000.0 -0.04097426522714386 -0.1027212992558372
1040000000.0 -0.12812635473729297 -0.0009505520178427794
1060000000.0 0.07988916954456485 0.14019244316743087
1080000000.0 0.1345860484949827 0.10731770941679394
1100000000.0 -0.026937183499184024 -0.18459770465305878
1120000000.0 -0.07478653908522283 -0.18479061881862488
1140000000.0 0.018087092387064817 -0.22698598435288858
1160000000.0 0.21133650694568443 0.15663998345787591
1180000000.0 -0.17763419486306867 0.250112738622187
1200000000.0 -0.3369808011342234 0.06741058643228737
1220000000.0 0.1929200532969346 -0.32092305582687913
1240000000.0 -0.010487100214209474 0.40060280857932146
1260000000.0 0.1267733784846227 -0.4060158176179124
1280000000.0 -0.24300507379673225 0.3666149079443752
1300000000.0 0.4485125216206315 -0.00435594710887837
1320000000.0 -0.06509473468534617 -0.43970522813907686
1340000000.0 -0.03606305599400428 -0.43730138784943534
1360000000.0 0.08922060150221026 -0.42357646793151454
1380000000.0 -0.15653063619339216 -0.403491668845241
1400000000.0 -0.41447001528048694 0.058387573107065244
1420000000.0 0.08856971147004568 0.38999204728632164
1440000000.0 0.3603362640755504 0.10204036346495023
1460000000.0 0.16299199872611378 -0.3049410209551974
1480000000.0 -0.22076103323468474 -0.22476189744426026
1500000000.0 -0.27590184697181713 0.07016037549383332
1520000000.0 -0.21284315134322546 0.14348456523983122
1540000000.0 0.11017372896557955 -0.20016170858245116
1560000000.0 0.15389969078919036 0.12134181315818571
1580000000.0 -0.10312744974678174 0.13382004294285438
1600000000.0 0.09630598678679422 0.10144234525807143
1620000000.0 0.06331932007172604 0.08996598607732449
1640000000.0 -0.06630876100960138 0.0561549015619556
1660000000.0 -0.04174656466240371 0.04971879239175823
1680000000.0 0.018274964191203526 -0.04027660670888199
1700000000.0 -0.018139513529966098 -0.02301502478311627
1720000000.0 0.002202082475684392 0.009239163446887797
1740000000.0 0.012862762188464329 0.004029888796539079
1760000000.0 0.03266931257946845 0.014993675579339467
1780000000.0 0.04549131110505918 -0.05485702629542052
1800000000.0 0.02524186438480479 0.10712113097030074
1820000000.0 0.06431207512325118 0.13022720665602766
1840000000.0 -0.07659006807218341 0.1641739126315843
1860000000.0 -0.1862624828610158 -0.10162243297527453
1880000000.0 0.07390763108695159 0.23013536420426314
1900000000.0 0.24458632287997167 -0.12451975690250418
1920000000.0 -0.1509675180286705 -0.26445780730073853
1940000000.0 -0.3292442872922994 -0.06880749361079004
1960000000.0 -0.12284188769372384 0.3462783709002628
1980000000.0 0.3760047028352037 0.11309644412701926
2000000000.0 0.25125824169316335 -0.3316623149966986
2020000000.0 -0.42804847010113384 -0.061857882196889494
2040000000.0 -0.05855519209355333 0.4361512278147688
2060000000.0 0.44036881319496624 -0.025656232832106083
2080000000.0 0.07888979491109097 -0.42701516319632327
2100000000.0 -0.1849570641151484 -0.3824613546312458
2120000000.0 -0.35185415224518574 -0.21634700420390457
2140000000.0 -0.3999238416957536 -0.008827101438297258
2160000000.0 -0.08835439973436052 -0.3741216752416526
2180000000.0 -0.14097328511129795 -0.34063112054759265
2200000000.0 -0.20153298563047253 -0.29435943168003637
2220000000.0 -0.2955606242678316 -0.1852519861187775
2240000000.0 -0.32556260833331097 0.12013646948792758
2260000000.0 -0.09068447626067089 0.3355883499362867
2280000000.0 0.17195388338550824 0.3071959783815819
2300000000.0 0.28470170445214077 -0.22925681458968866
2320000000.0 -0.2558617296144377 -0.2894494053514888
2340000000.0 -0.2942684664114444 0.29225817067489834
2360000000.0 0.4362766717857508 0.12679443340603042
2380000000.0 -0.34857385132716223 -0.360428627530125
2400000000.0 0.3068749004418085 0.4617835576274211
2420000000.0 -0.526182106136357 -0.30609570596125973
2440000000.0 0.6391362421126754 -0.15855617681120326
2460000000.0 -0.3518036573473945 0.6042771402697102
2480000000.0 0.0026553038164683932 -0.7305241447384068
2500000000.0 0.06288611624641678 0.7481088530112715
2520000000.0 0.12005108851920174 -0.7524624453497453
2540000000.0 -0.42888345037318837 0.6325824025558743
2560000000.0 0.7396017300170505 -0.16780899367167135
2580000000.0 -0.5212134059382371 -0.5302903663394497
2600000000.0 -0.06433124492645453 0.7165093414501751
2620000000.0 0.5782316097641448 -0.37490091052693175
2640000000.0 0.2133789734155785 -0.6152058307901351
2660000000.0 -0.5800878923667582 0.17527159209760906
2680000000.0 0.46596786897850956 0.30704748148695404
2700000000.0 -0.0989653481124251 -0.5006824559829042
2720000000.0 -0.2612925222604341 0.3807669153605914
2740000000.0 0.39560449128238195 -0.1374171665860057
2760000000.0 -0.3796376493071523 -0.027555138603383763
2780000000.0 0.3397904275431942 -0.08810699731464244
2800000000.0 -0.21447504827552483 0.2465861909636074
2820000000.0 -0.12007698410871043 -0.28510553523575005
2840000000.0 0.2975558928786654 -0.006817724618583802
2860000000.0 -0.1847534914323695 0.2295461147839824
2880000000.0 -0.06710879918411057 -0.2859500789606661
2900000000.0 0.13523738304497884 0.26291992025150057
2920000000.0 0.1630557677466228 -0.2511772109756284
2940000000.0 -0.2976018287616031 -0.07236789713553986
2960000000.0 -0.20655171483422713 0.23017780973325225
2980000000.0 -0.24209342626811484 0.1999515342416944
3000000000.0 -0.3152835530976834 -0.004122848471451599
3020000000.0 -0.09181589535165186 -0.3021302590475459
3040000000.0 0.31204891814391694 0.020493302443978522
3060000000.0 -0.2850911487090911 0.11960581302864097
3080000000.0 0.25278615883332217 -0.16885548727927016
3100000000.0 -0.22305416204238826 0.1991595126948882
3120000000.0 0.12140333777117254 -0.2655447979408785
3140000000.0 -0.007703846813022057 0.28184085667341735
3160000000.0 -0.13663609231570717 -0.23029989426349365
3180000000.0 -0.10862563221322578 0.2270373316226859
3200000000.0 -0.1941614353498432 -0.12127834425442803
3220000000.0 0.06337027661146405 -0.192173835102758
3240000000.0 0.16109796598231907 0.06000786235897551
3260000000.0 -0.1349054391763469 0.028567446498991126
3280000000.0 0.0863456539475695 -0.05975058542020281
3300000000.0 -0.06350484867969923 -0.0401910155892789
3320000000.0 -0.02988754439050029 0.03605105846014804
3340000000.0 -0.02255231046362272 0.0045894776311330866
3360000000.0 0.002008594103940005 0.004109091847013014
3380000000.0 0.007568053137501433 -0.006531948310620711
3400000000.0 0.018866025159067712 0.009440058943611458
3420000000.0 0.0007953483041848282 -0.03343648976600422
3440000000.0 -0.01676529836374929 -0.04249482112398544
3460000000.0 0.047288922263098124 -0.027839500253164094
3480000000.0 -0.005949852920526514 0.06742426158854983
3500000000.0 0.0784463315298481 -0.025926116156893938
3520000000.0 -0.09807089461851703 -0.01017589781508493
3540000000.0 0.014023494906927449 -0.11187821896969141
3560000000.0 0.10543438909872395 0.06684478616891884
3580000000.0 -0.1081060055466045 -0.083940406719864
3600000000.0 0.15259849585136878 -0.013965887389672717
3620000000.0 0.06195941134659419 0.1534784279519885
3640000000.0 -0.17697742612058553 0.008114506017518421
3660000000.0 -0.1470264531387508 -0.1169363840294221
3680000000.0 -0.019996781737707678 -0.19258285922493823
3700000000.0 0.014884085828326824 -0.19438960411415393
3720000000.0 0.13222319300544802 -0.14264971513510408
3740000000.0 0.13136590320373912 -0.13740565710553482
3760000000.0 -0.04275273898590773 0.17699147654812133
3780000000.0 0.04832427770653301 -0.16456747771589011
3800000000.0 -0.13334322896618517 -0.08803366516283131
3820000000.0 -0.1091152889531581 -0.10513954302014175
3840000000.0 0.1226679182435956 -0.08032776667604309
3860000000.0 -0.05952606515222077 0.13673027481127467
3880000000.0 0.036283930950054506 0.1525491410533886
3900000000.0 0.14382292370521274 -0.07254784974350614
3920000000.0 -0.16427581565312285 0.02420870059832122
3940000000.0 0.10506590631308431 -0.13471527249236256
3960000000.0 0.16511254836153527 0.05310885231678178
3980000000.0 0.11197102152172295 -0.13149905009631147
4000000000.0 0.07236612766939148 -0.1491374813806778
