! Created with skrf (http://scikit-rf.org).
# Hz S RI R 50.0 
!freq ReS11 ImS11
400000000.0 0.2288186600036837 0.8416568534242337
420000000.0 0.6494055709181905 0.5622288452490275
440000000.0 0.7578036382079116 -0.32612968645729856
460000000.0 -0.024975876113111865 -0.7864028012666594
480000000.0 0.5276976635663095 -0.4520346358725583
500000000.0 0.5061996004440038 0.23258066328113025
520000000.0 0.335052661937584 0.35958592476443296
540000000.0 -0.36079873107801996 0.25443734354471986
560000000.0 0.22604843741660777 -0.3072392764468563
580000000.0 -0.17222118493170555 0.3190377673491716
600000000.0 0.23572936924518179 -0.2732694847097886
620000000.0 0.10375286034748345 0.360792905002783
640000000.0 0.16932545388907877 -0.36161663842026764
660000000.0 -0.20065402771496854 -0.34955222479062603
680000000.0 0.40792459427618655 0.04809161391660374
700000000.0 0.25712004030474594 -0.3340915251429316
720000000.0 0.16361544596036834 -0.38940771268020313
740000000.0 0.13265122287015332 0.40198146112815836
760000000.0 0.07556759846613247 -0.4024226188835326
780000000.0 0.3280073324109391 0.1885354831047081
800000000.0 -0.32799944092384364 -0.11120635022264388
820000000.0 -0.2172143201898389 -0.19226528745625154
840000000.0 -0.21316199319868004 0.10211753639391677
860000000.0 0.16766499148113007 -0.10935048292213777
880000000.0 -0.1400897243277768 -0.009359235946647346
900000000.0 0.07822861533387276 0.02119134257890094
920000000.0 -0.040154022799215816 -0.04278467395586271
940000000.0 0.03477144969747307 0.012943228457505397
960000000.0 -0.034528009328676904 0.02467871321943036
980000000.0 0.01625201669809171 0.06072956408947145
1000000000.0 0.060862993722592275 0.05818872745069022
1020000000.0 -0.08022158875159673 -0.07710657724903854
1040000000.0 -0.11642993090343064 0.05336138468265732
1060000000.0 0.12031640282364645 0.1062253825796482
1080000000.0 0.13922761953219537 0.10015060934110649
1100000000.0 -0.03302914449555424 -0.18250432422489746
1120000000.0 -0.024264769042608488 -0.19699772074111752
1140000000.0 0.06835537276759641 -0.2167839597091721
1160000000.0 0.16659625191253274 0.20336558418988665
1180000000.0 -0.2207645845103331 0.21337811004146803
1200000000.0 -0.3440221794928412 0.009514654400447008
1220000000.0 0.25599551534150533 -0.2745524770260009
1240000000.0 -0.03291627068778722 0.40068084421559447
1260000000.0 0.147479764491366 -0.3997828205993585
1280000000.0 -0.26744999394122076 0.34982596118722786
1300000000.0 0.448400071490978 0.015270701444763335
1320000000.0 -0.009237185102808668 -0.44402933160985575
1340000000.0 0.005042496509923515 -0.43844649948283193
1360000000.0 0.1279340677658543 -0.41261751170502137
1380000000.0 -0.10531522437421718 -0.41875467446931913
1400000000.0 -0.4173521549388695 0.014298602726865034
1420000000.0 0.02093936661520769 0.3986748846977491
1440000000.0 0.3402043523176456 0.15468710347057615
1460000000.0 0.19418840709121243 -0.2848929846307743
1480000000.0 -0.16252307438364427 -0.2692175869655644
1500000000.0 -0.2808763881805318 0.04245541370330861
1520000000.0 -0.2283721540404495 0.11716287911683357
1540000000.0 0.1083197867038201 -0.2008505770425863
1560000000.0 0.15312545398293964 0.1218697759055316
1580000000.0 -0.13470690678456104 0.10175779735538819
1600000000.0 0.10005123549101481 0.09751083554086848
1620000000.0 0.04668946251120793 0.09990099841265714
1640000000.0 -0.07405292373722881 0.046101462211552494
1660000000.0 -0.04444452797599229 0.04767694900454886
1680000000.0 -0.016557055706154653 -0.04180819806186492
1700000000.0 -0.02421503091170066 -0.016996486449044303
1720000000.0 -0.008200814078201387 -0.005964960629828583
1740000000.0 0.009667505029705056 0.010433190358311393
1760000000.0 0.006488396813734688 0.03575439409689104
1780000000.0 0.04195834018278556 -0.05820706110971548
1800000000.0 0.03404606185287155 0.10543082194241118
1820000000.0 0.0885551069792306 0.11536374216203424
1840000000.0 -0.04678357632976285 0.17491590010817504
1860000000.0 -0.19599009320403654 -0.0795845151301993
1880000000.0 0.08681074064224599 0.22486707357202765
1900000000.0 0.23716845716004192 -0.13645513349191668
1920000000.0 -0.1236286549845633 -0.27770033860422755
1940000000.0 -0.3230530586132802 -0.09395998211627801
1960000000.0 -0.13248198718272863 0.34285332718358125
1980000000.0 0.3800095131631663 0.09898476149576824
2000000000.0 0.23324373544633345 -0.3444986331062024
2020000000.0 -0.43137880801026623 -0.030043084024085252
2040000000.0 -0.07848192144425843 0.43297533626255347
2060000000.0 0.43929231738286134 -0.03709435485894095
2080000000.0 0.08901586592141376 -0.4252239673637299
2100000000.0 -0.16340517498542723 -0.39229598516581865
2120000000.0 -0.32236360444893625 -0.25853940375858997
2140000000.0 -0.3991803917653971 -0.02342048671093613
2160000000.0 -0.0671396045755983 -0.37873056635136354
2180000000.0 -0.1579028857944586 -0.3329371522407303
2200000000.0 -0.2066417151491922 -0.29001921278971715
2220000000.0 -0.2931075251583232 -0.18793601963918183
2240000000.0 -0.32338217985186724 0.12519282414947103
2260000000.0 -0.09980539625422366 0.3327917392088316
2280000000.0 0.17052720889926873 0.30800408769785503
2300000000.0 0.2869545744978624 -0.2263637535596879
2320000000.0 -0.27580884751104473 -0.27032110908759704
2340000000.0 -0.2878767540231803 0.2977308554372227
2360000000.0 0.42725887437650373 0.15225536326087535
2380000000.0 -0.33594591951011726 -0.3718970434121863
2400000000.0 0.26468138618398895 0.4869586681837439
2420000000.0 -0.4872783716204487 -0.36519627072996963
2440000000.0 0.6517556712768402 -0.09562645227561563
2460000000.0 -0.3859763402124414 0.5831900960966881
2480000000.0 0.022499953861756954 -0.7301262898971216
2500000000.0 0.04194066091169711 0.7498608720291081
2520000000.0 0.14911843661774782 -0.7474307708948775
2540000000.0 -0.47970597461626524 0.5957262107519372
2560000000.0 0.7455038983092127 -0.14133320469405022
2580000000.0 -0.4869844991512726 -0.5627863681453499
2600000000.0 -0.0863907569335991 0.7150457834190155
2620000000.0 0.5503604876686691 -0.4161338355723636
2640000000.0 0.2968340276665465 -0.5807709660793078
2660000000.0 -0.5904191635568468 0.14192388115571514
2680000000.0 0.47889142786267197 0.28944612923940194
2700000000.0 -0.08984610851179238 -0.503756783599013
2720000000.0 -0.275122862363203 0.37251648762401046
2740000000.0 0.404733827501149 -0.11204650530853077
2760000000.0 -0.37888564130570884 -0.04628186155408645
2780000000.0 0.34097597655793377 -0.0870552137369201
2800000000.0 -0.22227358544780215 0.24029353698070063
2820000000.0 -0.11013326857406255 -0.28934798893590796
2840000000.0 0.29772774165048516 0.004986873752378035
2860000000.0 -0.14831161736661694 0.2538543601639473
2880000000.0 -0.07663348624295448 -0.28331478414359085
2900000000.0 0.1361601331019078 0.26251648242661
2920000000.0 0.11672425790191458 -0.27590470578739634
2940000000.0 -0.30621062954394257 -0.01917369118904843
2960000000.0 -0.20743812585586635 0.22953518192430689
2980000000.0 -0.24268198509205424 0.19970338864751364
3000000000.0 -0.31569462112683533 0.016025667965005416
3020000000.0 -0.11189977317128871 -0.2956300490156652
3040000000.0 0.3125549890529189 -0.015124572793426298
3060000000.0 -0.28727162423424607 0.11711436159387743
3080000000.0 0.2559730119395309 -0.16550242088380407
3100000000.0 -0.18531346144019456 0.2353791090106099
3120000000.0 0.1820074066119186 -0.2287946092984972
3140000000.0 -0.04352344178712512 0.27918877418471716
3160000000.0 -0.13004113466115988 -0.23435434521029377
3180000000.0 -0.1317812394331135 0.21397049345450994
3200000000.0 -0.17316135201408742 -0.15043957849672898
3220000000.0 0.07105700940277938 -0.18967733334095782
3240000000.0 0.15705042484689657 0.06926275198003022
3260000000.0 -0.13765031076670742 0.0018508762631736723
3280000000.0 0.09343275011834161 -0.04768624246292955
3300000000.0 -0.06121505083166378 -0.04372778813848026
3320000000.0 -0.008579631680468585 0.04561387509788775
3340000000.0 -0.0224105237787214 0.0023646012056081525
3360000000.0 -0.004254038523137924 -0.0016766578467073924
3380000000.0 -0.00940318955005849 -0.0032897808267496596
3400000000.0 0.0009044176757113372 0.021426805901834385
3420000000.0 0.006026402408212966 -0.03323626490870327
3440000000.0 0.008669286053536967 -0.04455723736297563
3460000000.0 0.04589680582335472 0.02975015341774255
3480000000.0 -0.041811355767335606 0.05285454066645074
3500000000.0 0.0806040339958324 -0.017043666269630872
3520000000.0 -0.09371873411790538 -0.03025212710024592
3540000000.0 0.007698446614544566 -0.11306660460660181
3560000000.0 0.10717728703248967 0.06414602039977498
3580000000.0 -0.09484033962830592 -0.09832287157345486
3600000000.0 0.15144793582459615 0.018630529925789792
3620000000.0 0.04676469718306609 0.15835583153690908
3640000000.0 -0.17693686237837902 0.00032329770225634076
3660000000.0 -0.15559219576759972 -0.10510927138136697
3680000000.0 -0.03250792662369493 -0.19082497510322188
3700000000.0 0.01092380097776194 -0.19449041569039985
3720000000.0 0.11109134627380447 -0.16046393747749668
3740000000.0 0.11079290248004724 -0.15432995224579804
3760000000.0 -0.04048812498999502 0.17816792617727956
3780000000.0 0.007511137395326467 -0.17108987540634674
3800000000.0 -0.13930112634586034 -0.07831527627416192
3820000000.0 -0.11996358120905462 -0.09320272793676677
3840000000.0 0.11564454028945186 -0.09054392069547768
3860000000.0 -0.042841139901001614 0.14268934868772679
3880000000.0 0.05912517215924051 0.1454525349122246
3900000000.0 0.1280419799572591 -0.09819760103271641
3920000000.0 -0.16178052019258235 0.037196734683287665
3940000000.0 0.08133538405930972 -0.1494629424933795
3960000000.0 0.17315755628979196 -0.0007693209176300759
3980000000.0 0.09840958101568972 -0.14195513345114572
4000000000.0 0.09040698882413153 -0.1395763969962083
