!Created with skrf (http://scikit-rf.org).
# Hz S RI R 50.0 
!freq ReS11 ImS11
400000000.0 -0.7208545131062978 0.48891814835476705
420000000.0 0.11871792483314965 0.8617076024525203
440000000.0 0.8322205294031855 -0.13555397529203575
460000000.0 0.11723886777387245 -0.7942868289926333
480000000.0 0.7289357771130673 -0.08409157576167432
500000000.0 -0.5078490368372 0.3245824861543215
520000000.0 0.5018294364778133 0.06132828745498715
540000000.0 -0.24721758060117885 0.3381558960994926
560000000.0 0.31792944300172754 0.16717595061080023
580000000.0 -0.30763981662037804 0.12299009748766743
600000000.0 0.02657075530529871 0.3273154493306451
620000000.0 0.14241094863654016 -0.31078125488990327
640000000.0 -0.13731341983615272 -0.3444394239892871
660000000.0 -0.3647405755526634 -0.10520332879114504
680000000.0 0.30043660747510914 0.26190682679402805
700000000.0 0.4062032751604266 -0.020219321603846627
720000000.0 0.4121476447076333 -0.013431021449815908
740000000.0 -0.41531371748949003 -0.02047765669626616
760000000.0 0.2943060764636104 0.2779523267201028
780000000.0 -0.3758921565129387 -0.02284180753117654
800000000.0 0.3246938831858934 0.13468148995663107
820000000.0 -0.05389473092230853 0.299612403906891
840000000.0 0.02309303767433344 -0.2604528004726519
860000000.0 0.16121355657267225 -0.1442447767042203
880000000.0 -0.06452620596581769 0.15557021247573657
900000000.0 -0.08167184899848726 -0.06794921603709451
920000000.0 0.0598927993358472 -0.032761624451437814
940000000.0 0.0424029999595856 0.015706233645094953
960000000.0 0.034911945341669776 0.042409479379546366
980000000.0 -0.02976649364218979 0.06387524920519999
1000000000.0 -0.05319462000482745 -0.06216386599351771
1020000000.0 -0.09548565088232609 0.007717790874185946
1040000000.0 0.042600026628510944 0.09857175387292512
1060000000.0 0.0829893562321841 -0.11818886165992605
1080000000.0 0.15570190527849373 -0.04407516780367992
1100000000.0 0.042030262039498854 -0.18229458860334366
1120000000.0 0.0013149740854564457 0.2097268948969401
1140000000.0 0.24280400326446913 0.024557856921922253
1160000000.0 0.09450875872488496 -0.25882964608915005
1180000000.0 0.2935024226589599 -0.11142842658479
1200000000.0 0.33641561138526066 0.05389368972452153
1220000000.0 -0.36597640949721794 0.04824372443798393
1240000000.0 0.3580895512339996 0.15528301868653324
1260000000.0 -0.1552450940562347 -0.3844062689686984
1280000000.0 -0.4036306548556331 0.1430544763639581
1300000000.0 0.3535746906179892 0.2607355214207562
1320000000.0 0.4412238592521609 0.015255857149476105
1340000000.0 0.42919197712921114 -0.09996280062679379
1360000000.0 0.4392175293025393 0.06060070209232297
1380000000.0 0.2736128868680234 -0.3465619403485927
1400000000.0 -0.433878711344676 -0.006963154898300857
1420000000.0 0.32786344228370695 0.25462620237135675
1440000000.0 -0.04122662650288506 -0.3809866103975012
1460000000.0 -0.3461185970013677 -0.005867337333341051
1480000000.0 -0.04084457188812176 0.30685681966172684
1500000000.0 -0.03589723140400497 0.2714263249944652
1520000000.0 -0.13269428351283813 0.20471883718391493
1540000000.0 0.2121757836225602 0.04712063522020063
1560000000.0 -0.18764728026758834 0.005448715228210375
1580000000.0 0.16480928325573913 -0.023150288249964072
1600000000.0 0.07209084213193011 -0.11973259509577641
1620000000.0 -0.02103107614123384 -0.11311799201834813
1640000000.0 0.05622021420999479 -0.0729589123965494
1660000000.0 0.058980123994619035 -0.03680922147998625
1680000000.0 -0.0380101381812922 0.03210826456524175
1700000000.0 -0.03213275779325694 -0.013053312311286543
1720000000.0 0.013930401507630984 -0.005812222719865717
1740000000.0 -0.002445760983822335 0.006809728126602924
1760000000.0 0.02792791786057327 0.006582375680699822
1780000000.0 -0.0169364522571867 -0.05920241406919399
1800000000.0 -0.09064497844066777 0.038481918364216744
1820000000.0 0.08871939960540816 -0.10214421404938083
1840000000.0 0.1752118683491583 -0.0014774123160955668
1860000000.0 -0.11442651212631068 0.17972746301088657
1880000000.0 -0.028024723274876883 -0.25049458803588776
1900000000.0 0.18703787212771078 0.22667363082109124
1920000000.0 -0.3179538644275718 -0.06215171852824172
1940000000.0 0.2379495364743597 0.25909952015539184
1960000000.0 0.18442485240294212 -0.32594724220952564
1980000000.0 -0.3450084547042103 -0.18031815474861582
2000000000.0 -0.39351758246714624 -0.09340422189439251
2020000000.0 -0.34315951793916505 0.23773867309577976
2040000000.0 -0.229939760239553 0.360607141396789
2060000000.0 0.2689602218492673 0.33954263363754406
2080000000.0 0.4233375982638497 -0.09260669774583298
2100000000.0 0.20863521461608328 -0.3731098293880944
2120000000.0 -0.10754076780271389 -0.4044877841510137
2140000000.0 -0.3252581305734264 -0.24603051824062228
2160000000.0 -0.04413582524924875 -0.3921537975654362
2180000000.0 -0.32126195833137416 -0.20464023946495802
2200000000.0 -0.3283064058257446 0.1654804513407746
2220000000.0 -0.12145542316048208 0.33360388700299975
2240000000.0 0.06669782569387833 0.3431148263604324
2260000000.0 0.20371769967428957 0.28373291659009503
2280000000.0 0.3489100360566983 0.05926969942320286
2300000000.0 0.13717421107399075 -0.3410232858049903
2320000000.0 -0.33154721968872 -0.20360635340129665
2340000000.0 -0.20890278297145246 0.3643987527841095
2360000000.0 0.4539849096159244 -0.08169067908789353
2380000000.0 -0.5040825450659787 -0.07053303581445075
2400000000.0 0.557112611540455 0.04184341337063614
2420000000.0 -0.5249965446494772 0.30950322380704137
2440000000.0 0.214883748008304 -0.6195115961219909
2460000000.0 0.30150246703273137 0.624840183580156
2480000000.0 -0.5689777541135903 -0.44647657441605215
2500000000.0 0.6505022968034673 0.3552093578090938
2520000000.0 -0.5595357104817924 -0.5017349050245915
2540000000.0 0.21285056262603344 0.721953353426432
2560000000.0 0.300975138668563 -0.6830227846521653
2580000000.0 -0.7277256077357621 0.07455866013724133
2600000000.0 0.5311687186910818 0.4679200259677811
2620000000.0 0.06351530823719273 -0.6762255118082501
2640000000.0 -0.17066469492903624 -0.621330627804181
2660000000.0 -0.31700342666233894 0.5104098914955659
2680000000.0 0.5308657106028426 -0.16398711573398475
2700000000.0 -0.46661058365542385 -0.20172863061016857
2720000000.0 0.28339543074806717 0.36174869919558145
2740000000.0 0.1007726963800911 -0.40040172235961596
2760000000.0 -0.2826484843236657 0.24146675634657344
2780000000.0 0.33938769422098014 0.03040839162071951
2800000000.0 -0.2821398483939749 -0.14154789648689783
2820000000.0 0.28410177514505164 0.10148912460592964
2840000000.0 -0.2916553932327995 -0.04105849543298333
2860000000.0 0.14068682863728416 -0.25978153586147484
2880000000.0 0.26800136874258734 0.1312005976175768
2900000000.0 -0.19388620095832443 0.23139877276291038
2920000000.0 0.10978819735743714 -0.2838350199420037
2940000000.0 -0.1863563839690548 0.24262824644877737
2960000000.0 0.22996098450029964 0.201487085130761
2980000000.0 0.2380512927451734 0.19024432259293175
3000000000.0 -0.015243081843919768 0.3023503649643432
3020000000.0 -0.2996921776605568 -0.03518740463418369
3040000000.0 0.2615553732634262 -0.14329535043857944
3060000000.0 -0.29205870419450014 0.05894684525900609
3080000000.0 0.2961297357234042 -0.011537568233552401
3100000000.0 -0.2901496989967218 -0.047534776307959964
3120000000.0 0.2829694065585429 -0.07271724485376559
3140000000.0 -0.03275681563323683 0.2853269301834275
3160000000.0 -0.2712371833003061 -0.04261211181294425
3180000000.0 0.24921423867196696 0.07281390288314847
3200000000.0 0.06762556989034058 0.22469144065941096
3220000000.0 -0.11050084537022381 0.17428931368786857
3240000000.0 -0.152237157091435 -0.08190064564656986
3260000000.0 0.1296121031732211 -0.04389651744177866
3280000000.0 -0.01271473733045753 -0.10195159894660479
3300000000.0 -0.0037330096440838616 -0.07228481939065673
3320000000.0 -0.04716962533578519 0.01086810154098467
3340000000.0 0.02862829782966601 -0.00790577863358913
3360000000.0 0.006447479247348318 0.014402314542690118
3380000000.0 0.0011691150599577463 -0.003918291671527321
3400000000.0 0.002410576089331995 0.012204039992916318
3420000000.0 0.010120834312269043 -0.024722201251838632
3440000000.0 -0.03984373847656065 0.007682521484821581
3460000000.0 -0.03744531807266102 0.03804419431760549
3480000000.0 0.03662019032003733 0.05540829204938133
3500000000.0 -0.06386692131736411 -0.04983578247666288
3520000000.0 0.0635522667415818 0.06893545512492968
3540000000.0 -0.09232499283957576 -0.05458717962116897
3560000000.0 0.08061958239437315 0.08780615114364529
3580000000.0 -0.0732007000795219 -0.11087848049872127
3600000000.0 0.1490664915966306 0.003146440239182289
3620000000.0 0.025580521381999982 0.1585997642689327
3640000000.0 -0.13640549586045828 0.10612518491435784
3660000000.0 -0.17939763759171934 -0.041472958848916955
3680000000.0 -0.08444969642122456 -0.1708365084345576
3700000000.0 -0.049652029199466104 -0.18607472117200977
3720000000.0 0.1320668178307281 -0.13909799091570688
3740000000.0 0.185167163282629 -0.03135261219971678
3760000000.0 -0.1800354839661342 0.028415458232534746
3780000000.0 0.14767773892910563 -0.09193062582543354
3800000000.0 -0.16146256909511295 -0.038217363253432245
3820000000.0 -0.04826858888214127 0.14830145047589605
3840000000.0 -0.09139683148009548 0.1140682984282455
3860000000.0 0.14062351979190213 -0.03347893237391173
3880000000.0 0.06534113727454478 0.13569162843003282
3900000000.0 0.09094403913183599 0.130253303287006
3920000000.0 -0.026508882126555052 -0.16511332429743317
3940000000.0 0.17408450504378806 -0.018566989863807434
3960000000.0 0.18122830203348717 -0.006500543449367394
3980000000.0 -0.12477282023068298 -0.131309064722055
4000000000.0 -0.1644048545017177 -0.05054226490554052
