!Created with skrf (http://scikit-rf.org).
# Hz S RI R 50.0 
!freq ReS11 ImS11
400000000.0 -0.706212165688745 0.5107213169323047
420000000.0 0.13840126957983684 0.8588732636643913
440000000.0 0.8365569194667993 -0.10802325522062753
460000000.0 0.16040049415729649 -0.7875640219261874
480000000.0 0.718486597289755 -0.15066044820266278
500000000.0 -0.523199153554407 0.29551257205896736
520000000.0 0.475853535219021 0.17205012915726425
540000000.0 -0.159809200112125 0.3896372937592177
560000000.0 0.35531312931871606 0.03739017320391061
580000000.0 -0.3266621455830805 -0.054376372659969856
600000000.0 0.007490605002420454 0.3301905648038989
620000000.0 -0.021834720299628255 -0.341621364973718
640000000.0 -0.10330295680002265 -0.35600608639469666
660000000.0 -0.3572072590509774 -0.12988721110365722
680000000.0 0.2938511247369843 0.26928012852635946
700000000.0 0.4059778758163104 -0.025765450393737812
720000000.0 0.41075289804289583 -0.040797097200831925
740000000.0 -0.41236340566700613 -0.04601660945448597
760000000.0 0.29817748852670733 0.2738910323287552
780000000.0 -0.37555499460373837 -0.027030460602915852
800000000.0 0.31978771649804205 0.14518303756314785
820000000.0 -0.05274538916489633 0.2999197362251753
840000000.0 0.023603334072599888 -0.25966919629561924
860000000.0 0.16243030732099548 -0.14326486300338712
880000000.0 -0.054909321480780725 0.15949231351072407
900000000.0 -0.09385302292675193 -0.050478907399876566
920000000.0 0.06546672141110002 -0.019908870465218515
940000000.0 0.015612855177357334 0.04253699809831575
960000000.0 0.023973449937321707 0.049198532067395814
980000000.0 -0.010000516150978826 0.06982742321896329
1000000000.0 -0.05388456376909059 -0.061572891184965825
1020000000.0 -0.09582959072410362 -0.00685282513476097
1040000000.0 0.04770542433406519 0.09607399718479559
1060000000.0 0.09547037781191242 -0.10868390932978648
1080000000.0 0.15536353024325728 -0.04640428214686973
1100000000.0 0.016464158331518243 -0.18662881595055814
1120000000.0 0.0034179548025541203 0.20986321948059658
1140000000.0 0.2433782074689069 0.022688620328636586
1160000000.0 0.09899535929854363 -0.2574647306709388
1180000000.0 0.28935764784672996 -0.12175883501420214
1200000000.0 0.337598901380131 0.047346704481412566
1220000000.0 -0.36701592819928913 0.04152112701275248
1240000000.0 0.35607304057520217 0.16008240596670378
1260000000.0 -0.13842178989520296 -0.39089534979162793
1280000000.0 -0.4065756951010793 0.1343601423856678
1300000000.0 0.35296520984680885 0.2613825086774829
1320000000.0 0.44076650400103123 0.022029281915933334
1340000000.0 0.4326100906920172 -0.0832180315797845
1360000000.0 0.43687998620673335 0.07416465195279422
1380000000.0 0.2761871434119562 -0.3442358153549694
1400000000.0 -0.433784195963421 0.0043012671227422505
1420000000.0 0.31781793351814824 0.2669636543172232
1440000000.0 -0.04499886979470961 -0.38060999344812513
1460000000.0 -0.3463038027374342 -0.006981292775744784
1480000000.0 -0.005037430004259485 0.3094657896425035
1500000000.0 -0.010285139371869954 0.2734563468821204
1520000000.0 -0.12318943046310048 0.2107093705045833
1540000000.0 0.21630423194543563 0.023234048872484037
1560000000.0 -0.187759731891089 0.00668185537966852
1580000000.0 0.16671835692819967 -0.00518314846195518
1600000000.0 0.07935305433954443 -0.11549664212326811
1620000000.0 0.016903555866410964 -0.11402130055288669
1640000000.0 0.07887964487597188 -0.047431608264167216
1660000000.0 0.0687702672768451 -0.010163868480725596
1680000000.0 -0.04809334442032856 0.012617485701252477
1700000000.0 -0.020349797630224754 -0.02774689086770526
1720000000.0 0.004805408802951239 -0.01386204531552936
1740000000.0 -0.006921146579377203 -0.002919726657115854
1760000000.0 0.007019084848654737 0.02807997582270495
1780000000.0 -0.011280740948716892 -0.060869779962098296
1800000000.0 -0.09861832816490125 -0.0002024268970962939
1820000000.0 0.10652258352453621 -0.08344059909543047
1840000000.0 0.17087760486852566 0.03783888706072117
1860000000.0 -0.13398710961909177 0.16531512585123484
1880000000.0 -0.02158064956373902 -0.2509069451656135
1900000000.0 0.180916442655978 0.23108601793815248
1920000000.0 -0.31954245393663727 -0.05230668438729186
1940000000.0 0.24788819213887806 0.2493730318271969
1960000000.0 0.16148535109658627 -0.33801882693574076
1980000000.0 -0.3615111576236375 -0.14436326535219865
2000000000.0 -0.4005461847001867 -0.05644182244104715
2020000000.0 -0.322057197922019 0.26603310110699424
2040000000.0 -0.217272547496016 0.36906025329183534
2060000000.0 0.28895942236969124 0.3238669329041538
2080000000.0 0.42229041608879675 -0.09928850084086645
2100000000.0 0.23207100081174678 -0.3603349824973607
2120000000.0 -0.12761196969497748 -0.3992280431664747
2140000000.0 -0.2890402229012246 -0.28867677487079474
2160000000.0 0.011961456843131811 -0.3949178814155087
2180000000.0 -0.2776985786553558 -0.2616784460215208
2200000000.0 -0.34690046855682466 0.12340618733698767
2220000000.0 -0.14223176446740057 0.32531380241072816
2240000000.0 0.03021454213214157 0.3483051506663512
2260000000.0 0.18839055074655753 0.29406702214140634
2280000000.0 0.344902175537801 0.07855452058092838
2300000000.0 0.14223975525556673 -0.3386666849806603
2320000000.0 -0.34450717103903084 -0.18080905369705685
2340000000.0 -0.18729345550290125 0.37580366965325895
2360000000.0 0.4506817006803093 -0.0963798878339737
2380000000.0 -0.5075553902665123 -0.03627789169403835
2400000000.0 0.5587482767097427 0.0011774587309582177
2420000000.0 -0.491160521420118 0.36112443628684393
2440000000.0 0.15518290047872052 -0.6372696770686264
2460000000.0 0.30268001559963437 0.6251310981697368
2480000000.0 -0.6109970119936082 -0.387091228917179
2500000000.0 0.6159649967089246 0.41383933895371633
2520000000.0 -0.5603269649121373 -0.5012635708721143
2540000000.0 0.24177469360579265 0.7130624232719499
2560000000.0 0.28558894034299315 -0.6898424540918697
2580000000.0 -0.7268872703210307 0.08300854240508355
2600000000.0 0.4785690961341489 0.5214705769624277
2620000000.0 0.12314046023629659 -0.6676624507044304
2640000000.0 -0.14849202779024856 -0.6266272813984387
2660000000.0 -0.3089872961181515 0.5147627280859864
2680000000.0 0.5338153019797919 -0.15220398458950576
2700000000.0 -0.46310231793865425 -0.2083808068948204
2720000000.0 0.27313836935768954 0.36888669328458373
2740000000.0 0.08671050356517689 -0.4032555718188956
2760000000.0 -0.2877634613693871 0.23446188273177448
2780000000.0 0.3396383880909965 0.018052687263925365
2800000000.0 -0.28553013607458705 -0.13424314551813374
2820000000.0 0.28744897893714944 0.08987743984834794
2840000000.0 -0.2927285515150245 -0.029116785694243804
2860000000.0 0.1283144078103821 -0.2657314293599232
2880000000.0 0.2740218131909374 0.11806069312642008
2900000000.0 -0.1699435350328919 0.24935317894067938
2920000000.0 0.09928288182559422 -0.28821460326608683
2940000000.0 -0.16077485264268135 0.2609805555450858
2960000000.0 0.23163678464062257 0.20044880782252786
2980000000.0 0.22115115688583004 0.20972470876241117
3000000000.0 -0.022855110364352386 0.30223388296797543
3020000000.0 -0.28859567737155306 -0.08974391604137547
3040000000.0 0.2833823026314828 -0.09505700246822539
3060000000.0 -0.2978600669621431 -0.01222298442347416
3080000000.0 0.29499369026921735 0.03269842817578857
3100000000.0 -0.28696683269458745 -0.06617877776142726
3120000000.0 0.29130237814396315 -0.02440753487669088
3140000000.0 -0.08798964948087844 0.2733863747797383
3160000000.0 -0.25083811515704685 -0.11132401295543985
3180000000.0 0.21599116391769574 0.14301313217587502
3200000000.0 0.008591122031672711 0.23403434409666513
3220000000.0 -0.14539030384490814 0.14537389941934234
3240000000.0 -0.13748917811057407 -0.10311063206884735
3260000000.0 0.13194378497917836 -0.03192685554416406
3280000000.0 -0.02757005568681285 -0.09762478316288598
3300000000.0 -0.02558135355102156 -0.06624861514146273
3320000000.0 -0.03166681265049682 0.03484181822467471
3340000000.0 0.023120772010364048 -0.01630839379735566
3360000000.0 0.014363360943475222 0.0015200119924035746
3380000000.0 -0.0006701643770434747 0.00316946396459924
3400000000.0 0.0008618998140024149 -0.013365854050360953
3420000000.0 0.02644044094418479 0.008241477742114992
3440000000.0 -0.02962914128761048 -0.02911456372504741
3460000000.0 -0.05384152623200475 -0.00833876561557104
3480000000.0 -0.013152226542582695 0.0661778137967099
3500000000.0 -0.014036761449321979 -0.08052006989007048
3520000000.0 -0.0022715351703751865 0.09433835193898792
3540000000.0 -0.02945355001877907 -0.10345596434644909
3560000000.0 0.02609069169260665 0.11678698009549449
3580000000.0 0.005459203657971119 -0.13268069887747705
3600000000.0 0.13270670352337094 0.06882044722176364
3620000000.0 -0.016271435873696522 0.1602725634310303
3640000000.0 -0.16261023584365372 0.05821724366519065
3660000000.0 -0.15941347855185523 -0.09188309310597109
3680000000.0 -0.03018086922881853 -0.18789608180611717
3700000000.0 0.002909072363532911 -0.19220856984476853
3720000000.0 0.15487534990868654 -0.11237322196073131
3740000000.0 0.18556992570392206 0.025834246349241096
3760000000.0 -0.18160092511674183 -0.002718823163668248
3780000000.0 0.15971742044420809 -0.0661788118790181
3800000000.0 -0.14584945081263037 -0.07725766818544115
3820000000.0 -0.07558195014414085 0.13538270667975996
3840000000.0 -0.11354823338734421 0.09084874260771955
3860000000.0 0.14211882271449133 -0.019860338022090314
3880000000.0 0.0484440009404939 0.1414971795980596
3900000000.0 0.08016433854102514 0.1357491399057018
3920000000.0 -0.01812685842473676 -0.16495432597085286
3940000000.0 0.17398450074223804 0.005543842054784528
3960000000.0 0.18025172590857153 -0.0013014471660025093
3980000000.0 -0.11283994684252391 -0.14056116658030784
4000000000.0 -0.1690356612552968 -0.026319330094628536
