!Created with skrf (http://scikit-rf.org).
# Hz S RI R 50.0 
!freq ReS11 ImS11
400000000.0 -0.7364813329424555 0.4650493296382365
420000000.0 0.13914136093065219 0.8582008803326712
440000000.0 0.8349780876419269 -0.116576032561313
460000000.0 0.13070773515420891 -0.7913075313524818
480000000.0 0.7274830686515763 -0.0959070700056869
500000000.0 -0.5152148144238375 0.31308173771906067
520000000.0 0.4901996691212588 0.12281151256002662
540000000.0 -0.21051810164424076 0.36369176922209195
560000000.0 0.3353393021093679 0.12576897856854824
580000000.0 -0.3283345826091517 0.048712070578340365
600000000.0 0.041708325424164035 0.32589478362396873
620000000.0 0.06677796316888539 -0.3350541467490903
640000000.0 -0.08946727871565421 -0.3603145726081938
660000000.0 -0.3640299186571311 -0.1075814308433964
680000000.0 0.2916327369115716 0.2708344874889105
700000000.0 0.4059036902030483 0.0019427700107317672
720000000.0 0.4091891915681013 -0.0524952908816121
740000000.0 -0.4148502112576428 -0.02223929030739295
760000000.0 0.2961218695639497 0.27632727292807774
780000000.0 -0.3742036024682734 -0.04433248756356898
800000000.0 0.3195635177216953 0.14459279498259212
820000000.0 -0.06307462037811018 0.2981084512822024
840000000.0 0.026821591419747104 -0.25977066336390237
860000000.0 0.17995746950413363 -0.12058032344072293
880000000.0 -0.07838407188633213 0.14931000061379862
900000000.0 -0.10135882398972296 -0.031008491147642113
920000000.0 0.056229446095830436 -0.03840862665695267
940000000.0 0.04491894248955784 0.008405539935972267
960000000.0 0.04728662317777305 0.028924144378943896
980000000.0 -0.01846429396710475 0.06863596799542576
1000000000.0 -0.05713249535876479 -0.05933983174709639
1020000000.0 -0.09639838521984748 -0.005465251260508215
1040000000.0 0.04600093325608069 0.09765362036018982
1060000000.0 0.10529339492706141 -0.09928823588491799
1080000000.0 0.16060401676533528 -0.02105936587724074
1100000000.0 0.018360492148107487 -0.18650734132511637
1120000000.0 0.019641586892218205 0.20883099255927537
1140000000.0 0.24367079467374672 0.00473492356734275
1160000000.0 0.07645514581702098 -0.26484480243368164
1180000000.0 0.2861941468280401 -0.12807807354614661
1200000000.0 0.3381960580072279 0.03786158997907851
1220000000.0 -0.36491680684019717 0.05249202419563993
1240000000.0 0.3621650815129859 0.14464297464563095
1260000000.0 -0.1461257938759712 -0.38764021236120505
1280000000.0 -0.40227360068431767 0.1465706070880741
1300000000.0 0.3672901737979704 0.24126906036088436
1320000000.0 0.44162622413719776 0.007166712045876669
1340000000.0 0.42499909448653833 -0.11683692996508489
1360000000.0 0.4404011517609747 0.05355307465215107
1380000000.0 0.27638177327764973 -0.34458833005797
1400000000.0 -0.4342197902991427 -0.004894995840846718
1420000000.0 0.31006578034410587 0.27640187417328593
1440000000.0 -0.055261093496792466 -0.37900749541419276
1460000000.0 -0.34585324510678184 -0.010350111995611797
1480000000.0 -0.0829857740227319 0.2984310053487439
1500000000.0 -0.0007192978983317065 0.2733473945838916
1520000000.0 -0.12322657671905768 0.21006964082740365
1540000000.0 0.21073648462191708 0.05345512265785698
1560000000.0 -0.1870979833410733 0.011003262690680901
1580000000.0 0.164457977969181 -0.02478403060514011
1600000000.0 0.11509105386048196 -0.08018706503215217
1620000000.0 0.011915629815538887 -0.11484529221864351
1640000000.0 0.08094577868611581 -0.043523930919122655
1660000000.0 0.0672748914150132 -0.018700327271817432
1680000000.0 -0.022535142993062616 0.0447396071904322
1700000000.0 -0.011296298480923886 -0.03259686372834889
1720000000.0 0.012090683775663275 0.009074611783646614
1740000000.0 5.3050543988672733e-05 -0.006783133624468334
1760000000.0 0.026432473642170284 0.010725038355941685
1780000000.0 0.016575441949991172 -0.059504649959843794
1800000000.0 -0.09838809786276267 0.0019428967966638715
1820000000.0 0.10981508016633909 -0.0786975049308819
1840000000.0 0.16918220585271346 0.04610620661923762
1860000000.0 -0.1408887994710553 0.15984840953987703
1880000000.0 -0.006755948865001908 -0.2521502619584597
1900000000.0 0.16192593113736442 0.24519057253281287
1920000000.0 -0.3104189380571399 -0.09231443576953269
1940000000.0 0.2299142599255752 0.2662994270763733
1960000000.0 0.17022924278527024 -0.3336161727249939
1980000000.0 -0.3553430079990104 -0.15872755506175767
2000000000.0 -0.401323448554079 -0.04904594543441363
2020000000.0 -0.3072067624104827 0.28274149184917335
2040000000.0 -0.18776414535620514 0.38449516311831783
2060000000.0 0.3257139432194623 0.2856464261565981
2080000000.0 0.4129457507628518 -0.13321783135202014
2100000000.0 0.205089377116145 -0.3766588837503069
2120000000.0 -0.15396658837914973 -0.390611128660927
2140000000.0 -0.3158933242422 -0.25958446970737925
2160000000.0 0.006892498204772778 -0.39589963406289996
2180000000.0 -0.2654855188504898 -0.273916841872219
2200000000.0 -0.3608727749328414 0.07630340721672249
2220000000.0 -0.21416414479049886 0.2841581273221285
2240000000.0 0.010741773922100791 0.3498598428811919
2260000000.0 0.14982893716793733 0.3165669563155856
2280000000.0 0.3154794616387721 0.16121935542164742
2300000000.0 0.17051421768735636 -0.3261902576726474
2320000000.0 -0.3091362546102609 -0.23582165207561434
2340000000.0 -0.20829161111737168 0.36490709785007214
2360000000.0 0.45202518367816136 -0.09242212260013341
2380000000.0 -0.5048074720734216 -0.06274311321189976
2400000000.0 0.5582250770099563 0.01706046111550911
2420000000.0 -0.5122681030366979 0.3300813725987998
2440000000.0 0.14847159612065255 -0.6385251154572881
2460000000.0 0.3532043225932034 0.5973984161311341
2480000000.0 -0.6062818745399888 -0.3943809643469523
2500000000.0 0.6655385186741968 0.32717156622158383
2520000000.0 -0.5979739289473094 -0.45566754050052793
2540000000.0 0.2364697802384427 0.7141915710883918
2560000000.0 0.2784003435904451 -0.6927953264054798
2580000000.0 -0.7018852175242464 0.20878297495164935
2600000000.0 0.52485653049993 0.47744925252951487
2620000000.0 0.12719744542877315 -0.6680360807268313
2640000000.0 -0.06784140802597297 -0.6415914445907275
2660000000.0 -0.36939968521908845 0.47521899103208026
2680000000.0 0.552394223326431 -0.06459556826437053
2700000000.0 -0.43641826747553203 -0.26106760334331225
2720000000.0 0.2166265929452107 0.40549942844692904
2740000000.0 0.14456982599338444 -0.38673959706518246
2760000000.0 -0.30417338344174744 0.2136937502817877
2780000000.0 0.33381195825865356 0.06561196094877352
2800000000.0 -0.25516326192838146 -0.18574217495057724
2820000000.0 0.278980150255772 0.11354986564815028
2840000000.0 -0.293061573831145 -0.026490746660019396
2860000000.0 0.1424551176930653 -0.2587234143005101
2880000000.0 0.26486085512206203 0.13795183562084315
2900000000.0 -0.16843660614991174 0.2504971768736212
2920000000.0 0.07537177568850001 -0.2946752027820503
2940000000.0 -0.12993724785528923 0.2769058377242488
2960000000.0 0.21906264624704644 0.21378127906695013
2980000000.0 0.23575745567969036 0.19473541281786833
3000000000.0 -0.01691916257394523 0.3039440770247415
3020000000.0 -0.2983156278089423 -0.044851207587451904
3040000000.0 0.29110009276296944 -0.06524119545234708
3060000000.0 -0.2954832443093854 0.03933299074119069
3080000000.0 0.296309644613054 -0.006470961283148917
3100000000.0 -0.28171995358388724 -0.0847581273732216
3120000000.0 0.2887464067154771 -0.0457524717210368
3140000000.0 -0.0805405343715246 0.2758367226270058
3160000000.0 -0.2577600366239422 -0.09336600281457652
3180000000.0 0.24233097023763064 0.09046549276777069
3200000000.0 0.041910812476405664 0.23095383908038794
3220000000.0 -0.09810033154029839 0.18187364507379808
3240000000.0 -0.15055122998474663 -0.08504409003262574
3260000000.0 0.13326172795830893 -0.03100628345063862
3280000000.0 -0.005575111015420395 -0.10249949694834819
3300000000.0 -0.02117032088278863 -0.06943820519074569
3320000000.0 -0.03412132472243403 0.03356490788286056
3340000000.0 0.029369230005064292 -0.0040383673792693565
3360000000.0 -0.002908109445087279 0.015834968541403708
3380000000.0 -0.004153344288838194 -0.0021657376680138643
3400000000.0 -0.005052965055765474 -0.010608860258636766
3420000000.0 -0.021653060840383202 0.014937862770518466
3440000000.0 -0.026631967131478956 0.030781422475943482
3460000000.0 -0.023415134155824538 0.04757332389042705
3480000000.0 0.04683709873261823 0.04700638428837439
3500000000.0 -0.07399095370895516 -0.032651760218624155
3520000000.0 0.06454212597261272 0.0677382433853027
3540000000.0 -0.10472362333972321 -0.021371929537752122
3560000000.0 0.11958419560347573 -0.003062073394802949
3580000000.0 -0.11815287202350701 -0.06076995063814846
3600000000.0 0.1458224589763034 -0.03302351325269152
3620000000.0 0.08312595299465605 0.13868283224357655
3640000000.0 -0.1563103527307597 0.0751028154643246
3660000000.0 -0.16926796245530415 -0.07290866391857188
3680000000.0 -0.061368143431945923 -0.18039448057602844
3700000000.0 -0.005195546575255806 -0.1923562973172123
3720000000.0 0.14548748453915614 -0.12510940831409237
3740000000.0 0.1883437299829782 -0.005718111568096368
3760000000.0 -0.18265129381332126 -0.007318400328616557
3780000000.0 0.16915840183319583 -0.04016563268227988
3800000000.0 -0.13031546156080465 -0.10302759517599577
3820000000.0 -0.11391302063317572 0.1071307032770089
3840000000.0 -0.13352650809825226 0.05947557083243132
3860000000.0 0.1413787341262013 0.033063202187558594
3880000000.0 0.008708079435846375 0.15051891444635132
3900000000.0 0.05211545821261883 0.15007879048135092
3920000000.0 0.027518564022124603 -0.1647695063119889
3940000000.0 0.15371543742900065 0.08316352973882395
3960000000.0 0.16516957471589389 0.0710507390796799
3980000000.0 -0.007969833161970329 -0.17974417821935784
4000000000.0 -0.10278308324202412 -0.1374044708108094
