!Created with skrf (http://scikit-rf.org).
# Hz S RI R 50.0 
!freq ReS11 ImS11
400000000.0 -0.7256419491254607 0.4860789226740746
420000000.0 0.14517664848584658 0.8572905846940855
440000000.0 0.8351142440429372 -0.11706801572474501
460000000.0 0.1474849898609236 -0.7885020464016282
480000000.0 0.7278478806148372 -0.09509783062762493
500000000.0 -0.5128321500226573 0.3148512181399827
520000000.0 0.48263695888799985 0.15125922520992868
540000000.0 -0.17086735688927526 0.3843099914744063
560000000.0 0.3418164736931926 0.10470481079508072
580000000.0 -0.3311818282373283 -0.012442792728482971
600000000.0 0.027142727922177 0.3284906454322796
620000000.0 0.02296399821918751 -0.34061544020555695
640000000.0 -0.09440959914772581 -0.35877305830559586
660000000.0 -0.3521990449234777 -0.14206023467608955
680000000.0 0.28071592556024233 0.2826042327795842
700000000.0 0.4058500580331678 0.0006437151897507115
720000000.0 0.41007750935124365 -0.039816851009826536
740000000.0 -0.4107841696943585 -0.06036584580689478
760000000.0 0.3002714857121751 0.271160011549798
780000000.0 -0.3742346754730574 -0.041545153982504045
800000000.0 0.3128182380299716 0.15994203494949474
820000000.0 -0.06888549909823109 0.2968666349130874
840000000.0 0.04424193534435758 -0.2575353764930226
860000000.0 0.18626805349537245 -0.11095424533626214
880000000.0 -0.0826425833974551 0.1473463162475003
900000000.0 -0.09416421620984915 -0.04975810226416045
920000000.0 0.0633832565048784 -0.025889890186444133
940000000.0 0.031854356774343465 0.03238006418750199
960000000.0 0.03754278326543772 0.040099324655465014
980000000.0 -0.004794938752535661 0.07078402767352984
1000000000.0 -0.07172704691231044 -0.040249389465922596
1020000000.0 -0.09539943197648591 0.014258346786399484
1040000000.0 0.06784550429627657 0.084181437475438
1060000000.0 0.09707378636695865 -0.10769252418831007
1080000000.0 0.1602226137771393 -0.02497778083892111
1100000000.0 0.01196816095253315 -0.18722416695073726
1120000000.0 0.031413721291548215 0.20752221068188187
1140000000.0 0.24392075949397937 0.004580165974747076
1160000000.0 0.12118584333547262 -0.24730081953329527
1180000000.0 0.2947056836641926 -0.10685801352211785
1200000000.0 0.33588885552159997 0.053160227815594735
1220000000.0 -0.3669658678535903 0.03365659562669051
1240000000.0 0.360328660344042 0.14883241815212545
1260000000.0 -0.1827308281294723 -0.3717124018656675
1280000000.0 -0.40114709209307614 0.14877264510762356
1300000000.0 0.35464313975708306 0.25879056426808095
1320000000.0 0.44063206351046186 0.02199349183959194
1340000000.0 0.4213002792850031 -0.12904354600158757
1360000000.0 0.44198513019707275 0.037574947133302006
1380000000.0 0.2710583948142865 -0.34883086077957004
1400000000.0 -0.4336906160245161 0.019570075749524046
1420000000.0 0.31782666505601426 0.26750514897244904
1440000000.0 -0.0404714646376228 -0.38146578386543856
1460000000.0 -0.3462873680918979 -0.001260949925077907
1480000000.0 -0.007369563991501182 0.3098594879125424
1500000000.0 -0.002280857448177873 0.27390501285263175
1520000000.0 -0.11693916634188337 0.2136835276177408
1540000000.0 0.2131821334798724 0.04269758702542389
1560000000.0 -0.1874314664680382 0.0034725990411873134
1580000000.0 0.16625058160522763 -0.00549502462593134
1600000000.0 0.10624479103718298 -0.09146162667742835
1620000000.0 0.05053334865163597 -0.1037720344786821
1640000000.0 0.08398910061354288 -0.037155591933310333
1660000000.0 0.06941402314219845 0.0019391784015277012
1680000000.0 -0.0458709842304724 0.01944664976625717
1700000000.0 -0.02229895546162916 -0.026545610347397264
1720000000.0 0.014898154417394446 -0.002082861484750008
1740000000.0 -0.004250076856427736 0.005353490953612582
1760000000.0 0.0007406427477900913 0.02838214869345277
1780000000.0 0.02425446771897657 -0.056671297954850944
1800000000.0 -0.09544150513344257 -0.022593072203659074
1820000000.0 0.11154163264308271 -0.07618960198862432
1840000000.0 0.16407362927423672 0.06129964203409156
1860000000.0 -0.14889313137715385 0.15184203990516296
1880000000.0 -0.0011563809998186912 -0.2518635979703281
1900000000.0 0.1717101728466796 0.23825208435766834
1920000000.0 -0.31427871098968885 -0.0783707532332247
1940000000.0 0.2542366467167834 0.2432424387547611
1960000000.0 0.15071566819411225 -0.3429428626879127
1980000000.0 -0.3608320883921564 -0.1467160881784697
2000000000.0 -0.4036440773519596 -0.029165096388837894
2020000000.0 -0.3015881261509499 0.28924459486234616
2040000000.0 -0.19160470564071513 0.3830558805600664
2060000000.0 0.32179547862866703 0.29055018877032324
2080000000.0 0.41442321738251936 -0.12970916567977267
2100000000.0 0.21719019635158027 -0.37016687504054474
2120000000.0 -0.14404192565342708 -0.3949126642664165
2140000000.0 -0.2992837240563278 -0.2791620411289369
2160000000.0 0.045899103351941785 -0.3935758252548616
2180000000.0 -0.24505779941124223 -0.29262302977942667
2200000000.0 -0.3644376434337651 0.05641695217132409
2220000000.0 -0.23549081296589763 0.2664279286810866
2240000000.0 -0.00583102965582236 0.34987135902161465
2260000000.0 0.14111079194848725 0.3204444692606709
2280000000.0 0.3242406151159022 0.14315083602838874
2300000000.0 0.18051125958013092 -0.3205892334645676
2320000000.0 -0.31750766675244735 -0.2244015546380847
2340000000.0 -0.2127709046191496 0.36204291150377993
2360000000.0 0.44892015459126144 -0.10509279082003295
2380000000.0 -0.5075153266571373 -0.03903878198646081
2400000000.0 0.5576155986111152 -0.03494813908689243
2420000000.0 -0.4770614353557462 0.3796222292246368
2440000000.0 0.09824658608041544 -0.6487327750069262
2460000000.0 0.3914123279412591 0.5735481685303843
2480000000.0 -0.6267294649483703 -0.36197213289623864
2500000000.0 0.6697219232299259 0.3195663174294753
2520000000.0 -0.5924225827120987 -0.4635742266736708
2540000000.0 0.246484897236333 0.71105059439771
2560000000.0 0.2732716878035577 -0.6947833853494115
2580000000.0 -0.7288235964665377 0.0712170438727651
2600000000.0 0.5134717378559368 0.4890379539772718
2620000000.0 0.1566578893357569 -0.6615457112727792
2640000000.0 -0.07811934447431368 -0.6401442799790066
2660000000.0 -0.38298651722983496 0.46379379121455366
2680000000.0 0.5517289206023064 -0.0667473141946486
2700000000.0 -0.43725220697586564 -0.25911780365879866
2720000000.0 0.22190836801489625 0.4023558188345397
2740000000.0 0.14755746136593106 -0.38534798272196985
2760000000.0 -0.3046375124690586 0.21259004566948708
2780000000.0 0.33675277120068314 0.04771897404250335
2800000000.0 -0.26537622059138055 -0.17024946916950195
2820000000.0 0.2843342793885314 0.09860882712441665
2840000000.0 -0.29248027637869173 -0.030780529936168984
2860000000.0 0.13688560381417803 -0.26147916839987856
2880000000.0 0.2577474448240017 0.1513600806314044
2900000000.0 -0.17490576562732948 0.2459811398666548
2920000000.0 0.10585206437809577 -0.28564727981966426
2940000000.0 -0.17976306646018125 0.24842570274606512
2960000000.0 0.21946753476664166 0.2138248939871712
2980000000.0 0.21726231946974006 0.21398255737611305
3000000000.0 -0.022143059862739345 0.303003652421288
3020000000.0 -0.2954082288538679 -0.0612290786856613
3040000000.0 0.2930486809593512 -0.053870712470249646
3060000000.0 -0.2976014653408231 -0.008408091845091508
3080000000.0 0.29471474542319503 0.03027773455662242
3100000000.0 -0.2835193463802572 -0.07958316716307079
3120000000.0 0.28444343496524055 -0.06522359445725356
3140000000.0 -0.10528874680970128 0.2667348410861447
3160000000.0 -0.25502511401083006 -0.1011589426805987
3180000000.0 0.23922858013696985 0.09781280076773506
3200000000.0 0.03688767617962473 0.23142305603093746
3220000000.0 -0.11814350150630018 0.16891363805478726
3240000000.0 -0.14003485351831954 -0.10157703386493418
3260000000.0 0.12498042289294804 -0.055593685045724484
3280000000.0 -0.042080284658344506 -0.09315684303922506
3300000000.0 -0.03334004375623984 -0.06398097005870422
3320000000.0 -0.01644520670468882 0.04464130349304265
3340000000.0 0.01657053257595617 -0.02411175045022259
3360000000.0 0.014316642967017656 0.006345323575393731
3380000000.0 -0.002123340760178239 0.0036661529947735584
3400000000.0 0.007951963343326506 -0.008570234813746335
3420000000.0 -0.025308262466655646 -0.006821148256469758
3440000000.0 -0.04037142291657519 0.004426692400222341
3460000000.0 -0.04047664488501685 0.03391014493580783
3480000000.0 -0.0022261003248202215 0.06615788856796156
3500000000.0 -0.05139425357190505 -0.0624915571894268
3520000000.0 0.028095978965481747 0.08904693182235267
3540000000.0 -0.07747682115073207 -0.07333761928986683
3560000000.0 0.10709691959879762 0.05223875485440325
3580000000.0 -0.08067545042685256 -0.10478862830650816
3600000000.0 0.1491724443320724 0.00013522108664936754
3620000000.0 0.0643953821597758 0.14854630853292916
3640000000.0 -0.16272504877255664 0.05824245769168727
3660000000.0 -0.156718740620039 -0.09553314318489117
3680000000.0 -0.04100621870435941 -0.1853799087690542
3700000000.0 -0.0012207158567960534 -0.19140935458818095
3720000000.0 0.15577087809438578 -0.11000468794575584
3740000000.0 0.18758085007703593 0.0006943751178585388
3760000000.0 -0.18139102540593405 -0.013277215291376394
3780000000.0 0.16461864490481803 -0.05314192136749648
3800000000.0 -0.14190700305448067 -0.08475984459984533
3820000000.0 -0.09988190842350522 0.11920869939573935
3840000000.0 -0.10558729109982404 0.09982890329158328
3860000000.0 0.14416781266589515 -0.005587147267851734
3880000000.0 0.07548059529151374 0.12923932240747465
3900000000.0 0.10903497723195531 0.1143291933336029
3920000000.0 -0.04165354873430486 -0.16107337416175238
3940000000.0 0.17349300223103983 0.016420977565945277
3960000000.0 0.1791584754870253 0.0059499733650324625
3980000000.0 -0.07783934913285491 -0.16211706671850995
4000000000.0 -0.14487798260704218 -0.09228390258648661
