!Created with skrf (http://scikit-rf.org).
# Hz S RI R 50.0 
!freq ReS11 ImS11
400000000.0 -0.7062353972219015 0.5149215752431656
420000000.0 0.15124099685186518 0.8565302301939971
440000000.0 0.8305615685280785 -0.1481186737214499
460000000.0 0.17899212911565734 -0.7821902568242767
480000000.0 0.718371271116978 -0.1486776345656107
500000000.0 -0.5289634584295348 0.28871758567045736
520000000.0 0.48578472336576756 0.13876371064275966
540000000.0 -0.12014126084951364 0.40269681068028695
560000000.0 0.3353683437957136 0.12294848276505072
580000000.0 -0.33137547806615375 0.0268928745869309
600000000.0 0.050319994242329295 0.3253420181405617
620000000.0 0.0645865355363235 -0.33516388118012086
640000000.0 -0.11463420445496668 -0.35296531967893885
660000000.0 -0.3658012510102829 -0.10457517758884045
680000000.0 0.29171312806420646 0.2717581398090657
700000000.0 0.40652438308568706 -0.014311909281007323
720000000.0 0.41080863179345994 -0.04089232869829302
740000000.0 -0.4149487507126835 -0.020876624304147117
760000000.0 0.28407728957380063 0.289188637589797
780000000.0 -0.37455136594793215 -0.04201734482155725
800000000.0 0.3135157646992533 0.15841715134232162
820000000.0 -0.05959252920049385 0.29830000706021664
840000000.0 -0.0011648877877400582 -0.2608899888206208
860000000.0 0.1443273013375885 -0.16087919223736646
880000000.0 -0.042150375077554716 0.16379724973699203
900000000.0 -0.0794058193099595 -0.07075653813450399
920000000.0 0.0655619333511512 -0.019055348004410562
940000000.0 0.041933105820091646 0.016563456969922133
960000000.0 0.02686409901420212 0.04856639084382274
980000000.0 -0.03445997754279841 0.06254974400152107
1000000000.0 -0.050286342665366496 -0.06446908142274618
1020000000.0 -0.09491316883220703 -0.010960931946990474
1040000000.0 0.06901593433783478 0.082157156953359
1060000000.0 0.07499901905464566 -0.12349534037912531
1080000000.0 0.15867849508969648 -0.032504938405727705
1100000000.0 0.007238894526428017 -0.18743027108557914
1120000000.0 0.024422358350777464 0.20863066436137112
1140000000.0 0.2445314139660502 -0.003907109681803866
1160000000.0 0.08102720354604272 -0.2642745394566475
1180000000.0 0.2852030533664347 -0.13290461650295887
1200000000.0 0.3357770040148848 0.0611387742195605
1220000000.0 -0.3682369064408731 0.03016835266076194
1240000000.0 0.3598475065582481 0.15089147104124603
1260000000.0 -0.18284359377011253 -0.3720652344993401
1280000000.0 -0.4094218317758724 0.12614480989916316
1300000000.0 0.35013873550574764 0.2655146113740935
1320000000.0 0.440596792847744 0.030955254159198163
1340000000.0 0.43194595118567003 -0.08738869428513558
1360000000.0 0.4341408024422561 0.08852466812783262
1380000000.0 0.29000287130851043 -0.33282863713673905
1400000000.0 -0.4340792220466829 -0.003256978737904502
1420000000.0 0.3172055090161965 0.26818730299111304
1440000000.0 -0.03759605492893236 -0.3817422805379923
1460000000.0 -0.3456260437116511 0.014648458052946317
1480000000.0 0.026332630809188833 0.3087187038618225
1500000000.0 0.012339637468812907 0.2741931411033972
1520000000.0 -0.12325192102975814 0.21136271848334992
1540000000.0 0.2146569995690094 0.03905476029634818
1560000000.0 -0.1879243569227698 0.008844335265769549
1580000000.0 0.16648299765456326 -0.01049284092621334
1600000000.0 0.10655530777672116 -0.09131207437058333
1620000000.0 0.035663824460164265 -0.10969337227868084
1640000000.0 0.08079205849663618 -0.04333899681656715
1660000000.0 0.06887529848464963 -0.011711509091046943
1680000000.0 -0.04009923150042296 0.029562422114609098
1700000000.0 -0.0062334148346481506 -0.03305854206830644
1720000000.0 0.005122752907739524 -0.013557964263999944
1740000000.0 -0.0035005256491433103 0.00642192460723784
1760000000.0 0.012788846344090811 0.026092192702076588
1780000000.0 0.007476162368459691 -0.0615181908871127
1800000000.0 -0.09752606980013126 0.015289453411928784
1820000000.0 0.10570461531214125 -0.08366403637044105
1840000000.0 0.1686988564453474 0.045946970127948385
1860000000.0 -0.13896338886183332 0.16036249166861896
1880000000.0 -0.01660723403402607 -0.25097253724920093
1900000000.0 0.19541523477955788 0.21900985618778232
1920000000.0 -0.32128197851798646 -0.039710837847289744
1940000000.0 0.24285258033596874 0.2542366429586785
1960000000.0 0.17661305188339063 -0.3300753431547959
1980000000.0 -0.3464176415991761 -0.17781096431019344
2000000000.0 -0.4012836620723672 -0.05131093744341741
2020000000.0 -0.32453485038983476 0.2633868216149398
2040000000.0 -0.24467805998806919 0.351610856842419
2060000000.0 0.27864296450961445 0.3327897359742887
2080000000.0 0.4288899498312539 -0.06559365064953383
2100000000.0 0.240979988299122 -0.3546338091707882
2120000000.0 -0.14122627191538561 -0.39524530852040185
2140000000.0 -0.33882215375575225 -0.22893507229100332
2160000000.0 0.005224350481981417 -0.39551053535412384
2180000000.0 -0.2681121126849583 -0.27214463065706457
2200000000.0 -0.3588352321787647 0.0829828568798178
2220000000.0 -0.1779679654659946 0.30762797305928546
2240000000.0 0.05825319118364705 0.34448927206686786
2260000000.0 0.18359755017924995 0.2968387575310546
2280000000.0 0.33062145616290817 0.1265513205298564
2300000000.0 0.2012169427459308 -0.30769676492722065
2320000000.0 -0.31328168475785884 -0.2309120278285641
2340000000.0 -0.2304031276059353 0.35136651442522726
2360000000.0 0.4571284085988402 -0.05957734350186412
2380000000.0 -0.5004449356526943 -0.09179975637943326
2400000000.0 0.5571839308277206 0.04448817346909096
2420000000.0 -0.5207658065826541 0.3173124529974
2440000000.0 0.2557570460792442 -0.6042206430080438
2460000000.0 0.31744942440769386 0.6174858191579455
2480000000.0 -0.5894044249891429 -0.41900066798920715
2500000000.0 0.6524984199212627 0.3520695927806029
2520000000.0 -0.4658167171964333 -0.5906444960675714
2540000000.0 0.17965598004023806 0.7314694760610855
2560000000.0 0.3122581165419931 -0.6793675473735307
2580000000.0 -0.7282875414932815 0.07677479408581704
2600000000.0 0.5001201917757376 0.5026207578010992
2620000000.0 0.10784881428132174 -0.6713046282163024
2640000000.0 -0.14760414959177337 -0.6276099963701447
2660000000.0 -0.328953095552004 0.5041254952521644
2680000000.0 0.5416296764282252 -0.129415242369286
2700000000.0 -0.45043636733440345 -0.2364265052733355
2720000000.0 0.27398912299314104 0.36944860456622763
2740000000.0 0.09602632500165861 -0.4020209335024846
2760000000.0 -0.3014965224810434 0.21832765687676448
2780000000.0 0.3382650842213224 0.04247513604570838
2800000000.0 -0.2631215165944095 -0.17516163270173368
2820000000.0 0.28004019210074005 0.11311098382822504
2840000000.0 -0.2913886981599014 -0.045716401257098964
2860000000.0 0.1339423825249095 -0.26379796188697163
2880000000.0 0.2639110606570948 0.14054905709650442
2900000000.0 -0.19644267587664638 0.229782757652276
2920000000.0 0.10109775710587064 -0.2871921595504975
2940000000.0 -0.1979111133119555 0.23348300584368423
2960000000.0 0.23774635875405878 0.19138684058219532
2980000000.0 0.23144291497795486 0.19789513847069304
3000000000.0 -0.02206258498103278 0.3025446552122616
3020000000.0 -0.29024723470923675 -0.08254578786457553
3040000000.0 0.290218866333279 -0.06871216891568854
3060000000.0 -0.29511730041132617 -0.03721016807349018
3080000000.0 0.294807686719888 0.02779674928144069
3100000000.0 -0.2940734334063885 -0.01362574933376664
3120000000.0 0.26422150862164284 -0.12598876754817656
3140000000.0 -0.06403580321046838 0.2797129842420001
3160000000.0 -0.26927487107831577 -0.05326063648021697
3180000000.0 0.2410728990990648 0.09456191944638752
3200000000.0 0.09531928744534458 0.21325566414129912
3220000000.0 -0.07752769633424798 0.18972989485137196
3240000000.0 -0.17073698281957714 -0.022976181202289166
3260000000.0 0.1091435174571208 -0.08193243293786369
3280000000.0 -0.05642974743167046 -0.0853030720922691
3300000000.0 -0.04615958954426517 -0.055386648119117796
3320000000.0 -0.028280776301252315 0.03756822041860543
3340000000.0 -0.001123397600332143 -0.02845860387710825
3360000000.0 -0.014645748758221671 -0.0005754094480663896
3380000000.0 -0.001700526985410261 0.002756617960353962
3400000000.0 -0.007029884933335364 -0.010298280453394818
3420000000.0 0.026808467998959706 -0.0044627863185422376
3440000000.0 -0.019016782672477698 -0.03661041065954014
3460000000.0 -0.05363229596960386 -0.003430049861795858
3480000000.0 0.00502258167234981 0.06616390558079954
3500000000.0 -0.04427139535579278 -0.06780872874793502
3520000000.0 0.028256821347763642 0.08982458973152833
3540000000.0 -0.03443231271031104 -0.10160839551585196
3560000000.0 0.08324532392460203 0.08646567013357712
3580000000.0 -0.045448085505897566 -0.12465654222988859
3600000000.0 0.1497127257321746 -0.006244284762787123
3620000000.0 0.09204992942015001 0.13387190186141532
3640000000.0 -0.15225099868660952 0.08195118895143859
3660000000.0 -0.17311739818650967 -0.06459609005594011
3680000000.0 -0.07424575847038233 -0.1756896301852492
3700000000.0 -0.03486689385267493 -0.1888807294098062
3720000000.0 0.1312342584632495 -0.13924047036787524
3740000000.0 0.18548881077354754 -0.028023452790520594
3760000000.0 -0.1810294283727815 -0.02206556612112327
3780000000.0 0.17154862916385624 -0.02965410587892775
3800000000.0 -0.12796061476134224 -0.10520659339349005
3820000000.0 -0.09815226796757141 0.1203590358623007
3840000000.0 -0.14025146080709827 0.039671357558811855
3860000000.0 0.13605308924104573 0.048181613691411836
3880000000.0 0.011031645412467069 0.1500591006229042
3900000000.0 0.08935073660050098 0.1307470331446614
3920000000.0 0.03027336162204462 -0.16364109356392703
3940000000.0 0.16917740636949685 0.04089928369404286
3960000000.0 0.16385771028620666 0.07267902959470973
3980000000.0 -0.024354292596590277 -0.17725064578348487
4000000000.0 -0.09975113294452477 -0.13635174976991316
