!Created with skrf (http://scikit-rf.org).
# Hz S RI R 50.0 
!freq ReS11 ImS11
400000000.0 -0.7150710970821658 0.4983725383077758
420000000.0 0.1661486602734237 0.8538569866866684
440000000.0 0.838204551884031 -0.09279942505576223
460000000.0 0.13919733885046545 -0.7908666311044262
480000000.0 0.7226250456299073 -0.12902393859562594
500000000.0 -0.5224352691199299 0.2978423087756412
520000000.0 0.4761971714318146 0.17090909341131363
540000000.0 -0.16920980593742285 0.3853244696512835
560000000.0 0.35074047619407256 0.07012019365215029
580000000.0 -0.33050170037731297 -0.019666343726407628
600000000.0 0.019236828673465534 0.32921286340459
620000000.0 0.02559280283043949 -0.34168798566307457
640000000.0 -0.10648789406984507 -0.35527985629645753
660000000.0 -0.3590039209640044 -0.12416665757665842
680000000.0 0.29006991015425865 0.2731285733444873
700000000.0 0.4065856546282072 -0.011311425700554224
720000000.0 0.4105547424659553 -0.042728064841552844
740000000.0 -0.4139104838661567 -0.038776536458206314
760000000.0 0.2997213584687892 0.27174272680232026
780000000.0 -0.375661215605264 -0.025518512330879588
800000000.0 0.3225600949525034 0.13886454518665803
820000000.0 -0.04795056680007936 0.3007122872792777
840000000.0 0.007191814320336813 -0.2609818231243654
860000000.0 0.15116969063245858 -0.15560062004966446
880000000.0 -0.053348923360341416 0.16035530048009713
900000000.0 -0.09109752469388746 -0.05552231980098304
920000000.0 0.06601197953179969 -0.01842829870300382
940000000.0 0.02054866219691256 0.04018853076221226
960000000.0 0.033769832237176695 0.04313989113248766
980000000.0 -0.011200554180665689 0.06993624746340732
1000000000.0 -0.049812412763751965 -0.06497734999447985
1020000000.0 -0.09585335772878688 -0.006423290448590849
1040000000.0 0.04378265780669218 0.09785854001145373
1060000000.0 0.08775239730300394 -0.11495866209029766
1080000000.0 0.15483712303135286 -0.0482692673420933
1100000000.0 0.024594473211325744 -0.18577228671783902
1120000000.0 0.005127028632924818 0.20988789235243113
1140000000.0 0.24307119934492527 0.025861120865948536
1160000000.0 0.10362807967149548 -0.2555788952795001
1180000000.0 0.29694850630075487 -0.1016062799898425
1200000000.0 0.3330406099776753 0.07173351156688333
1220000000.0 -0.36751648548468624 0.034533099629861265
1240000000.0 0.3504067906620638 0.17142143537474855
1260000000.0 -0.1254270525695217 -0.39489641733275027
1280000000.0 -0.4072185498970225 0.13116267900994844
1300000000.0 0.3370312851192041 0.2811060812434827
1320000000.0 0.44054264762722295 0.02483079431607654
1340000000.0 0.43252467392363114 -0.08297041317314054
1360000000.0 0.43857766304470747 0.06256001594233743
1380000000.0 0.2652742919795555 -0.3526039817911032
1400000000.0 -0.43321891531478174 0.01997067611668859
1420000000.0 0.328867467958613 0.2534430455354564
1440000000.0 -0.046441824854462355 -0.38061509930227866
1460000000.0 -0.34643389833034155 0.002745572535296557
1480000000.0 -0.10553009403574005 0.29129477706526147
1500000000.0 -0.010547311298678417 0.2736650235172476
1520000000.0 -0.12997762399122542 0.20712052053787716
1540000000.0 0.2112008005064453 0.05444121180261549
1560000000.0 -0.1877095454746434 0.007389495693139564
1580000000.0 0.16291986164458952 0.035908061175387154
1600000000.0 0.09897260410506334 -0.09905834258503615
1620000000.0 0.03630494687910761 -0.109101982364589
1640000000.0 0.08093381559494672 -0.04313398175431862
1660000000.0 0.06570160532913182 -0.022190585866069524
1680000000.0 -0.0324997963827998 0.037494292414636685
1700000000.0 -0.03045580553557453 -0.015589384842241958
1720000000.0 -0.007489492984460706 -0.012690298756683527
1740000000.0 -0.007294636007201704 0.002394464199106765
1760000000.0 -0.00487346239419803 0.028302219667595985
1780000000.0 -0.007748566297345075 -0.06103580847855246
1800000000.0 -0.09769374366724552 0.008691359550087275
1820000000.0 0.1009499436953181 -0.0894358625284448
1840000000.0 0.17421746844443003 0.012766880600387585
1860000000.0 -0.11329383733277396 0.17972346167577252
1880000000.0 -0.04289494131246037 -0.24799983481274168
1900000000.0 0.19758504109365913 0.21706543478210516
1920000000.0 -0.321935581551552 -0.03489770981516464
1940000000.0 0.255843891066806 0.2416157801989588
1960000000.0 0.1648985061917031 -0.3365334469770042
1980000000.0 -0.35340240136463863 -0.16414095392217207
2000000000.0 -0.3985264009585743 -0.07108574296140555
2020000000.0 -0.3434143803659627 0.2384210680561513
2040000000.0 -0.23085049434721241 0.3607444868501643
2060000000.0 0.2662292178057578 0.3425362790284576
2080000000.0 0.4277089024528831 -0.07155959383105785
2100000000.0 0.23325008248593876 -0.35872213989871155
2120000000.0 -0.06847701505516784 -0.413253998484468
2140000000.0 -0.2883772255257491 -0.2885365172330104
2160000000.0 0.00817645838260488 -0.39435049817171813
2180000000.0 -0.2975082044293571 -0.23771805816958438
2200000000.0 -0.3450010898827331 0.12711112000752936
2220000000.0 -0.15705780444686204 0.317814828236479
2240000000.0 0.04355381663906797 0.3465366129769239
2260000000.0 0.19434837871229452 0.29012713206778806
2280000000.0 0.34290347228161444 0.08624358912565233
2300000000.0 0.13779823320431267 -0.3403806935571814
2320000000.0 -0.3395643695908845 -0.189572868872011
2340000000.0 -0.18979328043944904 0.3746859611011942
2360000000.0 0.4476621963376819 -0.11217249199806666
2380000000.0 -0.5051949101242982 -0.06133589780641855
2400000000.0 0.5587457680966511 -0.01425524222348706
2420000000.0 -0.5074637072394876 0.3384558214515509
2440000000.0 0.2034945317419665 -0.6236810322743218
2460000000.0 0.2817809059604648 0.6346453300164538
2480000000.0 -0.5672115158722909 -0.44955229103734873
2500000000.0 0.6040740200211805 0.4305283850080529
2520000000.0 -0.5253642979940807 -0.5375452137720904
2540000000.0 0.25889142728883047 0.7066665409181611
2560000000.0 0.3185044020623717 -0.6753385046284429
2580000000.0 -0.7236119098668918 0.10934661460844092
2600000000.0 0.4528593080019373 0.5442441137539902
2620000000.0 0.1675375997521242 -0.6579029591893117
2640000000.0 -0.15553317884482834 -0.6250854930573043
2660000000.0 -0.3345144082785627 0.498808909340564
2680000000.0 0.5465372516208752 -0.09626303552250456
2700000000.0 -0.4758903737231386 -0.1780592157909739
2720000000.0 0.28421071504321 0.36084784446313495
2740000000.0 0.1039051572639304 -0.39947583943728837
2760000000.0 -0.2942113862691616 0.22643651495209038
2780000000.0 0.33838116104158533 0.034592793656862596
2800000000.0 -0.2800933061617254 -0.14457390226321026
2820000000.0 0.28881409140172976 0.08631079449857876
2840000000.0 -0.2936529563434524 -0.020458569192434783
2860000000.0 0.12901736548622045 -0.26565585936561015
2880000000.0 0.26906713754815725 0.13011339989437068
2900000000.0 -0.16506846029173847 0.25302707666100993
2920000000.0 0.09422334980986988 -0.28984086296808625
2940000000.0 -0.20232678814226449 0.23019982869718603
2960000000.0 0.2069680540742331 0.22588718030479352
2980000000.0 0.19822617155314207 0.23140875388610163
3000000000.0 -0.03399369599718592 0.3009431096552999
3020000000.0 -0.2884142977383148 -0.08903795552692763
3040000000.0 0.2890622984197679 -0.0764979240453747
3060000000.0 -0.2980833236195202 -0.004572310567524802
3080000000.0 0.2955896419209879 0.018069595110805785
3100000000.0 -0.2802903033257164 -0.08898508622974212
3120000000.0 0.2855345829159877 -0.06373233205709432
3140000000.0 -0.07275692499282967 0.27744749094952986
3160000000.0 -0.2633610368761352 -0.07589983350455454
3180000000.0 0.2414480868796621 0.09517362797642573
3200000000.0 0.03607091367726389 0.23147837873180166
3220000000.0 -0.11659291584243171 0.16948873527901517
3240000000.0 -0.1555019766908593 -0.07350443277473391
3260000000.0 0.1269339097003661 -0.049395958731440065
3280000000.0 -0.054344166590335766 -0.08650275523685523
3300000000.0 -0.04193101248978121 -0.05828191709673048
3320000000.0 -0.019012849389166253 0.043807313139817325
3340000000.0 0.01565409714612112 -0.024779672981111014
3360000000.0 0.0087432820927256 -0.012458595966922338
3380000000.0 0.0016985282296268236 -0.0028081227607976373
3400000000.0 -0.011972111677628117 -0.00355344963957694
3420000000.0 0.022558662296781877 -0.014513235202352799
3440000000.0 -0.026782117582806072 -0.03026194369942023
3460000000.0 -0.053132863616910185 0.0023932273907321653
3480000000.0 0.009239882436650942 0.06549578484057077
3500000000.0 -0.029587549980770362 -0.07486727455598352
3520000000.0 0.0335871271784619 0.08730655361657043
3540000000.0 -0.06731984230419222 -0.08284547844171039
3560000000.0 0.05904079487518424 0.10320311737888316
3580000000.0 -0.017668460846178034 -0.13075030771166915
3600000000.0 0.14766829028136794 0.018993418584361103
3620000000.0 0.05499134577314639 0.15165858306585775
3640000000.0 -0.14658632384456458 0.09090324587330458
3660000000.0 -0.1746810563466081 -0.057700236014202294
3680000000.0 -0.07214830562291655 -0.17569389820435183
3700000000.0 -0.0506192809893952 -0.18525422087614002
3720000000.0 0.1325861122557392 -0.13833854173734014
3740000000.0 0.18528668000261703 -0.027365113543194826
3760000000.0 -0.1788485557657129 0.032435678722368785
3780000000.0 0.13992647402843508 -0.10240555249958945
3800000000.0 -0.15782389491085877 -0.05018574972785373
3820000000.0 -0.04296661473902518 0.1494738666232535
3840000000.0 -0.09431140868962666 0.11134696695093203
3860000000.0 0.13640822117408247 -0.04603987811956611
3880000000.0 0.07689021180589886 0.12871118819301758
3900000000.0 0.09604998650464888 0.12542811342227833
3920000000.0 -0.026065797596913094 -0.16454030829863386
3940000000.0 0.1744179634922102 -0.006310879130286979
3960000000.0 0.1791733126633076 0.025734253891761576
3980000000.0 -0.08922727802591184 -0.15714728715373966
4000000000.0 -0.15473148358248937 -0.07446601652083779
