!Created with skrf (http://scikit-rf.org).
# Hz S RI R 50.0 
!freq ReS11 ImS11
400000000.0 -0.7100798516591313 0.5019869309745976
420000000.0 0.16230829560842344 0.8531141760905822
440000000.0 0.826100608885434 -0.16345482313475349
460000000.0 0.11853576984250426 -0.7939476864938619
480000000.0 0.7161198090611759 -0.1600497928184168
500000000.0 -0.5086089393747135 0.3212446245441782
520000000.0 0.48154785957813206 0.15401904842464662
540000000.0 -0.18334023798339008 0.3785067483951134
560000000.0 0.3550841573666723 0.04605710979522498
580000000.0 -0.329373076828144 0.037315108971282776
600000000.0 0.04669885537967336 0.32712662046239305
620000000.0 0.03431615373063433 -0.3419580513046681
640000000.0 -0.08146253253145874 -0.3634395591617981
660000000.0 -0.33122346694941207 -0.18822015091047306
680000000.0 0.23181484838464406 0.3248886218570357
700000000.0 0.4007868899859835 0.07071213695639857
720000000.0 0.41196339384877223 0.025177919869447608
740000000.0 -0.4018239334112558 -0.1041967042499575
760000000.0 0.2604578234767483 0.3088047026241694
780000000.0 -0.37220770468410014 -0.049549918189353066
800000000.0 0.3247815854806574 0.13097901729264028
820000000.0 -0.006347800369636777 0.3035310871118909
840000000.0 -0.06535135870709605 -0.2523235084821517
860000000.0 0.07467473412399528 -0.20369172376906555
880000000.0 0.03357807029482588 0.16704741794562236
900000000.0 -0.10845933011797829 0.0018245146499594655
920000000.0 0.06689858490263603 0.02321461302795238
940000000.0 -0.03380678845469025 -0.03059774183549354
960000000.0 -0.04918132054890626 0.02113429534223475
980000000.0 -0.04236960439832767 0.054258578972585916
1000000000.0 -0.07168776702771272 -0.03567445475260072
1020000000.0 -0.06400339734061551 0.069810706891803
1040000000.0 0.10582681758392151 0.012792319880332838
1060000000.0 -0.018913197829670443 -0.14355275305035614
1080000000.0 0.09389959726351846 -0.1338043174183552
1100000000.0 -0.05137371208507079 -0.18225634564032284
1120000000.0 0.04050639831267185 0.20865561651197026
1140000000.0 0.24642842158911288 0.016033701458189706
1160000000.0 0.15450615261716724 -0.23154751844878205
1180000000.0 0.3159415291962458 0.0030538946613521754
1200000000.0 0.3057922453988723 0.1546898653049627
1220000000.0 -0.3591465726094712 -0.09065889436866666
1240000000.0 0.28075191508544883 0.27191112919654886
1260000000.0 -0.017039863213522095 -0.4141124042558855
1280000000.0 -0.42479606013240007 0.049253327542290296
1300000000.0 0.29988299392086654 0.319820031161674
1320000000.0 0.43565338805809395 0.06465367810302343
1340000000.0 0.43440291776744044 -0.06711748784485094
1360000000.0 0.4385370166256944 0.05693237951813062
1380000000.0 0.24922767474452076 -0.3634340807197777
1400000000.0 -0.42874387315328294 0.0623582007971386
1420000000.0 0.362091624112194 0.20237187800219972
1440000000.0 -0.10384733315048135 -0.3691809143813248
1460000000.0 -0.34023651984967995 0.06728752659295584
1480000000.0 0.018130544876419262 0.3100822760534022
1500000000.0 0.0497238880133117 0.27011165959120664
1520000000.0 -0.09022012688444282 0.22842789649362288
1540000000.0 0.21758338480429015 0.025796133263627556
1560000000.0 -0.18905076706377258 -0.012510704191370643
1580000000.0 0.1675079382259114 0.011571809419565511
1600000000.0 0.13389093232044608 -0.04484049015313745
1620000000.0 0.054304439583298704 -0.10242534190354168
1640000000.0 0.08887548997435482 0.023758377266733306
1660000000.0 0.05878551348377372 0.03637001742073935
1680000000.0 -0.0434838238774049 -0.021814720614570942
1700000000.0 0.000999594125309284 -0.033193145580976434
1720000000.0 -0.013873065324039946 9.201228989242646e-06
1740000000.0 0.008428043337004483 0.00017810584816430646
1760000000.0 -0.01727365616930809 0.024007934820244183
1780000000.0 0.041447542366263565 -0.04590196107262458
1800000000.0 -0.0883703051191573 -0.04256372981741753
1820000000.0 0.1259367006540461 -0.04786975995992565
1840000000.0 0.1644094115888199 0.05786042585787412
1860000000.0 -0.13608862271188563 0.1626425325955287
1880000000.0 -0.027069522203124478 -0.24974945672813062
1900000000.0 0.18707379675678343 0.22555151510411864
1920000000.0 -0.32246233005519 -0.02625448199215056
1940000000.0 0.2673802781316395 0.228426328970644
1960000000.0 0.13924185430759917 -0.3477202545013577
1980000000.0 -0.36497418641167384 -0.13678528525600547
2000000000.0 -0.4029806653505589 -0.0408107958771817
2020000000.0 -0.3132392943911812 0.2773442636914956
2040000000.0 -0.2051018427068656 0.3766370628749044
2060000000.0 0.2896838143491344 0.3239136420337601
2080000000.0 0.42742632361342714 -0.0788115951451432
2100000000.0 0.2403144899686013 -0.35530782184873483
2120000000.0 -0.08027784472085447 -0.4120686526118253
2140000000.0 -0.29268691163925764 -0.2853157494955974
2160000000.0 0.0256191254540177 -0.39439280602618987
2180000000.0 -0.2741986588963554 -0.26508759112977043
2200000000.0 -0.3503789335580474 0.11190313580571506
2220000000.0 -0.18339616870586276 0.30334459806936864
2240000000.0 0.04313404485892833 0.34660881732456655
2260000000.0 0.18182103916277836 0.29738735083059736
2280000000.0 0.34231130324043507 0.08712008473087177
2300000000.0 0.15203625408307453 -0.33356521775868575
2320000000.0 -0.34238526065159064 -0.18371241679913014
2340000000.0 -0.13979444551699655 0.39631520583819874
2360000000.0 0.4411037001710532 -0.1352369239403714
2380000000.0 -0.5081339229024483 -0.027727640481366625
2400000000.0 0.5588951389349832 -0.0026886906799011004
2420000000.0 -0.49272485896293056 0.35937534862538684
2440000000.0 0.20601840992629927 -0.6231903286391758
2460000000.0 0.3153461266956196 0.61906808129222
2480000000.0 -0.5687847632584768 -0.4483385207505428
2500000000.0 0.596745015057639 0.44148796640812443
2520000000.0 -0.5055478636759757 -0.5567064953004904
2540000000.0 0.16780424424677734 0.7342834853909531
2560000000.0 0.3599749983336962 -0.6542160376889798
2580000000.0 -0.728607997971221 0.06417664794627456
2600000000.0 0.4170174883953018 0.5718094791766746
2620000000.0 0.1703520073151704 -0.6565161159616191
2640000000.0 -0.15233958372139664 -0.6251756922248644
2660000000.0 -0.35710532427745223 0.4816914983126523
2680000000.0 0.5352644477862889 -0.14392812242152175
2700000000.0 -0.4588324719891317 -0.21584864147209423
2720000000.0 0.2689264297254688 0.3710647758307346
2740000000.0 0.060315527658035696 -0.4075065922482024
2760000000.0 -0.26967623434571897 0.25454690995289675
2780000000.0 0.3396768185629938 -0.0077488815066067375
2800000000.0 -0.2967311110451137 -0.10579070987284418
2820000000.0 0.29577609037866626 0.05733271155481898
2840000000.0 -0.29450508484937415 0.008026898400819991
2860000000.0 0.11232117281349302 -0.2737329884555203
2880000000.0 0.26837460846401207 0.13278306249367047
2900000000.0 -0.1762194672673128 0.24618789827938375
2920000000.0 0.12326533429598066 -0.2798168522851617
2940000000.0 -0.21848935667717947 0.21619897557616624
2960000000.0 0.1767879056803696 0.25084934391330727
2980000000.0 0.16159856350897014 0.2594620297221886
3000000000.0 -0.07757958160529634 0.2938609997663267
3020000000.0 -0.2676725450218877 -0.14057498356990228
3040000000.0 0.29867692158798237 0.010514926652216454
3060000000.0 -0.28962482469484074 -0.07134461973896766
3080000000.0 0.27876564497556905 0.10000708162007474
3100000000.0 -0.25534251531783003 -0.14472501300591015
3120000000.0 0.29124594655928365 0.015227589989802358
3140000000.0 -0.13452983143961475 0.2527792640230191
3160000000.0 -0.2454837301242342 -0.12036536701726909
3180000000.0 0.21463806573687066 0.14346518706822303
3200000000.0 -0.00044655907111535386 0.23319380920011085
3220000000.0 -0.131241356306844 0.15742937503330215
3240000000.0 -0.15513598200591625 -0.07221155825101815
3260000000.0 0.11868548407935782 -0.06457177426910922
3280000000.0 -0.050766292224435954 -0.08754856436809119
3300000000.0 -0.06856754524061424 -0.017582619664019233
3320000000.0 0.025681088642743145 0.0391841457716705
3340000000.0 -0.01950115041205769 -0.020331368871919005
3360000000.0 -0.000495997143590446 -0.014307550017617687
3380000000.0 0.0005322892702601326 0.0020401598095151005
3400000000.0 -0.012904952896337354 0.0026097610582461973
3420000000.0 -0.010723304225432034 0.025206974474005987
3440000000.0 0.030054069996452333 -0.02770070051925995
3460000000.0 -0.009752727654287242 -0.052975931084163784
3480000000.0 -0.04287053272903872 0.05126382311458829
3500000000.0 0.034976520313016034 -0.07325444869090385
3520000000.0 -0.05084952085302157 0.07883329671231096
3540000000.0 0.016599194822540415 -0.10553589643428751
3560000000.0 -0.01253704216338033 0.11840351663391219
3580000000.0 0.03646661406514932 -0.12689793288265128
3600000000.0 0.12157884636040968 0.08525952202947269
3620000000.0 -0.041624974922736806 0.15474785756773107
3640000000.0 -0.1669478732386363 0.04080295556092314
3660000000.0 -0.15294532055004595 -0.10082185959317347
3680000000.0 -0.020117390502384487 -0.18833045128324563
3700000000.0 0.006185688149788686 -0.19098502261870606
3720000000.0 0.15754444817641952 -0.1072917137297006
3740000000.0 0.18541022148830172 0.017462062940373207
3760000000.0 -0.18038886271160307 0.010569798900664618
3780000000.0 0.14936141673278963 -0.08528056307381805
3800000000.0 -0.15282814398308617 -0.060365176030401764
3820000000.0 -0.05270468932530633 0.14522003370218764
3840000000.0 -0.10012733471428913 0.1046864039846951
3860000000.0 0.14090511770076294 -0.024827827716328514
3880000000.0 0.05517930723137806 0.13892750953571678
3900000000.0 0.08646135365497903 0.13149210046812
3920000000.0 -0.012881918861555305 -0.16498155573949566
3940000000.0 0.17387834459168358 0.005706484964585389
3960000000.0 0.17841731441021952 0.02350425862802851
3980000000.0 -0.09696630310776216 -0.15147681828074963
4000000000.0 -0.1653110870106932 -0.041982737881967214
