!Created with skrf (http://scikit-rf.org).
# Hz S RI R 50.0 
!freq ReS11 ImS11
400000000.0 -0.7154954896722862 0.49735571587266353
420000000.0 0.18785567632656267 0.8473158782376164
440000000.0 0.8212357446971595 -0.18527273229359734
460000000.0 0.1200920330517849 -0.7933044300574553
480000000.0 0.7114298146789012 -0.1791567570085016
500000000.0 -0.5136995313592759 0.31328893668850516
520000000.0 0.47681301731233205 0.16706544311343632
540000000.0 -0.17286391757191968 0.38354581400047616
560000000.0 0.35690852447409455 0.025840336625147387
580000000.0 -0.32671305804386874 0.05454346603742272
600000000.0 0.0010120740942565572 0.3307247003179014
620000000.0 0.024579486620953214 -0.3425970091911731
640000000.0 -0.08802858763767196 -0.36137692232250546
660000000.0 -0.33657928969695156 -0.17909136073307302
680000000.0 0.23461738148727 0.3231199870032677
700000000.0 0.40011446234356796 0.07377490461344659
720000000.0 0.4100543889417089 0.046625471823706854
740000000.0 -0.40237172034653657 -0.10015658011115897
760000000.0 0.28283090602394245 0.2890424759819759
780000000.0 -0.3729502371475901 -0.04581655276720246
800000000.0 0.32072636692148954 0.1410781279572608
820000000.0 -0.01898789588118981 0.3029732396223918
840000000.0 -0.052170649956234307 -0.2552401040437548
860000000.0 0.0850813281901358 -0.19934413495681205
880000000.0 0.029973096547183584 0.16771351477770718
900000000.0 -0.10819660466489271 -0.008545458098948886
920000000.0 0.06884639968783968 0.015033574919573538
940000000.0 -0.04387630170451279 -0.012296698857976197
960000000.0 -0.05376052279433982 0.003977563320580315
980000000.0 -0.047991334547495844 0.04943551082417822
1000000000.0 -0.0768273455530881 -0.022484583681936482
1020000000.0 -0.06268633989777801 0.07027730709160662
1040000000.0 0.10617772807985666 -0.00803574022011984
1060000000.0 -0.02657919116870907 -0.14232824452167558
1080000000.0 0.1015195458016489 -0.12807866254872044
1100000000.0 -0.05207145080315026 -0.18227004101515962
1120000000.0 0.03877911154527498 0.20891742597877666
1140000000.0 0.24672155584204727 0.016247969599930922
1160000000.0 0.13418404407910253 -0.24467045912365348
1180000000.0 0.31345846303616387 -0.047223824030792096
1200000000.0 0.3021912198347168 0.16288738483102
1220000000.0 -0.35767895644027864 -0.09659891972495532
1240000000.0 0.3034691808065996 0.24621575070943885
1260000000.0 -0.06517793030562642 -0.4094694959817671
1280000000.0 -0.42697869556714724 0.028410965720239646
1300000000.0 0.30093366793455445 0.3190970840123842
1320000000.0 0.43475134907449664 0.07193967740444843
1340000000.0 0.43552159796875456 -0.05962440371114965
1360000000.0 0.4369069719552448 0.06782564449209805
1380000000.0 0.25615735706869636 -0.3588518943549795
1400000000.0 -0.4314420783345121 0.044187451583911
1420000000.0 0.35980543701378115 0.2070982293471501
1440000000.0 -0.09635206889111954 -0.3714945097686613
1460000000.0 -0.33738327035412413 0.07829593081973944
1480000000.0 0.07070051787463122 0.30244557938030253
1500000000.0 0.06915846839760742 0.2666638576997424
1520000000.0 -0.08256861724726058 0.23157608279803052
1540000000.0 0.21870198574288158 0.017321546255589224
1560000000.0 -0.18805368950366808 0.02168796684934777
1580000000.0 0.16772297634262018 0.010202159072655755
1600000000.0 0.11547655714570033 -0.08131969331246745
1620000000.0 0.07055448902849996 -0.09216646854494981
1640000000.0 0.09131415974627818 0.010097418732091759
1660000000.0 0.03563727060365924 0.05904475844892749
1680000000.0 -0.04469833279879568 -0.019684507719838082
1700000000.0 -0.027255283028084346 -0.018934635665045572
1720000000.0 -0.012148341809196567 -0.006279700140463066
1740000000.0 0.003924055530049831 0.007254230537292233
1760000000.0 -0.014482972752753898 0.026005477241989712
1780000000.0 0.052858293219236026 -0.03203601422442006
1800000000.0 -0.08319093419706095 -0.051670862825918804
1820000000.0 0.1247044766686581 -0.050188086898439045
1840000000.0 0.16169080885747533 0.06499140250722461
1860000000.0 -0.14878270504641766 0.1504111099116924
1880000000.0 -0.012258271059831391 -0.2507097069426801
1900000000.0 0.19420529192795336 0.2193511178356701
1920000000.0 -0.3223925774059695 -0.02493993286646949
1940000000.0 0.26913465848384793 0.22610830967839515
1960000000.0 0.15055080042599914 -0.3428956116238548
1980000000.0 -0.35983877486721844 -0.14926492488912887
2000000000.0 -0.40320353426319766 -0.03942356198022203
2020000000.0 -0.3157446812412991 0.27473753478042207
2040000000.0 -0.22001414061375743 0.3679761945151707
2060000000.0 0.2774654170343009 0.3345344573773483
2080000000.0 0.4322417450912628 -0.04560237662713104
2100000000.0 0.24779845035451503 -0.3505041236510332
2120000000.0 -0.14439628830730583 -0.39435660050658555
2140000000.0 -0.3187605807381008 -0.25657790102634404
2160000000.0 0.05279345434579625 -0.39240225177080706
2180000000.0 -0.25129494496988175 -0.28759313174632234
2200000000.0 -0.3652829339828207 0.04397492526361985
2220000000.0 -0.2289661475194275 0.27088795894739226
2240000000.0 0.05283040922377028 0.3446499653496588
2260000000.0 0.18824406530282917 0.2932922357445355
2280000000.0 0.3296343844743062 0.12670044056807944
2300000000.0 0.181839745340419 -0.3187301809047822
2320000000.0 -0.32619209007405225 -0.21135128269414682
2340000000.0 -0.18542980138615953 0.3769111415958301
2360000000.0 0.44667281909653617 -0.11410498692694986
2380000000.0 -0.5051198467943047 -0.0612148882538421
2400000000.0 0.5588982232298778 0.01045230204106185
2420000000.0 -0.5241351815416776 0.31275304228705275
2440000000.0 0.20157865327848512 -0.6249091242097985
2460000000.0 0.2893602616481766 0.6322065336457925
2480000000.0 -0.566213950735749 -0.4507380116756151
2500000000.0 0.5998928025018943 0.4374978887886202
2520000000.0 -0.5074632278719081 -0.5552988709227341
2540000000.0 0.1146956908104453 0.7446777120315762
2560000000.0 0.3684832226537971 -0.6504728337184498
2580000000.0 -0.7278319046178438 0.07659968567658815
2600000000.0 0.4237083793564113 0.5674779193658258
2620000000.0 0.21897023287609593 -0.642607419177122
2640000000.0 -0.08841139824695682 -0.6373297663402943
2660000000.0 -0.35412887155811745 0.4850692886122783
2680000000.0 0.5542518641035387 -0.028857700011112954
2700000000.0 -0.46685743073905056 -0.19883376429931043
2720000000.0 0.2300090515666197 0.39627544310224194
2740000000.0 0.09487505914962066 -0.40091266043696266
2760000000.0 -0.2786473863210656 0.2453453278732828
2780000000.0 0.34021079642497887 -0.0038164673029544545
2800000000.0 -0.28896541299243544 -0.12696977897648817
2820000000.0 0.292648569212211 0.07446651237105208
2840000000.0 -0.29528826624517757 0.0010039522522132097
2860000000.0 0.11176570551046856 -0.2744709286461984
2880000000.0 0.2745524977991472 0.120166847356427
2900000000.0 -0.17056723658550033 0.2504188286047103
2920000000.0 0.11423430211887606 -0.28328661087913
2940000000.0 -0.20670738910977027 0.2270595075856841
2960000000.0 0.18796755530930614 0.24158954083978293
2980000000.0 0.1750471601888652 0.25044498986538566
3000000000.0 -0.09750729413195205 0.28746167791675936
3020000000.0 -0.2610141804324603 -0.15067947888257374
3040000000.0 0.2978311984339922 0.0008683595434956186
3060000000.0 -0.2890753391353751 -0.07020642495714197
3080000000.0 0.278053372400858 0.10120107093164828
3100000000.0 -0.2582853410492724 -0.13949843710151785
3120000000.0 0.2913728996604394 -0.010518361488306318
3140000000.0 -0.11041114634735066 0.2641993528419286
3160000000.0 -0.24683663855224197 -0.1176680500642912
3180000000.0 0.22076073496317275 0.13316865763639799
3200000000.0 0.07895470815359187 0.2189105992153403
3220000000.0 -0.0892867471484458 0.18388090699411513
3240000000.0 -0.16971428032847313 -0.024858575599344436
3260000000.0 0.09681585690382935 -0.09510068611260654
3280000000.0 -0.07560267302069994 -0.06776195749145959
3300000000.0 -0.05206794112776566 -0.04929414189405141
3320000000.0 0.014441331739068131 0.04423875300040053
3340000000.0 -0.027541819982285578 -0.005573721491316989
3360000000.0 0.0023326234413698146 0.014179150322416718
3380000000.0 -0.0026919891971797223 -0.00014768253455772174
3400000000.0 0.0018275542142977407 0.012212955658638482
3420000000.0 0.009665752880946949 0.02533877504073217
3440000000.0 0.015490604798295702 -0.03781879590543531
3460000000.0 -0.039032580603820526 -0.0363749311864845
3480000000.0 -0.03875668284647939 0.05333461225713181
3500000000.0 -0.0020426366197145206 -0.08063594439761045
3520000000.0 -0.01984432319316047 0.09155431019704105
3540000000.0 0.003390566816837592 -0.1068445462200595
3560000000.0 0.03709782466999456 0.11328189511961143
3580000000.0 0.009219029541827501 -0.13150747297309276
3600000000.0 0.1455821363209229 0.03166039310478098
3620000000.0 0.04906251867717668 0.15374915208294607
3640000000.0 -0.1627019837027806 0.05533234593398415
3660000000.0 -0.16487624406205997 -0.08083742300868314
3680000000.0 -0.06522332847520196 -0.1778623189385999
3700000000.0 -0.033887181199915635 -0.18818150633436748
3720000000.0 0.12577160982809976 -0.1430835497940069
3740000000.0 0.18119777776075643 -0.04543805032405676
3760000000.0 -0.18085199016395956 0.013484334588016988
3780000000.0 0.16316481224332427 -0.058326114550440816
3800000000.0 -0.14225972703572173 -0.08392976276418769
3820000000.0 -0.07475746707556048 0.13541594262085654
3840000000.0 -0.11746347212996455 0.08494785359005914
3860000000.0 0.14333144800585682 0.0025806732891490544
3880000000.0 0.07540219438021957 0.1288900440509544
3900000000.0 0.11503914587738269 0.1081161641509023
3920000000.0 -0.033877174269862656 -0.16245539359189642
3940000000.0 0.1725075331618697 -0.018220586181236207
3960000000.0 0.17832481233458777 -0.011206361045337858
3980000000.0 -0.10377499882976689 -0.1452199910578475
4000000000.0 -0.16333262091795545 -0.04299273110552553
