!Created with skrf (http://scikit-rf.org).
# Hz S RI R 50.0 
!freq ReS11 ImS11
400000000.0 -0.725029562487851 0.48607171555981177
420000000.0 0.12918813937096135 0.8594482098792396
440000000.0 0.836826025620482 -0.10262328360909286
460000000.0 0.12684498934279778 -0.7922072341916577
480000000.0 0.7213266643140674 -0.1345342199894902
500000000.0 -0.5138355990281092 0.3135288886651802
520000000.0 0.48186720566091473 0.15250770303024047
540000000.0 -0.18881597714397244 0.3761844475186032
560000000.0 0.34378109259384376 0.10037418903052718
580000000.0 -0.3307360475520261 0.013661182617591871
600000000.0 0.0039796921304886225 0.3288801799528588
620000000.0 0.041881620281391606 -0.33951360223895777
640000000.0 -0.1052804136083738 -0.3556305930655077
660000000.0 -0.35595035758734445 -0.13266271686231448
680000000.0 0.29869814670590084 0.26269711883171004
700000000.0 0.4061265789762979 -0.008177436609456794
720000000.0 0.41005213085354375 -0.045378590787501685
740000000.0 -0.4136069185237224 0.016139548671748855
760000000.0 0.29804941409606195 0.27380317681383454
780000000.0 -0.37262591760602254 -0.05518777509668219
800000000.0 0.31366562417004434 0.15758630677567997
820000000.0 -0.056791616507114326 0.29913288188801135
840000000.0 0.028476111480067266 -0.2594518554643238
860000000.0 0.17645226943440256 -0.1251766288993628
880000000.0 -0.05455491975872056 0.15932490907652974
900000000.0 -0.0995554938551539 -0.03639896427823937
920000000.0 0.05733607070371496 -0.03675181015707138
940000000.0 0.040773766801122976 0.02047616698158938
960000000.0 0.03241438171136944 0.04473455292498727
980000000.0 -0.017699736884040737 0.06895878911251795
1000000000.0 -0.05637845675523183 -0.060031010357809625
1020000000.0 -0.09579506335271736 0.009111759278563492
1040000000.0 0.05016812353086806 0.09535285993439059
1060000000.0 0.10121607623132071 -0.10348840842162116
1080000000.0 0.1594375534087443 -0.0293981396777387
1100000000.0 0.02347898186361805 -0.18583690256220262
1120000000.0 0.02560999449177703 0.20817863794684596
1140000000.0 0.24350705318859256 0.012398715349347207
1160000000.0 0.0698984258306554 -0.2666744192384019
1180000000.0 0.28352708993221915 -0.13400722739697435
1200000000.0 0.33795562925828726 0.03835264195329406
1220000000.0 -0.36349126069880505 0.0628831050945824
1240000000.0 0.36651156677491786 0.1336298065380015
1260000000.0 -0.16031667974247574 -0.38195211661362327
1280000000.0 -0.40320266441828434 0.14358777270160872
1300000000.0 0.3552140201091088 0.2582680259182042
1320000000.0 0.4413211160809789 0.014196112601576591
1340000000.0 0.42354651089797246 -0.12211633491307411
1360000000.0 0.4399586965666588 0.05556739789388704
1380000000.0 0.2738414723074817 -0.34646864841466535
1400000000.0 -0.4341770049878289 0.003060449804014827
1420000000.0 0.31396970998813456 0.2719151690882074
1440000000.0 -0.05105848994615244 -0.3796683622027917
1460000000.0 -0.34609081216846765 -0.009022595050204725
1480000000.0 -0.07568578456327628 0.3003273760513257
1500000000.0 -0.0027735884093195427 0.2731466055633353
1520000000.0 -0.13204894056992816 0.20485355454813217
1540000000.0 0.21287168680403815 0.043862950560321225
1560000000.0 -0.1870749398288216 0.00978006284766293
1580000000.0 0.16413826790684688 -0.02578278462110501
1600000000.0 0.10754335433141647 -0.09002841442648823
1620000000.0 0.026426726269577646 -0.11239353829545258
1640000000.0 0.07416762813503687 -0.054158247500111036
1660000000.0 0.06766937614436688 -0.017790922314779075
1680000000.0 -0.04385888263976197 0.02421254435563221
1700000000.0 -0.030165017886695705 -0.017221875570771962
1720000000.0 0.015228250909571011 -0.0012421196626831682
1740000000.0 -0.006400601513280623 0.001383021014215547
1760000000.0 0.02790886956609323 0.0048790666132296195
1780000000.0 -0.004502809727855241 -0.06161527623495552
1800000000.0 -0.09758808187261858 0.011082849756721334
1820000000.0 0.09445076891407544 -0.09701368200017618
1840000000.0 0.17285749516817103 0.03050144859602478
1860000000.0 -0.13130347918487112 0.16775478548712586
1880000000.0 -0.012959107879264763 -0.25200836651924957
1900000000.0 0.15617048678191406 0.24910576449428176
1920000000.0 -0.31076801737052384 -0.09156467976142797
1940000000.0 0.2404378797291755 0.25674935110471864
1960000000.0 0.18313410817420078 -0.32667082057695807
1980000000.0 -0.3528495066016313 -0.16410073648479642
2000000000.0 -0.39968099333009544 -0.061258043065236176
2020000000.0 -0.3153964043022779 0.2734944259480694
2040000000.0 -0.20362267478819263 0.3762338582616031
2060000000.0 0.3121294691034995 0.3005821994339362
2080000000.0 0.4133635429936746 -0.13114073822711228
2100000000.0 0.20740120036962786 -0.3750044655998075
2120000000.0 -0.12906993568270367 -0.3994424128495287
2140000000.0 -0.3298469958134677 -0.24094845536816228
2160000000.0 -0.028175965978472703 -0.39465060428026494
2180000000.0 -0.2920686425754838 -0.24531651883392303
2200000000.0 -0.35116244415094877 0.1124246737756767
2220000000.0 -0.22721940046857786 0.2738575239716415
2240000000.0 0.010190707907286559 0.3499752846095939
2260000000.0 0.15691557305544102 0.31310133032343124
2280000000.0 0.32276479593173213 0.14626743658566468
2300000000.0 0.16861529744164605 -0.3270985138560847
2320000000.0 -0.3244880653640995 -0.21500276394011145
2340000000.0 -0.196295399714793 0.37190905823182246
2360000000.0 0.4527688826753916 -0.08801241385734972
2380000000.0 -0.503429507030421 -0.07281191846580316
2400000000.0 0.5579193065631839 0.023253402493529002
2420000000.0 -0.4943155681820117 0.35581963896772023
2440000000.0 0.14675414638567782 -0.6388475879277102
2460000000.0 0.3418734534896749 0.603776124522391
2480000000.0 -0.5853096612405577 -0.425530944156624
2500000000.0 0.6170723816801509 0.41197519895421775
2520000000.0 -0.5764439888851918 -0.4822877754364601
2540000000.0 0.21374259861399095 0.7213271243963145
2560000000.0 0.28796505250970295 -0.6888575092047763
2580000000.0 -0.7156823820154871 0.1545736509445334
2600000000.0 0.49791256490696995 0.5050763002006573
2620000000.0 0.19348220710736924 -0.6518136076963802
2640000000.0 -0.14582329777580597 -0.6284750223943981
2660000000.0 -0.36583114295735913 0.47769243872233774
2680000000.0 0.5453014422367457 -0.10821933301683323
2700000000.0 -0.4535851116680817 -0.23006290777161653
2720000000.0 0.22659068349239192 0.3999037431058077
2740000000.0 0.17040806007439635 -0.3757996010579226
2760000000.0 -0.3194085082288569 0.1897366565037617
2780000000.0 0.33744513762414324 0.044967678891102245
2800000000.0 -0.2667666771538177 -0.1683456384176296
2820000000.0 0.28087309991664805 0.10884863771266312
2840000000.0 -0.29363964731408276 -0.021915248129094237
2860000000.0 0.13204744724896145 -0.2643767112187819
2880000000.0 0.2681839238772083 0.131143194013417
2900000000.0 -0.16597189555245825 0.2520474570921651
2920000000.0 0.09392967530425893 -0.289756792192492
2940000000.0 -0.13970467653724264 0.27241151833681637
2960000000.0 0.22137569253641698 0.21109745673430047
2980000000.0 0.2294629213639655 0.20218199406443935
3000000000.0 0.00233835498774662 0.3038597539257321
3020000000.0 -0.29216349247087836 -0.07558532864389876
3040000000.0 0.29116430946764016 -0.06392329293006263
3060000000.0 -0.29545175577656435 0.04021115309752988
3080000000.0 0.29618097877645366 0.01094563141890142
3100000000.0 -0.282913476618293 -0.0808126878377467
3120000000.0 0.27722194300332387 -0.09324852525036458
3140000000.0 -0.08279324991805714 0.2751663496798994
3160000000.0 -0.263660213240797 -0.07640882885757863
3180000000.0 0.244273939704319 0.08552975360009617
3200000000.0 0.03596663784109597 0.23180272591642026
3220000000.0 -0.11770678933869008 0.16933959981253122
3240000000.0 -0.13985832534186343 -0.10131576011514255
3260000000.0 0.13183385911464518 -0.03604907184333247
3280000000.0 -0.020166346073485223 -0.10036178125986615
3300000000.0 0.012737343078241882 -0.07123839680615993
3320000000.0 -0.040812503783643636 0.0247731387670023
3340000000.0 0.02858971570931023 0.007867916274567607
3360000000.0 -0.00782055899023572 0.014021762395358028
3380000000.0 -0.004843658040138446 0.0004792251860399464
3400000000.0 -0.007424940735218454 -0.00941585974791041
3420000000.0 -0.017696786133809584 0.019806639068298392
3440000000.0 -0.015486551676051757 0.03775534572136746
3460000000.0 -0.019459477144404717 0.04932765399329296
3480000000.0 0.028503276959197445 0.05974524379779864
3500000000.0 -0.0796821783644436 -0.015387304051574572
3520000000.0 0.07413718244863163 0.05733160366841303
3540000000.0 -0.10489479559262417 -0.022503904935877575
3560000000.0 0.11930216145243269 -0.011207391954006265
3580000000.0 -0.11418756258407957 -0.06787923056890058
3600000000.0 0.14075476018257022 -0.05197561429351736
3620000000.0 0.09078993295054046 0.13430203059782966
3640000000.0 -0.14932646625154034 0.08908791019372429
3660000000.0 -0.17022481626018998 -0.07078474921526977
3680000000.0 -0.06615422460904248 -0.1787576756653208
3700000000.0 -0.02630655165329909 -0.1908487403267798
3720000000.0 0.14081480504972252 -0.13058211544232529
3740000000.0 0.18813329546626337 -0.01018824814485708
3760000000.0 -0.1827274819888194 -0.008930835160472519
3780000000.0 0.16566382459934872 -0.05291402234791312
3800000000.0 -0.13924555356202242 -0.09110178069703216
3820000000.0 -0.10164435008255333 0.11864161491222469
3840000000.0 -0.12112157093115815 0.08164174797874338
3860000000.0 0.14383153610189142 0.017854112954366785
3880000000.0 0.0430212840851735 0.14428235362195577
3900000000.0 0.07573915319931382 0.1396952923389979
3920000000.0 0.007724503994721409 -0.16691927531520503
3940000000.0 0.16422502687611854 0.05996803968376581
3960000000.0 0.16649937065553813 0.06918367133011621
3980000000.0 -0.006002732925578189 -0.1802280229816404
4000000000.0 -0.08696157113531008 -0.14835594620238798
