!Created with skrf (http://scikit-rf.org).
# Hz S RI R 50.0 
!freq ReS11 ImS11
400000000.0 -0.6784614299383626 0.5503587314286181
420000000.0 0.11808279366932 0.8617815107451561
440000000.0 0.834703662642509 -0.11964853950777367
460000000.0 0.1523552388844324 -0.788827149191439
480000000.0 0.7206444588771219 -0.13954813792383847
500000000.0 -0.5335272913625578 0.2776347156530795
520000000.0 0.47142712127906455 0.18359226307870696
540000000.0 -0.16057951772725082 0.38901902840357305
560000000.0 0.34958470312832773 0.076592586495868
580000000.0 -0.33059971943915045 -0.010253935452179895
600000000.0 0.011290412448486933 0.3296971539692597
620000000.0 0.024317377095652366 -0.3413627818198487
640000000.0 -0.10899255508825072 -0.3543989505515889
660000000.0 -0.3590237890189258 -0.12383266136888682
680000000.0 0.2850215591762394 0.27867275798128793
700000000.0 0.4064374347528337 -0.013775208061598702
720000000.0 0.4105229012096538 -0.043017075432222884
740000000.0 -0.41425403337477956 -0.029519080251576308
760000000.0 0.2928266323461714 0.2794847268443084
780000000.0 -0.37500163793567276 -0.032055994473531184
800000000.0 0.31969722982981114 0.14571271074878756
820000000.0 -0.06142816617566835 0.298081811095756
840000000.0 0.01900582638605571 -0.2603253009509933
860000000.0 0.1488703084768639 -0.1572311909413836
880000000.0 -0.05404657278047751 0.15987725075196138
900000000.0 -0.09203613880962132 -0.05358877202921037
920000000.0 0.06867690537683961 -0.0011960717931953702
940000000.0 0.011128487273474354 0.04379544669872192
960000000.0 0.023098126340695385 0.04947616194959556
980000000.0 -0.014418126429134408 0.06920488393970022
1000000000.0 -0.053061715794944696 -0.06231703250260324
1020000000.0 -0.09585954361724194 -0.006191284599992798
1040000000.0 0.043525497619985344 0.09801291218180799
1060000000.0 0.08444951238847014 -0.11726869449179146
1080000000.0 0.15306979589702524 -0.0528594046941029
1100000000.0 0.007923030325283301 -0.18710017400288734
1120000000.0 0.02411412403795708 0.20851808864455051
1140000000.0 0.24419727433782598 -0.003073752764899535
1160000000.0 0.10779203865727258 -0.253449176616256
1180000000.0 0.2959723624057128 -0.10428162354814803
1200000000.0 0.33612177780610336 0.05665086730056259
1220000000.0 -0.3651005515406892 0.05528361626966508
1240000000.0 0.35789553945582986 0.15573287393483495
1260000000.0 -0.13715246578591847 -0.3911808146253578
1280000000.0 -0.4042793612827705 0.14068072956679573
1300000000.0 0.3498104730361646 0.26541332244682625
1320000000.0 0.44086003735844187 0.019325073851848333
1340000000.0 0.43226247891831365 -0.08455732018356787
1360000000.0 0.43864712913354104 0.06323768233310584
1380000000.0 0.2660604114542374 -0.3521014870063863
1400000000.0 -0.43383973921727825 0.0015013962500956273
1420000000.0 0.3231492802748448 0.2608516616172191
1440000000.0 -0.05388640408744429 -0.37933922667427283
1460000000.0 -0.34614758615189234 -0.010999988551665256
1480000000.0 -0.13511328973242412 0.27876408823353915
1500000000.0 -0.02716372435827377 0.2720378612116066
1520000000.0 -0.12988116081794107 0.20657166107438427
1540000000.0 0.21215995202938087 0.04805162997538167
1560000000.0 -0.1877881735777613 -0.0022277841240337035
1580000000.0 0.16573286781880248 -0.01659490171066315
1600000000.0 0.0994778443828859 -0.09862191864978981
1620000000.0 0.022876756725787643 -0.11270331969279786
1640000000.0 0.0742050599059359 -0.0541174391989574
1660000000.0 0.06032828697338238 -0.03465519001252108
1680000000.0 -0.04149216205906586 0.02714757179791169
1700000000.0 -0.004128427764711546 -0.033866491741699145
1720000000.0 0.006634874977005033 -0.013403915268866853
1740000000.0 0.007252121374461425 0.00044867916468440246
1760000000.0 0.021489438702693407 0.019001749614603214
1780000000.0 -0.02860760236651855 -0.05472650801228376
1800000000.0 -0.0934700607455002 0.031236753469594244
1820000000.0 0.09464812227274662 -0.09653171655985766
1840000000.0 0.1749251603428199 0.007481078879328439
1860000000.0 -0.1201025130998068 0.17571144701031172
1880000000.0 -0.026523845210224165 -0.250598363419539
1900000000.0 0.18337011590675625 0.2293692713630621
1920000000.0 -0.31959518909247653 -0.052501902806754056
1940000000.0 0.23898612691792748 0.25812367343149745
1960000000.0 0.17868914678774497 -0.3290282744153959
1980000000.0 -0.3472337201337299 -0.17623099368714917
2000000000.0 -0.39684457667394984 -0.07751368890088954
2020000000.0 -0.3409867825577092 0.24110140053829549
2040000000.0 -0.2265288396888351 0.36299075709626283
2060000000.0 0.2765716626771397 0.3337575479133175
2080000000.0 0.4224549020401163 -0.09678458668524888
2100000000.0 0.21074334580742884 -0.3723208659348169
2120000000.0 -0.13188744466673 -0.3975358488651387
2140000000.0 -0.3181233111022099 -0.2553177428032185
2160000000.0 -0.026515121550988525 -0.39371381194960353
2180000000.0 -0.3065525936284754 -0.2260716625613375
2200000000.0 -0.33939775938646505 0.14151210665684458
2220000000.0 -0.15013402495472322 0.3214161929110941
2240000000.0 0.049681937846241093 0.3460159764262152
2260000000.0 0.19133452497692716 0.2923030170728909
2280000000.0 0.34406282510591396 0.08228929705078011
2300000000.0 0.14722813666765824 -0.3364553966620217
2320000000.0 -0.3365161814300614 -0.1952638081494298
2340000000.0 -0.20115895763545913 0.3685673837049904
2360000000.0 0.4507993738343504 -0.09707430782696184
2380000000.0 -0.5046581438427067 -0.0652274892040033
2400000000.0 0.5578886945148629 0.026712782693627257
2420000000.0 -0.5127659196170783 0.32943809097248794
2440000000.0 0.18539055590407436 -0.6289625887280579
2460000000.0 0.287444744585558 0.6318191980667992
2480000000.0 -0.5741267726638108 -0.43996863806504855
2500000000.0 0.6511724844239897 0.35411533131594686
2520000000.0 -0.5620383234625347 -0.49909929916105306
2540000000.0 0.21331922135733336 0.7219259077482705
2560000000.0 0.3051739465800875 -0.6813048325488602
2580000000.0 -0.729097210664583 0.0614862452558414
2600000000.0 0.5332495641438132 0.4656677938478902
2620000000.0 0.07585522915995689 -0.67501398741909
2640000000.0 -0.17081664557673934 -0.6212345038144967
2660000000.0 -0.31528142804975423 0.5115749805016312
2680000000.0 0.5346180765706597 -0.15046010863563405
2700000000.0 -0.47117376706927383 -0.1908461524684025
2720000000.0 0.2807010226854098 0.36377204362164817
2740000000.0 0.06517223888206962 -0.40786957824096953
2760000000.0 -0.2747578699127581 0.2503487151271159
2780000000.0 0.33959175012563386 0.02587676054761915
2800000000.0 -0.27668256919423806 -0.15234846087532702
2820000000.0 0.2847121709622387 0.09976975516000877
2840000000.0 -0.2918458646038803 -0.03887528774088998
2860000000.0 0.1533963936175109 -0.2525960672908689
2880000000.0 0.27046669296787873 0.12652057724592328
2900000000.0 -0.17545536691968214 0.24561001024147555
2920000000.0 0.10150444180363483 -0.2868770101458806
2940000000.0 -0.19268877370426923 0.23780275815046611
2960000000.0 0.22985582781301375 0.20186429591397637
2980000000.0 0.2430586188408438 0.184239538585812
3000000000.0 -0.02740335265017509 0.30154735867825855
3020000000.0 -0.2917903213224195 -0.07612876510302109
3040000000.0 0.2727828910839315 -0.12208077051423301
3060000000.0 -0.29531133366629836 0.039551287644174954
3080000000.0 0.29573321578267153 -0.0172734457620871
3100000000.0 -0.2880078191343823 -0.06070929280441547
3120000000.0 0.2781759390890362 -0.09079134620860604
3140000000.0 -0.02701821715670331 0.2861663260917809
3160000000.0 -0.2668636295699478 -0.06440261832022615
3180000000.0 0.23635835670961947 0.10733913241727303
3200000000.0 0.05434648492863421 0.22857030176675297
3220000000.0 -0.11604438901769289 0.170631694315587
3240000000.0 -0.14226107713359673 -0.09782473811177918
3260000000.0 0.13264525708146546 -0.03280557778239902
3280000000.0 -0.026045967291913753 -0.09921587125809377
3300000000.0 -0.013542599927029827 -0.07064908415501173
3320000000.0 -0.04553840310232965 0.01518569615951974
3340000000.0 0.029525013408880474 -0.00040455037856999685
3360000000.0 -0.011299979331544457 0.010782276922657864
3380000000.0 0.0001492107989166345 0.0038456611976600986
3400000000.0 -0.0056331124229954226 0.011138123093032245
3420000000.0 0.013266525281588703 -0.023392051963198317
3440000000.0 -0.04080283803611085 0.0003313116969694535
3460000000.0 -0.0447465054129087 0.02982271376119851
3480000000.0 0.031041192457324687 0.05894961055182883
3500000000.0 -0.048420716301621904 -0.06510176916221785
3520000000.0 0.05335914845443562 0.07727147685886908
3540000000.0 -0.07612848838997277 -0.07525863804035854
3560000000.0 0.06405637616140478 0.10056794350922452
3580000000.0 -0.033806691275875156 -0.12808960762516142
3600000000.0 0.1471447827267651 0.0236269025254767
3620000000.0 0.02069244195261181 0.15945932700490476
3640000000.0 -0.14170961513429134 0.09876778460108147
3660000000.0 -0.17797162141766354 -0.04678467860222315
3680000000.0 -0.07218683876524111 -0.17610416998028977
3700000000.0 -0.047937816314768594 -0.18621008763128086
3720000000.0 0.13781237869321275 -0.13330808534348879
3740000000.0 0.1855797362940947 -0.02541380535413211
3760000000.0 -0.1793732079646086 0.03097036215632598
3780000000.0 0.13562756972622986 -0.10770250309294988
3800000000.0 -0.16192192868654307 -0.035309775683361966
3820000000.0 -0.047297659699018786 0.14835388670354868
3840000000.0 -0.08894049719057824 0.1158704851861263
3860000000.0 0.13843457425307445 -0.04087152520688776
3880000000.0 0.07082898353285713 0.13274660246969405
3900000000.0 0.09407009893019481 0.12794100211292678
3920000000.0 -0.02038580116924908 -0.16569177747661673
3940000000.0 0.17516145336379904 0.004049270838336806
3960000000.0 0.18062315812369747 0.015636233467322447
3980000000.0 -0.07537052691293214 -0.1646836153280627
4000000000.0 -0.1428110231867353 -0.09561105661433685
