!Created with skrf (http://scikit-rf.org).
# Hz S RI R 50.0 
!freq ReS11 ImS11
400000000.0 -0.734687896675004 0.4681731206633775
420000000.0 0.0997069201123626 0.8635238582630331
440000000.0 0.8381063591336246 -0.09517766843371399
460000000.0 0.11853975886785674 -0.7943393084741264
480000000.0 0.7214988837961529 -0.1296926634746065
500000000.0 -0.557325345473922 0.22474180171121644
520000000.0 0.5007153861186003 0.085036964126488
540000000.0 -0.09681190393874484 0.4078596807442873
560000000.0 0.32234119558338836 0.15430264997070775
580000000.0 -0.3212610231510467 -0.08299125564718726
600000000.0 0.09523985966311584 0.31568063190611717
620000000.0 0.0645573386384827 -0.33474159366215495
640000000.0 -0.09900736796925956 -0.35740086851801706
660000000.0 -0.35170438439894014 -0.14327823061208164
680000000.0 0.2811706850124796 0.2823654517352951
700000000.0 0.4052697290293034 -0.014215947689034685
720000000.0 0.41096551539079695 -0.030871641909760595
740000000.0 -0.41168262404869455 -0.054183948587731595
760000000.0 0.3073442914301107 0.26306838131646315
780000000.0 -0.3752139898038097 -0.034174377866446
800000000.0 0.3162005353736691 0.15290220618415598
820000000.0 -0.05850323371925214 0.2994002031751601
840000000.0 0.0601548102668984 -0.2541952708916246
860000000.0 0.18475574183803278 -0.112957457918119
880000000.0 -0.09251534990928068 0.1410151553154618
900000000.0 -0.09962901074076036 -0.03603572444708176
920000000.0 0.06261910814691873 -0.026608617420607657
940000000.0 0.04471047631398445 0.008225136911421438
960000000.0 0.04411325121056957 0.03343958996565934
980000000.0 -0.0005233296779041212 0.07079268585184502
1000000000.0 -0.06310914690057426 -0.053025532600521744
1020000000.0 -0.0965996785352291 0.0016086933021543844
1040000000.0 0.05961564030431236 0.08977167357515882
1060000000.0 0.11400708468212988 -0.08916020120940132
1080000000.0 0.1607473870030768 -0.020718584740965267
1100000000.0 0.02231318744118596 -0.18608798937729448
1120000000.0 0.014718403564972336 0.2091997334342119
1140000000.0 0.24273277641916563 0.023462838222387605
1160000000.0 0.08389943324767997 -0.26249536434965587
1180000000.0 0.2833956058140873 -0.13399958248075156
1200000000.0 0.3397328674646766 0.02073814625495952
1220000000.0 -0.3632031726035374 0.06316813582893897
1240000000.0 0.36772689223047067 0.12995019016126594
1260000000.0 -0.1622205904886246 -0.3811024204431918
1280000000.0 -0.40594729296520926 0.1355756802743046
1300000000.0 0.3521245941301299 0.26249696122722577
1320000000.0 0.44137232570445095 0.012685766132893706
1340000000.0 0.4227994637372277 -0.12423372631007765
1360000000.0 0.4418025504687764 0.03829592533075304
1380000000.0 0.26321180575010494 -0.35464605308435126
1400000000.0 -0.4338048085835331 0.015588952258297536
1420000000.0 0.3206119199189877 0.2638505513030489
1440000000.0 -0.034527122929864686 -0.3818729105318795
1460000000.0 -0.3458213321086961 0.015473635891832826
1480000000.0 -0.03027985733998269 0.3081461504984169
1500000000.0 -0.0002121614345793234 0.273750637684704
1520000000.0 -0.10398405563898361 0.22020391899193645
1540000000.0 0.21425769538215944 0.03734749026104866
1560000000.0 -0.18720633393413555 0.006859563735816327
1580000000.0 0.16636002510379097 -0.006173551639082248
1600000000.0 0.09410734936103925 -0.10384133830922976
1620000000.0 0.037639426272819736 -0.10899982403581318
1640000000.0 0.07998740617730768 -0.04493595675241711
1660000000.0 0.06953190412688656 0.0035444974880478736
1680000000.0 -0.04807715818743829 0.013380125631099837
1700000000.0 -0.034652746383244865 -0.0002009674431296427
1720000000.0 0.014413937283047362 -0.004003261022463937
1740000000.0 0.0006432661638842014 0.006617727379391782
1760000000.0 0.026978149657513807 0.00967090058786588
1780000000.0 0.014398384475728155 -0.06018720391897827
1800000000.0 -0.09635083921287653 -0.01826879295299627
1820000000.0 0.10736972096447411 -0.08212486638050559
1840000000.0 0.167535904039584 0.05150106157339228
1860000000.0 -0.1438055903283776 0.15681681711630777
1880000000.0 0.004231591496135434 -0.251936299350834
1900000000.0 0.16339750957023744 0.24427261686120222
1920000000.0 -0.31440582861321015 -0.07804033491557832
1940000000.0 0.2508382240723394 0.24640536576343494
1960000000.0 0.16497941690203682 -0.33634182434848897
1980000000.0 -0.3538729025941006 -0.16258685254133773
2000000000.0 -0.4025657556407236 -0.03984809027191941
2020000000.0 -0.29503889464623334 0.2956148641700143
2040000000.0 -0.18824285644404304 0.3844271761490272
2060000000.0 0.322041463200221 0.29055823253415397
2080000000.0 0.41184183925869355 -0.13743413922831021
2100000000.0 0.22346507294497941 -0.3663151352386159
2120000000.0 -0.16474987724257428 -0.3864308461337587
2140000000.0 -0.2891749539954501 -0.28934501552822
2160000000.0 0.02990710547895206 -0.39514285721313236
2180000000.0 -0.23780794374696496 -0.29867786616519865
2200000000.0 -0.36356907124200555 0.061853791716261056
2220000000.0 -0.21390822088783593 0.28421381901215803
2240000000.0 0.0033267575076699803 0.34999758361065164
2260000000.0 0.1478466853267256 0.31740106807600027
2280000000.0 0.32775749820522176 0.13529579891707577
2300000000.0 0.18390511839358636 -0.31877258954570153
2320000000.0 -0.3231484848423234 -0.21680794858025454
2340000000.0 -0.223315507920234 0.35547537015134456
2360000000.0 0.4513260004462038 -0.09453077298376587
2380000000.0 -0.5052738581753285 -0.060233206993435554
2400000000.0 0.5584557999324897 -0.008020146704406914
2420000000.0 -0.4864281441189374 0.3668945287365837
2440000000.0 0.10294536977671409 -0.6476384735590308
2460000000.0 0.3622160771134984 0.5922824714407463
2480000000.0 -0.6210949678049533 -0.37099723872514967
2500000000.0 0.6690912969136014 0.320126958829363
2520000000.0 -0.6011286112217943 -0.4516205196768427
2540000000.0 0.23206225847842915 0.7157191794716787
2560000000.0 0.26636851447687004 -0.697566696170093
2580000000.0 -0.7278265067982419 0.08110058310933026
2600000000.0 0.5317981921778356 0.4692249840485903
2620000000.0 0.1188341366138216 -0.6696982225990632
2640000000.0 -0.08379999990828753 -0.6398891895628191
2660000000.0 -0.3715893661617776 0.4734265209919328
2680000000.0 0.550042180243571 -0.08330019472599864
2700000000.0 -0.44537658181575585 -0.2464308717011124
2720000000.0 0.2123258939003598 0.4079833996523254
2740000000.0 0.15317045573906352 -0.3835445297312551
2760000000.0 -0.3065476891350321 0.21070118587682066
2780000000.0 0.3338776340507658 0.06657034805659105
2800000000.0 -0.25821561222136824 -0.18148887382973827
2820000000.0 0.280152415531353 0.11064410004746075
2840000000.0 -0.29186285444065785 -0.036964565382850686
2860000000.0 0.13835678089571798 -0.26062504715548834
2880000000.0 0.27110751156432916 0.12526460345704035
2900000000.0 -0.1782158579663792 0.2434559201008252
2920000000.0 0.10954349891667246 -0.2842149814079344
2940000000.0 -0.15147422788197062 0.26648862074465357
2960000000.0 0.20388212965577904 0.22859621495862437
2980000000.0 0.21767760620888685 0.2139309225902435
3000000000.0 -0.028676102822194096 0.3026216204824923
3020000000.0 -0.2930209734909793 -0.07145090131827186
3040000000.0 0.2936807166539214 -0.050653211822238385
3060000000.0 -0.2977202942570375 -0.009658161380615015
3080000000.0 0.2965333056810316 0.0036231610185503533
3100000000.0 -0.27788863016496307 -0.09759276655971538
3120000000.0 0.2823941381906043 -0.07691471411070921
3140000000.0 -0.09257552800175611 0.27189222212055103
3160000000.0 -0.2587463982643659 -0.09185317406113026
3180000000.0 0.2388365983459967 0.09985035811787706
3200000000.0 0.031278358696863066 0.23256083123217003
3220000000.0 -0.1174127157795706 0.16985599630800682
3240000000.0 -0.14300202655194894 -0.0968183193967951
3260000000.0 0.13136956484413104 -0.03793481937783707
3280000000.0 -0.03521859110084383 -0.09629881615544814
3300000000.0 -0.02369385417128176 -0.06818853854923432
3320000000.0 -0.030340406699486407 0.036713714451640414
3340000000.0 0.024620277840440144 -0.016207838506444507
3360000000.0 0.013968876198714621 0.00772847215350619
3380000000.0 -0.004006903028924461 -0.001714974360893148
3400000000.0 0.0019142905097070623 -0.011655019335437276
3420000000.0 -0.02595722770577575 -0.004318701236471868
3440000000.0 -0.040555031495240104 0.003530955125264655
3460000000.0 -0.03626484750003111 0.03867754760303669
3480000000.0 0.0014759072260213458 0.0659754114058104
3500000000.0 -0.06791883088862823 -0.044217215602577194
3520000000.0 0.046271412150821686 0.08128687383862981
3540000000.0 -0.08630928091704568 -0.06267474718507107
3560000000.0 0.11730670439827455 0.02206035247870902
3580000000.0 -0.08795491115226656 -0.0986572627079732
3600000000.0 0.14924469993767275 0.0008530893623147022
3620000000.0 0.08697530069263681 0.13657825945515595
3640000000.0 -0.15303761724676507 0.08169759410003849
3660000000.0 -0.16443788030262482 -0.08230230249018396
3680000000.0 -0.056408357557159845 -0.18159964700063383
3700000000.0 -0.020018467192725955 -0.19119097791469897
3720000000.0 0.15311849295149987 -0.11534009818451878
3740000000.0 0.18795899615701378 -0.004336599657542442
3760000000.0 -0.18204438406448437 -0.011969248184351156
3780000000.0 0.16168747554162596 -0.06287910267884712
3800000000.0 -0.14144537968003743 -0.08635954437462032
3820000000.0 -0.0853834497895018 0.13008398103320776
3840000000.0 -0.1134657970187452 0.09111077700116496
3860000000.0 0.14449937840842617 -0.0005534841305543355
3880000000.0 0.0572485904320406 0.13856040402593245
3900000000.0 0.09966702275286428 0.12290796460382063
3920000000.0 -0.013807335876290695 -0.16614434304604675
3940000000.0 0.16907476322011822 0.043183498749264776
3960000000.0 0.17681195038332082 0.031143601887785085
3980000000.0 -0.06357934599151405 -0.16821456977594673
4000000000.0 -0.13952954458693678 -0.10018838853258505
