!Created with skrf (http://scikit-rf.org).
# Hz S RI R 50.0 
!freq ReS11 ImS11
400000000.0 -0.702237163757975 0.5231232736775319
420000000.0 0.4436506372434997 0.7544799836927205
440000000.0 0.49998612127646724 -0.6833513355677796
460000000.0 -0.6579442109356902 -0.44357012619157926
480000000.0 0.009546763566558075 -0.7187527954223234
500000000.0 -0.5234720414158814 0.23075601285231617
520000000.0 0.047943692097364855 0.4672655555348289
540000000.0 0.3311452108927555 0.2225622521504563
560000000.0 -0.27032239917408046 0.2313038330789523
580000000.0 -0.005014676949286592 -0.3266643954943981
600000000.0 -0.19230878788254224 -0.25610367230236597
620000000.0 0.025914951395721527 0.3302824137974988
640000000.0 0.03459324796775193 0.35643158131659075
660000000.0 0.09841331774561583 0.3622378522621601
680000000.0 -0.0029093182963649757 -0.40624414293780176
700000000.0 -0.37886823695163363 -0.18809318555754156
720000000.0 -0.31314467737540574 0.3115646481804075
740000000.0 -0.4474204668370109 -0.022734970196017064
760000000.0 0.4338479157064824 0.003113214213571148
780000000.0 0.10457341912523899 0.39016040763476895
800000000.0 -0.37061487776075935 -0.00833018283696861
820000000.0 -0.25894579868099415 0.17529880553482655
840000000.0 -0.031812284069441976 -0.2510980926206924
860000000.0 0.1994195085321637 -0.003290300715344563
880000000.0 -0.13510230661244246 -0.060380225400873136
900000000.0 -0.013147706508676221 0.08592622363118813
920000000.0 -0.023571427763301716 0.039055599950249896
940000000.0 -0.015628712340477465 0.03066352472903443
960000000.0 0.008629222085946263 0.04796997738737079
980000000.0 -0.055131977840547845 0.02499680216007544
1000000000.0 0.007368446533251369 -0.07423431841935246
1020000000.0 0.08565960865408674 0.02855968313632831
1040000000.0 -8.983104870667803e-05 0.10503920505192009
1060000000.0 -0.131272757872813 -0.0578869619241865
1080000000.0 -0.11593295114725057 -0.10704562049224461
1100000000.0 -0.1529546866636282 -0.0920148905361113
1120000000.0 -0.05218840398688431 0.1890374460130143
1140000000.0 -0.15271685683701738 0.1733013077903275
1160000000.0 -0.057096927968802134 0.25912757444856704
1180000000.0 -0.30491782520083227 0.04984460662764335
1200000000.0 -0.2645172748872864 -0.217220246210224
1220000000.0 0.33270160088834644 -0.1825285383448202
1240000000.0 -0.2785642093616764 0.29170848686242506
1260000000.0 0.1555383246624116 -0.40284372770208543
1280000000.0 -0.38180327710281337 0.22703365148116195
1300000000.0 0.4012992781768544 -0.20823723417644424
1320000000.0 -0.07309487896158495 -0.44139092651338147
1340000000.0 -0.21637444861129862 -0.3809590319614881
1360000000.0 0.12370247743087223 -0.4172992826161745
1380000000.0 -0.12541717257265533 -0.41251438011509983
1400000000.0 -0.37895374295861284 0.17978031804600106
1420000000.0 0.08738156521757667 0.3911277437776938
1440000000.0 0.36244088300046934 -0.08742148892119635
1460000000.0 0.15799065750188523 -0.30016367649668696
1480000000.0 -0.08152082672041597 -0.29839840315084604
1500000000.0 -0.1435913235402389 -0.23958118231487463
1520000000.0 -0.2445374535516038 0.06601400475804906
1540000000.0 -0.010558407787561895 0.2303175165721581
1560000000.0 -0.2018063877986804 -0.020829763210043963
1580000000.0 -0.004857687792955269 -0.1824941637156899
1600000000.0 -0.07751889047106367 0.12976739968674572
1620000000.0 0.11995471330168389 -0.022328088320741398
1640000000.0 0.07003821258293849 -0.06618709446688709
1660000000.0 -0.04748664005534035 0.05722591057893724
1680000000.0 -0.03514690394165213 0.03486339456575839
1700000000.0 -0.02366682925857794 -0.023188909737356943
1720000000.0 -0.017369275357643595 -0.010639211818963691
1740000000.0 0.028447598865384248 0.0014903363754304967
1760000000.0 -0.028535426982208217 -0.04024055187438303
1780000000.0 0.035919038080823924 0.07293199582876056
1800000000.0 -0.07177671046624248 0.09367813040781273
1820000000.0 0.0089193315234187 0.14843761291058202
1840000000.0 -0.006133449147468751 0.18287363148934171
1860000000.0 -0.17085351841234003 -0.12258780275497143
1880000000.0 0.14841554706173818 0.18839227999647146
1900000000.0 0.09527869608410461 -0.2567165932898188
1920000000.0 -0.2917075774847336 0.07507692120368918
1940000000.0 -0.14321838842022153 0.2976791180224124
1960000000.0 0.16584968489254573 0.31855707696876406
1980000000.0 0.35869006831084815 -0.1275472646638886
2000000000.0 0.3378212227771491 -0.22136002847129874
2020000000.0 -0.15682598586362603 -0.3950877936198729
2040000000.0 -0.4383290202063603 0.0020060337829108307
2060000000.0 -0.01356420621127327 0.445305626250314
2080000000.0 0.4361189240852827 -0.09406974135248293
2100000000.0 -0.007763399551218873 -0.4396576644315962
2120000000.0 -0.36824815572764397 -0.2183108504109086
2140000000.0 -0.3757075973656376 0.17661132957385378
2160000000.0 -0.3567541645983007 -0.17215027821199644
2180000000.0 -0.3716854058188344 -0.07029638334116117
2200000000.0 -0.321840806131594 0.16209022557379052
2220000000.0 -0.3092504477768402 -0.15497925336844143
2240000000.0 -0.29385611682892354 -0.17661429923614064
2260000000.0 -0.19158243458447016 -0.28695054323492475
2280000000.0 -0.3378949583854413 -0.1065697024276743
2300000000.0 -0.2286403123206251 0.28762098829514027
2320000000.0 0.305816940721996 0.24174665062470646
2340000000.0 0.2696529993825119 -0.3242487477773629
2360000000.0 -0.42636276447662325 0.17674591438950402
2380000000.0 0.5066384754863833 -0.011326978336043831
2400000000.0 -0.5551745137250832 0.04196308917725209
2420000000.0 0.5078750862121879 -0.33502370503431206
2440000000.0 -0.16698190202033603 0.636616558551154
2460000000.0 -0.3988651905006765 -0.5738852803067082
2480000000.0 0.6916400884721096 0.23747605752848094
2500000000.0 -0.7434271217220515 -0.12053296469255126
2520000000.0 0.7630354772159108 0.06833388324565715
2540000000.0 -0.7078615265914592 -0.3049628164053681
2560000000.0 0.37281606570453485 0.672101144048106
2580000000.0 0.17639203892355157 -0.7367016343748348
2600000000.0 -0.6299370347068652 0.38350046109464975
2620000000.0 0.7010555271674658 0.11609874946726659
2640000000.0 0.5906252007557004 -0.33076487831343127
2660000000.0 -0.634421434192601 0.004378345632926605
2680000000.0 0.46648969384426026 0.3576043121090804
2700000000.0 -0.10407941576433584 -0.528848759412492
2720000000.0 -0.24934241607042584 0.42093113684813777
2740000000.0 0.4405458218126509 0.049146291269403605
2760000000.0 -0.2457132338403452 -0.3203158980387275
2780000000.0 0.009541244788913356 0.374022855021389
2800000000.0 -0.029708674070311795 -0.3493953131790394
2820000000.0 0.2558632047454069 0.21661785106556047
2840000000.0 -0.25116964582289203 0.20533632448181993
2860000000.0 -0.2622792977871939 -0.18087403427576607
2880000000.0 0.06414969301555769 -0.3068112020044241
2900000000.0 0.28408715991072453 0.11723672628028928
2920000000.0 -0.2712402900134761 -0.1345323315851749
2940000000.0 -0.06760220712245346 0.29213914161691046
2960000000.0 0.05252061598226083 0.2938314671262845
2980000000.0 -0.1573144683894848 0.25605035392881326
3000000000.0 -0.2671031367146914 -0.14494294107046685
3020000000.0 0.08916790117795843 -0.2955211274214359
3040000000.0 0.19910362014476746 0.23649844677134962
3060000000.0 -0.3119616349327888 -0.015004116460039716
3080000000.0 0.22829323003193766 -0.21215370715469223
3100000000.0 -0.028459041178860407 0.3095010945191733
3120000000.0 -0.3053253894597872 0.03793618927576105
3140000000.0 -0.10323274989474195 -0.27954267988269854
3160000000.0 0.10046674027294045 0.26104459569665395
3180000000.0 -0.21058714701237635 0.15348337821369654
3200000000.0 -0.21113782429776345 -0.09544165192363763
3220000000.0 0.1520149364361138 -0.13066079621871163
3240000000.0 -0.10547058047455314 0.12951323226783595
3260000000.0 0.10552794470685062 0.08504739685453679
3280000000.0 0.06623594949959946 0.08458691609804572
3300000000.0 0.04783684080363784 0.07075342848770137
3320000000.0 0.057223630042003794 -0.03311314725054985
3340000000.0 0.0491774018480542 -0.0018434069867285686
3360000000.0 -0.017132907222841953 0.02562162441960231
3380000000.0 -0.00470816312586599 -0.0202335020360133
3400000000.0 0.001961941599742209 0.025728278081332934
3420000000.0 0.0015610105342060154 0.04073905840001624
3440000000.0 0.0074527012376700095 -0.05336993125409983
3460000000.0 -0.028618587673728126 0.05621042479615777
3480000000.0 -0.04413206614672292 -0.05446187156620685
3500000000.0 -0.03453778132472066 0.06813387483873622
3520000000.0 -0.06924870166882638 0.04959136882417865
3540000000.0 -0.009956616080648174 0.0981318691143748
3560000000.0 0.08019957071308423 0.08053846969096765
3580000000.0 0.035371465273578415 -0.12699352219823448
3600000000.0 0.08109446295017267 -0.13115149428377557
3620000000.0 0.06659554996564959 -0.15616599616263935
3640000000.0 -0.0048361071796872435 -0.18324555274445858
3660000000.0 -0.1547879673805085 -0.11849588752133434
3680000000.0 -0.1928987189435048 0.042448080667005575
3700000000.0 -0.04859556350295973 0.18929843414707415
3720000000.0 -0.13718543748468537 0.13007325910869746
3740000000.0 -0.17392720502423312 -0.039302697628674485
3760000000.0 -0.09958349600674084 0.13515428250448253
3780000000.0 0.10484088586683554 0.11873657644680057
3800000000.0 0.07483534336368639 0.13532920359737216
3820000000.0 0.07289738554158569 0.13439607183622024
3840000000.0 0.09519302913152236 0.11875406359602333
3860000000.0 0.05770741167106302 0.1454691778235636
3880000000.0 0.06280141211115184 -0.14725305113992343
3900000000.0 -0.1316311558077332 0.09347369542594204
3920000000.0 0.13900057236364516 -0.07716300040621318
3940000000.0 -0.156799528038964 -0.014764069361943468
3960000000.0 0.1607185986736249 -0.006032344449772435
3980000000.0 0.15121763668961957 0.05339981022282985
4000000000.0 -0.10035279090405648 0.1205508549596355
