!Created with skrf (http://scikit-rf.org).
# Hz S RI R 50.0 
!freq ReS11 ImS11
400000000.0 -0.6580956895487675 0.5779501974641814
420000000.0 0.43252667619962304 0.7618256329494005
440000000.0 0.41684035684572773 -0.7365634455959555
460000000.0 -0.6714552176434951 -0.4232767500458047
480000000.0 -0.00260344513866596 -0.7197086023450991
500000000.0 -0.526917231610821 0.2198044063554648
520000000.0 -0.022291268366907938 0.4691238678338678
540000000.0 0.2911458173397319 0.27391458129793317
560000000.0 -0.25890490918173437 0.24402415144293702
580000000.0 0.006653532168493922 -0.325346785747693
600000000.0 -0.1608303245104685 -0.2769424353588847
620000000.0 0.027619470508914275 0.33060425302596375
640000000.0 0.0709100242637316 0.35162725994870087
660000000.0 0.03614716873557124 0.3747541362721242
680000000.0 0.014318980220831093 -0.4065416500732442
700000000.0 -0.37720635234227806 -0.193894676280155
720000000.0 -0.31795538668124773 0.30762097546426614
740000000.0 -0.446784357104913 0.036350232518202054
760000000.0 0.4324157387216672 -0.03745969231105421
780000000.0 0.14854561069038735 0.3752733259204568
800000000.0 -0.36794218739476425 0.03600323594180203
820000000.0 -0.22242366780354014 0.21812369593845282
840000000.0 -0.07868660112776805 -0.23918657643909524
860000000.0 0.19766275081348963 -0.015388883873216262
880000000.0 -0.1287451394887204 -0.07038297658570102
900000000.0 -0.028405512894797192 0.0814233178745625
920000000.0 -0.0442083030316187 0.011810821361324969
940000000.0 -0.02411556253125597 0.023778581415997084
960000000.0 -0.0006512302839365231 0.04750429090356228
980000000.0 -0.05638787310531657 0.018056997738408895
1000000000.0 -0.0005682247754543706 -0.07387863646821521
1020000000.0 0.0897604243599547 -0.0017348933945107304
1040000000.0 0.021553383070504955 0.10264287708431037
1060000000.0 -0.13598353233935195 -0.04566778147989101
1080000000.0 -0.10212809209908412 -0.12062479209905824
1100000000.0 -0.145824448902315 -0.10280621193491069
1120000000.0 -0.12085151139376972 0.15507526612874203
1140000000.0 -0.19879791657621704 0.11969154730098136
1160000000.0 -0.1285075722644331 0.23350505844741404
1180000000.0 -0.30691608124984154 0.048728702706033585
1200000000.0 -0.2434353349943825 -0.24214182354698255
1220000000.0 0.34313574543950626 -0.16322658087785505
1240000000.0 -0.27819488745618776 0.2925790655989225
1260000000.0 0.15695564435785328 -0.4018937490885244
1280000000.0 -0.392063084476305 0.207452386909665
1300000000.0 0.3996719541982187 -0.20960562149834885
1320000000.0 -0.04634769253977729 -0.44415926848212745
1340000000.0 -0.21549568913393657 -0.3807478155401504
1360000000.0 0.11884122906368605 -0.4182229604451045
1380000000.0 -0.1289862974622227 -0.4112863301945794
1400000000.0 -0.36284900543480675 0.21031747722302602
1420000000.0 0.12249069248896986 0.38219612853494567
1440000000.0 0.34343024183184884 -0.14531155468576146
1460000000.0 0.16060776014831157 -0.2996012812681487
1480000000.0 -0.05930590563295065 -0.30490724349674003
1500000000.0 -0.147714537440644 -0.23799894308355585
1520000000.0 -0.2454698747955246 0.06639383321569928
1540000000.0 0.003159370012595564 0.23139369657589332
1560000000.0 -0.20359591515914718 -0.013051260121151332
1580000000.0 -0.02444361198137116 -0.1820867255238307
1600000000.0 -0.08180822818835082 0.12729219757615493
1620000000.0 0.1213574201379706 -0.009739262529005798
1640000000.0 0.09056826777255504 -0.03140361919101873
1660000000.0 -0.035353769551667746 0.06389567669309007
1680000000.0 0.010218881152364174 0.0476091247803901
1700000000.0 -0.03150989120897248 -0.0008622105275250244
1720000000.0 -0.013415509996585194 0.01562589931664648
1740000000.0 0.02841768142916608 0.004033517699186509
1760000000.0 -0.014917907553460853 -0.047424099637494964
1780000000.0 0.01741623186232997 0.07932365773997434
1800000000.0 -0.08121364323636746 0.08487442270892617
1820000000.0 0.001335797119780811 0.14819628067365448
1840000000.0 0.026106394323019148 0.18021520603523825
1860000000.0 -0.1892419015829938 -0.09118884113396368
1880000000.0 0.1729501404428777 0.16473754001411672
1900000000.0 0.06640702028432179 -0.2647790946231423
1920000000.0 -0.2863902020024175 0.08970035661335787
1940000000.0 -0.1425261951428553 0.2973814038037053
1960000000.0 0.1610961589967371 0.32063148556627746
1980000000.0 0.3655778718599621 -0.10725536475263943
2000000000.0 0.3567767708652815 -0.19078135013991315
2020000000.0 -0.1722150478276099 -0.389705243482575
2040000000.0 -0.43948687793374286 0.0164235653965646
2060000000.0 0.0035894857251632497 0.4468637164172008
2080000000.0 0.4344867584458015 -0.10814320367563508
2100000000.0 -0.06391736550724134 -0.4362379483816983
2120000000.0 -0.36453361726824784 -0.2257642752137143
2140000000.0 -0.3514808919092574 0.22010354996296744
2160000000.0 -0.3587638899310905 -0.16757939776082745
2180000000.0 -0.3706316761525196 -0.07373939411872289
2200000000.0 -0.3396953429081187 0.11807246772641566
2220000000.0 -0.29834555652584366 -0.1738303478565365
2240000000.0 -0.2612948374522062 -0.22289769163230216
2260000000.0 -0.13954115421538527 -0.3164155127348719
2280000000.0 -0.32173079270537075 -0.14921609935810937
2300000000.0 -0.26319646492858084 0.25683726699451365
2320000000.0 0.29600216943473107 0.254586769598911
2340000000.0 0.25668483149271193 -0.3349556681731251
2360000000.0 -0.42545758538442835 0.17778603893776337
2380000000.0 0.5062076108737914 0.0021419421625382654
2400000000.0 -0.5533001532709104 0.05544179224492197
2420000000.0 0.5044288447652984 -0.33950227176983555
2440000000.0 -0.14498887241494923 0.6416019512374388
2460000000.0 -0.4453883661763235 -0.5383821853277375
2480000000.0 0.7035158060009987 0.19951923538833544
2500000000.0 -0.7487963556286433 -0.0879363580324831
2520000000.0 0.7581558858479861 0.11459077492628594
2540000000.0 -0.7117726835418646 -0.2968750797114069
2560000000.0 0.379119139333857 0.6692316274792863
2580000000.0 0.22600964628956158 -0.7238545389209202
2600000000.0 -0.6712500774934027 0.3079589548822319
2620000000.0 0.666086369808156 0.2508084095785839
2640000000.0 0.6184536796171004 -0.27733905492216543
2660000000.0 -0.6237074393455786 -0.11806792371521964
2680000000.0 0.4161643875737581 0.41530698979066927
2700000000.0 -0.06874749136410971 -0.534513799392415
2720000000.0 -0.2809623194441222 0.4001749631694415
2740000000.0 0.43568226628231915 0.08017445901370394
2760000000.0 -0.2190990563721143 -0.3384571274434902
2780000000.0 0.005107624681989705 0.3733833054472101
2800000000.0 -0.05514749931650659 -0.34574080274990326
2820000000.0 0.2998813885567505 0.14880023436196807
2840000000.0 -0.1724718897167678 0.2740217597474632
2860000000.0 -0.2834045446922952 -0.14463713967439315
2880000000.0 -0.016936519875958744 -0.3126165603901586
2900000000.0 0.2920395101643572 0.09784568273700303
2920000000.0 -0.2767596752651019 -0.12378681908453835
2940000000.0 -0.08323960773915277 0.28825548984263655
2960000000.0 0.044233612581249186 0.2959888222072311
2980000000.0 -0.1783981460872784 0.24258900415006818
3000000000.0 -0.26065653939669503 -0.1567656990276961
3020000000.0 0.13386328908570547 -0.27871051542504033
3040000000.0 0.18855119235117362 0.24732036305699395
3060000000.0 -0.3128754424555153 -0.02084531191140948
3080000000.0 0.21977002002862664 -0.22279225891958232
3100000000.0 0.013071812575931195 0.31126161634254434
3120000000.0 -0.30667167546735047 -0.02947227233207141
3140000000.0 -0.11142580739077555 -0.27705665301473015
3160000000.0 0.10727320177656864 0.25800488808321287
3180000000.0 -0.216291074440517 0.14476597934290883
3200000000.0 -0.19185572296314374 -0.12869267332429826
3220000000.0 0.17926586382593712 -0.08852947483075296
3240000000.0 -0.1353015295250741 0.09778754927177925
3260000000.0 0.03832994278682911 0.13065681906442914
3280000000.0 0.011519878778672816 0.10826574649448661
3300000000.0 0.00847406255332923 0.08623930186053387
3320000000.0 0.05448982798521013 -0.038908486734579834
3340000000.0 0.04073509889015734 -0.028823753084649472
3360000000.0 0.019602138835587896 -0.024882360177425258
3380000000.0 -0.014729003203647648 0.015599142707159199
3400000000.0 0.026053100068286438 -0.004640853863641459
3420000000.0 0.03360739899340474 0.023935078100326204
3440000000.0 -0.05283888990745029 -0.009017834676409524
3460000000.0 -0.0196789419619463 0.05904777247573136
3480000000.0 -0.06839385243730131 0.0031504649351064397
3500000000.0 -0.03989151444250015 0.06304461673205887
3520000000.0 -0.07452079144329578 -0.0381698267723918
3540000000.0 -0.07988689435612605 0.05703641912553543
3560000000.0 -0.005180619176286433 0.11341836889819762
3580000000.0 0.08041250230821384 -0.10528695479884781
3600000000.0 0.07062367436494814 -0.13720241952300913
3620000000.0 0.013116314212280877 -0.16929728700061514
3640000000.0 -0.0624992178222857 -0.1720456814391426
3660000000.0 -0.18711270435611924 -0.050571140253812256
3680000000.0 -0.18958237825649332 0.05217838186338032
3700000000.0 -0.05895180976628138 0.18511675117330298
3720000000.0 -0.1646513138595144 0.09096191338896208
3740000000.0 -0.13291076637131277 -0.1172949927856635
3760000000.0 -0.1612399286255788 0.04684246594370101
3780000000.0 -0.021901239196598577 0.1574866420631521
3800000000.0 0.026842180540635523 0.15351959018853772
3820000000.0 0.028798928844472757 0.15138492880982457
3840000000.0 0.09517448144784077 0.11886829299264122
3860000000.0 0.07554647151584938 0.13624443504880807
3880000000.0 0.08779478990870165 -0.1325354701211454
3900000000.0 -0.16002550840257881 0.0048863154503947575
3920000000.0 0.15744212245928668 0.003865969522272476
3940000000.0 -0.06937993839068539 -0.1411039410206486
3960000000.0 0.12873456173210324 0.09664802459764836
3980000000.0 0.05089837156108257 0.15372328041054406
4000000000.0 -0.1591248235456937 -0.0006715142326671957
