!Created with skrf (http://scikit-rf.org).
# Hz S RI R 50.0 
!freq ReS11 ImS11
400000000.0 -0.6736628671661693 0.5597344050476709
420000000.0 0.47093910560491237 0.7382938496255196
440000000.0 0.4220622964097199 -0.7341526538684933
460000000.0 -0.6656100309615051 -0.4333634613822978
480000000.0 0.009749972291411991 -0.7197017068588718
500000000.0 -0.5323684159237958 0.20723042764653493
520000000.0 0.003141057811633871 0.46964271626592363
540000000.0 0.3214086719202905 0.23716548906829027
560000000.0 -0.2487417828898451 0.2535155560793908
580000000.0 0.0018966883952999524 -0.3257554616535198
600000000.0 -0.17598041059886033 -0.2679906804267778
620000000.0 0.021830857987003797 0.3307386323683475
640000000.0 -0.005372880095586943 0.35821870188287086
660000000.0 0.045320195433771325 0.3734569931706452
680000000.0 0.03952438871888986 -0.4045759587410132
700000000.0 -0.3568802580831624 -0.22849788656849748
720000000.0 -0.33750658815190393 0.2855028175497569
740000000.0 -0.44806364396010323 -0.025277366203015995
760000000.0 0.4319799889054647 -0.0373728023155506
780000000.0 0.1479456989861249 0.37545545422934995
800000000.0 -0.3689643089331113 0.029972969614195846
820000000.0 -0.2350377876683146 0.20541713868641964
840000000.0 -0.0611969623659234 -0.24481149050858333
860000000.0 0.19761907235103351 -0.019065489335806592
880000000.0 -0.1250857666454796 -0.07804753665132026
900000000.0 -0.060128128512868785 0.06284680249964979
920000000.0 -0.044662779407801556 -0.009067039576254942
940000000.0 -0.010949156304066112 0.031826839145245506
960000000.0 0.019956535346541557 0.043273240509486166
980000000.0 -0.05270198390378634 0.028128804044715044
1000000000.0 -0.006281428070904092 -0.07366836906830232
1020000000.0 0.08957276585890458 -0.008062502740137631
1040000000.0 0.03186116974888457 0.09993401536662101
1060000000.0 -0.13599866656893708 -0.04584158020481169
1080000000.0 -0.11355277129878019 -0.10989135805678289
1100000000.0 -0.1419314437259478 -0.10898584450702024
1120000000.0 -0.1152029994859428 0.1593119925212208
1140000000.0 -0.19476479156017446 0.12566493670384882
1160000000.0 -0.09975681709448675 0.2470086628438603
1180000000.0 -0.30826927530418496 0.030989804703057046
1200000000.0 -0.25335563988879883 -0.2301955072092464
1220000000.0 0.3340321156092322 -0.17892883922038472
1240000000.0 -0.266184845670635 0.3025881675877235
1260000000.0 0.1254244244782366 -0.41210268381000753
1280000000.0 -0.37012592856533094 0.2438885459598735
1300000000.0 0.3898956818012958 -0.22719837210620733
1320000000.0 -0.08625543291691609 -0.4384115861198147
1340000000.0 -0.23059512053283784 -0.37232671306604403
1360000000.0 0.11946330942540195 -0.4184438471824744
1380000000.0 -0.14216984220247406 -0.4074533747311279
1400000000.0 -0.37589218184708123 0.187550012867577
1420000000.0 0.08922949757222218 0.3912410366727111
1440000000.0 0.36381987578576325 -0.08232830700769048
1460000000.0 0.21094931170561998 -0.2665975085143111
1480000000.0 -0.012235043873454582 -0.31003672578468744
1500000000.0 -0.09992056913699994 -0.26136866699063116
1520000000.0 -0.2517250189469539 0.02704321403437787
1540000000.0 -0.03903842877087248 0.22695971546754976
1560000000.0 -0.1993398783867649 -0.036712107521922395
1580000000.0 -0.04231557251700923 -0.17723304049212865
1600000000.0 -0.056705434184611575 0.13930076524850676
1620000000.0 0.11356190899044658 -0.04354726472797901
1640000000.0 0.024749473097024417 -0.09305184613639995
1660000000.0 0.001521583647626546 0.07448063266271661
1680000000.0 -0.02057158733784984 0.04489806658420396
1700000000.0 0.002874609150554549 -0.03238272824731158
1720000000.0 0.015533705200511056 -0.012602133631044307
1740000000.0 0.021230836001129787 0.018219283265862724
1760000000.0 -0.044557377407541565 0.02051373158624458
1780000000.0 0.07203391729604483 0.03783466065080907
1800000000.0 -0.046735340021523304 0.10890868743748087
1820000000.0 0.033449509820532 0.14554146589609898
1840000000.0 0.023149470140539512 0.1820929195372192
1860000000.0 -0.1858678829572602 -0.09973331896958436
1880000000.0 0.16056177427000654 0.17880577965208846
1900000000.0 0.09277790304361609 -0.25785180484570036
1920000000.0 -0.29724752505572943 0.045750733334930196
1940000000.0 -0.18116482908790657 0.27606378188149877
1960000000.0 0.1148370009721046 0.3397434404492639
1980000000.0 0.3741473143282079 -0.06791871123532965
2000000000.0 0.36237285902580363 -0.1781150944100125
2020000000.0 -0.13572191772722064 -0.40299692056285563
2040000000.0 -0.43850417499398214 -0.022127317350091665
2060000000.0 0.018040323560435726 0.4454551311569159
2080000000.0 0.418399631295097 -0.15653045150355632
2100000000.0 -0.11113186537692084 -0.4257481703751647
2120000000.0 -0.4068817529961246 -0.13378427104791518
2140000000.0 -0.3316199733235688 0.2495211707303965
2160000000.0 -0.3815292387903572 -0.10710831948230938
2180000000.0 -0.37762685868081447 -0.018699230633935915
2200000000.0 -0.33072762097701675 0.14181001239771143
2220000000.0 -0.3016364286202358 -0.1699852785977344
2240000000.0 -0.300249779307109 -0.16871095671208544
2260000000.0 -0.15563233582887304 -0.3095333994736125
2280000000.0 -0.32421287708965957 -0.1459983130620804
2300000000.0 -0.26883516037529354 0.2522457337549105
2320000000.0 0.28895535847367637 0.2636812803657425
2340000000.0 0.2981473374120872 -0.2984841890034674
2360000000.0 -0.4347687101434126 0.15320631403975246
2380000000.0 0.5061331537144118 -0.010239763059959396
2400000000.0 -0.5555002951940031 0.017993888682792586
2420000000.0 0.5102678879572641 -0.33047287623542115
2440000000.0 -0.15673404071956767 0.6385032642088264
2460000000.0 -0.4487609430660512 -0.5351899785487116
2480000000.0 0.7080893951776575 0.18373700498866216
2500000000.0 -0.753349060441184 0.0057165963273941795
2520000000.0 0.7660591805661028 0.04913925562478259
2540000000.0 -0.7023251588422056 -0.3201982691391159
2560000000.0 0.4219697472823854 0.6425469534873854
2580000000.0 0.24673460136845202 -0.7165068766558292
2600000000.0 -0.6427930347108912 0.3631757492399062
2620000000.0 0.6847359610185949 0.19444508087955462
2640000000.0 0.6097195998314279 -0.29508506170754795
2660000000.0 -0.6254647783174628 -0.1047646055479785
2680000000.0 0.4476547550481746 0.38055365899202354
2700000000.0 -0.07804216286716881 -0.5331055268041226
2720000000.0 -0.2923931597624263 0.39170504154350083
2740000000.0 0.43879929423645586 0.05810918360431554
2760000000.0 -0.2550327906465977 -0.3122817223941777
2780000000.0 0.015897960685660243 0.3736541908829937
2800000000.0 -0.04472891075516136 -0.347791603348061
2820000000.0 0.2881784194933323 0.1710926299787842
2840000000.0 -0.19992038197887907 0.25441426525151
2860000000.0 -0.27640588050784104 -0.15778347328359232
2880000000.0 0.045218009568205444 -0.3102883982171857
2900000000.0 0.2746177517364273 0.13979094837397613
2920000000.0 -0.258739575474471 -0.15836050742875837
2940000000.0 -0.11876959799984238 0.2750791846935684
2960000000.0 0.027130129420726734 0.29690821547385415
2980000000.0 -0.2075374251775723 0.21746790836474847
3000000000.0 -0.2598771710589943 -0.1549589532842494
3020000000.0 0.12698434669560513 -0.28038673412674797
3040000000.0 0.18837454325866176 0.24452404009355058
3060000000.0 -0.3120360991537446 0.01057910294155549
3080000000.0 0.1864391764324681 -0.2501407398596251
3100000000.0 -0.0014606998542026157 0.3107820124472186
3120000000.0 -0.3031964566153035 0.0564229428874456
3140000000.0 -0.1811423446226328 -0.23689226499681698
3160000000.0 0.15295859092806424 0.2342694875198597
3180000000.0 -0.18338868239329878 0.18430909383614552
3200000000.0 -0.20877778758343213 -0.0999038493950922
3220000000.0 0.15805084628066557 -0.12325335064475197
3240000000.0 -0.12418595804422114 0.11273681122217913
3260000000.0 0.061072974416421205 0.12183922172805994
3280000000.0 0.002304028726116115 0.10924566943193391
3300000000.0 0.01085173697737626 0.08663332575723696
3320000000.0 0.06662579680853958 -0.012479662398278475
3340000000.0 0.048183452691662534 0.014640365288345725
3360000000.0 0.0072511788619904665 0.03162870156538504
3380000000.0 0.019543152495742015 0.0066004884085392995
3400000000.0 0.024872273175900114 0.0023497284946072867
3420000000.0 0.03847755702756693 -0.011090795329243888
3440000000.0 -0.020623447656078004 0.048469661297450436
3460000000.0 0.04679948544039862 0.04041498399218955
3480000000.0 -0.04627313764450395 0.05045301239099823
3500000000.0 0.04710437717008185 0.05831990302906575
3520000000.0 -0.053226212249683505 0.06482701209548782
3540000000.0 0.01724929165236543 0.09686195600007409
3560000000.0 0.09047765015747468 0.06785219550971157
3580000000.0 -0.022407847660808472 -0.13020200913343724
3600000000.0 0.031332443539144224 -0.1512689026820859
3620000000.0 -0.06334197138424118 -0.15810858419365714
3640000000.0 -0.1269605431673538 -0.13261141421016334
3660000000.0 -0.1946762786238532 -0.0011791774286614592
3680000000.0 -0.1774884965253633 0.08646092998810481
3700000000.0 -0.05662564017865579 0.1869406113361942
3720000000.0 -0.1440543377642554 0.12122309430610385
3740000000.0 -0.15105221740854258 -0.0948646211658142
3760000000.0 -0.14702824129640707 0.08381479553059974
3780000000.0 -0.008906614714295156 0.15971862480363036
3800000000.0 0.03866530924739913 0.15160277569786096
3820000000.0 0.04128549986200365 0.14911642684009638
3840000000.0 0.08809033108712813 0.125243677423984
3860000000.0 0.07070478706096642 0.13994044715488022
3880000000.0 0.08077807870001982 -0.13750491829561684
3900000000.0 -0.16071249000430166 -0.0019703744895713613
3920000000.0 0.1553791609835811 0.026579366277448738
3940000000.0 -0.08902862190900078 -0.12985005989135398
3960000000.0 0.15061218880386304 0.056884617919496575
3980000000.0 0.13114136814024577 0.09358413207268715
4000000000.0 -0.11561322846371944 0.10769799398714634
