!Created with skrf (http://scikit-rf.org).
# Hz S RI R 50.0 
!freq ReS11 ImS11
400000000.0 -0.6618260094388794 0.5738258494536067
420000000.0 0.4770560519501298 0.7348269651846286
440000000.0 0.41986490853301195 -0.7354344649568038
460000000.0 -0.6683854910053803 -0.4301562590270344
480000000.0 0.02889467111950473 -0.7193607212912616
500000000.0 -0.5222815059872365 0.2315155216624888
520000000.0 -0.012853847094218798 0.4696601003383162
540000000.0 0.2942181347785267 0.2697515353543623
560000000.0 -0.2532623601647391 0.24912698808987194
580000000.0 -0.007578984785224402 -0.32572804043781917
600000000.0 -0.1665321884007046 -0.27394501889807066
620000000.0 0.03928823689174187 0.3294783426111101
640000000.0 -0.004106500146280546 0.3584586689275646
660000000.0 0.06660757166256975 0.3703709159750316
680000000.0 0.030589773313396556 -0.40533112346442723
700000000.0 -0.3425993921840378 -0.24905569970636462
720000000.0 -0.33158274722476433 0.2922464995996866
740000000.0 -0.4468870522785814 -0.03724765534748834
760000000.0 0.43336198987209207 -0.012520700315818202
780000000.0 0.1510194067852124 0.3742308384400375
800000000.0 -0.3672815467340553 0.044642120070972874
820000000.0 -0.2327020471416591 0.20792259016179013
840000000.0 -0.07368454809092162 -0.24122514667973724
860000000.0 0.19542170111178025 -0.0364826327561089
880000000.0 -0.13287624816976626 -0.06456855055415033
900000000.0 -0.044384124052467055 0.07503151186467186
920000000.0 -0.04270739420365452 -0.016755731410175684
940000000.0 -0.025248161367212033 0.021918437563128907
960000000.0 0.016492490208347463 0.04478919925536713
980000000.0 -0.0512528902331375 0.03042167294410833
1000000000.0 -0.011978226571230212 -0.07296280800098186
1020000000.0 0.09000366193590352 -0.0027311620821707807
1040000000.0 0.036016369905621404 0.09863883950862347
1060000000.0 -0.1383848237931398 -0.03834709631673646
1080000000.0 -0.12171103207126721 -0.10095697209322119
1100000000.0 -0.1418564306629716 -0.10921777855336665
1120000000.0 -0.10942689213045394 0.16345780116036676
1140000000.0 -0.18960057436563243 0.13357505983404416
1160000000.0 -0.11263401896292766 0.24137472283586628
1180000000.0 -0.3099824095007181 0.000480395109231332
1200000000.0 -0.22888655521811258 -0.25406175586304686
1220000000.0 0.35202788397202206 -0.13948492033603477
1240000000.0 -0.2740267373380243 0.2954000587304441
1260000000.0 0.13558304158433068 -0.4089265539303424
1280000000.0 -0.37082075881023374 0.24281797030642874
1300000000.0 0.39100363213935185 -0.22524593659781736
1320000000.0 -0.07035695816100154 -0.44111092340786345
1340000000.0 -0.23930393912081105 -0.36675343877182714
1360000000.0 0.11802480390951677 -0.4188941130373962
1380000000.0 -0.13397913209976373 -0.41020324492916027
1400000000.0 -0.37617860441717405 0.18675379954206534
1420000000.0 0.07717627537835711 0.3939413074943047
1440000000.0 0.36021096903038763 -0.09710828794669794
1460000000.0 0.20355666475515521 -0.2722080894725951
1480000000.0 -0.12299278364819388 -0.2843299716254276
1500000000.0 -0.10568704398664967 -0.2590949246591918
1520000000.0 -0.2505962528164609 0.03691841801076838
1540000000.0 -0.04064380657404006 0.22688685723584967
1560000000.0 -0.20081704431484362 -0.028265115112466637
1580000000.0 -0.03441775480264814 -0.17912496274903156
1600000000.0 -0.07131767208145218 0.13258853066061402
1620000000.0 0.11915386830657444 -0.024614661418233607
1640000000.0 0.039090359413449995 -0.08804347604128439
1660000000.0 -0.00208522540742214 0.07448216679903862
1680000000.0 -0.032378721408341006 0.03727339546142818
1700000000.0 0.0036678244368523517 -0.03218802241101888
1720000000.0 0.010203369592670581 -0.01763715287977237
1740000000.0 0.022780395546749366 -0.016070905834732387
1760000000.0 -0.04613726144625652 0.017030001245193608
1780000000.0 0.06897319850243944 0.043372395933873396
1800000000.0 -0.06630485185634265 0.09799294249622387
1820000000.0 0.016846653176409616 0.14838841279059473
1840000000.0 0.008007379424160861 0.18313787365980946
1860000000.0 -0.1843118350606047 -0.10222047767099575
1880000000.0 0.15183337206345746 0.18594452131327288
1900000000.0 0.09446361745489047 -0.25721167681712376
1920000000.0 -0.2966359117312646 0.04973712844637096
1940000000.0 -0.1723612470292899 0.2815734672498217
1960000000.0 0.12771038574647975 0.335202009722086
1980000000.0 0.370783943271322 -0.08408889145778313
2000000000.0 0.3531800911483343 -0.19557735664238204
2020000000.0 -0.16838951078810535 -0.3905905666739364
2040000000.0 -0.43805263190213156 -0.03009377015968449
2060000000.0 0.04324183346725213 0.44354776660568657
2080000000.0 0.40272019366782424 -0.1936817901153405
2100000000.0 -0.10971534296563991 -0.42634598070203844
2120000000.0 -0.395246743485199 -0.16573543774791222
2140000000.0 -0.32437518312419805 0.25910873475783325
2160000000.0 -0.3799720484633737 -0.11334879861566516
2180000000.0 -0.37538874267991773 -0.04707352234966738
2200000000.0 -0.32493328606741245 0.15516596921841666
2220000000.0 -0.3052385547016223 -0.16392173215996053
2240000000.0 -0.2980641203760382 -0.1724046538581732
2260000000.0 -0.1704678634566576 -0.30184183571825335
2280000000.0 -0.32373634566466575 -0.14676201902928726
2300000000.0 -0.2717994719365392 0.24862133793374638
2320000000.0 0.27483937160730326 0.27802703760602293
2340000000.0 0.2926974490982198 -0.3040180388517535
2360000000.0 -0.436641142503685 0.1476224351628634
2380000000.0 0.506075856369759 -0.01075291799759644
2400000000.0 -0.5550403450229118 0.028666032516381314
2420000000.0 0.5100127468945833 -0.3308838018672213
2440000000.0 -0.1349376919319715 0.6434519286298277
2460000000.0 -0.4429717636255477 -0.5402353521878069
2480000000.0 0.7080209607747884 0.18392819124270257
2500000000.0 -0.7499445124059975 -0.07485520602431585
2520000000.0 0.7605692053730978 0.10529046360520311
2540000000.0 -0.7134422811202584 -0.29475837531091387
2560000000.0 0.39552514167913955 0.65939609992437
2580000000.0 0.21244930741164925 -0.7275984621238313
2600000000.0 -0.6522582698302188 0.3467925155427966
2620000000.0 0.6790911260498556 0.213663838504913
2640000000.0 0.6131444962988786 -0.2885057810074661
2660000000.0 -0.6261931289631457 -0.10259022002814933
2680000000.0 0.45051760659867307 0.3774689557954906
2700000000.0 -0.079296426442829 -0.533204462264651
2720000000.0 -0.28310458814886047 0.3985030000560483
2740000000.0 0.4321466814824638 0.09543357162172972
2760000000.0 -0.23389844917066108 -0.3283404868901576
2780000000.0 0.016259342744685497 0.3734248381176682
2800000000.0 -0.05161551602960228 -0.34648920609660006
2820000000.0 0.2847104990172787 0.17652908103411682
2840000000.0 -0.2021794048151133 0.2524914011746738
2860000000.0 -0.27717511052312754 -0.15637121942246782
2880000000.0 0.03135430180901846 -0.3119992066344891
2900000000.0 0.28181540025248003 0.12435672425432458
2920000000.0 -0.2576070531846376 -0.16077240588885838
2940000000.0 -0.10615663693324026 0.2804669744585817
2960000000.0 0.028369011212282146 0.29731970694463694
2980000000.0 -0.20698112008410222 0.21892668384920402
3000000000.0 -0.2557788604658262 -0.16228886172260934
3020000000.0 0.1291677861661113 -0.2799674251787363
3040000000.0 0.160775218017102 0.26407860521924226
3060000000.0 -0.3099188926047839 -0.039818015784878126
3080000000.0 0.21865284497572607 -0.22285378990731336
3100000000.0 -0.00956289117853423 0.31094013590682
3120000000.0 -0.30546202448391296 0.04396388276804282
3140000000.0 -0.15910171263357845 -0.2525450330151345
3160000000.0 0.12483350448879557 0.2505956532127956
3180000000.0 -0.1960762768489485 0.17091753122311484
3200000000.0 -0.20174097385245876 -0.11344425174215657
3220000000.0 0.15993894195401442 -0.12052393846289004
3240000000.0 -0.12579418520634097 0.11071940659807379
3260000000.0 0.06596891866978208 0.11903163689623433
3280000000.0 -0.0030887252657195064 0.10889613904662027
3300000000.0 0.0030707370122675225 0.0868797617838362
3320000000.0 0.06656617525020339 -0.01093972287472229
3340000000.0 0.043480137821352634 0.02480963910524646
3360000000.0 0.014977011863378565 0.028704987326689534
3380000000.0 0.019678764253955726 0.0068762977274423
3400000000.0 0.02504723054999821 0.00018466819063398977
3420000000.0 0.04012525329132522 0.0014572498529967525
3440000000.0 -0.03582298429626381 0.038904661622088894
3460000000.0 0.02962675959335631 0.05446437304811161
3480000000.0 -0.05396306431569261 0.042353143561418935
3500000000.0 0.038283037813237726 0.06476774102739145
3520000000.0 -0.027755176676493843 0.07964867183337082
3540000000.0 0.006370102770302246 0.09793231947634028
3560000000.0 0.09583917422639059 0.060247274787975584
3580000000.0 -0.030005184730315704 -0.1285557705323779
3600000000.0 0.03920646277728729 -0.14906311053725063
3620000000.0 -0.05905019010609754 -0.15965168334718238
3640000000.0 -0.11739087849651363 -0.14122259479629806
3660000000.0 -0.1944924539974124 -0.011948442698716406
3680000000.0 -0.18312716065664164 0.07365466068620498
3700000000.0 -0.0626845352843225 0.18512965754342348
3720000000.0 -0.14400417934311152 0.12136580922032573
3740000000.0 -0.15701967476665252 -0.08442099482000623
3760000000.0 -0.1455479152481825 0.08583293975509346
3780000000.0 0.004662646431478257 0.1592210322908002
3800000000.0 0.03607431015920144 0.15210912346170766
3820000000.0 0.04438427676308547 0.14789447611076034
3840000000.0 0.08120079612264855 0.1301290798946109
3860000000.0 0.0577367485793923 0.14604654455127447
3880000000.0 0.09462024070326064 -0.12883221283656052
3900000000.0 -0.15957946471279325 -0.02171470208671217
3920000000.0 0.1493703879277351 0.05104297720762588
3940000000.0 -0.07265958321703433 -0.13956616237376024
3960000000.0 0.1308168466394753 0.09445197244603787
3980000000.0 0.0949814040034464 0.13009544752952507
4000000000.0 -0.14921093511051267 0.05147021421002405
