!Created with skrf (http://scikit-rf.org).
# Hz S RI R 50.0 
!freq ReS11 ImS11
400000000.0 -0.6839364198574869 0.5448762673980749
420000000.0 0.4344229011230977 0.7613715714118672
440000000.0 0.458094246583266 -0.7120890050794285
460000000.0 -0.6826922157647646 -0.40771009997049823
480000000.0 0.02850951297614378 -0.7195053884913617
500000000.0 -0.5124180899024418 0.25258915279957067
520000000.0 -0.003594683000541281 0.4697913316470387
540000000.0 0.32037618169590787 0.2379773046446922
560000000.0 -0.22257009481289705 -0.27807330660505325
580000000.0 -0.02778455376630389 -0.3238245474204658
600000000.0 -0.1664176554896741 -0.27538361140871964
620000000.0 0.0437612299716088 0.3291984149398869
640000000.0 -0.004743923309278916 0.35810887711083794
660000000.0 0.029468669736549692 0.3751053959008279
680000000.0 0.03334393347496816 -0.40548486435078934
700000000.0 -0.3356152922457095 -0.2569622079733266
720000000.0 -0.35817687301736045 0.25814532556347647
740000000.0 -0.4465573990071796 -0.02082951127994753
760000000.0 0.43179733758149125 -0.03612886491206767
780000000.0 0.12855577435466953 0.383095184561745
800000000.0 -0.3691783461860638 0.027193612528496447
820000000.0 -0.24110085573331982 0.19886760743769977
840000000.0 -0.05824135217532587 -0.24610628419803918
860000000.0 0.19475749548068982 -0.04257263823950635
880000000.0 -0.1373360270627449 -0.056021181012137204
900000000.0 -0.03471037218343854 0.0801455077717683
920000000.0 -0.03480184069002402 -0.030014931437670356
940000000.0 -0.02553095273444422 0.02223111270985078
960000000.0 0.03075677964497093 0.03695560004632175
980000000.0 -0.04150132278940175 0.04305033746042232
1000000000.0 -0.019242529770059982 -0.07175126222375233
1020000000.0 0.08555111890536826 -0.02860555984529525
1040000000.0 0.036154693355826474 0.09889404675307692
1060000000.0 -0.13409917621906253 -0.05262324774453932
1080000000.0 -0.12539535323079223 -0.0966299673616064
1100000000.0 -0.13698441709206813 -0.11515341055808796
1120000000.0 -0.11319201383662975 0.160934647375776
1140000000.0 -0.20819784026089658 0.10173368996242553
1160000000.0 -0.09057208793223881 0.25058251809072885
1180000000.0 -0.30973468693262973 0.002896714704640105
1200000000.0 -0.23461340397249614 -0.24872511612524548
1220000000.0 0.356085222540899 -0.12831722399218182
1240000000.0 -0.2878656566293075 0.28213308892481614
1260000000.0 0.14905088716035225 -0.4044327241028572
1280000000.0 -0.3824790302994149 0.2242318795959173
1300000000.0 0.39939793230420767 -0.2101065423941946
1320000000.0 -0.08672074201123307 -0.4384978261651301
1340000000.0 -0.24251137812501952 -0.3647308189253342
1360000000.0 0.11998830769227482 -0.4183063859966097
1380000000.0 -0.14880495058175827 -0.4050148681597554
1400000000.0 -0.37349909824682354 0.1925319953445582
1420000000.0 0.08871309160722132 0.3915325785998431
1440000000.0 0.35930358182949756 -0.10095871278439882
1460000000.0 0.1897523108320634 -0.2820687550842704
1480000000.0 -0.03567275951165925 -0.30826613247067786
1500000000.0 -0.1019391861723609 -0.260788010151951
1520000000.0 -0.2519151371638964 0.029034884619013514
1540000000.0 -0.04021776484059539 0.22700258007028698
1560000000.0 -0.19695826770397615 -0.049195184281330066
1580000000.0 0.02800424238923444 -0.18044925380226395
1600000000.0 -0.06411205365909267 0.13658731930766546
1620000000.0 0.1216702106633923 -0.008667932823286047
1640000000.0 0.07111759799977249 -0.06499572716139278
1660000000.0 -0.04329654900473367 0.06044291312840515
1680000000.0 -0.02511380482987805 0.043105677183664336
1700000000.0 0.005031568416442063 -0.032014405666249475
1720000000.0 -0.003223663206423554 -0.01962142572388071
1740000000.0 0.022469734930882536 -0.017028499828354474
1760000000.0 -0.04816304309066519 -0.01067029839953431
1780000000.0 0.04813312389539585 0.06611396398752728
1800000000.0 -0.09593467762208607 0.06887082072909914
1820000000.0 -0.030033561418175782 0.146062644747997
1840000000.0 -0.01729669560712121 0.18236104308026757
1860000000.0 -0.17184143983834319 -0.12141862928045409
1880000000.0 0.1381380236246714 0.19602149855246004
1900000000.0 0.10379967524286024 -0.25334777708618
1920000000.0 -0.29328721223826504 0.06707159738321274
1940000000.0 -0.15302935255079736 0.2922857712980443
1960000000.0 0.15122460323538162 0.3250157534529567
1980000000.0 0.36392280687133094 -0.11048139011400443
2000000000.0 0.3354729971343347 -0.2246866674497882
2020000000.0 -0.19868490559157403 -0.3761821902164698
2040000000.0 -0.4390334389138011 -0.010385013337165176
2060000000.0 0.0627332490953623 0.44129511692643936
2080000000.0 0.43184199691191705 -0.11678070539993406
2100000000.0 -0.07384519304621728 -0.4344794320201884
2120000000.0 -0.3831150448840057 -0.19374610316889357
2140000000.0 -0.3458640147380425 0.23083921169934174
2160000000.0 -0.36859258504699965 -0.14836669419561635
2180000000.0 -0.3733478353461441 -0.06484684589088975
2200000000.0 -0.3373416490786359 0.12719748066606223
2220000000.0 -0.2971013488629567 -0.17902309896891935
2240000000.0 -0.2836356781038681 -0.1947884642497984
2260000000.0 -0.17344482042752846 -0.299880891067669
2280000000.0 -0.30949624485378713 -0.17337088960055141
2300000000.0 -0.2797935127762049 0.23882839609176945
2320000000.0 0.2629044625001529 0.2884115313917043
2340000000.0 0.2960841107974974 -0.3003219035205342
2360000000.0 -0.43716688930014286 0.14532371322203294
2380000000.0 0.5059147967551499 0.0035974242738651963
2400000000.0 -0.5538436241918414 0.048168653897031004
2420000000.0 0.5037400689831965 -0.3405895923241695
2440000000.0 -0.1423427571815752 0.6421974173436807
2460000000.0 -0.461029610844291 -0.5253480695869747
2480000000.0 0.7096830654088713 0.1791027088118114
2500000000.0 -0.7497389085414111 -0.0825952332639853
2520000000.0 0.7601700759562511 0.11211131807681264
2540000000.0 -0.7059995359922173 -0.31349779591853727
2560000000.0 0.37628821832922005 0.6710262003687116
2580000000.0 0.22057351172244663 -0.7254242964811115
2600000000.0 -0.6593729065409912 0.33323127090707
2620000000.0 0.6901693479363104 0.17564932582310494
2640000000.0 0.6164299637183152 -0.28192341943381294
2660000000.0 -0.621197199121826 -0.12882675653361905
2680000000.0 0.41969119104648184 0.41138835686526687
2700000000.0 -0.07437842689349257 -0.5336711781680874
2720000000.0 -0.2980831925508777 0.3874504535294868
2740000000.0 0.4333290607885628 0.08936283449910502
2760000000.0 -0.22621974545361892 -0.3333851744486964
2780000000.0 0.0028487647947165744 0.3737618582070358
2800000000.0 -0.05240942789324737 -0.34631191527936206
2820000000.0 0.27940732973267907 0.18434619581364012
2840000000.0 -0.21590419676396064 0.24117534934654486
2860000000.0 -0.29186879896287465 -0.12720203269964825
2880000000.0 0.027802357184653043 -0.3126797770801396
2900000000.0 0.28390940465703496 0.11995652124992248
2920000000.0 -0.2685782358227549 -0.14222788630266506
2940000000.0 -0.08968944170250073 0.28676318436724907
2960000000.0 0.04384375372663841 0.2955302438008159
2980000000.0 -0.20472234558027574 0.22017872060318758
3000000000.0 -0.25480253975722617 -0.1655953859548845
3020000000.0 0.12624957347815152 -0.2817840822793533
3040000000.0 0.1325174716047171 0.27967786542491535
3060000000.0 -0.3038288945696997 -0.07242213362708863
3080000000.0 0.24153169461957155 -0.19854529772263843
3100000000.0 0.012411064278777407 0.31140967674505043
3120000000.0 -0.3074288149396468 -0.020368780276727606
3140000000.0 -0.08940300826221106 -0.28449465478236136
3160000000.0 0.07906446516742983 0.268978563027477
3180000000.0 -0.21239371185761213 0.15083646031651762
3200000000.0 -0.19650630016522871 -0.12189698654720085
3220000000.0 0.17083939277576504 -0.10429629596032614
3240000000.0 -0.12543715641358494 0.11082526070214282
3260000000.0 0.07526767946319703 0.1129290466252456
3280000000.0 0.013629936366225457 0.10726789628453454
3300000000.0 -0.0038739439220337826 0.08596861301434383
3320000000.0 0.06651273917901093 -0.0005868886067288272
3340000000.0 0.04403316114101317 0.022576906013807824
3360000000.0 0.02604046999603803 0.01844112498669691
3380000000.0 0.01996582007411558 -0.004944269155537488
3400000000.0 0.020510424976284976 0.014925271124826802
3420000000.0 0.012499239085131841 0.038509044308786086
3440000000.0 -0.05331181601350021 0.004260626412137869
3460000000.0 -0.02571387037875457 0.05696906123744797
3480000000.0 -0.06912562208767357 0.0037918465486122092
3500000000.0 -0.01431286872340146 0.07407998195152343
3520000000.0 -0.06226807505766573 0.057442050666340956
3540000000.0 -0.01367333137636456 0.09747513130514368
3560000000.0 0.06941506327672607 0.08888172285945942
3580000000.0 -0.02048331633919145 -0.1308369138380076
3600000000.0 0.061532595339268095 -0.14126523166409277
3620000000.0 -0.0078661600993135 -0.16966389124094017
3640000000.0 -0.09137241968158935 -0.1590655380011922
3660000000.0 -0.18736180322142473 -0.0526707404299806
3680000000.0 -0.19445035072710556 0.03386966104187376
3700000000.0 -0.09025217538095602 0.17323782455423767
3720000000.0 -0.15548706898109602 0.1057664127572649
3740000000.0 -0.1554904690704017 -0.08625945258211892
3760000000.0 -0.1408322497896763 0.09237683527879885
3780000000.0 0.0010076494868296766 0.15867757450077602
3800000000.0 0.04670905489419449 0.14829221187832628
3820000000.0 0.03155385638793224 0.15026729898491448
3840000000.0 0.07042592895628916 0.135175613813296
3860000000.0 0.05284952928676095 0.1471159955812732
3880000000.0 0.0869869504564428 -0.13332854248006593
3900000000.0 -0.16006932641669144 0.010371267851702299
3920000000.0 0.15733598542627927 0.0011545295405555151
3940000000.0 -0.1223710499718186 -0.09788249951239465
3960000000.0 0.15572259911857 0.038765215915400206
3980000000.0 0.1400057627262036 0.07775743114501664
4000000000.0 -0.12014786317603292 0.10135721849275438
