!Created with skrf (http://scikit-rf.org).
# Hz S RI R 50.0 
!freq ReS11 ImS11
400000000.0 -0.6703381132622144 0.5582510603654397
420000000.0 0.4341315826003015 0.7593689955563042
440000000.0 0.412269686052125 -0.7389235942182245
460000000.0 -0.7085110230256685 -0.3571652221729066
480000000.0 0.03814405625527244 -0.7178913992670954
500000000.0 -0.5318973532468922 0.21021123404523873
520000000.0 0.03449291953365198 0.4691159598493191
540000000.0 0.35243142034852315 0.1835512002699824
560000000.0 -0.24714711236877196 0.25561178820840436
580000000.0 -0.08305731945442044 -0.31536446342793
600000000.0 -0.24077061589439464 -0.2152833856157148
620000000.0 0.031101896063806655 0.33167556593665143
640000000.0 -0.02585889233008557 0.3592157966659642
660000000.0 -0.06550695728162502 0.3720456717558748
680000000.0 0.13951958586726498 -0.3833787232889669
700000000.0 -0.2922287135456633 -0.3065893861475321
720000000.0 -0.40619066136078513 0.1720192977187571
740000000.0 -0.42752305504509364 -0.1330456256439788
760000000.0 0.42981999777011737 0.04703121086824601
780000000.0 0.1171407979359715 0.3855180457439739
800000000.0 -0.36442656109992355 0.06079965595618124
820000000.0 -0.19058157120613944 0.24663826521966045
840000000.0 -0.14340034070108126 -0.20804468027287204
860000000.0 0.14485229403011554 -0.1379014724075426
880000000.0 -0.14882025876353028 0.019939548648366886
900000000.0 -0.018458516768352546 0.08798853410157362
920000000.0 0.006770256517644369 -0.04701303570526589
940000000.0 0.006874070451441906 -0.03233695188402742
960000000.0 -0.029491751424544632 0.03630349564162976
980000000.0 -0.04227953662486762 0.04050148045374462
1000000000.0 -0.05828650917357194 -0.043894318325433335
1020000000.0 0.047278130076567 -0.07554406632016396
1040000000.0 0.09751983623795381 0.03793693116938551
1060000000.0 -0.13311587190638785 0.05590966671963916
1080000000.0 -0.15839203984161335 -0.019917826095223787
1100000000.0 -0.1744231356873421 -0.04665373560776112
1120000000.0 -0.08275996416699503 0.18037963680065433
1140000000.0 -0.20091953244389585 0.11951371848951921
1160000000.0 -0.14085978993510023 0.22822054328758326
1180000000.0 -0.3025986759919052 -0.07117366004466372
1200000000.0 -0.14550721998216556 -0.3101141068079993
1220000000.0 0.3762676771888206 -0.048376162418192696
1240000000.0 -0.34409390564378806 0.21005735941222853
1260000000.0 0.22681638473367008 -0.3662258500625248
1280000000.0 -0.4102149424775141 0.16719029078781036
1300000000.0 0.40795924604797745 -0.19171366746382112
1320000000.0 -0.06667597718816311 -0.4415030206655425
1340000000.0 -0.2396490341221333 -0.36632564880408575
1360000000.0 0.11127874920009914 -0.4203965719237596
1380000000.0 -0.15605010883251488 -0.40212636510234956
1400000000.0 -0.3579728130099876 0.21999360807083534
1420000000.0 0.12160202810639559 0.3826384739279305
1440000000.0 0.3549224362908742 -0.11653862292473999
1460000000.0 0.16127282114822242 -0.2998322901459511
1480000000.0 -0.06042538076238483 -0.30484987812376935
1500000000.0 -0.12199092867541574 -0.2527361528001331
1520000000.0 -0.2515910960171831 0.03676272152503442
1540000000.0 -0.05869817565032477 0.2237779345295597
1560000000.0 -0.19508795891126343 -0.058246353980179154
1580000000.0 0.023265092738940025 -0.18131487702522114
1600000000.0 -0.11970839260444781 0.09240991257506301
1620000000.0 0.11947082596319622 0.025461748362227355
1640000000.0 0.08397493676973758 -0.04733390686805855
1660000000.0 -0.05140943785784552 0.05298562829741339
1680000000.0 -0.03606856951328104 0.033278563214683574
1700000000.0 -0.017435051219104564 -0.027080855226115516
1720000000.0 -0.020312975742600346 -0.0011110446732619371
1740000000.0 0.00653094791415512 0.028213982185250785
1760000000.0 -0.02885193030220145 -0.04023190709971175
1780000000.0 0.019881328190634835 0.0788926475589885
1800000000.0 -0.09489736876835997 0.0696350114443375
1820000000.0 -0.022769731325142845 0.14646443644917667
1840000000.0 -0.020825962627834278 0.1813517168618207
1860000000.0 -0.17763382440130374 -0.11235206195927387
1880000000.0 0.15596966563735865 0.18213172349510862
1900000000.0 0.08203983567534011 -0.26118314236968687
1920000000.0 -0.29123996755212894 0.07524676059955326
1940000000.0 -0.14386897924325315 0.29737334673785226
1960000000.0 0.17218019360538664 0.3151156796521269
1980000000.0 0.3593699020552365 -0.12566140988135022
2000000000.0 0.33361880569621305 -0.22822088191008968
2020000000.0 -0.16115246557765417 -0.39425677355675226
2040000000.0 -0.43834668405420646 0.02747448555653641
2060000000.0 0.010893928211675414 0.4460358595462804
2080000000.0 0.4360550523753093 -0.09912206284738673
2100000000.0 -0.0396778059912813 -0.4385792447770333
2120000000.0 -0.3643698637530025 -0.22629376452415076
2140000000.0 -0.3734688976151535 0.18233418931036313
2160000000.0 -0.3501302620195051 -0.18702039127119205
2180000000.0 -0.3652742317316147 -0.09916053747137227
2200000000.0 -0.3420788394754606 0.11285080225148016
2220000000.0 -0.2903302973439349 -0.18890844853669006
2240000000.0 -0.29553766919070784 -0.17451167049648345
2260000000.0 -0.19682142463387453 -0.2839677567449005
2280000000.0 -0.3225689365605958 -0.14578241492261595
2300000000.0 -0.2577977673615483 0.26139145433755506
2320000000.0 0.29844375668322276 0.2510804819575648
2340000000.0 0.2774912715402289 -0.31709719171855993
2360000000.0 -0.43155676892809414 0.1614811721723683
2380000000.0 0.5060021482462612 -0.01908846060907275
2400000000.0 -0.554721548319541 0.04223280018766686
2420000000.0 0.5124513644794595 -0.3280195879024381
2440000000.0 -0.1626730804842484 0.6376827775101459
2460000000.0 -0.40794949124263274 -0.5679857755123814
2480000000.0 0.6954853849642101 0.22995357973226302
2500000000.0 -0.7504844950493783 -0.07289206514631213
2520000000.0 0.7605186062496274 0.10805317508291487
2540000000.0 -0.6607581222868393 -0.39999007284433935
2560000000.0 0.3341408005605113 0.6928279166783511
2580000000.0 0.30992683651991615 -0.6915420449162484
2600000000.0 -0.6700490087351268 0.3094190212687732
2620000000.0 0.6390473140622029 0.3134329383561378
2640000000.0 0.6519855769880897 -0.182354149032538
2660000000.0 -0.6087736400033021 -0.17579057332216255
2680000000.0 0.372735026444049 0.45334647218614127
2700000000.0 -0.03023002067034199 -0.5371942379068814
2720000000.0 -0.29782519035739224 0.38667862441475764
2740000000.0 0.4358163967689149 0.0732238873949107
2760000000.0 -0.24422728210377687 -0.3198692317447944
2780000000.0 0.0248355927498359 0.37249926387192206
2800000000.0 -0.07489493584014127 -0.3419538964862045
2820000000.0 0.2930649393418564 0.162443465924503
2840000000.0 -0.18506038844757933 0.266345722193529
2860000000.0 -0.30296213921937676 -0.09914783215422475
2880000000.0 0.04464208684846656 -0.3116891172609615
2900000000.0 0.28275758319389915 0.12498201670403672
2920000000.0 -0.2653853178314118 -0.15063713704989526
2940000000.0 -0.12250061810021959 0.27510366820802434
2960000000.0 0.0018230727762368626 0.2994599528878658
2980000000.0 -0.23578774873397015 0.18888465684140582
3000000000.0 -0.21489704822123412 -0.21523145248236059
3020000000.0 0.15282004834038687 -0.267801155660933
3040000000.0 0.07173874326222626 0.30040997332173974
3060000000.0 -0.28566162925109506 -0.12575267956418845
3080000000.0 0.264411942787276 -0.16565671342796234
3100000000.0 -0.07690016253793153 0.30089468793423246
3120000000.0 -0.3051741508700696 -0.039932365835346526
3140000000.0 -0.05054786499642089 -0.2934263233323017
3160000000.0 0.060635208760305835 0.27277463916892525
3180000000.0 -0.20679197122368403 0.15665882441149512
3200000000.0 -0.1957200885645855 -0.12139218564386993
3220000000.0 0.1543457421313793 -0.12675714624333967
3240000000.0 -0.08323711068889991 0.14466025966176294
3260000000.0 0.1145102928105366 0.07086414576851224
3280000000.0 0.05788759659460794 0.09037970315433705
3300000000.0 0.05512151606819806 0.06524508495124405
3320000000.0 0.04360298605604095 -0.04973614241326154
3340000000.0 0.04405609413830316 -0.02182050167313073
3360000000.0 0.031274006494896124 -0.007452056268625496
3380000000.0 0.02127645377749944 -0.0045805210633478805
3400000000.0 -0.02242087177583313 0.013275141140275462
3420000000.0 -0.03522413603600379 0.020683015529032685
3440000000.0 0.007029385743638734 -0.0527864662432456
3460000000.0 -0.061895690013285674 0.005514127684078539
3480000000.0 -0.035127716861657776 -0.05907795100857292
3500000000.0 -0.04900313978835251 0.0570933057394208
3520000000.0 -0.08121769138811999 0.022143963666766468
3540000000.0 -0.04752942873056231 0.08554912671624272
3560000000.0 0.05619196292888786 0.0976353878362741
3580000000.0 0.020383640347714022 -0.12967487563311098
3600000000.0 0.10509746333134613 -0.11091573795476978
3620000000.0 0.04261971626147516 -0.1635414917450296
3640000000.0 -0.039627116352751554 -0.17816608325599
3660000000.0 -0.16912831689562524 -0.09369406529205687
3680000000.0 -0.1951430503480215 0.021812750513660464
3700000000.0 -0.09154725767701913 0.17170641882419746
3720000000.0 -0.14379245314565145 0.12034087211039737
3740000000.0 -0.16709348035897892 -0.05842446809974279
3760000000.0 -0.11477392863938812 0.12189224096537213
3780000000.0 0.05961830997222772 0.14563976319758704
3800000000.0 0.0782121542089682 0.13293332092972812
3820000000.0 0.05001646088260117 0.14422934394778486
3840000000.0 0.07008583656205523 0.13461031090784573
3860000000.0 0.05061775028278868 0.14705284149957729
3880000000.0 0.07318272685558594 -0.1406872739648629
3900000000.0 -0.15760249978492655 0.02898445920672544
3920000000.0 0.15191581649672053 -0.0396661248259631
3940000000.0 -0.13927413992391044 -0.0699656186963984
3960000000.0 0.1594052413787498 -0.012283008898802196
3980000000.0 0.15085855296795936 0.05163970673862002
4000000000.0 -0.10111617071699064 0.11942415052569141
