! Created with skrf (http://scikit-rf.org).
# Hz S RI R 50.0 
!freq ReS11 ImS11
400000000.0 0.14741806754096665 0.8598469724848102
420000000.0 0.6402214258568476 0.5752303458502086
440000000.0 0.800975545644616 -0.20606969968624034
460000000.0 0.1395150045510627 -0.777194642523639
480000000.0 0.5097439850110917 -0.4909521421939893
500000000.0 0.262957518984351 -0.49685109071249184
520000000.0 0.25247851089925755 -0.41624845693781265
540000000.0 0.4274780217235976 0.019262071666099924
560000000.0 -0.30909539784454154 -0.16841463349035213
580000000.0 -0.32518424525818357 0.06967244285704312
600000000.0 0.2604258209507301 0.2025122280648144
620000000.0 -0.16961825194124328 -0.3058989359691473
640000000.0 -0.3378654256594995 -0.17743120412637137
660000000.0 -0.3862522438334515 0.09899779743746663
680000000.0 0.06740814320478625 -0.4225183789304928
700000000.0 0.08307338600640492 0.4418431424545454
720000000.0 0.16234771619799268 -0.4230908721629624
740000000.0 0.3890687354207534 -0.21563630755502272
760000000.0 -0.41560057796942557 0.04712735999826255
780000000.0 0.11568768165400152 -0.36480175564483075
800000000.0 -0.009851642523759559 0.3483368401614594
820000000.0 0.059056343572976774 0.2852907999917632
840000000.0 0.23177446699910367 -0.02772025037808554
860000000.0 0.00800265772100836 0.19723475996059853
880000000.0 -0.127786218996028 -0.05005137677193344
900000000.0 -0.05156381701434679 0.051035304783485405
920000000.0 -0.03193324783731231 0.026197133175325283
940000000.0 0.024902438830459273 0.024570152096639465
960000000.0 -0.04494814620811594 -0.014520661567401122
980000000.0 0.04830918558135852 -0.021545484214164128
1000000000.0 0.01859864235405319 0.05639131504772609
1020000000.0 0.0704935588056534 0.01842907847758174
1040000000.0 -0.04667637717584865 0.06664595561376654
1060000000.0 0.11872475584922901 -0.02131090627696722
1080000000.0 -0.08540698845595529 -0.10855170170148236
1100000000.0 -0.039208670893631135 -0.15988884854389268
1120000000.0 -0.19461091181548734 -0.020893554794872406
1140000000.0 0.21735740257815522 0.10489938501661815
1160000000.0 0.21592402372739627 -0.18818503891537475
1180000000.0 -0.17607229664318283 -0.28044384780281345
1200000000.0 -0.34134743417338476 -0.13922596781241403
1220000000.0 -0.037683355035269546 -0.3962965723044064
1240000000.0 0.41029276831731876 0.08554254686065232
1260000000.0 -0.43951704981534334 0.019325952572839172
1280000000.0 0.4421240210402286 -0.07611304779065871
1300000000.0 -0.4128391846673841 -0.1728886429369688
1320000000.0 -0.1445322220253706 0.40962987116355587
1340000000.0 -0.367972826699091 0.20063558897445163
1360000000.0 -0.1294198764218161 -0.3867251757919872
1380000000.0 0.22345150624756407 -0.3410106811593506
1400000000.0 0.16346882849224917 -0.36138482614839534
1420000000.0 0.12697657917733102 -0.36541288742687206
1440000000.0 -0.15455546844699422 -0.3387836864561703
1460000000.0 -0.3536996085930167 0.003297760414784101
1480000000.0 0.15366625393809044 0.2964412731331606
1500000000.0 -0.11851983437365686 -0.2853155962076788
1520000000.0 -0.14904107403196848 0.2408859705905507
1540000000.0 -0.17673411510700818 0.1820199480434369
1560000000.0 0.08694497034031098 0.19724166261699727
1580000000.0 0.17815631238565427 0.0280359955125942
1600000000.0 -0.12327761600514485 0.07973457750508713
1620000000.0 -0.017184004034828722 -0.10391827032428239
1640000000.0 -0.07491928991503856 0.02201692427569565
1660000000.0 -0.032384986428251966 0.042224005704937874
1680000000.0 -0.01833384610354958 -0.014665408039754082
1700000000.0 0.0022098040471433527 0.01296959631709504
1720000000.0 -0.029213568396344314 -0.011127593180199867
1740000000.0 0.02385047876552937 -0.04782980165577594
1760000000.0 -0.004028873674791433 -0.06891137149238459
1780000000.0 -0.03956109523496789 -0.07875741092561654
1800000000.0 0.11379933687852475 0.0015754076200045716
1820000000.0 0.06761210230202967 -0.10717966104235283
1840000000.0 0.13641997618874846 0.06420705692706137
1860000000.0 -0.043415832330660716 0.16789462960161533
1880000000.0 -0.10124913731064746 -0.18235158624966447
1900000000.0 0.11448787715662267 -0.22327670031390418
1920000000.0 -0.2848483781236055 -0.08259263325409466
1940000000.0 0.026458712647895132 0.34237949576608495
1960000000.0 0.1139817202505709 -0.366555055896184
1980000000.0 -0.07144938232325675 0.4064899730161751
2000000000.0 0.3176570409329606 -0.2998198670218002
2020000000.0 -0.3633611384620209 0.26914511425377924
2040000000.0 0.43730563797135535 0.1252957194935579
2060000000.0 -0.1883187870260904 -0.4100443684573636
2080000000.0 -0.387869660634057 0.20146391026423088
2100000000.0 -0.17526147093433245 0.3817120490465784
2120000000.0 -0.24065785712676707 0.3193616920748419
2140000000.0 -0.36336008397983777 0.1182159796641259
2160000000.0 0.2584196464920139 -0.25970072091618424
2180000000.0 0.3536087458715778 0.03719221154921807
2200000000.0 0.2231266323058604 0.268562452864272
2220000000.0 0.33588050908076034 0.1071795750161097
2240000000.0 0.01471328024205142 -0.35304442342694325
2260000000.0 -0.3562321273109488 0.024003958613178885
2280000000.0 0.18247324852004534 0.31081387027906243
2300000000.0 0.24979556131481587 -0.27496291785628674
2320000000.0 -0.3811228284568607 -0.07778765587187632
2340000000.0 -0.13211423909364023 0.39340362793621697
2360000000.0 0.45070071448829313 -0.00412787373861816
2380000000.0 -0.3485238604729093 -0.35532456171227383
2400000000.0 0.19290428850666333 0.514068239073761
2420000000.0 -0.3166863387006699 -0.5134334181828148
2440000000.0 0.6058900805271905 0.24868136164048893
2460000000.0 -0.6669124215984542 0.20343577457674852
2480000000.0 0.4891079706821451 -0.5423335037873711
2500000000.0 -0.4522214555636357 0.6010411410964563
2520000000.0 0.5223851905074129 -0.5567792171655587
2540000000.0 -0.7136503663610888 0.27815085945583945
2560000000.0 0.7325398362325141 0.20392145159556044
2580000000.0 -0.257165727236077 -0.7008114665578214
2600000000.0 -0.4419963145906007 0.570162434592004
2620000000.0 0.6898723170709575 -0.03961758792512895
2640000000.0 0.5971468709388955 -0.26676973825985245
2660000000.0 -0.5297750368901687 -0.3046518702451973
2680000000.0 0.04731456795407059 0.5652455949524723
2700000000.0 0.21231883888879854 -0.47842190772081916
2720000000.0 -0.25463853090087346 0.40324550367995626
2740000000.0 0.20264382748298357 -0.38227232357583063
2760000000.0 -0.04760990505535994 0.38758271923583737
2780000000.0 -0.1950398892902637 -0.2970399967892526
2800000000.0 0.3141212012540423 0.07941611116891106
2820000000.0 -0.28634204230957966 0.09353158256152369
2840000000.0 0.2698922389551847 -0.09801676051279151
2860000000.0 -0.27098357425253683 0.08318289294015063
2880000000.0 0.27200752745845724 -0.0826362442506909
2900000000.0 -0.2771656875849624 -0.08416847260140833
2920000000.0 0.1076345004070136 0.28167097544334346
2940000000.0 0.12251690584117247 -0.2873763434212135
2960000000.0 -0.30102362868849697 -0.10652341940904027
2980000000.0 -0.2866769803237181 0.1538527186087421
3000000000.0 -0.2793678028825955 0.17006850107566154
3020000000.0 -0.3244002280590222 0.030244058101228138
3040000000.0 0.07195956604855794 -0.31162042594880424
3060000000.0 0.2218540584913992 0.22150669919843863
3080000000.0 -0.17228937906602507 -0.2496034656880579
3100000000.0 0.11611039441244561 0.27111231687472404
3120000000.0 0.06851359629502016 -0.27586393606686166
3140000000.0 -0.17887153836789918 0.20759798834232773
3160000000.0 0.2465963204166057 -0.09174928902862094
3180000000.0 -0.06381060379734793 -0.24160013967944963
3200000000.0 0.21703008931959708 0.08362490336621953
3220000000.0 -0.051802444988679475 0.20256754084750775
3240000000.0 -0.14597596041501962 0.11101095393205639
3260000000.0 -0.15079332051401892 -0.008672206672091948
3280000000.0 -0.10031579892270531 0.05725916162241009
3300000000.0 -0.07462702517692729 0.03206822142170476
3320000000.0 0.0444108497559728 0.015121768315462041
3340000000.0 -0.004857003140183328 -0.016390680703806972
3360000000.0 -0.008866704538332385 0.002834402824614862
3380000000.0 -0.0016803174995418952 -0.02279272312008948
3400000000.0 -0.028894391870440107 0.011807175611074196
3420000000.0 -0.024487755159515085 -0.02507560350448311
3440000000.0 0.018440392587174007 0.03299674584951226
3460000000.0 0.008239635457962817 0.04331598460984748
3480000000.0 0.00870825195998747 0.06021696729205944
3500000000.0 0.007727160890359549 0.08231985194591483
3520000000.0 -0.032661739814607765 0.1014417693566402
3540000000.0 0.08702009233994953 0.08771852351981638
3560000000.0 0.12552052131299948 0.049759380267542
3580000000.0 -0.029295586065110842 0.14167939502948035
3600000000.0 -0.12074854976445092 -0.09859411430743296
3620000000.0 0.08187813443825878 -0.14249945907871506
3640000000.0 0.06972016233073286 0.15597238319220072
3660000000.0 -0.1687867165502388 -0.0629889378952887
3680000000.0 0.14723099861969144 -0.11457370672546228
3700000000.0 0.16984890390469667 0.0864394421968285
3720000000.0 0.047488960533774244 0.1892446993561477
3740000000.0 0.06002472979806407 0.18409443298208944
3760000000.0 -0.1710214289326508 0.07936555137208375
3780000000.0 -0.023969520729198668 -0.17651033846667552
3800000000.0 0.053980518812011644 0.15581356802899554
3820000000.0 0.09737379056156678 0.11731838137491223
3840000000.0 -0.12226517468001578 0.07023848175483824
3860000000.0 0.119988204014345 0.0702847173032203
3880000000.0 -0.14727174770909587 -0.0023708407530092096
3900000000.0 -0.11486819003720643 0.10658598972775322
3920000000.0 0.16505715799316276 -0.030872405463404622
3940000000.0 0.05365877639565761 0.1691728307129565
3960000000.0 0.18071724173092601 0.035983001207467745
3980000000.0 -0.15709633086279087 -0.09277216185526622
4000000000.0 -0.12627945142804717 0.11635943936106835
