! Created with skrf (http://scikit-rf.org).
# Hz S RI R 50.0 
!freq ReS11 ImS11
400000000.0 0.20338981189133026 0.8463036913268408
420000000.0 0.6460000431770182 0.5667532230195073
440000000.0 0.7683206535138154 -0.29842127028646354
460000000.0 -0.012175008460608353 -0.78629823689722
480000000.0 0.5114117079581223 -0.47186991459536426
500000000.0 0.48139662546535356 0.27651947217341305
520000000.0 0.321519141607274 0.37360063236044233
540000000.0 -0.36214151735050804 0.25419989077873256
560000000.0 0.15560002073042736 -0.3465845008627108
580000000.0 -0.29824925113228223 0.20543723641241177
600000000.0 0.24660120683477163 -0.2631151934577314
620000000.0 0.0891940758062011 0.36563201934994993
640000000.0 0.15494536105169143 -0.36613070738955855
660000000.0 -0.21852627888493942 -0.33722116480824443
680000000.0 0.4115538259360763 0.02394207923981308
700000000.0 0.20235861815295145 -0.37027810202186145
720000000.0 0.09605002711888165 -0.4115873754549653
740000000.0 0.150260930766153 0.3971707803022884
760000000.0 0.07414560432006141 -0.40331556094738163
780000000.0 0.33923608333683863 0.16768580517464204
800000000.0 -0.3210785978332999 -0.1262337979445394
820000000.0 -0.18041399549690404 -0.22732930989977565
840000000.0 -0.22344642594884143 0.07700672862492687
860000000.0 0.16687378283905613 -0.11164334158474243
880000000.0 -0.13272162458498418 -0.0476797531251478
900000000.0 0.08127240561912329 -0.005042184581188418
920000000.0 -0.054896456705420024 -0.018282766722624015
940000000.0 0.01961010070995326 -0.03218456307382227
960000000.0 -0.03560719875288365 0.02472616867622968
980000000.0 0.0546516842354541 0.032527450167185
1000000000.0 0.058511845334440434 0.06128943983022647
1020000000.0 -0.09853052305261026 -0.053233673265346754
1040000000.0 -0.10943447204712946 0.06630682755876086
1060000000.0 0.0989317097285643 0.12591450715339386
1080000000.0 0.15749801107460012 0.0622786420631777
1100000000.0 -0.01799912698860267 -0.1832238901018674
1120000000.0 -0.029659474126780678 -0.1953468074329672
1140000000.0 0.04471023894930719 -0.22227933422794102
1160000000.0 0.15775232911341833 0.20919820082991586
1180000000.0 -0.20593546509301242 0.2266824788966454
1200000000.0 -0.3431591284994828 0.010566962602618756
1220000000.0 0.22073571906402034 -0.30305497875812687
1240000000.0 -0.03847389120505567 0.39949690526068626
1260000000.0 0.16755049334815303 -0.3921753616614494
1280000000.0 -0.27886819925447937 0.3406696588689228
1300000000.0 0.4446847416095386 0.06027865966550765
1320000000.0 -0.023625161823486143 -0.44400948235343574
1340000000.0 0.01744530609271619 -0.43838222073181865
1360000000.0 0.14980625872722947 -0.4055104961268931
1380000000.0 -0.0946912159899731 -0.421664032765758
1400000000.0 -0.41707003915816987 0.018394515994563338
1420000000.0 0.012302296531889606 0.3989154389062532
1440000000.0 0.34710823586082196 0.13768549839743324
1460000000.0 0.1623110274236827 -0.30432856183589174
1480000000.0 -0.21341230633658154 -0.23069306898195502
1500000000.0 -0.2733938485552294 0.07690094781918352
1520000000.0 -0.1934047600131257 0.1681492726872013
1540000000.0 0.025609726478613405 -0.22624955479656744
1560000000.0 0.18319763047992557 0.06650168984950955
1580000000.0 -0.09511791918161608 0.1396569345556664
1600000000.0 0.11750273497533491 0.07674843946305861
1620000000.0 0.07158745904023263 0.08493793450253266
1640000000.0 -0.08353508816973045 0.029989999073330092
1660000000.0 -0.061342609162348884 0.026193278696286168
1680000000.0 -0.030101485920350498 -0.035564666451432636
1700000000.0 -0.004819279994121268 -0.0300545291844237
1720000000.0 0.0014741287361860636 0.009937925233256532
1740000000.0 0.012049900805841902 -0.0070901764895195335
1760000000.0 0.03210029608822976 0.018115848749400552
1780000000.0 0.033117721603982776 -0.06493019234949744
1800000000.0 0.07310753462181864 0.08400037486945075
1820000000.0 0.11079427308814943 0.09516140707717316
1840000000.0 -0.03136729648696969 0.17907887016744056
1860000000.0 -0.19834033683437188 -0.07444952868775628
1880000000.0 0.10705557532238938 0.21576348538362655
1900000000.0 0.24730712830984167 -0.11611650467207962
1920000000.0 -0.10582444048123225 -0.2846724393773735
1940000000.0 -0.30994949968321456 -0.13046440793941674
1960000000.0 -0.14636001661272185 0.33703574439423695
1980000000.0 0.3818064233188061 0.09239005463755227
2000000000.0 0.21904240606996173 -0.3541176193892339
2020000000.0 -0.43107232201384776 -0.03383613278163416
2040000000.0 -0.0555060686288506 0.4363458556741837
2060000000.0 0.4400442266405218 -0.022378116047304844
2080000000.0 0.11030645751785512 -0.41942441404394737
2100000000.0 -0.17729778921775438 -0.3852431996699175
2120000000.0 -0.3449355477823381 -0.2261237257039067
2140000000.0 -0.39920794904745827 -0.013713986306232669
2160000000.0 -0.07467394134348004 -0.37694973350324656
2180000000.0 -0.18243555311912002 -0.31911083734501916
2200000000.0 -0.2444189876378775 -0.25884292060631786
2220000000.0 -0.30349123632813985 -0.1698955736059309
2240000000.0 -0.31010374222345777 0.15378854702645034
2260000000.0 -0.07277782405642327 0.33924295196857573
2280000000.0 0.21710095805209115 0.27708900224922883
2300000000.0 0.22945074972194301 -0.2836744020156007
2320000000.0 -0.33869239767722537 -0.1845884399333131
2340000000.0 -0.20831969448949342 0.35754671650690584
2360000000.0 0.44522300522054975 0.08467930899666405
2380000000.0 -0.34553302948864445 -0.36234900446603513
2400000000.0 0.2858094843369483 0.4747515995700405
2420000000.0 -0.5078682540856949 -0.3352928644169226
2440000000.0 0.6469478837077376 -0.12255423556462929
2460000000.0 -0.40393257768393304 0.5710552258989048
2480000000.0 0.07184181045578658 -0.7267357406030707
2500000000.0 -0.09482915236919161 0.7449159557784486
2520000000.0 0.21346820424438534 -0.7309936725699874
2540000000.0 -0.5342698400891805 0.545074363494048
2560000000.0 0.7553738464817199 -0.05608219744383659
2580000000.0 -0.5135106859874754 -0.5363038620909181
2600000000.0 -0.09128312822405128 0.7125431620284685
2620000000.0 0.5950904132067113 -0.34473240745158157
2640000000.0 0.31707673731121827 -0.5676134972246903
2660000000.0 -0.5854332964568372 0.151030249666874
2680000000.0 0.47677659572473197 0.28787599569707334
2700000000.0 -0.09935349931793773 -0.499484599103608
2720000000.0 -0.2297937293389704 0.4000876788550719
2740000000.0 0.39393583057404014 -0.14152948303457596
2760000000.0 -0.37986425137852864 -0.01942244065724002
2780000000.0 0.32920864395742777 -0.12239823993806538
2800000000.0 -0.1901672404248114 0.2655398486119444
2820000000.0 -0.13777208080371336 -0.2765396120677241
2840000000.0 0.29605837830034193 -0.030930235795641595
2860000000.0 -0.1606569064976082 0.2464257135877442
2880000000.0 -0.10767986337696556 -0.27289185420193196
2900000000.0 0.1397365290586442 0.2595660516091545
2920000000.0 0.14995086831488283 -0.2594273354023093
2940000000.0 -0.3013177073620197 -0.05445640045578265
2960000000.0 -0.20276115867205657 0.23347218625358543
2980000000.0 -0.21222850944125005 0.23148360348105526
3000000000.0 -0.31558203034930105 0.00780535336871946
3020000000.0 -0.12195745645884355 -0.2911293707897493
3040000000.0 0.31185453894248827 0.02485677700118622
3060000000.0 -0.294739456791699 0.09699781683059547
3080000000.0 0.24401713960955457 -0.1841379890697388
3100000000.0 -0.2240236398640203 0.19945263857015957
3120000000.0 0.16400102557559754 -0.24190699502556104
3140000000.0 -0.035743838199831325 0.28023318459523383
3160000000.0 -0.15367054666899166 -0.22027124134054316
3180000000.0 -0.09000869426639745 0.2353257939194036
3200000000.0 -0.17873281155145368 -0.14456412363102145
3220000000.0 0.10012673157446246 -0.17710354635319017
3240000000.0 0.12558128860982834 0.11871563007407954
3260000000.0 -0.1266378070118157 -0.05683926365778464
3280000000.0 0.1031795581477252 0.0242771982326857
3300000000.0 -0.048492561508066516 -0.05861901423096473
3320000000.0 -0.03506344368343685 -0.031658132424179045
3340000000.0 0.015051228562235522 0.017046927549202576
3360000000.0 -0.0013575408144332205 0.005270213675396918
3380000000.0 0.010126103456656725 -0.00303022579730049
3400000000.0 -0.002656798184498472 0.02236900729310467
3420000000.0 0.008672852590571205 0.03347448381017852
3440000000.0 -0.02027670267518594 -0.04136608007908338
3460000000.0 0.0320611604238038 -0.04530595370061342
3480000000.0 0.0649167470798989 0.021339151871292043
3500000000.0 0.04149150316793907 -0.0726346569003362
3520000000.0 -0.07606239852117841 0.06382158108914987
3540000000.0 -0.08040011932505554 -0.08100455112836201
3560000000.0 0.12408970511149023 0.021366452128406533
3580000000.0 -0.13371521712940224 -0.03487948295373016
3600000000.0 0.15344333892751877 -0.01929645493718135
3620000000.0 0.0381689514321435 0.1622802216047625
3640000000.0 -0.17744612244127472 0.017893776630269108
3660000000.0 -0.1332140638873822 -0.13333546758297551
3680000000.0 -0.05123554225387437 -0.18805120387562255
3700000000.0 -0.004593390860171292 -0.1963528341237057
3720000000.0 0.1425099743016906 -0.13413420664125617
3740000000.0 0.14949065112929286 -0.12024133264615812
3760000000.0 -0.07354293793452105 0.16795229999964534
3780000000.0 0.026128686099432006 -0.16915176262659187
3800000000.0 -0.1490842085377487 -0.058642483476728374
3820000000.0 -0.13250416140794974 -0.07353418541325939
3840000000.0 0.10735580980048996 -0.09935212725084908
3860000000.0 -0.0017554897836654405 0.14825051365506917
3880000000.0 0.0760708216422302 0.13661030920594755
3900000000.0 0.10241840134200648 -0.12279416943272468
3920000000.0 -0.16125043487276974 0.03661115132148174
3940000000.0 0.07892690920723552 -0.1498413533717368
3960000000.0 0.17182857804516052 0.018196650578291677
3980000000.0 0.11991293964709296 -0.12509750681997142
4000000000.0 0.1032616574810115 -0.1305417909574406
