! Created with skrf (http://scikit-rf.org).
# Hz S RI R 50.0 
!freq ReS11 ImS11
400000000.0 -0.35995143884229297 0.7801899048059127
420000000.0 -0.13282364822506998 0.8446425202950097
440000000.0 0.680406082454284 0.471237046811146
460000000.0 0.688578779142967 -0.38478889812326433
480000000.0 0.2343236306707574 0.6725760476902752
500000000.0 0.5485263843320942 0.22295924251909224
520000000.0 0.06537884929204293 -0.5121512221093136
540000000.0 0.4551743608466679 -0.04883321916120514
560000000.0 -0.3185274801664719 -0.2225944128902804
580000000.0 0.2629070964806849 -0.24083857529925742
600000000.0 -0.2605589374758793 -0.25072064850287257
620000000.0 0.31010223684603494 0.2131914473624723
640000000.0 0.015475471030948663 -0.3979248222070694
660000000.0 -0.3580109833272222 -0.2029666600758599
680000000.0 -0.10040379367299336 -0.40951366186232135
700000000.0 -0.36962733123216995 0.21157307228191566
720000000.0 -0.30707017956562155 0.27827278814851264
740000000.0 0.3634183779464862 -0.17962120385429414
760000000.0 -0.17717586015724185 -0.34871192161193265
780000000.0 0.2525523331576819 0.2553877261703828
800000000.0 0.24255946939213455 -0.21227448937943635
820000000.0 -0.2435369049277374 0.13396205281474108
840000000.0 -0.2165360135901047 0.10259131976385974
860000000.0 -0.18879792836341122 0.08803515942869043
880000000.0 0.11081295754841006 -0.11401875297068315
900000000.0 0.0465902218962946 0.09883224482330596
920000000.0 0.03350287622041281 -0.07051150526296246
940000000.0 -0.042415150422534985 -0.02474499744355159
960000000.0 -0.015430974110775215 -0.04855754612276632
980000000.0 -0.00818122253272098 -0.06768628367583149
1000000000.0 0.05095534259137232 -0.0637392975691988
1020000000.0 0.019194542705955334 -0.10295490496774859
1040000000.0 0.11438282350615825 -0.04179554713770995
1060000000.0 0.13817341623217075 -0.07644196604145548
1080000000.0 0.16852287379764383 -0.0507056923739008
1100000000.0 -0.18240970960344205 -0.07878746028280526
1120000000.0 0.1406593834450074 0.16994733162121384
1140000000.0 0.07105743822390836 -0.2427567854902456
1160000000.0 -0.07432844851226139 -0.2735618523410286
1180000000.0 0.052317990542932825 -0.3117287316201801
1200000000.0 0.31353162327641304 -0.14087702580074976
1220000000.0 -0.33128568855815266 0.1509484992567115
1240000000.0 0.3496556782458094 0.16601902654034315
1260000000.0 0.059950775120560185 -0.40475943724241653
1280000000.0 -0.3990661377926332 0.15126697415946314
1300000000.0 0.19145443570741508 0.3949737930609451
1320000000.0 0.41730317162468494 -0.1390659133250277
1340000000.0 0.4100595787025599 -0.15666878516291718
1360000000.0 0.35323693597185507 -0.25881898416983384
1380000000.0 -0.0004153821081779512 -0.43631031801194714
1400000000.0 -0.41481443879904 -0.09042065524297242
1420000000.0 0.051651687876596644 0.40393318059514194
1440000000.0 0.3817165742295903 -0.017202906755545994
1460000000.0 -0.08232817881399665 -0.34376098619423096
1480000000.0 -0.3003280358550965 0.11698337028056184
1500000000.0 0.06221450356320616 0.28159727637384274
1520000000.0 0.19154077821213514 0.17379727056920757
1540000000.0 -0.20131775098589305 -0.10659005143445723
1560000000.0 0.1718371190443848 -0.08909776235003748
1580000000.0 -0.008411149059415382 0.16436927300659654
1600000000.0 0.09310266808312424 0.09666071631455604
1620000000.0 0.08581731037069712 0.05712022849847038
1640000000.0 -0.043241529384633125 -0.0655454917016963
1660000000.0 0.053995223194162695 -0.005066385547477144
1680000000.0 -0.033597491836514004 -0.0010325037276530404
1700000000.0 0.019601677500206104 0.002183084798060785
1720000000.0 -0.006032300813509686 -0.0019722756067863086
1740000000.0 0.015499024875419647 -0.003312482188904226
1760000000.0 -0.005540303106209066 0.03157879967858691
1780000000.0 0.04854722246334344 0.03426712818953553
1800000000.0 -0.08717719660297596 -0.03362321061205239
1820000000.0 -0.08334822798757512 0.0928400888217167
1840000000.0 0.13999536446111038 -0.08417061877421433
1860000000.0 -0.12158058328301068 0.16251215702726637
1880000000.0 0.12816352309528622 -0.20511366127923303
1900000000.0 -0.09177056804590253 0.26791948421724804
1920000000.0 0.02193818337822835 -0.31817499131561894
1940000000.0 -0.2687926870968603 0.22409846706701225
1960000000.0 0.3578287455821696 0.12190448223294013
1980000000.0 -0.032117082238016716 -0.3972365786653835
2000000000.0 -0.3946535692675283 -0.1345231849017248
2020000000.0 -0.14811288275934628 0.4030209579606593
2040000000.0 0.2635314053570294 0.34572047732010514
2060000000.0 0.42969488816950707 -0.07200437105727377
2080000000.0 0.30206309549614735 -0.3077385835174623
2100000000.0 0.23224766805944883 -0.35717133849270083
2120000000.0 0.04206973681436399 -0.4161514386512424
2140000000.0 -0.2364673356529956 -0.3321929145470753
2160000000.0 0.17160287195080784 -0.35331278794275944
2180000000.0 -0.06060078936835578 -0.3718503252424507
2200000000.0 -0.28900826626076564 -0.22108245965958445
2220000000.0 -0.3470070014769554 0.06263650541307401
2240000000.0 -0.1909185726900641 0.29086082073851344
2260000000.0 0.05094649908889353 0.3432436139226599
2280000000.0 0.25654097299818923 0.23952521037104316
2300000000.0 0.26263849683440926 -0.25300325352506686
2320000000.0 -0.2810805856779035 -0.26692478334664804
2340000000.0 -0.19427174151201046 0.3717687819089483
2360000000.0 0.4495261395257985 -0.10311657908846954
2380000000.0 -0.5077531797506435 0.04019026361424079
2400000000.0 0.5563569101720987 -0.07042049207127048
2420000000.0 -0.4785802437564485 0.381341415560767
2440000000.0 0.14409723224642199 -0.6441125330765891
2460000000.0 0.330902724102286 0.6157517530021276
2480000000.0 -0.5843233116943736 -0.4351145207840111
2500000000.0 0.5714883912347282 0.48236047336862087
2520000000.0 -0.47092318375241277 -0.5933348800002042
2540000000.0 0.10827522988125161 0.750413757754836
2560000000.0 0.46318602329663044 -0.5920221400358164
2580000000.0 -0.734072094007359 -0.05548004915317109
2600000000.0 0.3503525260879105 0.6197666115099867
2620000000.0 0.2586427142724925 -0.6301820209842554
2640000000.0 0.013537722863940818 -0.6434693400944118
2660000000.0 -0.4917417725252971 0.3417770248403094
2680000000.0 0.5089288983500656 0.21466562886894786
2700000000.0 -0.19283832510035173 -0.4677892732384493
2720000000.0 -0.14336386677116367 0.4359180359104004
2740000000.0 0.353747764611227 -0.21822873503584903
2760000000.0 -0.37516774768820643 0.03414502432919531
2780000000.0 0.3386505027454147 -0.07210090662502738
2800000000.0 -0.29580686543556495 0.12732719821681615
2820000000.0 0.04264981939928859 -0.3029795512684401
2840000000.0 0.22727320045089222 0.1878787408057551
2860000000.0 -0.28167077766555837 0.07497387945796341
2880000000.0 0.09755091551623427 -0.2737805615700277
2900000000.0 -0.025813458963539374 0.2914619671075404
2920000000.0 0.22131763158013587 -0.19781258763542886
2940000000.0 -0.28627475116519685 -0.10101919311555602
2960000000.0 -0.19704878247854563 0.23234172399002212
2980000000.0 -0.24037448487544014 0.19319322469126088
3000000000.0 -0.3102467042820865 -0.02266073753496858
3020000000.0 -0.061125366194994486 -0.3056774735887436
3040000000.0 0.3090717507346295 0.006973114431307715
3060000000.0 -0.28369215470048237 0.1161537611749251
3080000000.0 0.2345073646980454 -0.1898002893828186
3100000000.0 -0.11184881840127298 0.2746071032877725
3120000000.0 0.03944884938340875 -0.2848070331719539
3140000000.0 0.1108205538092456 0.2551234175974322
3160000000.0 -0.2208066267265019 -0.14573881938495228
3180000000.0 0.03446637974406346 0.2461591011982282
3200000000.0 -0.2190019654058928 0.05929948320051372
3220000000.0 -0.07204624443319903 -0.18739355352749304
3240000000.0 0.14924796287453174 -0.08463112387417826
3260000000.0 -0.020117104460005277 0.1367600084904222
3280000000.0 -0.03916005237427316 -0.098709070001026
3300000000.0 0.03398883231725568 0.06985092483495474
3320000000.0 0.014344065505552355 -0.04766722140432393
3340000000.0 -0.02626769594378193 -0.004129446316036107
3360000000.0 0.006291292910315943 -0.006091550787215407
3380000000.0 -0.004683699343506634 0.0062176439763850285
3400000000.0 -0.010293884967367285 0.016916341855673204
3420000000.0 -0.032793931988046233 -0.0040285118202901165
3440000000.0 0.04434252591606919 0.008341731815253247
3460000000.0 0.05032828528851044 -0.01775236299364862
3480000000.0 0.05997458627919102 0.02359759054131364
3500000000.0 0.07722922903429921 -0.009744273690906491
3520000000.0 -0.02153300001834635 -0.08986716531768281
3540000000.0 0.07201197997004126 0.07962081943428939
3560000000.0 -0.11812889051497968 -0.02611528548529081
3580000000.0 0.12691320432442746 0.04738205726521417
3600000000.0 -0.05622184209450986 0.1435023849541663
3620000000.0 -0.11348017336827707 0.12114590143163845
3640000000.0 -0.17337690955331778 -0.03718727477964736
3660000000.0 -0.17414533529104792 -0.06720054029849802
3680000000.0 -0.13345118638168102 -0.13636208090361424
3700000000.0 -0.05366663288868078 -0.1824044648704782
3720000000.0 0.12242537348494711 -0.14464701830203336
3740000000.0 0.16880980435062679 -0.0743250645101427
3760000000.0 -0.16161472500564125 0.07162102443000591
3780000000.0 0.15395678301570398 -0.06908218054983473
3800000000.0 -0.10470406675452214 -0.12026660619020808
3820000000.0 -0.14992451430835518 0.022808296321678478
3840000000.0 -0.0804407734988027 -0.12091364679780799
3860000000.0 0.14262510102373216 -0.02894032574618483
3880000000.0 0.1509821223353642 -0.01897472381939517
3900000000.0 -0.009990418140118081 -0.15556537692421277
3920000000.0 -0.07431527674210084 0.1427484996610941
3940000000.0 -0.015134937968606554 -0.16506828803472048
3960000000.0 0.14644862898024635 -0.08756564970413742
3980000000.0 -0.050483200485171804 -0.16458531931138262
4000000000.0 -0.11006526299081747 -0.12455221077902048
