! Created with skrf (http://scikit-rf.org).
# Hz S RI R 50.0 
!freq ReS11 ImS11
400000000.0 -0.08959070272638238 0.8645070971482732
420000000.0 0.4210773171272659 0.7505085020067324
440000000.0 0.8105288119341343 -0.17482470326835198
460000000.0 0.29150875079036337 -0.7364840085587386
480000000.0 0.6467837794032061 -0.30497412034180565
500000000.0 -0.08646776810593605 -0.5657001755499874
520000000.0 -0.13345645812198434 -0.47505225256565325
540000000.0 0.3169100899156857 -0.2956814875505863
560000000.0 -0.2873025091632439 0.2138861413331937
580000000.0 0.008044433556569749 0.33915565147816756
600000000.0 0.23618564358588728 -0.24223287063566643
620000000.0 -0.3344997982993556 0.13070521109622063
640000000.0 0.09422686684664013 0.37774828334591526
660000000.0 0.4009177279762672 0.03422409869683853
680000000.0 -0.10315448504854807 0.4080478218709314
700000000.0 0.27770273526288286 -0.3313844437020663
720000000.0 -0.19186388620331285 -0.38134869993506576
740000000.0 0.37752145078003124 0.17952575371499305
760000000.0 0.13037429720114335 -0.37978260800802743
780000000.0 0.06944098830088842 0.36474296917826793
800000000.0 0.10979471958460729 -0.3254793006255208
820000000.0 0.2656579184714589 -0.12537665445383794
840000000.0 -0.07072194744984693 -0.23807553870025616
860000000.0 0.10255767522816303 -0.1885653135232451
880000000.0 -0.0014829674778976116 0.16075539964764077
900000000.0 0.002703666956134056 0.09589514976973466
920000000.0 -0.06521213438688901 -0.0008824767391355975
940000000.0 -0.04190985398918878 -0.02350423872225387
960000000.0 0.05163989353536925 0.00951175071204103
980000000.0 0.055892589650639285 0.04139688932047018
1000000000.0 -0.008989749274008654 -0.07816943907391848
1020000000.0 0.048338107858463104 0.08484529383355037
1040000000.0 0.09960161979801253 -0.046304240971305116
1060000000.0 0.061630732219834304 0.13208993178949496
1080000000.0 -0.15718599819872106 0.031515068081476215
1100000000.0 -0.08337765232472319 0.16285841986567434
1120000000.0 0.17386739186397868 0.10713290095913544
1140000000.0 0.22777294651683144 -0.064635886027346
1160000000.0 0.26814502646089233 0.04712915499829841
1180000000.0 0.17264191535014414 0.25757390869380575
1200000000.0 -0.1789211268605368 0.2899948882090561
1220000000.0 0.182865590437419 -0.31985049447236935
1240000000.0 -0.27085083603278864 0.2871149128347735
1260000000.0 0.42325661289241595 0.021667090997927522
1280000000.0 -0.4433953672958464 -0.012473899234352973
1300000000.0 0.3953455984475666 0.22906468168195596
1320000000.0 -0.1370238451680162 -0.43105880270840663
1340000000.0 -0.35511047102945753 -0.26586461628528335
1360000000.0 -0.3437338838452438 -0.2630348911876052
1380000000.0 -0.3658498893302551 -0.22129586893097059
1400000000.0 -0.3735034493548287 0.17611909726748481
1420000000.0 0.0488645632327835 0.39387730889453254
1440000000.0 0.3475390336063749 0.12938153150814957
1460000000.0 0.1565763937879355 -0.3066182277403316
1480000000.0 -0.19810890250833074 -0.24316529752501315
1500000000.0 -0.28157960439970364 -0.03798076449036213
1520000000.0 -0.2514001408486164 0.051805218041971364
1540000000.0 0.2148770136481721 -0.08055862279697487
1560000000.0 -0.0411171122631851 0.19353727705778126
1580000000.0 -0.12265878305686173 -0.12437634557323288
1600000000.0 -0.08257036865857575 0.12165343270007958
1620000000.0 0.10771708959673346 0.05074340666391464
1640000000.0 0.08233543072673935 0.048104353218420624
1660000000.0 -0.06653345973271745 -0.02372171267264328
1680000000.0 -0.008150949055833447 0.04636690602824267
1700000000.0 -0.014848571571663234 0.023582592590372778
1720000000.0 -0.012569961603826839 -0.0009390931927652257
1740000000.0 -0.021469444106132936 -0.004458726755389467
1760000000.0 0.04114428784847496 0.013235279012906947
1780000000.0 -0.07313550048845471 0.021982532635670564
1800000000.0 0.08808066979850718 -0.07206216469506939
1820000000.0 0.11098546133908896 -0.09490282521786603
1840000000.0 0.07935599262701903 0.16049598708408488
1860000000.0 -0.2062760476695387 -0.03405487989127609
1880000000.0 0.06261336100240461 0.23188441073735455
1900000000.0 0.2198276124072516 -0.1623629482795667
1920000000.0 -0.21090819491712012 -0.21981556836751479
1940000000.0 -0.3244921263706948 0.08867939566939571
1960000000.0 0.0013956610325257617 0.36753962584593386
1980000000.0 0.38116679087142136 -0.09311644392769389
2000000000.0 0.06523903800490648 -0.4100214998340093
2020000000.0 -0.42934504315488076 0.03312533732040186
2040000000.0 -0.05796012828825348 0.4345597447179505
2060000000.0 0.43245164141911696 0.07727528756345174
2080000000.0 0.3056629204317115 -0.30980557323960856
2100000000.0 0.10682876402903325 -0.4148853069513483
2120000000.0 -0.13114211762559924 -0.3983519691998167
2140000000.0 -0.34783990409365245 -0.2132673196395295
2160000000.0 -0.07494129406093918 -0.38606264853547007
2180000000.0 -0.34345438806966744 -0.15240500646472022
2200000000.0 -0.3414198511971223 0.11739272487665671
2220000000.0 -0.2613140908829004 0.22801502336662827
2240000000.0 -0.11628294432156043 0.32049432325560734
2260000000.0 -0.0342573236046863 0.3388336699479
2280000000.0 0.03706381065488464 0.34394446550013585
2300000000.0 0.3559488654156577 0.06751540793248065
2320000000.0 0.01606784545124644 -0.3881281426937416
2340000000.0 -0.38172596136646286 0.1802934929873209
2360000000.0 0.4641889619597516 0.0038371269646514613
2380000000.0 -0.5104393615383874 0.009267571746909078
2400000000.0 0.5599138795561325 -0.008891220860223507
2420000000.0 -0.5503135540265268 0.26510777513893974
2440000000.0 0.3160720607121506 -0.5782692633663945
2460000000.0 0.11275361533291063 0.6893954309058811
2480000000.0 -0.3953908524115216 -0.6122092631949747
2500000000.0 0.40914392341403955 0.6269363627673109
2520000000.0 -0.3021854809403612 -0.6954711739395013
2540000000.0 -0.07770899932904508 0.7557459679584503
2560000000.0 0.5828245251589829 -0.4771021464226655
2580000000.0 -0.6999155493645521 -0.23486490473595492
2600000000.0 0.2391612808873618 0.6723830863899664
2620000000.0 0.39040163064746297 -0.5600631375474836
2640000000.0 0.07713314063840335 -0.6402366866600192
2660000000.0 -0.4861988571790796 0.35194470577140546
2680000000.0 0.5378664399686746 0.12395095725304517
2700000000.0 -0.16082824325065312 -0.4782578929151631
2720000000.0 -0.2780690332652178 0.36286754761435336
2740000000.0 0.4155567151423735 -0.010884285696722073
2760000000.0 -0.3058519698819501 -0.22442852713601014
2780000000.0 0.3374812767211888 0.1008134066738109
2800000000.0 -0.3168347970661897 0.08855616818587533
2820000000.0 -0.018350843920662285 -0.31208265725908324
2840000000.0 0.295511345668911 0.06107449612158717
2860000000.0 -0.12740362977965808 0.2681093079432038
2880000000.0 -0.19747450933691546 -0.21742966149500523
2900000000.0 0.2445046683121067 0.16110053655308568
2920000000.0 0.02352785290332512 -0.2939781699941253
2940000000.0 -0.2984412931401036 0.02459204975539912
2960000000.0 -0.24443746520016174 0.17544110648526318
2980000000.0 -0.29945896289780183 0.05956467642447125
3000000000.0 -0.23707179015362903 -0.19983593125931595
3020000000.0 0.05259501612278777 -0.3080854416441742
3040000000.0 0.2502854709840427 0.18397219697657843
3060000000.0 -0.3082687184880834 0.0216065096470562
3080000000.0 0.25319036588679883 -0.16981224978266385
3100000000.0 -0.04034029546375104 0.2961719192634372
3120000000.0 0.011272118831661135 -0.28885645875475546
3140000000.0 0.181922320466935 0.2136371790423661
3160000000.0 -0.26585934771124214 -0.02517240621964358
3180000000.0 0.17399694967592239 0.17909157195048428
3200000000.0 -0.1400793252861386 0.17879439020905427
3220000000.0 -0.1943041786506699 -0.0439787907366744
3240000000.0 0.06759899015600164 -0.15467373088030165
3260000000.0 -0.03911157852764434 0.12850274569242048
3280000000.0 0.1004896998498106 -0.021495014017930133
3300000000.0 0.038703566767415626 -0.06523427837502618
3320000000.0 -0.0003011643221131614 -0.05154718977489623
3340000000.0 0.018234313628040726 -0.02482659538239679
3360000000.0 0.012330949668980448 -0.006129518882829417
3380000000.0 -0.004508633810389406 0.00019537787163053662
3400000000.0 0.018934712597648517 -0.0018453137335568443
3420000000.0 -0.03519985817018083 0.0007767042775994427
3440000000.0 -0.041670178169543104 0.02628512118069161
3460000000.0 -0.03495004981821646 -0.04577134865703803
3480000000.0 -0.0670976182711015 0.0022324023319682967
3500000000.0 -0.04792110786947274 0.06103585521144398
3520000000.0 0.005551104786645829 0.08973417229423405
3540000000.0 0.09339112957413316 -0.0443050775894173
3560000000.0 -0.11735385358484575 -0.008417141225379416
3580000000.0 0.059759135918303105 0.1189909312696271
3600000000.0 -0.13537748180438777 0.07370748473576208
3620000000.0 -0.1371990805210756 0.09888436255691425
3640000000.0 -0.16950165748639667 0.06318134350457806
3660000000.0 -0.13442680246909994 0.13440340788196212
3680000000.0 -0.1708868060914717 0.0883574105784516
3700000000.0 -0.18917354504252365 -0.02406319556748054
3720000000.0 -0.026515472615266798 -0.18637946488590282
3740000000.0 0.15088973261669966 -0.10320141419421289
3760000000.0 -0.1742228926873721 0.026850280157582077
3780000000.0 0.16616401551973212 0.02884749426379038
3800000000.0 -0.027922451847875788 -0.15850686503305406
3820000000.0 -0.14544699678728168 -0.05097512912273599
3840000000.0 -0.03685721278145538 -0.14266532798499443
3860000000.0 0.1476397704783142 -0.0018393548344916382
3880000000.0 0.15002566989220295 -0.033236410426066544
3900000000.0 -0.03967299180047992 -0.150673032201782
3920000000.0 -0.10207528948340337 0.12408691181892965
3940000000.0 0.04265360976913528 -0.1597106676527219
3960000000.0 0.165666541949494 -0.0417302681770908
3980000000.0 0.10694953208945075 -0.13440649825759016
4000000000.0 0.11383871684747965 -0.12134591724163457
