! Created with skrf (http://scikit-rf.org).
# Hz S RI R 50.0 
!freq ReS11 ImS11
400000000.0 0.0009249551363272917 0.8725614371940257
420000000.0 0.4772848948570058 0.717305825316987
440000000.0 0.8078623176250838 -0.1829529477593829
460000000.0 0.13429786186062082 -0.7799166298394844
480000000.0 0.4596564319186914 -0.5327071658917983
500000000.0 0.5045857749459488 -0.22770059701089096
520000000.0 0.4692937147843554 0.13379609858957184
540000000.0 0.016019177028904274 0.4335847704773619
560000000.0 0.1966946085230182 -0.31123669065026033
580000000.0 -0.32757803360734755 -0.13605262254692627
600000000.0 0.15818563268791988 0.32087810283213625
620000000.0 -0.37829247881115535 0.03485493768732265
640000000.0 0.3910167838003466 0.1278662190647991
660000000.0 -0.17656870666169555 -0.37815363410377467
680000000.0 -0.1535364269457087 -0.3960871407704807
700000000.0 -0.3818761613417972 0.16350130761647125
720000000.0 -0.2926701822300294 -0.27802580245789693
740000000.0 -0.3235881814650481 0.24160478967761292
760000000.0 0.1988732500637658 0.3466887292527553
780000000.0 -0.3675651876753453 -0.09456520785836359
800000000.0 0.34977090196956767 -0.08662724852353404
820000000.0 -0.08731116308951178 -0.29890157830356406
840000000.0 0.2503097743834283 0.04252384576323293
860000000.0 -0.015829915484744366 0.20924088230654025
880000000.0 -0.15030087246047377 0.0008443796294010037
900000000.0 -0.06873810603415144 0.03994269249140789
920000000.0 -0.026863999966753854 0.037172887170257574
940000000.0 0.028590220965114342 0.0032815721617774135
960000000.0 0.0072040130169028545 0.03439429377742151
980000000.0 0.03785540984721641 0.026644694581041812
1000000000.0 -0.055316864363473904 0.00795250630533209
1020000000.0 0.07806241838469032 0.02269507793900395
1040000000.0 0.0897721897491997 0.057992429982948665
1060000000.0 0.05898920099372083 -0.14266495140102314
1080000000.0 -0.08103087283614106 -0.15743991047649952
1100000000.0 -0.007072480825180163 -0.2074259657426626
1120000000.0 0.21531791077732532 0.07301066171489211
1140000000.0 -0.21323729771216066 0.141929467997802
1160000000.0 -0.02814385415109313 0.27593915795799184
1180000000.0 -0.2692531035296796 -0.13593860230029686
1200000000.0 0.3194892802935289 0.05308775097025813
1220000000.0 0.10813068246273037 -0.3318251331333757
1240000000.0 -0.3452602451226907 -0.16057942976010003
1260000000.0 0.03018758828433853 0.4162939838812001
1280000000.0 0.0010586385150389652 -0.4429745926857296
1300000000.0 -0.07178807241187664 0.45668234195800084
1320000000.0 0.04904446725783299 -0.45944106073015695
1340000000.0 -0.43319684022502697 -0.1332563370654901
1360000000.0 -0.4183851521929383 0.13265869483427817
1380000000.0 -0.27767181511880246 0.3267402395622693
1400000000.0 -0.05578807707404265 0.40485196203982554
1420000000.0 0.196823730388605 0.3336790899560485
1440000000.0 0.13529950248136013 0.3387685405135146
1460000000.0 0.2891887910653734 0.1848906390498133
1480000000.0 0.20699050508858477 -0.24450306783807185
1500000000.0 -0.1984051972651308 -0.2184791948518816
1520000000.0 -0.20190835090364656 0.1750990221854709
1540000000.0 -0.1200305342012943 -0.20260467465292203
1560000000.0 0.1922390892603387 -0.04677836553425877
1580000000.0 -0.042234977577930884 0.16322033150573442
1600000000.0 -0.02378923903467653 0.1360489093489615
1620000000.0 -0.09467695323715611 0.05357732271216276
1640000000.0 0.07097736285172104 -0.0508846228078079
1660000000.0 0.0038760714722690256 -0.06471594022739341
1680000000.0 0.04257570811728966 -0.01232799005795892
1700000000.0 0.012929055253841283 0.025970026400015923
1720000000.0 -0.012403588753614796 0.0037842757421116162
1740000000.0 0.009498889293332419 -0.015405846004466083
1760000000.0 -0.04056372834131419 0.0035656373407891573
1780000000.0 -0.027290917182003053 0.06974193253694169
1800000000.0 -0.027019126928553114 0.11009099440418331
1820000000.0 0.14572806745482858 0.011671275768654621
1840000000.0 0.14652149206695927 0.10092711299135768
1860000000.0 -0.18663395119370557 0.08668283594506622
1880000000.0 0.11482498798963828 0.204543321748823
1900000000.0 0.2684152513259848 -0.015808198643581576
1920000000.0 -0.01176504472060961 -0.30312529258199494
1940000000.0 -0.3200163472816546 -0.11075257042827907
1960000000.0 -0.01927284143725125 0.37094512543677927
1980000000.0 0.3541533019304148 -0.17871053491373398
2000000000.0 -0.10387376481486205 -0.40459638829136146
2020000000.0 -0.39234587473735283 0.17996816920447964
2040000000.0 -0.017614115203521165 0.437667624408747
2060000000.0 0.4049121004380335 0.17114499971700808
2080000000.0 0.38635629573330715 -0.20231194783797324
2100000000.0 0.28062856478204734 -0.3263195190275674
2120000000.0 0.01660197316793264 -0.4205772154082958
2140000000.0 -0.30104893725795073 -0.27722975644347814
2160000000.0 0.07681708612404584 -0.3854052578205414
2180000000.0 -0.14044732975002425 -0.34646709486649124
2200000000.0 -0.2579963870939507 -0.248488714297134
2220000000.0 -0.28621103311403473 -0.1938196614113877
2240000000.0 -0.33935813877442583 0.0328266190929055
2260000000.0 -0.2937462751223984 0.17372797116608021
2280000000.0 -0.17246904876426342 0.3007463951171569
2300000000.0 0.3225759416850881 0.16402785981582
2320000000.0 0.06129630096634211 -0.38026655331932946
2340000000.0 -0.3878374827758992 0.14917204240462317
2360000000.0 0.42477452247499914 0.16628578287352977
2380000000.0 -0.38674058752786517 -0.3221612369838886
2400000000.0 0.3848279668373838 0.401899952669326
2420000000.0 -0.5808134510147951 -0.18835986688847173
2440000000.0 0.6058505398509036 -0.262838567894779
2460000000.0 -0.31830991271807096 0.6252022013345523
2480000000.0 0.023587188665531285 -0.732497627211476
2500000000.0 -0.06276224438140335 0.7513260033106571
2520000000.0 0.24861212665281818 -0.7229453011962237
2540000000.0 -0.6229962139500198 0.44616601646006
2560000000.0 0.7578814391386156 0.059539876602594424
2580000000.0 -0.33777003616746964 -0.6645505485597933
2600000000.0 -0.32135507900325627 0.6454039554284411
2620000000.0 0.6678706506295269 -0.17188814817533654
2640000000.0 0.4941200058486126 -0.4253796655407946
2660000000.0 -0.602475436400175 -0.07299985037357129
2680000000.0 0.29823343132175756 0.4721581792292323
2700000000.0 0.11970556866587523 -0.496976719385886
2720000000.0 -0.38395062569374316 0.26040471823243927
2740000000.0 0.42159953951001095 -0.009144446246027532
2760000000.0 -0.3669617608672167 -0.11404697089730953
2780000000.0 0.3534908599083933 -0.035658180956841035
2800000000.0 -0.24051800257735523 0.2281336506570446
2820000000.0 -0.167201839286686 -0.2659653543695306
2840000000.0 0.2839799579327514 -0.10417635260041216
2860000000.0 -0.06697237038366256 0.29019532932434156
2880000000.0 -0.1347004098763827 -0.26297031840497553
2900000000.0 0.11498103104522164 0.2734005566349183
2920000000.0 0.21074222147536403 -0.21355651801426254
2940000000.0 -0.26589244846083904 -0.15092929975834152
2960000000.0 -0.28317554232775827 0.122979453171107
2980000000.0 -0.3127291280607529 0.02185007928460909
3000000000.0 -0.21707123402898465 -0.22889974574037045
3020000000.0 0.11634300432960795 -0.29290989869589784
3040000000.0 0.25230272644842217 0.1840564797598138
3060000000.0 -0.30530660985757907 -0.05532580457040295
3080000000.0 0.2935446405005006 -0.08868725720499186
3100000000.0 -0.24954226558309092 0.16799733893701738
3120000000.0 0.1636631706950056 -0.24230650939331697
3140000000.0 0.007688629971713119 0.282654593370446
3160000000.0 -0.20060348897250432 -0.1763296018477352
3180000000.0 0.014517935667375987 0.24929169047751726
3200000000.0 -0.22552927305651488 0.02569395213367689
3220000000.0 -0.12326855677528523 -0.1568232310766938
3240000000.0 0.14297394876552258 -0.0876725020146193
3260000000.0 -0.0873192014047664 0.09993617802371399
3280000000.0 0.08293426712707283 -0.0555931864274531
3300000000.0 -0.018478837366551846 -0.06894396930594544
3320000000.0 -0.025716575703122205 -0.038523678022910415
3340000000.0 -0.00630816356839212 -0.024356817462139812
3360000000.0 -0.007771155966550591 0.0049276960938829445
3380000000.0 0.007189718613921829 0.0005853669882029961
3400000000.0 -0.01824626129795454 0.011748652897346515
3420000000.0 0.037226374774394576 -0.00890540245194683
3440000000.0 0.042683475375410354 -0.030077481931690027
3460000000.0 0.03896776556372566 0.04787264619119209
3480000000.0 0.07130473608107232 -0.002883829356331176
3500000000.0 -0.04269399723539193 -0.06951606894996215
3520000000.0 -0.09261700110398728 -0.006696071888846577
3540000000.0 0.07987009211202607 0.06971163758478689
3560000000.0 0.002878304602635038 -0.11862291504556421
3580000000.0 -0.11367436620856508 0.07091551496233114
3600000000.0 -0.09877105118388202 -0.11999809645680395
3620000000.0 -0.1139054854674849 -0.12573457707973984
3640000000.0 -0.06334397012982343 -0.16954675419836335
3660000000.0 -0.16033558405102694 -0.10240849508933522
3680000000.0 -0.15972857227498963 -0.1071882817671914
3700000000.0 -0.1611333927191688 -0.09969936232690225
3720000000.0 0.04844718574365934 -0.17901596026701952
3740000000.0 0.17728464486981926 -0.03289359900565052
3760000000.0 -0.16556545269705014 -0.04953992759309659
3780000000.0 0.0968794985205165 0.13367923618583116
3800000000.0 0.1533348356557005 -0.03439779894211143
3820000000.0 0.017535254484274045 -0.15054589359105197
3840000000.0 0.038612304109628015 -0.14168203231831217
3860000000.0 0.1456731267472776 -0.011372834058492171
3880000000.0 0.142425242003065 -0.05034616111187666
3900000000.0 -0.0692788655994726 -0.1353378481447718
3920000000.0 -0.13353949256861314 0.081332371726132
3940000000.0 0.15410064248006888 -0.050287610471143995
3960000000.0 0.036086771735791535 0.16433143866381522
3980000000.0 0.17078819924838165 0.00494494937354674
4000000000.0 0.1406903785593811 -0.08894219663324
