! Created with skrf (http://scikit-rf.org).
# Hz S RI R 50.0 
!freq ReS11 ImS11
400000000.0 0.2345741055105181 0.8394142542671035
420000000.0 0.6836831346700869 0.5209807846519691
440000000.0 0.772477815968806 -0.28507691633562526
460000000.0 0.20257644858232365 -0.7600625083241497
480000000.0 0.6727051691135995 -0.2006233173173185
500000000.0 0.5491355850074985 -0.13406958320607945
520000000.0 0.420858357799377 -0.25813974669764084
540000000.0 0.32191277415986796 0.28864699032525815
560000000.0 -0.28159378103029786 -0.23030702103285292
580000000.0 -0.2145524193961814 0.2651639546055408
600000000.0 0.33794860081845685 0.03173511112819106
620000000.0 -0.34103816362392386 -0.0992553535341628
640000000.0 -0.27101385523315435 0.2747254830600242
660000000.0 -0.07670418120722226 0.3912711539403284
680000000.0 -0.359162951219679 -0.22794163494489342
700000000.0 0.28685924979003546 0.3381869162513822
720000000.0 0.15918545049582739 -0.41665491803000865
740000000.0 0.4317570395313876 -0.08338148273194335
760000000.0 -0.40147136552962476 -0.11804823942731482
780000000.0 0.0908966526925248 -0.3742834588124935
800000000.0 0.1897337112587751 0.29110730547148145
820000000.0 0.16788427734103295 0.22869699698670198
840000000.0 0.13167817546557373 0.18689959032706832
860000000.0 -0.11582017217138928 0.155535547530066
880000000.0 0.12285875777562097 0.04199054447492233
900000000.0 0.05787028104272687 -0.040715131785348774
920000000.0 0.038908876280720164 0.012813079910316555
940000000.0 0.023776639268541407 -0.012432132132656594
960000000.0 -0.03422022638333316 0.009007078428884664
980000000.0 0.026285042035009594 -0.043581684744576715
1000000000.0 -0.056980920559333785 0.006051973910573261
1020000000.0 0.06023097161918239 0.04337807830079696
1040000000.0 0.07600041896505665 0.04175623526480389
1060000000.0 -0.12715223308435233 -0.008968406391479476
1080000000.0 0.14368372117439665 -0.035966415591569836
1100000000.0 -0.01736086379679558 -0.17865323382622134
1120000000.0 -0.005322419045984533 0.20951525940317112
1140000000.0 -0.08287992366875684 -0.23606389112078222
1160000000.0 -0.26921717905990666 0.11164241158619344
1180000000.0 -0.061922987307881615 0.3244317118324715
1200000000.0 -0.07975540591954747 0.3521093964826906
1220000000.0 -0.34396064594335246 -0.17519310286685202
1240000000.0 0.40672977549448314 -0.0019985477841854044
1260000000.0 -0.4130158624143679 -0.11529988592746984
1280000000.0 0.37343400109194286 0.23380365083392152
1300000000.0 -0.07696629663382396 -0.4365011974623025
1320000000.0 -0.4336783581188643 0.02027180464542821
1340000000.0 -0.35387729097361054 -0.23162977580425825
1360000000.0 0.14366731922777284 -0.3888090675419344
1380000000.0 0.3314623520939943 -0.2505722591539024
1400000000.0 0.2018752320889433 -0.3522843134602138
1420000000.0 -0.1252770196619183 -0.37588331811949716
1440000000.0 -0.37170318890824294 -0.07577434346197794
1460000000.0 -0.054364032740870746 0.3553975086921447
1480000000.0 0.27623456230064475 -0.19088380067754887
1500000000.0 -0.2621504267750346 0.15792217110357448
1520000000.0 0.2767426291933403 -0.006774631199947727
1540000000.0 0.22764758545801914 0.08218141523386258
1560000000.0 0.19154450895475647 0.05850228651013967
1580000000.0 0.12079547219570946 0.11080104888008192
1600000000.0 0.07178585848504504 -0.10742201266226324
1620000000.0 0.08509401419214942 0.03646188992112364
1640000000.0 -0.05357196096445845 -0.04627047319787934
1660000000.0 -0.04491881618018541 0.01254096957140763
1680000000.0 -0.023605248539807583 -0.00778306461521887
1700000000.0 -0.011904145423812953 0.0028120184714805355
1720000000.0 -0.003107072816072135 -0.011682769479759776
1740000000.0 0.003445986806761067 0.028866629724308958
1760000000.0 -0.026314912314689614 -0.035198652455793476
1780000000.0 -0.037393839821445354 -0.0594768663914752
1800000000.0 0.01391350378505242 0.09804856097009212
1820000000.0 -0.09831436076563979 0.0754759048472747
1840000000.0 0.0024681126831733397 0.15788470289498185
1860000000.0 0.17306440616954719 0.07914570750118062
1880000000.0 0.18635055393571565 -0.13340631881969814
1900000000.0 -0.1674531512389309 -0.21554291873698025
1920000000.0 0.12100328909843214 0.2884222570813538
1940000000.0 0.11789259529061907 -0.33080825796666646
1960000000.0 -0.28380272447810073 0.25761723634368927
1980000000.0 0.37325729857380635 -0.16217468613707067
2000000000.0 -0.32108395908649223 -0.2778578776800536
2020000000.0 -0.10431547127651057 0.42260915415646133
2040000000.0 0.4073869760456519 0.15990919491364777
2060000000.0 0.25575048337446293 -0.3518435222527749
2080000000.0 -0.09520565141462126 -0.4148875008181433
2100000000.0 -0.14904836454557605 -0.3895230551186053
2120000000.0 -0.16032640561508701 -0.37420495586925906
2140000000.0 -0.191211195812544 -0.347710556375865
2160000000.0 0.26711371007971146 -0.27636761100514723
2180000000.0 0.11748226024571862 -0.35195538576716784
2200000000.0 -0.01759281686415354 -0.3602578482377035
2220000000.0 -0.32295350849405813 -0.1440037609879373
2240000000.0 -0.2235001665560867 0.26813424647065365
2260000000.0 0.07239591464014163 0.3408595967484107
2280000000.0 0.2797924725606794 0.21002753510167443
2300000000.0 0.27147606327797663 -0.23966467017792079
2320000000.0 -0.1815727149345941 -0.3381350796035724
2340000000.0 -0.3755468971720004 0.17566446200733604
2360000000.0 0.3745771220464804 0.2582416883510143
2380000000.0 -0.3159999804417355 -0.39160939907509357
2400000000.0 0.32322298542571176 0.4514012672850686
2420000000.0 -0.5281566753287931 -0.3008758996753939
2440000000.0 0.6486298390608353 -0.10718088462406856
2460000000.0 -0.4610145800329857 0.524964289688854
2480000000.0 0.19313948829095698 -0.7043220824428339
2500000000.0 -0.16724547067980478 0.7326561732568038
2520000000.0 0.30080510054885645 -0.7000174055048407
2540000000.0 -0.5668557206034665 0.5124654520033706
2560000000.0 0.7578422613456438 -0.0005857552037470457
2580000000.0 -0.4236827363030533 -0.6106856858205052
2600000000.0 -0.2012679609528471 0.6901552342015733
2620000000.0 0.6480721887276946 -0.23112644219772688
2640000000.0 0.3811041239803605 -0.5279046362081138
2660000000.0 -0.6072141865025649 0.01110329169168503
2680000000.0 0.38153228731718425 0.4099295159410665
2700000000.0 -0.0378827890913554 -0.5113790761601438
2720000000.0 -0.15543560352520241 0.43752624691034386
2740000000.0 0.3356730344665759 -0.2514814795973095
2760000000.0 -0.3674194106369396 0.09798601751362376
2780000000.0 0.315262166208529 -0.1521819102640185
2800000000.0 -0.20362532632126956 0.25367296736306744
2820000000.0 -0.11458139006567855 -0.28685464403900407
2840000000.0 0.2948708983605787 0.047363198533451244
2860000000.0 -0.1559201289559042 0.25057942636854774
2880000000.0 -0.13705544561804 -0.2608511832640669
2900000000.0 0.18806214143971606 0.22865634606076926
2920000000.0 0.07355352322927981 -0.2912538684627289
2940000000.0 -0.30530961146688107 0.023245816361396932
2960000000.0 -0.12975886671557782 0.27911280951813083
2980000000.0 -0.24921135248164542 0.18679334927309382
3000000000.0 -0.26572597318594293 -0.16790637380978157
3020000000.0 0.05813100181915302 -0.31022322992319784
3040000000.0 0.2029644470684112 0.23970133258590856
3060000000.0 -0.308264288536237 0.05680440784176397
3080000000.0 0.24876879164295315 -0.1834549397350706
3100000000.0 -0.15797376174957334 0.257496998847455
3120000000.0 -0.0003283379702735802 -0.2945596342219278
3140000000.0 0.16876981033002494 0.2275928747083754
3160000000.0 -0.2520715993087552 -0.08775541472414174
3180000000.0 0.010575454305390983 0.24886954017441623
3200000000.0 -0.19323449481672061 -0.11830729525645707
3220000000.0 0.15139569403420278 -0.12968122469357335
3240000000.0 0.0016948400209835584 0.16960057933557576
3260000000.0 0.07787032714513199 -0.11395788372237615
3280000000.0 -0.08108587836041736 0.07028412626737206
3300000000.0 0.07925628644667027 0.010092066379984683
3320000000.0 -0.028152580510555875 -0.04370208600348073
3340000000.0 0.008219031978099669 0.026349434080936127
3360000000.0 0.006967115885315279 -0.00143166039675664
3380000000.0 -0.004770665106728464 -0.00842447638276757
3400000000.0 0.02465475348259775 -0.0005343786258240681
3420000000.0 -0.011586520624590603 0.036056930624502735
3440000000.0 0.049184062262376115 0.0036658494388164277
3460000000.0 0.05591747689860332 0.005726612921752936
3480000000.0 -0.0556465254909852 0.03511947753843477
3500000000.0 -0.06729762486015031 -0.040440972975041976
3520000000.0 -0.08007198403157519 0.05119686582879367
3540000000.0 0.09812906255435924 -0.05210047514988621
3560000000.0 -0.06764470006513182 0.10492170816873624
3580000000.0 0.030644790488684317 -0.13621059572467598
3600000000.0 0.140249052069031 0.07289100994726239
3620000000.0 0.10188426985242331 0.13575534831392747
3640000000.0 -0.1031942256560921 0.14830241525486298
3660000000.0 -0.17751857716168437 0.06881653246635337
3680000000.0 -0.18196517279848776 -0.0699321894108064
3700000000.0 -0.1495759897875537 -0.12412356722442665
3720000000.0 0.024649766900444743 -0.19251803319935432
3740000000.0 0.1521863311641866 -0.11283722569358745
3760000000.0 -0.15230229898245828 0.09942391025286236
3780000000.0 0.17091302061107838 -0.015593609852346415
3800000000.0 0.004732800354028977 -0.16137134985867668
3820000000.0 0.023279459157490006 -0.1530245761205692
3840000000.0 0.1275365111432495 -0.07799579156899118
3860000000.0 0.05758313946470528 0.13897419241479173
3880000000.0 0.09149607574491246 0.12780192675501056
3900000000.0 0.02918313932529498 -0.15796520626085858
3920000000.0 -0.12194574403318979 0.11030622273398348
3940000000.0 0.11701582350933566 -0.12020177069480566
3960000000.0 0.15466262436992423 0.0731058989785231
3980000000.0 0.16806400774328864 -0.03259033098505006
4000000000.0 0.16447514634563465 -0.006303585568266948
