! Created with skrf (http://scikit-rf.org).
# Hz S RI R 50.0 
!freq ReS11 ImS11
400000000.0 0.045578581498917664 0.8724720920629013
420000000.0 0.4784621497880025 0.7164617758907674
440000000.0 0.8108481677759727 -0.16985983643461086
460000000.0 0.13593264759760343 -0.7795711871545639
480000000.0 0.46350018315180674 -0.5290902050404834
500000000.0 0.5048642859620209 -0.22771125398086756
520000000.0 0.47455531199336964 0.11346978452811547
540000000.0 0.01633955675421062 0.43378779660361194
560000000.0 0.1966198126656692 -0.311441975409896
580000000.0 -0.33115349609152744 -0.12764491068063102
600000000.0 0.17826690631123124 0.30952167431014793
620000000.0 -0.379505727130972 -0.0016249417683905244
640000000.0 0.38846722667423844 0.13612670072979247
660000000.0 -0.16390589586672102 -0.3841157695593974
680000000.0 -0.14728055427022738 -0.3981665422085302
700000000.0 -0.38226990181667625 0.1633078109280016
720000000.0 -0.28095534614808304 -0.29009220691685944
740000000.0 -0.31292743164760817 0.2554776081562373
760000000.0 0.19311307398602853 0.34961896871737036
780000000.0 -0.36906519276665856 -0.09033088065688247
800000000.0 0.3503340593750875 -0.08485140530189558
820000000.0 -0.09021796819133715 -0.29801523825058746
840000000.0 0.25026629114855947 0.0438047795515363
860000000.0 -0.0027174929267959396 0.21005630294997074
880000000.0 -0.14984270727081866 0.015621006415686535
900000000.0 -0.06963520520794782 0.03912946029594925
920000000.0 -0.03773484721468112 0.02645934131250236
940000000.0 0.027296672144398373 0.008808400662578946
960000000.0 0.007900762903142953 0.03433641767023944
980000000.0 0.03968145955828318 0.02398688078342269
1000000000.0 -0.055640939378389 0.004950573039533588
1020000000.0 0.07648246500073703 0.027947315697711087
1040000000.0 0.0845183910764472 0.0656528525992153
1060000000.0 0.06414965532616083 -0.14032716276822665
1080000000.0 -0.08639517814134696 -0.15468369407859336
1100000000.0 -0.012116179275866206 -0.20723566435714308
1120000000.0 0.21511955176171024 0.07403882116896444
1140000000.0 -0.21406488356126427 0.14084875372105185
1160000000.0 -0.016495387736253714 0.2770688304670947
1180000000.0 -0.2681987950976786 -0.13785951241921104
1200000000.0 0.32049742114466495 0.04733028908045405
1220000000.0 0.11372159256445023 -0.3298113738178054
1240000000.0 -0.3436836737167363 -0.16336621506109947
1260000000.0 0.0523434873979909 0.4138776501079458
1280000000.0 -0.0036850943473782827 -0.442823065872015
1300000000.0 -0.06370047415072741 0.45758994890562155
1320000000.0 0.059882580780166866 -0.45779154553791873
1340000000.0 -0.4333414421404163 -0.1318719779983439
1360000000.0 -0.4167270316267732 0.13733907038184157
1380000000.0 -0.2743396177270942 0.3295875181363684
1400000000.0 -0.052062811936000625 0.4054046015666858
1420000000.0 0.1971032107693726 0.33353909123778996
1440000000.0 0.13427394630627404 0.33923617382831817
1460000000.0 0.29958671748552584 0.16691475261037142
1480000000.0 0.23332711686728613 -0.21974827645662162
1500000000.0 -0.19234873284842954 -0.22399779081758492
1520000000.0 -0.21300227727347767 0.16162841641106093
1540000000.0 -0.11892951747539543 -0.20330375809782655
1560000000.0 0.19542726844239053 -0.029668953051323832
1580000000.0 -0.04614483760117424 0.16207595168643196
1600000000.0 -0.03093121210500151 0.1344375364789963
1620000000.0 -0.09783718250746065 0.04698852521018697
1640000000.0 0.06970766263309827 -0.05248629969272828
1660000000.0 -0.006616039184880839 -0.06463775993117599
1680000000.0 0.03543757684376948 -0.026633231974999224
1700000000.0 0.019436719558841856 0.02182291517622519
1720000000.0 -0.01275881629614065 -0.0039276700339995
1740000000.0 0.001891002876955858 -0.01768645929617362
1760000000.0 -0.038230776287562836 0.013487105544601287
1780000000.0 -0.012567851384418018 0.07348230935592322
1800000000.0 -0.017565464341763704 0.11146791254701076
1820000000.0 0.14568140069810584 -0.013075895463573739
1840000000.0 0.1555153536850083 0.08651380926228729
1860000000.0 -0.1709224742242889 0.11479152860111637
1880000000.0 0.12147971263450072 0.20094700862509057
1900000000.0 0.26825808266295287 -0.021105069916484736
1920000000.0 -0.006453429380766812 -0.303441795832285
1940000000.0 -0.3162904361180506 -0.1217350296426645
1960000000.0 -0.03481566499134853 0.3699538333212228
1980000000.0 0.36202185412570004 -0.16236181047150097
2000000000.0 -0.08225074346463404 -0.40943946630643635
2020000000.0 -0.3997011700196776 0.16268915238341497
2040000000.0 -0.04041435578013508 0.43602253951144804
2060000000.0 0.41518739400430354 0.14339308564099423
2080000000.0 0.3933023705331735 -0.18779129252637297
2100000000.0 0.2884915990673472 -0.31862387404354897
2120000000.0 0.01482765357770296 -0.420109010806375
2140000000.0 -0.2929791019392261 -0.2850923643621077
2160000000.0 0.05722192203069908 -0.3882540738499643
2180000000.0 -0.1274338861927809 -0.35117931165356564
2200000000.0 -0.2747795540518252 -0.22896284626408236
2220000000.0 -0.28798644156665176 -0.19062645285674695
2240000000.0 -0.3401071587929532 0.022099973349326802
2260000000.0 -0.2962279456527312 0.1694688014564978
2280000000.0 -0.17333740773739376 0.30007815508520397
2300000000.0 0.32903112409634644 0.15047173695474528
2320000000.0 0.06628734647805001 -0.37913685776510936
2340000000.0 -0.38781186667485534 0.1485890006516537
2360000000.0 0.4219047070783398 0.17274611575729812
2380000000.0 -0.3829070244493231 -0.3264566069680161
2400000000.0 0.3659460601268771 0.4189009763305909
2420000000.0 -0.5757152566252323 -0.2031917889425951
2440000000.0 0.6114355312850075 -0.2491707319116917
2460000000.0 -0.3341822631453518 0.6166402291071278
2480000000.0 0.025923065778349883 -0.7320508539468022
2500000000.0 -0.07155059241543459 0.7502969311326282
2520000000.0 0.26238536546332175 -0.7177407046515296
2540000000.0 -0.6282029962301398 0.4384032319856571
2560000000.0 0.756384646828239 0.0752451506695038
2580000000.0 -0.29038256324813944 -0.6864366739194537
2600000000.0 -0.33661038494729256 0.6372446060029597
2620000000.0 0.6603346341207436 -0.19856187244392975
2640000000.0 0.5030598523426594 -0.41427502410193573
2660000000.0 -0.5991105262364045 -0.09552482571553314
2680000000.0 0.2719640756340161 0.4875195975330603
2700000000.0 0.1089735012264977 -0.49948083102704544
2720000000.0 -0.38523756708599377 0.25819967246831754
2740000000.0 0.4211845144251532 -0.018487602994145782
2760000000.0 -0.37235981463264484 -0.0949440367325908
2780000000.0 0.3532967706347937 -0.0370585109980971
2800000000.0 -0.2326281472580868 0.23620343382656664
2820000000.0 -0.17364810783118517 -0.26197635266460284
2840000000.0 0.2794233161512208 -0.11585818245495828
2860000000.0 -0.06855444926951394 0.2901202384366612
2880000000.0 -0.12965171237481665 -0.26613348629353484
2900000000.0 0.11901581008999998 0.2717619655323504
2920000000.0 0.22174559602313393 -0.2021230346796543
2940000000.0 -0.2656246922823434 -0.15148695234769036
2960000000.0 -0.29107224011607 0.10349847401934435
2980000000.0 -0.3119883872502716 0.034825510385834035
3000000000.0 -0.21270810056805667 -0.23227687670953442
3020000000.0 0.14294194489085044 -0.2804949929779927
3040000000.0 0.23027683391966133 0.21066938750780956
3060000000.0 -0.3052315867365473 -0.052540009200810846
3080000000.0 0.29455479155703607 -0.08295948964506746
3100000000.0 -0.24222378777364253 0.17788109561509255
3120000000.0 0.14867480843493083 -0.2516672657862167
3140000000.0 0.06345266211866825 0.2754016124543368
3160000000.0 -0.2304263727247397 -0.1354986757814055
3180000000.0 0.04287630916404908 0.24596874503360322
3200000000.0 -0.22223181463599784 0.04674697828725143
3220000000.0 -0.13639335115611398 -0.14616595836667828
3240000000.0 0.12696260005308113 -0.10972001251229324
3260000000.0 -0.06736934501140433 0.11483673900865149
3280000000.0 0.0835972118070729 -0.05599427523104959
3300000000.0 -0.014189069020581539 -0.07050439669191866
3320000000.0 -0.042679970691736006 -0.019612975794659832
3340000000.0 -0.008953425447641742 -0.02400241337935521
3360000000.0 0.0013137942532291877 0.009890380718550645
3380000000.0 0.006513271161236874 -0.0019429358377283572
3400000000.0 -0.01604992716687823 0.013818715890097132
3420000000.0 0.03771103950739669 -0.0015686643914821243
3440000000.0 0.03358014789951728 -0.03939789251832263
3460000000.0 0.057605349982861 0.02119578689329374
3480000000.0 0.0694609132189811 -0.015302292453700848
3500000000.0 -0.05851142093663441 -0.05604310321788283
3520000000.0 -0.07063193120616754 0.060637303498152134
3540000000.0 0.08066114727489358 0.06778058171085409
3560000000.0 0.010952012403664727 -0.11771266375119051
3580000000.0 -0.07170383288430328 0.1136484952054456
3600000000.0 -0.11290045199045254 -0.106379922276518
3620000000.0 -0.12605109553951882 -0.11288723430298078
3640000000.0 -0.0894788961559291 -0.157520823352029
3660000000.0 -0.1737916452598576 -0.07792435696865264
3680000000.0 -0.17501237149179397 -0.0804615088383243
3700000000.0 -0.17573123067523808 -0.07092800372829065
3720000000.0 0.025443412006381505 -0.18430608260513445
3740000000.0 0.17119204271854863 -0.057057815294844036
3760000000.0 -0.1690007585439877 -0.037717953461916115
3780000000.0 0.11194848783846867 0.12165707429606556
3800000000.0 0.14441764293642198 -0.062083757242415695
3820000000.0 0.0010149317970193639 -0.15215024729578522
3840000000.0 0.006142016068409009 -0.14695675587469947
3860000000.0 0.14476019739632234 -0.02443588714879696
3880000000.0 0.13028137845132426 -0.07637708455607137
3900000000.0 -0.08363902844303665 -0.12738334606219526
3920000000.0 -0.12112533689693619 0.09945452773381706
3940000000.0 0.15652603838963372 -0.043697822915157815
3960000000.0 0.03443210198339194 0.1648307377113767
3980000000.0 0.17086499905082705 -0.011289557810241144
4000000000.0 0.12109275941090644 -0.11474556734366095
