! Created with skrf (http://scikit-rf.org).
# Hz S RI R 50.0 
!freq ReS11 ImS11
400000000.0 -0.015138960040062252 0.872078240667362
420000000.0 0.4861416304960683 0.7117829306994052
440000000.0 0.8000432629335823 -0.21475175363951238
460000000.0 0.09726530839783272 -0.7845192804226396
480000000.0 0.4837622859847794 -0.5106863252526987
500000000.0 0.47617483138758204 -0.2849558920453236
520000000.0 0.478831165442755 0.08637398063843751
540000000.0 -0.06253569351916612 0.428747642553238
560000000.0 0.2371610257488719 -0.2823495114668868
580000000.0 -0.3390315544717491 -0.10571461374014811
600000000.0 0.1506047181399913 0.32339486339663226
620000000.0 -0.37559553638297816 -0.054715120870010715
640000000.0 0.3920433843946715 0.12681373304738505
660000000.0 -0.17963898104715387 -0.3767022826282421
680000000.0 -0.12517453756086316 -0.4055170137077398
700000000.0 -0.3833067094850531 0.1604841203525048
720000000.0 -0.2939130221910366 -0.2771743356739103
740000000.0 -0.31830878377284155 0.24844245361155337
760000000.0 0.20293081417165776 0.3447160433278879
780000000.0 -0.3691993789133241 -0.08944750370509569
800000000.0 0.34804554427545753 -0.0935590083261212
820000000.0 -0.0734063618853461 -0.3029139166591689
840000000.0 0.24873795691873746 0.05191933344129402
860000000.0 -0.0036301982574761583 0.2097881435323233
880000000.0 -0.15014441346054694 -0.002288082311487075
900000000.0 -0.07210586857388301 0.03403544545597746
920000000.0 -0.03307894147824242 0.0320873483553097
940000000.0 0.015165634257252552 0.02466907625317539
960000000.0 0.021742852074126764 0.027774835614763963
980000000.0 0.04135448795646473 0.020745993729135253
1000000000.0 -0.05573929435123303 -0.0034455753355578855
1020000000.0 0.07333519759250431 0.03572147303885893
1040000000.0 0.09255697102057905 0.05374087385041268
1060000000.0 0.06731861486821297 -0.1385992780610257
1080000000.0 -0.0737904558281373 -0.16082360245176974
1100000000.0 -0.0019540396300027035 -0.20761226880932973
1120000000.0 0.21603669945101794 0.07070240504734457
1140000000.0 -0.21628119195242462 0.1371066459185068
1160000000.0 -0.000247043939294072 0.27751545307665787
1180000000.0 -0.26649759940947493 -0.14131163058139576
1200000000.0 0.32079471931458886 0.04501789575919609
1220000000.0 0.10531604458719616 -0.33259809826606956
1240000000.0 -0.3443399933453197 -0.1622243258760824
1260000000.0 0.07547543624611644 0.410695950341491
1280000000.0 -0.016676294281992396 -0.44267678911486075
1300000000.0 -0.05825917684743958 0.45849435053407966
1320000000.0 0.05834382202215059 -0.4583247081131236
1340000000.0 -0.4341086942926522 -0.1303879826848575
1360000000.0 -0.41488322609998735 0.14322536782890405
1380000000.0 -0.2780263108680176 0.32636029368970687
1400000000.0 -0.051898170610525776 0.4054476645875543
1420000000.0 0.1933934038272202 0.3357959128530812
1440000000.0 0.13220337337443538 0.33994152192811333
1460000000.0 0.29560906400541953 0.173289791555427
1480000000.0 0.2056455946849951 -0.24588547102052177
1500000000.0 -0.20380223153545565 -0.213011897060961
1520000000.0 -0.19699115259132122 0.18032652416252523
1540000000.0 -0.10369734859011251 -0.2114772269304869
1560000000.0 0.18824247320932944 -0.06094772165484578
1580000000.0 -0.03340108973277998 0.16513553841438902
1600000000.0 -0.03924361935618007 0.13199264204332048
1620000000.0 -0.09524084632260656 0.05227452318896176
1640000000.0 0.07006014058074565 -0.05172847796599157
1660000000.0 -0.01337428781018256 -0.06329382120506617
1680000000.0 0.002749057777856069 -0.04438324336325087
1700000000.0 -0.00661986260837087 0.028157390476617854
1720000000.0 -0.008017914173895949 -0.010642625310279867
1740000000.0 -0.0038634531859565147 -0.017075134293015246
1760000000.0 -0.03474628207813107 -0.020077853544228214
1780000000.0 -0.004816079681780805 0.07442214407946578
1800000000.0 0.0027178550377209847 0.11280254652641482
1820000000.0 0.1454079517623791 -0.01604795387750665
1840000000.0 0.16361895943631413 0.07066567737592942
1860000000.0 -0.17146663871085785 0.11419189673080296
1880000000.0 0.12353478961473657 0.19983389244893576
1900000000.0 0.2684070016182767 -0.022082537745962742
1920000000.0 -0.008056939639277502 -0.30349857498434774
1940000000.0 -0.31263856347451113 -0.13134843925526496
1960000000.0 -0.03750015427990867 0.3698296874278512
1980000000.0 0.36503081259147124 -0.1556157892204024
2000000000.0 -0.07309924420517883 -0.41116430705919715
2020000000.0 -0.40656010257763436 0.14467833616343467
2040000000.0 -0.03418012850671341 0.4362304234703682
2060000000.0 0.40695348835105083 0.16503604652169043
2080000000.0 0.38917799215398163 -0.19520406846307048
2100000000.0 0.2704508295920642 -0.333468155988275
2120000000.0 0.07241446621048206 -0.41413395442232087
2140000000.0 -0.3113108505133129 -0.2644632838734278
2160000000.0 0.027856189018341852 -0.3911016571714
2180000000.0 -0.1429206910936418 -0.34484552824788767
2200000000.0 -0.27221978433568633 -0.23182769826676067
2220000000.0 -0.30307955338363407 -0.1652086398950913
2240000000.0 -0.3381274648697855 0.044809582680029166
2260000000.0 -0.28410886199037017 0.18984647205035177
2280000000.0 -0.15864744352446147 0.30845587238941574
2300000000.0 0.3360418755223547 0.13534511482991962
2320000000.0 0.054872050403448586 -0.38147319167348254
2340000000.0 -0.38971075202180816 0.1446395587422758
2360000000.0 0.4238878056071977 0.16879720737874776
2380000000.0 -0.3767138956971086 -0.3342976811991708
2400000000.0 0.37459871761939095 0.41159260143533016
2420000000.0 -0.5780951418389186 -0.19574386338970018
2440000000.0 0.6064240699061916 -0.26146776739270833
2460000000.0 -0.3373651979291574 0.6148790215204794
2480000000.0 0.030752513017664157 -0.7318227231176376
2500000000.0 -0.10470821616401209 0.7461001368736438
2520000000.0 0.2549172533861508 -0.7200483720814613
2540000000.0 -0.6205666359645672 0.4487424090420139
2560000000.0 0.7581797899029451 0.04805610537453594
2580000000.0 -0.34065878042586856 -0.6625872652985475
2600000000.0 -0.30430804862830096 0.6532413883527141
2620000000.0 0.6538316012533282 -0.2186501642250414
2640000000.0 0.47802314380139616 -0.4429619008927347
2660000000.0 -0.6053896631973933 -0.03944998895434235
2680000000.0 0.3060985408360497 0.466884097183332
2700000000.0 0.11171364324944616 -0.49869432783042095
2720000000.0 -0.37460384210419795 0.2734883047914942
2740000000.0 0.4208836977879469 -0.02495164863456601
2760000000.0 -0.37040832677327656 -0.10191223962876726
2780000000.0 0.3531780265045134 -0.03833905937269051
2800000000.0 -0.2441065287922053 0.22447589775640556
2820000000.0 -0.15898314307933414 -0.27112107245845857
2840000000.0 0.28040980068280863 -0.11309276331591087
2860000000.0 -0.029142251545430133 0.295586100151395
2880000000.0 -0.13147755802673078 -0.26461704443627426
2900000000.0 0.10464895935543979 0.2774198420450265
2920000000.0 0.19970753629968285 -0.22353067412758515
2940000000.0 -0.2770606510091864 -0.12799075931387244
2960000000.0 -0.29328006586372624 0.09594927542819985
2980000000.0 -0.3117813514998028 0.023574309370738917
3000000000.0 -0.23311695103021565 -0.21190683669411636
3020000000.0 0.08697225211121144 -0.30231200838757377
3040000000.0 0.24799556179417015 0.18900063558307126
3060000000.0 -0.3030126936529019 -0.06350029507349758
3080000000.0 0.28910534970657925 -0.10008682577897013
3100000000.0 -0.22006336329907386 0.20434509752021163
3120000000.0 0.14809807914110373 -0.25148609937665517
3140000000.0 0.07347440955902017 0.27305551558632957
3160000000.0 -0.22837170628366749 -0.13793778138265606
3180000000.0 0.034434117302625245 0.24678503634903798
3200000000.0 -0.21698161558807946 0.0675890500857746
3220000000.0 -0.14913746983009796 -0.1335077363471583
3240000000.0 0.11503256300852055 -0.12302429589707514
3260000000.0 -0.05959406424886683 0.11922066326346638
3280000000.0 0.07778876870508898 -0.06414089983795683
3300000000.0 -0.05155526946145441 -0.05055278320488841
3320000000.0 -0.03675887710685879 -0.029632466885492568
3340000000.0 0.01591179434546742 -0.020734131422941757
3360000000.0 -0.010113605675102753 -0.001309896436703991
3380000000.0 -0.0030910769523044635 -0.005456644254538723
3400000000.0 0.0007248357492063624 0.020589548700045632
3420000000.0 0.03672840634858309 -0.007259497621032733
3440000000.0 0.0026237343900718134 -0.05143590623628351
3460000000.0 0.06093048020556262 -0.004137919338579166
3480000000.0 0.05312559609844445 -0.04706427194446631
3500000000.0 -0.06429483802403466 -0.048865876711448306
3520000000.0 -0.08101676650222349 0.044297866351853246
3540000000.0 0.09440889917765422 0.04655885042056451
3560000000.0 -0.030383220890578853 -0.11410896950023122
3580000000.0 -0.043012448408715216 0.12747527835003714
3600000000.0 -0.14018823027764343 -0.06799412602696135
3620000000.0 -0.14474226532571446 -0.08792155733735439
3640000000.0 -0.12105215910095478 -0.13469263158996958
3660000000.0 -0.17902399610240674 -0.0645943663902042
3680000000.0 -0.18512413118694615 -0.053562049537537584
3700000000.0 -0.18249766597742098 -0.050951385648206504
3720000000.0 -0.0020517081703318855 -0.18605840281509364
3740000000.0 0.1712702211984154 -0.058252025276841736
3760000000.0 -0.17208192630232402 -0.017799416081131936
3780000000.0 0.11040350683566454 0.12379757641785202
3800000000.0 0.14874845539577933 -0.053099058703913043
3820000000.0 -0.0026484030343270144 -0.15253843947048815
3840000000.0 0.01322776206924681 -0.14697205944299185
3860000000.0 0.14518016260670605 -0.02341228174080463
3880000000.0 0.12428114447232705 -0.08666088182294754
3900000000.0 -0.09104021480178454 -0.12296540409475054
3920000000.0 -0.11564737172690992 0.10655144823407645
3940000000.0 0.14934004238379792 -0.06465192713946304
3960000000.0 0.057448344879705966 0.1591369931909022
3980000000.0 0.1717947485079335 0.005006942447963109
4000000000.0 0.14618378771238658 -0.0815725874189932
