! Created with skrf (http://scikit-rf.org).
# Hz S RI R 50.0 
!freq ReS11 ImS11
400000000.0 -0.6680854225117928 0.5380504485458366
420000000.0 -0.18289256703606743 0.8466923126167767
440000000.0 0.8316227142262284 0.11765669761336232
460000000.0 0.18639347850150298 -0.7795364708009348
480000000.0 0.20518152851474594 -0.7030780568120467
500000000.0 -0.2255647805866692 0.5198162228988796
520000000.0 -0.46907628124716433 -0.06521927621082756
540000000.0 0.3627504786222116 0.20531946946209023
560000000.0 -0.2699475311954657 0.22802513076990755
580000000.0 0.22092888517892176 0.25153091961717094
600000000.0 0.16797846480669293 -0.2849729283004672
620000000.0 -0.23363169144766405 0.253685611780854
640000000.0 -0.18556745442664205 0.32222714109948875
660000000.0 0.004827948339020512 0.39008079861384454
680000000.0 -0.41433981209895704 -0.005846295242006848
700000000.0 0.10344625619251721 0.41772710106915195
720000000.0 0.4137276256977724 0.13662106869456844
740000000.0 -0.1249512750298479 0.4167783760790645
760000000.0 0.2745491790632191 -0.31884775524535947
780000000.0 0.3564746228822744 0.16144101848568324
800000000.0 -0.2725712595632647 0.23312057528174954
820000000.0 -0.11495274156127981 0.27933391263240226
840000000.0 0.04007991557598704 -0.24090915904862195
860000000.0 0.02634291852044042 0.19330480434816963
880000000.0 -0.14978667476864357 0.021542184063159622
900000000.0 -0.07216541442044662 0.025208851127095772
920000000.0 0.03541498950783915 0.024963694059614714
940000000.0 0.011012970646991247 0.03064212564947623
960000000.0 0.04198868234715721 0.010436499362870024
980000000.0 -0.039442817090203176 -0.04348573413224294
1000000000.0 0.020523390079069486 0.05954074297777895
1020000000.0 -0.07445909291468061 0.0224849924980964
1040000000.0 -0.058929105237380396 -0.0670348704276446
1060000000.0 0.12474587163103368 0.03868372062465266
1080000000.0 -0.12159105665054412 -0.08711642558748228
1100000000.0 -0.12141708617443263 0.13091514481627187
1120000000.0 0.2041342256098671 -0.01580634523572556
1140000000.0 -0.20880600840450558 -0.12803648866760467
1160000000.0 -0.21765256366901795 0.18373654152082458
1180000000.0 -0.06063625611893994 0.3176556790116594
1200000000.0 -0.04018986269539191 0.3538860903539916
1220000000.0 -0.34466656600889645 -0.16855821416214267
1240000000.0 0.4041849763153968 -0.0372257292732369
1260000000.0 -0.4109729466577988 -0.11217802576602726
1280000000.0 0.38162066730106986 0.21505841274113247
1300000000.0 0.05336920873867074 -0.43803157559331224
1320000000.0 -0.36827045019306553 -0.2306524443157325
1340000000.0 -0.10465878879460905 -0.415376567665795
1360000000.0 0.30283561021687233 -0.2987470776025689
1380000000.0 0.22720849191828285 -0.36209896377379497
1400000000.0 -0.3321893969024252 -0.2548538519243542
1420000000.0 -0.2932897028865197 0.27730009961137203
1440000000.0 0.281831887778057 0.25355889143356874
1460000000.0 0.31565211544126465 -0.15140267515358158
1480000000.0 -0.09461314470458479 -0.3066856879745874
1500000000.0 -0.28393644488776854 -0.05444874290787686
1520000000.0 -0.23285323379329836 0.12167214635539392
1540000000.0 0.08177225603167769 -0.2217619416365114
1560000000.0 0.2000485430778825 0.039811880364634726
1580000000.0 0.13926933313181855 0.10847022983464114
1600000000.0 -0.10221749007057658 -0.10242256215673748
1620000000.0 0.0690265791832618 0.08700613249964975
1640000000.0 0.07574952924604647 0.03434040050574665
1660000000.0 0.05103727259101724 0.027619225984281248
1680000000.0 0.028308535649356578 0.01054445973741048
1700000000.0 -0.009266395128129896 0.003876675480607077
1720000000.0 -0.014568609544002574 -0.0018681571730362755
1740000000.0 0.03134800266075797 0.012787467201107322
1760000000.0 -0.051012654074027976 0.010796799952208743
1780000000.0 0.07723944329906081 0.015964235371825862
1800000000.0 0.03500319199533534 0.10240047354972355
1820000000.0 0.1258967466592044 -0.036154362043740056
1840000000.0 0.05966863167765067 -0.15021682062693364
1860000000.0 -0.09819793144033014 -0.16413366516297093
1880000000.0 -0.20636270359236827 -0.09715671442653269
1900000000.0 -0.15240102108901396 0.2223020004536923
1920000000.0 0.30963435045778215 0.011874193771365154
1940000000.0 -0.13086671919602608 -0.3215503969730553
1960000000.0 -0.12617840665282704 0.35930231031799487
1980000000.0 0.35036832159262943 -0.20314647174999548
2000000000.0 -0.24768085206938653 -0.3459428169767716
2020000000.0 -0.206143224721951 0.38735243660535223
2040000000.0 0.38699140934441467 0.22054613563371805
2060000000.0 0.18791461218573743 -0.40116517642194177
2080000000.0 -0.2337672572611455 -0.36632369363643863
2100000000.0 -0.36729867249804593 -0.2108280854993753
2120000000.0 -0.35947438438040746 -0.19916415086826805
2140000000.0 -0.3084683873933065 -0.2547180289526695
2160000000.0 0.15773901530866136 -0.3555995384001333
2180000000.0 0.03162760670387528 -0.37640921279722706
2200000000.0 -0.2659314089398113 -0.25337715267291266
2220000000.0 -0.35798865562669824 0.01419651148722302
2240000000.0 -0.03530476102731733 0.3535313930558957
2260000000.0 0.30362946010337616 0.1835931262401974
2280000000.0 0.30692510609854096 -0.1857782564169423
2300000000.0 -0.23289449431059608 -0.28892442989397077
2320000000.0 -0.33949477007084544 0.1986849988291071
2340000000.0 0.27193813864063643 0.32721372358366135
2360000000.0 -0.07207338289259087 -0.46146523277972623
2380000000.0 0.06286373797360775 0.5106672475985711
2400000000.0 -0.1970326207785055 -0.5296397351992518
2420000000.0 0.5245110573672443 0.3204348000854648
2440000000.0 -0.6472712448942838 0.12561121254371022
2460000000.0 0.4742364992012435 -0.5083312660813941
2480000000.0 -0.2793867592887963 0.6655676797296891
2500000000.0 0.3819565712161915 -0.6318073284064647
2520000000.0 -0.5790526969571969 0.46995017814718104
2540000000.0 0.7376301275639536 -0.10439444498198708
2560000000.0 -0.49626887128351654 -0.5450407701230363
2580000000.0 -0.22887480763574392 0.6827159182437076
2600000000.0 0.6919569200337324 -0.06428850123507157
2620000000.0 -0.3958377614206873 -0.5322726230099403
2640000000.0 -0.5520656073306237 -0.2937492600566495
2660000000.0 -0.007782695885161481 0.5799937366055168
2680000000.0 0.4967429497570589 -0.19642252999356946
2700000000.0 -0.3771199180877496 -0.308803591384736
2720000000.0 -0.057893036794116504 0.4364806532380964
2740000000.0 0.3977060579670551 -0.025479292300111124
2760000000.0 -0.25957305378404033 -0.25438124178316257
2780000000.0 0.18470383260534112 0.2823617003990478
2800000000.0 -0.2720298557547452 -0.16402912249682947
2820000000.0 0.2091201416035067 -0.21929743731112036
2840000000.0 0.22994709754589007 0.1827052831951903
2860000000.0 -0.20472064252142885 0.20394085386319058
2880000000.0 -0.17017717379575503 -0.23036582775721703
2900000000.0 0.2514992271797422 0.1371127714089977
2920000000.0 -0.07099134052425275 -0.27871148196968365
2940000000.0 -0.2776392683304308 0.08693224116113189
2960000000.0 -0.2088341143931899 0.2051343480273001
2980000000.0 -0.2952183538016257 0.04408481430918275
3000000000.0 -0.17508515956903734 -0.2484555229894273
3020000000.0 0.17871854596212255 -0.24847708239131627
3040000000.0 0.21566741499639236 0.21762284675208685
3060000000.0 -0.30548802926844953 -0.005507778704039758
3080000000.0 0.22174908013967157 -0.20408809579701284
3100000000.0 -0.03937800564047517 0.29273623015446815
3120000000.0 -0.11065848243884539 -0.26315900732537656
3140000000.0 0.22555360592261536 0.15789302414574657
3160000000.0 -0.25987122181705574 0.013278998101808654
3180000000.0 0.15155439680996208 0.1895755732613625
3200000000.0 -0.20617649631279983 0.07620051221836911
3220000000.0 -0.016721359226416682 -0.19205674213745047
3240000000.0 0.11198517133789972 0.11894438200167215
3260000000.0 -0.058290367122156184 -0.11898949202012427
3280000000.0 -0.06541897565788123 0.08120047652213247
3300000000.0 0.06737254979575298 -0.04162433150667801
3320000000.0 -0.05231648146452987 0.007532073633582179
3340000000.0 -0.008643023566318632 -0.02840104221751882
3360000000.0 0.0007439860174377285 0.009557300972021029
3380000000.0 -0.0071624125222132535 0.007448558604737421
3400000000.0 0.019560269069798235 -0.014028521684172054
3420000000.0 -0.007344239329480911 -0.03731268563847189
3440000000.0 0.02546112981942749 0.039320449137908976
3460000000.0 0.030247816991713115 -0.04372829807190699
3480000000.0 -0.05475534380326171 0.02428608570020507
3500000000.0 -0.01682799166300275 -0.06968789672342442
3520000000.0 0.03904223453500872 -0.07770937369613788
3540000000.0 -0.0804273553962792 0.06286189814457686
3560000000.0 0.047279305655852845 -0.10784152953908355
3580000000.0 -0.04687946592082766 0.1263286237100009
3600000000.0 -0.1482396924515021 0.04407907453853476
3620000000.0 -0.10140772539896749 0.13309004337334254
3640000000.0 -0.1784102859342305 0.017970303324934638
3660000000.0 -0.14902022651854868 0.11375545709348894
3680000000.0 -0.18429983296470837 0.04359063703232986
3700000000.0 -0.17056293877489795 -0.07829521675161506
3720000000.0 0.01568224742828932 -0.18317404689135292
3740000000.0 0.17754671271082165 -0.002181924868037176
3760000000.0 -0.11204033114138902 -0.1313619429648621
3780000000.0 -0.0009941799154918566 0.16515529565137405
3800000000.0 0.15655376355618805 0.033222236849282875
3820000000.0 0.10621089880135587 -0.11394079255573913
3840000000.0 0.0070663125166251185 -0.15101473741298865
3860000000.0 0.06910350340361829 -0.13313621238547838
3880000000.0 0.044359346048869694 -0.1447234710631246
3900000000.0 -0.08248525858186008 -0.12740841864957891
3920000000.0 -0.14767228363637874 0.05047763051223997
3940000000.0 0.15952565443504296 0.027358248464124837
3960000000.0 -0.011400220123544592 0.168495517885881
3980000000.0 0.10440247514611486 0.139489808411729
4000000000.0 0.16234429912858372 -0.05213243385683221
