! Created with skrf (http://scikit-rf.org).
# Hz S RI R 50.0 
!freq ReS11 ImS11
400000000.0 -0.6864059891070968 0.5149230423499145
420000000.0 -0.12238735552139904 0.8578013973696261
440000000.0 0.8356203716443025 0.08118497156637618
460000000.0 0.10913500514483289 -0.7937369339226297
480000000.0 0.18863681174433183 -0.7073252152510078
500000000.0 -0.16902445795008456 0.5419115527775092
520000000.0 -0.4721423997737528 -0.022582907119646518
540000000.0 0.3415009844108131 0.2355403283143407
560000000.0 -0.3061512686412279 0.178224351459177
580000000.0 0.24289162216092622 0.2288029451476354
600000000.0 0.17797377524486038 -0.278131734625697
620000000.0 -0.2578709367113833 0.2288650276101674
640000000.0 -0.16054265896418426 0.3347417531088797
660000000.0 0.02914449987733452 0.38916000920675875
680000000.0 -0.4110571329977232 0.05367650028635351
700000000.0 0.06533336803627487 0.4255749152108437
720000000.0 0.4270298843859648 0.08602718028765033
740000000.0 -0.11608539853294929 0.4186952640000388
760000000.0 0.24977607960293452 -0.3373401272587527
780000000.0 0.32905407603802184 0.21191817330476279
800000000.0 -0.32418534657109177 0.15480815531921985
820000000.0 -0.1554447797248586 0.25971100761624555
840000000.0 0.044222341901008766 -0.24074958861816204
860000000.0 0.049331408796978615 0.18934951851039827
880000000.0 -0.14978424792342118 0.02958298348774098
900000000.0 -0.03644534527382555 0.06762911178919262
920000000.0 0.040224805330138905 -0.017059220731942232
940000000.0 0.03392608470786215 -0.0007519369093958664
960000000.0 0.033611776003593594 -0.028514280347793602
980000000.0 -0.058220126214745635 -0.013133144892298393
1000000000.0 0.06150857952778046 0.015276713343780024
1020000000.0 -0.05158661553243726 0.057936131886467436
1040000000.0 -0.06361881395367674 -0.06114671711480173
1060000000.0 0.11303107593583936 0.06335107953995596
1080000000.0 -0.1069211029463279 -0.10291056694589011
1100000000.0 -0.14256457135759562 0.10689708132293403
1120000000.0 0.20428215963714186 0.01113300738042281
1140000000.0 -0.18388587500658687 -0.16163105985584475
1160000000.0 -0.16410550515072 0.23327102695232413
1180000000.0 -0.019260253432958438 0.3229411196344855
1200000000.0 0.0071491082620296145 0.3562702289712762
1220000000.0 -0.3557604230189434 -0.14303709775955012
1240000000.0 0.40270348014492263 -0.049812074483587196
1260000000.0 -0.42211666031876927 -0.05943863729618377
1280000000.0 0.37868267623142804 0.22056920238298672
1300000000.0 0.05594012933155921 -0.43806773375867747
1320000000.0 -0.37022310416194465 -0.22828352876956354
1340000000.0 -0.10449436401762865 -0.41606546502685066
1360000000.0 0.29877017766337527 -0.30334879005108495
1380000000.0 0.21194666982338084 -0.3718684188851828
1400000000.0 -0.3392915124381742 -0.24495053771243455
1420000000.0 -0.27291768853833553 0.29616599237751906
1440000000.0 0.26199860175727463 0.27238371661230104
1460000000.0 0.329264948063465 -0.1154648803525
1480000000.0 -0.018521900818455506 -0.3196886777303543
1500000000.0 -0.2765064154770303 -0.08167418770102028
1520000000.0 -0.2365337164927668 0.11392063147846943
1540000000.0 0.09207715741708986 -0.2175994818210059
1560000000.0 0.20457453544611778 0.004132819533108843
1580000000.0 0.17066543797085726 0.04452430001890252
1600000000.0 -0.14197392215696714 -0.030082186536253993
1620000000.0 0.10921045490158403 0.02021107137459828
1640000000.0 0.06344275529515246 -0.05453108570038195
1660000000.0 0.05422122104827765 -0.020516515850050994
1680000000.0 0.029661165328368558 0.005904445382828332
1700000000.0 -0.00922269319676483 0.002756228318702144
1720000000.0 -0.01299452788427703 -0.0055589976563069484
1740000000.0 -0.001032976486237688 -0.033887581684244994
1760000000.0 0.02421129851752738 0.04674639282653071
1780000000.0 0.052143659804996245 -0.0599171400655073
1800000000.0 0.09290284832096748 0.056429308154981435
1820000000.0 0.1132078176778915 -0.06685040913346858
1840000000.0 0.04992693332982887 -0.15412682177579423
1860000000.0 -0.08381517344673238 -0.17311336474814387
1880000000.0 -0.19202311066830893 -0.1245863167965339
1900000000.0 -0.18002067572246053 0.20205110384289746
1920000000.0 0.30836182099675746 0.03892003196586716
1940000000.0 -0.09801776238362166 -0.33377293387559165
1960000000.0 -0.160793631399154 0.34577143608088073
1980000000.0 0.3608112250214234 -0.18422415719727356
2000000000.0 -0.23939281362701206 -0.35153393724033455
2020000000.0 -0.1760241670813404 0.4015855138568447
2040000000.0 0.3820403371454186 0.22787166611137216
2060000000.0 0.15901739183824828 -0.41258885696936354
2080000000.0 -0.27778322103945924 -0.3332133830878322
2100000000.0 -0.3974694888239973 -0.14399965380480637
2120000000.0 -0.37198418927477 -0.17353326736217844
2140000000.0 -0.35720699056307087 -0.17901478477691127
2160000000.0 0.10248161533081133 -0.3751816095518173
2180000000.0 -0.04243005409293421 -0.3753947384805694
2200000000.0 -0.31483449503919636 -0.1899294315115051
2220000000.0 -0.3439831089504128 0.10211866271884826
2240000000.0 0.016119108677922545 0.3560382192912208
2260000000.0 0.3283008828211118 0.13875890110788883
2280000000.0 0.2846758323360826 -0.22120259815142426
2300000000.0 -0.26480106592866864 -0.262925977991119
2320000000.0 -0.30300244489743494 0.2542660745387308
2340000000.0 0.3290063323675559 0.27337992077647505
2360000000.0 -0.16474905502822704 -0.4396146622764394
2380000000.0 0.18153210099979952 0.4840215547138408
2400000000.0 -0.34112840290347335 -0.4533687089694123
2420000000.0 0.5972610737464933 0.1535164674213563
2440000000.0 -0.5610989608251227 0.3492548429682797
2460000000.0 0.23198568903878444 -0.656158407964821
2480000000.0 0.018261807908696328 0.7218633364631059
2500000000.0 0.011404049188954676 -0.7375376513180492
2520000000.0 -0.27356111768768854 0.6928062503048511
2540000000.0 0.6259108092034041 -0.40118513266674394
2560000000.0 -0.6977579290434548 -0.23063061416750374
2580000000.0 0.05964318866738499 0.7149365780991381
2600000000.0 0.5632557363057287 -0.4015080402803326
2620000000.0 -0.6031909128955236 -0.26735745720600446
2640000000.0 -0.6209562301702399 -0.025717690559841976
2660000000.0 0.2381546502693244 0.5243686742149797
2680000000.0 0.3825041916281602 -0.36668855070720363
2700000000.0 -0.4566956661648111 -0.15831178471671534
2720000000.0 0.08960174364971624 0.4273615660493131
2740000000.0 0.35480128884528395 -0.17372815938835237
2760000000.0 -0.3161296731764679 -0.1722601689009293
2780000000.0 0.22636461411315215 0.24598032136922846
2800000000.0 -0.28844240874509947 -0.12585347908163919
2820000000.0 0.19079189724300197 -0.23205517434455705
2840000000.0 0.2324176724480499 0.17547780738811816
2860000000.0 -0.19285357880550966 0.21203207384630737
2880000000.0 -0.18071355576796752 -0.21945034269747019
2900000000.0 0.2603890509346119 0.11374187641866337
2920000000.0 -0.08969033918195536 -0.27073148783270984
2940000000.0 -0.2631725329914699 0.1183175122500392
2960000000.0 -0.17312448504278624 0.23294992384993757
2980000000.0 -0.27343969355588293 0.11240351166024873
3000000000.0 -0.23204025593933048 -0.19227555328008675
3020000000.0 0.09097938766448084 -0.2900007069595095
3040000000.0 0.2574901011712646 0.16189978981225356
3060000000.0 -0.2894025286307817 0.09163964602372439
3080000000.0 0.15946584178303166 -0.253893060829039
3100000000.0 0.06243929327779657 0.2875693247538458
3120000000.0 -0.1909569573598906 -0.21130995736470762
3140000000.0 0.2581641911985389 0.09474306535727409
3160000000.0 -0.2557939636843117 0.046504466967263056
3180000000.0 0.19339114275897815 0.14788762254730778
3200000000.0 -0.182873599320727 0.12294237334875058
3220000000.0 -0.056935309687747855 -0.18489157437829373
3240000000.0 0.11336716190291697 0.11822895126242801
3260000000.0 -0.039002457937914174 -0.12741813958735917
3280000000.0 -0.08954478210518557 0.05423643364273579
3300000000.0 0.07369041400945538 0.02913860422435698
3320000000.0 0.023275710938094385 -0.04768882088888899
3340000000.0 -0.006089090348450553 0.02954478275450951
3360000000.0 -0.004548894213015333 0.009013859367262908
3380000000.0 0.004047710200431075 0.00808144064186083
3400000000.0 -0.013150422448946555 0.019361715728171587
3420000000.0 -0.02861105453600112 0.02462284035075936
3440000000.0 0.01909288714279139 -0.04325839172693413
3460000000.0 -0.044487842093157516 -0.02927978830477013
3480000000.0 0.03857542250758437 0.04594285509809995
3500000000.0 -0.06950728040207227 0.016912644938960112
3520000000.0 -0.04821183061639408 -0.07170818333723449
3540000000.0 -0.019950681202879187 0.09942442975398902
3560000000.0 -0.00812363858046042 -0.11709975911324934
3580000000.0 0.0003538854836966449 0.1343601337897276
3600000000.0 -0.1307108911471498 0.08247082365950081
3620000000.0 -0.051347260607767106 0.15952834490565818
3640000000.0 -0.1643899247813849 0.07226641180463575
3660000000.0 -0.1117358273766972 0.15083799619940966
3680000000.0 -0.1698360104134447 0.08526025514882223
3700000000.0 -0.18012772241881658 -0.05459659771793232
3720000000.0 0.003169050506035479 -0.18437057935717477
3740000000.0 0.17841825027001584 0.001365192367855788
3760000000.0 -0.1140044487922307 -0.13073626040623967
3780000000.0 0.01512181865810079 0.16514245332151317
3800000000.0 0.15613699046343113 0.038754189116808495
3820000000.0 0.11771182046777218 -0.10359414916151022
3840000000.0 0.031707227094466266 -0.1491425418094517
3860000000.0 0.08013328299023538 -0.12823219500752323
3880000000.0 0.040996840964506856 -0.14663845063473768
3900000000.0 -0.0847928980955858 -0.12787315777044198
3920000000.0 -0.1496075538597867 0.04954787049573012
3940000000.0 0.15916974346568966 0.035578821111125404
3960000000.0 -0.02020209940786867 0.16926200320368948
3980000000.0 0.07883834870304812 0.15688853969342953
4000000000.0 0.17102931475105848 0.007996955763384392
