! Created with skrf (http://scikit-rf.org).
# Hz S RI R 50.0 
!freq ReS11 ImS11
400000000.0 -0.6809705022021416 0.5220130856482598
420000000.0 -0.067266552347316 0.8632736391758471
440000000.0 0.8298878538187215 0.12497888700859551
460000000.0 0.09042344173958193 -0.7969881265862515
480000000.0 0.1065101425726149 -0.724721239045136
500000000.0 -0.19144278522332325 0.5331743973704359
520000000.0 -0.46742096632534186 -0.08172381598274811
540000000.0 0.39174905021832557 0.14205538689968222
560000000.0 -0.21359310156305916 0.28046310155260357
580000000.0 0.12050729227807097 0.3103106801556882
600000000.0 0.1808879106188909 -0.27722995790805677
620000000.0 -0.177216831598615 0.2956863618453278
640000000.0 -0.1785071630700904 0.32329751546948343
660000000.0 0.002781420855908835 0.38959729142155963
680000000.0 -0.4151903823484499 0.02130637047245988
700000000.0 0.19186808455080667 0.3855357910531082
720000000.0 0.42630600877572483 0.08462596632090298
740000000.0 -0.15287595266588955 0.4065970018412505
760000000.0 0.2712622848060594 -0.32002017549949097
780000000.0 0.3112857017596896 0.23608800741071298
800000000.0 -0.3409466800732431 0.11441957250639054
820000000.0 -0.21631419263408574 0.21316604339111253
840000000.0 0.09760819273837648 -0.22579539228493314
860000000.0 0.02826164937463066 0.1940282927298268
880000000.0 -0.14507186458620663 0.04922914469791244
900000000.0 0.03182785736126594 0.070963311345731
920000000.0 -0.02329984733120951 -0.037922614210391635
940000000.0 0.021170267158296632 -0.027974151105995233
960000000.0 0.034104631717111956 -0.030456054377043868
980000000.0 -0.04171730869252315 0.043918800330549075
1000000000.0 0.04792735917158037 -0.04207956170800009
1020000000.0 -0.023776010879365494 0.07366646658102231
1040000000.0 -0.08062046181719663 -0.033421766330355394
1060000000.0 0.1150889153048778 0.057797453114996504
1080000000.0 -0.09985920451983872 -0.10830378240922414
1100000000.0 -0.1658488800673005 0.06246464055027763
1120000000.0 0.1910406855947649 0.07149152821414258
1140000000.0 -0.1750616877835677 -0.17149840462899402
1160000000.0 -0.1432736970557984 0.24696185594862635
1180000000.0 0.02216436708183408 0.32308854893561084
1200000000.0 0.05053265936438677 0.3527279371396079
1220000000.0 -0.3747088628678369 -0.08298202671166512
1240000000.0 0.3958165210806683 -0.09046097728851198
1260000000.0 -0.4234452275215765 -0.05085827697803089
1280000000.0 0.38227786378153733 0.21480721741398912
1300000000.0 0.06740272191501605 -0.4366210726730705
1320000000.0 -0.3404588349996673 -0.2710919895401244
1340000000.0 -0.08347481867159486 -0.4211811675865055
1360000000.0 0.30848810080277805 -0.29455982024845956
1380000000.0 0.19949370891500628 -0.3793959693071842
1400000000.0 -0.3644601666371965 -0.2057764826741293
1420000000.0 -0.2525869227898511 0.31307397840180184
1440000000.0 0.27553412100954217 0.2570257192694598
1460000000.0 0.3304793251433788 -0.10805448192159274
1480000000.0 -0.06286328500043917 -0.3119815786475972
1500000000.0 -0.25233160560539997 -0.13788336476649724
1520000000.0 -0.2508657460538585 0.07617258313302724
1540000000.0 0.07741077822820974 -0.2229332031880623
1560000000.0 0.20464098283709303 0.007245690040624122
1580000000.0 0.176691412723782 0.005100952310166618
1600000000.0 -0.1373863419262528 0.04763680545609868
1620000000.0 0.10110020437615218 -0.046752013764155415
1640000000.0 0.01868389725447356 -0.08189085972559242
1660000000.0 0.04064005290057228 -0.04171717323507095
1680000000.0 0.022180464424248574 -0.021597513868426767
1700000000.0 -0.007749585132314331 0.005661694508553888
1720000000.0 -0.012861703302313537 0.005734113852887088
1740000000.0 -0.028310214757631423 -0.019440135190934914
1760000000.0 0.051382194300400266 0.013479305049008393
1780000000.0 0.03683969068576805 -0.07130834628580786
1800000000.0 0.10582905039476206 0.029034607974439432
1820000000.0 0.09972298700131596 -0.08687700527189525
1840000000.0 0.025381404357861025 -0.16066552955954214
1860000000.0 -0.113886678513807 -0.15581012602538866
1880000000.0 -0.20757777517108353 -0.09684657077123415
1900000000.0 -0.17808743398714583 0.20351413485496425
1920000000.0 0.3041798512571081 0.0607375855826452
1940000000.0 -0.05783297289511677 -0.3424131102983664
1960000000.0 -0.20701800492869357 0.32011087807755384
1980000000.0 0.38131338651231617 -0.1369738747610025
2000000000.0 -0.211100569885047 -0.369354473922521
2020000000.0 -0.17748006212154105 0.4009117830155917
2040000000.0 0.39571166450037604 0.2025229253760465
2060000000.0 0.10727869213130813 -0.4282927568923994
2080000000.0 -0.33424807155723096 -0.2749500264550439
2100000000.0 -0.4135667247421091 -0.0825063401242377
2120000000.0 -0.3874205553792136 -0.13231741677995185
2140000000.0 -0.3720432238638689 -0.14322928898186268
2160000000.0 0.06142023198121909 -0.38346751312322447
2180000000.0 -0.09355072111721627 -0.36550312666043216
2200000000.0 -0.3392827921579979 -0.14098217536047558
2220000000.0 -0.3137959926928144 0.17387546919092672
2240000000.0 0.0803836812391424 0.34774199440854525
2260000000.0 0.347178724996541 0.0798361319925714
2280000000.0 0.2525768969840192 -0.2567653834092347
2300000000.0 -0.28852839766098054 -0.23573226295856126
2320000000.0 -0.290379537048842 0.2678455886778034
2340000000.0 0.34917798463492816 0.2468053649588947
2360000000.0 -0.15690857790980187 -0.44163843259319
2380000000.0 0.13667881250506966 0.49712918643384363
2400000000.0 -0.2856296362187406 -0.488610876478363
2420000000.0 0.5758790710459823 0.2154341644306019
2440000000.0 -0.5998376941728707 0.27299468893892337
2460000000.0 0.34128483821070993 -0.6044207931912337
2480000000.0 -0.06501837571642197 0.7169860251740573
2500000000.0 0.21598264451268545 -0.7039297865358055
2520000000.0 -0.4341233715423865 0.6033628989730864
2540000000.0 0.6531351108540848 -0.35272604757097853
2560000000.0 -0.6531237352819809 -0.335235087489891
2580000000.0 0.055686070206315004 0.7147740849451528
2600000000.0 0.6098136002061223 -0.32655923758211214
2620000000.0 -0.5336903491139602 -0.38820653022411267
2640000000.0 -0.6141911783544312 -0.09846968726830801
2660000000.0 0.19208980157172045 0.5440895852461313
2680000000.0 0.38624867923860035 -0.3646787868372593
2700000000.0 -0.44602341010175733 -0.18952786519268958
2720000000.0 0.04499861477525153 0.4355754048840094
2740000000.0 0.380291476889741 -0.11133267171411361
2760000000.0 -0.2955145642348878 -0.20761300436438826
2780000000.0 0.19538791934236413 0.2723435321433672
2800000000.0 -0.2671440714385172 -0.16762710633804861
2820000000.0 0.22818645375297222 -0.19600852973789912
2840000000.0 0.2053167696681746 0.20689546569264103
2860000000.0 -0.23094797446460702 0.1700603046756932
2880000000.0 -0.15432664143750424 -0.23852195411117916
2900000000.0 0.2532296942666294 0.1296655860347526
2920000000.0 -0.09627588510700699 -0.2688907099937604
2940000000.0 -0.26621684306747634 0.11172445792863515
2960000000.0 -0.1635638579122605 0.23959378297805609
2980000000.0 -0.2651210720511112 0.13085483325570424
3000000000.0 -0.25904754336627694 -0.15394475692894857
3020000000.0 0.053103571801379285 -0.2992414152478544
3040000000.0 0.24385628113905963 0.18235811657230827
3060000000.0 -0.2840287899237175 0.10881621251673922
3080000000.0 0.1389644263952214 -0.26632623173562747
3100000000.0 0.01607335380255146 0.2942163783825149
3120000000.0 -0.19314074058997371 -0.21039566806512608
3140000000.0 0.2682952440268473 0.064418719776769
3160000000.0 -0.25165421020911033 0.06782897597825403
3180000000.0 0.18432409850430825 0.1594581237155663
3200000000.0 -0.18848392837929123 0.11564349647127486
3220000000.0 -0.05512730610561201 -0.18608077427554032
3240000000.0 0.10810407083449687 0.12392428513419423
3260000000.0 -0.01687055592481816 -0.13243256611266646
3280000000.0 -0.09749777860113365 0.0390839092484227
3300000000.0 0.048638310218574406 0.06328988783158457
3320000000.0 0.04790722491070895 -0.023353964183683015
3340000000.0 -0.030059424750823967 0.005101793849308108
3360000000.0 0.009971686640968043 0.0031768385842300645
3380000000.0 0.00783994696555466 -0.0031513275605711865
3400000000.0 0.003149204221013255 0.02308117250274004
3420000000.0 -0.02194560968439772 0.030383006686720483
3440000000.0 -0.009030734558004164 -0.04644804363554104
3460000000.0 -0.05360761767208258 0.004128756227806484
3480000000.0 0.05959945740064443 0.010045720071375776
3500000000.0 -0.03813724114786162 0.0606932461250548
3520000000.0 -0.08492910558404662 0.019474092756691
3540000000.0 0.06681388229219239 0.07771065673080793
3560000000.0 -0.05906232840065264 -0.10152485897862812
3580000000.0 0.048367331116027895 0.12586161341795335
3600000000.0 -0.1052767533492423 0.11464813547678335
3620000000.0 -0.0004693005628588083 0.16878944126333842
3640000000.0 -0.13078082076691716 0.12524541632920067
3660000000.0 -0.06594334936220567 0.17750001761197362
3680000000.0 -0.1472064367898815 0.12208980078101488
3700000000.0 -0.18908880396356958 -0.006612666319135115
3720000000.0 -0.031020135494892055 -0.18264683718140926
3740000000.0 0.17899772774285166 -0.008709450385366444
3760000000.0 -0.11316539030923223 -0.1326366006671193
3780000000.0 -0.010390245129408197 0.16690722108234515
3800000000.0 0.14884092490227782 0.06392580214250321
3820000000.0 0.1243502730458663 -0.09742721569665663
3840000000.0 0.03430666185704561 -0.14955901452352166
3860000000.0 0.06727171570481283 -0.135897891149488
3880000000.0 0.044276881366827926 -0.14651683557015135
3900000000.0 -0.09788937201909903 -0.11892510827727203
3920000000.0 -0.15083200470389801 0.04673639352658336
3940000000.0 0.1608516271327264 0.027908747145049803
3960000000.0 -0.02420069622029824 0.16882069785704074
3980000000.0 0.08353401924281578 0.15440130927633436
4000000000.0 0.171100394026158 -0.00907683264780099
