! Created with skrf (http://scikit-rf.org).
# Hz S RI R 50.0 
!freq ReS11 ImS11
400000000.0 -0.6712820932021202 0.5341817382133187
420000000.0 -0.13004198557999316 0.8565497261929929
440000000.0 0.8378998375605891 0.05470969698130623
460000000.0 0.14695333307072578 -0.788012382473784
480000000.0 0.19858570324690894 -0.7050064986683758
500000000.0 -0.2252137484983118 0.5203267381569124
520000000.0 -0.47397990437864584 0.003168401641700095
540000000.0 0.32961513622452565 0.25435389152541343
560000000.0 -0.27753991247707155 0.21842932024073747
580000000.0 0.17068225141473561 0.2887681480690386
600000000.0 0.23687330788074298 -0.22848054878958773
620000000.0 -0.2526687901158228 0.23386394152820744
640000000.0 -0.11105326681492837 0.35490822248503145
660000000.0 -0.08975284205008487 0.3803675712552863
680000000.0 -0.39701895280604066 0.11633770568753742
700000000.0 0.04997125468334275 0.4293059640512904
720000000.0 0.41536014807323457 0.1282414446272816
740000000.0 -0.17767373491565486 0.3969232129149449
760000000.0 0.23219724117307997 -0.35010649165481056
780000000.0 0.32316213170064345 0.22115977332109307
800000000.0 -0.25154626258939855 0.25568348037548805
820000000.0 -0.18860849597099458 0.23739515807694278
840000000.0 0.0634090291452945 -0.235008609550416
860000000.0 0.036851268888818706 0.19197645139201427
880000000.0 -0.1487069401323881 0.02989706027717497
900000000.0 -0.07632662656274056 0.005144155237264895
920000000.0 0.040168564141023246 -0.015748494752134013
940000000.0 -0.023780013685277754 0.023027815811815573
960000000.0 0.03053177228779357 -0.030265995866207325
980000000.0 -0.037461879144225774 -0.04617467117072203
1000000000.0 0.0192725549601521 0.05971360008586903
1020000000.0 -0.058554819540192996 0.05112814122697239
1040000000.0 -0.055306337925464515 -0.06966264626426373
1060000000.0 0.11687265410692724 0.05791427571441788
1080000000.0 -0.11956752047996905 -0.08925062264748886
1100000000.0 -0.1343970168867226 0.11784504298919361
1120000000.0 0.2047718041903194 -9.015983204495858e-05
1140000000.0 -0.18655379997779403 -0.15861895797478748
1160000000.0 -0.1599431920650254 0.23583366192391966
1180000000.0 -0.028944118610348398 0.32238054282831685
1200000000.0 -0.03852955204542611 0.3541513124444715
1220000000.0 -0.3400036975750982 -0.17788778522435506
1240000000.0 0.404497307163897 -0.03500364065232484
1260000000.0 -0.4181086991845906 -0.08453225259797162
1280000000.0 0.3645443979226031 0.24292819601260365
1300000000.0 0.054875571359646776 -0.4382614383895837
1320000000.0 -0.35947586243952107 -0.24371626358691675
1340000000.0 -0.10273997681549256 -0.4156780513077952
1360000000.0 0.31939023440654846 -0.2805212262883156
1380000000.0 0.20890549268039646 -0.37311485848671216
1400000000.0 -0.33049658294883205 -0.25724568625019023
1420000000.0 -0.2748856194011623 0.29490381692360995
1440000000.0 0.26796761813687164 0.26769033385637614
1460000000.0 0.31602925029873585 -0.14885331283726758
1480000000.0 -0.05577617811912716 -0.31583880969858713
1500000000.0 -0.2846059645669209 -0.048083618605517596
1520000000.0 -0.23335798667026486 0.12120063682578555
1540000000.0 0.07765415846671825 -0.2228999676006113
1560000000.0 0.20408166012940976 -0.011068391114029935
1580000000.0 0.16313189875759201 0.06608449261632
1600000000.0 -0.12347725057822091 -0.07625820865161927
1620000000.0 0.08240014093499813 0.07379909784665067
1640000000.0 0.08303955069627801 -0.009608948368379073
1660000000.0 0.05294534495544818 0.022580464665417407
1680000000.0 0.030052042343636093 0.003873444034605721
1700000000.0 -0.006310846787020276 0.00701318260964005
1720000000.0 0.011756134885173538 0.00710492831444982
1740000000.0 0.03375153854596946 0.0006437364459159376
1760000000.0 -0.02529061873518114 0.04546958263607611
1780000000.0 0.07792795276920982 -0.012644130778277914
1800000000.0 0.04851480326131881 0.09645210620054949
1820000000.0 0.12803907653284902 -0.028795915223844993
1840000000.0 0.07386415668538283 -0.14344019347317088
1860000000.0 -0.09233995830500942 -0.16811291665151648
1880000000.0 -0.20030925758046111 -0.11016312886907048
1900000000.0 -0.16033131044492344 0.21699397281864002
1920000000.0 0.3101138017834956 0.013069696566808637
1940000000.0 -0.13023071540320696 -0.32194539558889806
1960000000.0 -0.14392455830232367 0.3528012059741887
1980000000.0 0.35257510555373184 -0.19912728060334925
2000000000.0 -0.250514425820396 -0.3436489457812873
2020000000.0 -0.19248648178974231 0.3938599997292915
2040000000.0 0.39180729105514384 0.21107859387346148
2060000000.0 0.20282865268104464 -0.39363008517178094
2080000000.0 -0.22806895400433247 -0.3697840739119011
2100000000.0 -0.37288291747604274 -0.20033816334357005
2120000000.0 -0.3687464288771627 -0.181327008292505
2140000000.0 -0.31593426310730416 -0.2453526138752342
2160000000.0 0.15573138590885258 -0.35641197363838956
2180000000.0 -0.00069394076150595 -0.37736326630357026
2200000000.0 -0.29533548581131924 -0.21805476704830606
2220000000.0 -0.35204386666312526 0.06479276909042797
2240000000.0 -0.011820174604872582 0.3554847038584651
2260000000.0 0.30581568298710504 0.1798519917619382
2280000000.0 0.31158052236760164 -0.17825740755982986
2300000000.0 -0.20897793558865355 -0.3060042287398861
2320000000.0 -0.3340404553052924 0.2081756461393678
2340000000.0 0.28253298957369366 0.3189105667325465
2360000000.0 -0.08439749583063316 -0.4597464039834756
2380000000.0 0.04463323121893143 0.5126778243449103
2400000000.0 -0.1624580937391979 -0.5411386895668342
2420000000.0 0.5087993950798102 0.34413959159611224
2440000000.0 -0.6501698790423764 0.10812513924888993
2460000000.0 0.48860001173861917 -0.49401365886437526
2480000000.0 -0.2731053167128061 0.6675449379412505
2500000000.0 0.3909161844757357 -0.6258595504158156
2520000000.0 -0.6045804402817977 0.43639634118718573
2540000000.0 0.74204298525714 -0.06412728705061242
2560000000.0 -0.5170212745960037 -0.5250786475187562
2580000000.0 -0.25510821506848297 0.6731802792989287
2600000000.0 0.6871626461985678 -0.10135552586581197
2620000000.0 -0.43617754913192924 -0.49981729323201
2640000000.0 -0.5583224606476473 -0.28193848982081576
2660000000.0 0.01373077664658652 0.5800512638689885
2680000000.0 0.49167479199224123 -0.20876891486257612
2700000000.0 -0.3731986699982967 -0.3137005370179451
2720000000.0 -0.07943578472745319 0.4332024822941894
2740000000.0 0.39226594610403204 -0.07182529662516231
2760000000.0 -0.27078846290957476 -0.243255058685042
2780000000.0 0.1712827378047355 0.29071388167318524
2800000000.0 -0.2711971689009526 -0.16527826039271665
2820000000.0 0.21289833229116112 -0.21596141751195763
2840000000.0 0.2112866137207038 0.2041258853484739
2860000000.0 -0.21988185487306858 0.18739499719144695
2880000000.0 -0.16230261801798326 -0.23602196132077816
2900000000.0 0.24396187257411034 0.15006217787132584
2920000000.0 -0.060295455840917125 -0.2809438003782197
2940000000.0 -0.2767426088583062 0.08911716834870341
2960000000.0 -0.215607947567199 0.19723133500474607
2980000000.0 -0.29465798059585896 0.041076727271472824
3000000000.0 -0.2144930181463401 -0.21442742170412676
3020000000.0 0.17836531633215139 -0.24858707483137613
3040000000.0 0.2115979415979338 0.22079380310737243
3060000000.0 -0.29945824180647146 0.05973721485412213
3080000000.0 0.22075726839373672 -0.2054095835296824
3100000000.0 -0.0020317641364257775 0.29551137229323804
3120000000.0 -0.11483681173363904 -0.26150383910808206
3140000000.0 0.2310749154558716 0.1504246207103139
3160000000.0 -0.2602672466008723 -0.007333066061831648
3180000000.0 0.17351566257715065 0.1703439009993312
3200000000.0 -0.1958767459224496 0.1011670613420784
3220000000.0 -0.026935834530651855 -0.1915690443830902
3240000000.0 0.11641206307289295 0.11496860842552188
3260000000.0 -0.05765458186249007 -0.11971197847992453
3280000000.0 -0.06785006496992159 0.07979844608302034
3300000000.0 0.07623750831334497 -0.022693480987690782
3320000000.0 -0.05081727615956029 -0.01582602738670987
3340000000.0 -0.0079594584341552 -0.02916126560234359
3360000000.0 0.010025445247166465 0.0014853624927779522
3380000000.0 0.005333420466873753 0.008255790636135714
3400000000.0 0.02179958920975038 0.009779341612662688
3420000000.0 0.004950366731615133 -0.037298424165003674
3440000000.0 0.04740384094454267 0.0028756018375483603
3460000000.0 0.033492468705050675 -0.04127053954083655
3480000000.0 -0.03352863112730544 0.04990972944583249
3500000000.0 -0.0135332753302613 -0.07011812995512516
3520000000.0 0.014568032685769524 -0.08559454497358045
3540000000.0 -0.0789571590805252 0.06479284215952508
3560000000.0 0.05745777150673834 -0.10228006736728498
3580000000.0 -0.03650147153527009 0.1299043545391396
3600000000.0 -0.13921646532598292 0.06766779126142573
3620000000.0 -0.08920044773358268 0.14210464801312486
3640000000.0 -0.17713079194785894 0.02665465503414342
3660000000.0 -0.12292694404673628 0.1418029224258999
3680000000.0 -0.18189756879251842 0.05249165469420116
3700000000.0 -0.17781309854076616 -0.06130325305783034
3720000000.0 0.021166095463122144 -0.182623347156301
3740000000.0 0.1779367809449077 -0.010985478543867966
3760000000.0 -0.08847725159633768 -0.14883525039097353
3780000000.0 0.0003633545728715312 0.1658331954477469
3800000000.0 0.15689079605281897 0.032677648653380145
3820000000.0 0.09082549179571998 -0.1271887051947609
3840000000.0 -0.0010743373458294496 -0.15136996610813744
3860000000.0 0.07479771762268451 -0.1301124775574115
3880000000.0 0.03540281904156343 -0.14729554083419288
3900000000.0 -0.09835074160509624 -0.11618012557702233
3920000000.0 -0.14311205821964407 0.0633753502514347
3940000000.0 0.16145639467253278 -0.010017147175742641
3960000000.0 0.00010841874304179471 0.1690519513053001
3980000000.0 0.10148972832502082 0.14182635552135162
4000000000.0 0.16680801933013426 -0.03524085577548907
