! Created with skrf (http://scikit-rf.org).
# Hz S RI R 50.0 
!freq ReS11 ImS11
400000000.0 -0.6809550042904163 0.5179251203486603
420000000.0 -0.1456282630823662 0.853734019397122
440000000.0 0.8313097352418681 0.11517609374876721
460000000.0 0.14692377249942987 -0.7880138724937475
480000000.0 0.20016032750548782 -0.7048214128328407
500000000.0 -0.2118651404074344 0.5259861063294449
520000000.0 -0.4668612352181179 -0.0823461253865162
540000000.0 0.3766615689750012 0.17803748215461582
560000000.0 -0.2715405976276382 0.22796873793240444
580000000.0 0.2644010725597238 0.20319486990461266
600000000.0 0.1557449917155913 -0.2915513699048221
620000000.0 -0.25499862064447565 0.2316166988907053
640000000.0 -0.16218287259489625 0.3340179170487816
660000000.0 0.01902536057342861 0.38979106972436156
680000000.0 -0.41278064715195123 0.035628636855369836
700000000.0 0.06403702448254224 0.42586002523490185
720000000.0 0.4198316020964968 0.11611242295348218
740000000.0 -0.09931848986558114 0.4224899297125779
760000000.0 0.25357553250376813 -0.33474677864585406
780000000.0 0.33175639768150883 0.20791823065381312
800000000.0 -0.31834583191295934 0.16635950927436705
820000000.0 -0.1511089049961202 0.2616987769639705
840000000.0 0.05881524820309951 -0.23721685724707303
860000000.0 0.012798394745021655 0.19475581919211354
880000000.0 -0.14156960475801256 0.05577605794376199
900000000.0 -0.054988199048621345 0.05346554076402414
920000000.0 0.042517567111014724 0.00944351872163183
940000000.0 0.030669501905561055 0.013817031385051269
960000000.0 0.04326749215058473 -0.004631112855442982
980000000.0 -0.051402977012844214 -0.029267113362086466
1000000000.0 0.0550716941372847 0.03080445156808893
1020000000.0 -0.060811478159879195 0.04859270012694726
1040000000.0 -0.07057447591321463 -0.05334446155094054
1060000000.0 0.11825258604469759 0.053883910502524134
1080000000.0 -0.12000550451414058 -0.08795792116658781
1100000000.0 -0.1252174372208854 0.1272246604358147
1120000000.0 0.2048775999066776 0.002699199714131858
1140000000.0 -0.1968991428977573 -0.1460876773254891
1160000000.0 -0.18060189779495686 0.22029806575851213
1180000000.0 -0.0553768696272427 0.31843089238976796
1200000000.0 -0.05219113068727846 0.35214701267257265
1220000000.0 -0.33543696110996574 -0.18543635521694232
1240000000.0 0.4047584056008257 -0.027409399939365087
1260000000.0 -0.4191882925314909 -0.07726180257698084
1280000000.0 0.37547834930902163 0.22594284418615135
1300000000.0 0.05927478776740678 -0.4375514504797408
1320000000.0 -0.37145249700032135 -0.22554572403692105
1340000000.0 -0.11728590845893574 -0.41224913286263604
1360000000.0 0.3018016295419262 -0.30020188541959936
1380000000.0 0.2228905016358992 -0.36517779037956394
1400000000.0 -0.34444513497383517 -0.23742603403121867
1420000000.0 -0.27950060689167705 0.29043992384598055
1440000000.0 0.2710712948764779 0.26414723922764494
1460000000.0 0.32251825533346545 -0.1344887271785706
1480000000.0 -0.03945880875121113 -0.317994306618918
1500000000.0 -0.28121751357743696 -0.06615199529098535
1520000000.0 -0.24139570426257445 0.10393926890708298
1540000000.0 0.05296141374094274 -0.2303209122145509
1560000000.0 0.20454127510746933 -0.00546718806581113
1580000000.0 0.16314041939392895 0.06732014202418887
1600000000.0 -0.14096074683655008 -0.03409294937686361
1620000000.0 0.10916786706633538 0.019681939520192267
1640000000.0 0.07837340554549582 -0.028960955472956833
1660000000.0 0.05766570917229352 0.004798475420177092
1680000000.0 0.030589634018743726 -0.0029436605413579193
1700000000.0 0.009635907641024484 0.0005845293873803923
1720000000.0 0.008324253605332838 0.011793146324560076
1740000000.0 0.03309211311613408 -0.007529075450005483
1760000000.0 -0.015757662204113704 0.04977258872455174
1780000000.0 0.0751665923362896 -0.024266044666349962
1800000000.0 0.06340144346274135 0.08744318833755385
1820000000.0 0.1238944647468308 -0.04226718816877506
1840000000.0 0.069856653436481 -0.14556661353321018
1860000000.0 -0.07728973408740326 -0.1757533191373697
1880000000.0 -0.1949071427582944 -0.11932646264933255
1900000000.0 -0.1775430075984174 0.20326649963301352
1920000000.0 0.30970098654515604 0.01798577458440277
1940000000.0 -0.11675651881623836 -0.3270998226061199
1960000000.0 -0.1461510951504381 0.3517279013689062
1980000000.0 0.3576254432949754 -0.18991550481967961
2000000000.0 -0.23928720528169106 -0.35129969827044416
2020000000.0 -0.20243562331892656 0.38874227579873166
2040000000.0 0.3840826024624312 0.22419367049693853
2060000000.0 0.19560282279016 -0.39697252300700986
2080000000.0 -0.23327179590458175 -0.3659927241516081
2100000000.0 -0.37889868373596225 -0.18816789135754336
2120000000.0 -0.36398808938449095 -0.19025389145893032
2140000000.0 -0.34786809066929386 -0.19674711162225308
2160000000.0 0.12637669804073534 -0.36764043252705875
2180000000.0 0.01299736576111511 -0.37747860038878567
2200000000.0 -0.2972242277849968 -0.2152461450680186
2220000000.0 -0.3532541103340738 0.05751523665361033
2240000000.0 -0.006656036010237686 0.35503877580841825
2260000000.0 0.31190892986559204 0.16948034169805964
2280000000.0 0.30729387188669494 -0.185210660103586
2300000000.0 -0.23432662387703643 -0.28772061656938946
2320000000.0 -0.3414196454994827 0.19555566852538714
2340000000.0 0.27799173809041816 0.32202506971673794
2360000000.0 -0.05683998765398661 -0.46322131203750716
2380000000.0 0.03522570185503263 0.5127729435918174
2400000000.0 -0.16312239495633618 -0.5402696418273044
2420000000.0 0.4928986534603504 0.3657553862366575
2440000000.0 -0.6547209564614244 0.07067115120889803
2460000000.0 0.5251793378930893 -0.4541532834025926
2480000000.0 -0.3097780023825053 0.650812859552242
2500000000.0 0.35825205660283327 -0.6443648022651463
2520000000.0 -0.5801997345325065 0.46756933988319066
2540000000.0 0.7422666159574809 -0.05896684111600737
2560000000.0 -0.4778421450690303 -0.5608214715515024
2580000000.0 -0.31353981025092176 0.6482242526975713
2600000000.0 0.6941653732038202 -0.03411768473784944
2620000000.0 -0.3805053225630782 -0.5439637254606209
2640000000.0 -0.5433940496605215 -0.3104736306278171
2660000000.0 -0.07621795236244111 0.5757655281624888
2680000000.0 0.5119508455579423 -0.15518952281311182
2700000000.0 -0.34282159785881555 -0.34747387932464757
2720000000.0 -0.06560101490170055 0.43607683677407366
2740000000.0 0.3955163334015847 -0.05427635579204508
2760000000.0 -0.2697354552050433 -0.24443268523990982
2780000000.0 0.17916635981102205 0.28644458286655167
2800000000.0 -0.2671186492698803 -0.17208002160813626
2820000000.0 0.23168620446643184 -0.19573795155838505
2840000000.0 0.21006594305907367 0.2056170697054452
2860000000.0 -0.21541454726732928 0.19255406700967403
2880000000.0 -0.14307767444020877 -0.24822294605363626
2900000000.0 0.234835549035516 0.16454497367246743
2920000000.0 -0.05814530644026685 -0.2817972087932083
2940000000.0 -0.27860660777561214 0.08271102353622592
2960000000.0 -0.21792648326660058 0.1949179390313379
2980000000.0 -0.2931976506724379 0.05477461851319514
3000000000.0 -0.20660159879858578 -0.22266955120897755
3020000000.0 0.13397293023780635 -0.2749655371791694
3040000000.0 0.21758424652470756 0.21522365060689208
3060000000.0 -0.30349020623316636 0.03567056480685258
3080000000.0 0.20538951577801098 -0.2210780197760941
3100000000.0 -0.03320565852572743 0.2936450866194623
3120000000.0 -0.15720759451592603 -0.23928654227214935
3140000000.0 0.2399732857182075 0.13669218946990477
3160000000.0 -0.2577985284359821 0.039374778844241204
3180000000.0 0.1766261892986057 0.16735394029896086
3200000000.0 -0.194343778243295 0.10425623874941331
3220000000.0 -0.04552572810453989 -0.1881489270244966
3240000000.0 0.12363257145910551 0.10820443431502434
3260000000.0 -0.050591417576872334 -0.12332964030405973
3280000000.0 -0.05065480060434329 0.09170036890490099
3300000000.0 0.07964447380056924 -0.000524522213705341
3320000000.0 -0.04074591232160685 -0.03435513039828318
3340000000.0 0.02109757100375896 -0.021886062022385952
3360000000.0 0.007500314621201661 0.007299832450187263
3380000000.0 -0.003035246323018479 0.009096750310208394
3400000000.0 0.023550217841958845 3.1624291362713722e-06
3420000000.0 -0.0231787594142032 -0.02995455606521657
3440000000.0 0.04405272256725744 0.01740318971835612
3460000000.0 0.007769103141031937 -0.05274899967097255
3480000000.0 -0.019707049544074744 0.056777356341356174
3500000000.0 -0.05591121483223444 -0.044842351349278685
3520000000.0 -0.00038225228272061425 -0.08700291546081781
3540000000.0 -0.059982412826002626 0.08284666667087622
3560000000.0 0.03718818562644163 -0.11184854973654851
3580000000.0 -0.035606717420454896 0.13005316039056208
3600000000.0 -0.1411212794616477 0.06411799479449591
3620000000.0 -0.08571718403359202 0.1441532311185797
3640000000.0 -0.17471333840362105 0.04273043209486275
3660000000.0 -0.13518026877964648 0.1303724677139379
3680000000.0 -0.1813146455807696 0.05679272627394416
3700000000.0 -0.17479255587597373 -0.06975179471715275
3720000000.0 0.02798931022776253 -0.1819145121768777
3740000000.0 0.1777065575190711 0.014314773160305294
3760000000.0 -0.11555075418792879 -0.12826417338769888
3780000000.0 0.006142650328019788 0.1655493528348774
3800000000.0 0.1582782143716229 0.02580529204750011
3820000000.0 0.10258277066385864 -0.11748603533716445
3840000000.0 0.01227614847450104 -0.15066806593181076
3860000000.0 0.08841291739283366 -0.12136492240118747
3880000000.0 0.055795933964232235 -0.14075428308904067
3900000000.0 -0.06907992408830964 -0.13569333646299708
3920000000.0 -0.15171271295059055 0.03916899795113376
3940000000.0 0.1577282561468362 0.03610988435442157
3960000000.0 -0.043098165666393864 0.16357696487432577
3980000000.0 0.05028724143634575 0.1672418027697948
4000000000.0 0.16221527861159868 0.05129524738164287
