! Created with skrf (http://scikit-rf.org).
# Hz S RI R 50.0 
!freq ReS11 ImS11
400000000.0 -0.6744207528855233 0.5312045984394135
420000000.0 -0.11675372561961286 0.858398733079611
440000000.0 0.8326339039402396 0.10542245255441081
460000000.0 0.1446712348949669 -0.7884444608949315
480000000.0 0.18149762313224402 -0.7095905418954793
500000000.0 -0.1892758094820697 0.5345705768361296
520000000.0 -0.4700079210039308 -0.056782061952086994
540000000.0 0.3726622037301191 0.18341935501035153
560000000.0 -0.2953777884833037 0.19570283831432933
580000000.0 0.22932498296893264 0.2420076448197284
600000000.0 0.1706363850955258 -0.28336638993611707
620000000.0 -0.25046851549563426 0.2367494859373288
640000000.0 -0.17510267500764376 0.3276675197107804
660000000.0 0.03331174956217715 0.3888363964701357
680000000.0 -0.41241204071731424 0.038120752063670604
700000000.0 0.06206443624691367 0.425928998415541
720000000.0 0.4230730382400032 0.10234133569673405
740000000.0 -0.14072646744273204 0.41153614297360247
760000000.0 0.268756622379219 -0.3230731605690472
780000000.0 0.33412378496509176 0.20371548292478683
800000000.0 -0.3239895579986308 0.1554525208092039
820000000.0 -0.14693238205201714 0.2642302245379889
840000000.0 0.04785470893923156 -0.23988529337272638
860000000.0 0.03092611356220208 0.19329329168959392
880000000.0 -0.1396520353410077 0.061414428591836136
900000000.0 -0.03228210020387214 0.06982487729155834
920000000.0 0.043938029630923046 -0.0010141212445580444
940000000.0 0.03199246358324316 0.010452253221953013
960000000.0 0.041182705106966346 -0.015537406256942355
980000000.0 -0.05914213035783096 -0.008017823772359206
1000000000.0 0.05992096953068241 0.020165995757416285
1020000000.0 -0.06027036293961489 0.04863514451028574
1040000000.0 -0.06656664398468157 -0.05754122800275086
1060000000.0 0.12011967064660876 0.049405779169412016
1080000000.0 -0.11958180143497074 -0.0886513014014452
1100000000.0 -0.14260148586614568 0.10679216613809825
1120000000.0 0.2044818249492322 0.00181791482972534
1140000000.0 -0.19596645710874766 -0.14687635569013704
1160000000.0 -0.18802889398380176 0.2136464720039065
1180000000.0 -0.034577786738789175 0.3214556790686106
1200000000.0 -0.02032962860625627 0.3557735770588883
1220000000.0 -0.3539401158694938 -0.14751912067088524
1240000000.0 0.40285977506491916 -0.04810671892109756
1260000000.0 -0.4223949697748671 -0.057467956691882024
1280000000.0 0.3726359651073522 0.23061474918510383
1300000000.0 0.029761104089737 -0.44067412859857175
1320000000.0 -0.3689698532806423 -0.22974123100607666
1340000000.0 -0.11248466156190326 -0.41375178005940244
1360000000.0 0.29648094494360955 -0.3055033662976457
1380000000.0 0.2238610344329817 -0.36457909971914987
1400000000.0 -0.34404849082317246 -0.23799986010745358
1420000000.0 -0.285181152379948 0.2847431265567646
1440000000.0 0.26159571346694593 0.27335113677395756
1460000000.0 0.32711831800272867 -0.12222425934388541
1480000000.0 -0.02466269458341719 -0.3191474823765881
1500000000.0 -0.28180960943833233 -0.06155033839777021
1520000000.0 -0.2394607399690473 0.10790427238802779
1540000000.0 0.08343096571306502 -0.22103780097811637
1560000000.0 0.2030968965230605 0.02253534155268363
1580000000.0 0.15924103873564865 0.07564904462599266
1600000000.0 -0.139560445067838 -0.0404380161796262
1620000000.0 0.1069385087565722 0.030486649365469253
1640000000.0 0.07830634181897556 -0.029674990273272715
1660000000.0 0.05817245996970625 -0.0021164718434142876
1680000000.0 0.030349278088678752 -0.0020365017370879046
1700000000.0 0.0011026416378550226 0.009855494207328284
1720000000.0 0.0024814657534133807 -0.013963656991943817
1740000000.0 0.03137825869278167 -0.012810965737803211
1760000000.0 0.0030433635686594857 0.052278624045401276
1780000000.0 0.0721926942626741 -0.0325349148295373
1800000000.0 0.07560243875422801 0.07770808523775094
1820000000.0 0.12376452282010832 -0.043897053315889265
1840000000.0 0.05948530301136915 -0.15026805013064143
1860000000.0 -0.07600706593394248 -0.17632394278403724
1880000000.0 -0.19497287594782123 -0.11931124571106869
1900000000.0 -0.1810869513667993 0.20033167723004064
1920000000.0 0.30780393155449953 0.03903469813324607
1940000000.0 -0.09765099519199653 -0.33312573439525994
1960000000.0 -0.15886686465475067 0.3459779329273514
1980000000.0 0.3612050174167862 -0.18240209446972444
2000000000.0 -0.23368811054712899 -0.3548829844023224
2020000000.0 -0.18753085030229744 0.39599696594691475
2040000000.0 0.37736694590121816 0.2351055097212106
2060000000.0 0.17647184149485343 -0.40532702032274726
2080000000.0 -0.23479975938686504 -0.36489394800218755
2100000000.0 -0.38599845992825355 -0.17231220916702228
2120000000.0 -0.3653935328725552 -0.18691797146913106
2140000000.0 -0.3448785397449873 -0.20145715354452237
2160000000.0 0.11252528134591992 -0.37183780529766214
2180000000.0 -0.024692574224692152 -0.37656537231103876
2200000000.0 -0.299137849185975 -0.21270163478222792
2220000000.0 -0.3502572364076142 0.07462475232139697
2240000000.0 -0.01627137929892649 0.355405268902808
2260000000.0 0.299705511494614 0.18975850641167136
2280000000.0 0.3058284968311667 -0.1878417620350278
2300000000.0 -0.22294704532346574 -0.29649576190379
2320000000.0 -0.34202417488614506 0.19440012084666863
2340000000.0 0.29881132728815696 0.3035797013020549
2360000000.0 -0.05421337120300207 -0.4635544105326093
2380000000.0 0.034836068340202433 0.512891311351461
2400000000.0 -0.16003921928669837 -0.5412563288710053
2420000000.0 0.4823390710368185 0.37930858240861465
2440000000.0 -0.6536564524084257 0.07918854054837811
2460000000.0 0.5335216356857516 -0.44445555652120916
2480000000.0 -0.3518472777533435 0.6291862678291917
2500000000.0 0.35523507837252305 -0.645951269857096
2520000000.0 -0.5649942084798226 0.48565094878549425
2540000000.0 0.743173595513821 -0.04404251761136103
2560000000.0 -0.4918438607086215 -0.548198354452866
2580000000.0 -0.24899813271309748 0.6754068554867643
2600000000.0 0.6939378414730434 -0.03783185788161226
2620000000.0 -0.3581119853371681 -0.5585239429193823
2640000000.0 -0.5316678918471573 -0.3299708334442699
2660000000.0 -0.0030640319823414704 0.580542915634563
2680000000.0 0.5004435009561675 -0.18852857615754143
2700000000.0 -0.3842735402275682 -0.30105750688911326
2720000000.0 -0.0538456710314136 0.4378372603636367
2740000000.0 0.39604093739294866 -0.05002575302331356
2760000000.0 -0.2654462729078116 -0.24906631204317964
2780000000.0 0.17138110187193653 0.29108578739477936
2800000000.0 -0.26013557321931385 -0.1826112651445703
2820000000.0 0.23040230475505077 -0.19725503279158912
2840000000.0 0.20555964651832506 0.21021390622175656
2860000000.0 -0.2235581792603097 0.18320501188395064
2880000000.0 -0.12740702006807708 -0.2567955230374923
2900000000.0 0.24517981212933468 0.14798449221607432
2920000000.0 -0.06620937918275906 -0.27968182599103425
2940000000.0 -0.2761987809612353 0.08924034440458765
2960000000.0 -0.21203905648534696 0.2010049869336445
2980000000.0 -0.2913600502901365 0.05950575864907795
3000000000.0 -0.21170679607193582 -0.21583341688541158
3020000000.0 0.14622998406145427 -0.26801865260166
3040000000.0 0.18091182540142725 0.24654233601775916
3060000000.0 -0.29168504965823466 0.09078455432592203
3080000000.0 0.17649033101241007 -0.2441130279549317
3100000000.0 0.035735671694152 0.29336152288962264
3120000000.0 -0.1406411278213249 -0.24891643777297226
3140000000.0 0.24713032281975508 0.12323433987109603
3160000000.0 -0.25401535898742955 0.06027290678267605
3180000000.0 0.1815483807733395 0.16280315171623208
3200000000.0 -0.18537877739827163 0.12036732886205993
3220000000.0 -0.04789157177567675 -0.1878410212506007
3240000000.0 0.12249719011425544 0.1098538800653633
3260000000.0 -0.055878341862832165 -0.12125330180026732
3280000000.0 -0.0454644000980479 0.09464744923066813
3300000000.0 0.07965895237030886 0.004766065259649891
3320000000.0 -0.028876768105291856 -0.04488928611031337
3340000000.0 0.029987441354982096 -0.005494007043951287
3360000000.0 -0.003939121644736644 -0.009726248885219113
3380000000.0 0.00836645427311155 0.004083796516003212
3400000000.0 0.0021161678889559934 -0.023524025038806278
3420000000.0 -0.022708450389096507 -0.030304939017830962
3440000000.0 0.042861699521324806 -0.020601439513332688
3460000000.0 -0.001479574014489058 -0.05324522170937991
3480000000.0 -0.0012856181545417237 0.06027586085009866
3500000000.0 -0.06084487005620682 -0.03802239399613692
3520000000.0 -0.02431337316094052 -0.08356066984913907
3540000000.0 -0.037721378658622226 0.09508566212694415
3560000000.0 0.025062764743775338 -0.11514310362806772
3580000000.0 -0.019187063487041082 0.13348096714456822
3600000000.0 -0.13162575944240062 0.08251389430703746
3620000000.0 -0.05096642152174584 0.16040959526410112
3640000000.0 -0.16179296376772656 0.08032985913791225
3660000000.0 -0.12634328063673783 0.13914587430890293
3680000000.0 -0.17634234012539718 0.07115047893321927
3700000000.0 -0.1760867944126483 -0.06693687579153974
3720000000.0 0.01145443910865623 -0.18409972195109472
3740000000.0 0.17850919837555382 0.002425281643429844
3760000000.0 -0.11621271672063947 -0.12845086137188536
3780000000.0 0.014261980601632075 0.1652766554034933
3800000000.0 0.16018315910175612 0.012562412345437226
3820000000.0 0.09190235275107474 -0.12663839703540936
3840000000.0 0.012303650852418708 -0.15143039925421847
3860000000.0 0.0691073064893871 -0.13345884712597836
3880000000.0 0.047270601512441876 -0.14398874907731882
3900000000.0 -0.08124534438504094 -0.1291518808302759
3920000000.0 -0.14769358245562433 0.05270747587044714
3940000000.0 0.1589417545524967 0.03071265810128116
3960000000.0 -0.032191350296257915 0.16621159364365073
3980000000.0 0.07377926849155524 0.15827466038941032
4000000000.0 0.16985680482446633 0.013528980911464638
