! Created with skrf (http://scikit-rf.org).
# Hz S RI R 50.0 
!freq ReS11 ImS11
400000000.0 0.20257609354334113 0.8480791519412316
420000000.0 0.6276575569162082 0.5863410250281547
440000000.0 0.7785379587095349 -0.27364736707624454
460000000.0 0.00806727399883874 -0.7871214784160773
480000000.0 0.5150609308366482 -0.467216758469574
500000000.0 0.4706122085383759 0.29435449876359626
520000000.0 0.336227279975997 0.3609620689321326
540000000.0 -0.3286046906501801 0.29575853095786037
560000000.0 0.22986852542494565 -0.3019404915676634
580000000.0 -0.3094137347001717 0.18940585232236393
600000000.0 0.23592624496708847 -0.27402867110257
620000000.0 0.13555190605473447 0.34983879706851523
640000000.0 0.16773239710682225 -0.36033277621814075
660000000.0 -0.22054050816127427 -0.3367166336773062
680000000.0 0.41065914290168265 -0.027383976581678193
700000000.0 0.24620248556566848 -0.3424735531987118
720000000.0 0.10401168494103545 -0.40972270818361956
740000000.0 0.13146996941755004 0.40426192599747657
760000000.0 0.06349346377242444 -0.40490054719989116
780000000.0 0.3425704533539764 0.16101585218243672
800000000.0 -0.32335213985666894 -0.12173770912257198
820000000.0 -0.19149528456377268 -0.2181319803672976
840000000.0 -0.2288343676040147 0.05929196350735874
860000000.0 0.1744792190290617 -0.09864178277883272
880000000.0 -0.12489812987235985 -0.06472200315907173
900000000.0 0.08115275703473632 -0.0009244983886508342
920000000.0 -0.05175754293572253 -0.026598459905500315
940000000.0 0.03341574075709115 -0.017200689237525903
960000000.0 -0.04235855384751558 -0.0068416157836202396
980000000.0 0.03443643643531361 0.05280392240941902
1000000000.0 0.06759071238507483 0.05079779355573534
1020000000.0 -0.10216622545077637 -0.04466489174782932
1040000000.0 -0.11683864331049897 0.05215405052711717
1060000000.0 0.10750172448365222 0.11903066443887111
1080000000.0 0.15354569838496648 0.0723894029455078
1100000000.0 -0.00507089667425138 -0.18395983640952765
1120000000.0 -0.01566814872754495 -0.1969491918394963
1140000000.0 0.06667046148737663 -0.2167146488622631
1160000000.0 0.16612158999708967 0.20306761034124618
1180000000.0 -0.21783147973629466 0.21492484766700048
1200000000.0 -0.3430387732460281 -0.00469554447391405
1220000000.0 0.2427209580573833 -0.28562742189926443
1240000000.0 -0.04845284645415203 0.39825999618749264
1260000000.0 0.16840189546021275 -0.391628120799583
1280000000.0 -0.278323070384506 0.3410236162799876
1300000000.0 0.4464011848441351 0.04566209203586416
1320000000.0 -0.03289312022375784 -0.44322936119787626
1340000000.0 0.005820327473171584 -0.4386069582898213
1360000000.0 0.14485143455227584 -0.4072659497921068
1380000000.0 -0.10683971820473179 -0.41881217725671527
1400000000.0 -0.41695257398588453 0.026558002294405043
1420000000.0 0.04044662224193805 0.3969566734400035
1440000000.0 0.34865531077420164 0.13477757707946192
1460000000.0 0.14860266125971283 -0.31120141727535267
1480000000.0 -0.2524193187535779 -0.18735823691915682
1500000000.0 -0.2738662954585412 0.07626309325629342
1520000000.0 -0.1944531994036516 0.1668335062946478
1540000000.0 0.05103227832116475 -0.22211349802969427
1560000000.0 0.17258673537620609 0.09134344643247236
1580000000.0 -0.07866523329069106 0.1497433066289196
1600000000.0 0.08818787710587223 0.10902023973632063
1620000000.0 0.03887178925828943 0.10401254882667077
1640000000.0 -0.08675882863199297 0.017268862420445882
1660000000.0 -0.06265723955313683 0.02114728596538611
1680000000.0 -0.030153282442396147 -0.034614490939218534
1700000000.0 -0.014551532973917324 -0.02630402841743183
1720000000.0 0.004172315643805627 -0.009080023711431007
1740000000.0 0.001746392358441231 0.014076020411781518
1760000000.0 0.0007996606596811867 0.036698304586923323
1780000000.0 0.03879543130359814 -0.06131450070927575
1800000000.0 0.05504726800632479 0.09635823867741643
1820000000.0 0.10117916347421423 0.1046710348558064
1840000000.0 -0.04599244063933387 0.17551026742688275
1860000000.0 -0.1971289136592246 -0.07679528361362317
1880000000.0 0.1046610325647005 0.21650023291517528
1900000000.0 0.24771495621140896 -0.1149988749046089
1920000000.0 -0.11959493292490152 -0.27900199828449973
1940000000.0 -0.31883365772027583 -0.10631865264355281
1960000000.0 -0.13405585837885614 0.3422558769873449
1980000000.0 0.38135705460166824 0.09506123771576341
2000000000.0 0.23874487335727432 -0.34175447854270724
2020000000.0 -0.4322156753738498 -0.02154593725367521
2040000000.0 -0.05356366572435333 0.43699060986682364
2060000000.0 0.4391773422320792 -0.03982411710703131
2080000000.0 0.10681756429820997 -0.4208361218890244
2100000000.0 -0.14448016894807836 -0.3993574350090251
2120000000.0 -0.33541004311768363 -0.24115886813712129
2140000000.0 -0.39570148256299503 -0.05851634343691455
2160000000.0 -0.08173482013707065 -0.3758498501437784
2180000000.0 -0.13506277236582614 -0.34231461115138806
2200000000.0 -0.24232905432382004 -0.26140521079308987
2220000000.0 -0.25604092335413603 -0.23619774740768404
2240000000.0 -0.32013260670837906 0.13177346535462697
2260000000.0 -0.09255447579251912 0.33457316207708004
2280000000.0 0.19075813401006636 0.29557334983677136
2300000000.0 0.2518614125348975 -0.26366541104985514
2320000000.0 -0.3173754388090603 -0.21887362249538966
2340000000.0 -0.22800891982798865 0.34533939461164137
2360000000.0 0.4407099250905468 0.10473137393316728
2380000000.0 -0.33947569646192965 -0.36806885239793496
2400000000.0 0.27151770731590275 0.4828228938325053
2420000000.0 -0.5118023394319592 -0.32886403189196467
2440000000.0 0.6488526515577822 -0.11298775418665052
2460000000.0 -0.412009342092137 0.5652151541247125
2480000000.0 0.08293370021319132 -0.7259312683181519
2500000000.0 -0.098395410422955 0.7446809892989961
2520000000.0 0.21990884418677142 -0.7292711379005745
2540000000.0 -0.5589573281112367 0.5206138016108867
2560000000.0 0.7574521269309814 -0.026170516159162816
2580000000.0 -0.47511749762733274 -0.5715671676813635
2600000000.0 -0.12810707398509483 0.7073985623889062
2620000000.0 0.5903667439946516 -0.354239506329845
2640000000.0 0.3318874255200973 -0.5601124173364186
2660000000.0 -0.5974524458304111 0.09756138023391839
2680000000.0 0.45980276774554585 0.31549143227585036
2700000000.0 -0.06510160557700925 -0.5057323935893154
2720000000.0 -0.2566927207664452 0.38388493398472967
2740000000.0 0.39264233254522785 -0.14618743889147898
2760000000.0 -0.38067860482453203 -0.006774089300711467
2780000000.0 0.3318659361870643 -0.117014354751631
2800000000.0 -0.20081744901073087 0.258293621873184
2820000000.0 -0.13413037840161524 -0.2787552461432505
2840000000.0 0.29831052948882053 -0.010712349600810547
2860000000.0 -0.1622363658388325 0.24558352358062577
2880000000.0 -0.08447262310932634 -0.2816283627643561
2900000000.0 0.14549053201399642 0.2566607867992616
2920000000.0 0.13887450968136156 -0.265532704563554
2940000000.0 -0.30484377007468744 -0.02870887416058252
2960000000.0 -0.22220179812241778 0.21537958478841587
2980000000.0 -0.24556931051299757 0.1950495515560359
3000000000.0 -0.3158505240230158 -0.00369906689832325
3020000000.0 -0.1144409722915455 -0.2940467381423526
3040000000.0 0.3114261545702575 0.027181259722411276
3060000000.0 -0.29762776099519117 0.08735056915428481
3080000000.0 0.2631523541487089 -0.15578569305362094
3100000000.0 -0.20633374412636077 0.21764304192658382
3120000000.0 0.16876264149058853 -0.23811983708011214
3140000000.0 -0.014870550160819514 0.28214579265842366
3160000000.0 -0.1435428624148239 -0.2266088695621564
3180000000.0 -0.07363362961944374 0.2406423227085368
3200000000.0 -0.1928612529969514 -0.12453576130973618
3220000000.0 0.06899498993569939 -0.19119982766678117
3240000000.0 0.14765980437202078 0.08954095536758314
3260000000.0 -0.13781730912167797 -0.0159807907194148
3280000000.0 0.1056012250072777 -0.005036599101605592
3300000000.0 -0.07054977634541253 -0.02867874291954688
3320000000.0 -0.04683749205424918 -0.006777736637250277
3340000000.0 -0.003668133422896716 -0.022419876132484796
3360000000.0 0.005188451440792612 0.0006797183955101567
3380000000.0 -0.0032097800583851966 -0.009267635863659222
3400000000.0 0.011084721383071447 -0.018826588311346655
3420000000.0 -0.034228320947963964 0.00109516002870372
3440000000.0 -0.015685320234009266 -0.04333405666060754
3460000000.0 0.05513507091883198 -0.004135113213742986
3480000000.0 0.025585725871850457 0.06314506061924652
3500000000.0 0.06665844947320886 -0.05046997197677292
3520000000.0 -0.09396459663386685 0.031156099746995243
3540000000.0 -0.052455813993894776 -0.10196703102590284
3560000000.0 0.11625497883006403 0.04847007572650245
3580000000.0 -0.10596947905541061 -0.0876930386157464
3600000000.0 0.15017275478868128 0.03409566492822933
3620000000.0 0.009708187867455476 0.1662096928418051
3640000000.0 -0.17660815881579248 -0.018651021334364897
3660000000.0 -0.11222153440816995 -0.15121540980260492
3680000000.0 -0.021262571298249988 -0.19354842256822327
3700000000.0 0.011538423797192754 -0.1956430117404113
3720000000.0 0.1625624785859599 -0.10820093540549254
3740000000.0 0.16212987473576715 -0.10172626965478329
3760000000.0 -0.09651554046340514 0.1553562458925119
3780000000.0 0.07477987740578766 -0.15391375553308823
3800000000.0 -0.13306628360699316 -0.08797791727193215
3820000000.0 -0.12572393990783737 -0.08311056991831461
3840000000.0 0.11932956257349932 -0.08353760861952414
3860000000.0 -0.026171732897444594 0.1453069720787327
3880000000.0 0.05027887828995405 0.14691306326774314
3900000000.0 0.1292451501517826 -0.09376043277929753
3920000000.0 -0.16351301614558758 0.019805575708431174
3940000000.0 0.10735579112881474 -0.13075187760008775
3960000000.0 0.1689701393058241 0.031900067677708914
3980000000.0 0.13469944634444386 -0.1076660492660147
4000000000.0 0.11728227463607767 -0.11663544601521218
