! Created with skrf (http://scikit-rf.org).
# Hz S RI R 50.0 
!freq ReS11 ImS11
400000000.0 0.17504653806032192 0.8566534344678008
420000000.0 0.6033889904015264 0.6133857738331278
440000000.0 0.7895792785929494 -0.2491025048919506
460000000.0 0.14478216875101466 -0.7753633994937031
480000000.0 0.5190833328240738 -0.4833332386458484
500000000.0 0.1810544186730505 -0.5336396545599028
520000000.0 -0.02477033706983907 -0.4866273780776872
540000000.0 0.41781325713831174 -0.06585548657815973
560000000.0 -0.3040545887764426 -0.1748967518931141
580000000.0 -0.26873320492944724 0.19433544873167607
600000000.0 0.2794590107357497 0.16602686433418512
620000000.0 0.08068084614246743 -0.33738597709881385
640000000.0 -0.19728094729845871 -0.3266261731864443
660000000.0 -0.40038862225073574 0.0170960604304123
680000000.0 -0.007747547976339571 -0.4303284298974145
700000000.0 0.33327686430811526 0.3021026616741602
720000000.0 0.037559482860088714 -0.4474482391566167
740000000.0 0.41219209914000643 -0.151700392316966
760000000.0 -0.3796865800889256 -0.16700960599674206
780000000.0 0.3155767082454023 -0.21632085821567668
800000000.0 -0.2204622609158352 0.27022108858100696
820000000.0 -0.16289886447191013 0.24202404009627723
840000000.0 0.06886271398192367 0.22711486432005076
860000000.0 -0.13415630109681834 0.15485400046894338
880000000.0 -0.14468639491457302 0.007291141673034121
900000000.0 0.0676596354207448 -0.04127993203406163
920000000.0 0.030617317877729887 -0.03657584943739532
940000000.0 -0.017998490452243856 -0.037852928229615425
960000000.0 -0.03762408232933923 0.03989690153213058
980000000.0 0.06152058183937453 -0.013133528211772829
1000000000.0 -0.04406987528852317 -0.05302080455076705
1020000000.0 0.059178596222615114 0.05167607308410962
1040000000.0 -0.05578851875162791 0.05805829184755328
1060000000.0 -0.11321341912547749 0.02797121684574711
1080000000.0 -0.084236430472439 0.10248329459825482
1100000000.0 -0.12512465374162102 -0.09709179232703673
1120000000.0 -0.13825915805573305 -0.1294769076676831
1140000000.0 0.0885119818029534 0.2207487099225088
1160000000.0 0.2842421372934461 -0.010714629943725629
1180000000.0 -0.05099961545126835 -0.32652491557437907
1200000000.0 -0.26893928239694154 -0.24910388375472453
1220000000.0 0.16513959617288718 -0.3612874124958923
1240000000.0 0.3218966374787011 0.2681927346661345
1260000000.0 -0.414289315669978 -0.14942033790099582
1280000000.0 0.43904023387965185 0.10499009141570538
1300000000.0 -0.3764067033464905 -0.2502718566253813
1320000000.0 -0.11052183740366404 0.42562578729320627
1340000000.0 -0.2431046822974806 0.34615182400714917
1360000000.0 -0.3002199079479865 -0.28034548288780264
1380000000.0 -0.07423724775807869 -0.4014730016933751
1400000000.0 -0.09397006021376568 -0.38381848190761875
1420000000.0 -0.08049959868421387 -0.3741889817672669
1440000000.0 -0.22086266567173296 -0.29401349294509604
1460000000.0 -0.3431043910819252 -0.05596535666984245
1480000000.0 -0.11994149444026686 0.3063725102557479
1500000000.0 0.23030225558494777 -0.20364677802598988
1520000000.0 -0.23746599840795377 -0.15364994311991342
1540000000.0 -0.15342302091074791 -0.20525581724750597
1560000000.0 -0.21843186428308764 0.02602803908566469
1580000000.0 0.03180934736514436 0.18526435348124193
1600000000.0 -0.1529672781613426 -0.01795447866779931
1620000000.0 -0.11031679063280024 -0.02087531757522914
1640000000.0 0.07817511074372921 -0.0297493227379818
1660000000.0 0.03997698598560791 -0.042936304997272766
1680000000.0 -0.029846891659793994 -0.0020317706927751446
1700000000.0 0.005969401462830588 0.01899205961778954
1720000000.0 -0.0038101111878670125 0.034190271288582846
1740000000.0 0.053721685400027634 -0.013596129587679954
1760000000.0 -0.07246679984551872 -0.0051424972041098724
1780000000.0 0.08486240839196237 -0.03607996095548898
1800000000.0 0.07917851599267509 0.08797992806227999
1820000000.0 0.03257118441371168 -0.12788903492377918
1840000000.0 0.13197106300706182 -0.08236215771359473
1860000000.0 0.17670975324874652 -0.004870938199745068
1880000000.0 -0.1565216758119099 0.13675934480130053
1900000000.0 -0.21989027121143034 -0.11064440926937841
1920000000.0 -0.2591274724627959 0.13123946000995604
1940000000.0 0.0334196592535493 0.33441466301612094
1960000000.0 0.25360418772360643 -0.27906770438069467
1980000000.0 -0.28404903155449807 0.2936511584278653
2000000000.0 0.43476008275683625 -0.01075761650361053
2020000000.0 -0.4416192390412398 -0.10244869177970728
2040000000.0 0.24113085794061445 0.3903296650533863
2060000000.0 0.05236354484588133 -0.4542093127982218
2080000000.0 -0.43397398535114756 0.09379123387633409
2100000000.0 -0.15362335493715168 0.39791460583693467
2120000000.0 -0.03401374831741635 0.40305273923810914
2140000000.0 -0.28284881087509534 -0.2590711859144638
2160000000.0 0.0053977716674390285 -0.36543725297452573
2180000000.0 0.34924431444583404 -0.05363141962817741
2200000000.0 0.26538099002049265 0.22115971158069997
2220000000.0 0.2109993776884058 0.277774078024823
2240000000.0 0.2522281581901909 -0.2433542851769366
2260000000.0 -0.20668016798083846 -0.28910381589122286
2280000000.0 -0.21789512503288166 0.28889836045552836
2300000000.0 0.3687928258114101 0.05805976039156632
2320000000.0 -0.23548569729650545 -0.3143390720503916
2340000000.0 -0.3059649495117607 0.2844043220192028
2360000000.0 0.4310156194904758 0.13896694615818778
2380000000.0 -0.282177138869798 -0.4110438893346581
2400000000.0 0.12345081915209274 0.5350739301460858
2420000000.0 -0.20862719526768692 -0.5649329413027127
2440000000.0 0.5153475706836869 0.4024459817297083
2460000000.0 -0.6964698367885066 0.008132562613552118
2480000000.0 0.6199906143716959 -0.3856730895310659
2500000000.0 -0.5989770506738207 0.4559137943784307
2520000000.0 0.6475883108812405 -0.4068585447953833
2540000000.0 -0.7604749403107302 0.10738752773145
2560000000.0 0.6690857006396721 0.36738258950958413
2580000000.0 -0.06075692462372898 -0.7467676970879893
2600000000.0 -0.5025341926051852 0.5228401413838613
2620000000.0 0.683214543136956 0.12832419190296787
2640000000.0 0.6433294307680103 -0.13819951359894025
2660000000.0 -0.4438484260811286 -0.4265871534443045
2680000000.0 -0.13249966155747614 0.5559806719414547
2700000000.0 0.38672674212096814 -0.3609374391105186
2720000000.0 -0.3976602851420251 0.2759287968226028
2740000000.0 0.3319480406172574 -0.2898514252010965
2760000000.0 -0.13367255571288048 0.37565226156677356
2780000000.0 -0.19789091004736292 -0.3049318466313337
2800000000.0 0.3309336830965576 -0.001891361062924298
2820000000.0 -0.22394422474642628 0.20863924259680175
2840000000.0 0.2106246026950888 -0.19809055491666266
2860000000.0 -0.2270833719554828 0.16963848779465773
2880000000.0 0.27183503131876574 -0.07722200327247239
2900000000.0 -0.24967366120957327 -0.1422400556774991
2920000000.0 -0.06800642481150368 0.2913781847072318
2940000000.0 0.28600575211383134 -0.12079968263012186
2960000000.0 -0.15596357546263845 -0.277132285896291
2980000000.0 -0.3125227462039115 -0.09464961311796434
3000000000.0 -0.3297246122207858 -0.0005633681907682178
3020000000.0 -0.3159885177334332 -0.08986774592272544
3040000000.0 -0.016749920233373038 -0.3217505235726973
3060000000.0 0.26416491416435844 0.171338561560035
3080000000.0 -0.2994667466087231 -0.05764974010600211
3100000000.0 0.29305573312407185 0.02925310481201736
3120000000.0 -0.18433845905246962 -0.21343100668721668
3140000000.0 0.07002580042641551 0.26214734053812466
3160000000.0 0.15659066710695826 -0.20401294988433283
3180000000.0 -0.10588059102747059 -0.22022217093983953
3200000000.0 0.20023780868798838 0.1110809754585288
3220000000.0 -0.12434286943921906 0.16632587638505983
3240000000.0 -0.1847945741614085 -0.0008216104923375853
3260000000.0 -0.13421968908625354 -0.07896108961932764
3280000000.0 -0.060614492707780264 0.10682621275826124
3300000000.0 0.08826980152699475 -0.0018970036391972704
3320000000.0 0.053135917937001786 0.0001513296792036453
3340000000.0 0.019019387114563358 -0.01436569115991375
3360000000.0 0.011206318510430833 0.009017588597073026
3380000000.0 -0.026453501071086596 -0.0011409554222368099
3400000000.0 0.02807793668166696 -0.020679483753608213
3420000000.0 0.03872684326141305 0.002374550735289462
3440000000.0 0.022491951805941428 -0.028870886561064138
3460000000.0 0.03685641861179204 -0.0118126454552989
3480000000.0 0.04207298123305329 -0.03594083729430582
3500000000.0 0.079059746254245 -0.01072997622778956
3520000000.0 0.09076424161817957 -0.05679175967410881
3540000000.0 -0.12526796053538886 -0.017640839931802498
3560000000.0 -0.04083579325403861 0.1327684724758778
3580000000.0 -0.08721074301661702 0.1223986071671146
3600000000.0 -0.10878729015122522 0.11776765068916131
3620000000.0 -0.14004347220582264 -0.08767841449510815
3640000000.0 0.1684776959108803 -0.019142454472610128
3660000000.0 -0.16247423926211405 0.07070869067014106
3680000000.0 0.15083081388657674 -0.10251921239496255
3700000000.0 0.08206803594063646 0.1681585807562851
3720000000.0 -0.17032568309800458 0.09149954275384299
3740000000.0 -0.14835489228640508 0.12548873326710713
3760000000.0 -0.16111366600995758 -0.1033103453675333
3780000000.0 0.05539645593992527 -0.17423532128254512
3800000000.0 0.10220940471509085 0.13429360173327928
3820000000.0 0.15141780534252783 -0.023548573479184275
3840000000.0 0.014816638971443878 0.13871742249634147
3860000000.0 0.12622411155650629 0.048722087244127556
3880000000.0 -0.1165361206310539 -0.08319162801428102
3900000000.0 -0.10713385381887065 -0.11097029020171283
3920000000.0 0.038732473595034914 0.1630448188974995
3940000000.0 -0.11707434510536499 0.13457945817296596
3960000000.0 0.07271910083206948 0.1722502375333328
3980000000.0 -0.09850760638931927 -0.1564087124248886
4000000000.0 -0.15552811919950718 0.07661845055094098
