! Created with skrf (http://scikit-rf.org).
# Hz S RI R 50.0 
!freq ReS11 ImS11
400000000.0 0.02092603544640816 0.871296980655924
420000000.0 0.49993275788036823 0.7015062816360097
440000000.0 0.8076154597015512 -0.18231878657197273
460000000.0 0.06268221769761818 -0.7893546021587384
480000000.0 0.4658804115923771 -0.5267068761707062
500000000.0 0.517402397344134 -0.199410957747552
520000000.0 0.4753985881360106 0.11506215769815985
540000000.0 0.011839298725818547 0.43303296743816877
560000000.0 0.23121995559075376 -0.28773783924156726
580000000.0 -0.3106475230610199 -0.17071471324937304
600000000.0 0.22826303397496917 0.2752435716821127
620000000.0 -0.3779416759987078 -0.013270403696846372
640000000.0 0.39853739463985227 0.10137818283203096
660000000.0 -0.17913425703378758 -0.3774179120942813
680000000.0 -0.15570418853587106 -0.3952178243664955
700000000.0 -0.3639373998496907 0.19979464255845966
720000000.0 -0.26764462782079257 -0.30275629454506164
740000000.0 -0.30693304206925265 0.2626920280583053
760000000.0 0.2165171346446402 0.33612710563598625
780000000.0 -0.3592531354039339 -0.12538819874385132
800000000.0 0.35168006247381217 -0.0794311327165708
820000000.0 -0.05378772544742931 -0.3067242265965675
840000000.0 0.24699408134666187 0.05919971233272753
860000000.0 -0.02492176036939266 0.20821008648332617
880000000.0 -0.1492108075087929 0.015267231967474894
900000000.0 -0.07135893286670321 0.034703545894259134
920000000.0 -0.028004592952408106 0.03622889175990242
940000000.0 0.018259179489635752 0.02303812705987275
960000000.0 0.021600002725782236 0.02833325742785506
980000000.0 0.02704486180102211 0.03813805568296724
1000000000.0 -0.04765959932474831 -0.030152390839896546
1020000000.0 0.07167246270642118 0.038687570755785966
1040000000.0 0.07391886374428676 0.07732469669214145
1060000000.0 0.07543291115831789 -0.13411373270323068
1080000000.0 -0.07655723093843503 -0.15945147227656795
1100000000.0 -0.008645854881522745 -0.2070780629426217
1120000000.0 0.22095453374310486 0.052494420350936565
1140000000.0 -0.21200731265821213 0.14351748257590027
1160000000.0 0.01914115600153379 0.2769660873319125
1180000000.0 -0.27655327782411004 -0.120631948456729
1200000000.0 0.32218529168083976 0.03341527688207618
1220000000.0 0.08842813974119997 -0.3376626770533628
1240000000.0 -0.3483527328562409 -0.1537352785915642
1260000000.0 0.0736522428676625 0.41109325996888163
1280000000.0 -0.021095681120269015 -0.4427001849763778
1300000000.0 -0.07013203367779718 0.45692684350305823
1320000000.0 0.051781868271507964 -0.45915732103426093
1340000000.0 -0.4331811438267886 -0.13333893983115633
1360000000.0 -0.412235178227906 0.15035353023887293
1380000000.0 -0.2883178084875949 0.3173228174611092
1400000000.0 -0.07522132052705098 0.4016996987328969
1420000000.0 0.18270752893128178 0.34179871757299835
1440000000.0 0.12349255054344424 0.34307928293687606
1460000000.0 0.2952088535646353 0.17385751886664455
1480000000.0 0.20312556479223018 -0.24748115919121297
1500000000.0 -0.20059768063912112 -0.21588598736463624
1520000000.0 -0.2020535203107853 0.17397281658250505
1540000000.0 -0.11082319496946168 -0.20725697511085986
1560000000.0 0.19134177909109182 -0.048989650372050546
1580000000.0 -0.02776517387082517 0.16579657531513087
1600000000.0 -0.04719632749010876 0.12944647666165543
1620000000.0 -0.10335180852206988 0.03347965437547095
1640000000.0 0.06280784445543433 -0.06049606854197548
1660000000.0 -0.010884790530025522 -0.06377531552921212
1680000000.0 0.03125813569031862 -0.03151622255601288
1700000000.0 0.01994033306356083 0.021699516282216638
1720000000.0 -0.005401958613987155 -0.01197991757875039
1740000000.0 0.01746985173101642 -0.003345047788012876
1760000000.0 -0.03913208141189954 0.010254580158596057
1780000000.0 0.011069368491773514 0.0739647289677396
1800000000.0 0.0056983776134327205 0.11316583093247341
1820000000.0 0.14588412806381784 -0.0105293461559409
1840000000.0 0.16234190011792188 0.07397032394803033
1860000000.0 -0.177540497642591 0.10476815472964837
1880000000.0 0.1186116187352499 0.20282872754511613
1900000000.0 0.26928059475968363 -0.007715229455651048
1920000000.0 0.001826600195608611 -0.30399395078539654
1940000000.0 -0.3110459164108175 -0.13495926294828847
1960000000.0 -0.045524286945402094 0.3688422875609737
1980000000.0 0.36274359799419764 -0.1606029898669484
2000000000.0 -0.0881453666306432 -0.40788225247852095
2020000000.0 -0.3986536253484395 0.16402268329930667
2040000000.0 -0.04899730810955335 0.43475788052234604
2060000000.0 0.41923115799619676 0.12973546968863164
2080000000.0 0.38212961337530094 -0.2085137860446124
2100000000.0 0.2540920617046907 -0.34606044308179446
2120000000.0 0.04984493909704427 -0.41761175546923357
2140000000.0 -0.2948496612433286 -0.28331465445034676
2160000000.0 0.011900595429420041 -0.3923461554822292
2180000000.0 -0.1759797267851664 -0.32971856384634374
2200000000.0 -0.29791063833299736 -0.19863647015185137
2220000000.0 -0.27597882109811234 -0.20938249953864022
2240000000.0 -0.3379677168796159 0.05057571537181963
2260000000.0 -0.2834462781127983 0.19171544945657015
2280000000.0 -0.17926261438433783 0.29763581163308456
2300000000.0 0.33138486440827813 0.14790042136479853
2320000000.0 0.06857085399910648 -0.3798178541013587
2340000000.0 -0.39568275680596254 0.12970871086325908
2360000000.0 0.40767964172926263 0.20553571159593323
2380000000.0 -0.3591045643179543 -0.3532720070314243
2400000000.0 0.348207978836458 0.434146217135222
2420000000.0 -0.5604041538335935 -0.24166111802835058
2440000000.0 0.6182759783222341 -0.23065649639661523
2460000000.0 -0.3336019080038484 0.6162600695426598
2480000000.0 0.07479014677005767 -0.7284057682590517
2500000000.0 -0.06485436057441847 0.7499208059253758
2520000000.0 0.2334561107790587 -0.7267818786428064
2540000000.0 -0.5953993183596858 0.48116413695371546
2560000000.0 0.7594842475401856 0.015488791599587149
2580000000.0 -0.38607398867093934 -0.6373432996783419
2600000000.0 -0.2729153703539408 0.6673990458661729
2620000000.0 0.656670853943285 -0.2127376750217751
2640000000.0 0.4467525845073539 -0.4753982742504279
2660000000.0 -0.6064086379120083 -0.036107057576444924
2680000000.0 0.29951755160092497 0.4721752950346414
2700000000.0 0.09867745565373114 -0.5024604159073643
2720000000.0 -0.3797687461682534 0.2680860649504826
2740000000.0 0.42233913990215227 -0.012946697093629379
2760000000.0 -0.36738064759057043 -0.11539909340330495
2780000000.0 0.35542729845083887 -0.018471505150103724
2800000000.0 -0.2546513487491569 0.2130709565366003
2820000000.0 -0.14515299989364322 -0.2788491560299856
2840000000.0 0.2918667506355836 -0.0791273631330709
2860000000.0 -0.08515894984995925 0.2852740603582163
2880000000.0 -0.12538422639012856 -0.26743420519205535
2900000000.0 0.10760835682689321 0.27593222088741026
2920000000.0 0.22034887713875506 -0.20281092592231723
2940000000.0 -0.2747167525541381 -0.13280704560179377
2960000000.0 -0.28935855285947454 0.10622086832652813
2980000000.0 -0.30819484619010257 0.05063945179094358
3000000000.0 -0.2361050812816541 -0.20858699479438575
3020000000.0 0.08558865207866072 -0.30307764062463766
3040000000.0 0.29142165797167974 0.11163645147741266
3060000000.0 -0.30888615248817564 -0.020533438166847422
3080000000.0 0.28517370538703607 -0.11148293748150527
3100000000.0 -0.21256124331487344 0.21239687851585176
3120000000.0 0.12270615175686805 -0.2651255663674983
3140000000.0 0.053462630540136676 0.27738751321273564
3160000000.0 -0.2335214524445504 -0.129765654583822
3180000000.0 0.07738623929185208 0.23770362164404651
3200000000.0 -0.21376216648922217 0.0767917565625285
3220000000.0 -0.1542245488877624 -0.12740013051171628
3240000000.0 0.11488126032593185 -0.1228602565969861
3260000000.0 -0.03363152565104137 0.12908500124345929
3280000000.0 0.06610673172951516 -0.07604885288555757
3300000000.0 -0.043803969962347936 -0.05746265122690422
3320000000.0 -0.03393897216736532 -0.032847581680778754
3340000000.0 0.0035529836547751586 -0.025768811488129505
3360000000.0 -0.00305647951755419 0.009165475283149874
3380000000.0 0.0012926710939793827 -0.006461550434759901
3400000000.0 -0.005440757383489965 0.020190882133943853
3420000000.0 0.03669456739689391 -0.007561567187922055
3440000000.0 0.02191093840737832 -0.046786834621369566
3460000000.0 0.057686672465166816 0.02035625042091165
3480000000.0 0.05645283053172074 -0.043247717699040844
3500000000.0 -0.07310128959891009 -0.035490862548716716
3520000000.0 -0.08587520027644259 0.034807458388805494
3540000000.0 0.1036358767933773 0.02288207878218979
3560000000.0 -0.052890239995979 -0.10608919767356763
3580000000.0 -0.07375501767252556 0.11190343406791461
3600000000.0 -0.13373192749148202 -0.0794060967708372
3620000000.0 -0.15811040367984402 -0.06396648139364249
3640000000.0 -0.10999481533658763 -0.144428407869193
3660000000.0 -0.1796109562120908 -0.06571714423997495
3680000000.0 -0.17699468767048374 -0.07752004519742917
3700000000.0 -0.1756398278882259 -0.0728821581449477
3720000000.0 0.023650335093648795 -0.18511535724045713
3740000000.0 0.17933690557758045 -0.024678801241535625
3760000000.0 -0.16618460431047374 -0.05031398735987989
3780000000.0 0.0832873479222271 0.14357371567341637
3800000000.0 0.15352117666325188 -0.03612730865977922
3820000000.0 0.02916098834060351 -0.1496764139468343
3840000000.0 0.06779325912345606 -0.13165499144801082
3860000000.0 0.14463878565213611 0.02609207788594839
3880000000.0 0.14598727326835226 -0.04003927813360744
3900000000.0 -0.03273600216689932 -0.1493047662713246
3920000000.0 -0.1487175757935062 0.05144874628051597
3940000000.0 0.16230984041217292 -0.011520304105802421
3960000000.0 0.003884461348060203 0.16832806165459058
3980000000.0 0.16510919132142457 0.044112543133441214
4000000000.0 0.1524617881951155 -0.06677270608270663
