! Created with skrf (http://scikit-rf.org).
# Hz S RI R 50.0 
!freq ReS11 ImS11
400000000.0 0.24345482390127623 0.8374308435795532
420000000.0 0.6632082023207903 0.5467182624680117
440000000.0 0.7764113656417103 -0.2738356148906877
460000000.0 0.22402719897077372 -0.754140840813249
480000000.0 0.6685437095854163 -0.2144052482140966
500000000.0 0.5593346963858414 -0.08097968847493668
520000000.0 0.43658123939662474 -0.23054258126018942
540000000.0 0.3241826850167801 0.28761961621757676
560000000.0 -0.2921303961663755 -0.21514473926150834
580000000.0 -0.25502715161490963 0.2282926608506347
600000000.0 0.33833306043691375 0.030611429021633156
620000000.0 -0.35303127580684895 -0.04093500460862263
640000000.0 -0.3081633078277925 0.23260816160977899
660000000.0 -0.021535781952073025 0.39846891721855265
680000000.0 -0.3597098799161206 -0.22679391527601597
700000000.0 0.2834936690743588 0.3406923734577866
720000000.0 0.1353373310598131 -0.42578817646888223
740000000.0 0.43262322267644615 -0.07899593056809552
760000000.0 -0.393138822173242 -0.14293500349751578
780000000.0 0.11425419303066381 -0.36716817160924
800000000.0 0.2077502201461728 0.2783397457123947
820000000.0 0.19485684097421405 0.2063074734870991
840000000.0 0.14899583106627198 0.17274384970182272
860000000.0 -0.10858989118264814 0.16086265514874082
880000000.0 0.12136885981240698 0.04668888320446498
900000000.0 0.06333165042249861 -0.03176184670047953
920000000.0 0.03526341317249326 0.02044513815660879
940000000.0 0.01362162917934115 -0.022802147440503424
960000000.0 -0.03225214475641837 0.01445020681221112
980000000.0 0.0246591024955204 -0.04469584099317087
1000000000.0 -0.057142016851119894 0.00043065338435648807
1020000000.0 0.06403536479795867 0.037310243493504286
1040000000.0 0.08142174952276665 0.029224364654109915
1060000000.0 -0.12768731820321574 -0.0011262581760349952
1080000000.0 0.14334757029423 -0.038195580561717915
1100000000.0 -0.042196034498653535 -0.1746852047760674
1120000000.0 -0.02458701756015942 0.2082745650007904
1140000000.0 -0.07592538623940617 -0.2387925859983508
1160000000.0 -0.2720199820643658 0.10528747913073505
1180000000.0 -0.07065147068310904 0.32271601350837065
1200000000.0 -0.09719531115517886 0.3476594699424964
1220000000.0 -0.3388011031142303 -0.18514295078643356
1240000000.0 0.40632967332064146 0.006436289106433183
1260000000.0 -0.4097722820985326 -0.12561012236160185
1280000000.0 0.36415934678071804 0.24763111370166246
1300000000.0 -0.06774547321174017 -0.43796255218702224
1320000000.0 -0.43293497001178377 0.0297035327872706
1340000000.0 -0.35096784810515397 -0.23584009173335965
1360000000.0 0.13184384552473438 -0.3929983063023581
1380000000.0 0.32750374557061385 -0.2560076944821489
1400000000.0 0.20772863889852972 -0.34903870324073566
1420000000.0 -0.12411444009004936 -0.37663402238191557
1440000000.0 -0.3715590674374623 -0.07784658967596632
1460000000.0 -0.045971640577735215 0.35691640951067194
1480000000.0 0.21223690023577624 -0.2602342575445943
1500000000.0 -0.2592212814041932 0.16364209732540308
1520000000.0 0.2770317617505523 0.006176417532721718
1540000000.0 0.2268035529924406 0.08612226221437964
1560000000.0 0.19412988067018064 0.04805431632288044
1580000000.0 0.10458985921988477 0.1261872416926702
1600000000.0 0.08067867492909507 -0.10127497032852381
1620000000.0 0.09046746994428825 0.02024125318370347
1640000000.0 -0.04297003452472761 -0.056069230477073774
1660000000.0 -0.04647318707110989 -0.0013602025904182534
1680000000.0 -0.012790768683842492 -0.02136828440821308
1700000000.0 0.01142870531047998 0.004186627213014556
1720000000.0 0.009020554751228335 -0.00800168361012199
1740000000.0 -0.01766857700534689 0.02307712692868293
1760000000.0 -0.013026078615005947 -0.041747090168686794
1780000000.0 -0.017614681606660087 -0.06742154049493762
1800000000.0 -0.004183989005522342 0.09869002872090527
1820000000.0 -0.10743646886926132 0.061014784545795286
1840000000.0 -0.012456287316323872 0.15699510414532997
1860000000.0 0.16737409925033178 0.08973099619605444
1880000000.0 0.19078189154665756 -0.12624146157444927
1900000000.0 -0.1620510535188159 -0.2189330594455481
1920000000.0 0.11955714434571389 0.28871397506169705
1940000000.0 0.11294034272092947 -0.3321984677173219
1960000000.0 -0.2807279701942162 0.26057522771282604
1980000000.0 0.36742452903430034 -0.17474803048953239
2000000000.0 -0.3298759755595734 -0.26749354876861386
2020000000.0 -0.11750394314905553 0.419390914976011
2040000000.0 0.41261911908183846 0.14655527358664225
2060000000.0 0.2612628975623505 -0.3480601588187444
2080000000.0 -0.09934176708198716 -0.4141658042505632
2100000000.0 -0.13562335524269514 -0.39473011930526153
2120000000.0 -0.1382006596075529 -0.38303246422102233
2140000000.0 -0.18258776073075364 -0.3526066950611442
2160000000.0 0.280766917208171 -0.26251210428196753
2180000000.0 0.15166244931473388 -0.3387636123962397
2200000000.0 0.02480009839816431 -0.3598477808598651
2220000000.0 -0.29581478108769854 -0.1937111322950238
2240000000.0 -0.2551039456451488 0.2373670051170406
2260000000.0 0.056095288149029005 0.3432142564794047
2280000000.0 0.2683903581428848 0.22363586812327088
2300000000.0 0.2788112003596904 -0.23033481012096255
2320000000.0 -0.14679941564245477 -0.3536349129109205
2340000000.0 -0.38324923346484896 0.15657090150614703
2360000000.0 0.3625050821655044 0.274117709534124
2380000000.0 -0.2952279775764777 -0.4067720481863919
2400000000.0 0.2897247670135258 0.4728140521475341
2420000000.0 -0.48614284509296707 -0.3645266176823931
2440000000.0 0.6558197963512918 -0.043854573484148104
2460000000.0 -0.5148832619785471 0.47257686729430826
2480000000.0 0.2529494146399347 -0.6854730624334917
2500000000.0 -0.2644784297489865 0.7040893084304413
2520000000.0 0.3640379004639742 -0.6705245798911726
2540000000.0 -0.6181788251117758 0.4508593556127419
2560000000.0 0.7538148183684786 0.08814886336994554
2580000000.0 -0.34937397053059227 -0.6570977507323098
2600000000.0 -0.23687137980151246 0.6799866950231582
2620000000.0 0.6551839659573151 -0.21320508283818382
2640000000.0 0.46103238724737866 -0.46089261106945995
2660000000.0 -0.6077222982586512 -0.01670180312412118
2680000000.0 0.3614964285176898 0.42905124194308075
2700000000.0 -0.01930372107898507 -0.5132074249998642
2720000000.0 -0.17746614436491426 0.42963490029002344
2740000000.0 0.3472653878270347 -0.2363343840695948
2760000000.0 -0.372340583127574 0.07884548380686575
2780000000.0 0.3185864599824523 -0.1459505091863983
2800000000.0 -0.200811343944118 0.2566180275484244
2820000000.0 -0.11649568217056556 -0.2866982172233557
2840000000.0 0.2959972662010056 0.04331772682768453
2860000000.0 -0.14710683194863713 0.25633157367397613
2880000000.0 -0.11890163699620517 -0.27054688118734443
2900000000.0 0.18675422887850385 0.23028666035199635
2920000000.0 0.07778131368719966 -0.29076055754624813
2940000000.0 -0.30431467020586256 0.03687420725742689
2960000000.0 -0.15054507365417213 0.2694886821541566
2980000000.0 -0.25566539007338335 0.17899039851169718
3000000000.0 -0.2833911151234149 -0.13702627353010127
3020000000.0 0.062030237416034355 -0.30981552866819057
3040000000.0 0.23892567893051397 0.20483645863708
3060000000.0 -0.31092506801504 0.044595243751702124
3080000000.0 0.26365028538659 -0.1612896784525616
3100000000.0 -0.16007917217938622 0.2568972267643472
3120000000.0 0.010810140102234507 -0.29514874953670855
3140000000.0 0.15530602689976428 0.23706135174719592
3160000000.0 -0.23881223892675507 -0.11893181788126711
3180000000.0 -0.031072676055530112 0.24715404732224683
3200000000.0 -0.18095162931417025 -0.1365079268186763
3220000000.0 0.15489831548468144 -0.12490369389672605
3240000000.0 -0.007035901217275414 0.16916765808812093
3260000000.0 0.07123045034755726 -0.11800732202156819
3280000000.0 -0.06623108488992047 0.08424435353649798
3300000000.0 0.07923780080499725 -0.0055968671304929855
3320000000.0 -0.03526228975355249 -0.0379172296312921
3340000000.0 0.02702689329701003 -0.004926397143169768
3360000000.0 0.003729554639793053 -0.006048081698594812
3380000000.0 0.0081427712654354 0.005557310147833616
3400000000.0 0.008184719698804774 0.023359535420694185
3420000000.0 -0.03584255911756033 0.013497886595215015
3440000000.0 0.0319354034005011 0.038004571972537315
3460000000.0 0.048061226776424645 0.02910294346773076
3480000000.0 -0.05740888767556788 -0.031451234321424354
3500000000.0 -0.06639069216469069 -0.04268502190340867
3520000000.0 -0.07063877272759451 0.06425573293356693
3540000000.0 0.11118258006704057 -0.0015227530880538745
3560000000.0 -0.07531155741596283 0.10011348559223707
3580000000.0 0.07310271117518871 -0.11844219390483035
3600000000.0 0.13339084253581315 0.08508169368518548
3620000000.0 0.06626618158648231 0.15585579697059712
3640000000.0 -0.12783584538204326 0.12722326615079646
3660000000.0 -0.1855145947572349 0.04233615269807145
3680000000.0 -0.16827281077932463 -0.09741266671244939
3700000000.0 -0.1292085028247063 -0.14523341112766175
3720000000.0 0.041007971627525786 -0.1888846504851353
3740000000.0 0.15653010074313756 -0.10624941351109951
3760000000.0 -0.14672439488392536 0.10636251731406501
3780000000.0 0.17053280519054548 -0.011158450446975025
3800000000.0 0.021503652267274208 -0.15977408904807056
3820000000.0 0.020306443634108197 -0.15269488739160275
3840000000.0 0.12939305333329368 -0.07302001857125048
3860000000.0 0.05413650308632475 0.13943307651947226
3880000000.0 0.08778755409486963 0.12957504523778476
3900000000.0 0.035997121287127974 -0.15556192174469857
3920000000.0 -0.12576856253880717 0.10446519586574832
3940000000.0 0.11471285058260533 -0.12161610191177688
3960000000.0 0.1681155775544808 0.02369186874918186
3980000000.0 0.13792896689655507 -0.09947603443558904
4000000000.0 0.14070372980737442 -0.08465232833268951
