! Created with skrf (http://scikit-rf.org).
# Hz S RI R 50.0 
!freq ReS11 ImS11
400000000.0 0.17669209652067966 0.8550803167017583
420000000.0 0.5950350641560322 0.6217677144563158
440000000.0 0.799556244041111 -0.21674013489248076
460000000.0 0.20204994388333677 -0.7627554815342505
480000000.0 0.47884865929316056 -0.523176908898079
500000000.0 0.24135251627035623 -0.5088843610702554
520000000.0 0.01929692617903838 -0.4866045156251681
540000000.0 0.4030679872775855 -0.1318165734592858
560000000.0 -0.31501553873382976 -0.15361430067255513
580000000.0 -0.25307544240371377 0.21427036988404155
600000000.0 0.267479542898638 0.1852505214610822
620000000.0 0.030754283397846346 -0.3465174059019793
640000000.0 -0.1764236339387552 -0.33870444219325546
660000000.0 -0.3998041478803487 0.033257850824772374
680000000.0 -0.014990700040803653 -0.430530619186167
700000000.0 0.3093815933096329 0.32682402287848183
720000000.0 -0.014543868617419234 -0.44854999349768254
740000000.0 0.4044034773118918 -0.170638239621143
760000000.0 -0.3550214426377208 -0.21489327465614677
780000000.0 0.31348504814556366 -0.2191771100139824
800000000.0 -0.19807861382430425 0.28653529466581346
820000000.0 -0.17715256753444386 0.23188774492367675
840000000.0 0.07752341547196713 0.2244431573426896
860000000.0 -0.07831087962990642 0.18929391641452628
880000000.0 -0.14411209357715532 0.01629996843273507
900000000.0 0.07772536283940507 -0.01830761624456035
920000000.0 0.04469333836163082 -0.018175041408858734
940000000.0 -0.012334295409971874 -0.039773215105060204
960000000.0 -0.0335029443244815 0.04289894002011621
980000000.0 0.06157171381600396 -0.012119444919179182
1000000000.0 -0.04887361142611391 -0.04835831188944348
1020000000.0 0.05225195217052254 0.058672690854230165
1040000000.0 -0.05679050974576403 0.05760531563059032
1060000000.0 -0.11218857313765722 0.03280308774354186
1080000000.0 -0.09466431828976384 0.09331020001774208
1100000000.0 -0.1219541974869253 -0.1014536860638712
1120000000.0 -0.14203077614371068 -0.125987231469722
1140000000.0 0.09268794851800528 0.21957370718710692
1160000000.0 0.2844945729954951 -0.018856163856692833
1180000000.0 -0.03551136328505986 -0.32880335580520836
1200000000.0 -0.263968423819719 -0.25493558150780143
1220000000.0 0.19307684677435882 -0.34688975213964013
1240000000.0 0.30705407489182945 0.28466043050824197
1260000000.0 -0.4124826513622175 -0.1537001665356048
1280000000.0 0.4387538236635231 0.1045020114044338
1300000000.0 -0.3794726183646206 -0.24533384943565578
1320000000.0 -0.1047680279227882 0.42673278528043573
1340000000.0 -0.25340473465002794 0.3383928010690087
1360000000.0 -0.3101020737205176 -0.26912797152996926
1380000000.0 -0.08361597866453527 -0.3996298802402039
1400000000.0 -0.10298732940000327 -0.38166107896828205
1420000000.0 -0.06778874973095822 -0.3769278920048099
1440000000.0 -0.2339536528101738 -0.28395716299116136
1460000000.0 -0.3393125464240555 -0.07669492222813008
1480000000.0 -0.14629117977255096 0.2953211354652032
1500000000.0 0.221931568035299 -0.21308324360945244
1520000000.0 -0.24114166416521218 -0.14849449533441023
1540000000.0 -0.14032436604362708 -0.21477574385366235
1560000000.0 -0.21909663905817606 0.021730648465915835
1580000000.0 0.010545598323854983 0.18769048405294914
1600000000.0 -0.1506037323737332 -0.03178267301916119
1620000000.0 -0.10541402024342923 -0.03801633064169588
1640000000.0 0.08178554133269635 -0.016859841669074376
1660000000.0 0.036635144795915675 -0.0449325550486551
1680000000.0 -0.028510507440177822 0.008511678600957985
1700000000.0 0.019542790207317428 0.0022428472536607097
1720000000.0 -0.001482104555573347 0.03469111624529326
1740000000.0 0.0507586134955242 0.02242570979451653
1760000000.0 -0.07172536252895755 -0.013061891756054718
1780000000.0 0.08969444555589243 -0.02185085967787203
1800000000.0 0.07075543704294623 0.09497237171206187
1820000000.0 0.04519783721617774 -0.12358805583974924
1840000000.0 0.14219638741972812 -0.06302145156578928
1860000000.0 0.17608497411602092 0.010132431811318166
1880000000.0 -0.15976763658126913 0.13277516763558012
1900000000.0 -0.21054917444381377 -0.12719156482088653
1920000000.0 -0.2614983697011506 0.126280559399789
1940000000.0 0.02113480538830652 0.33555220133818225
1960000000.0 0.24461177348199023 -0.2867635770301186
1980000000.0 -0.2717361591292269 0.3051077712720403
2000000000.0 0.43416568411883893 -0.026886748376707646
2020000000.0 -0.44964617605200824 -0.05836334244396378
2040000000.0 0.2619159951397105 0.3770779850797591
2060000000.0 0.04674216182134247 -0.4552913236543739
2080000000.0 -0.43818887477769836 0.07415217311257327
2100000000.0 -0.16262870694044035 0.39503004497691613
2120000000.0 -0.03427274343967772 0.4035370522241943
2140000000.0 -0.2554975369707632 -0.287081225989201
2160000000.0 0.026101715261231503 -0.36516741931612245
2180000000.0 0.35210241389668606 -0.03851285256356923
2200000000.0 0.24059982841129288 0.24884137455499
2220000000.0 0.1906106063748019 0.2930676820143045
2240000000.0 0.2933644218851535 -0.1931185798420411
2260000000.0 -0.16235983505756804 -0.3164259701418461
2280000000.0 -0.2519777006393933 0.2594823126902529
2300000000.0 0.3661115666051311 0.07477536091259868
2320000000.0 -0.2153825037081618 -0.32783667611965334
2340000000.0 -0.28968895174231535 0.30096954474047055
2360000000.0 0.4387061425699215 0.11204886482551953
2380000000.0 -0.314620975707546 -0.38627253859975863
2400000000.0 0.13231404102021974 0.5327493504405733
2420000000.0 -0.24138371415708237 -0.551800758876385
2440000000.0 0.5441834561478232 0.36255841179329734
2460000000.0 -0.6947790992595398 0.05365364127790913
2480000000.0 0.5945771035840188 -0.42436926742092024
2500000000.0 -0.5476825047382444 0.5165423147089293
2520000000.0 0.6162991529192364 -0.45337752492341327
2540000000.0 -0.7602844501360655 0.1113730537499521
2560000000.0 0.6794611391899262 0.34834005645766086
2580000000.0 -0.04255758210305155 -0.7482098097556191
2600000000.0 -0.5046167067153745 0.5208063617937608
2620000000.0 0.6849028002191121 0.1162269438144994
2640000000.0 0.6416788237855733 -0.1446971687967058
2660000000.0 -0.42092062054756574 -0.44861903669634795
2680000000.0 -0.09814989343307265 0.5626269723192473
2700000000.0 0.3994857331902356 -0.3461042128810697
2720000000.0 -0.4217053175714013 0.23567850109703628
2740000000.0 0.33400452919044477 -0.28649568045351503
2760000000.0 -0.13146268088538543 0.37580487065917517
2780000000.0 -0.21271064451040078 -0.2940311632726019
2800000000.0 0.3303507650393317 0.005552377409926894
2820000000.0 -0.22301632665358592 0.20909092607414506
2840000000.0 0.21201463356791272 -0.19743520751022364
2860000000.0 -0.2378157115593665 0.15452246644575418
2880000000.0 0.2745169060168073 -0.06809872338240366
2900000000.0 -0.24776594361181886 -0.14688066391153756
2920000000.0 -0.07268777101098221 0.29061249038695713
2940000000.0 0.29191559781626314 -0.10598632670446757
2960000000.0 -0.13728879917757764 -0.2873929692689857
2980000000.0 -0.3153958397634649 -0.08637823419576818
3000000000.0 -0.32986417853220157 0.008184678847810684
3020000000.0 -0.31798999583783916 -0.08322098953362485
3040000000.0 0.04273081140410854 -0.3199492152626948
3060000000.0 0.26680073541253996 0.16744857928139736
3080000000.0 -0.29746690011471755 -0.06733103827751247
3100000000.0 0.28849858228136455 0.05878794255309222
3120000000.0 -0.1836372811268093 -0.21426026360818598
3140000000.0 0.05548202259030431 0.26561742816537737
3160000000.0 0.17895006285843637 -0.1851434003444208
3180000000.0 -0.08683906039619443 -0.22866032595337749
3200000000.0 0.18737073755380568 0.131493201616401
3220000000.0 -0.13798656716210947 0.15514515221411962
3240000000.0 -0.18434216700323908 -0.008136898485060258
3260000000.0 -0.13107330721447283 -0.08352939866106558
3280000000.0 -0.050285900775583654 0.11135455725276329
3300000000.0 0.08738265049676402 -0.007051694066801509
3320000000.0 0.04001014588023126 -0.03444107902598915
3340000000.0 -0.021356703174646302 -0.009744983755121672
3360000000.0 -0.014325685403330075 0.001961109830646185
3380000000.0 -0.02258036346170239 -0.014257361282331937
3400000000.0 0.032226437964300296 0.014133174484929286
3420000000.0 0.0385694934506184 0.008696019871732323
3440000000.0 0.03203986662899464 0.01739404937081381
3460000000.0 0.027073478300686567 0.028621325918513567
3480000000.0 0.05589538232388538 -0.0027009565864302603
3500000000.0 0.07910144962514398 0.01514262405509078
3520000000.0 0.1050900672019498 -0.023062901658427403
3540000000.0 -0.11599416990300744 -0.05169909902886713
3560000000.0 -0.08301838916213534 0.111797016596472
3580000000.0 -0.12496333982503299 0.08312484728690013
3600000000.0 -0.145080004787454 0.06767050161990093
3620000000.0 -0.09681368111375169 -0.13386606907985346
3640000000.0 0.1633681900891954 0.04400066708400001
3660000000.0 -0.17703839227247103 0.0010553708247688378
3680000000.0 0.17536573584932194 -0.04977068798009066
3700000000.0 0.017255599618314067 0.18594260965364687
3720000000.0 -0.1908354769113824 0.02432949508180555
3740000000.0 -0.17167537890909024 0.08985189071885928
3760000000.0 -0.1359880328152542 -0.13305097853568967
3780000000.0 0.06801240320053761 -0.1684251091592876
3800000000.0 0.07973518752216423 0.14736069178082825
3820000000.0 0.15174973009181544 -0.0068753673686016165
3840000000.0 -0.007720368174111543 0.13792884938275726
3860000000.0 0.11876198372757009 0.06233272127919084
3880000000.0 -0.09116285080769726 -0.10904345660623099
3900000000.0 -0.08895048689933227 -0.12462321527734266
3920000000.0 0.0104943806710156 0.16598489659423046
3940000000.0 -0.12080662446198089 0.13010592779576308
3960000000.0 0.09518795872061168 0.15894766472963306
3980000000.0 -0.12966059272137212 -0.1300599116690624
4000000000.0 -0.10403804747427044 0.1373655511230411
