! Created with skrf (http://scikit-rf.org).
# Hz S RI R 50.0 
!freq ReS11 ImS11
400000000.0 0.2113729147508531 0.8452506697449579
420000000.0 0.6103480907711456 0.603039880484938
440000000.0 0.800453073109695 -0.19266583794527375
460000000.0 0.1851375456559484 -0.7621933047466917
480000000.0 0.6964760458146587 0.044455755552885605
500000000.0 0.534222552993254 0.20596435124320397
520000000.0 0.3651765219685732 -0.3408022354092805
540000000.0 0.4142953260908002 0.1487705021030053
560000000.0 -0.36089378122522464 -0.05726552901482619
580000000.0 -0.01918465455658794 0.345236508143205
600000000.0 0.2415272239860681 -0.24365410276239183
620000000.0 -0.2872982367305609 0.2106179978170054
640000000.0 -0.059958864096458696 0.37669911934687494
660000000.0 0.07043562311714999 0.39279195266548095
680000000.0 -0.4248672785218761 -0.036705084880135755
700000000.0 0.42410335224220785 0.13011255895665183
720000000.0 -0.2583434906720364 -0.3630661879454246
740000000.0 0.218161195849261 -0.3766853648559164
760000000.0 -0.33294876368547954 0.24103701540313957
780000000.0 0.004272759993025232 -0.36978102085208286
800000000.0 -0.2388452105098779 0.2327213382482697
820000000.0 -0.04114338367723222 -0.273131725697058
840000000.0 0.14969691201926422 -0.17540047879405726
860000000.0 0.07003796801127088 0.1885514266983677
880000000.0 0.13573287955382862 0.05520820798769482
900000000.0 -0.07572650522144568 -0.05260821393917485
920000000.0 0.05217759161574828 -0.03491813535721753
940000000.0 -0.031004489232766975 0.02930507094463413
960000000.0 -0.02342276624257103 0.043829487784803424
980000000.0 -0.03713920426602154 0.06106718260692514
1000000000.0 0.08300190744334501 -0.013267806627582014
1020000000.0 0.07954971787843944 -0.06420106000181387
1040000000.0 -0.06108603195513343 0.09049963802400565
1060000000.0 0.08365267789008166 -0.1081828814826778
1080000000.0 -0.13629576733420237 0.05217802958464104
1100000000.0 -0.008370685942973733 -0.16610185023876298
1120000000.0 0.18394034855363875 -0.05699223150284278
1140000000.0 -0.03979008286665933 -0.23339619672095488
1160000000.0 -0.2313090467519643 -0.16243105241126046
1180000000.0 -0.2729355370049858 0.179580982390545
1200000000.0 -0.16937992588206557 0.3150532503521348
1220000000.0 -0.2359199037582274 -0.3003365439654213
1240000000.0 0.3603175639556839 0.17985918556066388
1260000000.0 -0.2099304105887106 -0.36880354036720336
1280000000.0 -0.052344457390035085 0.4339193416354651
1300000000.0 0.4299850490316914 -0.1175905246039704
1320000000.0 -0.18053218980062316 -0.4019087872869325
1340000000.0 -0.10169958803671365 -0.4216461450242304
1360000000.0 0.10394781077038719 -0.41477180745551856
1380000000.0 -0.0969482946851078 -0.4154687102032523
1400000000.0 -0.39030270421465996 -0.13130822934813477
1420000000.0 -0.268982739199606 0.2871921732800322
1440000000.0 -0.09011814524847328 0.3597412988320085
1460000000.0 0.23713633173839238 0.25387698186906416
1480000000.0 0.264454947013572 -0.1856034109978759
1500000000.0 -0.25549724772489596 -0.14988609483148846
1520000000.0 -0.09525978465772746 0.2529478791164949
1540000000.0 -0.2365446376321082 0.034106828941496525
1560000000.0 -0.19291583026478656 -0.05607803936464476
1580000000.0 -0.05190882705921841 -0.16073320660240817
1600000000.0 -0.13328831350865963 -0.02267603554255133
1620000000.0 -0.048239264567403 -0.08995527159654373
1640000000.0 0.012710712447328649 0.07917170996319273
1660000000.0 0.004971003148752651 0.05871474425363466
1680000000.0 -0.032923254744980965 -0.016675548291253364
1700000000.0 0.02003353051254798 -0.001963019637229505
1720000000.0 0.002444946174950571 -0.0033922389431306574
1740000000.0 0.014043897747220346 -0.015056848406847961
1760000000.0 -0.010236662861876463 -0.04114417495270367
1780000000.0 0.03841273337167854 -0.06452450932530805
1800000000.0 -0.09480117637566869 0.05800693843101152
1820000000.0 -0.12302475445718707 -0.06744013226800792
1840000000.0 0.16638635138455263 -0.04391655429311191
1860000000.0 -0.1963676984509029 0.03023123182323294
1880000000.0 -0.10610138582938175 0.20211254247009072
1900000000.0 0.022046074373758866 0.2640181001076941
1920000000.0 0.3020756325857375 -0.0005314954965112787
1940000000.0 0.05729725214871436 -0.33648930100945834
1960000000.0 -0.3202119282929553 0.19655199650545765
1980000000.0 0.40020116102570885 0.034733555066091146
2000000000.0 -0.0918275158645423 -0.41280216225506594
2020000000.0 -0.32075090340430773 0.2943614437182075
2040000000.0 0.2365249680258509 0.37127630940704137
2060000000.0 0.40152352860722956 -0.17749194108452712
2080000000.0 0.1159937901528475 -0.416087775716756
2100000000.0 -0.040506844022311125 -0.42185249106704853
2120000000.0 -0.15617926515754021 -0.383000621267096
2140000000.0 -0.33516640847314166 -0.22199534369888058
2160000000.0 0.015282895265485609 -0.3867077569623181
2180000000.0 -0.12308566819128139 -0.34952000189315463
2200000000.0 -0.22560653692300525 -0.2773096091750401
2220000000.0 -0.2977020416894432 -0.18086530760793573
2240000000.0 -0.31577956888085756 0.13572095874510914
2260000000.0 -0.1998118171365006 0.28022869585702254
2280000000.0 -0.024329406380368387 0.3492402798688773
2300000000.0 0.3639161894028153 0.02640634300330408
2320000000.0 -0.007795606234042063 -0.38827735243421335
2340000000.0 -0.3669620257012778 0.20172848951602487
2360000000.0 0.43887209591850435 0.1304156914303372
2380000000.0 -0.4273809852976464 -0.26764240475690027
2400000000.0 0.4100698221996489 0.3736212451944013
2420000000.0 -0.5652440487380207 -0.22115148608418533
2440000000.0 0.6350250561437855 -0.16778697747614324
2460000000.0 -0.40001619049864995 0.5717262337720318
2480000000.0 0.07792676520848997 -0.7254455908629988
2500000000.0 -0.041899910969385966 0.7499060252845089
2520000000.0 0.18446146566875765 -0.7392460017958262
2540000000.0 -0.4916889435422558 0.5848283172559118
2560000000.0 0.7469392185802318 -0.131181672787855
2580000000.0 -0.47616920486890624 -0.5718509354878396
2600000000.0 -0.12438597298947199 0.7094031643664638
2620000000.0 0.6197967626783082 -0.3034584929314049
2640000000.0 0.3622325660808943 -0.5430010337284837
2660000000.0 -0.608866093419509 0.0028988405319798935
2680000000.0 0.3227232813206364 0.4599001260271531
2700000000.0 0.04297429377906712 -0.5141040550007192
2720000000.0 -0.3068520205965583 0.3532771368823898
2740000000.0 0.39533648513956166 -0.15392700390734168
2760000000.0 -0.3828944739574317 0.03701762615408096
2780000000.0 0.30875322152982904 -0.172322356662652
2800000000.0 -0.15701760261316147 0.28746099558505983
2820000000.0 -0.17396471312981468 -0.25483345568838794
2840000000.0 0.29580872183698925 0.005216283033845107
2860000000.0 -0.1963029560159671 0.2159167419736043
2880000000.0 0.01759526619987213 -0.2914000297864817
2900000000.0 0.07508434797882599 0.2844876724581256
2920000000.0 0.2239416656066029 -0.19950141105873775
2940000000.0 -0.2922441270197721 -0.09450694747868083
2960000000.0 -0.20226372963456746 0.23622980391654982
2980000000.0 -0.22846338840882538 0.21810135562208136
3000000000.0 -0.3161082431305695 -0.03174450921047528
3020000000.0 -0.08185117627252016 -0.3074882367235219
3040000000.0 0.3138963208425439 0.03501053864662362
3060000000.0 -0.2598595872296214 0.17284873900068773
3080000000.0 0.23025750955970523 -0.20278424616664523
3100000000.0 -0.14123751406448798 0.2654047222229663
3120000000.0 0.12467788413498121 -0.26367773887370605
3140000000.0 -0.0331090695875641 0.2792033236799795
3160000000.0 -0.04944694422713791 -0.2623029710837439
3180000000.0 -0.19883657917724207 0.1526301164913622
3200000000.0 -0.10550817700659079 -0.2034779670765649
3220000000.0 0.1288550903258475 -0.15634377269464697
3240000000.0 0.1319774291342888 0.11064027076606393
3260000000.0 -0.13614114882531655 0.022118776677673035
3280000000.0 0.07620732170204511 -0.0724693665721357
3300000000.0 -0.03513646266698172 0.06608045670702714
3320000000.0 0.04404231047281983 0.01348780197150128
3340000000.0 0.020965781689645604 0.0059298822838506635
3360000000.0 -0.003456551630657878 0.001817803274216978
3380000000.0 0.008919614229725556 -0.004466748779275999
3400000000.0 0.011986693924340142 0.01882951939774185
3420000000.0 0.00442446950864265 0.035045388894338544
3440000000.0 0.023812677089113013 0.04053034933268546
3460000000.0 0.05410042347551218 0.016138075153994208
3480000000.0 0.017177041218084107 0.06621861076081752
3500000000.0 0.06764402590127365 -0.047146516886146544
3520000000.0 -0.09387539529472687 -0.02500866595169267
3540000000.0 0.10734939961021751 -0.027315987270488316
3560000000.0 -0.11299178143416246 0.05102446789834078
3580000000.0 0.132318472692778 -0.036576417033673314
3600000000.0 0.038238765301541904 0.15137091292054722
3620000000.0 -0.03172003072141049 0.16513963381965344
3640000000.0 -0.17323614018749947 0.04444739149525
3660000000.0 -0.1822268152447758 -0.047524520527647676
3680000000.0 -0.1029605315444718 -0.162720647917988
3700000000.0 0.03914806005192306 -0.18818344068996204
3720000000.0 0.18829723356864264 -0.039394120133693984
3740000000.0 0.1859203999273757 0.03145443978184633
3760000000.0 -0.17552480281757094 0.046651059101676905
3780000000.0 0.14263962842845115 -0.09364018149224394
3800000000.0 -0.05215383765514005 -0.15204169486531655
3820000000.0 -0.13263124910740356 -0.07340995837957394
3840000000.0 0.08846430527128286 -0.11500701944844263
3860000000.0 -0.011659390256200127 0.14551093293724848
3880000000.0 -0.029306623529223023 0.1505683360367271
3900000000.0 0.1582852460702042 0.011371354975587843
3920000000.0 -0.1482557748602111 -0.07348135310037868
3940000000.0 0.13102346656049607 -0.10836793462378311
3960000000.0 0.17139269076516375 0.02083768266407792
3980000000.0 0.11151460719985402 -0.13059715712574932
4000000000.0 0.08938601501270897 -0.13802091168778866
