! Created with skrf (http://scikit-rf.org).
# Hz S RI R 50.0 
!freq ReS11 ImS11
400000000.0 0.2169602538836481 0.8427676832573624
420000000.0 0.600899158243884 0.6125529600672674
440000000.0 0.8000715751405474 -0.19571918796776694
460000000.0 0.21833325451021005 -0.7536737962905451
480000000.0 0.6967866621864766 0.043792256475529
500000000.0 0.5301580224261185 0.21542963700741627
520000000.0 0.3538206671294345 -0.35336910257840803
540000000.0 0.416725324920563 0.14178222630270323
560000000.0 -0.3639203671690116 -0.03353041659545666
580000000.0 -0.008136161195401432 0.3454312453391419
600000000.0 0.22342755328587843 -0.25974892574407304
620000000.0 -0.26980214966049787 0.2330054798411561
640000000.0 -0.06392355722745122 0.376665959323737
660000000.0 0.08443542782815429 0.3895905333342174
680000000.0 -0.42167866677536125 -0.057750490648105494
700000000.0 0.41398817208005867 0.16204155582887614
720000000.0 -0.30244517734476534 -0.32781745761943637
740000000.0 0.2139058559551982 -0.3788313149427276
760000000.0 -0.37409858401097695 0.16879069104182223
780000000.0 -0.005194049593770224 -0.3707387602350079
800000000.0 -0.19242380776438206 0.2720119393675158
820000000.0 -0.017851913553658377 -0.2750643341053384
840000000.0 0.17087419126059214 -0.15560077893680066
860000000.0 0.0958672167372433 0.17755576431025583
880000000.0 0.1465636609148659 -0.00039009933475767506
900000000.0 -0.06735574102087702 -0.0625418163055697
920000000.0 0.06152446858436367 -0.015494937152424186
940000000.0 -0.03578757679687188 0.023205498693306167
960000000.0 -0.026015488654911316 0.042345769280635784
980000000.0 -0.013423240550675727 0.0697892942993734
1000000000.0 0.08086062566530512 -0.021262006291079848
1020000000.0 0.07956105394067467 -0.06362817116685472
1040000000.0 -0.06760375938491282 0.08545487004719418
1060000000.0 0.09124158134707541 -0.10182296749074665
1080000000.0 -0.13986788253105326 0.04259340353790496
1100000000.0 0.013865146257468245 -0.16628371875203296
1120000000.0 0.17958420092820934 -0.07152701541866878
1140000000.0 -0.059756913510819895 -0.2298604727441527
1160000000.0 -0.23849100449836225 -0.15144318571562984
1180000000.0 -0.2639261009460347 0.19246681017486464
1200000000.0 -0.14304264805980954 0.32809726910751646
1220000000.0 -0.24629144791727736 -0.29197607920234414
1240000000.0 0.35112800297502783 0.1966012054720496
1260000000.0 -0.19028899574615277 -0.3789933637154433
1280000000.0 -0.05251604280834893 0.43386619849426944
1300000000.0 0.4276806271351818 -0.12465330922810909
1320000000.0 -0.18591663783961926 -0.39916112160620587
1340000000.0 -0.10609205926436299 -0.42047635169913916
1360000000.0 0.09701797775320174 -0.41628566850613496
1380000000.0 -0.120840089182228 -0.40900660511774056
1400000000.0 -0.39158696177692875 -0.12731272742307811
1420000000.0 -0.26745046501639874 0.2890289679724648
1440000000.0 -0.07152749701204053 0.36398058420486407
1460000000.0 0.2450440990979716 0.24642680983170626
1480000000.0 0.2750560983273135 -0.16953522038889746
1500000000.0 -0.25495247861898207 -0.15170632720086208
1520000000.0 -0.08852841245104652 0.2555262867091599
1540000000.0 -0.23880392036246442 0.013206462564588092
1560000000.0 -0.17820981778683806 -0.09339343270850071
1580000000.0 -0.01913321381441835 -0.16794873656853354
1600000000.0 -0.1348422791772576 -0.009772193556997547
1620000000.0 -0.04417922950852123 -0.09197717812790007
1640000000.0 0.016766129828092596 0.07834794507894405
1660000000.0 0.013801694491216506 0.05669835721687429
1680000000.0 -0.027375103752876332 -0.024184276143412255
1700000000.0 0.01913026955155242 -0.006176391810433624
1720000000.0 0.00420016794978941 -0.0007494529393377923
1740000000.0 0.014769101715108769 -0.013969904715809169
1760000000.0 -0.028235626189567143 -0.03135543259807049
1780000000.0 0.03794124144027761 -0.06420081479202472
1800000000.0 -0.10192233155750755 0.04341692942826626
1820000000.0 -0.11482021493778617 -0.08066968015045493
1840000000.0 0.16856750564227768 -0.03539122361907786
1860000000.0 -0.19732132182092416 0.02610440280027626
1880000000.0 -0.09172752035592008 0.2092795581076525
1900000000.0 0.040321686355729996 0.2617632836136009
1920000000.0 0.30155616766855214 -0.014465517733317607
1940000000.0 0.058526655856909256 -0.33588363491704637
1960000000.0 -0.32786344365260517 0.18288203507938464
1980000000.0 0.399017627970077 0.046235126711118395
2000000000.0 -0.08374473970081764 -0.4146655315761638
2020000000.0 -0.3239360356615794 0.29115799914573226
2040000000.0 0.23282731185662736 0.3737530602595129
2060000000.0 0.3970068050363517 -0.18733412493434212
2080000000.0 0.08560455379599775 -0.423378707115362
2100000000.0 -0.03808621077070538 -0.4222860803739258
2120000000.0 -0.17397307159762418 -0.37509140360918897
2140000000.0 -0.3502703312665736 -0.19712840130548456
2160000000.0 0.03312884236465241 -0.3856780363332949
2180000000.0 -0.1217210221976068 -0.3501041690430835
2200000000.0 -0.22287785029660445 -0.27959287837738617
2220000000.0 -0.2983763092974483 -0.1794006099163931
2240000000.0 -0.32461412453985683 0.11388092419658455
2260000000.0 -0.19999222124632823 0.280173195170905
2280000000.0 -0.036253808952146596 0.3479611150889537
2300000000.0 0.36336572916636234 0.030761290127490622
2320000000.0 0.01143499689302218 -0.38788393525965187
2340000000.0 -0.3609600653527953 0.21237841384770612
2360000000.0 0.44161266040235475 0.1205173613824721
2380000000.0 -0.42443041827911254 -0.27157799693992457
2400000000.0 0.4075206019980603 0.37620630369076047
2420000000.0 -0.5592903876361671 -0.23603402558731335
2440000000.0 0.6362064488784636 -0.1635332824825282
2460000000.0 -0.41914550182789057 0.5579558113570249
2480000000.0 0.08556656877257798 -0.7246519690449802
2500000000.0 -0.12307868256343212 0.7414336986154307
2520000000.0 0.22893529028686013 -0.7271575106412798
2540000000.0 -0.5055057075589006 0.5734314842384975
2560000000.0 0.755382044753292 -0.07229457761245893
2580000000.0 -0.5164497898814797 -0.5359334248637129
2600000000.0 -0.15287722651758878 0.7042336740320111
2620000000.0 0.6350277726603891 -0.2711550632223853
2640000000.0 0.41119610969455855 -0.5070526021304562
2660000000.0 -0.6088576002548022 -0.009687867681108317
2680000000.0 0.3125272803243155 0.46686812128383404
2700000000.0 0.06030203773993284 -0.5120489200784782
2720000000.0 -0.3122562822156169 0.3484668734875525
2740000000.0 0.4068259996537767 -0.11954479004288288
2760000000.0 -0.38286567966013996 0.03686042908890118
2780000000.0 0.30583891524337886 -0.17720167475210813
2800000000.0 -0.14972504816060236 0.2910836586045369
2820000000.0 -0.17361273003533562 -0.25528994388516096
2840000000.0 0.2960168344638646 -0.007571892974507915
2860000000.0 -0.20081462505536768 0.2124458811471564
2880000000.0 -0.005017366333508272 -0.29196028140028896
2900000000.0 0.04609614261418066 0.29148305619037873
2920000000.0 0.2194230213621917 -0.20531884016423646
2940000000.0 -0.29328643903827856 -0.09221722874275434
2960000000.0 -0.20111284698969262 0.23754066713716482
2980000000.0 -0.24588325285219548 0.197059924831208
3000000000.0 -0.31502010177358275 -0.04340855387736094
3020000000.0 -0.09108124555948527 -0.3049295203688758
3040000000.0 0.3148599401052569 0.022391878872540884
3060000000.0 -0.28568277580550683 0.12593856257496966
3080000000.0 0.22661903313017423 -0.20728774042466647
3100000000.0 -0.1378585138935526 0.2667320592574006
3120000000.0 0.16175165916017123 -0.24249083163038676
3140000000.0 -0.05152403644838673 0.27683623790252576
3160000000.0 -0.06814670322922918 -0.2579279644992212
3180000000.0 -0.19876138032660698 0.15195098797664178
3200000000.0 -0.09456965087601922 -0.20868703910963568
3220000000.0 0.12672996505431522 -0.15842590604875761
3240000000.0 0.14402603996688337 0.09464890883335068
3260000000.0 -0.13361778889367332 0.0343146045728707
3280000000.0 0.07348979014097815 -0.0753460558437602
3300000000.0 -0.03995667924534263 0.06344458228489745
3320000000.0 0.045923016572432016 0.005495804291972813
3340000000.0 0.01793014835221821 -0.012501697437322799
3360000000.0 0.0018225700844785387 -0.003661259690655978
3380000000.0 0.001637210192862746 -0.009899825695519218
3400000000.0 0.02016164080171943 0.00977597516521434
3420000000.0 -0.009493291065332338 0.033974606879674456
3440000000.0 0.0315055311225885 0.035194056635586855
3460000000.0 0.0564962636905962 0.007154388848543662
3480000000.0 0.020492666363367332 0.06560663347697059
3500000000.0 0.07452658773867542 -0.03542578659467628
3520000000.0 -0.0851280112007567 -0.046997466626670134
3540000000.0 0.11094120594662411 -0.0027927455090849475
3560000000.0 -0.11690780102380562 0.04206896505001935
3580000000.0 0.12555794504285073 -0.05704754937761064
3600000000.0 0.021797899267118916 0.1545057152985059
3620000000.0 -0.039616143823997745 0.16389858964116188
3640000000.0 -0.17589795868573585 0.03322660744981608
3660000000.0 -0.17403211488782885 -0.07099173793085509
3680000000.0 -0.09152744833028965 -0.16918058011690673
3700000000.0 0.06317556963966303 -0.1815036874235927
3720000000.0 0.18938302808355992 -0.033142028949369205
3740000000.0 0.18386192922014652 0.0399935525636332
3760000000.0 -0.1769883034798635 0.04001039737460039
3780000000.0 0.14564562045556328 -0.08854145666435656
3800000000.0 -0.052362527929437824 -0.151621689787787
3820000000.0 -0.13096713432847298 -0.07565572083599523
3840000000.0 0.09300955733276926 -0.11102105014586643
3860000000.0 -0.021847801169650443 0.14407664039594217
3880000000.0 -0.035462064613896824 0.14877836746279732
3900000000.0 0.15608448716069728 0.02723337098391601
3920000000.0 -0.14410557379182187 -0.08030919822228641
3940000000.0 0.13233463966617418 -0.10633123830528039
3960000000.0 0.17157959438366183 0.017198318204971884
3980000000.0 0.1144432114746895 -0.1276498365007799
4000000000.0 0.07945212318957061 -0.14372139123198324
