! Created with skrf (http://scikit-rf.org).
# Hz S RI R 50.0 
!freq ReS11 ImS11
400000000.0 0.27752701765221677 0.8261971221761378
420000000.0 0.6358529857423315 0.5767817722111004
440000000.0 0.7772154692897091 -0.2719959448495511
460000000.0 0.15248671435462915 -0.7691555775876001
480000000.0 0.6974832280754113 0.017104583173699457
500000000.0 0.525478937991804 0.22998103002776946
520000000.0 0.318503807231077 -0.3848464788819615
540000000.0 0.3852535352848602 0.2091837859426926
560000000.0 -0.29427738115151253 -0.21855195482527484
580000000.0 0.028647240584666195 0.3471079897743772
600000000.0 0.20512586581777806 -0.27337292743431013
620000000.0 -0.2662156750355039 0.2345635157236441
640000000.0 -0.03587391790375308 0.3808021609206917
660000000.0 0.18380071339767623 0.35500332073764745
680000000.0 -0.4237877892336044 0.041845997200661386
700000000.0 0.42565598673364585 0.12166162744672215
720000000.0 -0.22685308944063765 -0.383962115555185
740000000.0 0.19343164699986892 -0.3894587237939381
760000000.0 -0.33705687658459393 0.23521730820164463
780000000.0 0.04394621629267652 -0.36757272607094466
800000000.0 -0.22719294018889669 0.24433750601208865
820000000.0 0.002188096651962135 -0.2752614855802686
840000000.0 0.19082625886999594 -0.12901577828491584
860000000.0 0.03787688918243788 0.1984243197479389
880000000.0 0.14141756844156603 0.04140736496123402
900000000.0 -0.08006773186972099 -0.04568403174242468
920000000.0 0.06253340180774587 0.0012927850863381312
940000000.0 -0.039662253121049026 -0.015530619227197374
960000000.0 -0.013676492083762893 0.04904039295257475
980000000.0 -0.010308425571280241 0.07121452989593344
1000000000.0 0.08488315975049167 0.001984836692471838
1020000000.0 0.07914351536877595 -0.06602350480759069
1040000000.0 -0.05909582985038287 0.0928514839536818
1060000000.0 0.06060037289476215 -0.12309022421982595
1080000000.0 -0.09467614725937729 0.11001010701187564
1100000000.0 0.016365041987804797 -0.16355415185785913
1120000000.0 0.183282993721699 -0.055759381984371185
1140000000.0 -0.0035245207164600963 -0.23549248836459105
1160000000.0 -0.2435450192356258 -0.14425766553490074
1180000000.0 -0.24470801437237566 0.21744211244185543
1200000000.0 -0.08764508466356317 0.34806298222785653
1220000000.0 -0.33169526212900374 -0.19079871760152528
1240000000.0 0.39097134517671295 0.09827819924601343
1260000000.0 -0.2714895520648053 -0.3263475655161714
1280000000.0 -0.00431995579020153 0.437602141904964
1300000000.0 0.42446838284153326 -0.13559218158731126
1320000000.0 -0.16099206413450223 -0.41044948146907445
1340000000.0 -0.10795942196440553 -0.420647686608481
1360000000.0 0.11021681382751365 -0.4130039598639821
1380000000.0 -0.07843721614983286 -0.41853328155067404
1400000000.0 -0.37361495232803893 -0.17100113506357212
1420000000.0 -0.29906496176821296 0.2554789911243291
1440000000.0 -0.08317825929136886 0.36097140599267563
1460000000.0 0.24236251120611343 0.2478787125495051
1480000000.0 0.2798340443177485 -0.16073088156722898
1500000000.0 -0.27659631759964104 -0.10477201272420758
1520000000.0 -0.05658813975095286 0.2629826725283154
1540000000.0 -0.23009203449574525 0.058294824369618595
1560000000.0 -0.19176544367649734 -0.057320485615925086
1580000000.0 -0.07468816573596669 -0.1504721206431951
1600000000.0 -0.13293073820053605 0.020979164541838527
1620000000.0 -0.05297104645863877 -0.08709288381570714
1640000000.0 0.06144125953660939 0.05286920993048206
1660000000.0 0.05632956896967554 0.020626807219506407
1680000000.0 -0.03118147319628503 -0.023078861438062957
1700000000.0 0.001736174253861232 -0.02180087560950094
1720000000.0 -0.002571372092814731 -0.0024689227765784163
1740000000.0 -0.01476508131035687 -0.014231356431320629
1760000000.0 0.01718660481912351 0.03961476709838413
1780000000.0 -0.07185735486903543 -0.027464654491339807
1800000000.0 0.01870266017526418 0.11062381005211527
1820000000.0 -0.14031188392448793 0.015494357390281547
1840000000.0 0.1490162509973831 -0.08642749809529866
1860000000.0 -0.1959534726395692 0.03692833149862224
1880000000.0 -0.17159846499556797 0.15210747518901863
1900000000.0 -0.04588820430747925 0.2628334144655465
1920000000.0 0.29838372119496964 0.05797925621766919
1940000000.0 0.08558334318585811 -0.331381097052826
1960000000.0 -0.32712326128936087 0.1850887936191353
1980000000.0 0.39558530882523035 0.06758730086534487
2000000000.0 -0.06026276762977779 -0.4180232196616654
2020000000.0 -0.3179253000125722 0.29596856592333787
2040000000.0 0.1979437323001687 0.39205847682712025
2060000000.0 0.39110980446327603 -0.19663695258208108
2080000000.0 0.04828446923167042 -0.42805598499897224
2100000000.0 -0.08429518326690603 -0.4145467144909036
2120000000.0 -0.2254143436353125 -0.3457126264247435
2140000000.0 -0.3817504943532713 -0.1226514071437277
2160000000.0 -0.08163616245752826 -0.37737027333775724
2180000000.0 -0.21654520091338875 -0.300719768127876
2200000000.0 -0.2805217306459638 -0.2205763835779143
2220000000.0 -0.3363380725797795 -0.0889765568596351
2240000000.0 -0.3003534388525203 0.16809473833669367
2260000000.0 -0.15465063898709652 0.3075951710847274
2280000000.0 0.03723225042842888 0.3476220658395719
2300000000.0 0.36405287540310904 -0.010419553749589314
2320000000.0 -0.07928694616503214 -0.3802111163607116
2340000000.0 -0.35123118115775787 0.22877686395375293
2360000000.0 0.4499554251909247 0.08535080260021904
2380000000.0 -0.4534738882728575 -0.22114386766186095
2400000000.0 0.44563864839805534 0.33119777781923454
2420000000.0 -0.5756839414989096 -0.19385360230179138
2440000000.0 0.6269777936237594 -0.19634642199057797
2460000000.0 -0.43032153810830404 0.5495095179576638
2480000000.0 0.08985784614095794 -0.7236625027409099
2500000000.0 -0.05060200879252122 0.7485703170751548
2520000000.0 0.201845362958881 -0.7335751996431316
2540000000.0 -0.48294524075927603 0.5903937403920736
2560000000.0 0.7505861801402236 -0.09672143130452542
2580000000.0 -0.510481293460134 -0.5374312732042523
2600000000.0 -0.04444688869316127 0.715603941808332
2620000000.0 0.5609143336442016 -0.39515002745990996
2640000000.0 0.3339805964393803 -0.5561998637691571
2660000000.0 -0.6014528478012484 0.06077532083459555
2680000000.0 0.4364302462462869 0.3475404130917927
2700000000.0 -0.05496299004840264 -0.5091615735553086
2720000000.0 -0.2432455864848998 0.3957210450526145
2740000000.0 0.3430780078658139 -0.24477187725439753
2760000000.0 -0.3492514560950118 0.15671309877062886
2780000000.0 0.2569171175955687 -0.2405466106922337
2800000000.0 -0.10478503164043065 0.30880772451927596
2820000000.0 -0.2249125975598874 -0.21045674842865647
2840000000.0 0.29044510548995395 -0.05454992283983901
2860000000.0 -0.17674881035142703 0.23170255486468827
2880000000.0 -0.014375418833932842 -0.29089969467905236
2900000000.0 0.057479104720432675 0.2880227292660881
2920000000.0 0.21046600892410366 -0.21187197260006285
2940000000.0 -0.2930551744322317 -0.08742977677473929
2960000000.0 -0.21319588120741986 0.223463474909817
2980000000.0 -0.23731938564128705 0.20468399072872384
3000000000.0 -0.3167943945080112 0.013856344470998542
3020000000.0 -0.15023134605662686 -0.27930892131350693
3040000000.0 0.31333880749706505 -0.023392551103576
3060000000.0 -0.19564863813076083 0.24265344859342888
3080000000.0 0.14012009096942052 -0.27249003638807934
3100000000.0 -0.04148223188566637 0.2971226069023818
3120000000.0 0.06896599448524987 -0.28258652735772455
3140000000.0 0.02185444109450994 0.28093565526824127
3160000000.0 -0.09404842475015111 -0.250023669601388
3180000000.0 -0.16736179947884075 0.18737981515576763
3200000000.0 -0.08841344917372572 -0.21239781265486093
3220000000.0 0.1546314749406301 -0.13206098734350855
3240000000.0 0.1246774736324463 0.12060983139356811
3260000000.0 -0.11710248975008962 -0.07522627820024815
3280000000.0 0.1004978941151032 0.03425582693971273
3300000000.0 -0.02200687223910776 -0.07257529977588065
3320000000.0 -0.04136327217423798 -0.022294453788351355
3340000000.0 0.012758605758632618 0.01902719752897338
3360000000.0 -0.005062425334998533 -0.0014164648959500822
3380000000.0 0.00102925319986814 0.009633369522079271
3400000000.0 0.018399326975148296 -0.011879843993015098
3420000000.0 -0.032046065249685375 0.013535419407137265
3440000000.0 -0.04679716491278245 -0.008438023823629973
3460000000.0 -0.04206687053392087 -0.03766302495758048
3480000000.0 0.0339798351205989 -0.06023484757363017
3500000000.0 -0.05710475432199862 -0.059510534355928756
3520000000.0 -0.0199104395522276 0.09532396249219273
3540000000.0 0.03448384535419192 -0.10559620567520063
3560000000.0 -0.006041505163488877 0.12466004786695487
3580000000.0 0.02182747617834306 -0.13660802759561116
3600000000.0 0.13444867562755844 0.08070085039328338
3620000000.0 0.09430176979109893 0.1407147161925587
3640000000.0 -0.11964440978548957 0.1355023049130362
3660000000.0 -0.1827449353022203 0.04843006952231682
3680000000.0 -0.14141807941747492 -0.13168688283938723
3700000000.0 -0.020525074831889825 -0.19180803029765853
3720000000.0 0.1570460986961942 -0.11407159076835133
3740000000.0 0.18870457030757973 -0.01937364008867533
3760000000.0 -0.16870366160188668 0.07214988808536715
3780000000.0 0.13389958224564322 -0.1090247786854772
3800000000.0 -0.08529529294765076 -0.13818513933270243
3820000000.0 -0.14608780105135422 -0.048220983032708956
3840000000.0 0.07919635761033846 -0.12369880303569981
3860000000.0 -0.010385678838519695 0.14758202368787093
3880000000.0 -0.02476351327047169 0.15371120587158038
3900000000.0 0.15932070437844362 -0.01901315156287369
3920000000.0 -0.16470609426651697 -0.027042910532565974
3940000000.0 0.11731627381013579 -0.12546754848079625
3960000000.0 0.17401261938571327 0.01030446727696082
3980000000.0 0.09418781415433866 -0.14462425287470954
4000000000.0 0.07715832129927885 -0.1458811173331567
