! Created with skrf (http://scikit-rf.org).
# Hz S RI R 50.0 
!freq ReS11 ImS11
400000000.0 0.23524822415631266 0.8373416283829268
420000000.0 0.623878665156389 0.5893027089386146
440000000.0 0.779516157507631 -0.2642567353046565
460000000.0 0.1444840907482112 -0.769918966243909
480000000.0 0.6980651946510033 -0.0011195747785247942
500000000.0 0.5366207947824007 0.19804414212717183
520000000.0 0.3650218915704577 -0.34163098930193964
540000000.0 0.3903717160993916 0.2022718178431432
560000000.0 -0.34015248969512807 -0.13505030339331375
580000000.0 -0.03269752368388384 0.3449794131813641
600000000.0 0.23035057158648106 -0.25305421025506625
620000000.0 -0.2769565483996379 0.2239615735159189
640000000.0 0.00040934318256234187 0.3821845253610378
660000000.0 0.15674562611772258 0.36654010575335855
680000000.0 -0.4258460626503973 -0.002283629393960209
700000000.0 0.4331666265607942 0.09841013516366785
720000000.0 -0.2831138254432579 -0.3443364394179258
740000000.0 0.201152172472591 -0.3848190084506501
760000000.0 -0.3804988338922386 0.1573995352200908
780000000.0 -0.02020669389238876 -0.36995256980581515
800000000.0 -0.20631964955119503 0.2604163706427952
820000000.0 0.04270438619922249 -0.2721260091364411
840000000.0 0.18262841502129906 -0.14189949513015207
860000000.0 0.06781740949838667 0.18974915988174648
880000000.0 0.1353969235547796 0.05593734080599027
900000000.0 -0.044670804099613895 -0.08036945955469912
920000000.0 0.06085950951701084 -0.015360086973352708
940000000.0 -0.012016656801745495 0.04104928475840064
960000000.0 -0.015180204383090031 0.04838787241966353
980000000.0 -0.02796198478703873 0.06669942700525425
1000000000.0 0.08438901614968772 0.0088527981887627
1020000000.0 0.08013704782759616 -0.06538795114614465
1040000000.0 -0.040692865227423956 0.10192446688269113
1060000000.0 0.04664498564138796 -0.12857031748291756
1080000000.0 -0.0895786473938 0.11382880050490125
1100000000.0 -0.01111964134014677 -0.16392976919740118
1120000000.0 0.18039958774952314 -0.06357335011121859
1140000000.0 0.009420690010044032 -0.2354490075489091
1160000000.0 -0.21991043575878666 -0.17768629530524616
1180000000.0 -0.2360481435145114 0.22670621688941528
1200000000.0 -0.09064663579303928 0.34733148166800193
1220000000.0 -0.30992070624830864 -0.22434622424977588
1240000000.0 0.3938085103367166 0.0851445039031462
1260000000.0 -0.26887716519194527 -0.32841808783120546
1280000000.0 -0.017924727509291784 0.43744865418223144
1300000000.0 0.4164881469697118 -0.15909755928786484
1320000000.0 -0.18146849672644777 -0.4020685985050861
1340000000.0 -0.09899361165855493 -0.4228575517876278
1360000000.0 0.11882616014789932 -0.4106765796799661
1380000000.0 -0.0867139345197018 -0.41707988100923327
1400000000.0 -0.3744352295257375 -0.16895835934557585
1420000000.0 -0.3030416993788237 0.25053977501224645
1440000000.0 -0.10068289100337371 0.3566680468742506
1460000000.0 0.253502046499213 0.236701935014263
1480000000.0 0.2252041335525007 -0.23048206250416517
1500000000.0 -0.2805742174572026 -0.0932075035922953
1520000000.0 -0.05462675179142289 0.2633197830917994
1540000000.0 -0.22647376844740655 0.07170954032327859
1560000000.0 -0.19470689595648277 -0.044989581674408384
1580000000.0 -0.07760510917476145 -0.14894180485938138
1600000000.0 -0.1251911344904883 0.049332192781277914
1620000000.0 -0.0822433332125066 -0.06062558716786825
1640000000.0 0.055717218477907116 0.058908210571448086
1660000000.0 0.058039378431329884 0.01597510124000616
1680000000.0 -0.038053743865419425 -0.009326202575418465
1700000000.0 -0.02182748869551612 -0.0046237334216173605
1720000000.0 -0.003513830442118131 0.0008864683050462103
1740000000.0 -0.016400783924584408 -0.012265450051224291
1760000000.0 0.030921592380327805 0.03065626597375018
1780000000.0 -0.07585977454554932 -0.01265664580358097
1800000000.0 0.012400052304969286 0.11095525400690848
1820000000.0 -0.13667180319454045 0.035642599553234414
1840000000.0 0.14921096518668933 -0.0859510772187763
1860000000.0 -0.1972678957863728 0.029227975996206648
1880000000.0 -0.17301196122001683 0.15099198768876368
1900000000.0 -0.05685712140100368 0.2608535576542854
1920000000.0 0.2983585206566245 0.05791171541996735
1940000000.0 0.09169334160445212 -0.329876499956367
1960000000.0 -0.32859191543865035 0.1826238199163961
1980000000.0 0.39628610642192047 0.06278553187264718
2000000000.0 -0.058042404236121135 -0.41823271180009275
2020000000.0 -0.33887569628150993 0.27180986767002563
2040000000.0 0.22895814282847238 0.37442753095432657
2060000000.0 0.39959256304188306 -0.17859869486904037
2080000000.0 0.054764797604870005 -0.4268100834144784
2100000000.0 -0.09379499279038296 -0.4119513543381461
2120000000.0 -0.2265861842357163 -0.34415463997493845
2140000000.0 -0.3762020115240684 -0.13846732836818318
2160000000.0 -0.08880799093691795 -0.3752809306405668
2180000000.0 -0.22707472815043325 -0.29245630149262414
2200000000.0 -0.3018379520588751 -0.18989098825461806
2220000000.0 -0.342859669755976 -0.05985168587959116
2240000000.0 -0.273714935328108 0.20830087842004835
2260000000.0 -0.1391504586449624 0.31456932903432533
2280000000.0 0.06812137124199166 0.34276376144289805
2300000000.0 0.36287762684838876 -0.03525169343992754
2320000000.0 -0.08093028961081687 -0.38002049817877154
2340000000.0 -0.34984224265569597 0.23134361464843617
2360000000.0 0.4500631059297202 0.08691016219831067
2380000000.0 -0.4463479537534646 -0.23541850350407312
2400000000.0 0.43682984341314046 0.3425883207106925
2420000000.0 -0.5732344853069412 -0.2004666799145094
2440000000.0 0.6318195444899732 -0.17935376713614487
2460000000.0 -0.4407704509149377 0.5403347450413506
2480000000.0 0.1678279322972313 -0.7097256187092935
2500000000.0 -0.09173480818277666 0.7442797985936604
2520000000.0 0.21368078366964224 -0.7298349826525885
2540000000.0 -0.5262511417181572 0.5519380769454416
2560000000.0 0.742605948062761 -0.14289882388729178
2580000000.0 -0.5320501838318317 -0.5158906242206359
2600000000.0 -0.050625142919773256 0.7152543982867786
2620000000.0 0.559128718459168 -0.39749009691107245
2640000000.0 0.26213448302293907 -0.5936644620613147
2660000000.0 -0.5957164872400932 0.10501438766169378
2680000000.0 0.43152903353829625 0.3540719584738785
2700000000.0 -0.07842777565065034 -0.5066312783065365
2720000000.0 -0.21987473169115532 0.40975168175957316
2740000000.0 0.348297935923287 -0.23779205462379105
2760000000.0 -0.35625889879589334 0.1407366819013189
2780000000.0 0.2666570736597082 -0.23001149956238356
2800000000.0 -0.11323884757100318 0.30589044662114223
2820000000.0 -0.21108514118447239 -0.22398614910768863
2840000000.0 0.29558389172171096 -0.013580498698888062
2860000000.0 -0.18952873426371727 0.22120741358902374
2880000000.0 -0.012762388729290504 -0.29114840820230226
2900000000.0 0.0753536575784975 0.2832200025466584
2920000000.0 0.21190191788220514 -0.2101333792961674
2940000000.0 -0.2918282811157704 -0.09136701880557287
2960000000.0 -0.14953927894069888 0.2702975752009283
2980000000.0 -0.20738063248155927 0.23486906580490227
3000000000.0 -0.3166705127104887 0.019432284879161578
3020000000.0 -0.1493960832349133 -0.2803645504988832
3040000000.0 0.3055806521075573 -0.07589734772096755
3060000000.0 -0.1816801236215777 0.2531910825916123
3080000000.0 0.1528281035356207 -0.26534898366906584
3100000000.0 -0.07954538482933826 0.28976481572307916
3120000000.0 0.024441002629370934 -0.2904231349222046
3140000000.0 0.025494783127981493 0.2804211854479659
3160000000.0 -0.08989411464626586 -0.2519232213173684
3180000000.0 -0.186717981711326 0.1683170262756589
3200000000.0 -0.09194041358263665 -0.21109357794343955
3220000000.0 0.15685860683243458 -0.12956835717694296
3240000000.0 0.11578893719782021 0.12938746599029505
3260000000.0 -0.11344521560700298 -0.08105947609672774
3280000000.0 0.10061077131858388 0.03418529327077402
3300000000.0 -0.03681488395557842 -0.0664825324504458
3320000000.0 -0.02042883171189761 -0.04235716012066626
3340000000.0 -0.004075630045381642 0.022986734942008074
3360000000.0 -0.0014389624914360783 -0.005681172913828461
3380000000.0 0.0014609868509353854 -0.009732195997981828
3400000000.0 0.006538148161670183 -0.02054058963379897
3420000000.0 -0.0017412247336599726 0.03468706395778478
3440000000.0 -0.046841292100506735 -0.003724684648329012
3460000000.0 -0.05108995810730122 -0.023550040222844525
3480000000.0 0.009772633374932543 -0.06799574335511067
3500000000.0 -0.07297400411074567 -0.038105564073798934
3520000000.0 -0.0028839000276661957 0.0967934847295544
3540000000.0 0.012579928633059468 -0.11012704044276382
3560000000.0 0.0016628082991402891 0.12393793090110335
3580000000.0 0.004389678349701785 -0.13805432418819924
3600000000.0 0.15470963887992212 0.028437097556264862
3620000000.0 0.10992843684718993 0.12853475350664556
3640000000.0 -0.11344091064530376 0.13985406370859038
3660000000.0 -0.17141561275943024 0.08062448244730328
3680000000.0 -0.1652095361968217 -0.10062082325909197
3700000000.0 -0.0560749098342405 -0.18475756777164948
3720000000.0 0.13300377269450328 -0.14179808970727426
3740000000.0 0.18356787075950615 -0.04990736354158204
3760000000.0 -0.1530153821870953 0.10169268723269204
3780000000.0 0.10960304271506274 -0.13424412597555524
3800000000.0 -0.10031787065215308 -0.12853942648621974
3820000000.0 -0.15110848015417158 -0.03251988662854054
3840000000.0 0.044156420474646296 -0.14074110100119222
3860000000.0 0.03832706798300389 0.14325593606040635
3880000000.0 -0.013950290289715107 0.1555128888221145
3900000000.0 0.157360781458288 -0.03519559116685685
3920000000.0 -0.16748523829471587 -0.0012876912060088733
3940000000.0 0.10103542845916756 -0.13947694006202513
3960000000.0 0.1708007848003191 -0.03601981591542533
3980000000.0 0.04870650245477975 -0.16659987705028842
4000000000.0 -0.011226596057688243 -0.1655651215845011
