! Created with skrf (http://scikit-rf.org).
# Hz S RI R 50.0 
!freq ReS11 ImS11
400000000.0 0.23474206601259076 0.8395651899548411
420000000.0 0.6209138927101263 0.5920838309160905
440000000.0 0.8061177161180653 -0.1701536701785127
460000000.0 0.255007372986844 -0.7421553742964709
480000000.0 0.6968583688678679 0.04111917281900768
500000000.0 0.5311688980153234 0.21233081414412244
520000000.0 0.36772046078142373 -0.33879024244483996
540000000.0 0.4162832080536741 0.14251921582720106
560000000.0 -0.3641717494472179 -0.027293073864940797
580000000.0 -0.03696760142291948 0.3435412221548722
600000000.0 0.24691681008348787 -0.23811317549676192
620000000.0 -0.28734310358030235 0.21153873423236838
640000000.0 -0.058727485197959554 0.37710062657816495
660000000.0 0.06901009933622007 0.3925318751409399
680000000.0 -0.4203753189318099 -0.06697107868115375
700000000.0 0.4221782501636887 0.13951574721056045
720000000.0 -0.2908448791671512 -0.33769679809292213
740000000.0 0.21063695522031034 -0.38032489531487856
760000000.0 -0.3732861751390534 0.17217906900609645
780000000.0 -0.019257727546028093 -0.369929283477936
800000000.0 -0.19215765617096286 0.2718370477271059
820000000.0 -0.007369613955796461 -0.2758019024689568
840000000.0 0.17030483246862835 -0.1559676786322271
860000000.0 0.07629093928651919 0.18670433848595588
880000000.0 0.14470155635554285 0.02166098927731939
900000000.0 -0.05582975583180298 -0.07274891893905754
920000000.0 0.056691835214737675 -0.02783805080743868
940000000.0 -0.031000507424512058 0.02931461757141355
960000000.0 -0.033552500024067226 0.036803673743539884
980000000.0 -0.019005097084454924 0.06833757243637739
1000000000.0 0.07982055322388817 -0.024662013419395588
1020000000.0 0.07608135335874872 -0.06773900437901811
1040000000.0 -0.056893959818659946 0.0931182686162804
1060000000.0 0.08613483048038505 -0.10629791044653973
1080000000.0 -0.13921530142028354 0.04444262472137859
1100000000.0 0.017440679965610568 -0.1656498669769791
1120000000.0 0.18394588424496824 -0.058796008639889194
1140000000.0 -0.049425750736192306 -0.2321106568879855
1160000000.0 -0.23336012034077908 -0.15924216353748397
1180000000.0 -0.2720642417795269 0.18054477636241642
1200000000.0 -0.16203763235082191 0.3188836866277509
1220000000.0 -0.2294914590419281 -0.3051759378122487
1240000000.0 0.3574735947071647 0.18494990846489828
1260000000.0 -0.20336163041557756 -0.37215890457031464
1280000000.0 -0.04621094814002731 0.43482681944371676
1300000000.0 0.4249258777418819 -0.13402059862646742
1320000000.0 -0.18153367740225518 -0.4012717263827723
1340000000.0 -0.11187042905333383 -0.4191333573801628
1360000000.0 0.096783129818923 -0.4164685590033746
1380000000.0 -0.11933207206989392 -0.40947480350894006
1400000000.0 -0.39070766863649486 -0.12985124928453787
1420000000.0 -0.2658047075129369 0.2905922864966685
1440000000.0 -0.066784943617315 0.36489250301388776
1460000000.0 0.24131209163733428 0.25015143834494136
1480000000.0 0.2848862879448277 -0.15260801563652157
1500000000.0 -0.2511251721028073 -0.15739320948525803
1520000000.0 -0.10929435574186863 0.24759887122366903
1540000000.0 -0.23635277757131187 0.03501416940545783
1560000000.0 -0.18745662911853161 -0.07234929430304211
1580000000.0 -0.028501493290921345 -0.16654436756377164
1600000000.0 -0.1351705580892215 -0.001498058129841051
1620000000.0 -0.05856422809396706 -0.08367891627208404
1640000000.0 0.02944311754309305 0.0746924187382886
1660000000.0 0.012035992780657163 0.05736978706501904
1680000000.0 -0.027875649245541614 -0.023796102693758998
1700000000.0 0.01998695567417544 -0.0022869312029205014
1720000000.0 -0.00034058265507998334 0.004157688135818742
1740000000.0 0.015218867195497206 -0.01352691465655023
1760000000.0 -0.032443721117158736 -0.027277529763815308
1780000000.0 0.03114457283446566 -0.06805520294298081
1800000000.0 -0.10369578276317708 0.03906109138133749
1820000000.0 -0.11793333809012076 -0.0764218640209687
1840000000.0 0.16820958155074398 -0.03686305320483212
1860000000.0 -0.19828975089573417 0.018190907151041463
1880000000.0 -0.1049163623514529 0.20283603547611037
1900000000.0 0.02693609026100596 0.2635659540362334
1920000000.0 0.3019653439749395 -0.006157047806660894
1940000000.0 0.06278693485439633 -0.3351955006177272
1960000000.0 -0.3292649569709723 0.18067658957088026
1980000000.0 0.39992076777402275 0.036802909794402996
2000000000.0 -0.08601783851621794 -0.41414685606835566
2020000000.0 -0.3146009513697489 0.30090835184954967
2040000000.0 0.23813973041862357 0.3702874352372126
2060000000.0 0.3961689319783111 -0.18921908515588873
2080000000.0 0.12384404270616647 -0.41408914711844136
2100000000.0 -0.033350812551099875 -0.42274933272048726
2120000000.0 -0.16855386859816546 -0.3779147147922317
2140000000.0 -0.3664198538184158 -0.16531929909271106
2160000000.0 0.012613278155985423 -0.3870202329672698
2180000000.0 -0.12732576091810913 -0.34840654791891196
2200000000.0 -0.22235809879770735 -0.28032389229650573
2220000000.0 -0.3054231627378983 -0.16763806084496102
2240000000.0 -0.3212890194091925 0.12355431545435436
2260000000.0 -0.20474115244691893 0.27692324726061696
2280000000.0 -0.04528059560109633 0.3471688844425179
2300000000.0 0.3624469459460966 0.04211593662428125
2320000000.0 0.011240485575123622 -0.38822386369006306
2340000000.0 -0.36648315138677345 0.20317330082659057
2360000000.0 0.43909273686688594 0.12961528740824377
2380000000.0 -0.4222152940862069 -0.27498751141270816
2400000000.0 0.4143809103822511 0.3686292485528233
2420000000.0 -0.567158578673963 -0.21610861758166983
2440000000.0 0.6286412297408983 -0.19018262696886276
2460000000.0 -0.40179799175055725 0.5708636308211247
2480000000.0 0.07421949788431016 -0.726104994623617
2500000000.0 -0.021432870555711345 0.7509418060572739
2520000000.0 0.15459550680029574 -0.746239696403353
2540000000.0 -0.507789930821425 0.5713940444146427
2560000000.0 0.7456841512206346 -0.13986381928680597
2580000000.0 -0.4699588763380949 -0.5772444746940223
2600000000.0 -0.10702129888202505 0.7124114320024486
2620000000.0 0.6267431878058143 -0.2900743125942015
2640000000.0 0.40046968376879355 -0.5155729594101155
2660000000.0 -0.6088368502746471 -0.016029405610424055
2680000000.0 0.33476002976301333 0.45094233744517703
2700000000.0 0.07191351794648426 -0.5104837927617781
2720000000.0 -0.32635164758285545 0.33491601298989515
2740000000.0 0.3952640978238282 -0.1534359018069407
2760000000.0 -0.3805459840236713 0.05517938439303048
2780000000.0 0.2975577697436625 -0.19054967678915155
2800000000.0 -0.15692035682950417 0.2873111255510695
2820000000.0 -0.18243831258956758 -0.24873662110798922
2840000000.0 0.2953510904236838 -0.018209879375193225
2860000000.0 -0.1828257368370127 0.22756022365113093
2880000000.0 -0.007045442545315575 -0.29179369049232445
2900000000.0 0.07224699748986478 0.28575839729512437
2920000000.0 0.1930392954230882 -0.22987788997903474
2940000000.0 -0.2967018133119419 -0.08015052024004259
2960000000.0 -0.19946148874293468 0.23865745172725172
2980000000.0 -0.239541421746015 0.20445576214660185
3000000000.0 -0.3171903451158019 -0.021908614123196907
3020000000.0 -0.08190818694842432 -0.30738244776709617
3040000000.0 0.3149794830383039 -0.02104388746413107
3060000000.0 -0.28316543635691643 0.13175489310282804
3080000000.0 0.22612688959903723 -0.2073539317144805
3100000000.0 -0.1413614030900647 0.26489194965710344
3120000000.0 0.09944604275462628 -0.2746546679035965
3140000000.0 -0.06161527436327237 0.2745269481720516
3160000000.0 -0.06010921965066735 -0.2598973498534742
3180000000.0 -0.20413134281360792 0.14434560370044952
3200000000.0 -0.09571797300259366 -0.20824111858485678
3220000000.0 0.1277410890864491 -0.15747665203672684
3240000000.0 0.14669108209233467 0.08965030798956532
3260000000.0 -0.1357080721631748 0.024640420694964117
3280000000.0 0.07496599282406942 -0.07414821548144723
3300000000.0 -0.038105969143252705 0.064784216476263
3320000000.0 0.04480354174383217 0.011036878932427368
3340000000.0 0.02136876989012322 0.004754200064647424
3360000000.0 -0.004104464294808893 0.0009009337679626093
3380000000.0 -0.009921494148189883 0.0009554159194225522
3400000000.0 0.015566243230808003 -0.01632920913028561
3420000000.0 -0.014113892109460322 0.032164619213112165
3440000000.0 0.03422479924059485 0.03218122412318594
3460000000.0 0.05535086360806487 0.011700501612949422
3480000000.0 0.03423114565127469 0.05973458799542635
3500000000.0 0.06247918334624264 -0.054031967371985005
3520000000.0 -0.09475043228992285 -0.022863500901984204
3540000000.0 0.11074994780696125 -0.0008655853134767246
3560000000.0 -0.11793382046328398 0.03865136796889309
3580000000.0 0.12626206145948954 -0.055130676969719766
3600000000.0 0.028612050691489404 0.153557075149876
3620000000.0 -0.04313690505620814 0.16286797767591893
3640000000.0 -0.17551882623698248 0.03519977658922812
3660000000.0 -0.179300280490321 -0.05730950900440462
3680000000.0 -0.09403719597078637 -0.1681553951060838
3700000000.0 0.05898416724175608 -0.18322212320107312
3720000000.0 0.18897325033585144 -0.032450758839139865
3740000000.0 0.18330602052895958 0.04326442079165252
3760000000.0 -0.18026886067374068 0.022335651445292024
3780000000.0 0.15178184170531087 -0.07763031038859103
3800000000.0 -0.044089893684294446 -0.15400420676953003
3820000000.0 -0.12080680582111217 -0.09035771874175756
3840000000.0 0.0932612376777245 -0.11071859955179374
3860000000.0 -0.03762091804020198 0.14071753937297862
3880000000.0 -0.03797306233498094 0.14813201279156457
3900000000.0 0.15358723261636925 0.03888804021368097
3920000000.0 -0.14547133415584607 -0.07857195726320779
3940000000.0 0.1426836148199821 -0.09188993192149941
3960000000.0 0.16727499266439316 0.042516437563926764
3980000000.0 0.1475874703096863 -0.0874794763566328
4000000000.0 0.14672126822447853 -0.07359164074605275
