! Created with skrf (http://scikit-rf.org).
# Hz S RI R 50.0 
!freq ReS11 ImS11
400000000.0 0.25813650027614593 0.8324221236117179
420000000.0 0.638282063512634 0.5736258154664946
440000000.0 0.7719487364243709 -0.28538884894362937
460000000.0 0.19533548949253235 -0.7586016571512723
480000000.0 0.6980500378774187 -0.002145739079235795
500000000.0 0.5446944591057914 0.17381959876007683
520000000.0 0.36598170496458216 -0.3403539468932031
540000000.0 0.3949227857743891 0.19342436758370274
560000000.0 -0.3496455526348169 -0.10805120154978215
580000000.0 -0.016085221884306333 0.34608937043972215
600000000.0 0.24151815738267174 -0.2422191351986566
620000000.0 -0.2776376111570183 0.22398918075808344
640000000.0 -0.005800119566684592 0.38231702638931975
660000000.0 0.17422403950617593 0.35837979467464026
680000000.0 -0.4258350021607746 -0.005072708404179762
700000000.0 0.43143256845903427 0.10539331939859668
720000000.0 -0.3106960034550431 -0.31996202626092163
740000000.0 0.20597114433486338 -0.3822313509129607
760000000.0 -0.3794313090574838 0.16039358277945176
780000000.0 -0.03227619230130154 -0.3691826447592566
800000000.0 -0.2066668311304488 0.26003247679374675
820000000.0 0.04532392401830256 -0.2718418790154699
840000000.0 0.16616571957275666 -0.16058657320252162
860000000.0 0.08332840080058042 0.1836503679740656
880000000.0 0.13838841703376578 0.04717772477286568
900000000.0 -0.033885742569111005 -0.08561634725222875
920000000.0 0.06195943875403 -0.009987470068298516
940000000.0 -0.01528336370173249 0.03987109010894686
960000000.0 -0.0020564912094376206 0.050740464993810304
980000000.0 -0.02122633849571378 0.06914443635010843
1000000000.0 0.08374179719017355 0.014679288466696538
1020000000.0 0.08552642789999798 -0.058350714898199076
1040000000.0 -0.04366953053103527 0.10091799732450503
1060000000.0 0.06294608582153027 -0.1215131557460281
1080000000.0 -0.0945706576749639 0.10990603054433616
1100000000.0 -0.017333577677731454 -0.16354111567794374
1120000000.0 0.17619395993805392 -0.07484892131397392
1140000000.0 -0.03389086441655904 -0.23312942027197528
1160000000.0 -0.22538195578130846 -0.17067739549985161
1180000000.0 -0.23990990813196955 0.222701511055018
1200000000.0 -0.09139419570051102 0.34695476030787825
1220000000.0 -0.33046663549289557 -0.1927809271350011
1240000000.0 0.39230134609635003 0.09191617585445877
1260000000.0 -0.26002881706657793 -0.335417297870878
1280000000.0 -0.013764569778197046 0.43762860949081034
1300000000.0 0.42203498348533275 -0.14341682184361956
1320000000.0 -0.17644429430894656 -0.40428102670787913
1340000000.0 -0.09550018172818918 -0.4238382194511799
1360000000.0 0.1163780531129342 -0.4113395200527942
1380000000.0 -0.08540860456213228 -0.41738053709698103
1400000000.0 -0.37040681879672366 -0.1780345733581032
1420000000.0 -0.3047796297147188 0.2483785542036738
1440000000.0 -0.09389526257822561 0.3583319233347412
1460000000.0 0.2442681969515421 0.24615231694222095
1480000000.0 0.2622852227583854 -0.1873487200899999
1500000000.0 -0.2791476629956004 -0.0975445915165756
1520000000.0 -0.07047420238700919 0.2598541155586934
1540000000.0 -0.22869249563831642 0.06414823837487384
1560000000.0 -0.19388737309983892 -0.04826819305680994
1580000000.0 -0.07476488752764945 -0.1505281714429181
1600000000.0 -0.12418352516370201 0.05177671705399223
1620000000.0 -0.07533402553279467 -0.06903624536353782
1640000000.0 0.06506863019264304 0.048856588232268044
1660000000.0 0.05309960264895198 0.027800699862912073
1680000000.0 -0.03905041594874169 0.004624353679153721
1700000000.0 0.009757439227757543 -0.019180208941424488
1720000000.0 0.0005150864790216974 0.00343892103536983
1740000000.0 -0.013556484389452637 -0.015406245920497693
1760000000.0 0.014839981749456867 0.04081823359048237
1780000000.0 -0.07166878017795676 -0.028145355571447074
1800000000.0 0.02184801594059068 0.10989443839778126
1820000000.0 -0.13840186073156957 0.02515823433893348
1840000000.0 0.1517061772554447 -0.08104701859752585
1860000000.0 -0.19722090083726154 0.028648700979047415
1880000000.0 -0.1672501268406834 0.15701696106250498
1900000000.0 -0.055029965832204944 0.26105564860107655
1920000000.0 0.299232757485468 0.052574872887401175
1940000000.0 0.0886124336625648 -0.33068285089797217
1960000000.0 -0.32564895295889834 0.18785707370658591
1980000000.0 0.3954015421219453 0.06894546826921114
2000000000.0 -0.05601896467287839 -0.41856389808465116
2020000000.0 -0.3359544815056302 0.27557276239494005
2040000000.0 0.2271559568505338 0.37577751153873634
2060000000.0 0.40109611198426326 -0.1759033683425544
2080000000.0 0.06164390131813277 -0.42616313881436135
2100000000.0 -0.0888253897465797 -0.41337040295584715
2120000000.0 -0.2013795847992925 -0.3599640049889441
2140000000.0 -0.37704788964050023 -0.13605958352183997
2160000000.0 -0.08173053842372821 -0.37698688504488925
2180000000.0 -0.1928169363588415 -0.31625130246100597
2200000000.0 -0.2914130780284022 -0.20576420215568839
2220000000.0 -0.32430576070252465 -0.12620479549334385
2240000000.0 -0.28639168384372476 0.19041069038580732
2260000000.0 -0.13808561918384896 0.31532065388416897
2280000000.0 0.051587973399846485 0.34561228827485124
2300000000.0 0.3636071129172906 -0.02550705278527343
2320000000.0 -0.07921888335830045 -0.38030118366888205
2340000000.0 -0.343356808214073 0.24096306477266535
2360000000.0 0.4508377500707294 0.08253986962178053
2380000000.0 -0.4491695694086834 -0.23017483723435497
2400000000.0 0.4400097564817716 0.3387090250880619
2420000000.0 -0.5751988834904853 -0.19484942870017263
2440000000.0 0.6343885242522723 -0.17009158857638776
2460000000.0 -0.425590711038084 0.5526474026888795
2480000000.0 0.1021184153115952 -0.721809149245114
2500000000.0 -0.13234195676070987 0.7385311994849343
2520000000.0 0.2243416358320988 -0.7270739847427116
2540000000.0 -0.4965950789855573 0.5786950223136403
2560000000.0 0.7453682245423872 -0.12997801633095987
2580000000.0 -0.5366349204384059 -0.5112023975015679
2600000000.0 -0.04067641346123921 0.7159471538324678
2620000000.0 0.5852493033205826 -0.3581904673355772
2640000000.0 0.33694608928371816 -0.5544665633183558
2660000000.0 -0.5979825173801283 0.09022900410232532
2680000000.0 0.42009785597430294 0.36727638916556354
2700000000.0 -0.07935502048502853 -0.5062905241975088
2720000000.0 -0.22773197686720295 0.4051656324130468
2740000000.0 0.3644934176262848 -0.21167228834600435
2760000000.0 -0.35820187338126924 0.13591469465307565
2780000000.0 0.26940944277667705 -0.22658819569172187
2800000000.0 -0.1061508834825809 0.3083521754786491
2820000000.0 -0.21921459229511397 -0.21607656811993944
2840000000.0 0.2917627485508204 -0.04591567954603465
2860000000.0 -0.18728455251764 0.2234480961252547
2880000000.0 -0.009471838977273944 -0.2912330316282817
2900000000.0 0.051849740632438475 0.28902889932919257
2920000000.0 0.2085489987208836 -0.21366403551995394
2940000000.0 -0.2797250578959778 -0.12384548225696873
2960000000.0 -0.17891626538321492 0.25188041104692777
2980000000.0 -0.22203344707380215 0.22155642408134946
3000000000.0 -0.31644090095130994 0.019483270156737603
3020000000.0 -0.11697558139804862 -0.29529459053989615
3040000000.0 0.310600027768001 -0.050645527149556877
3060000000.0 -0.18492603462508295 0.2510497860162726
3080000000.0 0.13910524424350673 -0.2726559405841948
3100000000.0 -0.10081902064862136 0.2826660703337632
3120000000.0 0.01772604244801418 -0.2910041952640915
3140000000.0 0.061806668970976544 0.2750290695795648
3160000000.0 -0.0976112284542003 -0.24876673871652974
3180000000.0 -0.18710874242787043 0.1677783330603995
3200000000.0 -0.10168631759557256 -0.2064479620249446
3220000000.0 0.15124090348295602 -0.135381718620501
3240000000.0 0.12336178493234641 0.12132019060041925
3260000000.0 -0.1185558760968174 -0.07298414756436467
3280000000.0 0.10310456715319408 0.024689625625146313
3300000000.0 -0.038044886080752766 -0.0656866301532343
3320000000.0 -0.042210210805226994 -0.020599496967922844
3340000000.0 0.006351149572809201 0.02205030144241184
3360000000.0 -0.0032253071159157893 0.0043976477562610704
3380000000.0 -0.009267230003138989 0.0032449345422950215
3400000000.0 0.02155257031019912 0.002806428641131397
3420000000.0 -0.03287559621220754 0.01036724346425588
3440000000.0 -0.040604665064015236 -0.023951753468796484
3460000000.0 -0.03122751347310985 -0.047009270627280726
3480000000.0 0.02196397912315357 -0.06550049270216413
3500000000.0 -0.04859498233116762 -0.06623587020259258
3520000000.0 -0.03435275169296809 0.09065488615534611
3540000000.0 0.028962923374451176 -0.10702844340394069
3560000000.0 0.0036715672593860414 0.12440144139171797
3580000000.0 0.005965344990037871 -0.13811063993987838
3600000000.0 0.1353137853616476 0.07914749826895515
3620000000.0 0.11016850328534197 0.12922969220982866
3640000000.0 -0.12394461931593133 0.13035051479998827
3660000000.0 -0.17989991116975915 0.05762735908945192
3680000000.0 -0.15033096606751092 -0.12137804222071016
3700000000.0 -0.03842063723990244 -0.18923613499985942
3720000000.0 0.14419418287640018 -0.12991412863765064
3740000000.0 0.187464752987399 -0.03013141307645548
3760000000.0 -0.1676992897964984 0.07576797470066444
3780000000.0 0.1345820069662788 -0.10963915306706265
3800000000.0 -0.09131456093744664 -0.1347049797175643
3820000000.0 -0.1463008745326377 -0.04885933854573357
3840000000.0 0.05579728751521139 -0.13591072670229884
3860000000.0 0.030466275137341348 0.14474419774609557
3880000000.0 -0.026098084216127887 0.15340705458153794
3900000000.0 0.16043151755502 -0.012809661922272196
3920000000.0 -0.1658801658066148 -0.020714754961246026
3940000000.0 0.11194117237659607 -0.1309957058481985
3960000000.0 0.173905052773777 -0.0080253473378869
3980000000.0 0.051688966910499505 -0.16530575070951065
4000000000.0 -0.011522858509804348 -0.16494511708651183
