! Created with skrf (http://scikit-rf.org).
# Hz S RI R 50.0 
!freq ReS11 ImS11
400000000.0 0.20455200651553682 0.8453359110802781
420000000.0 0.5641853317310584 0.6462680407623339
440000000.0 0.7965315456969049 -0.20780191859448235
460000000.0 0.1391451827218388 -0.7727277372293626
480000000.0 0.6936820976167418 0.07075946130834987
500000000.0 0.5324002008562194 0.20912300689388186
520000000.0 0.3462697510456997 -0.3636227117677657
540000000.0 0.4322124817020842 0.06885183882992894
560000000.0 -0.3628895584528824 -0.05591887676706721
580000000.0 -0.11796711212781823 0.32341253396750297
600000000.0 0.15836602926357435 -0.3059779265731238
620000000.0 -0.31515525683925183 0.16540457217289561
640000000.0 -0.059578377304241 0.37635724924572456
660000000.0 0.1519532259933413 0.3688889660673193
680000000.0 -0.4052215522345062 -0.13028471930510727
700000000.0 0.4368174905829446 0.08060879562345002
720000000.0 -0.20454974516205673 -0.39665474159769526
740000000.0 0.18589816492622435 -0.3920861083910159
760000000.0 -0.3778395820186102 0.16138461577238883
780000000.0 -0.0038138297598663312 -0.3708161414045843
800000000.0 -0.15872330943325463 0.2924637887178067
820000000.0 0.02673019525440816 -0.27510943764596546
840000000.0 0.1784165670460248 -0.14661222300452753
860000000.0 0.053889434559119806 0.19444595310748616
880000000.0 0.1443233083195954 0.02220183310290212
900000000.0 -0.06973229173138139 -0.05962600368302625
920000000.0 0.06259920404820708 0.004887051815522742
940000000.0 -0.02742467375794506 0.033308990390910696
960000000.0 -0.029671825750380635 0.039871676600667164
980000000.0 -0.011228376647662736 0.0695721840835703
1000000000.0 0.08393458864006521 -0.010277284110988416
1020000000.0 0.06908920702058612 -0.07433752373882142
1040000000.0 -0.07852789074741945 0.0760554648347825
1060000000.0 0.07873348832748066 -0.11193386058387836
1080000000.0 -0.13805130212655128 0.0470350095676868
1100000000.0 0.012253617507907762 -0.16554941380931373
1120000000.0 0.1825385288639529 -0.0624900754617684
1140000000.0 -0.03085693164085431 -0.2348708841377739
1160000000.0 -0.2424231689618207 -0.14452064957169908
1180000000.0 -0.2607075774108906 0.19756441937664107
1200000000.0 -0.14626126666641626 0.3270446891954327
1220000000.0 -0.24511496271115008 -0.2931702675211411
1240000000.0 0.3559088518916886 0.1883982643683677
1260000000.0 -0.19033391530008645 -0.3793861969569188
1280000000.0 -0.055675426594383993 0.43378182245285685
1300000000.0 0.42605005899214277 -0.13061489420770475
1320000000.0 -0.16744681655281463 -0.4076333996804669
1340000000.0 -0.08733048629081958 -0.42468176151601245
1360000000.0 0.1058581121041679 -0.41455734687723633
1380000000.0 -0.11773805330933831 -0.4095448674549171
1400000000.0 -0.39151152878280887 -0.12717108231249835
1420000000.0 -0.26113841386662845 0.2943488610239545
1440000000.0 -0.06487142547862174 0.36505512877027474
1460000000.0 0.2548399693432101 0.2354296372440144
1480000000.0 0.23892763960897936 -0.21686693941896257
1500000000.0 -0.26094573680605 -0.14062832005181922
1520000000.0 -0.06294563331883384 0.26266087455807224
1540000000.0 -0.23661711137546698 0.03229029003043202
1560000000.0 -0.1844607444939259 -0.08116531505369323
1580000000.0 -0.04990540114615306 -0.16137010467833637
1600000000.0 -0.13482396732244567 -0.01133641542089487
1620000000.0 -0.02970085214036037 -0.09748580775130224
1640000000.0 0.006201004550677762 0.08002852601058559
1660000000.0 0.004771089981262295 0.05811626629076291
1680000000.0 -0.03683260315448143 -0.005136734251009342
1700000000.0 0.0052441100560315194 -0.019332132251622818
1720000000.0 -0.003318649584933178 -0.00247559489854045
1740000000.0 0.016989229582132018 -0.01148031852879185
1760000000.0 0.0075793182592158006 -0.04171945355358354
1780000000.0 0.034225520100733015 -0.06687367360722371
1800000000.0 -0.09697432623263803 0.05410831769991039
1820000000.0 -0.11893168318674872 -0.07389241417011388
1840000000.0 0.16602905518208214 -0.045732266314693466
1860000000.0 -0.1963351084984066 0.031038181553533974
1880000000.0 -0.09542170523475553 0.20734211021470336
1900000000.0 0.034935928939898234 0.2624386362351626
1920000000.0 0.30196064226381375 -0.01103776184561276
1940000000.0 0.05044263878668416 -0.33739475032864247
1960000000.0 -0.3222381203806327 0.19327207425819737
1980000000.0 0.39968452645733127 0.04049600259701838
2000000000.0 -0.10060504276162203 -0.4109928605617977
2020000000.0 -0.32391699969719057 0.2908293023751539
2040000000.0 0.19720677870675288 0.394097029250061
2060000000.0 0.40147963411533094 -0.17790173910764262
2080000000.0 0.11943712441681821 -0.41523359703721574
2100000000.0 -0.03968823860479574 -0.4219899833920287
2120000000.0 -0.16497605716892158 -0.3792735418318519
2140000000.0 -0.34815089865861404 -0.20097686130453385
2160000000.0 0.03313658709288297 -0.3856137990190777
2180000000.0 -0.1087860065439305 -0.3543876057848273
2200000000.0 -0.22634901244123 -0.2766737820934235
2220000000.0 -0.2898612986132941 -0.19360206016799697
2240000000.0 -0.3110787984617634 0.14663645165332762
2260000000.0 -0.19311072971297283 0.28479905023644836
2280000000.0 -0.01768375308867023 0.3495932200158062
2300000000.0 0.36333387899245556 0.032135753798984486
2320000000.0 0.002108360504930269 -0.3882013667826835
2340000000.0 -0.3656622821638672 0.20473416551826984
2360000000.0 0.4420365176188514 0.12037657171002993
2380000000.0 -0.42874473659503565 -0.2654200216701697
2400000000.0 0.40934189448858327 0.3743876339749972
2420000000.0 -0.5640873802280084 -0.2245409962590991
2440000000.0 0.6381443650481788 -0.15595771254137325
2460000000.0 -0.41729439153774084 0.5593851270030258
2480000000.0 0.07888883644669785 -0.7253777173979644
2500000000.0 -0.08027500337729732 0.7467441039776723
2520000000.0 0.1959549910326628 -0.7365223463060495
2540000000.0 -0.5121750567131009 0.5670791839763395
2560000000.0 0.7471249384430376 -0.13104694656110852
2580000000.0 -0.4959672065610463 -0.5548661895734062
2600000000.0 -0.10572058931950913 0.712512200705882
2620000000.0 0.6286147337987618 -0.285570322772004
2640000000.0 0.39398337977760717 -0.5206697559273965
2660000000.0 -0.6080192930149334 0.03550524703412091
2680000000.0 0.2926540781013891 0.47937889043304727
2700000000.0 0.07616204733804872 -0.5100350326650744
2720000000.0 -0.3148225472319435 0.3461763531510363
2740000000.0 0.4022299374600853 -0.13461848879700003
2760000000.0 -0.38298407693129327 0.03698077107381418
2780000000.0 0.3067129262607576 -0.17582975989246236
2800000000.0 -0.16609613867064654 0.2820767193829819
2820000000.0 -0.16642363763638926 -0.25998538984301656
2840000000.0 0.2955357173530464 0.019496427781899275
2860000000.0 -0.20613559979916476 0.20686289250760087
2880000000.0 -0.005730610254555991 -0.29156963002388486
2900000000.0 0.07236536592565351 0.2853441917493714
2920000000.0 0.19680346087899803 -0.22619910783205646
2940000000.0 -0.29072870869514883 -0.10031251900445565
2960000000.0 -0.20480735114262702 0.23418662594256529
2980000000.0 -0.2442278573055572 0.19899104969841228
3000000000.0 -0.3170810274606797 -0.01602094076800927
3020000000.0 -0.12229319777192155 -0.29392912740242577
3040000000.0 0.3151690818871675 0.020851341761547293
3060000000.0 -0.2826847495711411 0.13291257221332403
3080000000.0 0.23155615667571017 -0.2016186028390571
3100000000.0 -0.19717009540219055 0.22639261311989237
3120000000.0 0.13047455360160182 -0.2610856605594617
3140000000.0 -0.04079215138322927 0.27867186634606755
3160000000.0 -0.03822632609642971 -0.26403013698815697
3180000000.0 -0.2055385928548431 0.1429114541489952
3200000000.0 -0.0902236668961965 -0.21036223948384297
3220000000.0 0.13672707470411474 -0.1496272982582438
3240000000.0 0.1423270457444179 0.09626542007419248
3260000000.0 -0.1354822056730587 0.02462795395191698
3280000000.0 0.08284913208716334 -0.06454843647183056
3300000000.0 -0.05006476804271491 0.05568244694481855
3320000000.0 0.04536075690565924 0.006525276173391456
3340000000.0 0.021083556643345637 0.005093131888322177
3360000000.0 0.0026930317067594962 0.0027155015499843362
3380000000.0 -0.008769625858170236 -0.005310624658629226
3400000000.0 0.004574026643988473 0.02172615761096952
3420000000.0 -0.025342622150272557 0.024390188530989444
3440000000.0 0.029643418265048908 0.03682064799828654
3460000000.0 0.04352761716527807 0.03594026152491678
3480000000.0 -0.0001747469263283942 0.06850732142531976
3500000000.0 0.0683334091371439 -0.04609916936520125
3520000000.0 -0.0923403428953159 -0.03014437355364849
3540000000.0 0.11081750044276223 -0.008878788902441558
3560000000.0 -0.11761005833862273 0.03976580023311824
3580000000.0 0.1296509647088389 -0.04597416131054708
3600000000.0 0.02466828057029483 0.15415214865520277
3620000000.0 -0.028247672406012093 0.16618818377586403
3640000000.0 -0.177473584634474 0.019719424105447306
3660000000.0 -0.175598001376412 -0.0667205723158551
3680000000.0 -0.09503250133037891 -0.16761651371826128
3700000000.0 0.055915694476966774 -0.184043638878264
3720000000.0 0.1898275193607459 -0.026959012181561402
3740000000.0 0.18653452529090392 0.025626755915358453
3760000000.0 -0.17617240634049222 0.041410567524089816
3780000000.0 0.14374717149482844 -0.09191563189938151
3800000000.0 -0.048511629423397304 -0.15294390569937882
3820000000.0 -0.12206274603386541 -0.08984359353072713
3840000000.0 0.0921074176952418 -0.11200245404060645
3860000000.0 -0.004016456798254867 0.14566949539388235
3880000000.0 -0.020416064738136015 0.15179717403349846
3900000000.0 0.15814235559594728 0.0032791129496739266
3920000000.0 -0.14837869857986333 -0.07277710915476503
3940000000.0 0.12412539408295671 -0.11603607222022823
3960000000.0 0.17214009387150944 0.009169531302587726
3980000000.0 0.10837062114466449 -0.13301729412162044
4000000000.0 0.07956254768811885 -0.143719739351907
