! Created with skrf (http://scikit-rf.org).
# Hz S RI R 50.0 
!freq ReS11 ImS11
400000000.0 0.2683291761445533 0.8297140055013879
420000000.0 0.6405106344649667 0.5717067898195928
440000000.0 0.7704225327606804 -0.2919176330269006
460000000.0 0.21276144752405313 -0.7557356538560085
480000000.0 0.698042026486513 0.02375230854264773
500000000.0 0.5352381122733915 0.19939272585230527
520000000.0 0.39524700620043784 -0.30616122513266947
540000000.0 0.38791339305198586 0.2073351452041367
560000000.0 -0.3419020698175644 -0.1296977252123252
580000000.0 -0.03316829856485129 0.3446898716247282
600000000.0 0.24444839301993113 -0.24140122006369336
620000000.0 -0.2724943146600034 0.2315515231399563
640000000.0 -0.009728359033867316 0.3832297818707396
660000000.0 0.09905715280517777 0.3867811103391518
680000000.0 -0.42349700219766545 -0.04530932698971087
700000000.0 0.431486170952804 0.1041720357720148
720000000.0 -0.2930319211763171 -0.33531302761627757
740000000.0 0.18463684666657795 -0.3931003141016605
760000000.0 -0.37615149203612425 0.16592473666290128
780000000.0 -0.03774559222592275 -0.36839106201887156
800000000.0 -0.19544780511035387 0.26864893957333663
820000000.0 0.00771963370187538 -0.275317998152752
840000000.0 0.17396813989382948 -0.15232373294292165
860000000.0 0.07643538472655045 0.18645949280605675
880000000.0 0.13163514054807934 0.06453656531333894
900000000.0 -0.033787777488761356 -0.08594557416314942
920000000.0 0.06244601523457669 -0.011210125161740149
940000000.0 -0.0416141597619187 -0.010018416440408469
960000000.0 -0.04092524762648476 0.02906536216813944
980000000.0 -0.00534114173775826 0.07146376954999109
1000000000.0 0.08326901796741484 -0.016262117486541217
1020000000.0 0.07094981651478441 -0.07566602379938785
1040000000.0 -0.03136708382730622 0.10572704568697322
1060000000.0 0.03028731915187108 -0.1335611176508371
1080000000.0 -0.08304185226383617 0.11911111140275045
1100000000.0 -0.012313499049290735 -0.1646832957841566
1120000000.0 0.1890608498956461 -0.03200397754089915
1140000000.0 0.01480070932389004 -0.23600069450586444
1160000000.0 -0.17791843091516932 -0.22007153449176042
1180000000.0 -0.27927313955921446 0.17064262534056573
1200000000.0 -0.10447473486571433 0.34348381724030785
1220000000.0 -0.3171115436521249 -0.21353509418565272
1240000000.0 0.39206085677457064 0.09116718123264876
1260000000.0 -0.2589034805257832 -0.33529996031807313
1280000000.0 -0.0018999905197830962 0.4372715476421991
1300000000.0 0.4103404447440836 -0.1724971320548338
1320000000.0 -0.2044465540188117 -0.39027799266752516
1340000000.0 -0.13095924936124226 -0.413531983044812
1360000000.0 0.08009801235151456 -0.4199027239993746
1380000000.0 -0.10210123970641453 -0.4135238310455814
1400000000.0 -0.37807194439449165 -0.16108736165559065
1420000000.0 -0.30018593580992686 0.2540530529657516
1440000000.0 -0.10702176386817995 0.3550005426951425
1460000000.0 0.24635151157947321 0.2449106941043523
1480000000.0 0.2629895914515978 -0.18665119628709903
1500000000.0 -0.2698192021075411 -0.12107781770464357
1520000000.0 -0.06119563708494431 0.26150721430582446
1540000000.0 -0.22984957240490803 0.059006408658961514
1560000000.0 -0.19305156768332662 -0.049915784798948266
1580000000.0 -0.07688474730152901 -0.14923579472866916
1600000000.0 -0.13407824648718947 0.013683466209763817
1620000000.0 -0.06954410985600051 -0.0753428657617224
1640000000.0 0.06895881603094191 0.04346553518740989
1660000000.0 0.06022167889054681 -0.003242275878795131
1680000000.0 -0.037146679009092756 0.011929905925351335
1700000000.0 -0.017180229931801294 0.01298564675666215
1720000000.0 -0.0018171218439532514 0.003632286258410971
1740000000.0 -0.004183031042311832 -0.0204668482448901
1760000000.0 -0.0040170461162812475 0.043071342981882005
1780000000.0 -0.07632353239290987 -0.001133337456193365
1800000000.0 0.03181524805796693 0.10667563572895578
1820000000.0 -0.12380168132769263 0.0663985815357686
1840000000.0 0.11921720383824888 -0.1241602555831158
1860000000.0 -0.19295283490678344 0.05212325874369512
1880000000.0 -0.14943917207760116 0.17489083165523517
1900000000.0 -0.034334073439744206 0.26524997489436875
1920000000.0 0.3043393739809127 0.009143396010740212
1940000000.0 0.054758768729799685 -0.3385375137434039
1960000000.0 -0.3239055049186224 0.19204996420168274
1980000000.0 0.39138480680128096 0.0917944213233748
2000000000.0 0.0030536107649868417 -0.42258170953233176
2020000000.0 -0.34534011196900094 0.2627789290391687
2040000000.0 0.21457960886388552 0.38226716915919895
2060000000.0 0.37720341791986933 -0.21962485271369747
2080000000.0 0.06131752129690381 -0.4251425502780865
2100000000.0 -0.07466049661335515 -0.4146733890274569
2120000000.0 -0.22387472949716897 -0.3447916968634219
2140000000.0 -0.3804465614911452 -0.12279924700458174
2160000000.0 -0.09993272879209322 -0.37171051470308986
2180000000.0 -0.23804223631705027 -0.2824509629783881
2200000000.0 -0.30736576642901225 -0.17953783759188963
2220000000.0 -0.3471130893957565 -0.0006890576663105026
2240000000.0 -0.25107512184008063 0.23443596757508547
2260000000.0 -0.08316564082906763 0.3332641523801427
2280000000.0 0.09684317115380324 0.33516067658270043
2300000000.0 0.35575193106770775 -0.07766989610496708
2320000000.0 -0.12665622812535962 -0.3676786638615519
2340000000.0 -0.2985891350267609 0.29526814737188484
2360000000.0 0.45869488568271216 0.013402288254826712
2380000000.0 -0.4589162761170506 -0.2096260731777924
2400000000.0 0.4693951598423438 0.2965495520945321
2420000000.0 -0.5863572065733196 -0.1583968969242197
2440000000.0 0.6154327450334947 -0.22888400083694793
2460000000.0 -0.351122171591887 0.6028562529476278
2480000000.0 0.04387829559189271 -0.727545201030874
2500000000.0 0.0019281443225523218 0.7495728220806674
2520000000.0 0.15204971059178846 -0.7449085486749253
2540000000.0 -0.45137297390474845 0.6139432483047486
2560000000.0 0.740278665665513 -0.15578556941874303
2580000000.0 -0.5213629865779936 -0.5265272663371218
2600000000.0 -0.05336827185458964 0.7148719003510408
2620000000.0 0.5691618403785456 -0.3829511871562853
2640000000.0 0.36286540827828206 -0.5363959718072382
2660000000.0 -0.6010896150237504 0.05321439991203062
2680000000.0 0.407476153852275 0.37892122023158686
2700000000.0 -0.0445078686983083 -0.508191885458461
2720000000.0 -0.24180594608524103 0.39446415378282235
2740000000.0 0.34747989567361753 -0.2346932879852083
2760000000.0 -0.3558871806576214 0.1341019241736591
2780000000.0 0.2296520183979799 -0.2637834681484246
2800000000.0 -0.034792133881543424 0.32211663076621266
2820000000.0 -0.2557153112690545 -0.16838599301574944
2840000000.0 0.2736985769440849 -0.10898273411338266
2860000000.0 -0.12017071785121598 0.2651025388269121
2880000000.0 -0.10763531210183402 -0.270404116912094
2900000000.0 0.12062984408545474 0.2684181153707783
2920000000.0 0.1652690754222076 -0.24971296165058757
2940000000.0 -0.2922960468835773 -0.09410769030818703
2960000000.0 -0.22950470497936987 0.20780011367848097
2980000000.0 -0.2645538991840322 0.16869157483673297
3000000000.0 -0.3172386612737946 -0.016847927998370312
3020000000.0 -0.08903958634370755 -0.3056215909307787
3040000000.0 0.31552883856412983 -0.024150118165265293
3060000000.0 -0.2821201371396018 0.13419811473124788
3080000000.0 0.2170744654684573 -0.21583588134838824
3100000000.0 -0.15245323846119485 0.25755416678729887
3120000000.0 0.1744590694049677 -0.23176262691682778
3140000000.0 -0.05038061089085764 0.27630296542142957
3160000000.0 -0.004930353090334306 -0.265696917322103
3180000000.0 -0.22203209700113608 0.1153330037067314
3200000000.0 -0.012532459309837813 -0.22866368181208355
3220000000.0 0.18377977581967056 -0.08587291412593068
3240000000.0 0.0802723620855944 0.15219964947426962
3260000000.0 -0.10699169363978517 -0.0874919717808532
3280000000.0 0.10323855742362907 0.021003173352613386
3300000000.0 -0.05616739234299305 -0.04988331852735121
3320000000.0 -0.043017312686509594 -0.01849989652894651
3340000000.0 0.022627341657166233 -0.0011591001299120713
3360000000.0 0.00140144488734283 -0.0051429479550087155
3380000000.0 -0.006936761754449026 -0.007566150441076189
3400000000.0 -0.004460127577178865 -0.02212443929030633
3420000000.0 -0.035133109568911594 0.0034962946429546496
3440000000.0 -0.03637923919431279 -0.029821725381760523
3460000000.0 -0.054999666332423945 0.01316861508669625
3480000000.0 0.02615654538085519 -0.06300198535049834
3500000000.0 -0.07225227703812326 -0.04005932457419736
3520000000.0 -0.0311159279884202 0.09128794236100334
3540000000.0 -0.007105336193485933 -0.11032838909561789
3560000000.0 0.030703136891512425 0.1203005404988195
3580000000.0 -0.0441782116129698 -0.13142770399058828
3600000000.0 0.14693405741639198 0.05382760159110743
3620000000.0 0.12591683934359912 0.11259736816996896
3640000000.0 -0.07439695277090567 0.163682560794724
3660000000.0 -0.16786136105247584 0.08707364652032798
3680000000.0 -0.17905279943364677 -0.07341639117492625
3700000000.0 -0.08345327362328483 -0.1753712569609826
3720000000.0 0.13048263755706407 -0.14452947945323186
3740000000.0 0.18107652800857177 -0.060254949429642456
3760000000.0 -0.14962738573560638 0.10646361990029832
3780000000.0 0.09760602890779524 -0.14303033596222872
3800000000.0 -0.1263341689285318 -0.10285892471621645
3820000000.0 -0.15015235948489256 -0.03578552135908366
3840000000.0 0.037110741717615775 -0.14280017840868384
3860000000.0 0.028130495772611012 0.14614709112873475
3880000000.0 -0.0007293655760211374 0.15551410548508016
3900000000.0 0.16137868317362483 -0.0012040245591041169
3920000000.0 -0.1680327658697105 -8.271372046252909e-05
3940000000.0 0.07763737185925193 -0.15389209530654047
3960000000.0 0.16795619960909972 -0.0490697748575729
3980000000.0 0.05547631732553623 -0.16543763969392272
4000000000.0 0.012950731586396428 -0.16588552060924036
