! Created with skrf (http://scikit-rf.org).
# Hz S RI R 50.0 
!freq ReS11 ImS11
400000000.0 0.25978744130287273 0.8322926538720554
420000000.0 0.6467359006380259 0.5651124716006819
440000000.0 0.7679235176273108 -0.29886105534378854
460000000.0 0.22211964079698987 -0.7523419177341599
480000000.0 0.697187135352252 0.043091637216037273
500000000.0 0.5323676654619742 0.20916248933185871
520000000.0 0.3723131289521608 -0.3331734536547752
540000000.0 0.39586403183267965 0.19052261381257943
560000000.0 -0.3445264764225008 -0.12253681419441773
580000000.0 0.006235254573872677 0.3467089238108944
600000000.0 0.22638026957156906 -0.2577219326976913
620000000.0 -0.29003180040484033 0.20881339954115427
640000000.0 -0.029898053738396366 0.38267828827342143
660000000.0 0.09604491078554603 0.38773948689981874
680000000.0 -0.4233101530059452 -0.0467582758751774
700000000.0 0.4290699096858601 0.11284778878173185
720000000.0 -0.2874722386433077 -0.3405496983375349
740000000.0 0.17683621407148584 -0.39598234121104775
760000000.0 -0.3742057651788262 0.17039410814743008
780000000.0 -0.03880892415853337 -0.36843464077581434
800000000.0 -0.1859461291056327 0.27487428465714925
820000000.0 0.01315666476654794 -0.2751852741671757
840000000.0 0.15796821486797208 -0.1692754461505478
860000000.0 0.08983185796784103 0.180478560040058
880000000.0 0.13500106747555962 0.05687658344197466
900000000.0 -0.0263050349794113 -0.0890094463272249
920000000.0 0.06336395740818365 0.004287652166424909
940000000.0 -0.0428129478755051 0.004152445420313383
960000000.0 -0.034850852178656515 0.035952959635495316
980000000.0 -0.006399990041672892 0.07135882399205527
1000000000.0 0.0842684195059566 -0.006514396707693489
1020000000.0 0.07044566223186668 -0.07641504351316183
1040000000.0 -0.024444278540779643 0.10740473746663388
1060000000.0 0.029275688026311333 -0.13359613712602506
1080000000.0 -0.09150511662924146 0.11263720061968699
1100000000.0 -0.007568726525889279 -0.16525630349885956
1120000000.0 0.18851586751969396 -0.03656989045544813
1140000000.0 0.011869802663760233 -0.2362379212651241
1160000000.0 -0.16818717826305007 -0.22759018098343387
1180000000.0 -0.28682836285686475 0.15775564339205056
1200000000.0 -0.11806403579042903 0.3391018736446063
1220000000.0 -0.3137361272309911 -0.2184839911839843
1240000000.0 0.3853032092829783 0.11643099169603521
1260000000.0 -0.2505728763437582 -0.3417611443805854
1280000000.0 -0.007187937189179635 0.4371418234558242
1300000000.0 0.41212823802423604 -0.16787126086005355
1320000000.0 -0.20020906363589178 -0.3923218694976642
1340000000.0 -0.12820483926496284 -0.41452241712005383
1360000000.0 0.07670690513581502 -0.4204855820232481
1380000000.0 -0.10348242853221339 -0.41310365382431347
1400000000.0 -0.38059408965617997 -0.15547537586709156
1420000000.0 -0.2926860126981987 0.26274881608384043
1440000000.0 -0.08934696207202625 0.3599080102113012
1460000000.0 0.24446393042217554 0.24666361065867512
1480000000.0 0.2622327973864037 -0.18807225814380638
1500000000.0 -0.27379612110119256 -0.11265310263497903
1520000000.0 -0.03317520683288491 0.2665166937962458
1540000000.0 -0.23357425040466245 0.04527933139865363
1560000000.0 -0.19723753252464754 -0.03271792266118016
1580000000.0 -0.09039211495241743 -0.14201829040293476
1600000000.0 -0.1256131388179966 0.048864846560887215
1620000000.0 -0.07223093191749765 -0.07287214774411467
1640000000.0 0.06829155708304319 0.0450207160702036
1660000000.0 0.059782726833493165 0.007672604000193978
1680000000.0 -0.03630840517127137 0.014167028237816778
1700000000.0 -0.012049544814006045 0.018014710539583197
1720000000.0 0.0022727523065064893 0.0031004417008907185
1740000000.0 0.005870304372199772 -0.020009421714792967
1760000000.0 -0.018631053673353964 0.03926745122544312
1780000000.0 -0.07251603347375637 -0.02433451185842444
1800000000.0 0.046829947702501325 0.10155906791005778
1820000000.0 -0.1301642409142471 0.05213155370967717
1840000000.0 0.12969237211650705 -0.11314876711514003
1860000000.0 -0.19103938245450738 0.057335978967694
1880000000.0 -0.14496110263879622 0.17856827758530203
1900000000.0 -0.03453355837890487 0.26481567903114767
1920000000.0 0.3039871776967395 0.014627933255156681
1940000000.0 0.06298224636909287 -0.3370200355860946
1960000000.0 -0.31879719973300247 0.20037064060169005
1980000000.0 0.3962852905680006 0.06525313505016242
2000000000.0 -0.03130957966416964 -0.42111229625651314
2020000000.0 -0.3354716579588696 0.2751783016592754
2040000000.0 0.19929102270942883 0.390671653713212
2060000000.0 0.3926466759438778 -0.19158830372392843
2080000000.0 0.03908568318414629 -0.4280652671315549
2100000000.0 -0.07907069595609563 -0.4143805683502604
2120000000.0 -0.2225464248763927 -0.34609042701282644
2140000000.0 -0.3751353898831479 -0.1396979972313356
2160000000.0 -0.08396141301627903 -0.3760750135309421
2180000000.0 -0.2248460504351643 -0.2935555296871175
2200000000.0 -0.2979902790914947 -0.19528668942641011
2220000000.0 -0.3469447003976054 -0.015980741456031546
2240000000.0 -0.26870102251210737 0.21411773267093717
2260000000.0 -0.08587389194118653 0.33282434056143706
2280000000.0 0.08487028356557762 0.3385022082433862
2300000000.0 0.358296568798587 -0.06425422365652184
2320000000.0 -0.11970259727219178 -0.3698518487705833
2340000000.0 -0.3177471859605219 0.27365485065655526
2360000000.0 0.4558669613648937 0.04745976438443898
2380000000.0 -0.46413206137999713 -0.197439065554831
2400000000.0 0.46445089684741053 0.3035905154267218
2420000000.0 -0.583884341546958 -0.16616403545023645
2440000000.0 0.6237779432615287 -0.2046687512790425
2460000000.0 -0.379232080656138 0.5856275827685216
2480000000.0 0.07488613435970531 -0.7254238012694144
2500000000.0 -0.04105797902058738 0.7487608919558711
2520000000.0 0.1829620429375089 -0.7385392437130137
2540000000.0 -0.47410614274247226 0.5973523673907901
2560000000.0 0.7463453594421363 -0.1277498811517826
2580000000.0 -0.5056640892982381 -0.5426001037407561
2600000000.0 -0.09257139830638428 0.7116128219509731
2620000000.0 0.6015946257800191 -0.33116482818366866
2640000000.0 0.3451799909748115 -0.5488322686356805
2660000000.0 -0.6025813403337718 0.042033885104642295
2680000000.0 0.39836830646339494 0.38938565378337464
2700000000.0 -0.04254562850808816 -0.5089121290861877
2720000000.0 -0.22630460608173508 0.40402183398139224
2740000000.0 0.3602857673749672 -0.21522770375652728
2760000000.0 -0.3591990257678271 0.12544220325671632
2780000000.0 0.23195680228960414 -0.26201797859467063
2800000000.0 -0.04062094685841457 0.32156072945133446
2820000000.0 -0.2584046068027833 -0.16484119710399595
2840000000.0 0.2702689771348837 -0.11734051282405607
2860000000.0 -0.12671497533732307 0.26200606944522203
2880000000.0 -0.09450969003173684 -0.2754305643595536
2900000000.0 0.14158959927220854 0.2580960747793122
2920000000.0 0.15225014788595959 -0.25769043500867206
2940000000.0 -0.29788560865204233 -0.07487084759445824
2960000000.0 -0.22221334546647598 0.21633392822793662
2980000000.0 -0.24829262128732513 0.1928632181043668
3000000000.0 -0.31575032029015154 -0.03878101074859298
3020000000.0 -0.04777754257656639 -0.315054362231498
3040000000.0 0.3166540066107648 0.011217087585550622
3060000000.0 -0.2689856355576996 0.159563551319152
3080000000.0 0.22568076126469094 -0.20660508861529278
3100000000.0 -0.18212723877667739 0.23788830959237564
3120000000.0 0.1839902554880827 -0.22466377065630855
3140000000.0 -0.0763517146662126 0.26998877632412427
3160000000.0 0.019370891113050723 -0.26495630815500354
3180000000.0 -0.239899256681259 0.07022427737347978
3200000000.0 -0.016696038118435244 -0.2285696610421469
3220000000.0 0.1872616511957017 -0.07618752281821725
3240000000.0 0.06706534466661972 0.15848508998313635
3260000000.0 -0.10074657104662636 -0.0945184779791949
3280000000.0 0.10502591190513234 0.0003892374504553401
3300000000.0 -0.04075021867808359 -0.06308137290326685
3320000000.0 -0.04468867510490401 -0.012935004715858654
3340000000.0 0.018014250559723773 -0.013239427159863005
3360000000.0 -0.0015440170110432823 0.004466221308621243
3380000000.0 -0.008846199648561537 0.00587431275819691
3400000000.0 0.020714673965407177 0.008327659967181461
3420000000.0 -0.034765768076663414 -0.007992452592564113
3440000000.0 -0.03478660142737699 -0.03175920380136121
3460000000.0 -0.04665383534493328 -0.031916878391003406
3480000000.0 0.03227320237833607 -0.06058435943383872
3500000000.0 -0.058220963035749015 -0.0588008585952571
3520000000.0 0.013498487797709893 0.09646363813786622
3540000000.0 0.01089490006365627 -0.1106021720131273
3560000000.0 0.011056585486337655 0.12398475710846622
3580000000.0 0.011207661289966071 -0.13794755859272076
3600000000.0 0.14582553170863694 0.05868642759405921
3620000000.0 0.08867557379696173 0.1435665066034538
3640000000.0 -0.11641842040153522 0.13659089370824995
3660000000.0 -0.18154915799984883 0.052256373308334374
3680000000.0 -0.1676277845977348 -0.0964151306308319
3700000000.0 -0.06191783547168452 -0.18375991657618848
3720000000.0 0.1474068609407614 -0.1260945627067548
3740000000.0 0.18590714518527868 -0.04069085945605068
3760000000.0 -0.16197442376916468 0.08566856562106695
3780000000.0 0.1157088921135417 -0.12841920214118877
3800000000.0 -0.11436337165521719 -0.11513915288618634
3820000000.0 -0.1415592303389205 -0.06083478622433759
3840000000.0 0.05478787442015331 -0.13638990065165546
3860000000.0 0.004254710496345346 0.1484231521619191
3880000000.0 -0.008100360128258061 0.15455496727056153
3900000000.0 0.15948012518530935 0.024909044031631307
3920000000.0 -0.16606289178429604 -0.022079383796950944
3940000000.0 0.10541233222279785 -0.13635303255544745
3960000000.0 0.1697183225221695 -0.042254224499993734
3980000000.0 0.054732885569426244 -0.1651953159742762
4000000000.0 -0.007469564388136564 -0.16582650506334248
