! Created with skrf (http://scikit-rf.org).
# Hz S RI R 50.0 
!freq ReS11 ImS11
400000000.0 -0.8259864218401729 0.24800626536215462
420000000.0 0.0996138623962182 0.8594190006114922
440000000.0 0.8222230508502543 -0.1668361287812256
460000000.0 0.3103340009025246 -0.7245491219876495
480000000.0 0.6274830647009921 -0.3655938110392055
500000000.0 -0.43043554902035447 -0.3668702922992125
520000000.0 -0.48930212584789573 0.008840274730923267
540000000.0 -0.029846752772316198 -0.4092449959769548
560000000.0 -0.34079671282668156 -0.13642966282725702
580000000.0 0.26387292532088874 -0.18209690883330212
600000000.0 -0.07375474672058262 -0.31902758546352417
620000000.0 0.3210323945609425 0.08042064100021347
640000000.0 -0.3357027097095411 -0.09975562329272027
660000000.0 -0.3507100963320635 0.16634761501396708
680000000.0 0.10729179878396444 -0.3940575051622564
700000000.0 -0.36183353196089035 0.25662972639383713
720000000.0 0.28482685725644874 0.34090430980230124
740000000.0 -0.08412262528180314 0.44764711322849576
760000000.0 -0.4221143226400427 -0.09256139442556773
780000000.0 0.34249698286722213 -0.19342579981586502
800000000.0 0.15506038615046858 0.31839015015010624
820000000.0 -0.15787227678399732 0.24354933042764695
840000000.0 0.2405501777448728 -0.017609473615608783
860000000.0 -0.09560670550642678 0.16474439081597228
880000000.0 -0.08535733776133955 0.11839422770138189
900000000.0 -0.06105820900780666 -0.03133534258858684
920000000.0 0.035916915170872116 0.0015944937960321382
940000000.0 -0.032715113200809914 0.011804076564205214
960000000.0 -0.012902907463685059 0.04088829667418491
980000000.0 0.0005437785139654815 0.0532281459469714
1000000000.0 0.03628349282682003 0.05249559626459446
1020000000.0 0.06003467487563346 0.046185149600053384
1040000000.0 0.047204887982738655 -0.08095188468538746
1060000000.0 0.10000610712327414 0.07877876433085015
1080000000.0 -0.014607685042044025 -0.14905622605795077
1100000000.0 -0.06129880239525958 0.16059127368403878
1120000000.0 0.028968923553192416 0.20099157248279684
1140000000.0 -0.23748942982133667 -0.05991786871915312
1160000000.0 -0.24175434191387235 0.1449274678377831
1180000000.0 0.13859104873388753 0.292446590846551
1200000000.0 -0.22474268901526573 0.2721784073305667
1220000000.0 -0.3079518278981396 -0.23141148358527544
1240000000.0 0.3654956152610119 0.1744486819708878
1260000000.0 -0.3982128729793056 -0.16468613557278403
1280000000.0 0.32229805012881635 0.29662948572904557
1300000000.0 0.20314203329577563 -0.3954684804668656
1320000000.0 -0.33209468577416373 -0.28300766938924665
1340000000.0 -0.029172450555887935 -0.4309091899735912
1360000000.0 0.08929180089998769 -0.4211981382121166
1380000000.0 -0.11372445243934676 -0.4141097277530297
1400000000.0 -0.3600127017492359 0.204812490838026
1420000000.0 -0.08025973620853542 0.38674672298444235
1440000000.0 0.3369992023524393 0.1499937485125254
1460000000.0 0.3070597096376547 0.14447501502463855
1480000000.0 0.26875979352363916 -0.16732692746952824
1500000000.0 0.0692901656846637 -0.28285410007816364
1520000000.0 -0.17138371832582747 0.20408136455439996
1540000000.0 0.22186492605933275 -0.10249500916913376
1560000000.0 0.21219217989864933 -0.0038514988190105786
1580000000.0 0.17106291445777452 -0.06195310053548128
1600000000.0 -0.11604511737441743 0.09651622246953764
1620000000.0 0.08949442465664632 -0.07287721712110569
1640000000.0 0.07603219220399983 -0.04408548413559795
1660000000.0 -0.04036148158892234 -0.04759938448527126
1680000000.0 -0.03155768062097688 -0.012201827982210204
1700000000.0 0.0030763973876342617 0.015276792676266254
1720000000.0 -0.004447408402983633 -0.015226066931339028
1740000000.0 -0.0019791722963498994 -0.03457002509610686
1760000000.0 -0.032312254604301115 0.04239363952418351
1780000000.0 0.047308711959244215 -0.06420964560234957
1800000000.0 0.10359479868458914 -0.04894836654351288
1820000000.0 -0.08733017012485011 0.1108052485372988
1840000000.0 0.13927255189203416 -0.10165801825938808
1860000000.0 -0.1474375920210443 0.13794153295569056
1880000000.0 0.15158944798783713 0.1754627163218828
1900000000.0 0.2541871177579348 0.07887111799688003
1920000000.0 -0.017566422633275017 -0.29826216593819055
1940000000.0 -0.23818199764783188 -0.2305667328864823
1960000000.0 -0.2544198465685187 0.26173484861855634
1980000000.0 0.2596975804791429 0.290557707177105
2000000000.0 0.4003693878936141 -0.10824692404114752
2020000000.0 -0.12726057889348075 -0.4170472049324684
2040000000.0 -0.35923932284479243 0.2680835071298284
2060000000.0 0.3479017171715827 0.2904921755549095
2080000000.0 0.09604103017141878 -0.44200126395214
2100000000.0 -0.43672025394761105 0.0581825236255827
2120000000.0 -0.2327607950298822 0.3550665713129109
2140000000.0 -0.4039348625316788 0.03480016280690824
2160000000.0 -0.36546213353269585 0.11524943430036487
2180000000.0 -0.3668569202669563 -0.02147590573757725
2200000000.0 -0.32473009793168706 -0.13025346682652628
2220000000.0 -0.12081516773886702 -0.3238337614939553
2240000000.0 -0.2670358415991768 -0.2178619676034909
2260000000.0 -0.32101319820522045 -0.1469945710434861
2280000000.0 -0.19102918707619476 0.30715726017598377
2300000000.0 0.3392491375394678 0.1686517922766466
2320000000.0 -0.17767664013624285 -0.36170734934156407
2340000000.0 -0.17946109407167715 0.39566967046127005
2360000000.0 0.2568250867313401 -0.39268377956829276
2380000000.0 -0.4327806830236518 0.27779313150077534
2400000000.0 0.4439389654988362 -0.3449042488977707
2420000000.0 -0.3115981936965617 0.5263076799553529
2440000000.0 -0.11904457849545692 -0.6470362740771194
2460000000.0 0.5241548331428771 0.4569583772569895
2480000000.0 -0.7096771519360111 -0.14947942147660556
2500000000.0 0.7276831975708722 0.15455436467825248
2520000000.0 -0.7039939325217556 -0.2694292628992252
2540000000.0 0.4946879329031908 0.5696760847935679
2560000000.0 0.01488577714585264 -0.74753873589587
2580000000.0 -0.6058730610582339 0.4101865440062721
2600000000.0 0.6848952017223764 0.17768482193752022
2620000000.0 -0.22204957807933526 -0.639922982147554
2640000000.0 -0.4291691810732104 -0.4744886350210807
2660000000.0 -0.22022001813374784 0.5524130010175214
2680000000.0 0.5490951853041752 0.0303643480940716
2700000000.0 -0.19746536092413594 -0.46663135597667893
2720000000.0 -0.20096445274082522 0.4180056821122501
2740000000.0 0.39682137262037126 -0.14922291547763353
2760000000.0 -0.3833744500979165 0.056879578608804764
2780000000.0 0.2518647653261651 -0.25342203935424473
2800000000.0 0.03272531306787999 0.3286102387771837
2820000000.0 -0.3000730496707021 -0.07676463261572172
2840000000.0 0.19781357028517882 -0.21804364062652168
2860000000.0 -0.023455173650366274 0.28331119828195767
2880000000.0 -0.08102175331981978 -0.26740440543815197
2900000000.0 0.0038744581614283432 0.27733247627661806
2920000000.0 0.26032401544816197 0.10710781553083606
2940000000.0 0.1428321817613297 -0.25168687120049793
2960000000.0 -0.10653774545875133 -0.27783408201196175
2980000000.0 -0.21426293133250196 -0.21904513723840155
3000000000.0 -0.1776532963904988 -0.25741283478386934
3020000000.0 -0.07816517912237465 -0.30603615235081105
3040000000.0 0.25330462865812764 -0.18468064958504438
3060000000.0 0.18521666382015933 0.2501665972620128
3080000000.0 -0.3012685861085801 -0.04253385934743325
3100000000.0 0.27518556014904355 -0.10875224212548418
3120000000.0 -0.19357222220404535 0.20814793639729257
3140000000.0 0.0961548466379634 -0.2527508363065134
3160000000.0 -0.18700455017408768 0.1728763617672368
3180000000.0 0.09362571210448575 0.21988464785692996
3200000000.0 -0.10071709164940329 -0.1943098124352617
3220000000.0 0.11962887971452021 0.15766575784137069
3240000000.0 -0.17368245981593686 -0.007711333456882559
3260000000.0 0.1098413835072589 -0.09751577737378446
3280000000.0 0.07229490924163362 0.09393202433851086
3300000000.0 0.08851023322304126 0.016470914886333336
3320000000.0 0.026138343242106527 -0.05240687175152607
3340000000.0 -0.01919080927387457 0.02526257157269066
3360000000.0 0.0048345127165526835 0.01213919306220007
3380000000.0 0.011945271388143634 0.01669147583903783
3400000000.0 0.014129337157797779 0.02968869295279956
3420000000.0 -0.039850469700934865 0.01263557879353028
3440000000.0 -0.006146000449068071 0.045538879461915885
3460000000.0 0.038009879640195664 0.02315421898431521
3480000000.0 0.040689867844028615 -0.03275895111928714
3500000000.0 0.061868295638640214 -0.02918985354700099
3520000000.0 -0.04524286638780566 -0.07880045763593213
3540000000.0 0.0710556569622087 -0.08585695788816046
3560000000.0 0.054700134157396975 -0.11749930540801948
3580000000.0 0.1424821616056509 -0.016128634261236317
3600000000.0 0.16025412543453213 0.019227208093312145
3620000000.0 0.14983969075637157 -0.07781001333605381
3640000000.0 0.1500975393635908 0.09373133130457006
3660000000.0 0.02473060595296788 0.17979520117961253
3680000000.0 -0.1818415754704178 -0.0317676781675478
3700000000.0 0.031271789894754945 -0.1818126831736327
3720000000.0 0.13507275440349453 0.12532747003892739
3740000000.0 -0.04530781004757181 0.17705061464056154
3760000000.0 0.07092743128735585 -0.16461613165084776
3780000000.0 -0.046869174875174884 0.16688740925032983
3800000000.0 0.10446938210907275 -0.12892804807227748
3820000000.0 -0.134600862031754 -0.08403461748867809
3840000000.0 -0.11047011744082824 -0.10030339168283446
3860000000.0 0.052774587231471 -0.13661486069108505
3880000000.0 0.14197860522832614 0.04653548164359882
3900000000.0 0.15234145778791422 0.0031264827491024514
3920000000.0 0.13209789223167426 -0.08632838103243272
3940000000.0 -0.08585831503876558 0.1431156048790067
3960000000.0 -0.1341318868056243 0.11287758295183735
3980000000.0 0.17155476224272562 0.05301188577493093
4000000000.0 0.059961462142942325 -0.16088140163023656
