! Created with skrf (http://scikit-rf.org).
# Hz S RI R 50.0 
!freq ReS11 ImS11
400000000.0 0.23531120637502653 0.838964269483682
420000000.0 0.6328868902517291 0.5790344585832515
440000000.0 0.7987796320734601 -0.19864925898237726
460000000.0 0.21001571645118902 -0.7567578197297146
480000000.0 0.6976776903742508 0.01271311246070803
500000000.0 0.5250065034115704 0.2249888951250544
520000000.0 0.4096874901769927 -0.2874429885797543
540000000.0 0.42912849887254984 0.09960892329063879
560000000.0 -0.3653225691339373 -0.012723255948621334
580000000.0 -0.0796310456984172 0.3354210666987009
600000000.0 0.22855015787793206 -0.25691910266141804
620000000.0 -0.2931408354746523 0.20303144837830905
640000000.0 -0.04934695086566807 0.3789041434721064
660000000.0 0.11668356596087853 0.3810537277866984
680000000.0 -0.4126699485491226 -0.10538320785297996
700000000.0 0.4230854345207334 0.13494489769953397
720000000.0 -0.3068082051631029 -0.3232933592231815
740000000.0 0.20222231582147893 -0.3842945764675718
760000000.0 -0.3554534977734925 0.20573652568066142
780000000.0 0.009320257045453436 -0.37042484948152476
800000000.0 -0.19815544391511558 0.26821300066137554
820000000.0 -0.011877903519125585 -0.2753796241345839
840000000.0 0.1872588590303908 -0.13532651367763238
860000000.0 0.08534323551957852 0.1829599863329092
880000000.0 0.14565599581546332 0.017679942302257747
900000000.0 -0.06863949692352819 -0.0611450992430541
920000000.0 0.06322460479375637 -0.006477206462904221
940000000.0 -0.03994501752956613 -0.015510775401240918
960000000.0 -0.026002638133672942 0.042704540724829265
980000000.0 -0.023673443727321577 0.06744848329897017
1000000000.0 0.08270275737204617 -0.015074198679076271
1020000000.0 0.09382375555355033 -0.0408865657238182
1040000000.0 -0.05819498095503297 0.09279805986616545
1060000000.0 0.07419838358884058 -0.11511325107964039
1080000000.0 -0.12313914045959776 0.07820469339230655
1100000000.0 -0.005004627038697203 -0.16593461105288174
1120000000.0 0.1827965141026381 -0.06082780430283651
1140000000.0 -0.04299546671949624 -0.2328204456563205
1160000000.0 -0.22203744444628803 -0.17468986963936428
1180000000.0 -0.27228695718298307 0.18079403094760857
1200000000.0 -0.13301241757495935 0.33284285417410586
1220000000.0 -0.2720221534972505 -0.26882145540401986
1240000000.0 0.3657210719084538 0.16809291692814618
1260000000.0 -0.20694516293629855 -0.37018259196989556
1280000000.0 -0.04503960170140598 0.43494428526496987
1300000000.0 0.42064908904340026 -0.14696987599164196
1320000000.0 -0.17829725735572285 -0.4025741143960332
1340000000.0 -0.1003543122291555 -0.4220477395447085
1360000000.0 0.09223972616423898 -0.4176370314156407
1380000000.0 -0.11797651698536994 -0.4098598748767054
1400000000.0 -0.38843626645855006 -0.1357639531923822
1420000000.0 -0.27222686981241273 0.28428231200618764
1440000000.0 -0.09104664747055884 0.35956974581115486
1460000000.0 0.24627422231648863 0.24474679103900177
1480000000.0 0.27021657673793914 -0.17618621763893844
1500000000.0 -0.2511631571400498 -0.15775420033092705
1520000000.0 -0.08757833821746352 0.2557199109498542
1540000000.0 -0.23626887265356258 0.03353629989776306
1560000000.0 -0.18982670792308096 -0.0652545690795785
1580000000.0 -0.06233989511835397 -0.1569306033717984
1600000000.0 -0.13441440064109228 -0.011938479660153442
1620000000.0 -0.04103858053911789 -0.0930574524051056
1640000000.0 0.015260117964227939 0.07877931312492016
1660000000.0 0.014652064543846384 0.05706920339828085
1680000000.0 -0.02679201596407741 -0.02565405318877878
1700000000.0 -0.005467627812869017 -0.020045273642530545
1720000000.0 0.004004248300296607 0.0008553087212045864
1740000000.0 0.017270623100639492 0.011124535568588747
1760000000.0 -0.03479398056270726 -0.024872566766859037
1780000000.0 0.02658084142937829 -0.07051299586200872
1800000000.0 -0.08438887720913503 0.07264568083834658
1820000000.0 -0.13250517920688162 -0.047320101362363844
1840000000.0 0.16213407678120967 -0.057429124493478374
1860000000.0 -0.1969518233462632 0.02724161614986995
1880000000.0 -0.12011088089313152 0.19387881569331947
1900000000.0 0.010647794175026247 0.2649488511423575
1920000000.0 0.3015715586067019 0.022946173863578626
1940000000.0 0.06487829294786009 -0.33520403489168643
1960000000.0 -0.3239550237153579 0.1904856318646497
1980000000.0 0.3999444058784651 0.03632525604980913
2000000000.0 -0.09669009995005126 -0.4115631314696612
2020000000.0 -0.2962489609728547 0.3185590701703432
2040000000.0 0.21122338868092908 0.38602511364508546
2060000000.0 0.39467237789572934 -0.19148819795287644
2080000000.0 0.09230178338611704 -0.42178306109887587
2100000000.0 -0.05520781446285082 -0.4198842997149772
2120000000.0 -0.15554243973771828 -0.3831288196803417
2140000000.0 -0.359817584306105 -0.17854838044952004
2160000000.0 -0.009424672875993497 -0.38672205749866057
2180000000.0 -0.14397038550567198 -0.3413016544327493
2200000000.0 -0.24708880616022075 -0.2584980142096548
2220000000.0 -0.3048736891010101 -0.16820628269555615
2240000000.0 -0.31837007758360963 0.13035712916029796
2260000000.0 -0.1858503654500871 0.28997572168525704
2280000000.0 -0.02354735615561067 0.34933889660973066
2300000000.0 0.36253359844139166 0.04046980590031072
2320000000.0 0.0018114317336397636 -0.38840524264125276
2340000000.0 -0.37090056882218725 0.1946756479149493
2360000000.0 0.4387034336304413 0.13162968783331788
2380000000.0 -0.4243959754509622 -0.2721991689253834
2400000000.0 0.40759443443202337 0.3762391752815572
2420000000.0 -0.5627735174564337 -0.22744251658308287
2440000000.0 0.6316548634313467 -0.17966550436368248
2460000000.0 -0.408962778150484 0.565240490229004
2480000000.0 0.09236641286781536 -0.7238436515670985
2500000000.0 -0.03563401642172548 0.7500921633446773
2520000000.0 0.17902238095285047 -0.7405415453576188
2540000000.0 -0.5091762391642266 0.5695718257876898
2560000000.0 0.747528691846413 -0.12761328247818818
2580000000.0 -0.4877334093951167 -0.5618474003594033
2600000000.0 -0.10778275101805272 0.7120343278410942
2620000000.0 0.6244583999253501 -0.29450933042158844
2640000000.0 0.4069204988273594 -0.5100402739869047
2660000000.0 -0.6088044447954929 0.0025517784304418096
2680000000.0 0.3208405940953833 0.46088174302294693
2700000000.0 0.05257912730494121 -0.5127497275946349
2720000000.0 -0.30628933878780096 0.3535091918655905
2740000000.0 0.3943136677945286 -0.15675987929550086
2760000000.0 -0.3805559494088492 0.05587794544625033
2780000000.0 0.30759533695212626 -0.1741004256369252
2800000000.0 -0.15617613265834818 0.2878690716781447
2820000000.0 -0.1782071070496695 -0.25206334682865944
2840000000.0 0.2953753813189142 -0.013725064626621947
2860000000.0 -0.18530107323673436 0.2250027858378864
2880000000.0 0.013625615969071221 -0.2916647480748539
2900000000.0 0.0694831039879474 0.28627402777821076
2920000000.0 0.19900220546749395 -0.224247967579987
2940000000.0 -0.28915938685012954 -0.10324451419690876
2960000000.0 -0.20342114984469234 0.23495087693375388
2980000000.0 -0.2270283106957675 0.21816359375354877
3000000000.0 -0.31592569290819467 -0.028200785699189813
3020000000.0 -0.08759495653112753 -0.30580212358751047
3040000000.0 0.31492259444961435 -0.02302703261823699
3060000000.0 -0.27395138023310184 0.14971132394015638
3080000000.0 0.21867478310350524 -0.21483243196299792
3100000000.0 -0.1221667600642976 0.2742732999300508
3120000000.0 0.10943514671547315 -0.27046809352821377
3140000000.0 -0.03127355224822655 0.2795180834563379
3160000000.0 -0.06793238378761189 -0.25771003826910266
3180000000.0 -0.1857846289505867 0.16831678914461276
3200000000.0 -0.10510365923404448 -0.20389747368267935
3220000000.0 0.1185681343996538 -0.1648608471558532
3240000000.0 0.14426403931159631 0.09420784039394026
3260000000.0 -0.13711626165266394 0.01735593879651052
3280000000.0 0.0823730815505032 -0.0660916618102455
3300000000.0 -0.04182801685984829 0.06260203381577058
3320000000.0 0.04132870260826474 0.021031089535080892
3340000000.0 0.01844847575743237 0.012040716930226547
3360000000.0 -0.000491356042889731 -0.0042972376454388905
3380000000.0 -0.003096552482069866 0.009418101222193075
3400000000.0 0.022087693465441108 -0.0028870170862351266
3420000000.0 0.022394496817685076 0.027368164590211252
3440000000.0 0.03363163430207794 0.03280854162301107
3460000000.0 0.05532308010723977 0.011386490575073118
3480000000.0 0.047695538359429517 0.04971553268174376
3500000000.0 0.0397231951341685 -0.07236783187201781
3520000000.0 -0.09432789325778676 -0.023275744399646733
3540000000.0 0.1053161141397158 -0.0350007547276505
3560000000.0 -0.10323576743711205 0.06920007418952039
3580000000.0 0.12908571774057392 -0.04618188297902556
3600000000.0 0.030538005769224445 0.15288567657240118
3620000000.0 -0.012156578436544087 0.16841543037356627
3640000000.0 -0.17389796823443623 0.04124687382312309
3660000000.0 -0.1816159309968817 -0.04942026515522433
3680000000.0 -0.10896862191155347 -0.15881560940888456
3700000000.0 0.042681654654631765 -0.18749209224945118
3720000000.0 0.18807812132660007 -0.039578714478594325
3740000000.0 0.1863112617020352 0.027702729742716727
3760000000.0 -0.1773374758733282 0.039492596244946984
3780000000.0 0.14384022176423672 -0.09147437269561155
3800000000.0 -0.06041010922899422 -0.1487048026289994
3820000000.0 -0.13428967152773363 -0.06989528991361903
3840000000.0 0.08819230039041695 -0.11534875070904059
3860000000.0 -0.0015433451562744023 0.14587688683555505
3880000000.0 -0.021371564359990446 0.15203719772047383
3900000000.0 0.15772156744640148 0.018368606963237236
3920000000.0 -0.14697089332961286 -0.07641275992022312
3940000000.0 0.1364196858974485 -0.10179907900601352
3960000000.0 0.16602125758971553 0.047993262423034776
3980000000.0 0.1383109931114891 -0.10213973718119276
4000000000.0 0.13089160490897087 -0.0991910581671554
