! Created with skrf (http://scikit-rf.org).
# Hz S RI R 50.0 
!freq ReS11 ImS11
400000000.0 0.20890703101557867 0.8443518895205551
420000000.0 0.6334902964973727 0.5781724455827076
440000000.0 0.7808377738113391 -0.2601182335536182
460000000.0 0.19683788270932423 -0.7593220773725423
480000000.0 0.6965507788312633 0.047246210999161306
500000000.0 0.5495321072755621 0.1610708860074074
520000000.0 0.3574795085110664 -0.3492707764617662
540000000.0 0.39559376932048995 0.19025953843021207
560000000.0 -0.3470278719526935 -0.11954357972734328
580000000.0 0.0672404485624684 0.3388077857064175
600000000.0 0.24527883656898822 -0.23807865516827512
620000000.0 -0.32853612781190356 0.13761279026695236
640000000.0 0.024016074953923487 0.38239864860608724
660000000.0 0.1527460638725516 0.367758869596996
680000000.0 -0.42445939511275954 -0.03208477285635563
700000000.0 0.420116738961576 0.14309625552984082
720000000.0 -0.3041558343141337 -0.32601394118127475
740000000.0 0.21040147897961112 -0.38045358723203937
760000000.0 -0.36499545917760573 0.1882530148407305
780000000.0 -0.001972618450696979 -0.37095973974328067
800000000.0 -0.18814646432539334 0.274682792658873
820000000.0 0.02957033429266143 -0.27393649983425905
840000000.0 0.19547455942105244 -0.12408056355618885
860000000.0 0.061438565244959595 0.19177213027724518
880000000.0 0.14326030310438456 0.0305468737646985
900000000.0 -0.05807670393365573 -0.07064836151818195
920000000.0 0.06327667710239188 -0.007337932302256751
940000000.0 -0.04278854386865727 -0.00593915823047937
960000000.0 -0.030317138180947188 0.03994966337352188
980000000.0 -0.024758507172428 0.06686691589744574
1000000000.0 0.08129436680574384 0.02203823404774165
1020000000.0 0.08514330694435772 -0.057618946583453956
1040000000.0 -0.0558789855945332 0.09416707603487412
1060000000.0 0.06590249742832854 -0.11973864061078213
1080000000.0 -0.11878256931665837 0.08403182440852179
1100000000.0 -0.004440493008073466 -0.16523835676718784
1120000000.0 0.1791791168154792 -0.06946421318380344
1140000000.0 -0.0399267764946095 -0.23295148196259532
1160000000.0 -0.21775297245700223 -0.18001530122325438
1180000000.0 -0.26148063659054377 0.19664275789417549
1200000000.0 -0.12658623430741622 0.33565250536016306
1220000000.0 -0.3043820042497531 -0.23251046081700794
1240000000.0 0.37778503074794806 0.13996302811573796
1260000000.0 -0.2196652519025098 -0.3631834042504436
1280000000.0 -0.025731533223032153 0.43665888390972457
1300000000.0 0.42248672187759684 -0.14180322295553818
1320000000.0 -0.1803136082431448 -0.4020113229410672
1340000000.0 -0.09694181208588859 -0.4230134191475434
1360000000.0 0.09656724500948716 -0.4166319426344241
1380000000.0 -0.10766054691507133 -0.41251245253590174
1400000000.0 -0.38290920210814117 -0.15031064958748044
1420000000.0 -0.2883733144795757 0.267530849861585
1440000000.0 -0.08843825287433181 0.35993845415873577
1460000000.0 0.24387354514986573 0.24640936959197335
1480000000.0 0.2785404747099983 -0.16176457350902038
1500000000.0 -0.26080553982015214 -0.13962665328105067
1520000000.0 -0.06777941194702645 0.26132737791425636
1540000000.0 -0.22631602043158236 0.07297124368914638
1560000000.0 -0.19522210306231882 -0.045466804841830126
1580000000.0 -0.06937576180527229 -0.15361084467701208
1600000000.0 -0.13059881754207087 0.03202633547717412
1620000000.0 -0.061216229802271135 -0.0812634438622877
1640000000.0 0.04208722650211522 0.06901197826584513
1660000000.0 0.03556707363260485 0.047886381770671255
1680000000.0 -0.03002589691521569 0.023961824904298584
1700000000.0 -0.009686805752067634 -0.019501447826760256
1720000000.0 0.0008640977725566487 -0.0037194976705732167
1740000000.0 -0.004366461545007829 -0.019748635209656484
1760000000.0 -0.03226832623252848 0.028614618169069277
1780000000.0 -0.04611712527346902 -0.060711950594888923
1800000000.0 -0.03485297503946252 0.10622668238594431
1820000000.0 -0.1411165617685318 -0.006246348933576284
1840000000.0 0.15404536112715725 -0.07790347414721631
1860000000.0 -0.19683418746810197 0.032946408260275936
1880000000.0 -0.13974932687973848 0.18106112755370288
1900000000.0 -0.030705315496465765 0.2642592603288129
1920000000.0 0.2999250191998824 0.043433243983114704
1940000000.0 0.09100777716723794 -0.32979339132308566
1960000000.0 -0.3268379246694669 0.18565706936531023
1980000000.0 0.3958793071319155 0.06767711882840108
2000000000.0 -0.04835595410982211 -0.4197101681136685
2020000000.0 -0.31834487541463913 0.29511653790803316
2040000000.0 0.2002940469234218 0.3911928327395768
2060000000.0 0.39177598425185994 -0.1954454937667163
2080000000.0 0.0761467323419519 -0.4237644846471589
2100000000.0 -0.09204283226703108 -0.4124328078842227
2120000000.0 -0.19818113923523203 -0.3617504395234599
2140000000.0 -0.37968354285869144 -0.1283915195610903
2160000000.0 -0.06582950275704548 -0.3805247408996371
2180000000.0 -0.17744863850770212 -0.32457612668468844
2200000000.0 -0.28506427048458016 -0.21487483881584318
2220000000.0 -0.330705953019129 -0.10869425975490253
2240000000.0 -0.26374300707310394 0.22047556297021523
2260000000.0 -0.1333881351055901 0.3172649394296667
2280000000.0 0.045653603063964474 0.3471547207794927
2300000000.0 0.36397274160760035 -0.030451606881028225
2320000000.0 -0.04743022404002648 -0.38566019221187087
2340000000.0 -0.3525084621187805 0.2273819898038703
2360000000.0 0.4465522373268615 0.10305182133976956
2380000000.0 -0.4375825376213246 -0.25087175560240804
2400000000.0 0.43040320412504757 0.3501722848117736
2420000000.0 -0.5699219785882903 -0.2084085128084834
2440000000.0 0.6359977461923908 -0.162884852336899
2460000000.0 -0.4090309767064735 0.5647965841343436
2480000000.0 0.07232974765118444 -0.7254472609932792
2500000000.0 -0.0821539204326122 0.7461727956400227
2520000000.0 0.16505115720435207 -0.7432968521210349
2540000000.0 -0.45045902825836187 0.6161192124167638
2560000000.0 0.7408525958371673 -0.15769033095759263
2580000000.0 -0.5499415862985084 -0.49941104057609215
2600000000.0 -0.037118541333811664 0.7181409244683686
2620000000.0 0.5746663585257733 -0.38029618631228684
2640000000.0 0.3327012268901092 -0.5597319974152297
2660000000.0 -0.6038859504254093 0.0644448103166139
2680000000.0 0.37974030368630574 0.4120174795470203
2700000000.0 -0.024739272180043625 -0.513650218977411
2720000000.0 -0.2683936288170411 0.3816247701625448
2740000000.0 0.3796591345451347 -0.18620458914881827
2760000000.0 -0.3729479137279249 0.0896524131589704
2780000000.0 0.2813028885327368 -0.2127746781837596
2800000000.0 -0.12149324761011461 0.3032979089336935
2820000000.0 -0.20020032809664406 -0.23380933025102363
2840000000.0 0.2949195539480378 -0.019873281252512844
2860000000.0 -0.18044917482291106 0.22885425621345193
2880000000.0 -0.033866600690953014 -0.2895012905347196
2900000000.0 0.1018902753622136 0.275828409661547
2920000000.0 0.18860179680842432 -0.23268051409732243
2940000000.0 -0.2999423519215293 -0.06484357225426204
2960000000.0 -0.1701068214015273 0.2596228731914331
2980000000.0 -0.21375248650002596 0.2303554450186403
3000000000.0 -0.3162074826121398 -0.0210945105520413
3020000000.0 -0.1322894428371378 -0.2889716401331644
3040000000.0 0.31487158731846043 -0.02045204100019909
3060000000.0 -0.2417893862828197 0.1970641508068179
3080000000.0 0.19535846642815366 -0.23649761221792884
3100000000.0 -0.15576850854261304 0.2564999881192798
3120000000.0 0.07703596122522474 -0.28132856102098697
3140000000.0 -0.03070268460001486 0.2797945185048065
3160000000.0 -0.05520489622546191 -0.2611965970324429
3180000000.0 -0.20142328432912773 0.14939899326620967
3200000000.0 -0.08290719294655104 -0.21418520742206804
3220000000.0 0.15759405602367912 -0.12777890026823402
3240000000.0 0.1088523199643828 0.13394438816882503
3260000000.0 -0.13385651348024663 -0.034594712476537205
3280000000.0 0.09904765056298191 -0.03624115273372272
3300000000.0 -0.07248158991774054 -0.020315552942723508
3320000000.0 -0.028896906813999958 0.0361510230965831
3340000000.0 -0.02215721182772487 0.0010040585279275423
3360000000.0 -0.004569379305570841 -0.0003295030632830182
3380000000.0 0.009678924680874236 0.0025555812234701854
3400000000.0 -0.0202022836183831 0.009989612311262233
3420000000.0 0.004706384759317028 -0.03512847266990933
3440000000.0 0.032431956546750684 -0.03380516784294227
3460000000.0 -0.003656921293398186 -0.05684088868638159
3480000000.0 0.06680259414864352 -0.01720251734088278
3500000000.0 -0.023016089905940316 -0.07926350465216181
3520000000.0 -0.07644042961919573 0.06028379447943504
3540000000.0 0.06762421224518568 -0.08798633035996963
3560000000.0 -0.03870685640566214 0.11847153455128698
3580000000.0 0.05888182101471682 -0.12486804343406314
3600000000.0 0.09455166147478278 0.12449465290999236
3620000000.0 0.061279119448458264 0.15822827281615792
3640000000.0 -0.14161198577224124 0.11061782598230172
3660000000.0 -0.188612285548957 0.012073652137038081
3680000000.0 -0.14985407406008802 -0.12276298787732053
3700000000.0 -0.010452576545269193 -0.19333798401300625
3720000000.0 0.17924562660363536 -0.07331420267525746
3740000000.0 0.18960442744860184 0.00339772958726485
3760000000.0 -0.17109080958224693 0.06370424678084814
3780000000.0 0.14568259106699136 -0.09151990006676847
3800000000.0 -0.057007358137488834 -0.15162221573617857
3820000000.0 -0.13482198687170555 -0.07258802412540753
3840000000.0 0.06645300210126544 -0.13012892609609544
3860000000.0 0.005771563412605908 0.14685596376151017
3880000000.0 -0.0010123676226736324 0.1545687277946724
3900000000.0 0.1592993351291842 -0.009058711232879078
3920000000.0 -0.15567072315502348 -0.05945388741566565
3940000000.0 0.11190424489158633 -0.12949480368910107
3960000000.0 0.1735424413263476 0.008470979735246523
3980000000.0 0.12185022996946607 -0.12267187405095643
4000000000.0 0.11565103307499677 -0.11834146811374127
