! Created with skrf (http://scikit-rf.org).
# Hz S RI R 50.0 
!freq ReS11 ImS11
400000000.0 -0.6922250355976971 0.5034426605605921
420000000.0 -0.09774475698206277 0.860670288158496
440000000.0 0.8318806212178963 0.11022116881177282
460000000.0 0.13151221647606662 -0.7910711249081644
480000000.0 0.1579182141935254 -0.7151925934883048
500000000.0 -0.17246078994897182 0.5408852721066334
520000000.0 -0.4721098924616716 -0.034447299300803313
540000000.0 0.36058925426013494 0.2063413592438468
560000000.0 -0.2875868706724676 0.2069218529247194
580000000.0 0.25436082922233727 0.21516323941168175
600000000.0 0.19214452411202104 -0.26826959541957546
620000000.0 -0.24131453272547113 0.24554680556984135
640000000.0 -0.15733173685821336 0.3360665404149423
660000000.0 0.05629010625112407 0.38573246029580016
680000000.0 -0.4082525636289138 0.07165528448112357
700000000.0 0.12547971937885483 0.4115474171022803
720000000.0 0.42824349117561905 0.07760819406894795
740000000.0 -0.13438346769084172 0.41381032409028606
760000000.0 0.291070324905516 -0.3032012597538605
780000000.0 0.3186239235628514 0.22589760332128073
800000000.0 -0.3235883172425473 0.15720798476460368
820000000.0 -0.1922107145363947 0.23431816745687195
840000000.0 0.04391423797768152 -0.24159835437528673
860000000.0 0.054800080559703784 0.18772723393457896
880000000.0 -0.14821011429731673 0.03834979812221737
900000000.0 0.017921416217690726 0.07501666796829132
920000000.0 0.007959487042340589 -0.0437923994832488
940000000.0 0.029271976065605394 -0.01915940140088794
960000000.0 0.014588195872763728 -0.0426956380770646
980000000.0 -0.05591282704698008 0.023339545127885653
1000000000.0 0.06340204218318203 -0.00462055975377299
1020000000.0 -0.022794541440899093 0.07399256111836207
1040000000.0 -0.08321693021001857 -0.027167127158121744
1060000000.0 0.12021279109990526 0.046256095897637906
1080000000.0 -0.10300376222562094 -0.10557918858507903
1100000000.0 -0.14783986858601947 0.0985159369003798
1120000000.0 0.1985336321082292 0.04821079736860997
1140000000.0 -0.18987104887621306 -0.1549007978785242
1160000000.0 -0.16423237251561112 0.23317094283992731
1180000000.0 -0.0156879011612247 0.3232338032112541
1200000000.0 0.02718300896516927 0.35518549614118694
1220000000.0 -0.36049302839086506 -0.13035627793709365
1240000000.0 0.401783688670622 -0.05937347500132696
1260000000.0 -0.4231231869441374 -0.05340369639689372
1280000000.0 0.38439225037233593 0.21072603605338547
1300000000.0 0.05389729531635307 -0.43846479042760333
1320000000.0 -0.3552769527184651 -0.25126161025380134
1340000000.0 -0.09927146138611857 -0.41756626796181273
1360000000.0 0.30156421432363784 -0.3011704389138463
1380000000.0 0.2164977636023383 -0.36948427975327836
1400000000.0 -0.3528953655834678 -0.2249223514894882
1420000000.0 -0.2722332435928024 0.2964955136389629
1440000000.0 0.2714113272421565 0.26192282531645833
1460000000.0 0.33034499287704944 -0.1092339614941086
1480000000.0 -0.0007594016964013053 -0.3193206500530335
1500000000.0 -0.26973216143204265 -0.10087683820564969
1520000000.0 -0.24856972639741476 0.08412949379845804
1540000000.0 0.08829136555482124 -0.21905995568516418
1560000000.0 0.20439912300034035 -0.010587390767673888
1580000000.0 0.17616160225786354 0.013650123254694335
1600000000.0 -0.14452880296452444 0.013589309769436312
1620000000.0 0.0986872585309423 -0.05192724453608469
1640000000.0 0.044443708055892116 -0.0712751722072507
1660000000.0 0.04597720849601682 -0.03582605441118085
1680000000.0 0.03023680184172467 -0.004743528987805499
1700000000.0 -0.007410116614614816 0.006561531412645355
1720000000.0 -0.007987417679396609 -0.011624740944150504
1740000000.0 -0.02083047190000478 -0.027204523899018562
1760000000.0 0.03821712228139058 0.036317559485533356
1780000000.0 0.04461736785666108 -0.0661205065982562
1800000000.0 0.09885893649793981 0.046013337327346554
1820000000.0 0.10759234657738567 -0.07598567902895459
1840000000.0 0.03645317228224568 -0.15814814371789213
1860000000.0 -0.10225490490403816 -0.16320977194348846
1880000000.0 -0.19860387068120675 -0.11358304805077095
1900000000.0 -0.1844517017069332 0.19770751959788138
1920000000.0 0.30502936336392833 0.0573842610599798
1940000000.0 -0.06145232519750628 -0.34196419434291186
1960000000.0 -0.19500921681228991 0.3274672931816482
1980000000.0 0.3749356312512248 -0.15312080559532984
2000000000.0 -0.21820411444415844 -0.3649369846578785
2020000000.0 -0.16917986478358424 0.4041750327269281
2040000000.0 0.3898075081754765 0.21306150165820004
2060000000.0 0.14498534495820473 -0.41697635734979677
2080000000.0 -0.2464473732911997 -0.3561955519787233
2100000000.0 -0.3977804749039689 -0.14082435963485018
2120000000.0 -0.3860831093310032 -0.13606276879388624
2140000000.0 -0.36725992629873777 -0.15494716526704824
2160000000.0 0.06054126399108443 -0.38309860397887896
2180000000.0 -0.07228501490319046 -0.3701218756654732
2200000000.0 -0.32494033358344937 -0.17035518138654926
2220000000.0 -0.3386287335103382 0.11679306933304372
2240000000.0 0.03315291921380861 0.35424187858855594
2260000000.0 0.3298690976666102 0.13257882450567263
2280000000.0 0.276264686080587 -0.2303552920499054
2300000000.0 -0.27942539234913155 -0.2455730297141048
2320000000.0 -0.3031742294371364 0.2519773533691526
2340000000.0 0.3379641056825402 0.26015798873866625
2360000000.0 -0.10792388383651517 -0.4546102211457995
2380000000.0 0.09823057613968861 0.5050731423767693
2400000000.0 -0.18389162727475955 -0.5340367929044971
2420000000.0 0.5217373167255881 0.32356459689554107
2440000000.0 -0.6394661911511323 0.15702027971289076
2460000000.0 0.44601738494726767 -0.5317630654300939
2480000000.0 -0.21978188044660404 0.6859061661488004
2500000000.0 0.26014829843818094 -0.6888735091606488
2520000000.0 -0.5019890413429415 0.549356452711574
2540000000.0 0.718113648104253 -0.1911952120801733
2560000000.0 -0.5783920601764696 -0.4538461201538479
2580000000.0 -0.15797748766801564 0.700590575327587
2600000000.0 0.6620504820217357 -0.20495164858878623
2620000000.0 -0.45381918297065266 -0.4813836997514759
2640000000.0 -0.5886976666639498 -0.20607217979042824
2660000000.0 0.08594177205607186 0.5722285320201927
2680000000.0 0.4509305698406885 -0.2837395718706038
2700000000.0 -0.4148395076448363 -0.2536934773725884
2720000000.0 -0.01027277791258359 0.43936873148257155
2740000000.0 0.3894748676496295 -0.08025594582751686
2760000000.0 -0.2788498591464268 -0.2315915537128865
2780000000.0 0.1887144461030949 0.2786291678261412
2800000000.0 -0.265305765494306 -0.17276896507049713
2820000000.0 0.22318416263401347 -0.20350345013920865
2840000000.0 0.20801452654668745 0.20589830827171096
2860000000.0 -0.23640219373593271 0.16437569197092433
2880000000.0 -0.15471910642447653 -0.23978496018522275
2900000000.0 0.25609039411218154 0.12587808504273268
2920000000.0 -0.08993350093658324 -0.27181233542182776
2940000000.0 -0.27129043377056844 0.10083650750796694
2960000000.0 -0.16819105292426967 0.23724377947207262
2980000000.0 -0.28030646957083977 0.09639340690520841
3000000000.0 -0.2388157141863364 -0.1850136943267543
3020000000.0 0.10800551965453557 -0.28488451898645745
3040000000.0 0.2575455411706432 0.1632944774119401
3060000000.0 -0.297058576626381 0.06649228134508901
3080000000.0 0.15966721107522372 -0.2547398084339675
3100000000.0 0.05261050858007856 0.2904177771118225
3120000000.0 -0.19731763430542051 -0.20709125771439812
3140000000.0 0.2522744204204636 0.11157696658962732
3160000000.0 -0.255284138654038 0.05354662183120118
3180000000.0 0.17099084210870535 0.17338451213501968
3200000000.0 -0.1892392408706216 0.11422715041798412
3220000000.0 -0.04683023970010792 -0.1886107592344272
3240000000.0 0.10795875581927016 0.12467792334654997
3260000000.0 -0.0320599653649159 -0.12979852681338938
3280000000.0 -0.094924960109631 0.045614299543069316
3300000000.0 0.0698684907157209 0.03881014337495545
3320000000.0 0.02786904626732541 -0.045792880803066746
3340000000.0 -0.01893637261928291 0.023966264446206764
3360000000.0 0.007079021349243699 -0.00713217634614456
3380000000.0 -0.00424459763347272 0.007432835834976181
3400000000.0 -0.008965213921230633 0.021325258058489678
3420000000.0 -0.02183957772009637 0.030630297989120585
3440000000.0 0.002525148430023538 -0.04740882062743357
3460000000.0 -0.05298838897015694 -0.008010822488600982
3480000000.0 0.050745688611598665 0.03237014434642205
3500000000.0 -0.06543716016640748 0.02938417876911638
3520000000.0 -0.0657456406998475 -0.056367918082603864
3540000000.0 0.018187688588857345 0.10027885432064275
3560000000.0 -0.03336743300856513 -0.11288430114238679
3580000000.0 0.026427953777632626 0.13209709483841442
3600000000.0 -0.10199712591908676 0.11744101319180528
3620000000.0 -0.021313761225967766 0.1670900210878341
3640000000.0 -0.1429780792624776 0.1105962717146444
3660000000.0 -0.08161489983034359 0.17057687069135108
3680000000.0 -0.14732814577231523 0.1213407102511906
3700000000.0 -0.18871178598882568 -0.010288254989713074
3720000000.0 -0.025016112101642996 -0.18303582327764417
3740000000.0 0.1777441129420096 -0.021861403740383242
3760000000.0 -0.12037632823512327 -0.12556996591071495
3780000000.0 0.01632857523349818 0.16627939129033123
3800000000.0 0.16016927980626405 0.02146710136963248
3820000000.0 0.099197763460505 -0.12255752509598816
3840000000.0 -0.0036151866811230822 -0.1526854587971515
3860000000.0 0.0780920665566488 -0.1298915989840116
3880000000.0 0.03333439965272562 -0.1490547819437281
3900000000.0 -0.08731368023474902 -0.12633411923253443
3920000000.0 -0.14849254108599536 0.053248237449267016
3940000000.0 0.15900746149482703 0.03681058218570815
3960000000.0 -0.020809083497480337 0.16932378141986104
3980000000.0 0.06405019160059414 0.16351406407781213
4000000000.0 0.1673474122178953 0.03594549972707636
