! Created with skrf (http://scikit-rf.org).
# Hz S RI R 50.0 
!freq ReS11 ImS11
400000000.0 -0.6966050902309779 0.4975703135836539
420000000.0 -0.1453874599848445 0.8540037500498966
440000000.0 0.8320724105022658 0.11194639534678792
460000000.0 0.15640114357639368 -0.7861999426940403
480000000.0 0.18588870258689322 -0.7081934492074913
500000000.0 -0.23946659178012986 0.5134173518065794
520000000.0 -0.46336958578322013 -0.09868945423189836
540000000.0 0.36068564133843306 0.21021809132363178
560000000.0 -0.24378319987157376 0.25599526963692604
580000000.0 0.24805659532900468 0.2234874314632928
600000000.0 0.19682897139877986 -0.2658658219002028
620000000.0 -0.25106406091863426 0.23748693765316942
640000000.0 -0.15025619003518195 0.3401555803519514
660000000.0 0.004643322044976381 0.3903136351257288
680000000.0 -0.41418643718534587 -0.01714143427953377
700000000.0 0.06403219205972453 0.4263762218895618
720000000.0 0.4181772125674431 0.12277498782096054
740000000.0 -0.0803361197297094 0.42635643358925945
760000000.0 0.2428643476933207 -0.3424821488304684
780000000.0 0.35462071823493635 0.1651750620262114
800000000.0 -0.29789642419365275 0.1991534779297421
820000000.0 -0.1123227763701486 0.28011915633694734
840000000.0 0.01918146360011919 -0.2432379554381451
860000000.0 0.024785992784188794 0.1935036560754026
880000000.0 -0.1488370455440055 0.030366986401458185
900000000.0 -0.0670507502254912 0.036935282310248535
920000000.0 0.014442917003106672 0.040573525381214184
940000000.0 0.011346701484963573 0.030560765604606924
960000000.0 0.0401257716256579 0.01576259859373119
980000000.0 -0.04350255207693078 -0.03893363953021097
1000000000.0 0.009533163777432142 0.06183311586726639
1020000000.0 -0.07255767209783578 0.028175256502188627
1040000000.0 -0.07340368265860647 -0.05006942097009276
1060000000.0 0.11556208246026965 0.05973739262091414
1080000000.0 -0.10510687973238918 -0.10661204768464351
1100000000.0 -0.10905194315626551 0.14208789107565536
1120000000.0 0.20476521630587075 -0.011195055073350413
1140000000.0 -0.21304299938922022 -0.12203096181845412
1160000000.0 -0.2159647243424301 0.18498597489439053
1180000000.0 -0.07139201711663087 0.3154988683207728
1200000000.0 -0.029409164537191914 0.35502270219805204
1220000000.0 -0.3478239597451168 -0.16145863636116078
1240000000.0 0.4036204938981955 -0.04586124026629219
1260000000.0 -0.4197743908196403 -0.07242116330919886
1280000000.0 0.37415809359808033 0.2277406442366196
1300000000.0 0.043612095320875705 -0.4389125809495377
1320000000.0 -0.36391280310798796 -0.23746322873986064
1340000000.0 -0.10569890555154289 -0.41495914339082446
1360000000.0 0.3009939695094485 -0.3006353873596732
1380000000.0 0.23869584136593605 -0.35479334126587153
1400000000.0 -0.3302797732941855 -0.2576755162496339
1420000000.0 -0.27788742779979403 0.2921495937547429
1440000000.0 0.26992936651666305 0.26600054172756404
1460000000.0 0.3179774359243854 -0.14621365620692794
1480000000.0 -0.0721156193750591 -0.31237907421407013
1500000000.0 -0.28345973196397484 -0.05650848614010747
1520000000.0 -0.23325988873744025 0.12132721663978699
1540000000.0 0.0812754840186206 -0.2222263604314258
1560000000.0 0.2041396529221176 0.007580700173939382
1580000000.0 0.1478198705143417 0.09625530512264698
1600000000.0 -0.1191340348120697 -0.08216379390828267
1620000000.0 0.07982273112523101 0.07670545172820852
1640000000.0 0.08202517922960954 0.013053458914407075
1660000000.0 0.050374365519273 0.029101475385117433
1680000000.0 0.015104075320816205 0.02589739733363176
1700000000.0 -0.0034350894894524682 -0.008422658529818928
1720000000.0 -0.0038471103815540925 0.013870798326238453
1740000000.0 0.03023970241007325 -0.015298514039494223
1760000000.0 -0.02982809096274977 0.04281829150359817
1780000000.0 0.07910569947476127 -0.0013799490327910293
1800000000.0 0.05544627472395196 0.0928260152341657
1820000000.0 0.12627053556061088 -0.0344449212528362
1840000000.0 0.068388605794249 -0.14643304200696525
1860000000.0 -0.09154527241103809 -0.16817050556150462
1880000000.0 -0.19040515024971325 -0.1258604195539482
1900000000.0 -0.15782402286169356 0.21911029335563553
1920000000.0 0.30967551246553954 0.018097996151488754
1940000000.0 -0.12361385946547913 -0.3247295309178371
1960000000.0 -0.13243475541129723 0.35737908073845365
1980000000.0 0.356071526500277 -0.19372537368703618
2000000000.0 -0.2548094188505461 -0.34086249897852106
2020000000.0 -0.19549548226699937 0.39297189396038995
2040000000.0 0.4015866297494797 0.19213720009083013
2060000000.0 0.18175407734813523 -0.40418241294232865
2080000000.0 -0.24583992079399253 -0.35834901588682394
2100000000.0 -0.37488695909407055 -0.19717486421970776
2120000000.0 -0.36751581836201785 -0.18408081047837424
2140000000.0 -0.30487558387564345 -0.25968576841235547
2160000000.0 0.1491332906246014 -0.35966409617682793
2180000000.0 0.007708660661424402 -0.37818036582076625
2200000000.0 -0.26866471495864974 -0.25133843276947443
2220000000.0 -0.35137768476695713 0.07431402683072831
2240000000.0 -0.032143559295781735 0.3550207788556775
2260000000.0 0.31132569812687827 0.17218082681514177
2280000000.0 0.3045502237574327 -0.1915054221414751
2300000000.0 -0.24608773460533437 -0.2793795824817014
2320000000.0 -0.3259444748849681 0.2229936493973991
2340000000.0 0.3336880836490847 0.26725255533887277
2360000000.0 -0.1564593992558489 -0.44237828708789717
2380000000.0 0.15910256562456634 0.49114310300622327
2400000000.0 -0.2737724629613909 -0.49623045907577984
2420000000.0 0.5791902460720502 0.2099371536634997
2440000000.0 -0.599947868344861 0.27647329810311316
2460000000.0 0.3500295483059817 -0.601531405057491
2480000000.0 -0.12542345701532542 0.7114391362823171
2500000000.0 0.18709227664847786 -0.7140944135069529
2520000000.0 -0.43340219623262816 0.6068909486774315
2540000000.0 0.7099288132587512 -0.22543396112809394
2560000000.0 -0.6197380542579195 -0.39732730369129415
2580000000.0 -0.15133977157908005 0.7030746735362676
2600000000.0 0.6533521374956462 -0.23287495862025515
2620000000.0 -0.49414019233411005 -0.44052726252157076
2640000000.0 -0.5925051252465529 -0.1949673604176903
2660000000.0 0.07569746194883986 0.5733520495720013
2680000000.0 0.4731186861658865 -0.24336420834787226
2700000000.0 -0.40057331882006336 -0.27369071786051197
2720000000.0 -0.00841770549321864 0.43814194862003897
2740000000.0 0.3852769042217361 -0.09364450481983015
2760000000.0 -0.2892348903374619 -0.2169568836465385
2780000000.0 0.20230923591927039 0.2679020667169387
2800000000.0 -0.288422765432957 -0.12938309116144783
2820000000.0 0.18016911040557354 -0.2414871270965749
2840000000.0 0.24324443558082023 0.16155835619681952
2860000000.0 -0.19491023291948525 0.21127383256253335
2880000000.0 -0.19087033605384282 -0.2116803443254895
2900000000.0 0.262146186594497 0.11186664375399724
2920000000.0 -0.07577012129458165 -0.27618987081358215
2940000000.0 -0.27451183349020714 0.09234366861784228
2960000000.0 -0.19989812595242287 0.21231801520434582
2980000000.0 -0.29007307843268537 0.0627709322454089
3000000000.0 -0.20740902581796233 -0.22063687860749245
3020000000.0 0.1493018585984657 -0.266069862185042
3040000000.0 0.19868908180469247 0.2314909726840316
3060000000.0 -0.30175472497751166 0.04146530078018599
3080000000.0 0.19547744997706587 -0.2283930537497369
3100000000.0 -0.029155724133212286 0.29325290264223514
3120000000.0 -0.14435315581671612 -0.24602130959165847
3140000000.0 0.2273310697376553 0.1546674229887367
3160000000.0 -0.2599646574386935 0.007544352895145047
3180000000.0 0.1506212906905998 0.18996797950689093
3200000000.0 -0.19822914822533053 0.09453276570599613
3220000000.0 -0.02629324618332262 -0.19103234408069897
3240000000.0 0.10594135263169338 0.12394523391933591
3260000000.0 -0.059871925623317425 -0.11813916420948291
3280000000.0 -0.07005536091823397 0.07689511540679524
3300000000.0 0.07613984576832512 -0.021629016675920678
3320000000.0 -0.05053508788378507 -0.015309737589810348
3340000000.0 0.018343781494295584 -0.02321450738840609
3360000000.0 -0.0012791438877717627 0.009468189732677585
3380000000.0 0.000753266514807969 -0.009926482455726094
3400000000.0 -0.016221489131286154 -0.017571450165730883
3420000000.0 -0.035128933096529875 -0.014885228069440738
3440000000.0 0.04691104742586588 0.0032083825956726467
3460000000.0 0.011907854736599133 -0.05123512175252587
3480000000.0 -0.03786542459918693 0.046131893476314384
3500000000.0 -0.032601252486316214 -0.06386748019935919
3520000000.0 0.01558382289651144 -0.08536303638342349
3540000000.0 -0.037597994172895145 0.09511060076239353
3560000000.0 0.061880424767377866 -0.09881807307154099
3580000000.0 -0.05229465528507004 0.12381596993641679
3600000000.0 -0.14194251298600413 0.06134076416587359
3620000000.0 -0.09541474835752399 0.13706596510973895
3640000000.0 -0.17211700547393355 0.04957270115203581
3660000000.0 -0.14545509724181316 0.11759284843458279
3680000000.0 -0.1834337117321384 0.04790192788922356
3700000000.0 -0.17340909335962632 -0.07095606182460613
3720000000.0 0.009952623310980109 -0.1831776371515915
3740000000.0 0.17742201102876287 0.00805816663829664
3760000000.0 -0.1128864853474798 -0.130529208158502
3780000000.0 0.009485909564070734 0.16488132820143403
3800000000.0 0.1577141562003238 0.024920978208980444
3820000000.0 0.11272557278156128 -0.10767328659649938
3840000000.0 0.017626983819522754 -0.15074797258614184
3860000000.0 0.07155662128477562 -0.13227301044981774
3880000000.0 0.006298805768439989 -0.1514855676287219
3900000000.0 -0.09479949610313905 -0.11925978816433595
3920000000.0 -0.14261238910794388 0.06530055596186266
3940000000.0 0.1599311241473533 0.027782340355758755
3960000000.0 0.008465884560034482 0.169709912214795
3980000000.0 0.10761513220719839 0.137640798071549
4000000000.0 0.16808691531237843 -0.03121843074988576
