! Created with skrf (http://scikit-rf.org).
# Hz S RI R 50.0 
!freq ReS11 ImS11
400000000.0 0.26811241094194965 0.8276051185721086
420000000.0 0.6325138583733095 0.58076393756515
440000000.0 0.7820574336394064 -0.2576062023616632
460000000.0 0.18107368639953808 -0.7622270689244944
480000000.0 0.6977169126644094 0.008028903762368176
500000000.0 0.5433952724336957 0.17905921588209617
520000000.0 0.3633691441527077 -0.34288861985530605
540000000.0 0.39824814712263834 0.1862854593899527
560000000.0 -0.3494994137612895 -0.10850571363933706
580000000.0 0.011390414604978178 0.34636446338637117
600000000.0 0.2295127473401651 -0.253973929336533
620000000.0 -0.28575490899146294 0.21348772792328646
640000000.0 -0.024839834994541926 0.38160350641957225
660000000.0 0.12346078630625207 0.379213424019634
680000000.0 -0.4243873886203088 -0.0341854376195598
700000000.0 0.42818887747106904 0.1173839465241709
720000000.0 -0.27853328812882916 -0.3478719129667969
740000000.0 0.18968009831063545 -0.38991492738246486
760000000.0 -0.38162852596068947 0.15449616765913934
780000000.0 -0.01993226600486405 -0.36993786421671987
800000000.0 -0.19769887445535758 0.2670741905872221
820000000.0 0.028211165936228546 -0.2741707277377405
840000000.0 0.1564535821847012 -0.1703089556486014
860000000.0 0.10272728441131924 0.17363694863959162
880000000.0 0.14307919900381685 0.03314946861099903
900000000.0 -0.04745445243467319 -0.07948675958741573
920000000.0 0.06324177886108877 -0.0024208414370213
940000000.0 -0.03379441464599317 0.026026451200169196
960000000.0 0.0019632886671820103 0.05033205363217229
980000000.0 -0.01687213198724353 0.07015924368282554
1000000000.0 0.08489372241298698 -9.029089950357416e-05
1020000000.0 0.08407789909829178 -0.06026732141269738
1040000000.0 -0.04800700089305001 0.09885744317774736
1060000000.0 0.05762038104442175 -0.12418860923733593
1080000000.0 -0.0982984687543984 0.1069283999794651
1100000000.0 -0.012257539541006106 -0.16442264179550176
1120000000.0 0.1808030073818799 -0.06370094588036367
1140000000.0 -0.036441444226423314 -0.23295292288747857
1160000000.0 -0.22956040051608734 -0.1654798586313099
1180000000.0 -0.2457685836663137 0.21582740515618787
1200000000.0 -0.10305449272740266 0.3437177599886007
1220000000.0 -0.32330671388989735 -0.2045955391343607
1240000000.0 0.3890447165591109 0.10500065046760726
1260000000.0 -0.24872814511538294 -0.34376664988189914
1280000000.0 -0.014510845034931696 0.4374418061758575
1300000000.0 0.4242473407450587 -0.1362820544333355
1320000000.0 -0.16907980573380635 -0.4072643101749287
1340000000.0 -0.09687769297412914 -0.42328260926667266
1360000000.0 0.11716740367525143 -0.41128088956373327
1380000000.0 -0.07719177933128735 -0.41898238642722463
1400000000.0 -0.37556315263320234 -0.16689737825369044
1420000000.0 -0.29673159099648244 0.25791531117811056
1440000000.0 -0.09534239772924161 0.35804049309429303
1460000000.0 0.24982669702445645 0.24019397900075715
1480000000.0 0.2687244348167255 -0.17827676956226202
1500000000.0 -0.2766686008879384 -0.10525248029795557
1520000000.0 -0.06201874537339138 0.26200358523666606
1540000000.0 -0.23038796622541718 0.05997541966952302
1560000000.0 -0.1963570233591582 -0.03877535243267385
1580000000.0 -0.0898831205903454 -0.1421715598107128
1600000000.0 -0.13146687780449928 0.028761244100465617
1620000000.0 -0.073370605252545 -0.07124021645382861
1640000000.0 0.05389225492891117 0.06065974982147616
1660000000.0 0.05122815885893716 0.031204846644535145
1680000000.0 -0.024136470756004395 -0.030396847510079667
1700000000.0 0.014942837234454383 -0.015786250161345494
1720000000.0 0.0009505699985265164 0.0032085751043078856
1740000000.0 -0.019823425692655793 0.005744209505684298
1760000000.0 -0.003502244759016203 0.0433964560210314
1780000000.0 -0.0615742135640527 -0.046231822789451205
1800000000.0 -0.008684391492952042 0.11192686630050165
1820000000.0 -0.1406242487026839 -0.005296858436698968
1840000000.0 0.1545760419620687 -0.07597693248055823
1860000000.0 -0.19655708967874316 0.03186390324628488
1880000000.0 -0.16151470338617274 0.1624818329604501
1900000000.0 -0.046467499424374746 0.2622358429101193
1920000000.0 0.2972296071093338 0.06123499764227689
1940000000.0 0.09109885165498058 -0.3296396481740642
1960000000.0 -0.324562135791382 0.18957697088943543
1980000000.0 0.39853010565893704 0.04674164351131296
2000000000.0 -0.08775463832919397 -0.41297217431106026
2020000000.0 -0.3345778811980809 0.2774027191933165
2040000000.0 0.22642686329614076 0.37657264153402975
2060000000.0 0.40294591864541585 -0.17243726248563432
2080000000.0 0.07423273635073772 -0.4247140626184142
2100000000.0 -0.0820515500331186 -0.41526637413613826
2120000000.0 -0.22035211553440093 -0.34918310504017785
2140000000.0 -0.3730075295568319 -0.14841722072232602
2160000000.0 -0.06906235227776812 -0.37979244090930997
2180000000.0 -0.19252463009242468 -0.31658478505229276
2200000000.0 -0.2703405219313955 -0.23298148480172365
2220000000.0 -0.3227369650254467 -0.12921031948953166
2240000000.0 -0.3051222164809958 0.15813808957100448
2260000000.0 -0.17747488509414788 0.2947559694422973
2280000000.0 0.029406323881481955 0.3480338057730804
2300000000.0 0.36407138051935556 -0.011547236323891364
2320000000.0 -0.07059405667775046 -0.3814419775871068
2340000000.0 -0.3442716428405202 0.23847798406144266
2360000000.0 0.4514938040609212 0.07512252673438356
2380000000.0 -0.45003267580154205 -0.2276033932159317
2400000000.0 0.447831091919768 0.3277689329837286
2420000000.0 -0.5748446763388383 -0.19586599022977594
2440000000.0 0.6259145603570677 -0.1997584815766716
2460000000.0 -0.43796952010117074 0.5433305317332202
2480000000.0 0.10850453252509629 -0.7213379589911988
2500000000.0 -0.06670187079854985 0.74761779200289
2520000000.0 0.2299288137109406 -0.7257171906845538
2540000000.0 -0.5204117878048454 0.5582114575322439
2560000000.0 0.7478241244859691 -0.11686192698447265
2580000000.0 -0.47413138231790564 -0.5702285739290864
2600000000.0 -0.08167477345781456 0.7124076591127583
2620000000.0 0.5677626477079767 -0.3853012815199641
2640000000.0 0.29775236008161265 -0.576654938012805
2660000000.0 -0.6012312445309284 0.06638398000736948
2680000000.0 0.4214092579006338 0.3660347173193912
2700000000.0 -0.061572901656416046 -0.5089102188461109
2720000000.0 -0.22058362832419448 0.40937330931001475
2740000000.0 0.3544424535485919 -0.22836946330552305
2760000000.0 -0.35241297292829443 0.15054969392053047
2780000000.0 0.25907608261448356 -0.23882485156518724
2800000000.0 -0.09774693724024264 0.31140762752047735
2820000000.0 -0.22198626808356295 -0.21372137938215158
2840000000.0 0.2921025030806279 -0.04596059917511046
2860000000.0 -0.16971797563535776 0.23726913957845194
2880000000.0 -0.020074239197652985 -0.2909003221414716
2900000000.0 0.05041342724286392 0.2894582402078228
2920000000.0 0.2046250300598331 -0.21753447281653243
2940000000.0 -0.2863389693190058 -0.10791004640047291
2960000000.0 -0.1876172819236418 0.24585189942793598
2980000000.0 -0.23123089983542844 0.21194255703508963
3000000000.0 -0.31654137978799385 0.017386868779953497
3020000000.0 -0.1122499650531869 -0.29702084003582885
3040000000.0 0.3091201911681094 -0.05980913326542409
3060000000.0 -0.19555733719441112 0.24292775758449772
3080000000.0 0.15209246156971998 -0.265720270106519
3100000000.0 -0.12905755276988184 0.27113978208539224
3120000000.0 0.036452193212646616 -0.28949295696563504
3140000000.0 0.0433534256836776 0.278626506534924
3160000000.0 -0.08717822399964606 -0.2529279072065321
3180000000.0 -0.1945062843781255 0.1594765508405421
3200000000.0 -0.09202580526774623 -0.21109517327287264
3220000000.0 0.16307280102565744 -0.12054988396750421
3240000000.0 0.10970965225248835 0.13376151001416306
3260000000.0 -0.11248145921105691 -0.08144155060134627
3280000000.0 0.10160514070201514 0.029357469690168333
3300000000.0 -0.04236393131265941 -0.06260648217931657
3320000000.0 -0.044029861836616016 -0.014771162440928335
3340000000.0 0.021505992788848113 0.006810523152222362
3360000000.0 1.0123659633084302e-05 0.0047210973796318135
3380000000.0 0.0032778672257986496 -0.009885607227757998
3400000000.0 0.008853646439844216 0.020468475027614702
3420000000.0 -0.032399382499903755 -0.013882097464173813
3440000000.0 -0.026991145908330547 -0.039465092171228774
3460000000.0 -0.0005608977073777851 -0.056913014249818095
3480000000.0 0.06427165380297438 -0.025713181256562544
3500000000.0 -0.01911449437345301 -0.08047036024516448
3520000000.0 -0.0657299847031409 0.07193365540346953
3540000000.0 0.061119385156568756 -0.09319167541005437
3560000000.0 -0.034485939490554875 0.1200990787820869
3580000000.0 0.06374446974321049 -0.12274443351977878
3600000000.0 0.11705714987535956 0.10464043748912523
3620000000.0 0.05516062629919153 0.15994451379139657
3640000000.0 -0.1439014398667549 0.10816424080631952
3660000000.0 -0.18832207427047493 0.014240310328860781
3680000000.0 -0.11872248108805926 -0.15174317842084228
3700000000.0 0.001161367663120283 -0.19217101084952748
3720000000.0 0.16645795995850632 -0.09731637483012337
3740000000.0 0.18862671959148825 -0.011951971337831553
3760000000.0 -0.16594583805201263 0.0766731686785638
3780000000.0 0.11094561365873 -0.13109856369467576
3800000000.0 -0.0881880064207243 -0.135671278851216
3820000000.0 -0.15007706308910163 -0.031405286859607695
3840000000.0 0.0515686545093568 -0.13694870760379124
3860000000.0 0.02047714550918878 0.14579705092745196
3880000000.0 -0.01220771525581546 0.1544633129247326
3900000000.0 0.1557094607570126 -0.03599563355022899
3920000000.0 -0.16632880142585763 -0.0007375001094210553
3940000000.0 0.10115046076674457 -0.13852512334229022
3960000000.0 0.16971409452479166 -0.03664079368511022
3980000000.0 0.050662222203585856 -0.16500655355209162
4000000000.0 0.022727695749081192 -0.16335875999954066
