! Created with skrf (http://scikit-rf.org).
# Hz S RI R 50.0 
!freq ReS11 ImS11
400000000.0 -0.8155191849803077 0.28174736630034364
420000000.0 0.10886246315839834 0.8581235316434437
440000000.0 0.8264799483358871 -0.14300836966535543
460000000.0 0.3200479243157407 -0.721871637012195
480000000.0 0.6334824145938412 -0.3531476495609414
500000000.0 -0.4481305633053817 -0.3466066962770007
520000000.0 -0.49093008647521497 -0.0057890298626180866
540000000.0 0.033003335201892664 -0.40792319769246155
560000000.0 -0.330565530475062 -0.16060415846369555
580000000.0 0.21202323836334053 -0.23900182191607452
600000000.0 0.005492013703834403 -0.32743967177857547
620000000.0 0.3292413978371136 0.03683107421284955
640000000.0 -0.3308844708086209 -0.114842371212945
660000000.0 -0.34265747067241975 0.1818694865366114
680000000.0 0.20234105621142504 -0.35604057868131606
700000000.0 -0.35040864963680546 0.26931063182999293
720000000.0 0.270178854607198 0.3537995817950484
740000000.0 -0.07531081131283486 0.448478444261242
760000000.0 -0.42554292763486345 -0.07570532925441016
780000000.0 0.3383568341948686 -0.1991552498255962
800000000.0 0.18115882359627467 0.30504050479651135
820000000.0 -0.16996461715279257 0.23530023908945685
840000000.0 0.24019215002955133 -0.01635207579499053
860000000.0 -0.1123054056158275 0.15447701122917992
880000000.0 -0.05611385055506105 0.13508288039634797
900000000.0 -0.0635135919260777 -0.025368787943670163
920000000.0 0.030866730968869695 0.019297952095420186
940000000.0 -0.017480794918142414 0.029779773280485027
960000000.0 -0.02800438166317334 0.03325305011209435
980000000.0 0.036209004722834226 0.039019156227641925
1000000000.0 0.0261290072996173 0.05797122617528657
1020000000.0 0.07550476333159604 0.009335230824795874
1040000000.0 0.06413943228228608 -0.06832830005941139
1060000000.0 0.10523226721365153 0.07189106321649323
1080000000.0 -0.022157304128255707 -0.147895761320752
1100000000.0 -0.07285094204384412 0.1557660540698651
1120000000.0 0.07693665956222097 0.18822268625450478
1140000000.0 -0.2341956393772262 -0.06992888492382932
1160000000.0 -0.234619199306569 0.15661426030918676
1180000000.0 0.1354284110037417 0.2938895618739379
1200000000.0 -0.23502278293241927 0.2631912929785899
1220000000.0 -0.32015873126275024 -0.2142886552658884
1240000000.0 0.35489460513226484 0.19603311003652185
1260000000.0 -0.39539414242027077 -0.17159648010074052
1280000000.0 0.31333900730247344 0.3061053085384258
1300000000.0 0.19625191679515647 -0.398915107641078
1320000000.0 -0.3350525384048257 -0.27927764299131935
1340000000.0 -0.043280360792825115 -0.42987653336094045
1360000000.0 0.09746187248761898 -0.4194789837399176
1380000000.0 -0.08634188738739834 -0.42085960733674543
1400000000.0 -0.35888649369975995 0.20613601338780205
1420000000.0 -0.08514748985039883 0.3856739756345449
1440000000.0 0.3391531442586127 0.14521717444118337
1460000000.0 0.3072736678074721 0.14523785338790612
1480000000.0 0.28574372890535593 -0.1367502086839913
1500000000.0 0.051791377610330154 -0.2865466741823434
1520000000.0 -0.15966041748685694 -0.21334569684154103
1540000000.0 0.209634435478245 -0.12565972956563504
1560000000.0 0.21192377979208474 -0.0037710782953830754
1580000000.0 0.1760329509251765 -0.046819703348237554
1600000000.0 -0.13630205518693142 0.06464671594448186
1620000000.0 0.10471934673870577 -0.04845137091476466
1640000000.0 0.08618072203049883 -0.014945432788234765
1660000000.0 -0.032849969347203904 -0.0531752087610003
1680000000.0 -0.03280340704077685 -0.009810407519071538
1700000000.0 0.011189318385455758 0.009960019312498911
1720000000.0 0.016222157210902595 -0.000422133730688753
1740000000.0 0.013617840723340244 -0.031627887050708355
1760000000.0 -0.04045387204314515 0.034912217710306746
1780000000.0 0.054267128951030946 -0.058246671626447054
1800000000.0 0.11193237171691586 -0.020011803829334852
1820000000.0 -0.09011610490917243 0.108907463894362
1840000000.0 0.14999557291738744 -0.08522585623196084
1860000000.0 -0.13432533115281622 0.15072898297592355
1880000000.0 0.15218873768457894 0.1749003774098777
1900000000.0 0.2593108257976471 0.060664044240559746
1920000000.0 -0.011811018959071364 -0.29862852461796924
1940000000.0 -0.2540734085247359 -0.21289148128358576
1960000000.0 -0.25029686562353615 0.26565579634703196
1980000000.0 0.2699475898793812 0.28115962259445926
2000000000.0 0.4018762976693658 -0.10283142546510787
2020000000.0 -0.14198472837468512 -0.4123913200421233
2040000000.0 -0.38607324391035247 0.22820169793279713
2060000000.0 0.36573182145371624 0.26763644972356604
2080000000.0 0.11317003741092586 -0.43806682995469626
2100000000.0 -0.4384853223980729 0.043886128599511014
2120000000.0 -0.2429730583803154 0.3483089938746496
2140000000.0 -0.40228887081301773 0.05050237191890783
2160000000.0 -0.3570307571985703 0.1391488444507858
2180000000.0 -0.3671100489051624 -0.01170289631035487
2200000000.0 -0.3304035750447531 -0.11515923135564786
2220000000.0 -0.14065252998901331 -0.3157240314101399
2240000000.0 -0.2566073188476179 -0.23037708509675642
2260000000.0 -0.3252665646312258 -0.13747826795536489
2280000000.0 -0.20960011512763393 0.2946470301323627
2300000000.0 0.3376105348849566 0.17156084847217556
2320000000.0 -0.18203349132139654 -0.35982028700969965
2340000000.0 -0.1834429422380427 0.3941196565139862
2360000000.0 0.2629046380920738 -0.38889587473256415
2380000000.0 -0.4457094764512079 0.25619242262648956
2400000000.0 0.441120451832921 -0.3485242901577338
2420000000.0 -0.333246042575437 0.5131653930157772
2440000000.0 -0.11658568979771239 -0.6474307393684094
2460000000.0 0.5292103522412647 0.45120671092520054
2480000000.0 -0.7137241556675042 -0.12840602898427864
2500000000.0 0.7237340550981041 0.17356307519725478
2520000000.0 -0.683712303459245 -0.3171602945613189
2540000000.0 0.5342128011507158 0.5326678682128049
2560000000.0 -0.005022360538734698 -0.7477299430058789
2580000000.0 -0.6017436149690751 0.4164357503781089
2600000000.0 0.6834923410504211 0.18312954237988172
2620000000.0 -0.22868426833511318 -0.6375313478019904
2640000000.0 -0.45143534014761755 -0.45368815869599805
2660000000.0 -0.2103973279782594 0.5565114577989205
2680000000.0 0.5494651590770433 0.029574048056890852
2700000000.0 -0.17982825144420808 -0.4738947645394179
2720000000.0 -0.21688620988123275 0.41018259976034444
2740000000.0 0.39835044413571913 -0.1456058779419542
2760000000.0 -0.38400429358443144 0.053474534489780956
2780000000.0 0.24847027066770713 -0.25637888744137605
2800000000.0 0.024025304321471735 0.3289560002999728
2820000000.0 -0.301663511422361 -0.0666652141030913
2840000000.0 0.19005006614766365 -0.22428820709838643
2860000000.0 -0.015480335606723449 0.28308860055544505
2880000000.0 -0.08591821316782984 -0.26610027731418273
2900000000.0 0.0026755343680119653 0.27706127119443047
2920000000.0 0.27126920119769743 0.07584931182906667
2940000000.0 0.1295271811208063 -0.2592821995602225
2960000000.0 -0.1283193144649142 -0.26871139426219115
2980000000.0 -0.22645592826724933 -0.207088395873502
3000000000.0 -0.16690491900780982 -0.2647585383983607
3020000000.0 -0.1418112660156552 -0.282061407228054
3040000000.0 0.2404425374621398 -0.2006798353041118
3060000000.0 0.1874614549718511 0.2482681559855824
3080000000.0 -0.29752433746169366 -0.06278512195938503
3100000000.0 0.27091405928508877 -0.11874061531112705
3120000000.0 -0.2083377387560577 0.1934373830381215
3140000000.0 0.12385935630742141 -0.24032300728140207
3160000000.0 -0.18249890041899813 0.17787419825095263
3180000000.0 0.07396558290467094 0.22709779911787556
3200000000.0 -0.08812941440217062 -0.20048578606896283
3220000000.0 0.13250858861058792 0.14763400325298723
3240000000.0 -0.1728455033296574 0.015200406378580774
3260000000.0 0.10187596966797968 -0.10536367711150875
3280000000.0 0.06321359735697007 0.10017614886692215
3300000000.0 0.08937054568363076 0.005120133581283169
3320000000.0 0.011282611921833966 -0.05717277121583257
3340000000.0 -0.027941403842600524 -0.014580727372479813
3360000000.0 -0.005002523832705034 0.011209171606492983
3380000000.0 -0.0031198294871304984 0.02010060589118147
3400000000.0 0.021866956106404607 0.024330473497189833
3420000000.0 -0.036049472227411956 0.020672926318043367
3440000000.0 -0.04176465815919205 0.018282892162463336
3460000000.0 0.03428139775104786 0.028356520422417646
3480000000.0 0.049151057530241786 -0.017484959159784066
3500000000.0 0.06421599784682992 -0.02386184723305442
3520000000.0 -0.044553806817271675 -0.07903530967743823
3540000000.0 0.045057568859604984 -0.10200384252743908
3560000000.0 0.07215351900787965 -0.10663501864045241
3580000000.0 0.14189331168038105 0.015354849303735192
3600000000.0 0.1614105229448704 -0.008031129627723585
3620000000.0 0.15842141822354125 -0.05759561495393436
3640000000.0 0.14802353560965903 0.09574740807557666
3660000000.0 0.018559846213690563 0.18042718919905137
3680000000.0 -0.18129784453618936 -0.03578540787082395
3700000000.0 0.027476989113368825 -0.18233428342558256
3720000000.0 0.14464630323481037 0.1155065482053729
3740000000.0 -0.030697462571413075 0.18020453870265504
3760000000.0 0.04125938421173794 -0.1742931037194644
3780000000.0 -0.019622513221190813 0.17220584100031322
3800000000.0 0.10014797458173158 -0.13213047385717805
3820000000.0 -0.12626883367297756 -0.09627139224309032
3840000000.0 -0.08974674213426591 -0.11983737621490195
3860000000.0 0.07853406913158945 -0.12409695969544332
3880000000.0 0.13925482091999425 0.05487658847135967
3900000000.0 0.15255658518239917 -0.009087503368930003
3920000000.0 0.12395919225861793 -0.09862367524073784
3940000000.0 -0.07369123338694732 0.15004029648267117
3960000000.0 -0.13635444657247456 0.11053917922244261
3980000000.0 0.1762017343003065 0.03179813971686635
4000000000.0 0.06503856655496174 -0.15853569874855325
