! Created with skrf (http://scikit-rf.org).
# Hz S RI R 50.0 
!freq ReS11 ImS11
400000000.0 -0.825061806710507 0.25204121148863795
420000000.0 0.1608492103312663 0.8502202178532766
440000000.0 0.8205293238198452 -0.16873915283513108
460000000.0 0.3694969470040143 -0.6967767259102778
480000000.0 0.6254143889109176 -0.36985149405906464
500000000.0 -0.523560907430324 -0.21378712831843016
520000000.0 -0.46110874406879293 -0.16449737310127271
540000000.0 0.0020348546601816277 -0.4117518489683461
560000000.0 -0.3450803712953787 -0.12519733889637458
580000000.0 0.192629738943634 -0.25430634556907833
600000000.0 0.13859908453364014 -0.2968945004000522
620000000.0 0.33152639075028373 -0.02013247141567157
640000000.0 -0.3459843201168803 -0.057070289582311494
660000000.0 -0.3465300696602419 0.17223648649881176
680000000.0 0.1405813585609478 -0.38424460246713427
700000000.0 -0.3607843963801624 0.2574810770232788
720000000.0 0.33230334112828513 0.2959801722818949
740000000.0 -0.07900777253619864 0.44877476170700387
760000000.0 -0.4178060111827261 -0.10963111258163342
780000000.0 0.3439464475393441 -0.1904191552724685
800000000.0 0.17469932574684088 0.30811754507194894
820000000.0 -0.16501491077061436 0.23849421180096825
840000000.0 0.23899795814016347 -0.03129773224455862
860000000.0 -0.11023100698351215 0.1554571863739406
880000000.0 -0.07494906508197514 0.1257758082474391
900000000.0 -0.0673708906356315 -0.010224165579157668
920000000.0 0.03456068058847955 0.010390154934515167
940000000.0 -0.030578761768197446 0.016713618904467098
960000000.0 -0.026623751204728145 0.03426233949301452
980000000.0 0.014585213345517331 0.051118459089742295
1000000000.0 0.024230374628905555 0.05876166398404459
1020000000.0 0.0739410557353776 0.01675802122570665
1040000000.0 0.06196039917407166 -0.0703134757122656
1060000000.0 0.10148004468531426 0.07748588079977564
1080000000.0 -0.03291210965681957 -0.14583344848288612
1100000000.0 -0.08122586114690061 0.15173678500700277
1120000000.0 0.04516415883793017 0.19789576740765047
1140000000.0 -0.2373498621868658 -0.06032372985251808
1160000000.0 -0.23277514499288107 0.15956349603878092
1180000000.0 0.12353251409482596 0.29886820340131287
1200000000.0 -0.24418127645750304 0.25479243915954203
1220000000.0 -0.31004711465557616 -0.22869366503798516
1240000000.0 0.35596180147334233 0.19342943643333496
1260000000.0 -0.39540683580934916 -0.17122282080566095
1280000000.0 0.3065814455292343 0.312645430657624
1300000000.0 0.2106495921921316 -0.39148182397953385
1320000000.0 -0.3477384882354249 -0.26311876152661656
1340000000.0 -0.04330076676323857 -0.42989518295632256
1360000000.0 0.1013977961525625 -0.4183739054311363
1380000000.0 -0.09600746060616534 -0.4187497837209858
1400000000.0 -0.3601832691927647 0.20361129272529227
1420000000.0 -0.09163956312274163 0.3844432306851097
1440000000.0 0.3360069250202686 0.15270858541076587
1460000000.0 0.30720688859685463 0.14500906816451042
1480000000.0 0.29754787334312766 -0.109761101930458
1500000000.0 0.06676091618669908 -0.2833456447622743
1520000000.0 -0.18037819877254094 0.1964784362078418
1540000000.0 0.21628361162802678 -0.11420845139045009
1560000000.0 0.21218839197332273 -0.002685597641427992
1580000000.0 0.17828939074842634 -0.03651393484752303
1600000000.0 -0.13443700595597358 0.068731056365096
1620000000.0 0.09961209921934455 -0.05827387116240659
1640000000.0 0.07323655351237289 -0.0482298019182466
1660000000.0 -0.04073821731282177 -0.04724268752743235
1680000000.0 -0.03329474768730315 -0.0038022578803601124
1700000000.0 0.012717712056956555 0.007877832847156502
1720000000.0 0.009911822049297846 -0.012962624840486063
1740000000.0 -0.020307961171934442 -0.02807241780046002
1760000000.0 -0.024427058930989197 0.04721612273730345
1780000000.0 0.04157886903072779 -0.06790109703303665
1800000000.0 0.09829431658800007 -0.05829025248111716
1820000000.0 -0.0703522129542226 0.12199835954901582
1840000000.0 0.13454755381388436 -0.10756415305471217
1860000000.0 -0.13409338159216375 0.15078884527988534
1880000000.0 0.13662572077683585 0.18702615035628994
1900000000.0 0.25604159733494897 0.07306046450393713
1920000000.0 -0.00037717375372588543 -0.2989471264868534
1940000000.0 -0.2345402692467207 -0.23452258625521458
1960000000.0 -0.26674217591849386 0.24971043165575074
1980000000.0 0.26009478785465573 0.2906108784944773
2000000000.0 0.40388120554648127 -0.09540012838048337
2020000000.0 -0.11581383945010318 -0.4204089260823935
2040000000.0 -0.36278624697923717 0.26316658228416395
2060000000.0 0.3413625590543251 0.29838581641632134
2080000000.0 0.10251716735583852 -0.4401528056001637
2100000000.0 -0.43684330715369596 0.05443223296957099
2120000000.0 -0.2386359620727251 0.3509493974891336
2140000000.0 -0.4047508953279122 0.017996627644467314
2160000000.0 -0.36005357067473226 0.13064286097242261
2180000000.0 -0.3661371103014733 -0.030224764639320632
2200000000.0 -0.32701917452439794 -0.1247460991121289
2220000000.0 -0.1483233026997929 -0.31200519495433787
2240000000.0 -0.27099099040843033 -0.21316772261261355
2260000000.0 -0.325767021555966 -0.13628223554449884
2280000000.0 -0.18444269130505042 0.311165381411665
2300000000.0 0.3312163925138725 0.18327955942154436
2320000000.0 -0.18835421763269009 -0.3564837330283197
2340000000.0 -0.20487877826703518 0.3828763835873982
2360000000.0 0.26798344175695155 -0.3849478718621179
2380000000.0 -0.44727423076254647 0.25357734175464186
2400000000.0 0.45674331216530817 -0.32736671898448383
2420000000.0 -0.3472327020135448 0.5035493117444816
2440000000.0 -0.09962729286286723 -0.6502565029124557
2460000000.0 0.5227567802462488 0.45853544589615747
2480000000.0 -0.6991030644948981 -0.194968356332597
2500000000.0 0.728636830489752 0.1507905015539192
2520000000.0 -0.6990942490818693 -0.28185349890944167
2540000000.0 0.4704723636154457 0.5901287622035152
2560000000.0 -0.0030632049104533585 -0.7477321112897427
2580000000.0 -0.6361870905267959 0.3622568548604613
2600000000.0 0.6746493384368588 0.21349514937632683
2620000000.0 -0.22643521626451554 -0.6383689633073105
2640000000.0 -0.4253156159745184 -0.47830855952066276
2660000000.0 -0.2552986543481631 0.5374304072323101
2680000000.0 0.5500026504734228 0.015812962555120554
2700000000.0 -0.17880275774187426 -0.47424523071966074
2720000000.0 -0.2179157885710593 0.40946558120782084
2740000000.0 0.3961735552843255 -0.15130324218807611
2760000000.0 -0.3839819240693365 0.05154391614802273
2780000000.0 0.24454439903497915 -0.2602604119710061
2800000000.0 0.04442886908762235 0.3270883717622721
2820000000.0 -0.3036425565991981 -0.05967885149324022
2840000000.0 0.17654843364445208 -0.23574061856197528
2860000000.0 0.004012842169979661 0.28384504584829384
2880000000.0 -0.07444230376063118 -0.2697192539634021
2900000000.0 0.0052551356953938096 0.2775553112719534
2920000000.0 0.2603926986922853 0.10759371875609192
2940000000.0 0.18579258164065832 -0.22267263086551695
2960000000.0 -0.08570374345265608 -0.28589321908354326
2980000000.0 -0.20434661381932986 -0.22862159345576316
3000000000.0 -0.14349249246171472 -0.2774268529148393
3020000000.0 -0.09719946467250057 -0.30062307046918757
3040000000.0 0.26151975671551037 -0.17234753095016184
3060000000.0 0.1853725018439296 0.24964537552305308
3080000000.0 -0.29893726767801326 -0.05500597530930421
3100000000.0 0.25157741403960504 -0.1556232065306645
3120000000.0 -0.22403151362610485 0.1738729134355474
3140000000.0 0.10467016116589749 -0.2489098848413251
3160000000.0 -0.18732290032209276 0.17192555142284843
3180000000.0 0.07374464893934185 0.22687300766182725
3200000000.0 -0.08193230217435653 -0.2029699650680992
3220000000.0 0.13441773999250492 0.1459394453222195
3240000000.0 -0.17331783136677864 0.011854313043311835
3260000000.0 0.099629880180319 -0.10824780801347196
3280000000.0 0.08632105460121789 0.08167893412726136
3300000000.0 0.08766605396306543 0.018815754373893885
3320000000.0 0.0031862897034424576 -0.058390225339200776
3340000000.0 -0.022826390527145586 0.021587575592900338
3360000000.0 0.00994185096058421 -0.006948578932558053
3380000000.0 0.019145283570940485 0.007149253380173203
3400000000.0 0.03234907424625415 0.006477847736668227
3420000000.0 -0.011575986986793097 0.04029901582717033
3440000000.0 -0.023502541003176513 0.03882465905682202
3460000000.0 0.041501305753851185 0.016498584705428268
3480000000.0 0.048391616742256796 -0.018648194749798994
3500000000.0 0.06585187187961344 -0.018495027097320583
3520000000.0 -0.05741364277294836 -0.07106105680040951
3540000000.0 0.04138335749298174 -0.1038582810786436
3560000000.0 0.03904904847164568 -0.12342900253311641
3580000000.0 0.13998356190918984 -0.03157944617476718
3600000000.0 0.1609353262030415 -0.010676951215470692
3620000000.0 0.15146889224384488 -0.07409482644854916
3640000000.0 0.1576959757063663 0.0805772373670255
3660000000.0 0.007623562428677065 0.18111701173376252
3680000000.0 -0.17696131760612036 -0.05344307081615171
3700000000.0 0.04273057417079636 -0.1799422378710672
3720000000.0 0.1361614405107302 0.12605925742255145
3740000000.0 -0.054686818575213444 0.1747863799205402
3760000000.0 0.06300243799494408 -0.16792733425405693
3780000000.0 -0.04640898066320247 0.16743724010310737
3800000000.0 0.09581114115517689 -0.13532181059499684
3820000000.0 -0.12321423918492519 -0.09998420506488635
3840000000.0 -0.08565597201414095 -0.12231255721016512
3860000000.0 0.09745445361278873 -0.10917527018904565
3880000000.0 0.12817587109464457 0.07710678003825115
3900000000.0 0.15021688134152306 0.025702758805291718
3920000000.0 0.13672492743764283 -0.07964612137836416
3940000000.0 -0.10876463590025376 0.12772677758324463
3960000000.0 -0.13463897514819775 0.1119462335558979
3980000000.0 0.1699167325024533 0.05699811309689402
4000000000.0 0.10347118755328254 -0.13652462246027267
