! Created with skrf (http://scikit-rf.org).
# Hz S RI R 50.0 
!freq ReS11 ImS11
400000000.0 -0.8277780779770758 0.2428501429187442
420000000.0 0.15876772974985875 0.8504866239432872
440000000.0 0.8288516341091089 -0.1220421767006185
460000000.0 0.36966666595631753 -0.6970819091675198
480000000.0 0.6114566906349317 -0.3921325951935902
500000000.0 -0.525373861219128 -0.20849061829515642
520000000.0 -0.4564892600463608 -0.17725908891274644
540000000.0 -0.013871963710100212 -0.41156771259897235
560000000.0 -0.342410462268399 -0.13217057862081333
580000000.0 0.19608210910109963 -0.25164341723367833
600000000.0 0.11897330094368655 -0.30553384504573833
620000000.0 0.3316858565394035 0.014570124470392826
640000000.0 -0.34582818566844914 -0.05911622208131657
660000000.0 -0.3546421772817974 0.155627443446305
680000000.0 0.14893037489942715 -0.3811481685887788
700000000.0 -0.3521212044061357 0.2694354743239802
720000000.0 0.33838588666537506 0.2891667179137057
740000000.0 -0.04080812434718026 0.45207911191555805
760000000.0 -0.41449727761640365 -0.12091358840825281
780000000.0 0.34407526104254293 -0.1901099040365091
800000000.0 0.1767577023642664 0.30670759538485765
820000000.0 -0.1569370638653759 0.24345034659770418
840000000.0 0.2389583088606115 -0.031063484903294875
860000000.0 -0.10136234398704821 0.16150259159085503
880000000.0 -0.07991262910279479 0.12263082590998262
900000000.0 -0.06759965910680042 -0.009978517650799356
920000000.0 0.03051974008933526 0.01963069082058508
940000000.0 -0.03453706386914664 0.0015313970538767495
960000000.0 -0.03450392335008443 0.02595522385467655
980000000.0 0.017168686679279517 0.0500201283187328
1000000000.0 0.024123571014104582 0.05848657973576542
1020000000.0 0.0753635935609159 0.007865172864038327
1040000000.0 0.057205710644653386 -0.07420018360125925
1060000000.0 0.10783032796255618 0.06846002232047844
1080000000.0 -0.03726805116886701 -0.14481309781067067
1100000000.0 -0.0709506013246714 0.1570283624331814
1120000000.0 0.04321512825496984 0.19852812170455864
1140000000.0 -0.23851351814377536 -0.05610897544763987
1160000000.0 -0.2325033648833863 0.16016831804058676
1180000000.0 0.10971764397120887 0.30425026524154936
1200000000.0 -0.25368297468636314 0.24527155948371498
1220000000.0 -0.28797059693858373 -0.2556463985726042
1240000000.0 0.34878986996168565 0.20592838594239937
1260000000.0 -0.39460091128404273 -0.1730773895490066
1280000000.0 0.3173557297654359 0.30165907384815877
1300000000.0 0.228288045913792 -0.38122900003267823
1320000000.0 -0.344896524562989 -0.26662507046687656
1340000000.0 -0.041799236572986745 -0.4299950267531054
1360000000.0 0.09530712190841242 -0.4197995752745076
1380000000.0 -0.10096612206601029 -0.4175825898109946
1400000000.0 -0.3598760564933374 0.20425145029301014
1420000000.0 -0.08708669756167788 0.38555501532064623
1440000000.0 0.3404227686944612 0.1431732615986864
1460000000.0 0.31029353176562025 0.1388983014940323
1480000000.0 0.28713440038811655 -0.13488579740365852
1500000000.0 0.06556453014281724 -0.2839148783707921
1520000000.0 -0.17406536041011206 0.20236729708129725
1540000000.0 0.21964383168295856 -0.10771564414554691
1560000000.0 0.21192974833690145 0.011187110024731323
1580000000.0 0.18207289946013622 -0.00605057730121611
1600000000.0 -0.13378153682088562 0.06949372031849145
1620000000.0 0.10176703341509398 -0.053839750042114685
1640000000.0 0.07365469092551474 -0.047309844682179254
1660000000.0 -0.04231714262384509 -0.0455520545123679
1680000000.0 -0.031054174049919767 0.01327411783393016
1700000000.0 0.01386741879956942 0.005289274013509525
1720000000.0 0.005111438906334836 -0.015378144321423454
1740000000.0 -0.027819933002389927 -0.0204082676172039
1760000000.0 -0.02670077315199427 0.0455959711503145
1780000000.0 0.036342089682880004 -0.07032197180853034
1800000000.0 0.09127698687977154 -0.06842564259179813
1820000000.0 -0.0677156956285631 0.12331311417568012
1840000000.0 0.13221121604688688 -0.1101406991961115
1860000000.0 -0.13196111881443942 0.15244665251883352
1880000000.0 0.13534888859903244 0.1880051410307995
1900000000.0 0.2540003665442876 0.0804195914586192
1920000000.0 -0.0013286796759892615 -0.2989485960924312
1940000000.0 -0.2308800263672167 -0.23839872099801993
1960000000.0 -0.26385853619043254 0.25290292661100655
1980000000.0 0.2674563456088744 0.2839511601038909
2000000000.0 0.40397085017742523 -0.095143764428457
2020000000.0 -0.11862782381431532 -0.4196370373251019
2040000000.0 -0.37057675207799373 0.2519878354000078
2060000000.0 0.32680482394815047 0.3140766780018549
2080000000.0 0.12161124944814931 -0.4350661251504511
2100000000.0 -0.43895908313682286 0.03004095860378306
2120000000.0 -0.249657527873957 0.3429189228253207
2140000000.0 -0.40475837725363184 0.012184460118213796
2160000000.0 -0.3599869882299664 0.1302900509384643
2180000000.0 -0.3663134452678484 -0.023354780266558992
2200000000.0 -0.3290951353403402 -0.11906040776830851
2220000000.0 -0.12887915424187987 -0.32077061114890076
2240000000.0 -0.24554612479209462 -0.2423067955693791
2260000000.0 -0.3154829921980422 -0.15777246358867686
2280000000.0 -0.17586065299650708 0.3158972284338011
2300000000.0 0.3383760302488315 0.17049181847175598
2320000000.0 -0.15716978459437442 -0.37069340982069904
2340000000.0 -0.19446988667219536 0.3884224139590186
2360000000.0 0.2850431786481051 -0.37264808777329217
2380000000.0 -0.4698366118008363 0.2082248048307534
2400000000.0 0.4852677537303575 -0.28374233976368435
2420000000.0 -0.37895679542748617 0.4798754135050792
2440000000.0 -0.06861592340495516 -0.6541943133466883
2460000000.0 0.49863159091111103 0.48468668152717626
2480000000.0 -0.7065581559306084 -0.1632536204020533
2500000000.0 0.736302714666261 0.10617671329155051
2520000000.0 -0.6745726720187198 -0.3369883424039812
2540000000.0 0.4983337393725974 0.5670166332029525
2560000000.0 0.015379698954295303 -0.7478753987158333
2580000000.0 -0.6421928931814626 0.352025778907143
2600000000.0 0.6682715886098882 0.23397882898413516
2620000000.0 -0.19369768871019266 -0.6497356835848437
2640000000.0 -0.43262876402682215 -0.4724075895487721
2660000000.0 -0.2694732002816829 0.5308400554420367
2680000000.0 0.5464881245254597 0.06488861712142502
2700000000.0 -0.135457721215596 -0.4882649598065153
2720000000.0 -0.23366434130385305 0.4007203863556044
2740000000.0 0.3903020964779171 -0.16597383545805028
2760000000.0 -0.38339807897532646 0.056915012627068745
2780000000.0 0.2703602744226731 -0.23345716390153862
2800000000.0 0.04114746229016883 0.32783419781302137
2820000000.0 -0.3049414965166216 -0.05346626799357405
2840000000.0 0.1761807994304783 -0.2362879123885227
2860000000.0 0.006796509689288531 0.2841413858027862
2880000000.0 -0.09390826572074298 -0.26388154477281645
2900000000.0 0.011718923446362873 0.27769907750220185
2920000000.0 0.2653296452723494 0.09549058080852768
2940000000.0 0.1853492054506791 -0.22322179003789475
2960000000.0 -0.12010739204067178 -0.27306593966036496
2980000000.0 -0.21259999119604472 -0.22134740100337583
3000000000.0 -0.1334401775143699 -0.2826859579287021
3020000000.0 -0.050547442813284514 -0.31190436724450493
3040000000.0 0.29066563774720827 -0.1170895103967123
3060000000.0 0.1430795478493139 0.27574904579155113
3080000000.0 -0.2944401777964529 -0.07467745855553277
3100000000.0 0.25862156663883856 -0.14361394596239804
3120000000.0 -0.21789386436482117 0.1813830156174184
3140000000.0 0.08890590134263407 -0.25482594703220446
3160000000.0 -0.1812593716576639 0.17836364567957855
3180000000.0 0.11353080284360868 0.20983958151426169
3200000000.0 -0.11883707226287685 -0.18320865126470803
3220000000.0 0.16022746572273375 0.1169621773389488
3240000000.0 -0.16730327059353614 0.04557254269522847
3260000000.0 0.08633673536353435 -0.11908211228833532
3280000000.0 0.10263122870963293 0.05997073336919433
3300000000.0 0.08573070485392367 0.02667832783271704
3320000000.0 0.017336468111041323 -0.056456364563044974
3340000000.0 -0.03070496567398619 0.009883933156549205
3360000000.0 -0.011631826282808837 0.0021008145692434843
3380000000.0 -0.0009732493660503582 0.019827900249068317
3400000000.0 0.027111045361460324 0.017810016295151845
3420000000.0 -0.028775081920913374 0.029933107683569406
3440000000.0 -0.025305578374758074 0.03769816029071321
3460000000.0 0.044597404064556034 -0.0045079202063154095
3480000000.0 0.0396939974975917 -0.033029316023915886
3500000000.0 0.057302480687116034 -0.036938617584888735
3520000000.0 -0.06856303406091924 -0.05967706952305454
3540000000.0 0.017749818470151814 -0.11015656038819226
3560000000.0 0.07057799718935734 -0.10776974610554885
3580000000.0 0.1430290657084213 -0.004972485089998794
3600000000.0 0.15970154940158915 -0.027235755894663174
3620000000.0 0.1501399770447781 -0.07761010792758634
3640000000.0 0.1520503419277335 0.09014966944990752
3660000000.0 0.039067693779449846 0.17742011056312684
3680000000.0 -0.18331273340767282 -0.02537496849540048
3700000000.0 0.01500027033317083 -0.184121287528919
3720000000.0 0.14653514946516305 0.11207183996819728
3740000000.0 -0.053810202045698696 0.1749492592001634
3760000000.0 0.06517954868204207 -0.16655594237392632
3780000000.0 -0.061038605857573945 0.16282879455150392
3800000000.0 0.11463594052570103 -0.12019042123849691
3820000000.0 -0.11908697456977636 -0.10524101980424581
3840000000.0 -0.07981682761086833 -0.12696427329297702
3860000000.0 0.08280089417126633 -0.12139624034120028
3880000000.0 0.14269036034800506 0.04389951196566977
3900000000.0 0.15139320564395128 0.01789111711924812
3920000000.0 0.1325063693324577 -0.0856940585091006
3940000000.0 -0.10773678850566962 0.12701028738656212
3960000000.0 -0.15193597015563737 0.08699984221992751
3980000000.0 0.15831715350658707 0.08438213850182226
4000000000.0 0.12131987480084463 -0.12170215067241946
