! Created with skrf (http://scikit-rf.org).
# Hz S RI R 50.0 
!freq ReS11 ImS11
400000000.0 -0.8272542587336041 0.2444091722847928
420000000.0 0.14539872370738854 0.8534410164813802
440000000.0 0.81275816292964 -0.2044927602914503
460000000.0 0.35066991287774546 -0.7062883124630062
480000000.0 0.6448613361190215 -0.3350696507074142
500000000.0 -0.5298862754240129 -0.20013822476581042
520000000.0 -0.4796476884623145 -0.0965800857611177
540000000.0 1.6878147491879844e-05 -0.41065245127475114
560000000.0 -0.3226645185689173 -0.1750150167649846
580000000.0 0.20169597178193518 -0.2480862474040027
600000000.0 0.07413448721798135 -0.31867887209450335
620000000.0 0.3309792678927427 0.01171902608944139
640000000.0 -0.34913606865248864 -0.03828365139969967
660000000.0 -0.354571109692763 0.1558246536133169
680000000.0 0.12776496712624555 -0.3882028318313724
700000000.0 -0.3616848389718207 0.25591679458344907
720000000.0 0.2934306179172228 0.33437911640847795
740000000.0 -0.06704704134897475 0.45042084903618784
760000000.0 -0.41459546667452324 -0.12159368834029381
780000000.0 0.3373635243156982 -0.20244731241416516
800000000.0 0.15736858860345776 0.3173654505460824
820000000.0 -0.16883495591624387 0.2357799802170951
840000000.0 0.24100383774992123 -0.006220998325788391
860000000.0 -0.12262809702600076 0.14584327500612493
880000000.0 -0.07812582405972206 0.12352472313214484
900000000.0 -0.06784888775177822 -0.005853125796945068
920000000.0 0.03451228949842008 -0.010887210684320432
940000000.0 -0.02976650590870742 0.018540728365670108
960000000.0 -0.032528610741916986 0.02883288141798975
980000000.0 0.012496921466079582 0.05173762589360618
1000000000.0 0.04231945594058294 0.04738088577489755
1020000000.0 0.07599053673062915 -0.0006929004991161489
1040000000.0 0.04754857346879675 -0.08051138403516574
1060000000.0 0.10411352287441183 0.07371013240886505
1080000000.0 -0.025055036685250175 -0.14696904056220855
1100000000.0 -0.07099097319103043 0.156721272462911
1120000000.0 0.043052243045650036 0.19827258804654987
1140000000.0 -0.23800517577595487 -0.05710093199665749
1160000000.0 -0.23030332556172736 0.1629101287009399
1180000000.0 0.12839826031683896 0.29686573405603817
1200000000.0 -0.2385781932392476 0.26041128115330614
1220000000.0 -0.3114204973590149 -0.22675969648851227
1240000000.0 0.3473722139964698 0.20874205821221536
1260000000.0 -0.393633760929813 -0.17574355157768978
1280000000.0 0.31556972570620556 0.3041427277698587
1300000000.0 0.1925643008192217 -0.40081284054921423
1320000000.0 -0.34960023740378116 -0.26080155803481164
1340000000.0 -0.028811704248090403 -0.43127071526333094
1360000000.0 0.09725824229138257 -0.4193788893727653
1380000000.0 -0.10884257449991662 -0.41568949724336934
1400000000.0 -0.3628889219579323 0.1989090627575374
1420000000.0 -0.06805124820047494 0.3890911356439262
1440000000.0 0.3405687577643542 0.14273573198338937
1460000000.0 0.3164558106151414 0.12322109456516689
1480000000.0 0.2433722861984731 -0.2023383530259527
1500000000.0 0.05362630187846581 -0.2860603890913711
1520000000.0 -0.18694475506891392 0.1899234875009889
1540000000.0 0.22275175105306372 -0.09999622250187466
1560000000.0 0.21117888443477925 0.013410177399465612
1580000000.0 0.1801886934751519 -0.021977423798747467
1600000000.0 -0.13733828265554548 0.06185892767200256
1620000000.0 0.10638580359126686 -0.04517423567727275
1640000000.0 0.08268137816415018 -0.030508176602363112
1660000000.0 -0.014785165573294736 -0.061359548193010496
1680000000.0 -0.03357605468993348 -0.00961422793064565
1700000000.0 -0.007550002616652609 0.014743708019225931
1720000000.0 -0.0007054118210103826 0.01611310279017059
1740000000.0 0.032828478659097604 -0.009268102189590689
1760000000.0 -0.05216737998773258 0.010496114755907131
1780000000.0 0.06684134834498626 -0.043748120666416354
1800000000.0 0.1133435597306415 -0.016147918247885577
1820000000.0 -0.09061343910556532 0.10920827005014033
1840000000.0 0.145905678921009 -0.0930826807079805
1860000000.0 -0.13295875989574363 0.1527710390620655
1880000000.0 0.15694451115507954 0.17139907691235481
1900000000.0 0.2640426011507432 0.03905322241734884
1920000000.0 -0.04772781598449912 -0.29509021166922145
1940000000.0 -0.26546668418570346 -0.19823589134575792
1960000000.0 -0.2473502530158348 0.2677015991140221
1980000000.0 0.2597156235372905 0.28981323193752306
2000000000.0 0.4083289238828154 -0.06964871595277113
2020000000.0 -0.10052806241514695 -0.423642081687873
2040000000.0 -0.4002979978309014 0.20181255315544588
2060000000.0 0.31926638110433814 0.3221076522983639
2080000000.0 0.10056790097313507 -0.44121041740391986
2100000000.0 -0.439636039792328 0.03650781050816127
2120000000.0 -0.25642823141041593 0.33956400841370243
2140000000.0 -0.393862210867715 0.09779405170254847
2160000000.0 -0.3354902991762112 0.1859538005217685
2180000000.0 -0.3655691474758136 0.03559542353318347
2200000000.0 -0.3404690955321155 -0.07984072117748818
2220000000.0 -0.12551014871816674 -0.32162412946461333
2240000000.0 -0.2736588722297019 -0.20942111647277742
2260000000.0 -0.3112119388836699 -0.16628048383224212
2280000000.0 -0.21624129455648414 0.2902573998080785
2300000000.0 0.3236014959610088 0.19815646737261625
2320000000.0 -0.16630037698577926 -0.36800453174446546
2340000000.0 -0.2048702222313756 0.3840536876837282
2360000000.0 0.25456477636075264 -0.3950283162162806
2380000000.0 -0.4262437358405355 0.28819620418932224
2400000000.0 0.437716827139492 -0.3528223036159593
2420000000.0 -0.33233706057485507 0.5135989210439514
2440000000.0 -0.10575403888124052 -0.6491030232986815
2460000000.0 0.5256674052346337 0.45510299262613263
2480000000.0 -0.7075024925944389 -0.16034169590889077
2500000000.0 0.732896508058298 0.12671378044046425
2520000000.0 -0.7055922392770553 -0.2651859378077153
2540000000.0 0.5306117439535544 0.536814718538661
2560000000.0 -0.0587961421154248 -0.7454950407110532
2580000000.0 -0.6205428797869973 0.3888183101261137
2600000000.0 0.684083228057282 0.1820702573176045
2620000000.0 -0.25520248610888124 -0.6278306555179213
2640000000.0 -0.43831026021903946 -0.4671149242224674
2660000000.0 -0.19689692780926252 0.5618893672641936
2680000000.0 0.5470967557446765 0.05931397377142014
2700000000.0 -0.17475485621514955 -0.4760132287993489
2720000000.0 -0.22050734188985585 0.40838307480194525
2740000000.0 0.397043018649871 -0.14941399829065774
2760000000.0 -0.38057401703323496 0.07448344311248514
2780000000.0 0.251000514858984 -0.25371353287218334
2800000000.0 0.02013458207420505 0.32949315513062444
2820000000.0 -0.3017777661002071 -0.06697064100088515
2840000000.0 0.18973264887058133 -0.22537869995580598
2860000000.0 0.0009414102084716181 0.28363330812347004
2880000000.0 -0.07932887550167014 -0.2681434752401697
2900000000.0 0.03045069054565928 0.2759966754813195
2920000000.0 0.27322269679605843 0.06835446622809403
2940000000.0 0.1409572356628796 -0.253141038970551
2960000000.0 -0.10564677358879125 -0.27875191815746725
2980000000.0 -0.23117460929751202 -0.20216526478183955
3000000000.0 -0.18538066556819544 -0.2514419029229543
3020000000.0 -0.12671739850264263 -0.28902089141925796
3040000000.0 0.26952035164762433 -0.1594507217274801
3060000000.0 0.17288015928209055 0.25893802594279103
3080000000.0 -0.2956128099187244 -0.07053432962789359
3100000000.0 0.28142051116418726 -0.09128795891235526
3120000000.0 -0.2057323833429383 0.19637607717242442
3140000000.0 0.0908136739500345 -0.2545579063959602
3160000000.0 -0.17347153808329044 0.18598511803097184
3180000000.0 0.09177477432835232 0.220063648315183
3200000000.0 -0.11590463011734885 -0.18508040841087614
3220000000.0 0.13922612385220784 0.13994428547483004
3240000000.0 -0.17282755676425882 0.009521348247864452
3260000000.0 0.10045818205951336 -0.10642195163407799
3280000000.0 0.08953402846341993 0.07749048945090889
3300000000.0 0.08735656549915266 0.019260620481543856
3320000000.0 0.020648285971525432 -0.0548153151387537
3340000000.0 -0.017089573752552017 0.027147076264715478
3360000000.0 -0.008393924397392793 0.010279259083575486
3380000000.0 -0.001940026314148053 0.02034865918216362
3400000000.0 -0.02641915471038263 0.01974360057289139
3420000000.0 -0.04212697628764928 -0.0036187407575042005
3440000000.0 -0.023880182807686574 0.039663486789372246
3460000000.0 0.041669433143238774 0.017047217703058986
3480000000.0 0.03496320711210995 -0.03898336985327283
3500000000.0 0.052026789045100594 -0.04445042671988852
3520000000.0 -0.04269446806716229 -0.08007198091689538
3540000000.0 0.056312623802179544 -0.0963693820195111
3560000000.0 0.08818126651315022 -0.0942636487194839
3580000000.0 0.14325606161959137 0.006644659285713865
3600000000.0 0.1619683671938326 0.00524580330135751
3620000000.0 0.16043448332626079 -0.05309525515628636
3640000000.0 0.15148121917041474 0.09134094476684843
3660000000.0 0.035459700254068346 0.17854049154896337
3680000000.0 -0.1836567362474563 -0.02313605261462079
3700000000.0 0.013484888781787748 -0.18431796874190498
3720000000.0 0.14830820632972014 0.10977052015982167
3740000000.0 -0.06760399470559958 0.1699557628331932
3760000000.0 0.07854489820796659 -0.16080101169613154
3780000000.0 -0.08399714098382423 0.15212730079173534
3800000000.0 0.1359866184140452 -0.09532612168924713
3820000000.0 -0.10044266777057569 -0.12335975273343962
3840000000.0 -0.08002894038015851 -0.12704711858404677
3860000000.0 0.07395794315005821 -0.1266908346320237
3880000000.0 0.14150648973297952 0.04819608295550205
3900000000.0 0.15059487675101405 0.023100603384936795
3920000000.0 0.13511709481597994 -0.08082192678020653
3940000000.0 -0.11336724608793873 0.12210081713245226
3960000000.0 -0.15143815527224627 0.08686212339687646
3980000000.0 0.16758109464067533 0.06208618981245571
4000000000.0 0.08253757669718144 -0.1499882338220074
