! Created with skrf (http://scikit-rf.org).
# Hz S RI R 50.0 
!freq ReS11 ImS11
400000000.0 -0.6866838759178308 0.5107890524904715
420000000.0 -0.11478298225442495 0.8582208252149759
440000000.0 0.8284484083596981 0.1334413520438846
460000000.0 0.1471493526298319 -0.7885063555128352
480000000.0 0.16513391115559561 -0.7136287536197603
500000000.0 -0.20548710421851507 0.5288804792894958
520000000.0 -0.46760502112048546 -0.07909920478051662
540000000.0 0.39474670632072656 0.13364821446217617
560000000.0 -0.27856529332164354 0.220008168221001
580000000.0 0.2560546371972906 0.21227199781919665
600000000.0 0.15785613892324826 -0.29007651968333514
620000000.0 -0.20774751174505282 0.27410925953882687
640000000.0 -0.16172201150091656 0.33388642556890236
660000000.0 0.04610793698979842 0.38722147182646666
680000000.0 -0.4144882588778915 0.01493335975823498
700000000.0 0.0946567097974683 0.41990886971447416
720000000.0 0.4263963884463095 0.08661807667039517
740000000.0 -0.12184557495677008 0.417258986495621
760000000.0 0.2804695189233825 -0.31320711911179505
780000000.0 0.3215828749715453 0.2220531631326206
800000000.0 -0.33986089555684335 0.1192222298394762
820000000.0 -0.18084160814083805 0.24288849546190927
840000000.0 0.05085416913791038 -0.23991426811154942
860000000.0 0.051228288007887764 0.18862200648118585
880000000.0 -0.14963977706252213 0.03120757744337869
900000000.0 0.008331348777467752 0.0763925569269618
920000000.0 0.03111493953540379 -0.03139149854551066
940000000.0 0.03417568832485626 -0.0023699462417150923
960000000.0 0.041441100632636035 -0.015883967427402695
980000000.0 -0.05939368464106031 -0.00932923803069199
1000000000.0 0.06155238202033519 0.016021984106591152
1020000000.0 -0.05930937378566028 0.05023288399207018
1040000000.0 -0.06307785945301991 -0.06108645494751421
1060000000.0 0.115066049149858 0.059060157819164405
1080000000.0 -0.10908368758999323 -0.10024529338372204
1100000000.0 -0.1500447765931985 0.09537743220026065
1120000000.0 0.2041793880786623 0.008288440374402142
1140000000.0 -0.1988511317351922 -0.142843439195039
1160000000.0 -0.16760627894454538 0.23047424904294417
1180000000.0 -0.013111679221838974 0.3231864579513916
1200000000.0 0.007887668213488037 0.3564170860478137
1220000000.0 -0.36441604118816195 -0.12027745627868967
1240000000.0 0.3996430645950015 -0.07121451861832914
1260000000.0 -0.42437983396185114 -0.04082606491951826
1280000000.0 0.3769553994458458 0.2234933200110013
1300000000.0 0.03670532243342921 -0.44012433676482443
1320000000.0 -0.3517110816921045 -0.25568529472970747
1340000000.0 -0.09041244556216407 -0.4193041037122899
1360000000.0 0.3082896521466901 -0.29387415700603425
1380000000.0 0.22864147604033458 -0.3618644226824473
1400000000.0 -0.3471668724981172 -0.23316185305122786
1420000000.0 -0.27783555654366326 0.2914211678912154
1440000000.0 0.26405269918254043 0.2699720579323425
1460000000.0 0.3308476493390947 -0.10934798241516187
1480000000.0 -0.008684579084827103 -0.3191837938110267
1500000000.0 -0.2763366115931502 -0.08028738982260489
1520000000.0 -0.2452931559010529 0.09338181359555539
1540000000.0 0.07418012634423668 -0.22418839347210326
1560000000.0 0.20420013154770175 -0.004805502421534114
1580000000.0 0.17295061523821514 0.034949164545309316
1600000000.0 -0.1454075782518194 -0.0003835365183729864
1620000000.0 0.11117766683142513 -0.0015719883305487306
1640000000.0 0.06204788632780813 -0.05641275377817498
1660000000.0 0.05236142450039377 -0.024946590897155868
1680000000.0 0.02628292257067269 -0.01581538090068664
1700000000.0 -0.009753070644069281 0.0025706263145474214
1720000000.0 -0.011279214271174573 -0.008394320217077986
1740000000.0 -0.0233462192385236 -0.025046559798086978
1760000000.0 0.04018626263610299 0.03396555788248099
1780000000.0 0.04351798409435658 -0.06668397524465942
1800000000.0 0.09883018308438174 0.045415943405403676
1820000000.0 0.10773731584505991 -0.07535896351439078
1840000000.0 0.03461161748710937 -0.1582097099574975
1860000000.0 -0.09193982515544998 -0.16897904452627222
1880000000.0 -0.19986869357478418 -0.11169044498581747
1900000000.0 -0.17953871999867171 0.2025562651570041
1920000000.0 0.3068284833361946 0.04834086137665884
1940000000.0 -0.07722324392994394 -0.3389922072124111
1960000000.0 -0.17156360070594626 0.34022173305109094
1980000000.0 0.376127060041023 -0.15026492773605268
2000000000.0 -0.21980939986790834 -0.36377746650887666
2020000000.0 -0.18654637707757268 0.3962104598175024
2040000000.0 0.37756622948863966 0.23407865896120714
2060000000.0 0.1570490894298975 -0.41260726635567524
2080000000.0 -0.23586835554241087 -0.36348254191913293
2100000000.0 -0.39129417653532467 -0.15830100957307122
2120000000.0 -0.3791765862988271 -0.15515761886459412
2140000000.0 -0.3616540120846628 -0.16793330732712622
2160000000.0 0.0731042138825089 -0.3810783783691116
2180000000.0 -0.0704501738863383 -0.37027715966399105
2200000000.0 -0.33011120069990596 -0.15905316676578835
2220000000.0 -0.3354715368664063 0.12470187272371921
2240000000.0 0.046747328016516945 0.35290449766139526
2260000000.0 0.32924185636718784 0.1333555836780575
2280000000.0 0.27666798546975396 -0.22944253663004746
2300000000.0 -0.2606756215767518 -0.26480017651873083
2320000000.0 -0.3158788265815283 0.2359505163731003
2340000000.0 0.3100763437336663 0.29226550304698634
2360000000.0 -0.09196528573092094 -0.4581975363275019
2380000000.0 0.06055527679251434 0.5109823264097135
2400000000.0 -0.19769093849581695 -0.5292151237604913
2420000000.0 0.511209244649495 0.3402848442875042
2440000000.0 -0.6454312459335719 0.13084815616267295
2460000000.0 0.4837113636813286 -0.4980228153746286
2480000000.0 -0.22010924747457947 0.6859035021443145
2500000000.0 0.3002218055765316 -0.6726213950547296
2520000000.0 -0.5089574208722789 0.5430084305773278
2540000000.0 0.7228720534336393 -0.17362628798647164
2560000000.0 -0.5777998121514382 -0.45498161159819506
2580000000.0 -0.20643340914656547 0.6883273827862888
2600000000.0 0.6670044003762039 -0.19011956197971708
2620000000.0 -0.4811553104184691 -0.45495984023043023
2640000000.0 -0.5816526076132975 -0.2267833018045897
2660000000.0 0.059381174586862824 0.5761895645599624
2680000000.0 0.46287281744972975 -0.2649231616256516
2700000000.0 -0.3998377573544126 -0.27768214021883275
2720000000.0 -0.02725758392039724 0.43895364244975016
2740000000.0 0.3891848753868497 -0.08376833886331195
2760000000.0 -0.28611627905227016 -0.22338268345014933
2780000000.0 0.1858403680642367 0.280845081199433
2800000000.0 -0.2532544957757394 -0.19050547991417105
2820000000.0 0.2282788891219112 -0.19797730088062684
2840000000.0 0.20245544392199888 0.21158097784334548
2860000000.0 -0.2319636837374899 0.17089977289393457
2880000000.0 -0.1523819184171803 -0.2416717391794175
2900000000.0 0.2421384867765058 0.15228031310243864
2920000000.0 -0.0945719097336281 -0.27047312428471215
2940000000.0 -0.26108639870522055 0.12547123825453615
2960000000.0 -0.16978305756250078 0.23691991941395155
2980000000.0 -0.285057921489217 0.08246658287887396
3000000000.0 -0.23195761271475945 -0.1942183348869572
3020000000.0 0.0981783402285344 -0.288663230184133
3040000000.0 0.2589699389179383 0.16216768839603868
3060000000.0 -0.3015482732945194 0.045118380891274054
3080000000.0 0.16579411693682294 -0.25145962739603345
3100000000.0 0.027371541137185908 0.2940978062352544
3120000000.0 -0.17553705334623143 -0.22603156925770237
3140000000.0 0.24879716269227103 0.1199112755764127
3160000000.0 -0.25617900279243366 0.05074857041441498
3180000000.0 0.17944570220274972 0.16523461958160468
3200000000.0 -0.19290570138949703 0.10805970059928
3220000000.0 -0.04016229964389869 -0.19011089943955384
3240000000.0 0.11514173537867274 0.117880292501551
3260000000.0 -0.03407874459489211 -0.12910195458697424
3280000000.0 -0.07156275443054029 0.07688985013266349
3300000000.0 0.07037376794599501 0.03786809661478108
3320000000.0 0.009366215161123674 -0.05263921995910391
3340000000.0 0.007705229945157069 0.02941395543165008
3360000000.0 -0.009701323073341709 0.003416472662104809
3380000000.0 -0.003532686038833629 -0.008066671792035062
3400000000.0 -0.019109477113169307 -0.01317369366281171
3420000000.0 -0.03709395760461401 0.007798726387152241
3440000000.0 0.032683075685481164 -0.03388377977004375
3460000000.0 -0.04580349720777588 -0.027325108266084128
3480000000.0 0.04990619076444607 0.034006206849213065
3500000000.0 -0.06970539553552854 0.01610151216381535
3520000000.0 -0.07164110627579552 -0.04899935189641957
3540000000.0 0.018894087609010696 0.0999934286908008
3560000000.0 -0.021496363375072155 -0.11541625473644294
3580000000.0 0.039095312255031656 0.12887151877848452
3600000000.0 -0.09843108398419714 0.12000030030661392
3620000000.0 -0.005399040246113472 0.16809549247940384
3640000000.0 -0.13123289033114455 0.12426546558498473
3660000000.0 -0.07195624272219645 0.17442911883323897
3680000000.0 -0.14561267979654685 0.12329154197704882
3700000000.0 -0.18866224038452808 -0.009232707630537084
3720000000.0 -0.024293379358502405 -0.18358006246449823
3740000000.0 0.17844253969978432 -0.017860562083146233
3760000000.0 -0.12011450696014418 -0.12591274957513116
3780000000.0 0.015185409634773309 0.16632626366156456
3800000000.0 0.16101501894004908 0.014766277179346182
3820000000.0 0.09303303924189893 -0.12707120237941472
3840000000.0 -0.00899296847321972 -0.1526038232064026
3860000000.0 0.06541236464260815 -0.1367902088810098
3880000000.0 0.04897711059748845 -0.14513184180373243
3900000000.0 -0.09456039158890858 -0.12106233873159036
3920000000.0 -0.15301339279100354 0.0400010558932279
3940000000.0 0.1567939509371573 0.046042349359318335
3960000000.0 -0.062101307945809335 0.15869488601385803
3980000000.0 0.02747285475476775 0.17345381957442424
4000000000.0 0.16314384274675658 0.05137884829264371
