! Created with skrf (http://scikit-rf.org).
# Hz S RI R 50.0 
!freq ReS11 ImS11
400000000.0 0.30227447689680725 0.818211439419159
420000000.0 0.6179622887900517 0.5959642825305892
440000000.0 0.7895002031884361 -0.23368097037717256
460000000.0 0.13954560488171225 -0.7721205644293517
480000000.0 0.6972343101806364 0.024060237858021603
500000000.0 0.5300321827678762 0.21210275950597196
520000000.0 0.35759166278374277 -0.35328344589338895
540000000.0 0.4242125117200944 0.10534916302320961
560000000.0 -0.336947264458754 -0.1468081963554912
580000000.0 -0.03994841762234383 0.34207608302809994
600000000.0 0.18407431127678436 -0.291462643069473
620000000.0 -0.26525765145296676 0.23836113957595972
640000000.0 -0.031114328937755852 0.3804397462286872
660000000.0 0.18019696496880397 0.3560475467923399
680000000.0 -0.40223044378004474 -0.14126331747457654
700000000.0 0.4383600464300413 0.07042812352054152
720000000.0 -0.2050370779790383 -0.39632202847761144
740000000.0 0.1961038347457354 -0.3860011991358632
760000000.0 -0.3777182497002948 0.16399006408246367
780000000.0 -0.03304219377322892 -0.36901346678986663
800000000.0 -0.2037969368037301 0.262128874930443
820000000.0 0.02323423721655384 -0.2751836054747346
840000000.0 0.15108793633298684 -0.17476782136884983
860000000.0 0.049069529567454404 0.19582017427531792
880000000.0 0.14669177728671826 -0.01046244478300714
900000000.0 -0.06490901605634362 -0.06575359601932027
920000000.0 0.05785209995145722 0.0257011951723933
940000000.0 -0.03236417571932641 0.028285127323867447
960000000.0 -0.031864710366885256 0.039044650333406074
980000000.0 0.009168661541741192 0.07080181784768981
1000000000.0 0.0851181994207236 0.008516462176291133
1020000000.0 0.07445516395133465 -0.07064870109996466
1040000000.0 -0.056322674851176674 0.09469977861424769
1060000000.0 0.04535329392622542 -0.12924067018618526
1080000000.0 -0.09358970065137284 0.11129144697451385
1100000000.0 -0.013093311266794277 -0.1642257958620834
1120000000.0 0.17524028535090128 -0.07865324467006261
1140000000.0 -0.017802837821562795 -0.23523782282288574
1160000000.0 -0.2356636461849788 -0.1564190547204526
1180000000.0 -0.2579714948275875 0.20137389155962096
1200000000.0 -0.15124094322494597 0.3248386222473078
1220000000.0 -0.3048360107196041 -0.2307798079262079
1240000000.0 0.38198437893842985 0.1270130995482878
1260000000.0 -0.24601141730830658 -0.3458385880695545
1280000000.0 -0.02573320378281635 0.4367745106379785
1300000000.0 0.41642031015760933 -0.15846636803611658
1320000000.0 -0.15359203643979571 -0.41311492821368617
1340000000.0 -0.0818282456141241 -0.42604117064816804
1360000000.0 0.10348723295165532 -0.4151988445101299
1380000000.0 -0.08758554885522139 -0.41692649764715284
1400000000.0 -0.3800944060071799 -0.15683412277746955
1420000000.0 -0.28718465292534995 0.2682528930207124
1440000000.0 -0.08476596356696188 0.36088999027772184
1460000000.0 0.26312463148783327 0.22610152518758836
1480000000.0 0.2718231684761539 -0.17350707205896426
1500000000.0 -0.2639023680236514 -0.13441197545306588
1520000000.0 -0.07130678335122766 0.26010394472182863
1540000000.0 -0.22851358391496182 0.06708635750840093
1560000000.0 -0.18729883485588505 -0.0714820095621698
1580000000.0 -0.05346006099971868 -0.15965002187299818
1600000000.0 -0.12914088900345375 0.038439259047879835
1620000000.0 -0.07128311840891997 -0.07302295139884268
1640000000.0 0.03624612059475287 0.07243940342452117
1660000000.0 0.05105389993202698 0.030633088576127704
1680000000.0 -0.016498184126334504 -0.03495279686934009
1700000000.0 0.005128511902980053 -0.020998614641481738
1720000000.0 0.0009730000260434948 0.0037809784680944776
1740000000.0 -0.01932410861704879 -0.006976075985089833
1760000000.0 -0.010683152389554628 0.041985523721172986
1780000000.0 -0.04438222709384188 -0.062340397186775115
1800000000.0 -0.02780767397429942 0.10882370198983096
1820000000.0 -0.14044542708441385 -0.00010241405053872547
1840000000.0 0.15177475745253668 -0.08113425343843574
1860000000.0 -0.19659441356228793 0.030845384563716494
1880000000.0 -0.15855518104597427 0.16517203886845655
1900000000.0 -0.04097021225847468 0.2630177942552175
1920000000.0 0.29897356503633044 0.05195041027045585
1940000000.0 0.0856321061901439 -0.33107634977303824
1960000000.0 -0.3226314163789717 0.19303005763568426
1980000000.0 0.39916064642584187 0.04221774143919521
2000000000.0 -0.08604447518713045 -0.41363572708834706
2020000000.0 -0.30430684846748496 0.3104770800317178
2040000000.0 0.19922104934157323 0.39198631879134116
2060000000.0 0.3884617816452633 -0.2030286691987274
2080000000.0 0.0616043095252398 -0.4267955614336732
2100000000.0 -0.07281184643407862 -0.4171528044633049
2120000000.0 -0.21097588534317907 -0.35515475164609583
2140000000.0 -0.37797550623339315 -0.1354875343596474
2160000000.0 -0.06238630809722163 -0.38114682885244067
2180000000.0 -0.18344969802435956 -0.3219714032191811
2200000000.0 -0.2600073097716538 -0.24437782030860436
2220000000.0 -0.32764248899957343 -0.1167015292962327
2240000000.0 -0.3130688124616474 0.14223668431913303
2260000000.0 -0.18559418154930013 0.28963010236279735
2280000000.0 0.012061567420495333 0.34889610685844547
2300000000.0 0.36401530883382305 9.252533913429125e-05
2320000000.0 -0.06704488674107781 -0.38207292385883673
2340000000.0 -0.3410669638787123 0.24325888956245073
2360000000.0 0.45150382702300373 0.07543186544201122
2380000000.0 -0.4488110748192291 -0.2298632705945751
2400000000.0 0.4473583662433601 0.32891963244628425
2420000000.0 -0.5807854207715486 -0.1778877589989146
2440000000.0 0.6319082117447931 -0.180685932484918
2460000000.0 -0.42347286949895935 0.5550501715821484
2480000000.0 0.15075038738527138 -0.7143482613455889
2500000000.0 -0.11109710330312016 0.742901796931882
2520000000.0 0.25124869837155933 -0.7189696767348743
2540000000.0 -0.4869745878037381 0.5878931801360051
2560000000.0 0.7523644840124343 -0.08545958284502853
2580000000.0 -0.5002561898431986 -0.5477527866913752
2600000000.0 -0.08300595255104841 0.7126995638117605
2620000000.0 0.5926076598500494 -0.34622632017830246
2640000000.0 0.33821415330187427 -0.5537382758699538
2660000000.0 -0.6013577712564162 0.06490356975549331
2680000000.0 0.4095539689112464 0.37912389903797467
2700000000.0 -0.043759253557571924 -0.5104992649602483
2720000000.0 -0.23172393003595565 0.40284506100271095
2740000000.0 0.35826743869860145 -0.22157774140521597
2760000000.0 -0.3537963043553264 0.1463574034548752
2780000000.0 0.24954739876840437 -0.2483832987686315
2800000000.0 -0.08679421824788879 0.3144259544794267
2820000000.0 -0.22732315692938546 -0.20814322797065096
2840000000.0 0.28987415962056495 -0.05859407662849211
2860000000.0 -0.1726686688947037 0.23542875027905738
2880000000.0 -0.03262429742380339 -0.2898769497721401
2900000000.0 0.047378937855927374 0.2901469506078223
2920000000.0 0.23075813601156067 -0.19041191745270053
2940000000.0 -0.2761163454234409 -0.13340635775997248
2960000000.0 -0.1881933138351033 0.2456972619557359
2980000000.0 -0.24506211860548505 0.19685679225099315
3000000000.0 -0.3168568924782991 0.020336514520660168
3020000000.0 -0.12371792818224651 -0.292665456292717
3040000000.0 0.31425507362449834 -0.01945370219253908
3060000000.0 -0.22640944957001075 0.2145368709959451
3080000000.0 0.16282888679371166 -0.2593988631313148
3100000000.0 -0.09654696814563594 0.2844567992645616
3120000000.0 0.04272316445569461 -0.28872909780479883
3140000000.0 -0.0035585885768010645 0.28154134625665916
3160000000.0 -0.05594601367796338 -0.26124008178240704
3180000000.0 -0.2023943893217051 0.14817664009999584
3200000000.0 -0.0892091648847597 -0.2116498776861988
3220000000.0 0.16226446365574038 -0.12164780848248558
3240000000.0 0.11911931943291762 0.12470509756052879
3260000000.0 -0.11913268918016875 -0.07061687275024289
3280000000.0 0.09509797218892142 0.045771640647771
3300000000.0 -0.04340071861888583 -0.061512706711818105
3320000000.0 -0.04586259999722029 0.00639277078732637
3340000000.0 0.019898647222267137 0.010146299957485052
3360000000.0 -0.004165973369732114 0.002037528046778333
3380000000.0 0.00839050595944022 0.006269328986625523
3400000000.0 0.019202464731457865 0.011267311277761764
3420000000.0 -0.03230931414886022 -0.014044326261596506
3440000000.0 0.0026618061535961654 -0.04767988356802277
3460000000.0 -0.004478975792640718 -0.05667617077392504
3480000000.0 0.05371900218258474 -0.04442032534772868
3500000000.0 -0.016919572306336755 -0.08121808984419937
3520000000.0 -0.07435773277346348 0.06280233799564712
3540000000.0 0.07366008489394224 -0.08322656793792191
3560000000.0 -0.05075962139770845 0.11382132961747503
3580000000.0 0.0711249884376936 -0.11812018574416097
3600000000.0 0.10159189358515622 0.11942127197049851
3620000000.0 0.04991036862222691 0.1615709288343706
3640000000.0 -0.15691411639591984 0.0879302973633615
3660000000.0 -0.18829561149182775 0.009980943268534754
3680000000.0 -0.12040163404300465 -0.15037760997192853
3700000000.0 0.010392075579509687 -0.19195916662700727
3720000000.0 0.16991990684703903 -0.09100825175268272
3740000000.0 0.18898531240601604 -0.007489149872976821
3760000000.0 -0.17399574473749452 0.05614392495248487
3780000000.0 0.1260728353427463 -0.11682318687712226
3800000000.0 -0.09332476705275372 -0.13193700771963826
3820000000.0 -0.1475661707667321 -0.039255034492354436
3840000000.0 0.06722386370502963 -0.1298617159255187
3860000000.0 0.026030281646123452 0.1446895702341434
3880000000.0 -0.02370689512135262 0.15314089163923608
3900000000.0 0.15653564659498626 -0.031431965099226515
3920000000.0 -0.16609544008378915 -0.006608011181230786
3940000000.0 0.09413775864103781 -0.1426292030787522
3960000000.0 0.17295946937938037 -0.01637118505083514
3980000000.0 0.06315025649278275 -0.16048287910564651
4000000000.0 0.03283859073076069 -0.16149972179509361
