! Created with skrf (http://scikit-rf.org).
# Hz S RI R 50.0 
!freq ReS11 ImS11
400000000.0 0.257801589315237 0.8308786480994054
420000000.0 0.6042551831850715 0.607506663710349
440000000.0 0.795612704676511 -0.21201412987456714
460000000.0 0.1535204119139887 -0.7705031504727856
480000000.0 0.6956079552361896 -0.035672491225117835
500000000.0 0.4778469159884161 0.3118836692697888
520000000.0 0.3631683207805303 -0.34814236351258454
540000000.0 0.4377458046703027 0.02509267496463816
560000000.0 -0.3432998469629968 -0.12208523908535653
580000000.0 -0.10741323635288223 0.32929994536678786
600000000.0 0.19100724872279154 -0.2861047926218553
620000000.0 -0.2562274360885651 0.24702132549314795
640000000.0 -0.07424136569242384 0.37425638892260504
660000000.0 0.136020520299885 0.37452901152804013
680000000.0 -0.4219181772101794 -0.06224073927415377
700000000.0 0.43864853584147157 0.06636565196942527
720000000.0 -0.2726522980148053 -0.35210637288830876
740000000.0 0.22392189819420819 -0.37193716948548194
760000000.0 -0.3311109290819686 0.24339512176010264
780000000.0 0.030961092962776295 -0.36942663794764596
800000000.0 -0.18338958114606227 0.2777969863262887
820000000.0 0.004964971318633481 -0.2753184689502503
840000000.0 0.18128705662215772 -0.14314450029740886
860000000.0 0.060711184708077584 0.19240650569302117
880000000.0 0.14588454156926803 0.011287732032754322
900000000.0 -0.06582447261042007 -0.06347024449373193
920000000.0 0.05912878889328412 -0.021669635826801356
940000000.0 -0.0430863968805327 -0.006029715375302057
960000000.0 -0.025603915484060255 0.04405395160850797
980000000.0 -0.023898395880993618 0.0668261987941178
1000000000.0 0.07758350869049335 0.03363284755517781
1020000000.0 0.08598784952023486 -0.05663954016906222
1040000000.0 -0.04633840075361268 0.09904419169691069
1060000000.0 0.0578339986570778 -0.12407705117856697
1080000000.0 -0.09182505074090688 0.11282418653327704
1100000000.0 -0.011059664551602462 -0.16484594139178782
1120000000.0 0.1737117530772425 -0.08189914723886209
1140000000.0 -0.04817677146153695 -0.23135871280724027
1160000000.0 -0.2240665614632318 -0.17207573469074722
1180000000.0 -0.2636910059049123 0.1938717620427817
1200000000.0 -0.12264500598709223 0.33728101417077694
1220000000.0 -0.30634625052946884 -0.22964347927666182
1240000000.0 0.3772680922909377 0.14107023018198994
1260000000.0 -0.22094356333137405 -0.36215731340367474
1280000000.0 -0.023221235424487473 0.4367694761678205
1300000000.0 0.425474798253487 -0.13301370712003785
1320000000.0 -0.18305611439216699 -0.40068428779354764
1340000000.0 -0.08635609408403387 -0.4254294301283477
1360000000.0 0.10036155809859207 -0.4158680229442577
1380000000.0 -0.12141126371294661 -0.40850103103192204
1400000000.0 -0.3788121005869025 -0.15937427765184536
1420000000.0 -0.27752678206500647 0.2787805256623047
1440000000.0 -0.08426494327481682 0.3607724741247045
1460000000.0 0.24061372002034126 0.24947917861720076
1480000000.0 0.2716789281739883 -0.17399525662346457
1500000000.0 -0.27299587808998566 -0.11368976270069522
1520000000.0 -0.04411307558145693 0.2656457442065757
1540000000.0 -0.23222880618327021 0.05192745819035332
1560000000.0 -0.2000304909535111 -0.01154327348137426
1580000000.0 -0.08547586738786762 -0.1449080592509567
1600000000.0 -0.13172321244276808 0.02774149360964026
1620000000.0 -0.06252330903515693 -0.08046654831986344
1640000000.0 0.049804609785687425 0.06371554152319889
1660000000.0 0.040367061189430106 0.04385302693599395
1680000000.0 -0.035847414742900166 -0.013499478535992418
1700000000.0 0.004355596734805402 -0.021133327839029457
1720000000.0 -0.002423629123591293 0.0029848892062419815
1740000000.0 0.006825642335779352 -0.019228999330999606
1760000000.0 -0.033043908380294994 0.027518925631498967
1780000000.0 -0.058590376837798275 -0.04856066882230995
1800000000.0 -0.011099738594073105 0.11149278187666989
1820000000.0 -0.13999436407920374 0.020029702742047455
1840000000.0 0.14896283183686118 -0.08725806159930595
1860000000.0 -0.19677878247619296 0.032767824175337405
1880000000.0 -0.13757250593408113 0.18322622155444485
1900000000.0 -0.031418574701569744 0.2643368419019177
1920000000.0 0.29949023322312057 0.04903643383071564
1940000000.0 0.09194671705506868 -0.32966594994718745
1960000000.0 -0.335379470526095 0.17016846037776875
1980000000.0 0.3959881531597059 0.06570366942786338
2000000000.0 -0.0541663487033045 -0.4187166910726222
2020000000.0 -0.3420218897321448 0.2674830368263363
2040000000.0 0.22380811658196953 0.3773921618748507
2060000000.0 0.3952000759833299 -0.18716882256275433
2080000000.0 0.05807176194980653 -0.42639997212161407
2100000000.0 -0.07504949127006726 -0.415362778758261
2120000000.0 -0.220779213520969 -0.3478197350163834
2140000000.0 -0.38449199607265533 -0.1111090171968702
2160000000.0 -0.11009903927919504 -0.36962824976087255
2180000000.0 -0.227549554811879 -0.29083402311356177
2200000000.0 -0.3047436457854154 -0.1851138540375922
2220000000.0 -0.3439123399189075 -0.051162308279038636
2240000000.0 -0.26342750895439243 0.221026170039806
2260000000.0 -0.09047038706163736 0.3320797662993561
2280000000.0 0.06232031953830876 0.34439636687646413
2300000000.0 0.3621528237080323 -0.04503646444241522
2320000000.0 -0.07213210732181054 -0.38190911938109884
2340000000.0 -0.32663994391784534 0.2636906297702162
2360000000.0 0.4484445614592073 0.09521463905454143
2380000000.0 -0.4485078865555956 -0.23098195392666093
2400000000.0 0.4091644466886225 0.3748570715644017
2420000000.0 -0.5657582805790967 -0.21972588947939076
2440000000.0 0.63501990106469 -0.16622390624480127
2460000000.0 -0.4133109939575415 0.5614236897078353
2480000000.0 0.12457617173097862 -0.7185453179824485
2500000000.0 -0.0168758263692558 0.749997117180998
2520000000.0 0.1503413542035303 -0.7461283484420173
2540000000.0 -0.5150124537912438 0.5633363056360741
2560000000.0 0.7336881633984443 -0.18627648102619748
2580000000.0 -0.5292499983583214 -0.5211407655384542
2600000000.0 -0.040239415560749316 0.7175445111240765
2620000000.0 0.5603257955178045 -0.4002620299679607
2640000000.0 0.3116619954544201 -0.5710599339564096
2660000000.0 -0.6030948438549288 0.06613314111840767
2680000000.0 0.37000408520987765 0.4198256655457064
2700000000.0 -0.001491707410156224 -0.5135342436526726
2720000000.0 -0.2566246395470346 0.3888353310842442
2740000000.0 0.37680767118129177 -0.19039649724167743
2760000000.0 -0.3700572775282615 0.09845691323274618
2780000000.0 0.27983546455014063 -0.2135564751059508
2800000000.0 -0.10747388095979907 0.3079446693612572
2820000000.0 -0.2105933238412083 -0.22402971006281672
2840000000.0 0.29011489452747863 -0.052989451469294936
2860000000.0 -0.15348842050080788 0.24714877814291392
2880000000.0 -0.03215837623125015 -0.2893541815368773
2900000000.0 0.10485277684810726 0.27470094417149765
2920000000.0 0.19581286336747505 -0.22647124528741028
2940000000.0 -0.3015458397226208 -0.056767421700518045
2960000000.0 -0.15953854559152214 0.2659856689928972
2980000000.0 -0.2174353826877806 0.22692076172040676
3000000000.0 -0.317329317916383 0.0009598405753048673
3020000000.0 -0.12419081013106119 -0.2928538235355499
3040000000.0 0.31512036943491323 -0.01914085088633233
3060000000.0 -0.24914480862045127 0.1880045882073772
3080000000.0 0.19953319635602074 -0.2330741578434502
3100000000.0 -0.08869453647497119 0.2869664658313648
3120000000.0 0.05469421418005804 -0.28689466799243063
3140000000.0 -0.0545726924077388 0.27600219352187166
3160000000.0 -0.04978790644540204 -0.26217967100330525
3180000000.0 -0.21606002837465166 0.12666012315215674
3200000000.0 -0.07084366309079282 -0.21838574348678186
3220000000.0 0.16250017992753849 -0.12256023694786562
3240000000.0 0.1032103950392195 0.1391773496602075
3260000000.0 -0.13010132849717743 -0.04713951460171271
3280000000.0 0.10400104122512342 0.018725586729699793
3300000000.0 -0.07468708194201691 -0.010597114630473772
3320000000.0 -0.03188281259676707 0.033679932438547285
3340000000.0 0.013376860564164188 -0.017693294921728584
3360000000.0 0.004728129879091599 -0.0008348175880682619
3380000000.0 0.005833103407910137 -0.008085463472212154
3400000000.0 0.009822059869136975 0.020059459046556545
3420000000.0 -0.018347398765375247 -0.0302203673523858
3440000000.0 -0.023812291349833765 -0.04078856795341822
3460000000.0 -0.010839071676880013 -0.05538895083340686
3480000000.0 0.044269430329914816 -0.05274379278156595
3500000000.0 -0.056639443959382516 -0.06009675854190374
3520000000.0 0.020006181660642493 0.09590198995124953
3540000000.0 0.024200285296155723 -0.10856446352500292
3560000000.0 0.010293987516173402 0.12460670479791221
3580000000.0 0.03330873214567896 -0.13415708671198934
3600000000.0 0.12806703438412292 0.09021222628213721
3620000000.0 0.08077331824300697 0.1491532232546486
3640000000.0 -0.11884070524601054 0.1355228749259155
3660000000.0 -0.18572821220065094 0.036164693939661686
3680000000.0 -0.16387483034326758 -0.1040702268282429
3700000000.0 -0.027289008579145665 -0.19187989871635633
3720000000.0 0.1712019949314414 -0.09092203255921559
3740000000.0 0.1897542282717299 -0.013259029505943246
3760000000.0 -0.1653392814819959 0.07825969003323187
3780000000.0 0.13059775230183363 -0.11284747171849387
3800000000.0 -0.07521986048618506 -0.14402544441872686
3820000000.0 -0.14327658396472417 -0.05447629991085979
3840000000.0 0.07863116026038659 -0.12453916340073157
3860000000.0 0.00025144751855485543 0.1475694880985854
3880000000.0 -0.006344706762312279 0.15492456436578048
3900000000.0 0.16040081915982615 -0.001019808797267075
3920000000.0 -0.1502480904769853 -0.07348868680466965
3940000000.0 0.127815038234568 -0.11503249129192339
3960000000.0 0.17027003111826902 0.0382321143981186
3980000000.0 0.15015699248132103 -0.08707210739823877
4000000000.0 0.1524892319577732 -0.0661000942601044
