! Created with skrf (http://scikit-rf.org).
# Hz S RI R 50.0 
!freq ReS11 ImS11
400000000.0 0.22749467455889838 0.8411989771791748
420000000.0 0.6262483775002282 0.5864219829404405
440000000.0 0.8015677710470883 -0.18708123749371383
460000000.0 0.19607674755288892 -0.7611666906401601
480000000.0 0.6970784622184417 -0.03033711934975893
500000000.0 0.512322704227063 0.2517519909445983
520000000.0 0.3753609475336713 -0.3334991776095949
540000000.0 0.4245058401289513 0.11618423237954914
560000000.0 -0.3622719199253364 -0.05359818800720925
580000000.0 -0.032738897840095184 0.3434972848436324
600000000.0 0.2798698128860104 -0.20022407091479671
620000000.0 -0.2812653148820554 0.21995977801337993
640000000.0 -0.015695341213457174 0.3814559552127214
660000000.0 0.0928168221156199 0.38774908045296475
680000000.0 -0.42217148227283785 -0.05565714671495778
700000000.0 0.4361316963476893 0.08115061372256213
720000000.0 -0.2900979013031952 -0.3387187690502066
740000000.0 0.20918815378799696 -0.38024075420707065
760000000.0 -0.36647270191992004 0.18685456711246448
780000000.0 -0.007546619576313537 -0.37048014460242706
800000000.0 -0.18036629228215795 0.2798934510910167
820000000.0 -0.019307783086356174 -0.2749669263394889
840000000.0 0.17148934291933246 -0.15507447975989946
860000000.0 0.0764823890779549 0.18651565977898898
880000000.0 0.14598931921321193 0.0031769900704464882
900000000.0 -0.07413190374187183 -0.0544180343588209
920000000.0 0.0631524154688569 -0.006118243787174312
940000000.0 -0.04052567969615988 0.013521652134319797
960000000.0 -0.03761347319540896 0.03401401970599548
980000000.0 -0.0379484602928516 0.06032785043164777
1000000000.0 0.08404529184152076 -0.003357432871366467
1020000000.0 0.08022007558187572 -0.06360444998423732
1040000000.0 -0.043773831743576894 0.10051365450573384
1060000000.0 0.09351019174954557 -0.10012773272077012
1080000000.0 -0.11234711440177517 0.09299750605392665
1100000000.0 -0.021820807044495124 -0.16433728640835962
1120000000.0 0.17400313488841898 -0.08288399583138933
1140000000.0 -0.034098109689151335 -0.2340963797904744
1160000000.0 -0.21676182139751943 -0.18157175499811587
1180000000.0 -0.2648144348227779 0.19145784341686634
1200000000.0 -0.1450245259668951 0.3278890891563627
1220000000.0 -0.2860878707735887 -0.25414137015127575
1240000000.0 0.37262734404482 0.1527113250930246
1260000000.0 -0.2127602375338633 -0.3671023323674541
1280000000.0 -0.0343364013399069 0.43538759861604726
1300000000.0 0.4262356082496973 -0.12979031278724823
1320000000.0 -0.19140232519050965 -0.3968300780549375
1340000000.0 -0.10104404033739783 -0.42217671339040463
1360000000.0 0.11939320134179811 -0.41064556933127666
1380000000.0 -0.10445718379289895 -0.41351285681017513
1400000000.0 -0.38273908779963933 -0.15066957121447896
1420000000.0 -0.2719634667917734 0.2844109847359365
1440000000.0 -0.08819793082475705 0.36005281727274113
1460000000.0 0.2439517766677961 0.24705098114704935
1480000000.0 0.2828560129175749 -0.1546825287513076
1500000000.0 -0.2565213903553481 -0.1478840206103988
1520000000.0 -0.09010712146544636 0.2546656625132766
1540000000.0 -0.2309735818896825 0.05970423283501492
1560000000.0 -0.1950594050268703 -0.04666539967323905
1580000000.0 -0.054162517372449134 -0.159639837388441
1600000000.0 -0.13177784422484345 0.029691437713524463
1620000000.0 -0.042601421588701616 -0.0925666054793725
1640000000.0 0.019333883320602162 0.07824632415870164
1660000000.0 0.03081789018279715 0.050504821927111865
1680000000.0 -0.03741318698517638 -0.005095602685449822
1700000000.0 0.012128362654630069 -0.016989173254428294
1720000000.0 0.0037279699563029234 -0.0025279586914836406
1740000000.0 -0.0071696521445796186 -0.01918042684305452
1760000000.0 -0.04004308486447581 0.016109352638161056
1780000000.0 -0.0033835683613704834 -0.07579292473008543
1800000000.0 -0.058907926918342284 0.09496984485779014
1820000000.0 -0.14092996487432835 -0.01242476987402542
1840000000.0 0.15567658161050452 -0.07360858423007607
1860000000.0 -0.19642484406284172 0.03327600973535716
1880000000.0 -0.1309442412064237 0.18742861572431602
1900000000.0 -0.013239728079996384 0.2652711352966866
1920000000.0 0.3005775711782977 0.03617903150333558
1940000000.0 0.07961750603263552 -0.3323959049724136
1960000000.0 -0.32572016844899165 0.18739786066372963
1980000000.0 0.3985878386597787 0.046828115275234596
2000000000.0 -0.08712359197207083 -0.4132830679042689
2020000000.0 -0.31706854264234346 0.29703098340776624
2040000000.0 0.18966338608213748 0.3969810777349779
2060000000.0 0.3891663938298175 -0.20139256101643283
2080000000.0 0.0767520052833862 -0.424132800737855
2100000000.0 -0.07897118361102089 -0.41562443068680327
2120000000.0 -0.19699445005811136 -0.3629047937219296
2140000000.0 -0.36958783541222395 -0.15548826985911202
2160000000.0 -0.04916238462826491 -0.3832910830811859
2180000000.0 -0.1770275877178366 -0.3246530132995529
2200000000.0 -0.27560080916089363 -0.22719851931349316
2220000000.0 -0.32693908855846465 -0.11870361000802253
2240000000.0 -0.2937263231634431 0.17854847584985173
2260000000.0 -0.1357026987061117 0.31635642365243943
2280000000.0 0.04129287938800425 0.3474542146137977
2300000000.0 0.36488127603761905 0.0023288374056003036
2320000000.0 -0.05274178074349124 -0.384983457296044
2340000000.0 -0.36228338695739726 0.2104317057596648
2360000000.0 0.4486755741378769 0.09263574989240096
2380000000.0 -0.4406715334422448 -0.24507638981023128
2400000000.0 0.42585212662226013 0.3556459587680144
2420000000.0 -0.5699262676996192 -0.2088433848056895
2440000000.0 0.6273775297868053 -0.19367312235908737
2460000000.0 -0.40740371031716044 0.5662496853986839
2480000000.0 0.08499820608128225 -0.7245453987691208
2500000000.0 -0.04256267234454902 0.7496773726059189
2520000000.0 0.2204611313017538 -0.7294618227520638
2540000000.0 -0.5084038972098732 0.5699031764090798
2560000000.0 0.7431686463927806 -0.14803920565622225
2580000000.0 -0.4976310451726064 -0.5521706331160718
2600000000.0 -0.07786355687801237 0.7150650511491595
2620000000.0 0.5844375544825943 -0.36490204752456257
2640000000.0 0.327469645940658 -0.5631118273808915
2660000000.0 -0.6056643883454877 0.04689220034403396
2680000000.0 0.39042573410134507 0.40250246075808827
2700000000.0 0.02243241069774255 -0.5141217178994286
2720000000.0 -0.270386230630296 0.3805532169945862
2740000000.0 0.3948437553894851 -0.15174297655514324
2760000000.0 -0.3764349694307087 0.07478710264161247
2780000000.0 0.29142265278155993 -0.19845918176814273
2800000000.0 -0.12868611175110786 0.30045522515286605
2820000000.0 -0.20044268041627858 -0.23392913370063118
2840000000.0 0.2937607882171077 -0.03128744670747573
2860000000.0 -0.18934843966329376 0.22218100136980357
2880000000.0 -0.029638967519771017 -0.28995732863482604
2900000000.0 0.07442764578875168 0.2846234142410453
2920000000.0 0.19847812776015233 -0.22464093306132255
2940000000.0 -0.28599363781890497 -0.11220444125583681
2960000000.0 -0.1917817544999032 0.24440328427113445
2980000000.0 -0.21778282514846353 0.22725342532737858
3000000000.0 -0.31512360886566815 -0.04052870891519056
3020000000.0 -0.10277619485044481 -0.3013471146149617
3040000000.0 0.31064536622593025 0.057567092441093135
3060000000.0 -0.2572417533549967 0.1770678027073022
3080000000.0 0.21756448658353772 -0.2162270266326068
3100000000.0 -0.11076251173560824 0.2792838080531529
3120000000.0 0.09536584634041237 -0.2761233454277291
3140000000.0 -0.05383734089287917 0.27616242938111973
3160000000.0 -0.037155385313458605 -0.26418995443819543
3180000000.0 -0.2103349448064695 0.13597121620877534
3200000000.0 -0.07038817565228118 -0.21840208528467006
3220000000.0 0.14609582016299666 -0.14115970065028957
3240000000.0 0.11790516783516197 0.12586309793142583
3260000000.0 -0.13659185988640296 -0.019003302110538675
3280000000.0 0.09607012062202927 -0.043137286035472816
3300000000.0 -0.07140509023589123 0.022376990683031065
3320000000.0 0.017292580403361867 0.04263311951874007
3340000000.0 -0.015593811607238361 0.014953844756905994
3360000000.0 0.0037748565649889996 -0.0013872089881484925
3380000000.0 -0.010324364356327052 0.0007914673467614669
3400000000.0 -0.011064042046349871 -0.019743172314431102
3420000000.0 0.03530157047308526 -0.004286088722612676
3440000000.0 0.046306746273606196 -0.008542136330354343
3460000000.0 0.04790778849427529 -0.030374904310635588
3480000000.0 0.06846831344314988 0.007612450169280038
3500000000.0 0.017965493577960897 -0.08072469022050952
3520000000.0 -0.09607648990962767 0.016001290231231743
3540000000.0 0.08910551180675776 -0.06615594041690843
3560000000.0 -0.07685892238140199 0.09789978906393522
3580000000.0 0.09760152594043647 -0.09772004817688625
3600000000.0 0.08413758437340854 0.13148426065930524
3620000000.0 0.033237347942155916 0.16607486924820622
3640000000.0 -0.16443906136256528 0.07195959791557015
3660000000.0 -0.18718125987140544 -0.022688467393282254
3680000000.0 -0.11407580898760362 -0.15579951435930312
3700000000.0 0.009041053597366443 -0.1925663986171633
3720000000.0 0.1845155579951775 -0.05645528958710129
3740000000.0 0.18911346450823355 0.01112670949207733
3760000000.0 -0.17176257389820487 0.06042289906855901
3780000000.0 0.14717091030496152 -0.0888342471237199
3800000000.0 -0.055262426615959696 -0.15161797377790426
3820000000.0 -0.12435340808758766 -0.0879854782309482
3840000000.0 0.0836952231905216 -0.119593390937924
3860000000.0 -0.006163406982146371 0.14638480549246796
3880000000.0 -0.022910521161384867 0.1525567528444674
3900000000.0 0.15924509060388753 0.010100892581181848
3920000000.0 -0.14344955304220142 -0.08392283578365801
3940000000.0 0.13334077658998833 -0.10711758381022977
3960000000.0 0.17110051150908426 0.02887764154682917
3980000000.0 0.1388178369788037 -0.10212581949680216
4000000000.0 0.11753584509485042 -0.11571195667890892
