! Created with skrf (http://scikit-rf.org).
# Hz S RI R 50.0 
!freq ReS11 ImS11
400000000.0 -0.6796246619268483 0.5232103771590428
420000000.0 -0.0874648314208879 0.8618942059728641
440000000.0 0.8359034967694671 0.07124519353127703
460000000.0 0.1366548219367152 -0.7894271721097608
480000000.0 0.1977629715297819 -0.7057155562314534
500000000.0 -0.17392264111532607 0.5405740581867788
520000000.0 -0.4728860993295178 -0.033754235217125485
540000000.0 0.38094142023924266 0.166972609286664
560000000.0 -0.2771678651262683 0.22120288522678955
580000000.0 0.2664131963548923 0.20016479713374435
600000000.0 0.17566131069394958 -0.27917934739942674
620000000.0 -0.21785060800177605 0.26614952613833687
640000000.0 -0.15147685703073738 0.3385119511446899
660000000.0 0.012200075288444145 0.3894704581065685
680000000.0 -0.40880284545485973 0.06947486146356671
700000000.0 0.14763615083939063 0.4043104970307085
720000000.0 0.4304299215432607 0.06148274555857251
740000000.0 -0.1333454781799922 0.4129767198566291
760000000.0 0.28843953149839696 -0.3051198704920449
780000000.0 0.2913546539805793 0.2604122657606058
800000000.0 -0.33814489566300954 0.12254821116605734
820000000.0 -0.20709061457013198 0.22125525095188092
840000000.0 0.05276743970682865 -0.24014349812692784
860000000.0 0.05421823677920152 0.18829395359912418
880000000.0 -0.14830538455408962 0.03821772628176114
900000000.0 0.020465929689719983 0.07487636294705326
920000000.0 -0.019594390520603203 -0.04016271085413691
940000000.0 0.027653967519458363 -0.02199256176647476
960000000.0 0.02484721089437172 -0.03809922345138422
980000000.0 -0.057638021235042886 0.018261216707967994
1000000000.0 0.06301366681624536 -0.010126284861450672
1020000000.0 -0.010772377134004623 0.07681177620306626
1040000000.0 -0.08556682566270676 -0.016791783480829398
1060000000.0 0.12013335136975346 0.04597579514330435
1080000000.0 -0.10792060122345452 -0.10024341960478103
1100000000.0 -0.15873611954142236 0.079331696054868
1120000000.0 0.20021612818313 0.03952048459189516
1140000000.0 -0.17455683714790515 -0.17150606871128649
1160000000.0 -0.14250102893486824 0.24703044136902144
1180000000.0 0.005584025865191776 0.3236198052116158
1200000000.0 0.03220184386422569 0.35493046387590266
1220000000.0 -0.3671197707000217 -0.11102459198076736
1240000000.0 0.39847836058968045 -0.07868265491434953
1260000000.0 -0.42576499282082897 -0.0280502162455613
1280000000.0 0.3878389239252457 0.2049455038535751
1300000000.0 0.059337315913025095 -0.43780225572593545
1320000000.0 -0.35528036466238594 -0.2513501312007228
1340000000.0 -0.08118354690602035 -0.421707430995906
1360000000.0 0.32115474618035816 -0.28038359186322453
1380000000.0 0.21408802461339588 -0.37100935205218416
1400000000.0 -0.3536323531734024 -0.2243118720499932
1420000000.0 -0.2666004426423041 0.30156652128118244
1440000000.0 0.27317984159238684 0.2597634480504884
1460000000.0 0.3257878759768674 -0.12042143621351023
1480000000.0 -0.05038303772083533 -0.3147114369471175
1500000000.0 -0.2700201020936582 -0.09946953203277745
1520000000.0 -0.25338658455696017 0.06862279549559816
1540000000.0 0.10297069215356182 -0.21260213132440642
1560000000.0 0.2045642880659911 -0.004532200559885858
1580000000.0 0.17618250397059823 0.015009827739383265
1600000000.0 -0.13121788086621328 0.06229846136190043
1620000000.0 0.09597282224173777 -0.057235843123427735
1640000000.0 0.016523871740462846 -0.08287472142492186
1660000000.0 0.04279803080011346 -0.04025573333765622
1680000000.0 0.029256531579763954 -0.010011869122928679
1700000000.0 -0.00836179037785008 0.0055798842763463445
1720000000.0 -0.0011770395962326214 -0.014102717516751491
1740000000.0 -0.010951954404192332 -0.03225979179523898
1760000000.0 0.03657086796213777 0.03825792066635068
1780000000.0 0.036421031965177396 -0.07122337196533593
1800000000.0 0.10158289823808102 0.04004334536172569
1820000000.0 0.0975297414576295 -0.08890916034177679
1840000000.0 0.02505343834862481 -0.1604250369191428
1860000000.0 -0.10942636359399066 -0.1587237330366144
1880000000.0 -0.20655469098305787 -0.0984497975271627
1900000000.0 -0.17548583672985366 0.20538913069953849
1920000000.0 0.30406363811213366 0.06220480428643012
1940000000.0 -0.057803326946179116 -0.34243900085102674
1960000000.0 -0.2064725538789992 0.32020923881180635
1980000000.0 0.3788213319195506 -0.14270065800246395
2000000000.0 -0.2104681657312914 -0.36930880666745086
2020000000.0 -0.188784758420682 0.39542494792812494
2040000000.0 0.38468091526149273 0.2221821606330677
2060000000.0 0.16585718917031825 -0.40900590663192504
2080000000.0 -0.31375546012067773 -0.2976928422279648
2100000000.0 -0.40391519110621765 -0.1203050048216432
2120000000.0 -0.3795396857588207 -0.15277658321614165
2140000000.0 -0.36088355419577933 -0.16850787525077165
2160000000.0 0.06506094499627 -0.38225557588023196
2180000000.0 -0.08818851301167772 -0.36627553706341875
2200000000.0 -0.33339402578017413 -0.1527261916852191
2220000000.0 -0.31971221994637555 0.16093448861561052
2240000000.0 0.06761626435509197 0.34965180267668816
2260000000.0 0.3404170390743986 0.10167106062405883
2280000000.0 0.26812720333485746 -0.23928286083447675
2300000000.0 -0.27139989720242197 -0.2537650907236973
2320000000.0 -0.3109253129294423 0.24183597469933837
2340000000.0 0.32741822566425394 0.27313239902741115
2360000000.0 -0.10570959793618104 -0.455349409873865
2380000000.0 0.060930207786838476 0.5106348695506611
2400000000.0 -0.19112665735632517 -0.5312261112635752
2420000000.0 0.5092115510573196 0.34231656276555417
2440000000.0 -0.6513821493787155 0.09347633223439247
2460000000.0 0.48726805065493206 -0.4932187008132444
2480000000.0 -0.28445709514985557 0.6611444008613258
2500000000.0 0.33222309427377805 -0.656726638900123
2520000000.0 -0.5448547554494396 0.5061700140310265
2540000000.0 0.7252465419402399 -0.1606424430547911
2560000000.0 -0.5544530304499614 -0.48272865859337843
2580000000.0 -0.1411659070952443 0.7042224495840872
2600000000.0 0.6723644453224044 -0.16970187566313216
2620000000.0 -0.4280982073572017 -0.5048726690629781
2640000000.0 -0.5765544439129459 -0.23962238243649264
2660000000.0 0.02640831574720742 0.5787044447657761
2680000000.0 0.48435587729051827 -0.2237623724600395
2700000000.0 -0.3979696261371631 -0.2809808245595504
2720000000.0 -0.0323090920461831 0.43893860722935635
2740000000.0 0.3963050927268079 -0.03982331629064772
2760000000.0 -0.2610084427488445 -0.2521981897123601
2780000000.0 0.1611019795988242 0.29571286572911754
2800000000.0 -0.2533987379008529 -0.1901481180022377
2820000000.0 0.23786758387750745 -0.18635429217830363
2840000000.0 0.1875509724398163 0.2247609558979721
2860000000.0 -0.2500692275324719 0.14305478602820146
2880000000.0 -0.1352399655171016 -0.2514959773272206
2900000000.0 0.24199447622879514 0.15167776507117936
2920000000.0 -0.05161591910583562 -0.2820084411694622
2940000000.0 -0.27933946612764005 0.07676552383420983
2960000000.0 -0.1873062341234541 0.22341843240575351
2980000000.0 -0.2658590060000314 0.13216590891714564
3000000000.0 -0.23498071732556533 -0.1894654128866115
3020000000.0 0.1130235558797548 -0.28298726550095776
3040000000.0 0.22979584446503484 0.2006433901315075
3060000000.0 -0.29181266830017666 0.08835542751001005
3080000000.0 0.15723580355119687 -0.25662785699446106
3100000000.0 0.05957903409335924 0.28963858862006703
3120000000.0 -0.17855605473701552 -0.2235371725539189
3140000000.0 0.2609320208819493 0.09047922243443042
3160000000.0 -0.2553586448800218 0.05374990099226224
3180000000.0 0.19536436251558098 0.14688526899486817
3200000000.0 -0.1854410728284853 0.12092430943278748
3220000000.0 -0.05219124217790838 -0.18745345417622541
3240000000.0 0.11295940017081092 0.11998995801925237
3260000000.0 -0.03141785309293558 -0.13020482915174966
3280000000.0 -0.08307215476381183 0.06518809371259456
3300000000.0 0.06101799468836017 0.051963213456696786
3320000000.0 0.03293985832527845 -0.04244977455097695
3340000000.0 -0.023669187507949496 0.019652539206563614
3360000000.0 0.009296133383700899 -0.004938569519433173
3380000000.0 -0.0071376774193258954 0.003957712091155024
3400000000.0 -0.010915967163761316 0.020003379375195175
3420000000.0 -0.024703866273787487 0.027796243404154784
3440000000.0 0.0113843451201892 -0.0456592724632184
3460000000.0 -0.0534948627131927 0.00024239043858170247
3480000000.0 0.055747880074064546 0.022605853097036162
3500000000.0 -0.051048139772210926 0.05020759788060919
3520000000.0 -0.08345413085332405 -0.022828860689465453
3540000000.0 0.05517339891296788 0.08534696143565725
3560000000.0 -0.0604642204825788 -0.10054705349485518
3580000000.0 0.05886455630173731 0.12104889579725163
3600000000.0 -0.08019820598549428 0.13301728610185118
3620000000.0 0.006234623575522172 0.1683666054987394
3640000000.0 -0.12987961004573043 0.12577155538208915
3660000000.0 -0.05220439408762642 0.18204645654030965
3680000000.0 -0.1319998770933444 0.13810089973472378
3700000000.0 -0.18926317899774817 0.00543291692699729
3720000000.0 -0.04624084993445695 -0.17943428483079096
3740000000.0 0.17661056346862364 -0.0331182343842133
3760000000.0 -0.1309414136608625 -0.11572301826130517
3780000000.0 0.012214479174092699 0.1672861097036242
3800000000.0 0.1612677714208474 0.018540143693368278
3820000000.0 0.09431085586768534 -0.12688282562362474
3840000000.0 -0.012249404537200704 -0.15279126768685147
3860000000.0 0.06152111748218113 -0.13890517457970508
3880000000.0 0.03472827082830197 -0.149512968620357
3900000000.0 -0.10318032040845834 -0.11428945566946153
3920000000.0 -0.1516326357048229 0.04511075838142974
3940000000.0 0.15651474368425716 0.047897395034642125
3960000000.0 -0.0388145441778782 0.1664677578463154
3980000000.0 0.06179685559463927 0.16447967561262872
4000000000.0 0.16953349983530414 0.024931759915681386
