! Created with skrf (http://scikit-rf.org).
# Hz S RI R 50.0 
!freq ReS11 ImS11
400000000.0 -0.8245126108169951 0.2495409196829674
420000000.0 0.11508108575297836 0.8571891178638812
440000000.0 0.82692615181083 -0.1411976921685572
460000000.0 0.30727585077114156 -0.7260909431055149
480000000.0 0.6399025432897425 -0.3446410270307728
500000000.0 -0.4474740861386129 -0.34561446436755217
520000000.0 -0.48741300321877923 -0.04581413786911235
540000000.0 -0.0029979672709344726 -0.41048929778791604
560000000.0 -0.3469328842735982 -0.12031806989456761
580000000.0 0.2790478632392057 -0.15925156880936844
600000000.0 -0.07916871627237247 -0.3182118339019545
620000000.0 0.32167615623032386 0.07530751432578958
640000000.0 -0.3232010492678388 -0.13436823544019424
660000000.0 -0.3397077236526184 0.1877161086045812
680000000.0 0.10047668432158535 -0.39605561437313885
700000000.0 -0.35496625151002104 0.26614079274626584
720000000.0 0.28225561959966017 0.34318649008592267
740000000.0 -0.07431437912338214 0.4498020698802749
760000000.0 -0.4164047850890881 -0.11320881301961283
780000000.0 0.34563759046892767 -0.18721886438455962
800000000.0 0.17831149465034224 0.3062040000331701
820000000.0 -0.17848084315650253 0.2285838171197352
840000000.0 0.2398663378050723 -0.023611028078001618
860000000.0 -0.11765612207018353 0.14985696009522814
880000000.0 -0.08493631412190564 0.1190616514618495
900000000.0 -0.06470095317703496 -0.020397711077777686
920000000.0 0.033929754131379025 -0.011730979222544213
940000000.0 -0.0230017449875065 0.0262128008789759
960000000.0 -0.01304657697226325 0.040828929103151036
980000000.0 0.00010443693882058734 0.05298077752009271
1000000000.0 0.045348641777050724 0.04495493270580289
1020000000.0 0.07126441601457639 0.024000036013394135
1040000000.0 0.04794416114135579 -0.08083384504317581
1060000000.0 0.09994246963602982 0.07878083392423488
1080000000.0 -0.023501977625138414 -0.14800281346249525
1100000000.0 -0.0694153088200418 0.15744427080091147
1120000000.0 0.03926993211239272 0.199097974801873
1140000000.0 -0.2257868211061038 -0.0949129883703825
1160000000.0 -0.23596637868865292 0.15379247857855752
1180000000.0 0.12466081998348097 0.29879877534212096
1200000000.0 -0.2401606715429607 0.2585151708667027
1220000000.0 -0.29378055800685027 -0.24896653546537206
1240000000.0 0.35559665496186216 0.19399684909078033
1260000000.0 -0.40163553207290775 -0.15648640621554485
1280000000.0 0.32355859713920576 0.2954881607200506
1300000000.0 0.21429966246618082 -0.3896828516218464
1320000000.0 -0.3415375049750804 -0.27140135223843453
1340000000.0 -0.036678199413767966 -0.43042574440894704
1360000000.0 0.08571138992220732 -0.4221925616055182
1380000000.0 -0.09882106897233278 -0.41798082890050814
1400000000.0 -0.36524783505515596 0.19479728706646607
1420000000.0 -0.0865823257801549 0.3856410133907438
1440000000.0 0.33887678037136887 0.14552927187169806
1460000000.0 0.30858098833403536 0.14226582916486005
1480000000.0 0.28897800531701173 -0.12981549827302605
1500000000.0 0.08108025817730782 -0.27966435174796955
1520000000.0 -0.16154417293976148 0.2117498417978989
1540000000.0 0.21934801556306896 -0.10754167176438605
1560000000.0 0.2118408736333196 -0.015213513008330085
1580000000.0 0.17406239871215753 -0.05238506711240851
1600000000.0 -0.13058198425920994 0.07622633184498054
1620000000.0 0.09604242582436597 -0.06419338549362463
1640000000.0 0.08347284227980627 -0.026481082346571344
1660000000.0 -0.04333907310106371 -0.045275182964603256
1680000000.0 -0.03400925226280255 0.0021374524304876527
1700000000.0 0.01006033397417812 0.010850621503346203
1720000000.0 0.004226082465027121 -0.015523400589417001
1740000000.0 0.015346744428304467 -0.03103568885290108
1760000000.0 -0.03157998300717673 0.0431368713267735
1780000000.0 0.05160422735403761 -0.06081708955013955
1800000000.0 0.09901141854971689 -0.05753291592902787
1820000000.0 -0.08228342019246786 0.11463230342391821
1840000000.0 0.1374052064128739 -0.10421188174595024
1860000000.0 -0.1347256057149289 0.15035905936132382
1880000000.0 0.14699497766680467 0.17923529926603732
1900000000.0 0.25545702919553703 0.07463839284390066
1920000000.0 -0.01249441165564469 -0.2986586019294643
1940000000.0 -0.24197785413320597 -0.2266146950117944
1960000000.0 -0.25952713371344216 0.2570250072678594
1980000000.0 0.2653408031068213 0.2857001352757921
2000000000.0 0.40214763764904554 -0.10154263714689689
2020000000.0 -0.14485439252029333 -0.4115260184606503
2040000000.0 -0.3526213414345086 0.27632541520471354
2060000000.0 0.33181945164507715 0.30910219637789677
2080000000.0 0.044556741045504486 -0.4499094694943233
2100000000.0 -0.4347283902205233 0.07018152741729876
2120000000.0 -0.25081994627669096 0.34256681607058564
2140000000.0 -0.401740613901413 0.05238450493689568
2160000000.0 -0.3676936773445309 0.10762386976218759
2180000000.0 -0.36691137158396814 -0.019102497961984426
2200000000.0 -0.3319690331368619 -0.1100003877130264
2220000000.0 -0.15897723862987254 -0.3063781240027711
2240000000.0 -0.25847660104007014 -0.22855103073801408
2260000000.0 -0.3187402478063005 -0.15136968147214364
2280000000.0 -0.18570239131479602 0.3102727042643762
2300000000.0 0.3350006832549467 0.17666952519517307
2320000000.0 -0.1986231541756979 -0.3510864532588135
2340000000.0 -0.20054152462567673 0.385190871255522
2360000000.0 0.2654082606625329 -0.38707888484208736
2380000000.0 -0.4302998059450393 0.28175602577370923
2400000000.0 0.44342617997604034 -0.3455607675468144
2420000000.0 -0.3319979726266333 0.5138072806138055
2440000000.0 -0.10790576085472746 -0.648767223478404
2460000000.0 0.5164744420598371 0.46573796582935634
2480000000.0 -0.7070480827762481 -0.16229647413537404
2500000000.0 0.7329581237407408 0.12831138742350265
2520000000.0 -0.6974269091079485 -0.28568585268105207
2540000000.0 0.499723626539777 0.5653596395463695
2560000000.0 -0.019686449844700096 -0.7472992589582105
2580000000.0 -0.6282642524955259 0.3755994299661545
2600000000.0 0.6777507054538782 0.20336513452959554
2620000000.0 -0.2173966857332317 -0.6417408950944469
2640000000.0 -0.4671773267894834 -0.43761935794025847
2660000000.0 -0.24963215544703604 0.5401067928394884
2680000000.0 0.5465921587198581 0.06064814081850103
2700000000.0 -0.161677840028686 -0.48019323277436626
2720000000.0 -0.22663388631953463 0.4047402071779591
2740000000.0 0.3893923182492928 -0.16850774962960743
2760000000.0 -0.37939885877633356 0.0790853275630404
2780000000.0 0.25760414268625087 -0.24717038277847098
2800000000.0 0.041341681056046506 0.32733616016540407
2820000000.0 -0.3041601485054545 -0.05732049514361363
2840000000.0 0.18511219298207907 -0.22866553683479632
2860000000.0 -0.007030649489357682 0.2838215402696171
2880000000.0 -0.07689152351089462 -0.2686565382269001
2900000000.0 0.005865047086123761 0.2771570982071952
2920000000.0 0.2621479006492947 0.10310992454407673
2940000000.0 0.13572711087493577 -0.2558960692072244
2960000000.0 -0.08230273688355051 -0.28668509007368487
2980000000.0 -0.21334451909544905 -0.22094119966117676
3000000000.0 -0.15675020838445902 -0.27030065009211574
3020000000.0 -0.11546853210896463 -0.29356817178772043
3040000000.0 0.2354293247183881 -0.20625716535124136
3060000000.0 0.17898066776853513 0.25448653469800914
3080000000.0 -0.30167937940077 -0.03894706588789061
3100000000.0 0.27546064132389686 -0.10692631968728757
3120000000.0 -0.19797130722434525 0.203541765172812
3140000000.0 0.0918774259284391 -0.2540413814938769
3160000000.0 -0.18664930820097814 0.17289956980808827
3180000000.0 0.08326593709720992 0.22349140206449813
3200000000.0 -0.09354689788169686 -0.1977462633140112
3220000000.0 0.12206243295476953 0.15584905121687384
3240000000.0 -0.17393199136363643 0.008009500635342396
3260000000.0 0.09580434357009017 -0.11123550362271956
3280000000.0 0.08623372778392972 0.08151045090015509
3300000000.0 0.08945950862906184 -0.007906185650612975
3320000000.0 0.0072503990093647115 -0.05799615884501809
3340000000.0 -0.023463923909806773 0.021173955233349327
3360000000.0 0.010052723150939144 0.007886259421114008
3380000000.0 0.018251721730449276 0.009054442685944509
3400000000.0 0.030161230802209813 0.012534629512314517
3420000000.0 -0.030854829246170896 0.027834287939070137
3440000000.0 -0.003928494407220356 0.0453668614379173
3460000000.0 0.028443038034029526 0.033425773445935184
3480000000.0 0.05154724183113085 0.0014131034917563255
3500000000.0 0.06679284007258728 -0.014588843838283811
3520000000.0 -0.03582915604471613 -0.08353661704667635
3540000000.0 0.07524259901470781 -0.08249200604559753
3560000000.0 0.0568561626140247 -0.1162468576426385
3580000000.0 0.14068204454401664 -0.025991295122515717
3600000000.0 0.15796021928938403 0.030057220285256814
3620000000.0 0.15588288227530425 -0.06227971968866289
3640000000.0 0.14796698746044717 0.0957815975325914
3660000000.0 0.01052554863532933 0.18066408585414248
3680000000.0 -0.18130166271119003 -0.03718937755038804
3700000000.0 0.03651906303710753 -0.18078964176231188
3720000000.0 0.13457184207599318 0.12671995917680193
3740000000.0 -0.049823399004180105 0.17650719304655396
3760000000.0 0.05593323211593749 -0.1703485439610127
3780000000.0 -0.02651397905183424 0.1719283811914607
3800000000.0 0.09033715773174575 -0.13927333568039357
3820000000.0 -0.13036639548281212 -0.0907596474540049
3840000000.0 -0.09217720207938114 -0.11772416972043198
3860000000.0 0.0832401057790645 -0.12087419519222335
3880000000.0 0.13411094482597885 0.06602064077163884
3900000000.0 0.15258345017729932 0.01205230622880438
3920000000.0 0.12470842777443134 -0.09765999116317098
3940000000.0 -0.08111655619047586 0.14630210155677567
3960000000.0 -0.1149235129118009 0.13293565150756043
3980000000.0 0.17932024903465613 0.00531495401309445
4000000000.0 0.013667775653630096 -0.17103348388546086
