! Created with skrf (http://scikit-rf.org).
# Hz S RI R 50.0 
!freq ReS11 ImS11
400000000.0 0.17947920969163858 0.8520979935290572
420000000.0 0.5910478298992802 0.6216385919001735
440000000.0 0.7760069003613101 -0.274770369032457
460000000.0 0.2275983661621341 -0.7507544802537209
480000000.0 0.6964341313435166 0.051980171512181865
500000000.0 0.5326680270946729 0.2130548702168024
520000000.0 0.32317103839258654 -0.3810801231358889
540000000.0 0.3764551959172642 0.2284864089190835
560000000.0 -0.36074807860594515 -0.051463112446286326
580000000.0 0.04632249277975899 0.34460643677201025
600000000.0 0.2835449651862911 -0.19006473006871047
620000000.0 -0.27015347581403987 0.23272979006216668
640000000.0 -0.05243512422388672 0.3780726243124899
660000000.0 0.10913195319470863 0.38327921074660154
680000000.0 -0.4095697920815122 -0.11107384858638829
700000000.0 0.4327663224639983 0.09945582282719341
720000000.0 -0.2796355830558535 -0.3481841073004005
740000000.0 0.16292637617794944 -0.40217978351035494
760000000.0 -0.37881739375008366 0.16174351715610194
780000000.0 -0.015251746365997429 -0.3700217325662462
800000000.0 -0.1885046769434235 0.2750149820025825
820000000.0 0.004936536791167202 -0.27570402895984947
840000000.0 0.16164029400466878 -0.1653171437780525
860000000.0 0.07320582207258629 0.1880230423580675
880000000.0 0.14362077225320813 0.024689415582605484
900000000.0 -0.04956073861769516 -0.07716885535643637
920000000.0 0.04188328963190575 -0.04726033596265537
940000000.0 -0.038899708842186735 0.01795224882283742
960000000.0 0.011324259436958773 0.048374148403421066
980000000.0 -0.0463331798514929 0.053631835953552254
1000000000.0 0.08246542588495585 -0.003170834046897466
1020000000.0 0.07685811842220686 -0.0662119333694226
1040000000.0 -0.05715664040013043 0.09260095320992226
1060000000.0 0.09889928484984625 -0.09439270222803059
1080000000.0 -0.14525135141037077 0.012680092138306063
1100000000.0 0.03855155972732935 -0.16281976720768654
1120000000.0 0.18150138517959663 -0.0662857624143041
1140000000.0 -0.10140586587626284 -0.21485664280782393
1160000000.0 -0.24587426619220595 -0.1396268053286236
1180000000.0 -0.2637050792785707 0.19255373375217943
1200000000.0 -0.15234291808991726 0.32372049743259285
1220000000.0 -0.25342833751489097 -0.2854199479512758
1240000000.0 0.34103372155834655 0.213323646053978
1260000000.0 -0.1906678822150088 -0.37893818362937703
1280000000.0 -0.05289526079709888 0.4343313822620516
1300000000.0 0.42624526161421916 -0.1290975755623625
1320000000.0 -0.19321619965032677 -0.39601448650830123
1340000000.0 -0.12014652906750659 -0.41690611730360166
1360000000.0 0.0805609612367787 -0.4197345167349151
1380000000.0 -0.11761644755011522 -0.40989484530074183
1400000000.0 -0.3883255295375662 -0.13697964604432664
1420000000.0 -0.2636100909674013 0.2928398066543257
1440000000.0 -0.05402600087257549 0.3668346343136523
1460000000.0 0.2552134902905681 0.23598494315140325
1480000000.0 0.2754167193496316 -0.16900804107957862
1500000000.0 -0.2646259203893843 -0.133715847112284
1520000000.0 -0.09369125604676198 0.25377662018234787
1540000000.0 -0.2384281541006886 0.016146549544352202
1560000000.0 -0.1816002981429134 -0.08692045582888322
1580000000.0 -0.031394417392167924 -0.16635016819141227
1600000000.0 -0.13362825481152682 -0.022686853521803923
1620000000.0 -0.03565208240623487 -0.09550253383775217
1640000000.0 0.032014072734901367 0.07385425216330527
1660000000.0 0.01875178406805599 0.055364611307713196
1680000000.0 -0.03543694895806742 -0.00848076947238347
1700000000.0 0.018964761962979446 -0.005383097285360579
1720000000.0 0.003189192192375975 0.0026596715060681845
1740000000.0 0.006807202379288008 -0.018717469566879245
1760000000.0 -0.027256609433176298 -0.03175501217069869
1780000000.0 0.03264051501352075 -0.06691157402328271
1800000000.0 -0.09503128624395045 0.056703322951262625
1820000000.0 -0.10254144408930765 -0.09565829476844634
1840000000.0 0.17202902165313078 -0.0137591159528057
1860000000.0 -0.1976286225769694 0.026825966331676842
1880000000.0 -0.07501568181908463 0.21616432137814245
1900000000.0 0.05690201628171076 0.25903741190142765
1920000000.0 0.3012477716104549 -0.020940644376273736
1940000000.0 0.05173200309792872 -0.33702853015002515
1960000000.0 -0.3285787159959431 0.18176716007836807
1980000000.0 0.3973161959071419 0.05860674793046058
2000000000.0 -0.06367439754579982 -0.41845211858032955
2020000000.0 -0.3296587912845205 0.28484374490229936
2040000000.0 0.22425143708066472 0.379229129801613
2060000000.0 0.40300868909785326 -0.1744371157172586
2080000000.0 0.09676602098288073 -0.42107514414440295
2100000000.0 -0.04983250010787425 -0.4209913046644619
2120000000.0 -0.17186117391893146 -0.37630683464753933
2140000000.0 -0.34328496189168495 -0.20918511991451436
2160000000.0 0.010757301804154006 -0.38671516210491547
2180000000.0 -0.13175560242196022 -0.3464234593492097
2200000000.0 -0.23462263806597763 -0.2700315835937405
2220000000.0 -0.29905674646835845 -0.17881410766568018
2240000000.0 -0.31927421267002587 0.12789197146441678
2260000000.0 -0.19916780998241262 0.28103452888070146
2280000000.0 -0.016588598550705557 0.34997919286640305
2300000000.0 0.36450285785826164 0.0207958928933189
2320000000.0 -0.014034729092181118 -0.38813908497795946
2340000000.0 -0.36573565920870754 0.2040202028511784
2360000000.0 0.43831347201455395 0.1324976429447503
2380000000.0 -0.42220866618685093 -0.2751085243788664
2400000000.0 0.40665947942754666 0.377084458342547
2420000000.0 -0.5580845090989154 -0.23864139292362166
2440000000.0 0.6329506077574152 -0.17495632951868556
2460000000.0 -0.40092013681069116 0.5711676234162665
2480000000.0 0.07298951462155223 -0.7260670653806423
2500000000.0 0.004419640070081681 0.7510059120522402
2520000000.0 0.17236342717568076 -0.7424299635507142
2540000000.0 -0.49849476407564525 0.5794212726896105
2560000000.0 0.7483387677700453 -0.12523978868236887
2580000000.0 -0.49134706839006426 -0.559113691391809
2600000000.0 -0.11407105345373997 0.7113140783467177
2620000000.0 0.6133133679029634 -0.31743378246807136
2640000000.0 0.3852222273211786 -0.5272158005375025
2660000000.0 -0.6085061974462845 -0.025435310062270382
2680000000.0 0.30168754847168516 0.47410144752257305
2700000000.0 0.07935837185341257 -0.5094422160223833
2720000000.0 -0.3177512253368582 0.34325448204369496
2740000000.0 0.40004052515801547 -0.1407265491880708
2760000000.0 -0.38212604206609574 0.04201781462004339
2780000000.0 0.3036519819046615 -0.1804052684402284
2800000000.0 -0.15507606364320528 0.2881381540804957
2820000000.0 -0.17066819224070964 -0.2568559967632304
2840000000.0 0.29627678217283415 0.007319098583668392
2860000000.0 -0.19963309694200107 0.2130852100440599
2880000000.0 -0.004444668879332897 -0.2919269813926597
2900000000.0 0.0841526567313034 0.28229051348204015
2920000000.0 0.1898740973548061 -0.2325444900668902
2940000000.0 -0.29529598668123314 -0.08598680675225484
2960000000.0 -0.19739600052173417 0.24072203379896104
2980000000.0 -0.23491098034373176 0.20991875635900126
3000000000.0 -0.3152499256679115 -0.04012308459225922
3020000000.0 -0.08846315604232768 -0.3059879423660308
3040000000.0 0.3039088397906593 0.08599678360498057
3060000000.0 -0.28835800107241266 0.11945116008171212
3080000000.0 0.2397428463537236 -0.19159379830069306
3100000000.0 -0.14353295391408855 0.2639968301100138
3120000000.0 0.17022818119464864 -0.23646920117305775
3140000000.0 -0.07760328473286048 0.2701108071933386
3160000000.0 -0.05291494566034681 -0.2613457247704705
3180000000.0 -0.18591622403149058 0.16783757990508158
3200000000.0 -0.10019826518587019 -0.2058761159349703
3220000000.0 0.12596073106156533 -0.15864126233576886
3240000000.0 0.1495091762056445 0.08452357455438603
3260000000.0 -0.13570631067366554 0.02454613268989193
3280000000.0 0.045226001595268045 -0.09465445458977197
3300000000.0 -0.055989805962564206 0.04965054248448924
3320000000.0 0.04589674719354861 0.004637536765748095
3340000000.0 0.013079670255026418 -0.017644961376985038
3360000000.0 0.003284894784618155 -0.0026683858326007957
3380000000.0 -0.00962054985830493 -0.00237083597013206
3400000000.0 -0.006478642619860754 0.02115756800851078
3420000000.0 -0.012450004151641091 0.032758889689767
3440000000.0 0.034346347435394074 0.03195812741657084
3460000000.0 0.04719140483649529 0.030877817931974156
3480000000.0 0.006510828777245328 0.06808632453964297
3500000000.0 0.04908486905734471 -0.0663936210247138
3520000000.0 -0.09385453259532886 0.026984697591716407
3540000000.0 0.10980280399251859 -0.01610665222652309
3560000000.0 -0.10993020480489427 0.05738123779753959
3580000000.0 0.12530825348470268 -0.0560499415527863
3600000000.0 0.03388768436012805 0.1520842769844037
3620000000.0 -0.00947636807767735 0.16826718220206052
3640000000.0 -0.16918320276975976 0.0593153100186173
3660000000.0 -0.181717662632613 -0.04823907246837879
3680000000.0 -0.1010022529619241 -0.16390440266583164
3700000000.0 0.03135196312097093 -0.18978532066023288
3720000000.0 0.1866965161113657 -0.04436012058851991
3740000000.0 0.18565145870169378 0.03248290663016238
3760000000.0 -0.176710810257962 0.04113436753395064
3780000000.0 0.15237933438693724 -0.07792682001571515
3800000000.0 -0.04447822272931495 -0.15468666334650538
3820000000.0 -0.12823292737842398 -0.08093399433605247
3840000000.0 0.10001241555147815 -0.10453526013174491
3860000000.0 -0.019413242399924327 0.1447397777325931
3880000000.0 -0.02928476405260468 0.15042050360854922
3900000000.0 0.15558575966500698 0.030067776056317365
3920000000.0 -0.14381390839124394 -0.08154886813856445
3940000000.0 0.12538899275805193 -0.11468968166045548
3960000000.0 0.17074557871786472 0.0231757021289311
3980000000.0 0.12211830288934729 -0.12055328880990494
4000000000.0 0.08223752458949497 -0.14207834509944822
