!Created with skrf (http://scikit-rf.org).
# Hz S RI R 50.0 
!freq ReS11 ImS11
400000000.0 0.459449598893841 0.7387263495812438
420000000.0 0.8411280756048982 -0.0652944726657777
440000000.0 0.796058708451857 -0.060936777890196706
460000000.0 0.6596865138997444 0.3479315605988902
480000000.0 0.027413587657782037 -0.6869481487621106
500000000.0 -0.045816736372717874 0.6035858020346946
520000000.0 0.2547448279955979 0.4464691025736635
540000000.0 -0.43668972270652784 -0.022844428625769724
560000000.0 0.308602548546659 0.24998622371755755
580000000.0 -0.2787507947989369 0.22732277154320024
600000000.0 0.1511685970813734 -0.31385045620129415
620000000.0 -0.10979970523782853 -0.3328634544726894
640000000.0 0.4017227802785569 0.0684956377447327
660000000.0 0.18379471234033987 0.36949809160037794
680000000.0 -0.11006343076951176 -0.42794843010255773
700000000.0 -0.1358265390371352 0.4376693429328711
720000000.0 -0.40703353130420294 -0.21920521928656841
740000000.0 -0.42056975083828374 0.088315824956954
760000000.0 -0.15922810455237296 -0.38049485310152026
780000000.0 -0.3342189732970769 0.19004966318485322
800000000.0 -0.11135388091183003 0.32326712096186466
820000000.0 0.27599631846189143 0.05096819475816317
840000000.0 -0.09567460760563576 0.18320530264899196
860000000.0 -0.16230671102551883 -0.04171846848841969
880000000.0 -0.1363554864685831 -0.03311827111852369
900000000.0 0.08879661364256698 0.02905449065550886
920000000.0 -0.03502719655140254 -0.03988052875274804
940000000.0 -0.02660501339938151 -0.021300160322668377
960000000.0 0.03232353524690929 0.007725634529829948
980000000.0 -0.03492397612979009 -0.0424290411291276
1000000000.0 -0.04035789890133614 0.08583157659024379
1020000000.0 -0.02422881389899588 0.11669943991164647
1040000000.0 0.02455157617953183 -0.1322546906493048
1060000000.0 -0.11908324718010177 0.1100377432986949
1080000000.0 -0.13598214351791915 -0.13421482214058347
1100000000.0 0.12835368085445858 -0.1732697701079514
1120000000.0 0.22223202919188895 -0.08368816679353355
1140000000.0 -0.0908519002607141 0.24384724712013756
1160000000.0 -0.21734102607214995 0.17899800444852645
1180000000.0 -0.25941257834289627 -0.1647568341191457
1200000000.0 0.3255809088683883 0.09652168030012413
1220000000.0 -0.2085026421495355 -0.3053317391862452
1240000000.0 0.33034843821317983 0.21327148943687238
1260000000.0 -0.24193454107171875 -0.327477853908412
1280000000.0 -0.42179342349398197 0.019654871548707018
1300000000.0 0.19505324731475643 0.3835359412834664
1320000000.0 0.3955632802709138 0.17945323689587944
1340000000.0 0.19501618909194368 0.3939608767540351
1360000000.0 0.43777903724321904 0.09374121241536586
1380000000.0 -0.26414011783681396 -0.3513779251770598
1400000000.0 -0.41273860816488117 -0.10590552249854794
1420000000.0 0.22747227383077473 0.33488726412474173
1440000000.0 0.27665508026785146 -0.25165434331625447
1460000000.0 0.19657087340414417 -0.2811828159736936
1480000000.0 -0.2593500959755358 -0.17654705281383176
1500000000.0 -0.15369114707408166 0.23603391432397225
1520000000.0 -0.2397601408014986 -0.07352760812189249
1540000000.0 -0.1677931510489187 0.15242847728099054
1560000000.0 -0.19249593793630687 -0.05031949040538149
1580000000.0 -0.10942013351104525 -0.1398893099693867
1600000000.0 -0.06339932370354019 0.129490579105289
1620000000.0 -0.013311322021112059 -0.10643130383265491
1640000000.0 -0.0662356826359836 -0.04743650052421461
1660000000.0 0.0015144822829054546 -0.06350449861059118
1680000000.0 -0.007200189052843162 -0.037241048653778655
1700000000.0 0.0011861299977390916 -0.011676546173008942
1720000000.0 0.007151645295221634 -0.002017689909053737
1740000000.0 0.02449472144856669 0.006360876394839059
1760000000.0 0.022259356261252715 -0.030476632818178917
1780000000.0 0.0494876462192185 0.018175810686340745
1800000000.0 -0.06527076061183386 0.05747566543044599
1820000000.0 -0.07541628798244189 -0.08590611992518324
1840000000.0 -0.15129843588324438 -0.008538913647814998
1860000000.0 -0.16472691238514936 -0.1057578061988043
1880000000.0 -0.15045161830510922 0.18369860447128944
1900000000.0 0.26981807323523777 -0.08084304429331479
1920000000.0 0.32704531333044007 -0.010688252349309422
1940000000.0 -0.3319611210239664 -0.11158515837598783
1960000000.0 -0.2427237429083003 0.283571395557317
1980000000.0 0.29322396901607356 -0.2759496928193077
2000000000.0 -0.31052897810137037 -0.2800082838329062
2020000000.0 -0.4198989532971989 -0.06264210387730156
2040000000.0 0.06317841311497155 0.4246201939968506
2060000000.0 0.08938388855997041 0.4213757928776924
2080000000.0 0.12162708392530178 0.41264577276374315
2100000000.0 0.287731069599528 -0.31433551327693393
2120000000.0 0.23717466483371158 -0.3412194836972484
2140000000.0 0.3544748399228147 -0.18878483499584187
2160000000.0 0.36983925592728295 -0.12284508762631292
2180000000.0 0.2959795577204765 -0.23464690930635548
2200000000.0 0.15601762774222905 -0.32876578386683963
2220000000.0 -0.3497599354820862 0.026154306019596806
2240000000.0 -0.3159279899760227 -0.1303971828400362
2260000000.0 -0.2887015166084071 -0.17635253498794679
2280000000.0 -0.17513761313631296 0.2945841455755556
2300000000.0 -0.17643057415656818 0.3054042093013238
2320000000.0 -0.09199952995228629 0.3664718218793787
2340000000.0 0.09893724187798318 -0.4001604469060764
2360000000.0 -0.4014882073342589 -0.2032118436673675
2380000000.0 0.09290313397028786 0.49018535180835016
2400000000.0 -0.47718025970236727 0.28832356561919054
2420000000.0 0.5355820572524655 -0.2886737648238283
2440000000.0 -0.5427719973843063 0.36721419933210214
2460000000.0 -0.6338883848301371 -0.2975995306064854
2480000000.0 0.608413238812135 0.4084295547402338
2500000000.0 -0.3043738548240835 -0.6909299133630724
2520000000.0 0.7635497544465891 -0.09084984386789553
2540000000.0 -0.4152931253561859 -0.6521805615744071
2560000000.0 -0.5246824216267263 0.5629447029491231
2580000000.0 0.1918136612070183 -0.7310395137342608
2600000000.0 -0.716060306115201 -0.16350466416103163
2620000000.0 -0.1371471982745379 0.6944383700708372
2640000000.0 0.6362866711305245 -0.21125464356981336
2660000000.0 -0.3368961503126102 -0.5327727814481913
2680000000.0 -0.29568874356016084 0.50424247637652
2700000000.0 -0.21375906819324406 -0.4873845898449088
2720000000.0 -0.14487871030513366 0.46284726952255784
2740000000.0 0.4096183699484035 -0.14644103712907838
2760000000.0 -0.24585614394652944 0.302733862649317
2780000000.0 0.35748112805237126 -0.01913442311765472
2800000000.0 -0.30782797777537263 -0.12587116915826324
2820000000.0 0.11141682600883084 -0.29050757838196606
2840000000.0 -0.16085091375801247 0.2571401908412207
2860000000.0 0.09755921297246894 -0.28364312879582076
2880000000.0 0.24372895289688962 -0.17193501679113693
2900000000.0 -0.2990040670977939 -0.015241633758016413
2920000000.0 0.022163519781702744 0.3041555372342927
2940000000.0 -0.1395975087117045 -0.2800701074459424
2960000000.0 -0.3157516817853427 -0.018815872663404627
2980000000.0 -0.30837344213185447 -0.060878938202579516
3000000000.0 -0.2971325600813936 -0.10301914727097448
3020000000.0 0.10424467007650196 0.30109325315645974
3040000000.0 0.0758172490085304 0.311613601519377
3060000000.0 -0.02307860126848987 0.3150771063050143
3080000000.0 0.3042182546295222 0.023075379184170564
3100000000.0 -0.25649423893455514 0.14882735870308825
3120000000.0 -0.08584892177860332 -0.2760554734238448
3140000000.0 -0.22748730437422873 0.1598309184812263
3160000000.0 -0.025050652208262917 -0.2619214504700642
3180000000.0 -0.21374252187240295 0.12317608695871575
3200000000.0 0.22790483886749907 -0.039274757118245573
3220000000.0 0.17500114421717117 -0.10581483868532472
3240000000.0 0.12319844797215367 -0.12115982796695153
3260000000.0 0.010005297328359426 0.14323942028342027
3280000000.0 -0.09648019556772972 -0.03582235522272341
3300000000.0 0.051305406191604286 -0.05105437055818378
3320000000.0 -0.04438700997594632 -0.00036150750793907677
3340000000.0 0.020631664991601493 -0.0034860607269999485
3360000000.0 -0.0027656679062983305 0.002152096506612446
3380000000.0 3.409999046559876e-05 -0.007965241190595407
3400000000.0 -0.0009681094018325778 -0.02021800805762883
3420000000.0 -0.012549731332106939 0.03150808310317345
3440000000.0 -0.04487765775725995 0.006202334256255923
3460000000.0 0.04178737895341499 0.04005220764310429
3480000000.0 0.030030866405808907 -0.06715175427291661
3500000000.0 -0.08107797560186342 -0.03635793337816122
3520000000.0 -0.09266738249489476 0.049559329364618376
3540000000.0 -0.11370491899573665 -0.03555422725089903
3560000000.0 0.1178749696463999 0.0342670235037623
3580000000.0 -0.0628907422515335 -0.11926818975947459
3600000000.0 0.14760867539768205 0.024883020394769025
3620000000.0 0.00804236088612962 -0.15881806099123827
3640000000.0 0.08235102489846245 -0.15793670223125675
3660000000.0 0.14247615914428388 -0.12619952518787533
3680000000.0 0.1738717170526385 0.09056916406942936
3700000000.0 0.03021506850643102 -0.19574812821298757
3720000000.0 -0.037319160989942805 -0.19228917165567044
3740000000.0 0.14347302042443802 -0.11662267479012937
3760000000.0 -0.15300103173129823 -0.087789450061366
3780000000.0 -0.012625361377220055 0.16743029537041132
3800000000.0 0.15957235612368156 0.02629320012703957
3820000000.0 0.12021946797299068 -0.09903048691395763
3840000000.0 0.10830204949862957 -0.10403054979897595
3860000000.0 0.09780969369159148 -0.11015131193341443
3880000000.0 0.10932431854224296 -0.09715560836740955
3900000000.0 0.1237498474695166 0.07633273121216345
3920000000.0 0.11931007585454458 0.08836175601355961
3940000000.0 -0.10660163027605456 -0.11979023424658027
3960000000.0 -0.11403278414539551 -0.12767070371347702
3980000000.0 -0.17041711850924665 0.02508911184392809
4000000000.0 0.14726395769537873 0.07550084779650887
