!Created with skrf (http://scikit-rf.org).
# Hz S RI R 50.0 
!freq ReS11 ImS11
400000000.0 0.6546555211468822 0.5669738212707371
420000000.0 0.8390799017199495 -0.08945569725910839
440000000.0 0.7897047839537712 -0.11571399028728105
460000000.0 0.7370978972496213 -0.11002680218367523
480000000.0 -0.04969213748721393 -0.6853895352425398
500000000.0 0.13832687217137982 0.5901920688275497
520000000.0 0.5020646158804903 -0.04280607172423827
540000000.0 -0.26561079768714874 -0.3481100053059591
560000000.0 0.36206669163478616 0.17775805315314722
580000000.0 0.03228534811344254 0.3612017670587001
600000000.0 -0.10226594995319203 -0.33654103407844177
620000000.0 -0.34520371240541103 -0.060680140953607846
640000000.0 -0.11773405488573553 -0.383486135943586
660000000.0 -0.3210684038564536 0.25050712064639113
680000000.0 -0.2514975675223751 -0.36841650433879414
700000000.0 0.2583097352941837 0.37799006775309846
720000000.0 -0.30537609174416996 -0.344366128127812
740000000.0 -0.4297505691079647 -0.05127969129746201
760000000.0 -0.4063414297826125 -0.08575341285992705
780000000.0 -0.24503536349458815 0.2972589189894596
800000000.0 0.2852571674707357 0.17946673758269815
820000000.0 0.2766232594393181 -0.03377957447371638
840000000.0 -0.1917195429448334 0.06835662416796344
860000000.0 -0.14419912258071277 0.08786317815659686
880000000.0 0.053026170041207174 0.13153996477323485
900000000.0 -0.029878276593499335 -0.08949709113234908
920000000.0 0.008124649187515409 -0.04879821816233317
940000000.0 0.008930353213067465 0.029119166066147638
960000000.0 -0.025024197416789136 0.01336281623535479
980000000.0 0.047965627163529326 0.022913507683699104
1000000000.0 -0.06135400335147852 0.06733788188203749
1020000000.0 -0.08896780034170905 0.0765789580305673
1040000000.0 -0.08811304233494181 -0.10053898850356711
1060000000.0 -0.05503119022308822 0.15049762113515533
1080000000.0 -0.08449579377743399 -0.16714859699351858
1100000000.0 0.04628462516126889 -0.20911241130672256
1120000000.0 0.23817746765404516 0.000937107312865198
1140000000.0 -0.24539529700275203 0.0838969198105993
1160000000.0 -0.17799684610629957 0.22653467686205994
1180000000.0 -0.2604318270990712 0.18289462616752747
1200000000.0 0.11409457572440077 -0.324774990084528
1220000000.0 -0.10619018478811595 0.3553432132089551
1240000000.0 0.23840642611857657 -0.3063748027641646
1260000000.0 -0.21581117011005654 -0.3364114400184005
1280000000.0 -0.4189303616913665 -0.000761421119947947
1300000000.0 -0.019203325253963698 0.43040740559597607
1320000000.0 0.2076839608947397 0.3856285834048612
1340000000.0 0.37931928547435445 0.23464427190690598
1360000000.0 0.42090928533862426 -0.1591824735072208
1380000000.0 -0.2805622225186632 -0.3397291263791199
1400000000.0 -0.3150484642524166 0.2896261069887982
1420000000.0 0.4036015368841016 -0.005271477412286726
1440000000.0 0.09360003472316807 -0.35676918608091784
1460000000.0 -0.021699260588464143 -0.33459146273649915
1480000000.0 -0.2500147800475416 -0.17958162617639375
1500000000.0 -0.21648608882608553 0.17494277029453592
1520000000.0 -0.24253640890431405 -0.060507155089691865
1540000000.0 0.1754101089351591 0.14232176791175485
1560000000.0 -0.16509047511785677 0.11436455281591822
1580000000.0 -0.016073161557577133 0.17721252711362181
1600000000.0 0.00577344550702879 -0.143393911667578
1620000000.0 -0.08357613116366858 0.06805954760664697
1640000000.0 -0.018838973497710652 0.07919751362673041
1660000000.0 0.04913065146882182 0.037763106785928
1680000000.0 0.03698309986780239 -0.00041480706049599586
1700000000.0 0.01095024995668446 -0.007220660086687479
1720000000.0 0.00030908313383649243 0.0072518557558282366
1740000000.0 0.018823851869462886 -0.018365428391605453
1760000000.0 -0.015703419683370103 0.041097531089913424
1780000000.0 -0.0027820545869618476 0.062134113077087626
1800000000.0 -0.06970851504241385 -0.057134595099336924
1820000000.0 0.10367371741364007 0.051278877848824886
1840000000.0 0.015319265491761318 0.15279094447701672
1860000000.0 -0.10447550848701369 -0.1638264527089208
1880000000.0 -0.1962513865031769 0.1363618422592857
1900000000.0 0.09694101440400306 -0.2737703848304929
1920000000.0 0.3211357823037124 0.08789630219468716
1940000000.0 -0.3134458034181757 0.17248822914586778
1960000000.0 0.35527798859707255 0.1273413103590931
1980000000.0 0.050248797800501066 -0.3992415199948521
2000000000.0 -0.39599119069317357 0.12561592818757922
2020000000.0 -0.17226161660469694 0.38460231937929007
2040000000.0 0.013989550286719754 0.42756181039763413
2060000000.0 0.2532130248999084 0.3484971420403635
2080000000.0 0.4303834297209398 0.020181548043987477
2100000000.0 0.19956631171245176 -0.3776026302094866
2120000000.0 -0.23017967212703058 -0.3457775103297259
2140000000.0 -0.34823647476529274 -0.19724364540501899
2160000000.0 0.23282033091089582 -0.3096928866467497
2180000000.0 -0.1272512824057635 -0.3527451800605088
2200000000.0 -0.34340041535358123 -0.11123639682227586
2220000000.0 -0.31006506427748143 0.16413812532413666
2240000000.0 -0.14325503690153135 0.3118712416916911
2260000000.0 0.0054673949183457835 0.3415847419355433
2280000000.0 0.15578843601949896 0.3082603782696992
2300000000.0 0.32418260370823637 0.14988080043890845
2320000000.0 0.27417069590639187 -0.2697855419537877
2340000000.0 -0.35451829475452945 -0.21886682193809368
2360000000.0 -0.041566407796495286 0.45476395673465975
2380000000.0 0.09215691714629619 -0.5013849079594154
2400000000.0 0.18946229666414185 0.5310265719611381
2420000000.0 -0.5430074298295158 -0.2897721517640746
2440000000.0 0.6393848112994015 -0.17129245375217325
2460000000.0 -0.4418996587079172 0.5442369403933693
2480000000.0 0.06892306580903805 -0.7290664054524186
2500000000.0 -0.07312101195400136 0.7486771544422925
2520000000.0 0.17911468041892958 -0.7425228526749916
2540000000.0 -0.4777585916048216 0.5982924148111771
2560000000.0 0.7470291808022794 -0.13559267971948474
2580000000.0 -0.5624333538398415 -0.48732313373945824
2600000000.0 -0.060169362696511186 0.7176943826164671
2620000000.0 0.5875422545278426 -0.3638279738261155
2640000000.0 0.22245556092784072 -0.6154839887468818
2660000000.0 -0.557570393343904 0.2523559664115803
2680000000.0 0.5641559635483832 0.04288731219427732
2700000000.0 -0.3896554074298654 -0.34027277511122916
2720000000.0 0.34591036072366277 0.3162848384133308
2740000000.0 -0.2242910846273598 -0.353328493484039
2760000000.0 -0.050228342904141084 0.3741882385989278
2780000000.0 0.06679615427215635 -0.33682234986679116
2800000000.0 -0.08480543906992931 0.30560920762102584
2820000000.0 0.15907427389969914 -0.25401794674938777
2840000000.0 0.0018240381794865333 0.29532416273989437
2860000000.0 -0.2694750342427677 -0.11636519438849784
2880000000.0 0.15859901711741028 -0.2480209794848995
2900000000.0 -0.08363236362013439 0.283617180291351
2920000000.0 0.2737806903041467 -0.12433181754878275
2940000000.0 -0.2544972598433864 -0.17525449509577254
2960000000.0 -0.10015268223293516 0.2951658498503299
2980000000.0 0.017396193258443493 0.30980131338709516
3000000000.0 -0.2935468572903462 -0.10190622483632521
3020000000.0 0.1581370048826251 -0.2749394911945199
3040000000.0 0.3117419578112612 0.06246053681250543
3060000000.0 -0.046180074575586094 0.30966898321621056
3080000000.0 -0.014191251851753229 -0.30280141266564453
3100000000.0 -0.09952868999828461 0.2770261608425384
3120000000.0 0.07927729834063174 -0.2774439327422324
3140000000.0 0.12600956749735026 0.24757573224894283
3160000000.0 -0.21590844300845233 -0.14870250608030694
3180000000.0 -0.11260034180630879 0.21726994006931352
3200000000.0 -0.1099707384536199 -0.19390134841788068
3220000000.0 0.18150911711451734 -0.07685754839711387
3240000000.0 0.06651566332636656 0.15508920092460735
3260000000.0 -0.10732667430379722 0.08227462460225844
3280000000.0 0.09956030246866436 0.014888761166773205
3300000000.0 -0.05206562396646695 0.052046152976445256
3320000000.0 0.027196202927954678 0.030925387019306257
3340000000.0 -0.01927349196445826 0.002567239384946876
3360000000.0 0.002345041349219877 -0.0028043285553624652
3380000000.0 -0.008614614431296418 0.007931184163889052
3400000000.0 -0.02010355403285405 -0.0032134334943114476
3420000000.0 0.022452979131227933 -0.025645428546981597
3440000000.0 0.040182496104276405 0.024515806298399636
3460000000.0 -0.04896317709187137 0.0316902997268301
3480000000.0 -0.07178892105464582 -0.014479709785789057
3500000000.0 0.059288834526061034 0.07155358584986887
3520000000.0 0.10767381014038764 0.000726489059259665
3540000000.0 -0.02562822325798544 0.11530639751115249
3560000000.0 -0.07872963030095556 -0.09845299636559016
3580000000.0 -0.027343323415973543 0.13409238531629267
3600000000.0 -0.020479821382111036 -0.14783990591831353
3620000000.0 -0.06331021831221706 0.15007785360015508
3640000000.0 -0.17099201040663264 -0.05288472625645434
3660000000.0 0.04769265587804867 -0.18265596215274874
3680000000.0 0.09316789989723516 -0.1742278183722409
3700000000.0 -0.1242158330341313 -0.1572282965807569
3720000000.0 -0.15666354507115665 -0.1207222005193432
3740000000.0 -0.04599824825430228 -0.1823896260166603
3760000000.0 -0.11166657297622636 0.14016068580395386
3780000000.0 0.15933952897129447 0.05958510653566948
3800000000.0 0.05478339892273683 -0.1522675474053571
3820000000.0 -0.031729006275143426 -0.15291581672253643
3840000000.0 0.10429987121031879 -0.10894595451629989
3860000000.0 0.06014226298937483 -0.14079466824256465
3880000000.0 -0.07253418453047905 -0.13406050770338293
3900000000.0 0.09699292209508548 -0.11577302050570643
3920000000.0 0.06670421503672362 -0.14223043730604382
3940000000.0 -0.049087495234801805 0.15705852610584037
3960000000.0 -0.16623242126864296 0.046336453448430626
3980000000.0 -0.10344002779642747 0.13980581234668693
4000000000.0 0.11934746106790534 0.11906379520150324
