!Created with skrf (http://scikit-rf.org).
# Hz S RI R 50.0 
!freq ReS11 ImS11
400000000.0 0.4104118063095588 0.7670559743724523
420000000.0 0.844676521996155 0.023704319499311337
440000000.0 0.7981081209866568 0.04557911183387315
460000000.0 0.6318417828977841 0.3964687344250103
480000000.0 0.021511007801382195 -0.6861690063995272
500000000.0 -0.055634378494672516 0.6026323104889165
520000000.0 0.264029930276861 0.440718721243441
540000000.0 -0.43671104573720365 -0.009535930716337857
560000000.0 0.32151350485331137 0.2336157762832241
580000000.0 -0.23622271846882778 0.27264803200015314
600000000.0 0.16420910543086492 -0.30881641998480713
620000000.0 -0.07242762234746829 -0.3436330156022583
640000000.0 0.3984405897270406 0.08859943574290709
660000000.0 0.1815250074337231 0.3707150834722399
680000000.0 -0.0784389248813318 -0.4350754391808082
700000000.0 -0.20089909774464254 0.4118417704381544
720000000.0 -0.4030511207186547 -0.22551016931350332
740000000.0 -0.4218087744981889 0.07243378578880143
760000000.0 -0.17985838235236157 -0.3706877762760748
780000000.0 -0.327043971342845 0.20184648407166342
800000000.0 -0.09415322984194376 0.32848692765835813
820000000.0 0.27790797736134354 0.03873880433938243
840000000.0 -0.06226224571450567 0.1971473474412575
860000000.0 -0.16797449746299206 0.0075877019235786915
880000000.0 -0.14105486135801792 -0.007002101276125729
900000000.0 0.08860512906968947 0.03395935965598855
920000000.0 -0.04077750587237386 -0.0345873398534382
940000000.0 -0.008070761451601361 -0.03258179860883668
960000000.0 0.03123817299329526 0.009866832869652608
980000000.0 -0.03704533129964216 -0.04090043575336635
1000000000.0 -0.041827211235300914 0.08487752559506363
1020000000.0 0.011701952153979546 0.11856423144132128
1040000000.0 -0.01843546495253309 -0.13359970088141981
1060000000.0 -0.10757943352937736 0.12254137635796279
1080000000.0 -0.12794656777683336 -0.14312741836962228
1100000000.0 0.1516873479797298 -0.1544883649571671
1120000000.0 0.22760649359451057 -0.0684691907136516
1140000000.0 -0.11934296276866513 0.23152605607681315
1160000000.0 -0.23201667639172607 0.1600246603233894
1180000000.0 -0.23538732989795494 -0.19854535903769513
1200000000.0 0.31525562975624727 0.12657204863637064
1220000000.0 -0.18670104302408633 -0.31881481688364505
1240000000.0 0.31394076043650426 0.23549507620861915
1260000000.0 -0.2330199777720419 -0.33302548801658904
1280000000.0 -0.4217421268397573 -0.01789026803485368
1300000000.0 0.17442379544101744 0.39297596448888666
1320000000.0 0.3885640094942333 0.1927911173250879
1340000000.0 0.18763580385635184 0.39731703516383027
1360000000.0 0.4359739542337777 0.10147061163731855
1380000000.0 -0.2661874130023178 -0.3496483364084611
1400000000.0 -0.41539966166298514 -0.0955755246555634
1420000000.0 0.23956788533271572 0.326521015382735
1440000000.0 0.2544529318658442 -0.2746644466712524
1460000000.0 0.17829731048787273 -0.29400133546494434
1480000000.0 -0.2632476389523312 -0.17184801171091857
1500000000.0 -0.11727183724572482 0.2569703189723421
1520000000.0 -0.24828746401301888 -0.04118850268434894
1540000000.0 -0.15307116898442572 0.1683941916933711
1560000000.0 -0.1977895641611616 -0.029164227294356287
1580000000.0 -0.09781955602075428 -0.14920162032769185
1600000000.0 -0.11173912189329474 0.09202368553356535
1620000000.0 0.02453906120399291 -0.10525486561539066
1640000000.0 0.026725857010740713 -0.07705596413634119
1660000000.0 0.06228010631602831 0.010758092468051447
1680000000.0 0.03519933851701996 0.009850585778347437
1700000000.0 -0.009903041897300065 0.001093702715398668
1720000000.0 -0.008428221936704765 -0.0023539387004628694
1740000000.0 -0.0250650691788904 -0.004797825413708251
1760000000.0 0.01600720153223603 0.03394774743281695
1780000000.0 -0.017839037982144274 0.0494721191792543
1800000000.0 -0.08565932580493969 0.013814151155691769
1820000000.0 0.011426778725472545 -0.1132705482478407
1840000000.0 -0.12885152416741044 -0.07736954943961127
1860000000.0 -0.1254995841782478 -0.1480410093438428
1880000000.0 -0.17982141250257097 0.1529123118185839
1900000000.0 0.2659873059595735 -0.08947878025029728
1920000000.0 0.32380863031024465 -0.04042293468501101
1940000000.0 -0.34765869987099257 -0.036309728287552856
1960000000.0 -0.1661975733880626 0.33403636973981304
1980000000.0 0.23164501191060285 -0.32966895160190407
2000000000.0 -0.3672056095586767 -0.20183918586344998
2020000000.0 -0.4260092932137969 -0.014967914719911612
2040000000.0 0.07175813609335498 0.4260104889321837
2060000000.0 0.10308070557713923 0.42141496588006294
2080000000.0 0.06343159478180362 0.4282280093911696
2100000000.0 0.305195001325249 -0.30126625340237856
2120000000.0 0.26900377105467854 -0.3200772774828896
2140000000.0 0.37855245145709676 -0.13987998283564101
2160000000.0 0.3902337862941841 -0.02813357937506151
2180000000.0 0.36821321109407074 -0.08624453352219937
2200000000.0 0.2795736465577409 -0.23306751608187612
2220000000.0 -0.33089086132417117 -0.11479039169994762
2240000000.0 -0.2287513278725598 -0.2521567009148126
2260000000.0 -0.22548172466308636 -0.24969240533163284
2280000000.0 -0.20441662303062122 0.2736599422857343
2300000000.0 -0.20188442498727047 0.2876541947643077
2320000000.0 -0.09739696508474546 0.36338661323808513
2340000000.0 0.04474857510746607 -0.4084288630611067
2360000000.0 -0.43621624292594746 -0.1069693617074871
2380000000.0 0.2319958330161045 0.441559240988849
2400000000.0 -0.3869267368646772 0.4019790866661665
2420000000.0 0.4367968435767262 -0.4257229450175027
2440000000.0 -0.47175916844478843 0.45735443335819864
2460000000.0 -0.6698655978499527 -0.21140204217207956
2480000000.0 0.672388457260168 0.2970470432083793
2500000000.0 -0.32747930877707837 -0.6824295703158902
2520000000.0 0.7626363921737792 -0.10662590462639523
2540000000.0 -0.43660811772992353 -0.6386209829676309
2560000000.0 -0.6034616388305302 0.4787826462957502
2580000000.0 0.28712920678819126 -0.6988660614278956
2600000000.0 -0.6804042918220399 -0.27416344875344784
2620000000.0 -0.31522271581424327 0.6332738443799365
2640000000.0 0.6437518469548318 -0.1829952578808432
2660000000.0 -0.24725835391975906 -0.5782026118057191
2680000000.0 -0.38899344600066016 0.43356617768976796
2700000000.0 -0.1496021656870565 -0.5090063400034642
2720000000.0 -0.19661237054011024 0.4412369414214262
2740000000.0 0.3969607937969407 -0.17412761386564193
2760000000.0 -0.2279770569271759 0.31527143121846124
2780000000.0 0.3552246498590043 -0.04057570516218973
2800000000.0 -0.3152090385875171 -0.10590892231874337
2820000000.0 0.06291262951745485 -0.30488540505738243
2840000000.0 -0.10844113038498118 0.28380898242170266
2860000000.0 0.017582159918271716 -0.29962851183917555
2880000000.0 0.20424590740732387 -0.21890826537788166
2900000000.0 -0.30012273325903344 0.00835721792743514
2920000000.0 0.006455207734390022 0.3054033801896239
2940000000.0 -0.13281700242281344 -0.2844104199302106
2960000000.0 -0.31605098977931145 -0.02841621703266283
2980000000.0 -0.2879569385213457 -0.13051651151831792
3000000000.0 -0.23894533125537226 -0.20724503528250837
3020000000.0 -0.03340218041828609 0.3186511744622917
3040000000.0 -0.007905998893503673 0.32255152279336147
3060000000.0 -0.152633243173562 0.2773844396375015
3080000000.0 0.2742318365921465 0.13595579198611732
3100000000.0 -0.2951449926276273 0.03804454977677155
3120000000.0 0.05167805949339511 -0.28446852282810076
3140000000.0 -0.27704829807717435 0.013345215930927749
3160000000.0 0.150121635519704 -0.2140170561011923
3180000000.0 -0.24455724884136876 0.01576049456425262
3200000000.0 0.21817676670258182 0.07276680193042079
3220000000.0 0.20215340234866833 0.01965311632239308
3240000000.0 0.15404683469787833 -0.07360125069496151
3260000000.0 -0.02102855825394069 0.13911507375732002
3280000000.0 -0.09916387297173786 -0.014849919097689006
3300000000.0 -0.028569799123359673 -0.06280974083091656
3320000000.0 0.031320426885913494 0.02836296671976579
3340000000.0 0.019024133682626565 0.0019805557888811975
3360000000.0 0.002244836193960225 -0.001522654177998733
3380000000.0 0.006335302705749055 -0.006854881416214328
3400000000.0 0.004869334568884391 -0.021181246690364235
3420000000.0 0.03318064985576212 0.013957086490618442
3440000000.0 0.047793476598145444 0.000963640663562786
3460000000.0 -0.0604477468184299 0.006750861482989581
3480000000.0 0.019536232085598102 0.07360348893520595
3500000000.0 0.018461882445979624 -0.08850413679830171
3520000000.0 -0.04963883208005965 -0.09338233563580209
3540000000.0 -0.009750060199432892 -0.11880059474367806
3560000000.0 -0.020842855490685416 0.12094408473221428
3580000000.0 0.11441386801074174 -0.07111838466530344
3600000000.0 -0.001768673560101758 0.14849635507799383
3620000000.0 0.15699813452116188 -0.020595549467427244
3640000000.0 0.17529984727234482 0.011635713371390678
3660000000.0 0.18422942158266378 0.034511148022110444
3680000000.0 0.08621778752665786 0.17239730889671623
3700000000.0 0.13488192649997677 -0.14046963684716926
3720000000.0 0.038730797601251636 -0.1876775987611868
3740000000.0 0.1735912276619304 -0.05411585741742713
3760000000.0 -0.11974102179803617 -0.12494820224338468
3780000000.0 -0.047357795471195285 0.1583749680476071
3800000000.0 0.15834262810448158 -0.016904198345708242
3820000000.0 0.0883317041004137 -0.1256626366815686
3840000000.0 0.05505710159089079 -0.13678000653598435
3860000000.0 0.019267036282144354 -0.14337866468771313
3880000000.0 0.020913067661902568 -0.14206994671376608
3900000000.0 0.13592385885898228 0.045291324608014445
3920000000.0 0.1273116920049148 0.07239768674137552
3940000000.0 -0.13117635224239782 -0.09060856351381026
3960000000.0 -0.1218075890187732 -0.11887276707880864
3980000000.0 -0.16004443470707244 0.06078483933507158
4000000000.0 0.16296393985637092 0.030031843086046697
