!Created with skrf (http://scikit-rf.org).
# Hz S RI R 50.0 
!freq ReS11 ImS11
400000000.0 0.4649448306095056 0.7344623538132388
420000000.0 0.8412011528925851 -0.06210768737726095
440000000.0 0.7948889485624792 -0.07586083970900136
460000000.0 0.6604915220497187 0.34654415976811404
480000000.0 0.04405205905127596 -0.6857903563438108
500000000.0 -0.05609499857419453 0.6028893754799125
520000000.0 0.2627643195899638 0.44219552610908724
540000000.0 -0.4368033659198662 -0.019931929664613334
560000000.0 0.29877754899569264 0.26143323138406444
580000000.0 -0.29605061623037937 0.2044515684540814
600000000.0 0.1795955475470659 -0.2982638727526969
620000000.0 -0.14082731421344555 -0.32074912444926096
640000000.0 0.4027035565199414 0.06095777069893806
660000000.0 0.22468672629735903 0.3455426979307995
680000000.0 -0.1205970800612894 -0.4250456523009284
700000000.0 -0.15875319288182727 0.42960756706562425
720000000.0 -0.4298153439339162 -0.17047967915896917
740000000.0 -0.41698678297608943 0.10302388676223839
760000000.0 -0.1773954762574815 -0.3723925348924107
780000000.0 -0.3319532407280684 0.19443720726774844
800000000.0 -0.09679215657244143 0.3280479419553736
820000000.0 0.2739577160962011 0.06062716913351162
840000000.0 -0.10625299434052515 0.1772130955112686
860000000.0 -0.16273620896455532 -0.04054593429068296
880000000.0 -0.1367958597142949 -0.030784581827672058
900000000.0 0.09169182483434249 0.01805512727059301
920000000.0 -0.046436657413467114 -0.025206879926021417
940000000.0 -0.029898316867139937 -0.015454177859363096
960000000.0 0.03307838534374457 0.0018533718058062192
980000000.0 -0.047271714448781386 -0.028769351331570374
1000000000.0 -0.047946619549336614 0.08220899804893483
1020000000.0 -0.03443000215950145 0.11465831726978008
1040000000.0 0.04366914192890964 -0.12745304914323674
1060000000.0 -0.12526043514377902 0.10267571636421835
1080000000.0 -0.13304817129528632 -0.13660545510118494
1100000000.0 0.12313373337235282 -0.17666433740472812
1120000000.0 0.2119367797808642 -0.10633538262084909
1140000000.0 -0.05951894355778147 0.25299344437741117
1160000000.0 -0.18157976492723535 0.21496908773521858
1180000000.0 -0.27106211449536327 -0.14400593610390033
1200000000.0 0.3317470308661107 0.07287030015758292
1220000000.0 -0.2222275792913124 -0.295549756450645
1240000000.0 0.33955102935688247 0.1990355383631683
1260000000.0 -0.2606947082722039 -0.31335705789615437
1280000000.0 -0.42118071055449796 0.03512100602304978
1300000000.0 0.20329340096277415 0.3796736741276282
1320000000.0 0.3971432872246944 0.17649702842812165
1340000000.0 0.1899907898814722 0.39667320887092195
1360000000.0 0.4291344280028379 0.1284404815601972
1380000000.0 -0.24656643009156523 -0.3638953176838069
1400000000.0 -0.40709892052571794 -0.12539155975989946
1420000000.0 0.21001619986084638 0.34577683662238273
1440000000.0 0.28674783424452926 -0.2398203504431183
1460000000.0 0.19841222859395727 -0.2790779789593831
1480000000.0 -0.24477193297747035 -0.19502989488616504
1500000000.0 -0.15970494874830188 0.23172305333436571
1520000000.0 -0.2405713594134487 -0.06963218513957552
1540000000.0 -0.15387188741411337 0.16578718195726921
1560000000.0 -0.19848589327076735 0.00753102570319539
1580000000.0 -0.14370517292673102 -0.10425551991170925
1600000000.0 -0.058571871971635305 0.1319840170597358
1620000000.0 -0.052136833780136116 -0.09415894900142105
1640000000.0 -0.07258673379155108 -0.0378847340188778
1660000000.0 0.0026670344518581295 -0.06380971989097996
1680000000.0 0.02942221601359193 -0.02424579349364271
1700000000.0 0.011600262699837854 0.0039710539790387715
1720000000.0 0.007175946530764921 -0.0026278299563776398
1740000000.0 0.019637699673117858 -0.016054348035331054
1760000000.0 0.0017156397515144042 -0.03791635262648903
1780000000.0 0.05289577408439276 0.005028778121924198
1800000000.0 -0.056657938638218455 0.06666489403150799
1820000000.0 -0.0755625351945572 -0.08648285887601619
1840000000.0 -0.15157174245486643 -0.014186420916658619
1860000000.0 -0.1569442095227025 -0.11791086174382283
1880000000.0 -0.17503848519437243 0.1609040025867203
1900000000.0 0.2726866876890911 -0.07256247556493374
1920000000.0 0.32739248541647453 -0.0017329677689246598
1940000000.0 -0.3292254498320163 -0.11928692955617404
1960000000.0 -0.24325072660579056 0.2826394613661816
1980000000.0 0.29558092326442625 -0.272730384628771
2000000000.0 -0.3197713152583858 -0.26811969376634653
2020000000.0 -0.4194277540287047 -0.06301684523100606
2040000000.0 0.07091908174111676 0.4231343156512388
2060000000.0 0.10369985319910185 0.4180216176685358
2080000000.0 0.14989386617150538 0.40346256932366625
2100000000.0 0.2505166397390349 -0.34470446215408707
2120000000.0 0.20076562741295154 -0.36367909078769467
2140000000.0 0.3347402108060382 -0.22144377258914472
2160000000.0 0.3479603987058542 -0.17464202874120607
2180000000.0 0.28119940846616187 -0.2515613945239789
2200000000.0 0.13336866962436744 -0.3386036005739086
2220000000.0 -0.3480431356782364 0.043895630506049915
2240000000.0 -0.31342584776496885 -0.13759200723721987
2260000000.0 -0.30297309293014685 -0.1513644377639146
2280000000.0 -0.1250978452323867 0.3198504437779653
2300000000.0 -0.12647156340453883 0.330497883917479
2320000000.0 -0.04972648543415101 0.37534818727542685
2340000000.0 0.06604073005023861 -0.4074523292642875
2360000000.0 -0.41421793053920936 -0.17721020708277685
2380000000.0 0.1327282387531059 0.4815481588837687
2400000000.0 -0.45982948368846466 0.31557613105414134
2420000000.0 0.5218750967758881 -0.3133533831548284
2440000000.0 -0.5278376449010106 0.3881765574230927
2460000000.0 -0.637481985339395 -0.28939636475543407
2480000000.0 0.6352136405161112 0.3645165632208498
2500000000.0 -0.32539439417592336 -0.6803922934211205
2520000000.0 0.7494829647702863 -0.16605438250166998
2540000000.0 -0.5092518038186837 -0.5802464584903704
2560000000.0 -0.46903646617920713 0.608975107722325
2580000000.0 0.09170978725031953 -0.7492524923387849
2600000000.0 -0.7294939473344131 -0.0788478074051462
2620000000.0 -0.11992127529666215 0.6971585229817769
2640000000.0 0.5850264670636349 -0.32694504264451424
2660000000.0 -0.40245052682541 -0.48488657124286655
2680000000.0 -0.24283575759985102 0.5313721049845354
2700000000.0 -0.26723309007484886 -0.4600966718922235
2720000000.0 -0.11897844422641697 0.4700897847649936
2740000000.0 0.40253705990732674 -0.16512895405348926
2760000000.0 -0.26489438921970027 0.2863850833571798
2780000000.0 0.35678868421577603 0.029410984784822382
2800000000.0 -0.2941224980004668 -0.15524316682315784
2820000000.0 0.1375266672703394 -0.2789060381762426
2840000000.0 -0.19842331377466496 0.22959634754169359
2860000000.0 0.11234419532620599 -0.27720322654630636
2880000000.0 0.24409842937507503 -0.16914580400006754
2900000000.0 -0.29786872174310697 -0.010725265652380843
2920000000.0 0.0342633775520778 0.30150920490074234
2940000000.0 -0.16263356974425403 -0.2659440325540503
2960000000.0 -0.315384048219484 0.001975107176116966
2980000000.0 -0.31198753111659056 -0.030955496404766435
3000000000.0 -0.3082113038585721 -0.06186290272073395
3020000000.0 0.13348678919354265 0.28912760038629465
3040000000.0 0.12558413702989216 0.29540543214051745
3060000000.0 0.035844601008842375 0.3139020982206602
3080000000.0 0.30204285139087395 -0.043099155790612124
3100000000.0 -0.2403153419488387 0.17407863626327114
3120000000.0 -0.11964967180886107 -0.2635424290032651
3140000000.0 -0.20496921363217935 0.18818369398872448
3160000000.0 -0.044286373313282654 -0.259636993113732
3180000000.0 -0.2091869986777034 0.13156798046739326
3200000000.0 0.23047301094569053 -0.02476778487637924
3220000000.0 0.18257958118176984 -0.09354638941411084
3240000000.0 0.13019420496015918 -0.11486937492718756
3260000000.0 0.012729720106040914 0.1433591162626486
3280000000.0 -0.09258455962352448 -0.04554571158765524
3300000000.0 0.054609380030521654 -0.04769238040338921
3320000000.0 -0.03326819611122037 -0.02895265176487904
3340000000.0 0.007305919247560566 0.019571608746773345
3360000000.0 -0.002511743317935759 0.002906418963973355
3380000000.0 0.00764287311792329 0.0004241423027778279
3400000000.0 -0.0028348480349275414 0.02001284304971498
3420000000.0 0.011149774227833637 0.03194577305826924
3440000000.0 -0.04040072582957113 0.02032106073999044
3460000000.0 0.058186721130674225 -0.005091664488069379
3480000000.0 0.0034086049611099403 -0.07382409669543746
3500000000.0 -0.08901065061947774 0.0007522258558349186
3520000000.0 -0.08283961633873596 0.06452341006131815
3540000000.0 -0.11809638202199084 0.01596975424755759
3560000000.0 0.12143369006419162 0.01653040586242949
3580000000.0 -0.0595473015531793 -0.12081201606124554
3600000000.0 0.15011119238155265 -0.00742038061229007
3620000000.0 0.0032777129519965392 -0.15908290198895222
3640000000.0 0.08637316472556146 -0.15584227905627357
3660000000.0 0.12000771317140489 -0.14831695408362033
3680000000.0 0.1864679265918917 0.060653923687799295
3700000000.0 0.0004996002711258213 -0.19806515848565126
3720000000.0 -0.049691610391075315 -0.18953108628963322
3740000000.0 0.12450922432901629 -0.13687564111977257
3760000000.0 -0.15907754116434983 -0.07720270123747854
3780000000.0 0.008462419318425552 0.16821839356649165
3800000000.0 0.1617826135218259 0.014997263541065745
3820000000.0 0.11349948932981956 -0.10785980895276477
3840000000.0 0.09927482061369426 -0.11374825285366848
3860000000.0 0.0747247239416747 -0.1273557545012245
3880000000.0 0.09613431525851372 -0.11065130171630658
3900000000.0 0.11945592070447814 0.08393818608142745
3920000000.0 0.1259314374302576 0.08010452698040406
3940000000.0 -0.10772988348155904 -0.12003513915101884
3960000000.0 -0.10475113358301444 -0.13653460803755132
3980000000.0 -0.17327961482809995 0.003857163524218731
4000000000.0 0.12771610704418113 0.10662860148756807
