!Created with skrf (http://scikit-rf.org).
# Hz S RI R 50.0 
!freq ReS11 ImS11
400000000.0 0.688013068898227 0.5266092587475519
420000000.0 0.8397167178314046 -0.08757313057662913
440000000.0 0.7843450186535836 -0.148791778884512
460000000.0 0.7168021550644759 -0.20611815809171363
480000000.0 -0.10575791180468691 -0.6795570243293996
500000000.0 0.1519196329249294 0.5829033588826591
520000000.0 0.4939442930150654 0.10085045242912842
540000000.0 -0.31565405998749185 -0.3066308261940463
560000000.0 0.3813978155050458 0.13433900849229136
580000000.0 -0.08857904903296593 0.35033376423096235
600000000.0 -0.051017217994555816 -0.34772718897848304
620000000.0 -0.3407712238539817 -0.08970227212772723
640000000.0 -0.18991741497444325 -0.3519242535235153
660000000.0 -0.2725153515035114 0.3029328868763676
680000000.0 -0.24211189193721244 -0.37250615217599464
700000000.0 0.1913407944211466 0.4121889834863802
720000000.0 -0.15231590616838384 -0.435046649881191
740000000.0 -0.43695655626928365 0.030458163212249215
760000000.0 -0.4140469851452777 -0.03879838032905093
780000000.0 -0.16929794728464745 0.34873325622615425
800000000.0 0.3236096668687861 0.07221269934560633
820000000.0 0.24985147024392254 0.1173807554695885
840000000.0 -0.20192086256670902 -0.03625153103538256
860000000.0 -0.16625583161654453 0.03667315414061451
880000000.0 0.08013444367589505 0.11687577269651717
900000000.0 -0.0886165752112469 -0.024147795142893207
920000000.0 0.026633103849962432 -0.04020455001961736
940000000.0 0.021754108692368962 0.022193338757763355
960000000.0 0.026482997403329833 0.005601321993339068
980000000.0 0.045935558909884426 -0.01748607039036969
1000000000.0 -0.07974885748323944 -0.04356425652965198
1020000000.0 -0.09023482151778012 0.07567250094311535
1040000000.0 -0.09935724569421484 -0.08939165822914527
1060000000.0 -0.13392138597519052 0.08658320695484284
1080000000.0 -0.07004918703964162 -0.1732899322748986
1100000000.0 0.02841322386734017 -0.21460652236247757
1120000000.0 0.10609505404400296 -0.21471618855904773
1140000000.0 -0.1141001876856277 0.2307202041711901
1160000000.0 -0.2554791040402265 0.1277796874244293
1180000000.0 -0.30178018590393535 0.10307652370546388
1200000000.0 0.0968636622328314 -0.33023557395759967
1220000000.0 -0.255481456414861 0.271358742840882
1240000000.0 0.17972706005061553 -0.3478771850360823
1260000000.0 -0.3548992398806683 -0.18035472101492958
1280000000.0 -0.41464864110409744 -0.03257760139440027
1300000000.0 -0.13761016133370768 0.4077144238007483
1320000000.0 0.1285608545745644 0.419260065815142
1340000000.0 0.36709760663663904 0.2564975049653835
1360000000.0 0.3894566666382412 -0.22744313457510834
1380000000.0 -0.31106279940029957 -0.31289647826690187
1400000000.0 -0.2481143932352734 0.346951527101349
1420000000.0 0.39573422060690266 0.06415856944134136
1440000000.0 0.1995766861101216 -0.3109718750972949
1460000000.0 -0.12131675533743212 -0.31460340547240007
1480000000.0 -0.29373801656680926 -0.09161116071339842
1500000000.0 -0.21593269304974366 0.17646669332724557
1520000000.0 -0.23426686941449087 -0.08378718104032928
1540000000.0 0.12451015182136546 0.18770736697792192
1560000000.0 -0.19972529068600614 0.02417393665882945
1580000000.0 -0.11050002706597728 0.14086483116203963
1600000000.0 -0.017007082956452712 -0.14233190947372182
1620000000.0 -0.10569593073577448 -0.018079758996315195
1640000000.0 -0.01961025693810416 0.07982801708542574
1660000000.0 0.0497938185208406 0.03532604132844366
1680000000.0 0.03368501890185927 -0.01155987596263971
1700000000.0 0.011995614594255946 -0.004307298929255558
1720000000.0 -0.007019535451655389 0.005197572007791153
1740000000.0 0.002406665436900076 0.02568301592919977
1760000000.0 -0.030291464285798896 0.027633473203586938
1780000000.0 -0.03444316589525732 -0.05016993377701484
1800000000.0 0.004047173216545423 -0.09043885266202789
1820000000.0 0.10591670408637593 0.046133302882940395
1840000000.0 0.03408447717660527 0.14937528084084398
1860000000.0 -0.16801344520720266 -0.09473394448936844
1880000000.0 -0.22764669499277734 0.06813557569353913
1900000000.0 0.1309776230950585 -0.2594067776044406
1920000000.0 0.3135398793005541 0.11184774507942837
1940000000.0 -0.2949745202597315 0.20435857866207846
1960000000.0 0.3768950601386143 0.02520106456086202
1980000000.0 0.029911351782504852 -0.4004534697977042
2000000000.0 -0.41435370166144614 0.0327287962108969
2020000000.0 -0.194751467464497 0.3751376041215198
2040000000.0 -0.017877749632262626 0.4284093728574479
2060000000.0 0.23219858502021604 0.36350682184659394
2080000000.0 0.43078802371252106 0.017037214102939135
2100000000.0 0.16689655714718366 -0.39170992273232713
2120000000.0 -0.10305090268573533 -0.40261157339983944
2140000000.0 -0.3212244995262434 -0.23880671777307366
2160000000.0 0.2614502276016916 -0.2848461064733663
2180000000.0 -0.1132931133757593 -0.3564936796010028
2200000000.0 -0.33351000538723274 -0.1344934504007703
2220000000.0 -0.33164586989940176 0.11292262734596759
2240000000.0 -0.17427557303940872 0.2962191464780693
2260000000.0 0.0332447574393733 0.3396088382847809
2280000000.0 0.17141744343246038 0.29975612250238326
2300000000.0 0.33558524449002464 0.12123090969613592
2320000000.0 0.24871464320526607 -0.29266554724677196
2340000000.0 -0.3689290292164095 -0.19440834584320438
2360000000.0 -0.06611732217190595 0.45183843770366255
2380000000.0 0.11998256457142603 -0.4963281667475643
2400000000.0 0.17585093174002056 0.5365808133567699
2420000000.0 -0.546210086119275 -0.2838303565249647
2440000000.0 0.6418449913037714 -0.1616570012478708
2460000000.0 -0.4560493139258223 0.5326738241367842
2480000000.0 0.11782778208826133 -0.7222265668645589
2500000000.0 -0.12968295456536016 0.7407685486917542
2520000000.0 0.2193805301413264 -0.7304114498682366
2540000000.0 -0.5106522552879535 0.569055850507624
2560000000.0 0.7379914016272463 -0.17571323754282753
2580000000.0 -0.5166138985640975 -0.5363778086497324
2600000000.0 -0.05258225508496243 0.7180380216665244
2620000000.0 0.5822383422449241 -0.37246390719777356
2640000000.0 0.18754498314239867 -0.6272535207882014
2660000000.0 -0.5732203937950151 0.215030133734349
2680000000.0 0.558305558228767 0.08882602884895603
2700000000.0 -0.3937691987259454 -0.33541859750573827
2720000000.0 0.3519627952102015 0.30996772083387497
2740000000.0 -0.2243600048796541 -0.35309279116005204
2760000000.0 -0.0984391406227145 0.36504038012046824
2780000000.0 0.06457140177891199 -0.3383963278348755
2800000000.0 -0.05149302672047577 0.3127129454065532
2820000000.0 0.18686760252969317 -0.23349421651272442
2840000000.0 -0.05338787215025276 0.2901929269400135
2860000000.0 -0.27244028423661776 -0.1078973392669129
2880000000.0 0.14806062828456892 -0.2536400872303141
2900000000.0 -0.06139068463412193 0.28873515739587857
2920000000.0 0.23740989048098626 -0.18264007765138954
2940000000.0 -0.28264941955374145 -0.12331332219710132
2960000000.0 -0.11241580299834175 0.2905195494022839
2980000000.0 0.014149230425593882 0.3103195244024582
3000000000.0 -0.30983707564299534 -0.011281728386708241
3020000000.0 0.08579112877870791 -0.30459186703641494
3040000000.0 0.3173145025225045 -0.003933186973922458
3060000000.0 -0.08244907797590476 0.3031540278664278
3080000000.0 -0.07250315862898482 -0.29432217215862316
3100000000.0 -0.07659134131943401 0.28379575412612684
3120000000.0 0.0486397499443338 -0.2843347916404769
3140000000.0 0.12437959866373514 0.24791088685850257
3160000000.0 -0.20217928282916037 -0.16573219756328095
3180000000.0 -0.14773014116242894 0.19608105148674096
3200000000.0 -0.16561410466164264 -0.14990133611120862
3220000000.0 0.1663389879996112 -0.10557823168370695
3240000000.0 0.08276958454536733 0.14616869934202467
3260000000.0 -0.10936439367697677 0.07914990983733622
3280000000.0 0.09707441830665532 0.025897192533012706
3300000000.0 -0.0692336082140561 0.026763539972613003
3320000000.0 0.041587485669195345 0.003149071534799778
3340000000.0 0.003406532215421349 0.018819592601436223
3360000000.0 0.0035398790618384616 -0.00191209160628698
3380000000.0 0.0037088500923154817 0.010286784715467567
3400000000.0 0.0027380912408397884 -0.021047648550624604
3420000000.0 0.0235316581861072 0.024860132754423635
3440000000.0 -0.010528309459548517 0.04518648353981345
3460000000.0 -0.031660749497426456 -0.0481114002999253
3480000000.0 -0.024778276476583903 -0.06757192857021933
3500000000.0 0.029901562800275124 0.08716640937406098
3520000000.0 0.1062032700184008 -0.009045826611981682
3540000000.0 -0.020675469901406496 0.1151734647613169
3560000000.0 -0.06299205930273562 -0.1092581760227486
3580000000.0 -0.04125715756268146 0.1299452270954051
3600000000.0 -0.0057698127078789985 -0.14834940431653082
3620000000.0 -0.0887693017052184 0.13481170509380852
3640000000.0 -0.17742015098994993 -0.010143254410158732
3660000000.0 0.017502941012652987 -0.1870109347183254
3680000000.0 0.06666315634007679 -0.18695483880881267
3700000000.0 -0.16395546827667173 -0.11528259924737028
3720000000.0 -0.1619010070377529 -0.11559714295232805
3740000000.0 -0.0831594852113119 -0.16854163142374232
3760000000.0 -0.08660572629727689 0.15734782481842535
3780000000.0 0.17019189992533915 -0.0036048512296773193
3800000000.0 0.01147908661366338 -0.16224317890475778
3820000000.0 -0.06606340861711929 -0.14306516138467618
3840000000.0 0.09172733936725122 -0.12128742642290849
3860000000.0 0.03532796941714024 -0.1503781067681963
3880000000.0 -0.04008342420626303 -0.1485906829315203
3900000000.0 0.09711825529173297 -0.11763090878822914
3920000000.0 0.05962133365640167 -0.14657089636605786
3940000000.0 -0.05667529865087395 0.1563231325450569
3960000000.0 -0.1583758334623556 0.07093209733650542
3980000000.0 -0.11361542167111731 0.13302687532212576
4000000000.0 0.07825271778064825 0.15140462436090887
