!Created with skrf (http://scikit-rf.org).
# Hz S RI R 50.0 
!freq ReS11 ImS11
400000000.0 0.6417900529448126 0.5801872608132042
420000000.0 0.8390512151415301 -0.09764823294133711
440000000.0 0.79328861463321 -0.09142783869972777
460000000.0 0.7394206534864041 -0.09484236659362387
480000000.0 -0.0180451534249065 -0.6870836653449272
500000000.0 0.11689267072542223 0.5955669509710955
520000000.0 0.5016757653311528 -0.04525350712444193
540000000.0 -0.26616457818400413 -0.34750328678882375
560000000.0 0.3683547838813049 0.16366414254544379
580000000.0 0.048755903536640596 0.35924186222446547
600000000.0 -0.09070779443063098 -0.33978907982113105
620000000.0 -0.3481214304375735 -0.04376385442912901
640000000.0 -0.14158235298396338 -0.37571593325352143
660000000.0 -0.2862899428438975 0.2895313430091399
680000000.0 -0.2921802662999317 -0.3368230826911434
700000000.0 0.2601826663395762 0.37680353368350605
720000000.0 -0.3301960842979344 -0.3202866851997855
740000000.0 -0.43067757688581143 -0.03414964917431905
760000000.0 -0.4106723464617223 -0.061105408544927534
780000000.0 -0.249358295961953 0.29332708144168457
800000000.0 0.28210076497637215 0.18481357540933738
820000000.0 0.2774590676876741 -0.030714424056068442
840000000.0 -0.18419441010069015 0.08737852154466566
860000000.0 -0.1445367017667393 0.08740421557377945
880000000.0 0.04080502426872057 0.1356082114243917
900000000.0 -0.02705835637142513 -0.08990612275529956
920000000.0 0.03415208088694473 -0.03527044143388188
940000000.0 0.010068874505735436 0.028700914894131666
960000000.0 -0.0286498016672643 0.0011383628039815892
980000000.0 0.053344224497169405 -0.0057480277417837865
1000000000.0 -0.0498281386502076 0.07696815391184593
1020000000.0 -0.09321005042107582 0.07225735134798596
1040000000.0 -0.10163876034570848 -0.08720905193187178
1060000000.0 -0.04270349911252066 0.15428773794761833
1080000000.0 -0.10050740786413787 -0.15812576779480522
1100000000.0 0.038330868102173364 -0.21051218438206443
1120000000.0 0.23676479690355384 -0.025972605639024236
1140000000.0 -0.23594443837142867 0.10847547086035007
1160000000.0 -0.17109199353293655 0.2319361339677799
1180000000.0 -0.23882915785252315 0.20999785774232374
1200000000.0 0.09197389831576222 -0.3312142600126496
1220000000.0 -0.11711667955695201 0.35132380259183793
1240000000.0 0.2498433798455032 -0.2975264578312806
1260000000.0 -0.21943651424331 -0.3338741782917437
1280000000.0 -0.41744234836380906 0.038115505067650775
1300000000.0 -0.017637569307989254 0.4302518940287282
1320000000.0 0.2183502573369398 0.37951461660506336
1340000000.0 0.3747917965201745 0.2421736328282966
1360000000.0 0.4216654271735809 -0.15769687516647685
1380000000.0 -0.30103766911992563 -0.32155253753209745
1400000000.0 -0.31689357092168896 0.2870348232728931
1420000000.0 0.40267049900014984 -0.014139188992223875
1440000000.0 0.10856834090763791 -0.35250538770649054
1460000000.0 -0.00843041983261269 -0.3349538411815996
1480000000.0 -0.27634815803517143 -0.13439093962357732
1500000000.0 -0.21888966560103124 0.17141041447340033
1520000000.0 -0.24110952844433833 -0.06437788116105865
1540000000.0 0.16538198578673272 0.15396348977943244
1560000000.0 -0.15094719522701636 0.13218436351940804
1580000000.0 -0.0004636910815985267 0.17769709046282606
1600000000.0 -0.020564144728814997 -0.14184236425045205
1620000000.0 -0.0791297923082556 0.07292444127448781
1640000000.0 -0.007869558474807468 0.08113860642306073
1660000000.0 0.048623527073372065 0.03845395017552697
1680000000.0 0.013930354591537459 0.03446752136160299
1700000000.0 0.01134876703117825 -0.006576798453648404
1720000000.0 0.0022971351131014692 -0.006648427166435823
1740000000.0 0.024439155978657107 -0.009353459536756792
1760000000.0 -0.003214104872009094 0.04377161931887978
1780000000.0 -0.020025244850803273 0.05889781616566046
1800000000.0 -0.0690592391287904 -0.058063385157644046
1820000000.0 0.10168352246259564 0.055378836132672804
1840000000.0 0.006379090167030237 0.15349055482607904
1860000000.0 -0.07708284205552215 -0.17862689657156894
1880000000.0 -0.20549181609920622 0.12297297248327314
1900000000.0 0.10965534712224334 -0.2693165967913765
1920000000.0 0.3179611132285017 0.09845555301413318
1940000000.0 -0.31429717153982994 0.17067303881904472
1960000000.0 0.3521863990535705 0.13495328369158702
1980000000.0 0.063823202382948 -0.3970748063499338
2000000000.0 -0.3931595226685387 0.13410897870274388
2020000000.0 -0.16492281093332675 0.38739844768712944
2040000000.0 0.021173075636615905 0.42725083166463385
2060000000.0 0.24620776711111442 0.35306896792973486
2080000000.0 0.42991451144385073 0.024410798287390293
2100000000.0 0.18801697731130967 -0.38309940393589426
2120000000.0 -0.23981702030807556 -0.3396345267163128
2140000000.0 -0.3450814251086851 -0.20236768834320504
2160000000.0 0.22071049329276396 -0.3188431398921599
2180000000.0 -0.09328046202043469 -0.3632305439024521
2200000000.0 -0.3272376122413068 -0.15238329403486742
2220000000.0 -0.3057564309487001 0.1723714818891309
2240000000.0 -0.17962375631715927 0.29147664226610326
2260000000.0 0.0030179943268071833 0.3407652387668177
2280000000.0 0.13310172614350524 0.318455979018325
2300000000.0 0.3376996913564589 0.11537007387376981
2320000000.0 0.27022193336652645 -0.2733668717485255
2340000000.0 -0.35214491770312445 -0.22230669222571053
2360000000.0 -0.04964872189122012 0.4538754709138081
2380000000.0 0.12326404921605719 -0.4948512544688218
2400000000.0 0.1531829105737143 0.542732053415213
2420000000.0 -0.5309146238080389 -0.3110189188001352
2440000000.0 0.6503447406413132 -0.1241335567721581
2460000000.0 -0.48799870798180567 0.5038089871695206
2480000000.0 0.15240645533216715 -0.7163407810862868
2500000000.0 -0.1749977856449009 0.7319879461785408
2520000000.0 0.2987467759394107 -0.7030942634410957
2540000000.0 -0.519017894983665 0.5627144735523032
2560000000.0 0.7534297614918363 -0.08836625281773987
2580000000.0 -0.4881152840136606 -0.5614911434541989
2600000000.0 -0.09973083400861088 0.7123852918460499
2620000000.0 0.5647186126929934 -0.3975141797000656
2640000000.0 0.2665619207534969 -0.5970061924504284
2660000000.0 -0.5566718744884888 0.2531975805785357
2680000000.0 0.5639826445549124 0.03370033902834748
2700000000.0 -0.4266853488483146 -0.2918554101807473
2720000000.0 0.3555304737808488 0.3056773229421871
2740000000.0 -0.27966964998965055 -0.3116285135667277
2760000000.0 -0.01565076828523345 0.3775700654971112
2780000000.0 0.03922727774184074 -0.34161271150543654
2800000000.0 -0.060464871532794486 0.3119533165322027
2820000000.0 0.1615546345521253 -0.25326797377869054
2840000000.0 -0.019532913987312783 0.2956395289019938
2860000000.0 -0.26379067526030386 -0.1295685852384958
2880000000.0 0.1749451142218944 -0.23685047843415089
2900000000.0 -0.08400916148615294 0.2832379644768382
2920000000.0 0.26125039805215217 -0.1476357773548369
2940000000.0 -0.2727552167766419 -0.14316576058759412
2960000000.0 -0.12946408141816879 0.2829903506176346
2980000000.0 -0.03524141706099339 0.30833710060625835
3000000000.0 -0.2944103191473182 -0.09680891804658713
3020000000.0 0.13176168160677243 -0.28738415654298854
3040000000.0 0.31402708434669985 -0.04442023227495507
3060000000.0 -0.009671898435151344 0.3130733560122249
3080000000.0 -0.05563939156856263 -0.298106686297512
3100000000.0 -0.0518604867994729 0.2900685634134396
3120000000.0 0.05911169064615697 -0.2820515451473967
3140000000.0 0.13140073045412315 0.24473803288633778
3160000000.0 -0.22167646699870477 -0.13957624665419302
3180000000.0 -0.08836800685214813 0.22838727385417276
3200000000.0 -0.13220241274717126 -0.18012916602792445
3220000000.0 0.1679529400887643 -0.10533476691093484
3240000000.0 0.06301176990734654 0.15736997493597257
3260000000.0 -0.1249156239181873 0.05262212103048077
3280000000.0 0.07211328981984547 0.07081153427821126
3300000000.0 -0.06200999282551493 0.03924863681491631
3320000000.0 -0.009565065730573707 0.03976346526021271
3340000000.0 0.017033035166232047 0.008725871059120874
3360000000.0 -0.005008995018363311 0.0008691316858284709
3380000000.0 -0.009634385894340087 -0.008544158892385535
3400000000.0 0.02233622216618486 0.00048203864865554584
3420000000.0 0.010693829443041359 -0.033731551298565456
3440000000.0 0.03999691022395114 0.025726548114731723
3460000000.0 -0.05412301341327696 0.022780784776924044
3480000000.0 -0.0681344177227709 -0.027906499634558084
3500000000.0 0.07233442505360578 0.05907960917615729
3520000000.0 0.10814131174897197 0.0040761788140233355
3540000000.0 0.02008803462179144 0.11692770222542606
3560000000.0 -0.1157944026797004 -0.052555039226559096
3580000000.0 -0.03243032794142467 0.13339779637950488
3600000000.0 -0.02319573258749789 -0.14790365407323358
3620000000.0 -0.06097537890085841 0.1511160480203385
3640000000.0 -0.1755557412221751 -0.0346656901297411
3660000000.0 0.04404370341822826 -0.18350129574647486
3680000000.0 0.08822644963974426 -0.17692370589620943
3700000000.0 -0.12674364432426927 -0.15454210764558812
3720000000.0 -0.14133486667482661 -0.13917728398999507
3740000000.0 -0.03411427415354169 -0.1855983859983598
3760000000.0 -0.12784367246370704 0.1256325695777573
3780000000.0 0.1523514639721107 0.07664578961953361
3800000000.0 0.06097030253507505 -0.14992363780281331
3820000000.0 0.005451826754381516 -0.15630304061019373
3840000000.0 0.13031431289863657 -0.07672432089574761
3860000000.0 0.06284476574687482 -0.13943673025530715
3880000000.0 -0.04223690147237971 -0.146241064481838
3900000000.0 0.08170046055191443 -0.1267653204300369
3920000000.0 0.061835124639570964 -0.14432277844543673
3940000000.0 -0.11092546198001399 0.12144090154481663
3960000000.0 -0.16904031642721917 0.027854280726080625
3980000000.0 -0.08997368950284988 0.14836325671011016
4000000000.0 0.09540982779683213 0.1407139780609633
