!Created with skrf (http://scikit-rf.org).
# Hz S RI R 50.0 
!freq ReS11 ImS11
400000000.0 0.6507519211015728 0.5694096693742774
420000000.0 0.8396483224055974 -0.09853798317925164
440000000.0 0.7932991772659047 -0.09273035597156168
460000000.0 0.7406808034022349 -0.08510130683851674
480000000.0 -0.012889079254583307 -0.6871021819177177
500000000.0 0.13804504379996663 0.5904334023163191
520000000.0 0.501260102923764 -0.048170725138558614
540000000.0 -0.27215434388860976 -0.3427888828525672
560000000.0 0.3679086507935381 0.16478123076852588
580000000.0 0.04115698567304427 0.36030297906707154
600000000.0 -0.10428218461515755 -0.3360096922036872
620000000.0 -0.3484411491032013 -0.04373398075880823
640000000.0 -0.1552355323490517 -0.3707829085015858
660000000.0 -0.3113758490385134 0.2629381277146649
680000000.0 -0.2607979354044565 -0.361968336343856
700000000.0 0.2514855077422815 0.38267040133594243
720000000.0 -0.29641790427238746 -0.3512819045531255
740000000.0 -0.42817131624827454 -0.05715045299797531
760000000.0 -0.4109445661673952 -0.061604066493033814
780000000.0 -0.2407464159646583 0.30060342041408133
800000000.0 0.28552674371790754 0.1790483264482906
820000000.0 0.2786586080813347 -0.011366284757173372
840000000.0 -0.18360366052991514 0.08837846051819995
860000000.0 -0.14271481283071763 0.09077362388313906
880000000.0 0.05978333532790696 0.12878677508995306
900000000.0 -0.044339824301708505 -0.08314244447202754
920000000.0 0.025003359802320758 -0.042412296060645775
940000000.0 -0.00988605653106444 0.029020586710663876
960000000.0 -0.02726139544009722 -0.008481110730128489
980000000.0 0.05338766341888305 -0.004108206054951779
1000000000.0 -0.041175016283686784 0.08172868733650349
1020000000.0 -0.09566653169623997 0.06920262123084471
1040000000.0 -0.09109063713613383 -0.09820531506730203
1060000000.0 -0.056688172089492325 0.14983907141699712
1080000000.0 -0.10577243449550432 -0.15462676452792992
1100000000.0 0.06320405349332096 -0.2043131721391375
1120000000.0 0.2355377506818269 -0.03586099528128796
1140000000.0 -0.23803589270918482 0.10396465468449219
1160000000.0 -0.17079605918929158 0.2322567362200167
1180000000.0 -0.23292468132129834 0.21657207937952688
1200000000.0 0.08660746755207753 -0.33268768785166913
1220000000.0 -0.11769198465336192 0.3509806924020955
1240000000.0 0.24288022365767203 -0.3032249549759743
1260000000.0 -0.22550754262982417 -0.32992944713754574
1280000000.0 -0.41776047878523975 0.03292370012698868
1300000000.0 -0.006512488894014122 0.430546049100436
1320000000.0 0.210950191341227 0.38370218503325787
1340000000.0 0.38053917419581573 0.23322043677850784
1360000000.0 0.42097923398246795 -0.15983342963158703
1380000000.0 -0.2955868433664103 -0.32678230139611625
1400000000.0 -0.31713235948472457 0.28673991515023967
1420000000.0 0.4030728914366873 0.0072311801566155584
1440000000.0 0.10628010751050194 -0.3529290083761249
1460000000.0 0.009592807704527218 -0.3349088572713092
1480000000.0 -0.25010750309859114 -0.17880563507348116
1500000000.0 -0.22345191806681108 0.16550028758233226
1520000000.0 -0.24011768022194185 -0.068241062407133
1540000000.0 0.17309463185822727 0.14471614313183748
1560000000.0 -0.15411594536092343 0.1287882022663944
1580000000.0 0.007689666143544207 0.1775772208665681
1600000000.0 -0.013364288941736671 -0.142808542469821
1620000000.0 -0.08041223568482421 0.0718843242345642
1640000000.0 -0.014217173244615482 0.0803822946430794
1660000000.0 0.04381832968403278 0.0442948460162061
1680000000.0 0.020027417136053535 0.03165651679244833
1700000000.0 0.009907909213505114 0.008712504522860258
1720000000.0 -0.0008433241657865804 0.006774355903960495
1740000000.0 -0.0064525954217584955 -0.026012349290594098
1760000000.0 0.017456330707535377 0.04081954289254688
1780000000.0 -0.007843594777093116 0.06188169698732569
1800000000.0 -0.061357898021380065 -0.06622522378731732
1820000000.0 0.10018557312898148 0.0580692914299649
1840000000.0 -0.012805803434163978 0.15325207754112322
1860000000.0 -0.07990781668149709 -0.17743165856448118
1880000000.0 -0.21162121881004525 0.11168091765583041
1900000000.0 0.11328760814038977 -0.2676081438874111
1920000000.0 0.3202630502894434 0.090356601115338
1940000000.0 -0.3165129981737334 0.1661777067442501
1960000000.0 0.3546376524457212 0.1279080533046456
1980000000.0 0.04667666851522308 -0.39923916393055664
2000000000.0 -0.3901624480897454 0.14236640387802385
2020000000.0 -0.14662570932574565 0.39461742371908365
2040000000.0 -0.0001551671666409729 0.4279672101956191
2060000000.0 0.2665759072894325 0.3379426869143615
2080000000.0 0.430469739486288 0.009673938643807172
2100000000.0 0.16008313673714392 -0.39560209560478965
2120000000.0 -0.24446791187185152 -0.33664838874694236
2140000000.0 -0.3478148977511854 -0.1978489783527944
2160000000.0 0.2081363422943358 -0.3273604055734545
2180000000.0 -0.09568408615430085 -0.362879637640633
2200000000.0 -0.32771237944060355 -0.1517346918455366
2220000000.0 -0.3120753011233744 0.160901155053431
2240000000.0 -0.2026432588531299 0.276056995826676
2260000000.0 -0.01334488820247607 0.34032907005339813
2280000000.0 0.1530422731146046 0.30953863379017954
2300000000.0 0.3377261477731992 0.11615394708888763
2320000000.0 0.2731052879743111 -0.27005982061086803
2340000000.0 -0.3592398058815782 -0.21046155169598318
2360000000.0 -0.03806136372546076 0.45537892569724525
2380000000.0 0.101423380374865 -0.4997871479658031
2400000000.0 0.15440576449074414 0.5426719770057205
2420000000.0 -0.522297258842326 -0.3255313920704622
2440000000.0 0.6410974852354836 -0.16479828338203636
2460000000.0 -0.4644396168075929 0.5255660698246911
2480000000.0 0.11336466860614856 -0.7233079519921556
2500000000.0 -0.16306873757871918 0.7348255904145001
2520000000.0 0.28057832294751534 -0.710407170115999
2540000000.0 -0.5061674948115445 0.5741377074290962
2560000000.0 0.7524289851243786 -0.09583401509618615
2580000000.0 -0.5268466743320077 -0.5251291086275907
2600000000.0 -0.049176871301545744 0.7174969694211045
2620000000.0 0.5784622849891642 -0.3764103865663192
2640000000.0 0.23096161081688787 -0.6113006061882347
2660000000.0 -0.5440336007450214 0.2783527926873891
2680000000.0 0.5629808314829482 0.0412292045634791
2700000000.0 -0.42679301894879 -0.29096360588687237
2720000000.0 0.36077461367877195 0.299188008625871
2740000000.0 -0.26219807288876434 -0.32614948688969186
2760000000.0 -0.04178476447120104 0.3753357480560477
2780000000.0 0.04569446971530388 -0.3404365866472264
2800000000.0 -0.05753399368513964 0.3121372912788788
2820000000.0 0.1456673385705015 -0.26233479175421937
2840000000.0 -0.009220403743600437 0.2959083711163796
2860000000.0 -0.26820541519654806 -0.11977301345103897
2880000000.0 0.17182565282677675 -0.2389775547265355
2900000000.0 -0.08686690172390288 0.2824282015511877
2920000000.0 0.26654227304740885 -0.1378906095711642
2940000000.0 -0.26745512052851433 -0.15276617460250339
2960000000.0 -0.12798957289946586 0.2835043961300483
2980000000.0 -0.06534387567608563 0.30400466476639193
3000000000.0 -0.29318506481410744 -0.09975183826380546
3020000000.0 0.15501267730381918 -0.27593391096664305
3040000000.0 0.3149996634331206 -0.03785019146435465
3060000000.0 -0.03386688102648293 0.31132668390585644
3080000000.0 -0.06862897116405343 -0.29518549391476623
3100000000.0 -0.04501636684473964 0.29125974605665855
3120000000.0 0.05331700524900699 -0.28341102556116526
3140000000.0 0.1357822940143175 0.24258997676023153
3160000000.0 -0.22399057088779947 -0.1360111499940758
3180000000.0 -0.09187503761567627 0.22725670896280462
3200000000.0 -0.12366327191134147 -0.18626167612370095
3220000000.0 0.178946783047632 -0.08516210952816858
3240000000.0 0.03841196126814045 0.1653985242952818
3260000000.0 -0.13075963799462545 0.035926911966709336
3280000000.0 0.08021185530168239 0.06116807466119366
3300000000.0 -0.07292065425283935 0.005573999322134422
3320000000.0 -0.022565166287933116 0.0340990430102469
3340000000.0 0.00951963566445616 -0.016250349954877934
3360000000.0 0.0038870300168941867 -0.0028850532691176334
3380000000.0 0.012603471728399646 -0.0016358259740976492
3400000000.0 -0.0023883881531611955 0.0218153905142608
3420000000.0 0.025125109624609607 -0.0248274078231525
3440000000.0 0.030642951266656525 0.03615125016022735
3460000000.0 -0.05248498930816672 0.02696708903112726
3480000000.0 -0.059387141067660056 -0.04344613606457651
3500000000.0 0.058126137220766406 0.07322217967017887
3520000000.0 0.10402587451347427 0.02964931806961613
3540000000.0 0.0034777444600640815 0.11855544958924613
3560000000.0 -0.10902369805032015 -0.06553709530159418
3580000000.0 -0.028181867407637947 0.134405475298097
3600000000.0 -0.006119562520823526 -0.14970412360060617
3620000000.0 -0.06656339557092726 0.14922197998909825
3640000000.0 -0.17596431240045912 -0.03601220990826419
3660000000.0 0.06511292538559259 -0.1769742412454137
3680000000.0 0.10114666157981529 -0.16988271955818432
3700000000.0 -0.10655888911580995 -0.1689134184915367
3720000000.0 -0.134190006653771 -0.1465468421130288
3740000000.0 -0.033431287917703535 -0.18553512429378827
3760000000.0 -0.13043818099310772 0.12304167492772222
3780000000.0 0.15059400616556784 0.08037352308181571
3800000000.0 0.06358641962319662 -0.14887639962709381
3820000000.0 0.015113527200202093 -0.15577507489617373
3840000000.0 0.13473188494314295 -0.06946560931543137
3860000000.0 0.08212853675562555 -0.12938681363664217
3880000000.0 -0.02017157265762583 -0.15109622628924466
3900000000.0 0.1011825340646554 -0.11222141399816107
3920000000.0 0.07457441172950682 -0.13802826636967627
3940000000.0 -0.12323216101425026 0.10888580577078463
3960000000.0 -0.1702810041560102 0.01700758188100952
3980000000.0 -0.07593645264511885 0.15582174054036685
4000000000.0 0.11277031876933664 0.12706465265259914
