!Created with skrf (http://scikit-rf.org).
# Hz S RI R 50.0 
!freq ReS11 ImS11
400000000.0 0.693738952107797 0.5206302966393571
420000000.0 0.8386130841320599 -0.10620586204925332
440000000.0 0.781387864258834 -0.1638172069170418
460000000.0 0.7358552240280808 -0.12083360762407282
480000000.0 0.003260378503126848 -0.6866150369309955
500000000.0 0.033906932410525066 0.6064362976312604
520000000.0 0.4792096442526737 -0.1556754352636205
540000000.0 -0.27770490994904434 -0.3367373139443326
560000000.0 0.3462195682637913 0.20682629220126775
580000000.0 0.035147157831641275 0.36072540026701516
600000000.0 -0.07658790208581638 -0.34328037891477287
620000000.0 -0.3479549604284965 -0.04634656366578284
640000000.0 -0.1601192978022615 -0.36735603504626724
660000000.0 -0.29935647329461046 0.27613665546696176
680000000.0 -0.2944020829214503 -0.33412534090395746
700000000.0 0.23238552375763838 0.3939730840693778
720000000.0 -0.324159092231432 -0.3271973068047376
740000000.0 -0.43143977223659785 -0.04234180117370771
760000000.0 -0.4089760312041483 -0.07497464327168213
780000000.0 -0.26668540221388376 0.27838410331720503
800000000.0 0.27742907271685374 0.19073003954242196
820000000.0 0.27670570962356894 -0.03240861465121627
840000000.0 -0.18337193778991104 0.0882304833592182
860000000.0 -0.14521110967846493 0.08611299426493234
880000000.0 0.04740633615854959 0.13350465055758398
900000000.0 -0.08528534215267147 -0.04000920427483307
920000000.0 0.0065653418255559965 -0.04878338856638897
940000000.0 0.006440262386883337 0.029845711143206003
960000000.0 -0.023307546606842137 -0.01705067102484314
980000000.0 0.027926384908523862 0.04535178464118464
1000000000.0 -0.04553718438930204 0.07902317621178931
1020000000.0 -0.09021394243905131 0.07593739140175618
1040000000.0 -0.09982593594002927 -0.08927607967699679
1060000000.0 -0.04316205907502902 0.15429189305981048
1080000000.0 -0.10282610527481229 -0.15592063830610023
1100000000.0 0.04889987681745231 -0.20812849280615217
1120000000.0 0.236921519953969 -0.024064951352038677
1140000000.0 -0.23890830778288133 0.10263105396315876
1160000000.0 -0.1635914129900395 0.23813452565027718
1180000000.0 -0.2571988507953256 0.18786741651219435
1200000000.0 0.1322218852412966 -0.3181321985332559
1220000000.0 -0.14789656439086785 0.34022183496190894
1240000000.0 0.27094428371320683 -0.2786238532548439
1260000000.0 -0.1939438556877783 -0.34984334870045164
1280000000.0 -0.41859154549187977 -0.030180460284807344
1300000000.0 -0.017715266213337043 0.4304441779434396
1320000000.0 0.19558523776776668 0.3914144977193443
1340000000.0 0.37309911085523856 0.24408352643294015
1360000000.0 0.4184363873829401 -0.16589080356738467
1380000000.0 -0.2855091094140444 -0.3357355870868771
1400000000.0 -0.2879031036106441 0.316565568065559
1420000000.0 0.4035610952609788 0.00450140056490125
1440000000.0 0.0628769980807941 -0.3637709165422299
1460000000.0 -0.04979064646023925 -0.3320181995344026
1480000000.0 -0.2714916110170068 -0.14539606830501323
1500000000.0 -0.2347661377750595 0.15001517005349888
1520000000.0 -0.23100489263219082 -0.0964751718397823
1540000000.0 0.1335280396639856 0.18266265171635898
1560000000.0 -0.18413183890704857 0.08142361614508363
1580000000.0 -0.10088459879437213 0.14743610113636507
1600000000.0 0.04789992746458275 -0.13495118409010304
1620000000.0 -0.10626446470424321 -0.01733793344634181
1640000000.0 -0.07049349211255752 0.03949929975230734
1660000000.0 0.012069764476600102 0.06028573711203368
1680000000.0 0.006767721861979209 0.035158927212311133
1700000000.0 0.012117647391305136 -0.002387161504913062
1720000000.0 -0.007345348608612714 -0.0005742345028517925
1740000000.0 0.004598680238719234 0.026324687097108137
1760000000.0 -0.043830493871325905 -0.0014753366323033185
1780000000.0 -0.058646138586953486 0.01784825141357724
1800000000.0 0.006942547677810177 -0.08892977352831218
1820000000.0 0.048449357101932364 0.10409975505342288
1840000000.0 -0.028936150054392314 0.1496469407632431
1860000000.0 -0.07077983856617483 -0.17995116613260106
1880000000.0 -0.20724219458056184 0.11880057597771614
1900000000.0 0.06656080163602358 -0.2820776720550984
1920000000.0 0.3301139983330161 0.03867371603627291
1940000000.0 -0.28006232164052497 0.22232861019871492
1960000000.0 0.36968709659645066 0.075220941446016
1980000000.0 0.007668695377169302 -0.40230485640304053
2000000000.0 -0.38733993527678406 0.15259238048345816
2020000000.0 -0.15159325441427052 0.3942797526249177
2040000000.0 0.02756040276587702 0.4282099544502287
2060000000.0 0.23993510922843267 0.3586647439258182
2080000000.0 0.4303863262269955 0.03850312589210272
2100000000.0 0.18699212611806001 -0.3846617810697598
2120000000.0 -0.15572515209772403 -0.386474575340205
2140000000.0 -0.3189196159460289 -0.24214320666225225
2160000000.0 0.30095667021533523 -0.24429575635768702
2180000000.0 -0.02376220137129427 -0.37387578892171675
2200000000.0 -0.30589017584706324 -0.1911211495064193
2220000000.0 -0.33262084651880064 0.11187152877495067
2240000000.0 -0.2188922551661344 0.264175466721133
2260000000.0 -0.017849122190977604 0.3406098294202971
2280000000.0 0.11292096481072314 0.32547163798748585
2300000000.0 0.329141962796607 0.13802602722158974
2320000000.0 0.26622220550037007 -0.27638273541519665
2340000000.0 -0.3602003412644192 -0.20821564792810549
2360000000.0 -0.04517915601929876 0.454104167100729
2380000000.0 0.0837577925658537 -0.5030604451082583
2400000000.0 0.20367813602342216 0.5261265206487179
2420000000.0 -0.5520767845094016 -0.27271840688226834
2440000000.0 0.6345520446087604 -0.19026145892213323
2460000000.0 -0.42667142700888044 0.5574241092532435
2480000000.0 0.07425455798035943 -0.7287839575496877
2500000000.0 -0.15150511832842542 0.7378216386134744
2520000000.0 0.2900022327298602 -0.7064760722842651
2540000000.0 -0.47597844195050887 0.5994686955057154
2560000000.0 0.7490014700652025 -0.12465857119190618
2580000000.0 -0.5011811800375621 -0.5516234693347315
2600000000.0 -0.10108943467477265 0.7135232377333494
2620000000.0 0.5895242395257648 -0.3613084255772025
2640000000.0 0.2848532892526933 -0.5898261023402548
2660000000.0 -0.5774291486763362 0.20250951352047658
2680000000.0 0.5528778837298933 0.11513078895588459
2700000000.0 -0.38050490394505143 -0.349861061302307
2720000000.0 0.3152645952093524 0.3469754368421307
2740000000.0 -0.21507220997291443 -0.35871728152677257
2760000000.0 -0.06841575339281035 0.3710804736462419
2780000000.0 0.08397065992637849 -0.33277198570282707
2800000000.0 -0.08259822020408773 0.3059101372024317
2820000000.0 0.15305518149092723 -0.257477118185345
2840000000.0 -0.008091887382012766 0.2948119846271278
2860000000.0 -0.27473008378170805 -0.10200400324891296
2880000000.0 0.12119211089964724 -0.2681097514953848
2900000000.0 -0.031174322401020495 0.2938643468154462
2920000000.0 0.23447843862415746 -0.18793550168090117
2940000000.0 -0.2853900551058117 -0.11869342134540149
2960000000.0 -0.12638710423030422 0.2854960396429006
2980000000.0 -0.020203245637170957 0.3098100310521025
3000000000.0 -0.3038317473532955 -0.06581605906415225
3020000000.0 0.15973336410473116 -0.27480545491557584
3040000000.0 0.31795517338298585 -0.02049531064174108
3060000000.0 -0.08709750359316676 0.3024216814721031
3080000000.0 -0.005670523915644522 -0.3033469581958555
3100000000.0 -0.11622397652784773 0.2706858911205606
3120000000.0 0.13662000849747555 -0.25416420221380603
3140000000.0 0.055261466003674174 0.2722868638095277
3160000000.0 -0.18246589813369285 -0.1883028619809232
3180000000.0 -0.1579827438001135 0.18657452074034822
3200000000.0 -0.06655595822912833 -0.2127501252621777
3220000000.0 0.19223862784220858 -0.04163543525197475
3240000000.0 0.024692979183332773 0.16588887866037655
3260000000.0 -0.1258350961937812 0.047416737828246076
3280000000.0 0.09951467365226606 0.0014902555921055174
3300000000.0 -0.048180283333221566 0.05452452055707487
3320000000.0 0.03164897496444955 0.025567472453046768
3340000000.0 0.011095669999914584 0.014937240172043327
3360000000.0 0.0006556666039481988 -0.002769349326618165
3380000000.0 0.0011368566100781864 0.012119289341322443
3400000000.0 0.00473849773924115 0.021726585233824966
3420000000.0 -0.03004964271528933 0.018640794544565135
3440000000.0 -0.04663410241803278 0.0089332679395411
3460000000.0 -0.004076971660121115 -0.05841158192869611
3480000000.0 0.005898454898696885 -0.07298686261189923
3500000000.0 -0.049684020579407046 0.07882878564527025
3520000000.0 0.05730359096851579 0.09038036797134878
3540000000.0 -0.09075180889951777 0.075397390521747
3560000000.0 -0.033004660267774405 -0.12173934467052751
3580000000.0 -0.11764987899849967 0.0687739073858218
3600000000.0 0.09643532710898409 -0.11258475621087492
3620000000.0 -0.1474223485474559 0.06589824875621986
3640000000.0 -0.12762198203761252 -0.12325236492124991
3660000000.0 0.07556308681967881 -0.1721478349613024
3680000000.0 0.13119765030691 -0.14760814639579692
3700000000.0 -0.08757849903844525 -0.1791818507570561
3720000000.0 -0.1237379844513173 -0.1539866394313776
3740000000.0 -0.011634755390493952 -0.18632237194233214
3760000000.0 -0.11539408404743005 0.1357126623918414
3780000000.0 0.16172361081323808 0.0491772621540871
3800000000.0 0.02779470539623616 -0.15855473981937793
3820000000.0 -0.00268440583642773 -0.1561959903825147
3840000000.0 0.11482767144343727 -0.09769173306876275
3860000000.0 0.05056203128077132 -0.14450089020443335
3880000000.0 -0.03199491153567279 -0.14892159027087407
3900000000.0 0.11277115128504638 -0.1004255050407875
3920000000.0 0.06795983289027432 -0.1414212086112454
3940000000.0 -0.057534372153961615 0.15427557868183683
3960000000.0 -0.16125008398737528 0.06121082155500229
3980000000.0 -0.06518737312194121 0.16050776117142165
4000000000.0 0.14816087283017904 0.08067936626356116
