!Created with skrf (http://scikit-rf.org).
# Hz S RI R 50.0 
!freq ReS11 ImS11
400000000.0 0.41319078420887034 0.7644947913632494
420000000.0 0.8443929785394481 -0.025548491706737366
440000000.0 0.798890067856065 0.0014357444327858264
460000000.0 0.6673419613019732 0.33127103604545705
480000000.0 0.046230532231276836 -0.6856320133580293
500000000.0 -0.008193170022789352 0.6055339441938999
520000000.0 0.19970940255024586 0.4722640422157489
540000000.0 -0.43378887282690126 -0.06483505756175013
560000000.0 0.29436925958482146 0.26730974194217233
580000000.0 -0.25742253616741395 0.25093068348616787
600000000.0 0.1834849794303811 -0.2961577779022557
620000000.0 -0.13301062721897475 -0.3245674744681482
640000000.0 0.3938616557907234 0.10217357831915604
660000000.0 0.2071579309916991 0.35921729850732276
680000000.0 -0.08635448483002975 -0.430973707839056
700000000.0 -0.06159008965321021 0.45311008918949
720000000.0 -0.4079684750463034 -0.21843391478677443
740000000.0 -0.4170497188564933 0.10252752228109949
760000000.0 -0.18809417521201582 -0.3679870706993142
780000000.0 -0.3148335420123199 0.22068522515519404
800000000.0 -0.12819712733776634 0.31657339204313484
820000000.0 0.273276657366389 0.06647867144202285
840000000.0 -0.09677505454884966 0.18209281314693226
860000000.0 -0.15961579887301386 -0.05020237013686833
880000000.0 -0.128655362131699 -0.05503474269050638
900000000.0 0.07173673842803781 0.059272634297673994
920000000.0 -0.01783505496959724 -0.049255551659128975
940000000.0 -0.02289219861616795 -0.025158199914662487
960000000.0 0.02087729722595911 -0.02681941357135687
980000000.0 -0.0538677644914434 -0.014816524437066669
1000000000.0 -0.05686115763977546 0.07568899448670344
1020000000.0 -0.025735641494532585 0.11646849564000242
1040000000.0 0.040788366425317836 -0.1282439463511045
1060000000.0 -0.13363341005189341 0.09183695616332087
1080000000.0 -0.12733037367000816 -0.1415974110176152
1100000000.0 0.13436814405471798 -0.16817749251556416
1120000000.0 0.1934049839272744 -0.13684588027515096
1140000000.0 -0.05816641160051162 0.2531260991387359
1160000000.0 -0.18370327462785435 0.21349556724140722
1180000000.0 -0.2740801777953102 -0.14079112773905783
1200000000.0 0.33189493794760183 0.0720205473966792
1220000000.0 -0.23140346001532908 -0.28854391980263794
1240000000.0 0.3300478552487057 0.21391490119103043
1260000000.0 -0.27405080264254106 -0.3021198330507493
1280000000.0 -0.4229951150310223 0.001637610485980194
1300000000.0 0.1734916113161286 0.3945919037270999
1320000000.0 0.38907422735451963 0.19356442277760746
1340000000.0 0.16063098990456254 0.4092856666845997
1360000000.0 0.42614342902746283 0.1373489354652993
1380000000.0 -0.23325514779979417 -0.37266399834935776
1400000000.0 -0.4097864061268888 -0.11591931559186097
1420000000.0 0.22367062983716726 0.3363895639222805
1440000000.0 0.28386349988459875 -0.2425431697765232
1460000000.0 0.188156500832368 -0.28620859959496275
1480000000.0 -0.2818600699480907 -0.1371637989142462
1500000000.0 -0.09942244484752148 0.2629147191383939
1520000000.0 -0.24748423270771963 -0.04220788417951846
1540000000.0 -0.13885687033887825 0.17922036723613152
1560000000.0 -0.19530190343547088 0.03829893578286347
1580000000.0 -0.1439198495574232 -0.10479423862602445
1600000000.0 -0.05598504829789046 0.13336134125180765
1620000000.0 -0.037166366853139544 -0.10184977840138212
1640000000.0 -0.009256663053095932 -0.08132928276884974
1660000000.0 0.044097119361185724 -0.04653346356907239
1680000000.0 0.037495308717383984 -0.0011178008755338058
1700000000.0 -0.005801731600789281 0.009509309066989123
1720000000.0 -0.0074361548433562775 -0.0033229719972558453
1740000000.0 0.025291540917204435 -0.00021424305703557117
1760000000.0 0.017631979863820996 -0.03352583374918337
1780000000.0 0.04799319382794958 0.02116127038925715
1800000000.0 -0.0757558937162086 0.042688372892511914
1820000000.0 -0.06894883651532863 -0.09134422866702542
1840000000.0 -0.1489443981115996 -0.02596161268397873
1860000000.0 -0.13810819030279203 -0.13782567507980398
1880000000.0 -0.17246692723428747 0.16267972638291336
1900000000.0 0.27468432789638125 -0.06143234198466138
1920000000.0 0.32549516470966483 0.028468325887768008
1940000000.0 -0.32746240608103 -0.12335414593013505
1960000000.0 -0.24152923494672246 0.28449068278689715
1980000000.0 0.29144202408139613 -0.27779762600693214
2000000000.0 -0.32818974727221994 -0.2585745009260946
2020000000.0 -0.4181340599699577 -0.07525378403372329
2040000000.0 0.07420577701612839 0.4227662592198095
2060000000.0 0.07390471647652835 0.424318390831891
2080000000.0 0.0945908130205453 0.41950421267966387
2100000000.0 0.29426126032850525 -0.30817399737901313
2120000000.0 0.21669478433723396 -0.3546900581714722
2140000000.0 0.35294631226144907 -0.19193598927433234
2160000000.0 0.36277665469043086 -0.14369909091856312
2180000000.0 0.2654040911873293 -0.2684156163306058
2200000000.0 0.14591865973791415 -0.332821204938651
2220000000.0 -0.34768124372950465 0.03862463827682553
2240000000.0 -0.3149354930280948 -0.13020866911436266
2260000000.0 -0.3024718769976802 -0.14874201066395246
2280000000.0 -0.17189189158231755 0.2962293108155227
2300000000.0 -0.1908624339258151 0.29691310903307727
2320000000.0 -0.09952406796221906 0.3648141153596842
2340000000.0 0.08551686468934627 -0.4036547359095215
2360000000.0 -0.3934692231937354 -0.21879774434912852
2380000000.0 0.06852740621620283 0.4945942699964408
2400000000.0 -0.5108022521501323 0.22320414347367515
2420000000.0 0.5640678916553953 -0.22749666586430745
2440000000.0 -0.5884321504925637 0.2872883599632996
2460000000.0 -0.574643515307779 -0.39951225476302
2480000000.0 0.520975406434627 0.5150276376405516
2500000000.0 -0.17453141821137985 -0.7342402373858871
2520000000.0 0.7669532010406479 -0.04850859937347317
2540000000.0 -0.3740991957907076 -0.6763848163171494
2560000000.0 -0.5838570421815993 0.5020395209399848
2580000000.0 0.2112911954975024 -0.7262734305535602
2600000000.0 -0.697903716134047 -0.23276222301463678
2620000000.0 -0.2280041097124461 0.6718172680218999
2640000000.0 0.6432507739437168 -0.1942613929623727
2660000000.0 -0.27659793183032755 -0.567837368739449
2680000000.0 -0.35883296047060964 0.46338117202242163
2700000000.0 -0.18731732426713937 -0.49973648101900403
2720000000.0 -0.18975210347686017 0.4477826704528673
2740000000.0 0.4159693457082705 -0.13119420410186758
2760000000.0 -0.27531126318365795 0.27784708933395846
2780000000.0 0.35841458180084634 0.020591607692561575
2800000000.0 -0.29886622673761176 -0.1480905817125204
2820000000.0 0.14538267304605382 -0.2756132797261321
2840000000.0 -0.19715453201512226 0.23213289519556826
2860000000.0 0.12197704935872249 -0.27413155436771125
2880000000.0 0.24601607957128432 -0.1697367861712828
2900000000.0 -0.2977577279813663 -0.032471237098888286
2920000000.0 0.04988224158666196 0.30027853775198693
2940000000.0 -0.19670284678815253 -0.24261968333774403
2960000000.0 -0.3159503953698909 -0.007939297798158012
2980000000.0 -0.3148867202355837 -0.013947526175596994
3000000000.0 -0.2764187218532153 -0.14880053957091216
3020000000.0 0.033298436333893046 0.3168287616068869
3040000000.0 0.044190330919809784 0.3173400121119219
3060000000.0 -0.009248498261099367 0.3157209269498817
3080000000.0 0.30211070764032655 0.04695984240297389
3100000000.0 -0.22520193718652562 0.19492220593051426
3120000000.0 -0.09110478197431751 -0.2745131723452209
3140000000.0 -0.21670799322578727 0.1748252980848302
3160000000.0 -0.029382403692351018 -0.2610847894213671
3180000000.0 -0.17456101471916652 0.17368260377086356
3200000000.0 0.20847936721101146 -0.10051199930815839
3220000000.0 0.1380201080215303 -0.15313471272959134
3240000000.0 0.0775305510534981 -0.15482281029482312
3260000000.0 0.0291547509108104 0.14093732515446147
3280000000.0 -0.08382652951981456 -0.0612486445618044
3300000000.0 0.05742973846211675 -0.043957909013630884
3320000000.0 -0.04343019788422302 -0.013568384908921713
3340000000.0 0.0174651702035305 -0.013240569803245957
3360000000.0 -0.0012736940553256847 0.004609826130368255
3380000000.0 -0.004468956921272753 0.0050543248348878436
3400000000.0 -0.00938487781468251 0.016640417402155796
3420000000.0 0.03230339181284683 -0.007803249275214347
3440000000.0 -0.015350327983225769 0.0423616341020626
3460000000.0 0.04299272878207022 -0.03965927461077781
3480000000.0 0.027044378096784793 -0.06950053685050445
3500000000.0 -0.08903420739411591 0.0006036833641418986
3520000000.0 -0.079271394376976 0.06967769251306234
3540000000.0 -0.10289517910734745 0.06146690967039094
3560000000.0 0.12214224399482805 -0.016869216710641965
3580000000.0 -0.10190116426643206 -0.08925297554543608
3600000000.0 0.14081818128997897 -0.052528873429091835
3620000000.0 -0.03161052475391114 -0.15636966231911928
3640000000.0 0.053153623596079336 -0.17071499512638852
3660000000.0 0.11676874486496189 -0.15082620273315267
3680000000.0 0.17622876695906434 0.08595301042080887
3700000000.0 0.011941282177639899 -0.1992112300347668
3720000000.0 -0.10367855186256045 -0.16661531648641775
3740000000.0 0.08504699799874754 -0.16497334362224314
3760000000.0 -0.16484533276632582 -0.06390373138492418
3780000000.0 -0.01857218570306949 0.1678582531855165
3800000000.0 0.16254940994337966 0.0027878289664007828
3820000000.0 0.11468261717956163 -0.1072509870270106
3840000000.0 0.08475753439509714 -0.12529462510623154
3860000000.0 0.05038441068357203 -0.13901263300501654
3880000000.0 0.051470874258616066 -0.13797085491108124
3900000000.0 0.11120404380967307 0.09547685366837
3920000000.0 0.11877637494879309 0.0908997694332058
3940000000.0 -0.0929332918729929 -0.1333339797848492
3960000000.0 -0.09821393159852614 -0.14273021388220836
3980000000.0 -0.17383831671588845 -0.004861126460867948
4000000000.0 0.1451029326484422 0.08317012972820181
