!Created with skrf (http://scikit-rf.org).
# Hz S RI R 50.0 
!freq ReS11 ImS11
400000000.0 0.4439537736161984 0.7476788512068426
420000000.0 0.8449841042850327 -0.0005533904682072583
440000000.0 0.7986385980473281 -0.016759796826573296
460000000.0 0.6572002561696416 0.3517009386317616
480000000.0 0.044983213386327305 -0.6854362314370915
500000000.0 0.026513448934327947 0.6048421019830011
520000000.0 0.2006475853212028 0.471830312250187
540000000.0 -0.43439898652948095 -0.061384486585663485
560000000.0 0.2987529877138146 0.26227101750985204
580000000.0 -0.2616426921380448 0.2466287402694047
600000000.0 0.1468314176449868 -0.3159894194032845
620000000.0 -0.13619729791814852 -0.32372901664291326
640000000.0 0.3914536578200685 0.1118854046093378
660000000.0 0.2069355907724071 0.35954612357037163
680000000.0 -0.08031200948111027 -0.43255281146276214
700000000.0 -0.08544422932494145 0.44933097193402877
720000000.0 -0.42508170465286926 -0.1825960257013721
740000000.0 -0.41842585194973464 0.09511738693187773
760000000.0 -0.17196618349633416 -0.3756633705199015
780000000.0 -0.3077263887994247 0.2305296188003538
800000000.0 -0.135414990120619 0.31363982869531104
820000000.0 0.2737362935882672 0.06508979870850261
840000000.0 -0.0922999367870795 0.18449136876640423
860000000.0 -0.1639971314737814 -0.0332639319678502
880000000.0 -0.1322404843244073 -0.046099657887255806
900000000.0 0.0748819768393401 0.055652619529567446
920000000.0 -0.015997558133642883 -0.05012179287123557
940000000.0 -0.024415447902801687 -0.023939358041993014
960000000.0 0.01054307977034405 -0.032058644745544526
980000000.0 -0.054569475959205894 -0.01222842714926908
1000000000.0 -0.05676052238918342 0.07609056296286762
1020000000.0 -0.0345735449106374 0.11442296798397315
1040000000.0 0.05269568227307431 -0.12397129641954163
1060000000.0 -0.1253969732358834 0.10256154967493383
1080000000.0 -0.12340118094467974 -0.14507118087453116
1100000000.0 0.15306900230274068 -0.15143483893711895
1120000000.0 0.1977075327845903 -0.13088699690003955
1140000000.0 -0.0680212058085957 0.25085792636402127
1160000000.0 -0.17991068464002602 0.21676126936912904
1180000000.0 -0.27890650555909097 -0.1312172001516948
1200000000.0 0.3344134040491547 0.05930056381190312
1220000000.0 -0.2381074479358571 -0.2830522413680944
1240000000.0 0.3349708458353621 0.20618229938097804
1260000000.0 -0.27047713196101003 -0.30527975731656254
1280000000.0 -0.42294616889423403 -0.00114281096574713
1300000000.0 0.1820840908104414 0.39078816643530684
1320000000.0 0.38809086846220753 0.19566217925370094
1340000000.0 0.16632453692886237 0.407029077357001
1360000000.0 0.4240709187207934 0.14378251126158706
1380000000.0 -0.21839685185328206 -0.38160481834118776
1400000000.0 -0.4103586688585358 -0.11447134045511055
1420000000.0 0.2107089637064997 0.3449601140024295
1440000000.0 0.2838867444442395 -0.24269266727123995
1460000000.0 0.19388588367072307 -0.2826116133848012
1480000000.0 -0.24550675802588973 -0.19539167327563234
1500000000.0 -0.10032771481886775 0.2626861257789147
1520000000.0 -0.2474835406138298 -0.042504563746021906
1540000000.0 -0.13494668525601347 0.18207705872667204
1560000000.0 -0.19932224717089259 -0.00024620597332874875
1580000000.0 -0.13136638295616065 -0.12029647716324321
1600000000.0 -0.08299071396316618 0.1186702364148399
1620000000.0 -0.05541534226389447 -0.09332406460380231
1640000000.0 -0.03813433389277679 -0.0727310972902217
1660000000.0 0.04580844512410706 -0.044830502717220964
1680000000.0 0.03749730561206215 -0.0039992417149528935
1700000000.0 -0.011000621432362032 0.0018067688555640762
1720000000.0 -0.008031866025358622 0.001679719270429237
1740000000.0 0.0252566886181797 -0.0020448002739425243
1760000000.0 0.023704349012209573 -0.029138655996843642
1780000000.0 0.04695418375444336 0.023382561457839332
1800000000.0 -0.0727430038487187 0.047798151168538146
1820000000.0 -0.06683717209174965 -0.09283054661011028
1840000000.0 -0.1494538670370053 -0.02324459778812737
1860000000.0 -0.14067493681758803 -0.13555157613538638
1880000000.0 -0.17445261931477052 0.1607022695460191
1900000000.0 0.27618653237936125 -0.05539033209524308
1920000000.0 0.32459262263835814 0.037243559959903506
1940000000.0 -0.3252379364330095 -0.12870046416232203
1960000000.0 -0.2460745534633329 0.2804034470483761
1980000000.0 0.2968635489140884 -0.27182652616369024
2000000000.0 -0.3262333853529337 -0.26078878885810913
2020000000.0 -0.42114821648578254 -0.053986845097677684
2040000000.0 0.07338444745398091 0.42279827194944913
2060000000.0 0.06996306909501168 0.4250562547156736
2080000000.0 0.07372369917746334 0.4236947104066813
2100000000.0 0.28718369816475986 -0.31464318041301204
2120000000.0 0.22357000139875166 -0.3505922505087464
2140000000.0 0.3535725965980589 -0.19061837449098853
2160000000.0 0.3552450188860221 -0.1614242194152742
2180000000.0 0.2770385686844163 -0.2565989551684369
2200000000.0 0.13661921660121584 -0.3370910638406098
2220000000.0 -0.34740510855862133 0.04623693023790563
2240000000.0 -0.329047717829793 -0.08814614381070171
2260000000.0 -0.3077770099860877 -0.13863912512043564
2280000000.0 -0.18234353055171865 0.28988530106986393
2300000000.0 -0.20436519957446872 0.2872662057877924
2320000000.0 -0.09083037459816423 0.36725696404043906
2340000000.0 0.09313461983059193 -0.4019768509765798
2360000000.0 -0.3907583916236755 -0.22344934699822924
2380000000.0 0.08059786347393195 0.4927655816349939
2400000000.0 -0.5021762618694555 0.24235340261480148
2420000000.0 0.5582966724179196 -0.24150668823313545
2440000000.0 -0.5868665490267602 0.2907108685113463
2460000000.0 -0.6126223949707685 -0.3378581146187166
2480000000.0 0.5767095711214324 0.4511318095915119
2500000000.0 -0.15383524304655882 -0.7390150409822396
2520000000.0 0.7680053806260525 -0.031091231905103107
2540000000.0 -0.4206518175075217 -0.6483435387095052
2560000000.0 -0.5792349189526061 0.5070660005741429
2580000000.0 0.18567557907373797 -0.733036911681045
2600000000.0 -0.7073491489289535 -0.20273138734639248
2620000000.0 -0.20847282139823517 0.6777453661954514
2640000000.0 0.6290933038284637 -0.2352730997936605
2660000000.0 -0.31826218327755074 -0.5450919402575122
2680000000.0 -0.3336793470181445 0.48160984202798407
2700000000.0 -0.21644490762303042 -0.48763114756272724
2720000000.0 -0.17428312687170697 0.45397626986976564
2740000000.0 0.4187527704286175 -0.12094399799675472
2760000000.0 -0.2879349342782749 0.26448739905375446
2780000000.0 0.35868609472652085 0.009318040707181664
2800000000.0 -0.30218724756486837 -0.14088489808901572
2820000000.0 0.14095036569193525 -0.27771601828799214
2840000000.0 -0.17401550759465284 0.24903533954280474
2860000000.0 0.08501895325418037 -0.2872400213420775
2880000000.0 0.2507138697925237 -0.16286671984741247
2900000000.0 -0.2975516768745664 -0.034532555434851016
2920000000.0 0.011777364810045777 0.3044570709099138
2940000000.0 -0.16607077104349832 -0.2644594888414407
2960000000.0 -0.3159564805115054 0.008259487134786287
2980000000.0 -0.3127564974034717 -0.03402667319413068
3000000000.0 -0.27226830063561 -0.15843535881125334
3020000000.0 0.036010586699649315 0.31682106999932963
3040000000.0 0.05003333316840965 0.3165876652165152
3060000000.0 -0.008608576701714917 0.31557347210504916
3080000000.0 0.3028265930393294 0.04034980404589203
3100000000.0 -0.22730180433026573 0.19244372951583769
3120000000.0 -0.11090214718960432 -0.26706974180791915
3140000000.0 -0.21755366031334003 0.17353440087440694
3160000000.0 -0.03104617754037734 -0.26064560340710174
3180000000.0 -0.1551886085913161 0.19141566468169952
3200000000.0 0.20900653768808483 -0.09911767564601784
3220000000.0 0.12894179329000213 -0.16071815157337183
3240000000.0 0.07091470808000311 -0.15801600906100088
3260000000.0 0.025925166402725675 0.14176522798177724
3280000000.0 -0.07808018074365031 -0.06846784568978047
3300000000.0 0.04699691093744753 -0.0550135846131056
3320000000.0 -0.03881300367334413 -0.023746340259430232
3340000000.0 0.011828276944965781 0.018532539802839056
3360000000.0 0.0012258528986904488 -0.004542854176384703
3380000000.0 0.0013418041995177368 -0.006555920211411213
3400000000.0 -0.014860297394902357 0.011719837614087394
3420000000.0 0.030276304838975535 -0.013725229287629218
3440000000.0 -0.005408565672497685 0.04491870295776868
3460000000.0 0.03204165149470023 -0.0490895475257004
3480000000.0 0.018549438583441755 -0.07249962182925138
3500000000.0 -0.08814323541302359 0.013252191647394187
3520000000.0 -0.0675236092301851 0.0814436606183595
3540000000.0 -0.10011729129764302 0.0665373327579731
3560000000.0 0.12117188294806533 -0.02418334088060904
3580000000.0 -0.09670843033581683 -0.09487341414116938
3600000000.0 0.14104758991162825 -0.052134530665936055
3620000000.0 -0.035932517495366495 -0.15571043414470578
3640000000.0 0.07061236159327666 -0.16410665274130423
3660000000.0 0.12832863905235647 -0.14123287465640258
3680000000.0 0.17580033292977976 0.0870537896189059
3700000000.0 0.02523836522579802 -0.19799537947725285
3720000000.0 -0.09296911133865828 -0.1731410081509227
3740000000.0 0.10266771012505435 -0.15486002794416015
3760000000.0 -0.15397798449412572 -0.08683072617128132
3780000000.0 -0.04527794121653793 0.16267448212885544
3800000000.0 0.16014743248197894 0.02903322783122119
3820000000.0 0.13729951536049093 -0.07650807661107775
3840000000.0 0.11012585324083889 -0.10403958968431948
3860000000.0 0.0856653194153569 -0.12063158528194562
3880000000.0 0.07672421675036875 -0.12568832433275176
3900000000.0 0.09749659269193486 0.1096631515875639
3920000000.0 0.10276607632610538 0.10905632578066014
3940000000.0 -0.07299947980601197 -0.14471542277463403
3960000000.0 -0.07978698900094656 -0.15364651724083486
3980000000.0 -0.16935202640819177 -0.03982843623037404
4000000000.0 0.11301933865578491 0.12306982931576849
