!Created with skrf (http://scikit-rf.org).
# Hz S RI R 50.0 
!freq ReS11 ImS11
400000000.0 0.6633050406212304 0.5565191404860623
420000000.0 0.8428634330114441 -0.0736648633393178
440000000.0 0.7233876367951911 -0.34053973890397404
460000000.0 0.6995577652697577 -0.24341985180470066
480000000.0 0.25159259108594545 -0.635942274399777
500000000.0 -0.0898057369505212 0.6027167882489797
520000000.0 0.490576873293573 -0.1446325763116929
540000000.0 -0.43303750703177263 -0.07803876963161172
560000000.0 0.3721724151015875 -0.14385208661973053
580000000.0 -0.08915953345642759 0.3449940943179753
600000000.0 0.07401046632135919 -0.34289862929427345
620000000.0 -0.29608839885117083 -0.18546070508576787
640000000.0 -0.02376186598117522 -0.40125570662249455
660000000.0 -0.37052539831549464 0.17618345651545111
680000000.0 -0.3593790333157004 -0.26583583229844104
700000000.0 0.309688651544405 0.33638227946690796
720000000.0 -0.33183954044795444 -0.3175697839762061
740000000.0 -0.42559230470383197 -0.0777227379429681
760000000.0 -0.41781609366656214 -0.014955439705154398
780000000.0 -0.28376606043034347 0.2606551833857406
800000000.0 0.3000676293616524 0.1500672314746737
820000000.0 0.27003339055491343 0.061570628569310656
840000000.0 -0.2053629226854999 0.013574788176652633
860000000.0 -0.1420056564169993 0.09583998095437911
880000000.0 0.13788115091866396 0.02968864106062974
900000000.0 -0.00029915797372147436 -0.091084714318867
920000000.0 0.04736327345967863 -0.0027213054452002654
940000000.0 0.0304729079400286 -0.0056686140265355366
960000000.0 0.0013958349244497445 -0.027729003859031008
980000000.0 0.05379142915080149 0.007914491791456755
1000000000.0 -0.05524513879739679 0.07377912057856834
1020000000.0 -0.00023780972694222374 0.11688569703769064
1040000000.0 -0.11262051278250813 -0.0700898190035097
1060000000.0 -0.14528892542599176 0.06427593626648423
1080000000.0 -0.03617692576925372 -0.18420373294293704
1100000000.0 -0.054468347453097817 -0.20836695923145981
1120000000.0 0.20803558820155052 -0.11441391494154086
1140000000.0 -0.2200554429243281 0.1377491430122177
1160000000.0 -0.1799594763348315 0.22378325566351395
1180000000.0 -0.28606749701123835 0.14237401448190953
1200000000.0 0.04785507007719259 -0.3412980807463411
1220000000.0 -0.16276261983283374 0.33183000290206005
1240000000.0 0.3421259998333393 -0.18477574631154894
1260000000.0 -0.24523665023136643 -0.3202002633171679
1280000000.0 -0.3842809464861547 0.16683266547269207
1300000000.0 -0.054348622916777625 0.42392724263522413
1320000000.0 0.045130697113298555 0.4343715236976442
1340000000.0 0.3818059249054971 0.2353685810115572
1360000000.0 0.40865783936181066 -0.19014886238349502
1380000000.0 -0.3333549654773873 -0.28789534668282274
1400000000.0 -0.29183943926800715 0.31036642428673156
1420000000.0 0.40323579925862696 0.012834470566028312
1440000000.0 0.026817785444868018 -0.3692684548183243
1460000000.0 -0.08049378720099098 -0.3252234272852325
1480000000.0 -0.2653328851743913 -0.15628375965606534
1500000000.0 -0.24567635483574227 0.13281294532494667
1520000000.0 -0.2500086674199768 -0.0036452255208090758
1540000000.0 0.11602040098770676 0.1932447253343615
1560000000.0 -0.19831442980273897 0.036206610611894785
1580000000.0 -0.03260407847482352 0.17561622307240826
1600000000.0 0.03698291022626726 -0.1381718561019109
1620000000.0 -0.10739008345319691 -0.0029469068281517195
1640000000.0 -0.0749827438230916 0.02992228733918166
1660000000.0 0.004456792097489386 0.062047939676767194
1680000000.0 0.030551989449824145 -0.019351693898479044
1700000000.0 -0.0032550621037968626 0.011053131450251694
1720000000.0 -0.0014664920701133344 0.0070922755383344355
1740000000.0 0.0048524302288745795 -0.024542997873118807
1760000000.0 -0.027320816055332556 -0.03493697902491665
1780000000.0 -0.030907353152883968 0.05450607823098268
1800000000.0 -0.05782259470401865 -0.0664629363440565
1820000000.0 0.060462350163241495 0.09728245888938669
1840000000.0 -0.022690111203053188 0.15153378779191023
1860000000.0 -0.10359393744343283 -0.16314003117601944
1880000000.0 -0.20859410328332462 0.11652700972956702
1900000000.0 0.06301218298730282 -0.28333362980744303
1920000000.0 0.33166263087033765 0.017902554558611623
1940000000.0 -0.2998409879000147 0.19351772826982933
1960000000.0 0.3656645745531742 0.09566082346993253
1980000000.0 0.033023967173500486 -0.4007243404171995
2000000000.0 -0.39904994329160004 0.11969677807613835
2020000000.0 -0.16977509774561517 0.3873305060485347
2040000000.0 -0.0015727176877910823 0.4288646601365461
2060000000.0 0.2193527471048986 0.3711639317540011
2080000000.0 0.4256096369196478 0.06869460092816926
2100000000.0 0.23112972260294756 -0.35936113170304734
2120000000.0 -0.18529833189791847 -0.3731182615538693
2140000000.0 -0.3250270950621144 -0.23280971161221448
2160000000.0 0.2982307277237988 -0.24584247177275764
2180000000.0 -0.03645493830406267 -0.3719908038260562
2200000000.0 -0.29368172433875334 -0.20937835627997015
2220000000.0 -0.323629713132858 0.13749677737906496
2240000000.0 -0.16026769812372502 0.30234856428470114
2260000000.0 -0.004337326372867822 0.341250819078052
2280000000.0 0.1712890389565009 0.2996730750720927
2300000000.0 0.33225047212429126 0.1280400706281716
2320000000.0 0.2744296253480971 -0.26812965422743107
2340000000.0 -0.35697328549497187 -0.21574370894683317
2360000000.0 -0.030411856804751468 0.45593403192679793
2380000000.0 0.07092114146566103 -0.5051385505444517
2400000000.0 0.14361332728553322 0.5455775601499169
2420000000.0 -0.5484267681138792 -0.28039593690854153
2440000000.0 0.6360001512591682 -0.18454139746049913
2460000000.0 -0.4519058676675 0.5369409011182248
2480000000.0 0.08163616892096709 -0.7277667689875131
2500000000.0 -0.1426468920926449 0.7390319661174124
2520000000.0 0.25882238571595473 -0.7179875818116217
2540000000.0 -0.4789824274447179 0.5965481429330217
2560000000.0 0.7479722427687532 -0.12940817830946907
2580000000.0 -0.5363450157512433 -0.5169852395379527
2600000000.0 -0.07162330878951119 0.7169627465148407
2620000000.0 0.5670150255173717 -0.39611896499299276
2640000000.0 0.2798652984697686 -0.5925648539753937
2660000000.0 -0.5530295450616012 0.2632324197893555
2680000000.0 0.5587527340463297 0.0841030613751145
2700000000.0 -0.38116157611760537 -0.34914284576886795
2720000000.0 0.2997870842018448 0.36067559666645205
2740000000.0 -0.1934641692443635 -0.37136452142651477
2760000000.0 -0.060514446402628604 0.37306314232661675
2780000000.0 0.05526662459058892 -0.3389855416969382
2800000000.0 -0.08501295435126809 0.30456916839936876
2820000000.0 0.18705990115671944 -0.233235349034948
2840000000.0 -0.060319233841578876 0.2892905299452968
2860000000.0 -0.27993843736472535 -0.08856438436317143
2880000000.0 0.1420381700420346 -0.25778436437257635
2900000000.0 -0.04052366587853426 0.2924343469381308
2920000000.0 0.2555905047500458 -0.1569394780259195
2940000000.0 -0.2875661804551849 -0.11398834398635321
2960000000.0 -0.1139126283548426 0.2896683148086994
2980000000.0 -0.048707158599816176 0.30662137669635414
3000000000.0 -0.31086845017912884 -0.008089690076096329
3020000000.0 0.0703358785567394 -0.3089831879918699
3040000000.0 0.3174407388573081 0.0026454192102445605
3060000000.0 -0.09129342619327543 0.300267174543016
3080000000.0 0.008042398204318039 -0.30330218061998016
3100000000.0 -0.09383852761045537 0.27925574130208375
3120000000.0 0.09370982210604416 -0.2727244932446383
3140000000.0 0.09209952876857341 0.26107119665225825
3160000000.0 -0.15248729936401587 -0.2121296574347268
3180000000.0 -0.11635977405784943 0.21642734539707537
3200000000.0 -0.15369247417434634 -0.16112246045899134
3220000000.0 0.18450464558106322 -0.06675666942168525
3240000000.0 0.027043559994607787 0.1662153655444868
3260000000.0 -0.10005326146629014 0.09154421591093977
3280000000.0 0.09498327808130703 -0.030707036007437932
3300000000.0 -0.06342469682372014 0.03595261914039145
3320000000.0 0.01910322321713434 0.03760162266773168
3340000000.0 0.010651408911335427 -0.016217436414465505
3360000000.0 -0.0028330774401888557 -0.00021493869095702946
3380000000.0 -0.00644859693240914 0.009948364693384611
3400000000.0 -0.006750747322850716 0.01950360767426705
3420000000.0 -0.03549209557265102 -0.002088437710139177
3440000000.0 -0.0003087788403615328 0.04730414224584207
3460000000.0 -0.02405986307243523 -0.05205669460283496
3480000000.0 -0.0004558259527073816 -0.07168850500091911
3500000000.0 0.04958683693357121 0.07863887978578626
3520000000.0 0.1030591918952292 0.026940493036126292
3540000000.0 -0.0839759332939818 0.08196619502101515
3560000000.0 -0.06218768917549825 -0.10939031615255299
3580000000.0 -0.08080516973977547 0.10971530247378146
3600000000.0 0.03174867610068078 -0.14511722010445952
3620000000.0 -0.1183653817252874 0.10971960544679756
3640000000.0 -0.16816663871316292 -0.05846970361955406
3660000000.0 0.021791093021825563 -0.1865689015124819
3680000000.0 0.09397315597217942 -0.17393477869237625
3700000000.0 -0.1171869100786492 -0.16265773240173792
3720000000.0 -0.15975078984894328 -0.11728015675445538
3740000000.0 -0.022501665579648607 -0.18603129304619553
3760000000.0 -0.10194640796385436 0.14746305675959936
3780000000.0 0.16953370948701618 0.015881270622384615
3800000000.0 -0.00614939503997653 -0.16105346129036113
3820000000.0 0.010916010124657477 -0.1561828211585982
3840000000.0 0.13049147295245503 -0.07911620111309564
3860000000.0 -0.025583691898781777 -0.1521511025956025
3880000000.0 -0.07542928179578677 -0.13211310695108242
3900000000.0 0.12407639612069112 -0.08675047879373882
3920000000.0 0.075494908249432 -0.13873053430069598
3940000000.0 -0.05198026099601016 0.15827954756053658
3960000000.0 -0.149244622418406 0.08646678093020634
3980000000.0 -0.11221167279279705 0.13238762264041107
4000000000.0 0.10243018856537192 0.13529231898714128
