!Created with skrf (http://scikit-rf.org).
# Hz S RI R 50.0 
!freq ReS11 ImS11
400000000.0 0.43593195376894667 0.7539369473085821
420000000.0 0.8442171180547569 -0.03647007898312026
440000000.0 0.7980161681900337 -0.034225788901662516
460000000.0 0.6636330365452544 0.33900361202475576
480000000.0 0.06907413988930974 -0.6836768699302984
500000000.0 0.0005919531131913052 0.6054007658110813
520000000.0 0.2020523103856206 0.47137735953698523
540000000.0 -0.4334504876637358 -0.06618468592572196
560000000.0 0.2979800798100174 0.26348569461271887
580000000.0 -0.259730090178495 0.24865178316641418
600000000.0 0.17542422329072258 -0.3011369978154491
620000000.0 -0.12882266855738334 -0.326268724223379
640000000.0 0.3945831959881582 0.0992565433389165
660000000.0 0.2089888182707701 0.35794986917631394
680000000.0 -0.07120347369282302 -0.4339919374108319
700000000.0 -0.07074433316331821 0.45178478460153476
720000000.0 -0.4058022293174098 -0.22228177622042056
740000000.0 -0.41599667390329365 0.10622777457474025
760000000.0 -0.20068806006933035 -0.36105688045783163
780000000.0 -0.3154101681070855 0.21962044608955783
800000000.0 -0.12714682420775825 0.3170846778559951
820000000.0 0.27191808380754534 0.07166671645668794
840000000.0 -0.09557119787903909 0.18284824445930328
860000000.0 -0.15801101160111164 -0.0549367337758548
880000000.0 -0.12369279401946158 -0.06570250616751236
900000000.0 0.06934406698688861 0.06220843627824239
920000000.0 -0.01640741503324511 -0.04997507995309021
940000000.0 -0.011629736916653182 -0.03205729395293086
960000000.0 0.026553127859762146 -0.021169401995459015
980000000.0 -0.05497026170608493 -0.009419338281511733
1000000000.0 -0.05657980457358892 0.07576380181922503
1020000000.0 -0.024256293062400635 0.11687990559336509
1040000000.0 0.04481002305610442 -0.12709006840009263
1060000000.0 -0.13704066735060155 0.08690684922125073
1080000000.0 -0.12463668654092296 -0.14404326558590072
1100000000.0 0.14406373127302569 -0.15998156230007
1120000000.0 0.19890400668691904 -0.12864040193101556
1140000000.0 -0.04681860627885806 0.2554874059703731
1160000000.0 -0.2016313186390632 0.1963264433569068
1180000000.0 -0.27781854161335606 -0.13313179882972542
1200000000.0 0.33472735308131085 0.05743882715376804
1220000000.0 -0.23460274105115353 -0.2859752338072361
1240000000.0 0.33528021470421865 0.2058260728088407
1260000000.0 -0.27652771471497894 -0.29986665583255667
1280000000.0 -0.42299285430133393 0.0038691021204385508
1300000000.0 0.18438625472559145 0.3896871329587413
1320000000.0 0.3874847389728541 0.19671761974041957
1340000000.0 0.1695062618278208 0.40559069294572214
1360000000.0 0.4266548033369377 0.13575779136553748
1380000000.0 -0.21862415706625857 -0.381363544222687
1400000000.0 -0.4079787450322043 -0.12249787889879254
1420000000.0 0.21784955163597453 0.3402568461914143
1440000000.0 0.2869703974253971 -0.23882311796410075
1460000000.0 0.2006855945458841 -0.2777275154915954
1480000000.0 -0.27157339393927576 -0.15657727331007318
1500000000.0 -0.10441679235314158 0.26105068041723356
1520000000.0 -0.2483471501689766 -0.03570167007991222
1540000000.0 -0.1298472835769437 0.18531616261920694
1560000000.0 -0.19555671592904847 0.037340330969615754
1580000000.0 -0.14426592376055913 -0.10431156506173332
1600000000.0 -0.0752862591991126 0.12369953339069685
1620000000.0 -0.04000765772091267 -0.10079227106430408
1640000000.0 -0.03129325874799465 -0.07588398560130845
1660000000.0 0.04324161259463658 -0.0476370009463623
1680000000.0 0.035609628199613295 0.011519363256296813
1700000000.0 -0.010288711141622687 -0.004407986773747003
1720000000.0 -0.008118288880778165 0.0013140920760649284
1740000000.0 0.02530099764987997 -0.001416981106036202
1760000000.0 0.017969706729660164 -0.03319435066563904
1780000000.0 0.049051855955545884 0.018837012831658853
1800000000.0 -0.07496297856011347 0.04420776160133262
1820000000.0 -0.06574057027610168 -0.09361289428499847
1840000000.0 -0.14859404469548837 -0.028733260522017256
1860000000.0 -0.13328081973284192 -0.14242227403410704
1880000000.0 -0.17832691427558953 0.1561449253522338
1900000000.0 0.2748463083528965 -0.0611157916120152
1920000000.0 0.3259915171678057 0.021101168172784176
1940000000.0 -0.32817026640881947 -0.1209977026320985
1960000000.0 -0.24345006148340956 0.2826629361665097
1980000000.0 0.2940440687373433 -0.27495485058458874
2000000000.0 -0.32476486342438843 -0.2628564713222991
2020000000.0 -0.42120074506228256 -0.05424473825329221
2040000000.0 0.0921852202222818 0.41905687529703123
2060000000.0 0.07929651587508912 0.4234186798876992
2080000000.0 0.07824138731511886 0.42296986631445416
2100000000.0 0.2966024288936964 -0.30607525440399375
2120000000.0 0.22630760354166535 -0.3489563891946737
2140000000.0 0.34663332618818105 -0.20324916939206614
2160000000.0 0.3624391495262766 -0.14471467350615044
2180000000.0 0.2721562255413046 -0.2617449283091642
2200000000.0 0.14947975755641155 -0.3315165050237821
2220000000.0 -0.34876502819186656 0.03320059692520849
2240000000.0 -0.32689044650379173 -0.09577402188689783
2260000000.0 -0.3122993459315567 -0.1280843804701326
2280000000.0 -0.17959782859323362 0.2915381811289758
2300000000.0 -0.1977325509344211 0.29193122720602466
2320000000.0 -0.09609300613055885 0.3656404299582327
2340000000.0 0.0863596965539734 -0.40325913453097945
2360000000.0 -0.39933613242923877 -0.20761990822084042
2380000000.0 0.086985864733722 0.49160462958580076
2400000000.0 -0.5002706644654933 0.24615305773045987
2420000000.0 0.5647506252248576 -0.22642863105145877
2440000000.0 -0.5840521703331372 0.2964837892415449
2460000000.0 -0.6103692599105366 -0.3419465231403889
2480000000.0 0.5748047658233032 0.4539513744900094
2500000000.0 -0.1602532954808679 -0.7376392056484253
2520000000.0 0.767542152544011 -0.040029564762446956
2540000000.0 -0.4286242764374305 -0.643258073500514
2560000000.0 -0.5902983179125395 0.49437152334664725
2580000000.0 0.17322017550010402 -0.7361230835563445
2600000000.0 -0.6991548339025102 -0.22938883392625545
2620000000.0 -0.25113918070226643 0.6632001881210501
2640000000.0 0.6363995732112286 -0.21507852984114564
2660000000.0 -0.29152236689707695 -0.5599776844151847
2680000000.0 -0.34242997859531144 0.4753216781880148
2700000000.0 -0.21559742500510404 -0.48801870375592576
2720000000.0 -0.16834745129291404 0.45609314437940357
2740000000.0 0.4157380420530987 -0.1313122513253646
2760000000.0 -0.27342723684209264 0.27959545862508933
2780000000.0 0.358977026779846 0.0017077669991809215
2800000000.0 -0.3019575774370311 -0.1414669699465723
2820000000.0 0.13919922280815186 -0.27883801459722524
2840000000.0 -0.17374271467175578 0.24933489948350443
2860000000.0 0.1072034155230907 -0.28003799078984143
2880000000.0 0.24848928458781983 -0.16642902316207886
2900000000.0 -0.29650021631647955 -0.044233001360780407
2920000000.0 0.022881550640861864 0.30392603629732534
2940000000.0 -0.16124407666014065 -0.2676534555143555
2960000000.0 -0.31571332581736017 -0.01514537048853416
2980000000.0 -0.31464149465110547 0.004148082925532587
3000000000.0 -0.2657131495471883 -0.16659048572032092
3020000000.0 0.031633187283338304 0.31679832321297685
3040000000.0 0.025380830046381562 0.3193182562651556
3060000000.0 -0.008261933579397097 0.3154434822198925
3080000000.0 0.3029590562955445 0.03848415148314324
3100000000.0 -0.22473469190559894 0.19512500500859586
3120000000.0 -0.11811718141825175 -0.2641340586101922
3140000000.0 -0.21505687497214102 0.1769107863530864
3160000000.0 -0.022132833898131015 -0.26180907272629966
3180000000.0 -0.1512084463358989 0.19521353882120032
3200000000.0 0.21250729041294525 -0.091631524793078
3220000000.0 0.13914889027776978 -0.15212892567517952
3240000000.0 0.08334769111366475 -0.15197565252989204
3260000000.0 0.008838664949588076 0.14379371205802396
3280000000.0 -0.09116346336933333 -0.04963189552369499
3300000000.0 0.05883359892543273 -0.04198359747776413
3320000000.0 -0.038534705969451404 -0.024195782731748702
3340000000.0 0.021387710234752576 -0.004522260472025065
3360000000.0 -0.004538808130216102 -0.0015219898195307844
3380000000.0 -0.0003821041258584093 -0.00673487244886111
3400000000.0 -0.017207869376171657 0.008056913212749917
3420000000.0 0.033357554372667846 0.0004444302401882012
3440000000.0 0.005880157534761872 0.045046083542964376
3460000000.0 0.0486457675759831 -0.03259271387786081
3480000000.0 0.024694304537036405 -0.07058461847456157
3500000000.0 -0.08926779207477911 0.001646562129805305
3520000000.0 -0.08041799183153657 0.0686376301061098
3540000000.0 -0.10523376952169486 0.057909777284694784
3560000000.0 0.12279262783291191 -0.012110053438412151
3580000000.0 -0.09702263318655331 -0.09475047678088638
3600000000.0 0.1373413345884279 -0.06195401622197116
3620000000.0 -0.040370222700285695 -0.1548641344332051
3640000000.0 0.05659296524631866 -0.16962520314615917
3660000000.0 0.13554433706034874 -0.13412983854144808
3680000000.0 0.16785522161892014 0.10119966033938041
3700000000.0 0.028216426816001564 -0.19765472904278536
3720000000.0 -0.09141380137333983 -0.1738138791774778
3740000000.0 0.10755378787664611 -0.15112766218751778
3760000000.0 -0.15961280961567673 -0.07631582568794978
3780000000.0 -0.04119323698386416 0.16329323756443573
3800000000.0 0.16153688048444748 0.017723656342322855
3820000000.0 0.1295032104096232 -0.08842945099461512
3840000000.0 0.09530350169405417 -0.1174406034582169
3860000000.0 0.0675982585661605 -0.13166698515796701
3880000000.0 0.06211857313677245 -0.13352346236015022
3900000000.0 0.09032522969355473 0.11536183676835567
3920000000.0 0.10279380026188469 0.10875710388398092
3940000000.0 -0.07780091281009532 -0.142022476324976
3960000000.0 -0.08732843940632147 -0.14934868764274348
3980000000.0 -0.17161316058286347 -0.02816003657533472
4000000000.0 0.1396580083867474 0.09103760794842691
