! Created with skrf (http://scikit-rf.org).
# Hz S RI R 50.0 
!freq ReS11 ImS11
400000000.0 -0.6218237042548053 0.5901027196460974
420000000.0 -0.06482432498025721 0.864099082444345
440000000.0 0.8397914641321821 0.006586174394954264
460000000.0 0.0161410556429484 -0.8004804246361349
480000000.0 0.08778139489567793 -0.7228456702903777
500000000.0 -0.3420927171739567 0.45023080873029425
520000000.0 -0.47411096715115897 0.003844622388136275
540000000.0 0.4037791080024982 0.09414546380424633
560000000.0 -0.21967624551121098 -0.2742953088655876
580000000.0 0.2506230075270173 0.2163574520660769
600000000.0 0.05776371545484887 -0.32194763291088496
620000000.0 -0.08982825737218525 0.327202799148373
640000000.0 -0.26155306133073675 0.25223919710430964
660000000.0 -0.30604787388970744 0.2282074108800408
680000000.0 -0.06817538517865686 -0.405696992500291
700000000.0 -0.42113434085249024 0.09768786657894013
720000000.0 0.07335189138055519 0.4374040559841953
740000000.0 -0.2162463788384024 0.3890401876788292
760000000.0 0.15021864811045513 -0.40229111510736504
780000000.0 0.3723205567321066 -0.1406357429575653
800000000.0 0.15207162922085504 0.32976476886792244
820000000.0 0.3006234747089448 0.027814545091646332
840000000.0 -0.23959544045362835 0.011470426777394408
860000000.0 0.18779815221903268 0.01740080730888526
880000000.0 0.08558050058629212 0.11596636354756443
900000000.0 -0.05283151398629829 0.04321845015427251
920000000.0 -0.03647947254562265 0.00043569746291291755
940000000.0 -0.008807744844562567 0.025190620915280963
960000000.0 -0.008923198393770945 -0.036893716326922926
980000000.0 -0.03357962615040377 -0.04257022004110015
1000000000.0 -0.05051074418463724 0.0342308783814209
1020000000.0 -0.03854986475692417 -0.06810496671619043
1040000000.0 -0.07713891194536744 -0.04562710393743217
1060000000.0 0.1313767226271972 0.003276635645409025
1080000000.0 -0.14300514053081895 0.04533254851309887
1100000000.0 -0.012847938495886342 0.17713087230567484
1120000000.0 0.18037825158546567 -0.091977759637472
1140000000.0 -0.18396125074271014 -0.1567336966966024
1160000000.0 -0.25643768089999897 0.11849226830758365
1180000000.0 -0.18301388903786756 0.2639934891102108
1200000000.0 -0.2208254706882279 0.2780805326819199
1220000000.0 -0.24680037642629427 -0.29290963259723996
1240000000.0 0.390140502673124 0.11309860246825021
1260000000.0 -0.3854829117621526 -0.18541947699306793
1280000000.0 0.2541267737986236 0.35922625096122945
1300000000.0 0.129702126349152 -0.4259738157294487
1320000000.0 -0.37538989898212016 -0.22736522047190133
1340000000.0 -0.22485075632695192 -0.37010488235160105
1360000000.0 0.10638297454806747 -0.4154971383709594
1380000000.0 -0.17402117425363525 -0.3927441743698737
1400000000.0 -0.34670676420319635 0.22884750381064048
1420000000.0 -0.022216760065874856 0.39563975262269885
1440000000.0 0.32085615274969026 0.1802303023157321
1460000000.0 0.30789575286001847 0.14202896865343778
1480000000.0 0.3099967527806681 0.052475076181697375
1500000000.0 0.22772424032090305 -0.17974811579254107
1520000000.0 -0.26826231798705746 0.02062670568484886
1540000000.0 0.23144188504777238 0.08511638718061605
1560000000.0 0.20962638820839136 0.05405650518298227
1580000000.0 0.12903705301686194 -0.13622289331659798
1600000000.0 0.11554108688420087 0.09824798571912742
1620000000.0 -0.11172557952752542 -0.012072306804294096
1640000000.0 -0.015120332527708181 0.08250391116373573
1660000000.0 0.038994014102699884 0.042292625954615845
1680000000.0 -0.01565162916472773 0.023499637794176506
1700000000.0 -0.005448496377236763 -0.0076255623357609804
1720000000.0 -0.014210331538035333 -0.006472789244854824
1740000000.0 0.034934965205075406 0.006533926083762483
1760000000.0 0.051228637196510864 0.018044482862377066
1780000000.0 -0.07605186532844223 0.02872413851978819
1800000000.0 -0.11253238631227305 0.009075045069969733
1820000000.0 0.1329326521581235 0.03693647263213401
1840000000.0 -0.09374442153368995 -0.14115218134429253
1860000000.0 -0.13843786640775588 0.14234406237450564
1880000000.0 0.08892070850688617 0.21365160581593012
1900000000.0 0.2644419549043066 -0.03588890959859491
1920000000.0 -0.04419079939229239 -0.2981504072999521
1940000000.0 -0.2955087394708953 -0.15749363744214734
1960000000.0 -0.2717790953026881 0.2489627577132464
1980000000.0 0.29607114325825934 0.2604010402709937
2000000000.0 0.3942920804744347 -0.1436737144869945
2020000000.0 -0.2984833185582738 -0.32514831252823395
2040000000.0 -0.17065317872300959 0.4200354320741164
2060000000.0 0.44616710732125636 -0.09082757001076927
2080000000.0 -0.24625192365388227 -0.37464415269535
2100000000.0 -0.3896582479314746 0.19598718111895322
2120000000.0 -0.2181459169680227 0.356143185343869
2140000000.0 -0.3311036991222798 -0.22455491723594542
2160000000.0 -0.36581034756739617 -0.1127035646709893
2180000000.0 -0.2739723350511402 -0.24289930223821882
2200000000.0 -0.24583145345502558 -0.2557399743852053
2220000000.0 -0.12553341317498576 -0.3238642734578194
2240000000.0 -0.3248342739174389 -0.130947287091358
2260000000.0 -0.29520541163419967 0.197290444879368
2280000000.0 0.18622755006306949 0.3133194787380917
2300000000.0 0.11734796699929718 -0.3604699954816133
2320000000.0 -0.3582268102744246 0.1836425490732627
2340000000.0 0.3860571958640477 0.19286254082456816
2360000000.0 -0.3119837993531172 -0.3519422346044351
2380000000.0 0.24238426000862676 0.45367566570125234
2400000000.0 -0.33097625924244 -0.4561161607692896
2420000000.0 0.5434620967187765 0.28182859585057507
2440000000.0 -0.6537187522411749 0.07348111166352515
2460000000.0 0.5356885430187455 -0.4419016854459858
2480000000.0 -0.319040736798685 0.6470981942426287
2500000000.0 0.39951233715612683 -0.6212410836972431
2520000000.0 -0.6009668562382602 0.4431528014296872
2540000000.0 0.74263492822038 -0.0686606693470885
2560000000.0 -0.4849082145727886 -0.5558943073826823
2580000000.0 -0.3302520652390797 0.6405105773769311
2600000000.0 0.6946379873570895 -0.011697991883956937
2620000000.0 -0.32101313024485195 -0.5803284364900969
2640000000.0 -0.45117209915656253 -0.4331763819561435
2660000000.0 -0.2372077404985157 0.530549186589156
2680000000.0 0.5348768702113931 0.04674706086435508
2700000000.0 -0.24094893433658834 -0.42930373961776247
2720000000.0 -0.05809995304048757 0.44303035800705626
2740000000.0 0.32431064550754274 -0.24199912965802292
2760000000.0 -0.36084796726661966 0.06799168870654092
2780000000.0 0.3348294365427598 -0.04726519400419557
2800000000.0 -0.2488808571328185 0.19362845563685963
2820000000.0 -0.042411816573810227 -0.2952705159172696
2840000000.0 0.2642637142015664 0.11461146716152147
2860000000.0 -0.24360506005642255 0.14586424061695144
2880000000.0 -0.0038916282488396844 -0.28221172149851254
2900000000.0 0.011333977765039523 0.28352233997228765
2920000000.0 0.21993614640998171 -0.1859752319304121
2940000000.0 -0.22772253620167515 -0.18470131036582674
2960000000.0 -0.2916558350733701 0.05348133783664749
2980000000.0 -0.30126134379612773 0.02871965205574376
3000000000.0 -0.25791291448134296 -0.1664728978272761
3020000000.0 0.03783069375823386 -0.3060793439858068
3040000000.0 0.30340412315100396 0.04211375301562787
3060000000.0 -0.22479538292486437 0.20460031579704704
3080000000.0 0.08422895869176622 -0.2871002390725657
3100000000.0 0.04613071766810144 0.2891696035387817
3120000000.0 -0.19699123451037792 -0.20383686232691758
3140000000.0 0.24658379581710793 0.11601367862967855
3160000000.0 -0.2547174951303336 -0.038793846122196426
3180000000.0 0.067688778975186 0.2316625071802921
3200000000.0 -0.2109418400396913 -0.05996224246074217
3220000000.0 0.1402139619680486 -0.13477242229262718
3240000000.0 -0.00011744826793153756 0.16722153170833298
3260000000.0 -0.059478897623059704 -0.12461588157962766
3280000000.0 0.08392610457639367 0.06901304619295241
3300000000.0 -0.07614021323330657 0.03186053259439475
3320000000.0 -0.041186376200108 -0.033464543781676605
3340000000.0 -0.026253912017002282 0.008527780329463044
3360000000.0 -0.003532470294618769 -0.005847321352337785
3380000000.0 -0.011138591376180874 0.007591021022944903
3400000000.0 0.020973189328874743 0.014986655732835367
3420000000.0 0.016921979474509758 0.03249018697874058
3440000000.0 0.014671576074528918 0.038926718898561266
3460000000.0 0.037237492749519784 -0.02830698847068036
3480000000.0 0.05259297210713131 0.01833704243012783
3500000000.0 -0.06836588380542667 0.021169043407466462
3520000000.0 0.06023080708297891 0.06878334311248673
3540000000.0 -0.06847823105291538 0.08301787404242317
3560000000.0 -0.10357573714862643 -0.06422931902745543
3580000000.0 0.10340831613710891 -0.08829123179273875
3600000000.0 0.10940423018661316 0.10550083769848222
3620000000.0 0.07449511587349265 0.14406619326328077
3640000000.0 -0.16975271055892016 0.03981034358278618
3660000000.0 -0.18022653493490043 -0.036393802314554406
3680000000.0 -0.08115870349298776 -0.16980026912259116
3700000000.0 0.017062642027055104 -0.18839175094419405
3720000000.0 0.11785325981323863 -0.14612048793031873
3740000000.0 0.1781255620019254 -0.03753182330971678
3760000000.0 -0.17055353451786615 0.044374456128647356
3780000000.0 0.16567596443104804 -0.014016076310278939
3800000000.0 0.04860783026641643 -0.1505864696373044
3820000000.0 -0.008664296804460602 -0.1518533400418498
3840000000.0 0.06426186083127454 -0.13260841749995225
3860000000.0 0.14781067431226264 0.0108148318929322
3880000000.0 0.15125607526476584 0.018206161856182734
3900000000.0 -0.00020110019596739878 -0.15539748264135858
3920000000.0 -0.12937799284250753 0.0937642424939032
3940000000.0 0.1201544199956527 -0.1132892231156123
3960000000.0 0.16796293846856142 0.03275368644149776
3980000000.0 0.17280699364961402 -0.022002059196931947
4000000000.0 0.12920683118670617 -0.1090788135350531
