! Created with skrf (http://scikit-rf.org).
# Hz S RI R 50.0 
!freq ReS11 ImS11
400000000.0 -0.6279290811449968 0.5821278565218081
420000000.0 -0.09739385066208671 0.8606782132116824
440000000.0 0.8381481316545767 0.03910735125450199
460000000.0 0.06620780139662971 -0.7980327904697527
480000000.0 0.11481133854199696 -0.7203257502352138
500000000.0 -0.3063659698996706 0.4755016454592523
520000000.0 -0.47485209623841435 0.010162962142166767
540000000.0 0.41217649262914197 0.05703994870608595
560000000.0 -0.2310684332231894 -0.2665253120078039
580000000.0 0.3005952534627796 0.13763252928958125
600000000.0 0.04640951543859672 -0.32314689729389384
620000000.0 -0.08026951327618727 0.3288073421166005
640000000.0 -0.25461402604404887 0.25936035351504083
660000000.0 -0.2842396258307053 0.2540843377949402
680000000.0 -0.09815635665842852 -0.39938482561087707
700000000.0 -0.4180623086827179 0.10697350462678398
720000000.0 0.06681654043779178 0.4384907324992883
740000000.0 -0.22474614344374635 0.38432711073234554
760000000.0 0.1517860957997379 -0.4024144896928305
780000000.0 0.3706733527889251 -0.14444743534033305
800000000.0 0.1351941488128476 0.3372425957058453
820000000.0 0.29422560485923904 0.06910722078415217
840000000.0 -0.2393821223458295 0.019713206252601444
860000000.0 0.18842112511524398 0.012004963771043112
880000000.0 0.09828836901018985 0.10561166839886611
900000000.0 -0.0574918315208884 0.03652013281190975
920000000.0 -0.03605433511325149 -0.007663303236610809
940000000.0 -0.009192139187576383 0.025671334108090693
960000000.0 -0.009156323144455915 -0.03735226833239253
980000000.0 -0.018409409441519798 -0.051779877591673164
1000000000.0 -0.0425502935747523 0.0444997737393479
1020000000.0 -0.040232702325874684 -0.06760897264395084
1040000000.0 -0.08364785625457478 -0.03258547272052183
1060000000.0 0.1310323191172737 0.00843732994655537
1080000000.0 -0.1345786517383007 0.06619734974190171
1100000000.0 0.006298472963269924 0.17756609536638404
1120000000.0 0.1761146999570885 -0.0991117738631335
1140000000.0 -0.15487063537307466 -0.1856152981351283
1160000000.0 -0.2437221661949659 0.14306760828622175
1180000000.0 -0.1834382353993021 0.2637985408775526
1200000000.0 -0.21639352667716052 0.2813592135580625
1220000000.0 -0.23628893860484823 -0.3018179880571202
1240000000.0 0.38581537341533373 0.12728366995961693
1260000000.0 -0.37629951973458287 -0.20239899424853003
1280000000.0 0.25335292199312615 0.3596038789252896
1300000000.0 0.14549997652835048 -0.420734680671728
1320000000.0 -0.38604729722923475 -0.20840121173118653
1340000000.0 -0.23029526907536008 -0.3668336200536637
1360000000.0 0.09187088243928487 -0.41876096229087817
1380000000.0 -0.1722223091181429 -0.3936774372811423
1400000000.0 -0.3495269735576514 0.2245245029492469
1420000000.0 -0.016651139039906462 0.39575741616204674
1440000000.0 0.32290666077989755 0.17606098863586586
1460000000.0 0.3136810750541641 0.129044619840495
1480000000.0 0.3141201799344063 0.004792196504537777
1500000000.0 0.24035994855213094 -0.1620060596456328
1520000000.0 -0.2687246390189909 -0.008586474386272504
1540000000.0 0.2305549130474445 0.08777133865948657
1560000000.0 0.20957332318115857 0.05298473387520467
1580000000.0 0.16173358647741914 -0.09505747606708549
1600000000.0 0.13365884132198816 0.07193611429785576
1620000000.0 -0.11211909838868378 -0.008028931554983779
1640000000.0 -0.01024116302674309 0.08329098931382438
1660000000.0 0.03903536780260939 0.04262535985684295
1680000000.0 -0.01058989467997417 0.026846487687629886
1700000000.0 0.006839209150229294 -0.00819251348101755
1720000000.0 -0.015481808042390818 -0.0033441429349438207
1740000000.0 0.03126297115819321 0.01764541922932343
1760000000.0 0.0508864324945553 0.019727846093138404
1780000000.0 -0.07925798212201188 0.017766091326288112
1800000000.0 -0.11253881091390935 -0.008282749351776964
1820000000.0 0.13342776315126106 0.03626557648460637
1840000000.0 -0.08689960381712405 -0.14555303777550385
1860000000.0 -0.14528978848820254 0.13520844544339294
1880000000.0 0.0968843311026991 0.2103414764924549
1900000000.0 0.2602130700351191 -0.05972818482385594
1920000000.0 -0.0674494408102803 -0.2937542463343656
1940000000.0 -0.30091373794175735 -0.14599832617147881
1960000000.0 -0.26606598259936837 0.2543509476340703
1980000000.0 0.30636176805063436 0.24779372662346547
2000000000.0 0.3925445822998435 -0.1469707147800011
2020000000.0 -0.29355302543258704 -0.3290949555079086
2040000000.0 -0.17052007044245082 0.41977529539071906
2060000000.0 0.4498244790536006 -0.0712339055482598
2080000000.0 -0.23278419959941374 -0.3835191994869088
2100000000.0 -0.4089927741078064 0.15268292788019364
2120000000.0 -0.23776181998868862 0.34371431992317203
2140000000.0 -0.349952836240927 -0.19369882602978306
2160000000.0 -0.36724476263853556 -0.10770555368964715
2180000000.0 -0.27963388764041297 -0.2358721622388119
2200000000.0 -0.2473502916946353 -0.2539056933699852
2220000000.0 -0.13443025680798923 -0.3196872897469911
2240000000.0 -0.3294813727800764 -0.11722936481538448
2260000000.0 -0.2990914602293837 0.1903725151593851
2280000000.0 0.17636753693463414 0.31846926162851175
2300000000.0 0.12012031029860162 -0.3589617985646154
2320000000.0 -0.3655111595357286 0.16749174834192954
2340000000.0 0.3854262349019629 0.1934361684766584
2360000000.0 -0.3008099880407932 -0.361135345270623
2380000000.0 0.21945227857741662 0.4643050125708804
2400000000.0 -0.27249800403472635 -0.4925885120976958
2420000000.0 0.513192683564007 0.3325995698128028
2440000000.0 -0.6569088387577744 0.022998023714322552
2460000000.0 0.5607228666821442 -0.40838855344655023
2480000000.0 -0.3979241151464944 0.6017242131804512
2500000000.0 0.486985428098598 -0.5554158234955032
2520000000.0 -0.6573082774306139 0.354463101048501
2540000000.0 0.7457548637824029 0.016888564075331763
2560000000.0 -0.41125850462376495 -0.6130116778203345
2580000000.0 -0.3239355386822123 0.6440610952065307
2600000000.0 0.6919149713278425 0.07008144439385358
2620000000.0 -0.20943832368013673 -0.6297670589068866
2640000000.0 -0.37039461332861023 -0.5048769002817214
2660000000.0 -0.2604906646312823 0.520666866386393
2680000000.0 0.5340771086794842 0.06258120557792977
2700000000.0 -0.23328932818326562 -0.4348964056823827
2720000000.0 -0.08970539069659572 0.43857721023633167
2740000000.0 0.36181583514780585 -0.18305519220430724
2760000000.0 -0.3658740642631822 0.04061857525858687
2780000000.0 0.33691386358280645 -0.03813559488430942
2800000000.0 -0.25985584331891354 0.18017875760433827
2820000000.0 -0.030924865738878152 -0.2974899007254475
2840000000.0 0.266898654770383 0.10920500673400642
2860000000.0 -0.24610664499167437 0.14238111260389433
2880000000.0 -0.009864278244426164 -0.28268101699350934
2900000000.0 0.004866826220822008 0.2844085253021631
2920000000.0 0.22530710453852146 -0.18035086510182505
2940000000.0 -0.2112159626155196 -0.2044131537939082
2960000000.0 -0.29589497891309463 0.0313441017801456
2980000000.0 -0.3025105555600943 0.024113567974431708
3000000000.0 -0.24569523800872187 -0.18546619198697983
3020000000.0 0.02905848526501083 -0.30785699401945804
3040000000.0 0.3055493878651549 0.033607661366427774
3060000000.0 -0.2568009727231112 0.1639954208809609
3080000000.0 0.1307723039729368 -0.2698191999029667
3100000000.0 0.017197438343650725 0.29326108729720496
3120000000.0 -0.14003974638910607 -0.24711372000250365
3140000000.0 0.23223399757470237 0.14382699932347207
3160000000.0 -0.24643688488002566 -0.07613741425848705
3180000000.0 0.05706434654987807 0.23536664741618932
3200000000.0 -0.20595881637742108 -0.07636134543007762
3220000000.0 0.14677602547862445 -0.1281342744860573
3240000000.0 -0.007914063473557989 0.16672762451802037
3260000000.0 -0.06177014018650501 -0.12327963407645763
3280000000.0 0.07237367117550092 0.0811412828021734
3300000000.0 -0.0622967355380273 0.053949014995132674
3320000000.0 -0.051692862677923807 -0.011672530479809104
3340000000.0 -0.008652450963624827 0.026358420695900706
3360000000.0 0.0030746796183088363 0.006950808672588511
3380000000.0 0.0013917656527075973 0.013962326495560664
3400000000.0 0.0078528699932628 0.02527825543431915
3420000000.0 -0.010726222043040367 0.03526392210828234
3440000000.0 -0.02866783424461827 0.030681246221643914
3460000000.0 0.04714245067814877 0.003180333372578346
3480000000.0 0.04684050920409044 0.03120331202853778
3500000000.0 -0.07158684099270497 0.00755013945137482
3520000000.0 0.011346712521689794 0.09070646229741133
3540000000.0 -0.09818661225746043 0.04397970598460063
3560000000.0 -0.09077635350511877 -0.08217486982844666
3580000000.0 0.11913236189878394 -0.06669502619645103
3600000000.0 0.10910246933475226 0.10678040888271083
3620000000.0 0.0683922310011678 0.14787949415055987
3640000000.0 -0.17400152721259587 0.006816525415581417
3660000000.0 -0.17696613863352767 -0.0506207008829537
3680000000.0 -0.06265994889125363 -0.1777209310556726
3700000000.0 0.049697305950980264 -0.18257789385516543
3720000000.0 0.14486115117685214 -0.12033758316785988
3740000000.0 0.18223676289216134 0.002647110401857512
3760000000.0 -0.17545565528763216 0.01361766620920599
3780000000.0 0.16514825119629464 0.014056278618435246
3800000000.0 0.07473669873575425 -0.13910456595869972
3820000000.0 0.01125940254173493 -0.15148914078169887
3840000000.0 0.083594371354025 -0.12067062698999423
3860000000.0 0.13975293748802806 0.047059098393778455
3880000000.0 0.14622407319385125 0.04091588817944426
3900000000.0 0.045386220166815025 -0.14801907078033294
3920000000.0 -0.15202383101547604 0.04665623113166397
3940000000.0 0.14763280563510428 -0.07244886421112857
3960000000.0 0.15761385523298926 0.06326892552928436
3980000000.0 0.17224756706400396 -0.01140014827965816
4000000000.0 0.13521795601454337 -0.09904175965675512
