! Created with skrf (http://scikit-rf.org).
# Hz S RI R 50.0 
!freq ReS11 ImS11
400000000.0 0.18351038835188366 0.8533769382825902
420000000.0 0.6401606941795913 0.5749529244654191
440000000.0 0.7922270915436488 -0.2359731649426405
460000000.0 0.1648815547148015 -0.7724520717084996
480000000.0 0.5187719831472388 -0.48157353090534316
500000000.0 0.26282011762971463 -0.4970831473480126
520000000.0 0.24380091644161553 -0.4215398721733072
540000000.0 0.42766867496824074 -0.008838805924803479
560000000.0 -0.3221437178144824 -0.14229975969755584
580000000.0 -0.30571375363562936 0.1306525589818168
600000000.0 0.2812502284647996 0.17173603618312255
620000000.0 -0.14056891373062963 -0.320292194243594
640000000.0 -0.3293720189618135 -0.19326189810824645
660000000.0 -0.39440745189648135 0.05905717565167578
680000000.0 0.09286408678445732 -0.4180241876044625
700000000.0 0.08476672469483064 0.4414049426184015
720000000.0 0.19676580022869064 -0.40807325262885713
740000000.0 0.3901068152010963 -0.21367780724279917
760000000.0 -0.41520601735575235 0.051406511551545554
780000000.0 0.13808037553427754 -0.3563252075018103
800000000.0 -0.010772448732077724 0.34839090389969557
820000000.0 0.07010489797390076 0.28253108141661387
840000000.0 0.2277811899631651 -0.04995184488955895
860000000.0 0.01531630522257667 0.1967160735783694
880000000.0 -0.12935063250573783 -0.04648772090583415
900000000.0 -0.04915615245589319 0.05350096316271373
920000000.0 -0.033608916049556424 0.024150899208018165
940000000.0 0.028914082707105677 0.019847752429900757
960000000.0 -0.046313728900793265 -0.009210984042819788
980000000.0 0.05067108347280392 -0.014725861376838246
1000000000.0 0.015504222745732136 0.057360708153147595
1020000000.0 0.07257999618802405 0.006791952107823918
1040000000.0 -0.0354934518718672 0.07319746591033036
1060000000.0 0.11677451450200947 -0.03034765913190754
1080000000.0 -0.08713076334133779 -0.10733617464638803
1100000000.0 -0.0537724250870725 -0.15578519274721742
1120000000.0 -0.1950962244417299 -0.015879533895273305
1140000000.0 0.2137526773296989 0.11207391017026005
1160000000.0 0.22924705888131616 -0.17180265452508936
1180000000.0 -0.16216545884927708 -0.2886569365691669
1200000000.0 -0.33707844206616877 -0.1489389947587073
1220000000.0 -0.009294930196223718 -0.3976817782744241
1240000000.0 0.40756222299022876 0.09733196529761208
1260000000.0 -0.4385987857426835 0.03237862137251786
1280000000.0 0.44249844873131344 -0.07328473473311589
1300000000.0 -0.4148743048498345 -0.16763188678050644
1320000000.0 -0.1273951728231113 0.4152362850227049
1340000000.0 -0.3641090656344505 0.20743014210125604
1360000000.0 -0.14116917862617848 -0.382609142248703
1380000000.0 0.21347857755217844 -0.3476205384996016
1400000000.0 0.15780818308375655 -0.3640313070518594
1420000000.0 0.12223047574664907 -0.3671153108300492
1440000000.0 -0.15311331632079267 -0.3395081564891467
1460000000.0 -0.3537478449617379 0.005068428123754149
1480000000.0 0.1642661661690279 0.2908395534830708
1500000000.0 -0.1078417968734598 -0.2893034614966747
1520000000.0 -0.1657980202637825 0.22965050641750887
1540000000.0 -0.17372662778730202 0.18517109697860734
1560000000.0 0.07035845925236531 0.20401288010873042
1580000000.0 0.17191336367275759 0.05444116356458528
1600000000.0 -0.1210662954633429 0.08292417646431066
1620000000.0 -0.02006945698415349 -0.10365452893067092
1640000000.0 -0.06756128993551194 0.03937304668218328
1660000000.0 -0.028585541075529616 0.04481350438090391
1680000000.0 -0.02290340602161019 -0.007373848806830282
1700000000.0 0.01137150892411896 0.00664101847485596
1720000000.0 -0.017613764548192235 -0.025943666742541137
1740000000.0 0.021092140794235225 -0.04923998418959514
1760000000.0 -0.0012203959916970797 -0.06900420546443642
1780000000.0 -0.03970472731937122 -0.07859236197198963
1800000000.0 0.11390070192829195 0.0032913304038103726
1820000000.0 0.06191459070559761 -0.11091169517887532
1840000000.0 0.1361512594048246 0.06476317186175992
1860000000.0 -0.04568814009620667 0.16739486350808097
1880000000.0 -0.09814534466973493 -0.18408407435272134
1900000000.0 0.11424036381656655 -0.22323016601545784
1920000000.0 -0.28578164205072887 -0.07946032802095146
1940000000.0 0.020182714182324445 0.3426712512971815
1960000000.0 0.11792609773472816 -0.3651555208884785
1980000000.0 -0.06162566747788085 0.40788852484285537
2000000000.0 0.3025795844593662 -0.31473145933538677
2020000000.0 -0.37005912650584954 0.25962334626858763
2040000000.0 0.43686350872308194 0.12715398805895162
2060000000.0 -0.18562060636110203 -0.4112172472455951
2080000000.0 -0.3818110755511058 0.21282124374272374
2100000000.0 -0.2157831173381878 0.3604862126354036
2120000000.0 -0.2814813690024208 0.2843526302269703
2140000000.0 -0.36398024885061775 0.1163859771464526
2160000000.0 0.25652743304850506 -0.26171585553334575
2180000000.0 0.3516535882543053 0.052879265855373274
2200000000.0 0.21083994524632022 0.27837275866853967
2220000000.0 0.31400210390199235 0.1601762262202223
2240000000.0 -0.00865624617774886 -0.35316755848711473
2260000000.0 -0.35608289085035916 -0.017978785606750997
2280000000.0 0.15852114153472505 0.3231058738663322
2300000000.0 0.2657031392095 -0.25879446042644494
2320000000.0 -0.37512552806822513 -0.10092442109392025
2340000000.0 -0.15054908462159894 0.3861503858896158
2360000000.0 0.4500713168562734 0.012032141449975834
2380000000.0 -0.3254869607900914 -0.37559400634739176
2400000000.0 0.1696247034799616 0.5216257721631596
2420000000.0 -0.30818748422428527 -0.5178135589874744
2440000000.0 0.5928201596469157 0.27768959179163294
2460000000.0 -0.6755827039753332 0.17131295797308546
2480000000.0 0.4945329559413704 -0.5368259215728965
2500000000.0 -0.5052994595916186 0.5577569625113514
2520000000.0 0.5607434779714698 -0.5189239802022426
2540000000.0 -0.7201915220654149 0.26166025567773166
2560000000.0 0.7065027254020463 0.2834039823449358
2580000000.0 -0.15574864371534694 -0.7307559962577536
2600000000.0 -0.47106620184275205 0.5473459980029735
2620000000.0 0.6910937534769093 0.030720274324642687
2640000000.0 0.6074269304367509 -0.24436916076912796
2660000000.0 -0.4952434163919944 -0.3588537600516285
2680000000.0 0.011697435791754656 0.5675561180965109
2700000000.0 0.24288905008619038 -0.46429168798576936
2720000000.0 -0.27137885034028897 0.39263694838610314
2740000000.0 0.22698917996750742 -0.3685123862317134
2760000000.0 -0.0632895023265254 0.38561108856350285
2780000000.0 -0.2120029264982345 -0.2854393978311115
2800000000.0 0.3170525254022325 0.06821559682112717
2820000000.0 -0.28307315447940806 0.10418641350145562
2840000000.0 0.2670825422157766 -0.10734361450327243
2860000000.0 -0.254840145605727 0.12459628404208362
2880000000.0 0.27578170617082914 -0.0719144829720539
2900000000.0 -0.27578931814293417 -0.0905503459812183
2920000000.0 0.08310805889270188 0.29077849035023146
2940000000.0 0.13729242986093718 -0.2810118610912719
2960000000.0 -0.2889435331320158 -0.13670005391075313
2980000000.0 -0.30250593155000777 0.12006766849103769
3000000000.0 -0.28962163850700556 0.15478750644493255
3020000000.0 -0.3259024098634653 0.013701560386213918
3040000000.0 0.01907144458216365 -0.31952656169581983
3060000000.0 0.17149693765014493 0.26276891433698346
3080000000.0 -0.19186627115526947 -0.23502955676034734
3100000000.0 0.11423401888771932 0.27156651922300146
3120000000.0 -0.008463404893407567 -0.2851125778469364
3140000000.0 -0.17900315324963345 0.20761719868205575
3160000000.0 0.2474223767269888 -0.08810112315644639
3180000000.0 -0.07016549721236516 -0.23979567962136436
3200000000.0 0.21559281746624 0.0873061660750962
3220000000.0 -0.01947478514954328 0.20856109331427858
3240000000.0 -0.1350781494894805 0.12465557042394695
3260000000.0 -0.15071563826711754 0.011147799094096205
3280000000.0 -0.10565407981906023 0.04734573600873565
3300000000.0 -0.044915332597773076 0.06805658904991765
3320000000.0 0.04614182684560974 -0.008808732017082826
3340000000.0 0.01193903417701728 -0.011977629557440748
3360000000.0 -0.00669668365218722 0.006318998673237925
3380000000.0 0.01535745161587083 -0.017055725469364794
3400000000.0 -0.024451264112735085 0.01954711662093723
3420000000.0 -0.022613561494576474 -0.02696812882190511
3440000000.0 -0.020040786200055664 0.031670053373737406
3460000000.0 0.04364109177227901 0.009810438636895196
3480000000.0 0.0017653153917387618 0.06071753332921291
3500000000.0 -0.02650661516459437 0.0781149978564268
3520000000.0 -0.029075751870324792 0.10280381539147397
3540000000.0 0.09899424086070978 0.07479023511683876
3560000000.0 0.12805435584664474 0.04351999406241855
3580000000.0 -0.02204298069330565 0.1432644537825501
3600000000.0 -0.11945263593803342 -0.10059487110651698
3620000000.0 0.09106148008471113 -0.13721811820520066
3640000000.0 0.061058439099934164 0.15980011053238918
3660000000.0 -0.16679840111473526 -0.06880861905480704
3680000000.0 0.15882113846242474 -0.09836023677143295
3700000000.0 0.1564848624988838 0.10881797236969476
3720000000.0 0.016833338339611547 0.19404897098663826
3740000000.0 0.05743053587012032 0.18489020578312015
3760000000.0 -0.17587705340014773 0.067901390619712
3780000000.0 -0.0011882608966184976 -0.17817582826663353
3800000000.0 0.032162154785373175 0.16171747538969564
3820000000.0 0.08793705255628635 0.12454248604692593
3840000000.0 -0.12190882265745998 0.06906061852868117
3860000000.0 0.11715288534571129 0.07358271171310461
3880000000.0 -0.14615190292220012 -0.012025165003277917
3900000000.0 -0.11995693767792041 0.09968304929024374
3920000000.0 0.1662491013606481 -0.015441406178547196
3940000000.0 0.05793811739102383 0.16738481855991733
3960000000.0 0.18147822257057095 0.028346310288588233
3980000000.0 -0.15977532611698728 -0.0871025744665794
4000000000.0 -0.12442605344795596 0.11791417603560163
