! Created with skrf (http://scikit-rf.org).
# Hz S RI R 50.0 
!freq ReS11 ImS11
400000000.0 0.18737125968790724 0.8520409480117421
420000000.0 0.7007260195254409 0.49701703621803683
440000000.0 0.7912650748428607 -0.23392367416443238
460000000.0 0.13827805540787347 -0.776349478866403
480000000.0 0.5145785812703804 -0.4836991689170214
500000000.0 0.26653419466300515 -0.49465507114987906
520000000.0 0.3770496481616436 -0.3092599091269293
540000000.0 0.3673765535725558 0.2227064634818681
560000000.0 -0.2656092228951171 -0.23756791162403948
580000000.0 -0.3355402350133239 0.04154302358210811
600000000.0 0.32758045266681324 0.0599749602879832
620000000.0 -0.20626322417107265 -0.283070487397929
640000000.0 -0.37290752723332776 -0.090339861393897
660000000.0 -0.2941809707319013 0.2705293920459582
680000000.0 -0.20103615610664455 -0.3780809773628819
700000000.0 0.2819431617088554 0.3494378467449856
720000000.0 0.008668962254737816 -0.44945137088638015
740000000.0 0.4075992838113314 -0.16784545422366132
760000000.0 -0.39865145187179957 -0.1231677507372333
780000000.0 0.20115017859711604 -0.3289366644991536
800000000.0 0.11058720982839547 0.3320126820408235
820000000.0 0.1402354687902172 0.25072674230311526
840000000.0 0.1629386542262009 0.16480229816115335
860000000.0 0.05604281487723511 0.1902681064694423
880000000.0 -0.13503724524057528 -0.006044824679903634
900000000.0 -0.06362306885358039 -0.027098252018241672
920000000.0 4.607963941241221e-05 -0.03725314146337327
940000000.0 -0.015243540821907105 -0.02720141606592469
960000000.0 -0.03617264901673644 -0.020685772898067008
980000000.0 -0.049806544450907354 0.012165152623384688
1000000000.0 -0.05284373864575572 -0.01988127541583236
1020000000.0 -0.045358890443526284 -0.05477052859028071
1040000000.0 -0.04367583108372903 -0.07117364096426987
1060000000.0 0.09769756767608784 0.07463280651847021
1080000000.0 -0.02288844843002777 -0.13948032081598724
1100000000.0 -0.04196048457339965 -0.16267218068729417
1120000000.0 -0.19608501484322546 0.03099432344225073
1140000000.0 0.23561294480579276 -0.05987807970810289
1160000000.0 0.10019418234811973 -0.26902681796631095
1180000000.0 -0.26521176629186355 -0.19813916878569118
1200000000.0 -0.3591697372100321 -0.07346516257569087
1220000000.0 -0.055906337419232 -0.3928013964826056
1240000000.0 0.410259355489839 0.08462451803728695
1260000000.0 -0.43283864347540335 0.07433444381280813
1280000000.0 0.43488795582765716 -0.11035553283304407
1300000000.0 -0.43356253400842426 -0.10989886125912744
1320000000.0 -0.08240081066105376 0.426010530968133
1340000000.0 -0.36719709405244305 0.19947806902589538
1360000000.0 -0.13235650951101802 -0.38485022865281326
1380000000.0 0.27042206536242624 -0.303927851875927
1400000000.0 0.2588437606801215 -0.3004803910191337
1420000000.0 0.2525795978943421 -0.2941190805076244
1440000000.0 0.010406145661246567 -0.3740242984014713
1460000000.0 -0.34343531866860394 -0.09953581238363052
1480000000.0 0.18938290784905995 0.2799394948512681
1500000000.0 -0.2272235800648567 -0.21290584597449574
1520000000.0 0.06952729408910846 0.2768213538926594
1540000000.0 0.05669297009980365 0.24711024868928377
1560000000.0 0.212091208002011 0.01277758360345879
1580000000.0 0.11548864834297766 -0.13360714465166662
1600000000.0 0.06440510297336668 0.12724093031836217
1620000000.0 -0.10090196513419454 -0.0007731045917702162
1640000000.0 0.026944419456927517 0.06732480383140362
1660000000.0 0.04096389934208616 -0.020199784841317497
1680000000.0 0.01164835756283995 -0.011592992363102904
1700000000.0 -0.00028795295020184235 0.011716163725181897
1720000000.0 -0.028398696859002353 0.012309769475678328
1740000000.0 0.011769099303528697 0.049610978236160834
1760000000.0 -0.011483168776868866 -0.062347249508679585
1780000000.0 0.04524771191682747 0.06965104183476742
1800000000.0 0.03762258360575208 -0.10006454055167904
1820000000.0 0.12036041424813311 -0.006478643161481576
1840000000.0 -0.10094587149899424 0.10610522892082949
1860000000.0 -0.08230915863187273 -0.1521018634118046
1880000000.0 0.19661379407525023 -0.07953945922158727
1900000000.0 0.249356533912665 -0.06379692203786763
1920000000.0 -0.27568360813742593 -0.1281041273184208
1940000000.0 0.14558753568637361 0.31770659381604455
1960000000.0 -0.08674660697893549 -0.3771608206838472
1980000000.0 0.14348851055505596 0.3884030208414984
2000000000.0 0.09818360738621738 -0.42523722892614346
2020000000.0 -0.18154220210135327 0.41075605635010887
2040000000.0 0.45110754004115267 0.004618902711109629
2060000000.0 -0.23590654827520008 -0.3788597294337529
2080000000.0 -0.41308988198753466 0.12464488883541573
2100000000.0 -0.3212479381965706 0.26260454465568883
2120000000.0 -0.3814280944276333 0.11340189323062873
2140000000.0 -0.3667562931954427 -0.10912234434486333
2160000000.0 0.333955289875905 -0.15897910484643213
2180000000.0 0.3530686237653809 0.06913986978869845
2200000000.0 0.30716694905502323 0.17331375994919382
2220000000.0 0.3275700961134538 -0.13380370373836772
2240000000.0 -0.19697369593162586 -0.29157504101849446
2260000000.0 -0.3298112004401112 0.1344120612191642
2280000000.0 0.18580651266970744 0.30723265338716993
2300000000.0 0.24665238791078964 -0.2778531467042807
2320000000.0 -0.35944668768136445 -0.149088030132936
2340000000.0 -0.1625590598290911 0.38271455266541055
2360000000.0 0.4480476151762212 0.05566741149025843
2380000000.0 -0.3434556078674396 -0.36090815634453915
2400000000.0 0.17163974108090013 0.5219505150587679
2420000000.0 -0.30839803763204704 -0.5188582665515563
2440000000.0 0.6119132375928564 0.2335055210556492
2460000000.0 -0.666100447050066 0.2065119757318371
2480000000.0 0.4657180497045131 -0.5625687159252101
2500000000.0 -0.47778547422758094 0.5808519054742237
2520000000.0 0.5571219762635642 -0.5222621551183478
2540000000.0 -0.6941340174478302 0.3235069243144595
2560000000.0 0.7247999853623958 0.23185966253278356
2580000000.0 -0.30257180433659076 -0.6815649003063589
2600000000.0 -0.35230512775429135 0.630116508272822
2620000000.0 0.6892080761979466 -0.056168859074182766
2640000000.0 0.580680805132028 -0.3023559930889754
2660000000.0 -0.5277249441508276 -0.30881078069474593
2680000000.0 0.11167906220822066 0.5565113325016898
2700000000.0 0.21243262237081173 -0.4782467741528214
2720000000.0 -0.258121790628956 0.4007115162761987
2740000000.0 0.2710354021641672 -0.3365535461300653
2760000000.0 -0.11652609791217944 0.37238987965608167
2780000000.0 -0.16836002249208487 -0.3138598293121698
2800000000.0 0.2996852470449935 0.12390038666906511
2820000000.0 -0.29422137356915135 0.0649177171922235
2840000000.0 0.2750934981807789 -0.08360779711573124
2860000000.0 -0.2580686794014769 0.11735220696694317
2880000000.0 0.2762285126202742 -0.06621908761391436
2900000000.0 -0.257042349974342 -0.13405099478800173
2920000000.0 0.027058916123796923 0.30051627083781257
2940000000.0 0.15554974505247754 -0.27151233915537815
2960000000.0 -0.31393528132690923 -0.06224517919871762
2980000000.0 -0.2686324120307592 0.18536255324424486
3000000000.0 -0.2670083703337294 0.1909496092702802
3020000000.0 -0.31426308070447323 0.0861168853209496
3040000000.0 -0.029561828071691654 -0.31745734449451446
3060000000.0 0.2640046866973773 0.16474186215040718
3080000000.0 -0.24054308808142028 -0.18261170025714563
3100000000.0 0.1562004588111575 0.24730018634784198
3120000000.0 0.10478000331821746 -0.2622495271026881
3140000000.0 -0.19543701479654943 0.1918591730499129
3160000000.0 0.2539564242566805 -0.06850346395095672
3180000000.0 -0.004714615000911926 -0.25002753492266017
3200000000.0 0.19253806489431194 0.13399638037847209
3220000000.0 0.005923249668077059 0.2128418858459032
3240000000.0 -0.052540655506001496 0.17883492532213074
3260000000.0 -0.06817248768720856 0.1379167838701223
3280000000.0 0.07945663106390205 0.08548491878307415
3300000000.0 0.07628920584588339 0.025820413767665213
3320000000.0 -0.04487472498488475 -0.001652017003572821
3340000000.0 0.004862117299949965 -0.012546187534200344
3360000000.0 -0.0008281421966057044 0.011529809977775259
3380000000.0 -0.019162903374105266 -0.015013067372606246
3400000000.0 -0.02929098383740714 -0.00669028696145232
3420000000.0 0.008492457651067539 0.029969780511340784
3440000000.0 -0.023976204580321632 0.02156894776931173
3460000000.0 0.03389663703665948 0.02605842536181129
3480000000.0 0.02406547779222973 -0.05859827324102192
3500000000.0 -0.0007488324137085685 0.0872243861854906
3520000000.0 0.07892524383617795 0.07610224438102452
3540000000.0 0.07567109594917679 -0.09960596661275274
3560000000.0 -0.021278252586025753 -0.13380653937490128
3580000000.0 0.13170491235029416 0.05744073218191857
3600000000.0 -0.09564846825539926 0.1195696567674664
3620000000.0 0.014266908816785788 -0.1598928831930014
3640000000.0 -0.09357070179353565 0.1396826121810697
3660000000.0 0.009741768918826284 -0.1787969599355739
3680000000.0 0.15033695560546914 0.11262786137630305
3700000000.0 0.03995929138916928 0.18955094950559084
3720000000.0 -0.01485222131540091 0.19826622551014048
3740000000.0 0.15157416798725587 0.12847681346887108
3760000000.0 -0.048588862041493354 0.1864978190970474
3780000000.0 -0.1733938391385701 -0.04993890092627118
3800000000.0 0.1586179049949551 0.039980049081286655
3820000000.0 0.13786591865193484 0.05504839614546475
3840000000.0 -0.11048705713420726 -0.07969246089362841
3860000000.0 -0.13193803413656996 0.03415635535640626
3880000000.0 0.12633627097697847 -0.0795011258601176
3900000000.0 -0.09424930473383157 -0.13247003303745286
3920000000.0 0.172739823632512 -0.024812118271549752
3940000000.0 0.17918569338327203 0.035759035840860286
3960000000.0 0.02639585567993846 -0.18330271870652193
3980000000.0 -0.16426289604023936 -0.07416645171914653
4000000000.0 0.1159069604321013 0.11772615594219688
