! Created with skrf (http://scikit-rf.org).
# Hz S RI R 50.0 
!freq ReS11 ImS11
400000000.0 -0.08134321686993796 0.8672500056519593
420000000.0 0.3727905229935965 0.7774999273684573
440000000.0 0.8224698928540396 -0.11517152783953187
460000000.0 0.3096816391543829 -0.72932970848058
480000000.0 0.6725235969462147 -0.2435150236521734
500000000.0 -0.0609763911679293 -0.569847840659885
520000000.0 -0.17461095771253854 -0.459809650378026
540000000.0 0.3432979304472172 -0.2659548223637005
560000000.0 -0.3130227099558681 0.17402156086883966
580000000.0 0.02371221782491072 0.3388389760011001
600000000.0 0.26519068234831944 -0.2097264574721059
620000000.0 -0.3316890416824166 0.1327441558053113
640000000.0 0.0738953994158072 0.38212079465741844
660000000.0 0.39136679165732025 -0.0849544869574875
680000000.0 -0.027844322658260173 0.41919832649079314
700000000.0 0.18790921856627257 -0.3898987350002631
720000000.0 -0.22901167647221624 -0.359660512069586
740000000.0 0.40450216375698955 0.11000875028182296
760000000.0 0.10141458439782822 -0.38890514869621495
780000000.0 0.11858535109778698 0.3527125795948114
800000000.0 0.09841297677327344 -0.329448789810993
820000000.0 0.2926970580209113 -0.037373376408273866
840000000.0 -0.04443087808556683 -0.24367105543862938
860000000.0 0.1818880251279725 -0.1136714949317406
880000000.0 -0.04867061532006406 0.1506771828507427
900000000.0 -0.06021629628439615 0.07198071437636154
920000000.0 -0.0629713928947956 0.004427863082374623
940000000.0 0.030500521155426303 0.03680303101416776
960000000.0 0.02296643550250002 -0.04841998712449048
980000000.0 0.05666795871550381 0.043283419019904734
1000000000.0 0.0026026768094139607 -0.07990750890722116
1020000000.0 -0.022102722161609023 0.09673696513620457
1040000000.0 0.1079822258497577 0.02198467970256617
1060000000.0 -0.06606609395947274 0.12990103154809154
1080000000.0 -0.1534558162036734 -0.042596920997617395
1100000000.0 -0.13990266846916274 0.11424090338904533
1120000000.0 0.1540309425324531 0.13099032959677367
1140000000.0 0.20867792298333915 -0.10513752556571193
1160000000.0 0.2677446265920919 -0.03518831426309659
1180000000.0 0.25504698286232186 0.17078664446324918
1200000000.0 -0.09585466746619231 0.3258159974919696
1220000000.0 0.06432872730925131 -0.36066829809217854
1240000000.0 -0.18420509538690225 0.34944276787855705
1260000000.0 0.41129060928045164 -0.09986329221452259
1280000000.0 -0.4416923688694615 0.04771506091790406
1300000000.0 0.433789827687907 0.14358802397835504
1320000000.0 -0.17261061860303 -0.4190582322013102
1340000000.0 -0.38280686664578784 -0.2251333269881008
1360000000.0 -0.3195716189991842 -0.29325406762871936
1380000000.0 -0.35688216901754455 -0.23621378440870122
1400000000.0 -0.3981896272675667 0.11418501096239295
1420000000.0 0.004463487647291073 0.3973838537053314
1440000000.0 0.3238959033581357 0.18026449825318042
1460000000.0 0.20930968192421215 -0.27298579480967133
1480000000.0 -0.15376360500827552 -0.2725710903294137
1500000000.0 -0.2725832488366868 -0.07601706954149905
1520000000.0 -0.25511099772368107 -0.012229504554495509
1540000000.0 0.21074780285678013 -0.0885271639029581
1560000000.0 -0.02253785429168478 0.19547807277421
1580000000.0 -0.14709314413026123 -0.09208845840889182
1600000000.0 -0.04807586831492267 0.1381235354741792
1620000000.0 0.1156864319427643 0.026324173630105686
1640000000.0 0.08142948961822044 -0.050204948952943466
1660000000.0 -0.06732785701422876 0.021762165247469965
1680000000.0 0.014681217641603775 0.04510642237910266
1700000000.0 -0.020378024894409368 0.019742238978876857
1720000000.0 -0.004372409754157676 0.011582718648265811
1740000000.0 -0.007823707846985734 -0.019883840596571563
1760000000.0 0.01696030655413393 -0.03933591402201584
1780000000.0 -0.05402002717679432 0.05403504540022184
1800000000.0 0.05823992842270161 -0.09731344485197038
1820000000.0 0.09710251808997757 -0.10934449431742614
1840000000.0 0.10617777532158122 0.14446397215861106
1860000000.0 -0.20914681463948348 -0.0180480013551938
1880000000.0 0.06737703376464835 0.23045883199449166
1900000000.0 0.22300734559538993 -0.1591070733668495
1920000000.0 -0.18269210652935702 -0.2438367943560786
1940000000.0 -0.3273727824391847 0.07930942312656981
1960000000.0 -0.01466165875739878 0.3669276737316357
1980000000.0 0.3899266817720988 -0.046073338918893876
2000000000.0 0.09381081337311563 -0.4037075551985512
2020000000.0 -0.4293243524145227 0.032611992958656265
2040000000.0 -0.07025005625263972 0.43205459889597086
2060000000.0 0.4311208289742635 0.08301195741809012
2080000000.0 0.3176744673741196 -0.2968314424714187
2100000000.0 0.08619342045769685 -0.4193773215208853
2120000000.0 -0.1588045802909296 -0.3876688343053365
2140000000.0 -0.3623652537989835 -0.1871606500771771
2160000000.0 -0.13102248549424414 -0.3706965264308058
2180000000.0 -0.34799674141117287 -0.14226077632540016
2200000000.0 -0.334820933763032 0.13550552029978932
2220000000.0 -0.2361452824881494 0.2536214247708658
2240000000.0 -0.10583317310668455 0.32398198416534535
2260000000.0 -0.03661009786566745 0.3391257475835342
2280000000.0 0.018354377658505092 0.34569938419249296
2300000000.0 0.35503637766635965 0.07516300566867232
2320000000.0 0.03784757014757178 -0.38680785854550154
2340000000.0 -0.39423578162614403 0.15063416413742536
2360000000.0 0.46250425147883245 0.038887032890990644
2380000000.0 -0.5099840099367482 -0.02436101304565115
2400000000.0 0.5596429223718083 -0.005088778715805028
2420000000.0 -0.5600129785163946 0.24365630407324773
2440000000.0 0.32069996301755405 -0.5751349471017271
2460000000.0 0.10800207110200571 0.6900214100780911
2480000000.0 -0.4270562904843897 -0.5899021794796805
2500000000.0 0.4589684433172729 0.5908416386832853
2520000000.0 -0.2777757069392119 -0.7056019974821242
2540000000.0 -0.0752282762589842 0.7561554838426752
2560000000.0 0.5489728987817385 -0.5158029941669524
2580000000.0 -0.696967495951883 -0.24480312033714038
2600000000.0 0.2556883092029583 0.6671465516801056
2620000000.0 0.36507584061671955 -0.577702443614678
2640000000.0 0.03193205863361881 -0.6450505212660326
2660000000.0 -0.48781304861290503 0.35132402652575495
2680000000.0 0.5302453240665838 0.15544351443733648
2700000000.0 -0.16127969126240527 -0.47924023661025195
2720000000.0 -0.2844508416130247 0.35889352057125
2740000000.0 0.4129671496594349 0.05377401704424021
2760000000.0 -0.2969033197720226 -0.2372647199211825
2780000000.0 0.3155741639381226 0.1569413288017109
2800000000.0 -0.3189917115692786 0.08026948848922054
2820000000.0 0.02380095186931724 -0.3116629729680099
2840000000.0 0.2927711884903784 0.06999719480522003
2860000000.0 -0.15003388680591398 0.2554189354358451
2880000000.0 -0.1982203089631317 -0.21630008988060695
2900000000.0 0.26020006954923924 0.13202459543800618
2920000000.0 -0.001468737917141276 -0.29416632505768336
2940000000.0 -0.2938419311670916 0.05416540597933864
2960000000.0 -0.20870807198922578 0.21729046728241047
2980000000.0 -0.2797772640786554 0.12167244243850363
3000000000.0 -0.25427020662447924 -0.17778805209045062
3020000000.0 0.03396632837508003 -0.3112752061868009
3040000000.0 0.2759719764329944 0.1434728934590868
3060000000.0 -0.30271148411409377 0.06456159693514589
3080000000.0 0.24830368744709078 -0.17756884707450227
3100000000.0 -0.022367923004850444 0.29910854033825324
3120000000.0 -0.031394661302237434 -0.2884888064132458
3140000000.0 0.15799459128977372 0.23240905193017458
3160000000.0 -0.2659998770550608 -0.028632835201685178
3180000000.0 0.17678447689824622 0.1780976702366614
3200000000.0 -0.14014682958439734 0.17907311704576587
3220000000.0 -0.17398121821035453 -0.09923575643589036
3240000000.0 0.07972067900588763 -0.14868383504408567
3260000000.0 -0.08362210311081689 0.1052386922671233
3280000000.0 0.10256347453437163 0.0074369939795823365
3300000000.0 0.06275375796943675 -0.04246689549955249
3320000000.0 0.04005358797175976 -0.0317573299417501
3340000000.0 0.02267443834748049 0.020441449784985147
3360000000.0 0.013128857952686661 0.0027027383663975027
3380000000.0 0.002885940491752009 0.003273075333157592
3400000000.0 0.0006690575835611606 -0.01951900160779667
3420000000.0 -0.004320516345135625 0.03556193181812448
3440000000.0 -0.030693784366753574 0.03950652183987511
3460000000.0 -0.05582742142185205 -0.015869175476053772
3480000000.0 -0.054345803789890866 0.04131672380096549
3500000000.0 -0.030012718904903136 0.07221817491350316
3520000000.0 0.019566126802143483 0.08836630758905759
3540000000.0 0.09063618538482504 -0.05133786111140522
3560000000.0 -0.11700264498228376 -0.015293058489488864
3580000000.0 0.08211635563511109 0.1062298954079214
3600000000.0 -0.13591603913032987 0.07446571261450498
3620000000.0 -0.12987725566836655 0.10997370165912457
3640000000.0 -0.1680149129154379 0.06960695745325708
3660000000.0 -0.13660737351103638 0.13290979274401876
3680000000.0 -0.1781671059627823 0.07412723078020671
3700000000.0 -0.18541747711295364 -0.047376049496790626
3720000000.0 -0.014107990141120826 -0.18844721208960807
3740000000.0 0.16359472047458204 -0.08234430347097382
3760000000.0 -0.1768651726231195 -0.004842100373661104
3780000000.0 0.16166732919250293 0.05067252310307897
3800000000.0 0.02686980035930941 -0.1589934458857525
3820000000.0 -0.11849510319681658 -0.0985681930694158
3840000000.0 0.011706563396411027 -0.14759946739668311
3860000000.0 0.13896788510741503 0.05111216267620867
3880000000.0 0.15378192776925886 0.0024684290931594427
3900000000.0 0.015459485302899839 -0.15536652538678167
3920000000.0 -0.13254709309815685 0.09125670782414
3940000000.0 0.08860172263418925 -0.14072986037676044
3960000000.0 0.17013691712877516 0.02119096022218104
3980000000.0 0.13599026340915354 -0.10528793918321223
4000000000.0 0.1513485938212101 -0.06811983417757518
