! Created with skrf (http://scikit-rf.org).
# Hz S RI R 50.0 
!freq ReS11 ImS11
400000000.0 -0.07324148013434845 0.8668276169977794
420000000.0 0.39866123576212403 0.7640186514857905
440000000.0 0.8126606893533825 -0.16876376454670544
460000000.0 0.282378676307208 -0.7404025875526347
480000000.0 0.6508859443516198 -0.2971941705799068
500000000.0 -0.06019073096376761 -0.5696380779716878
520000000.0 -0.15720508163631275 -0.4671901065943329
540000000.0 0.33126342900995437 -0.2796116659793146
560000000.0 -0.32833238210664867 0.14435360432640473
580000000.0 0.03718860563450881 0.33720146464392087
600000000.0 0.29789177921336996 -0.1570923969380726
620000000.0 -0.33015375698184285 0.1355223423980907
640000000.0 0.17158878968125343 0.3480820036167692
660000000.0 0.3950098168142477 -0.06451874322681035
680000000.0 -0.016881045182397095 0.4194931379948301
700000000.0 0.2512555662374479 -0.3526429467036566
720000000.0 -0.25127824038578983 -0.3448302131553788
740000000.0 0.39458157779360936 0.1419952900658429
760000000.0 0.10514178784064715 -0.38909789309301646
780000000.0 0.07440936908299318 0.3648968844359719
800000000.0 0.13377831982336638 -0.317307349944609
820000000.0 0.286894606654104 -0.06483964267681805
840000000.0 -0.01471912530294163 -0.24720660628101354
860000000.0 0.14677357734714608 -0.1570791289311106
880000000.0 -0.08097813008243637 0.1368445687516707
900000000.0 -0.03710717556556562 0.08678843498238792
920000000.0 -0.034398152472447985 0.05264430013118246
940000000.0 0.004289969980022318 0.04811804652723486
960000000.0 0.0030129678999826722 -0.053734835506796634
980000000.0 0.03814233330645498 0.05945579872901475
1000000000.0 0.03920140614305502 -0.07045233733170621
1020000000.0 -0.00906926039003278 0.09748010265138644
1040000000.0 0.10719868522424596 0.027166299670071763
1060000000.0 -0.03774436333445368 0.14018523238219835
1080000000.0 -0.14285289423220165 -0.07079128618038409
1100000000.0 -0.08981423835253724 0.15690433615730456
1120000000.0 0.18475445012847522 0.08261462715936692
1140000000.0 0.21098030353623592 -0.10167535381167918
1160000000.0 0.25779515101312805 -0.082930808964863
1180000000.0 0.23936755496281625 0.19428856486639032
1200000000.0 -0.055722694055987586 0.33461657318678634
1220000000.0 0.041075664652808284 -0.36411085994558956
1240000000.0 -0.19300802594720884 0.34403447576023943
1260000000.0 0.41362374089862475 -0.0875237877838854
1280000000.0 -0.44101544052156266 0.05206760853874694
1300000000.0 0.4110621069128405 0.2004754755245021
1320000000.0 -0.1767942921721851 -0.41768159914513453
1340000000.0 -0.35472613645312034 -0.26755619802163205
1360000000.0 -0.35473575837192833 -0.24980607902670826
1380000000.0 -0.3534256618879802 -0.24229433533564607
1400000000.0 -0.3791725150559723 0.16691319964342533
1420000000.0 0.034309026858127645 0.39574875657257197
1440000000.0 0.3383606817457638 0.1534545103166607
1460000000.0 0.22170173362815368 -0.2634214608138
1480000000.0 -0.16758009911077962 -0.26578853494740506
1500000000.0 -0.2614208396578646 -0.10950305958414337
1520000000.0 -0.25604481411824126 0.00447306430459706
1540000000.0 0.22816010586663427 -0.013541763430501582
1560000000.0 -0.059060535153781395 0.18768392575183926
1580000000.0 -0.13652450303919186 -0.10540486656073898
1600000000.0 -0.10429565687175017 0.10249135447722049
1620000000.0 0.09775213697467895 0.06550299008352115
1640000000.0 0.08569947073023014 -0.04021681679569868
1660000000.0 -0.07008216903563697 0.00031819247201018725
1680000000.0 0.02427939703998941 0.040095726864331264
1700000000.0 0.019788913609902675 0.020506415065103773
1720000000.0 -0.0031788239275196907 0.013125986691402443
1740000000.0 0.013556523865251097 0.01593433886978666
1760000000.0 0.040424850035598175 0.012398229103233077
1780000000.0 -0.03770038735265225 0.06542548481273969
1800000000.0 0.025329654685537162 -0.11045113506227114
1820000000.0 0.08028327347119651 -0.12180775163366961
1840000000.0 0.13367427920529737 0.11895205841886576
1860000000.0 -0.20967957758799075 -0.006764750692399071
1880000000.0 0.10032524816232444 0.2187451375590067
1900000000.0 0.20928075700170676 -0.1766947703671108
1920000000.0 -0.2138391532282252 -0.21817995062590537
1940000000.0 -0.3293679587332097 0.07182108087315106
1960000000.0 -0.03293218506415115 0.3665806376369248
1980000000.0 0.39199000387078997 -0.02438942469366629
2000000000.0 0.09970671045334699 -0.40304932432973845
2020000000.0 -0.4294006641316866 -0.03456554265451076
2040000000.0 -0.0861966100917069 0.42901410483530084
2060000000.0 0.4247116287946511 0.10841867472288248
2080000000.0 0.3507272854448282 -0.2556956313894996
2100000000.0 0.11802908772267998 -0.41063620677361495
2120000000.0 -0.18920341764736706 -0.372775365364118
2140000000.0 -0.3684563699507156 -0.17295485066204327
2160000000.0 -0.18591610272259662 -0.345634134789373
2180000000.0 -0.3577780423748901 -0.11157727691704893
2200000000.0 -0.3261045567630974 0.15201954433525086
2220000000.0 -0.19601986128543716 0.2847140460649322
2240000000.0 -0.12077701266922287 0.31809614990859025
2260000000.0 -0.013799791905759574 0.34019098235046485
2280000000.0 0.05670587380586042 0.3413946137051672
2300000000.0 0.3606370617791282 0.0385732060655528
2320000000.0 0.05285988055113064 -0.38561227388235414
2340000000.0 -0.39338798755858606 0.15443555433246733
2360000000.0 0.46311870028003665 0.036702789235747796
2380000000.0 -0.51044243005156 -0.018284569519709384
2400000000.0 0.5598953157088308 0.022249080894823393
2420000000.0 -0.5527254065476035 0.2594139118626786
2440000000.0 0.32437641241293885 -0.5730482646609505
2460000000.0 0.10497668974497883 0.6898662014858158
2480000000.0 -0.43043785597686784 -0.5865886505995938
2500000000.0 0.4738293766365939 0.5780922276525984
2520000000.0 -0.27303668298677786 -0.7065808881459352
2540000000.0 -0.03585746394086893 0.7580307427159871
2560000000.0 0.5437823066474605 -0.5207337616425499
2580000000.0 -0.722794888923194 -0.1482667270801734
2600000000.0 0.32637567849827925 0.6347716330361084
2620000000.0 0.32450945826326205 -0.6008834639946495
2640000000.0 -0.05570903536505697 -0.6430654425308368
2660000000.0 -0.45489549732028184 0.39209060756365605
2680000000.0 0.5410233734012558 0.1127863633377543
2700000000.0 -0.1665052625519029 -0.4768518626818906
2720000000.0 -0.2834883238498634 0.35854763933627276
2740000000.0 0.4155310288992994 0.005068856360897867
2760000000.0 -0.3039543293104314 -0.22709277111197249
2780000000.0 0.33472224415238316 0.10908005714369018
2800000000.0 -0.3221916600634581 0.06646649990315806
2820000000.0 0.004290671054112801 -0.3123749316017506
2840000000.0 0.29611628360063663 0.053349055470378465
2860000000.0 -0.09425793510195371 0.28088120811221556
2880000000.0 -0.21726083897117823 -0.1973546638896195
2900000000.0 0.2512029078894324 0.14953481402433416
2920000000.0 0.008779958483397413 -0.2942632818799596
2940000000.0 -0.2981978091712978 0.025337219003783825
2960000000.0 -0.21498443160946282 0.20987893404912455
2980000000.0 -0.2927883493193776 0.08655741329199775
3000000000.0 -0.2595711073308167 -0.17037217979739597
3020000000.0 0.056031932742621804 -0.30770810160783163
3040000000.0 0.237747370540811 0.19971800456950123
3060000000.0 -0.2972080503465294 0.08496935138116057
3080000000.0 0.21754571647450865 -0.21486792058671447
3100000000.0 -0.05596599404261868 0.2947178604724031
3120000000.0 -0.03931449413147449 -0.2876643483341536
3140000000.0 0.1814365444508976 0.2158274414166961
3160000000.0 -0.2649294524376854 -0.0394478503201811
3180000000.0 0.1852839412831836 0.1694360705632239
3200000000.0 -0.13441583823969575 0.18363811735340452
3220000000.0 -0.1928192897808306 -0.053892486374887236
3240000000.0 0.06657118321933951 -0.15527939305939298
3260000000.0 -0.04818974933492023 0.12612830543103348
3280000000.0 0.10233048830705688 -0.012395709068809225
3300000000.0 0.04980714806732742 -0.0574920616147303
3320000000.0 0.050763611528931954 -0.004112949089349157
3340000000.0 0.030239058375594687 0.0017090489075681477
3360000000.0 0.009530257853338144 -0.009340574575625739
3380000000.0 0.0027274594311272682 0.003958566709716858
3400000000.0 0.009830943328678897 -0.01631807430421666
3420000000.0 -0.027285060518858355 0.02211999734897628
3440000000.0 -0.0004848219091865704 0.04881669921354715
3460000000.0 -0.04487223540514736 -0.035851639322336856
3480000000.0 -0.06709265237090858 9.071642331647682e-05
3500000000.0 -0.03712132159745673 0.06847924151493769
3520000000.0 -0.017703286719819942 0.08858350760481878
3540000000.0 0.07210090511396344 -0.07553751643870135
3560000000.0 -0.11763721070917915 -0.0039114913629618745
3580000000.0 0.09798795831383494 0.09146996977426572
3600000000.0 -0.13290362216814045 0.0786383852959627
3620000000.0 -0.12575062945834656 0.11452958231747173
3640000000.0 -0.16184999432265945 0.08264452473526235
3660000000.0 -0.15183172229999767 0.11473809780220262
3680000000.0 -0.18540327673851517 0.05280467525708475
3700000000.0 -0.186939370897444 -0.038496587704432775
3720000000.0 -0.03492855029467643 -0.18508867101556245
3740000000.0 0.15919562546738908 -0.09181412325780253
3760000000.0 -0.1777555252651185 0.0030251344340397226
3780000000.0 0.1583252705868144 0.06269483809275063
3800000000.0 0.03939623771833466 -0.15757995510897968
3820000000.0 -0.11589162976403146 -0.10251200178322892
3840000000.0 0.024147375817913465 -0.14646412061219083
3860000000.0 0.12095287489970116 0.08634931791638935
3880000000.0 0.15339651045598413 0.012271370891916692
3900000000.0 0.011919380260330353 -0.15645454955115914
3920000000.0 -0.14850613836618218 0.06453492517871026
3940000000.0 0.12034112250314301 -0.11482317440274316
3960000000.0 0.1515599443733342 0.0814950059161581
3980000000.0 0.15074407074195617 -0.08472619594163694
4000000000.0 0.15268216218161487 -0.06596317229595682
