! Created with skrf (http://scikit-rf.org).
# Hz S RI R 50.0 
!freq ReS11 ImS11
400000000.0 0.21080471977923596 0.846405307207426
420000000.0 0.6108962520126829 0.6050610477477738
440000000.0 0.8154160194467307 -0.134350324770021
460000000.0 0.13310397928301393 -0.7785099329231648
480000000.0 0.5321671606374307 -0.4638166939261591
500000000.0 0.4750365051412014 -0.29845428579132754
520000000.0 0.22522164908865883 -0.43442111402999645
540000000.0 0.39553816900408284 0.1613256295044485
560000000.0 -0.2987162726038348 -0.1965352335180888
580000000.0 -0.3272876559903429 0.08239821561557588
600000000.0 0.32987171419163724 -0.05113512041569944
620000000.0 -0.10582156885281757 -0.3332414722710403
640000000.0 -0.36367783984077645 -0.12125727882899669
660000000.0 -0.30469058075640737 0.2588872984327436
680000000.0 -0.14286645854692714 -0.4027657791010016
700000000.0 0.2610349505588038 0.3650460274487321
720000000.0 0.12294724636345238 -0.4320109293950358
740000000.0 0.4104389700127134 -0.15740383082542056
760000000.0 -0.40046315229340834 -0.11835294519190888
780000000.0 0.19779728879268163 -0.3307441835104495
800000000.0 0.11198199987687636 0.3320403407343456
820000000.0 0.13070632193805284 0.2569352606717293
840000000.0 0.1843374193641159 0.14339228833585796
860000000.0 0.07585026683357136 0.1839473165730756
880000000.0 -0.1337438134246306 0.024541292747025337
900000000.0 -0.06398529339622758 -0.028761066813091433
920000000.0 0.0068097180644129205 -0.03753049158801811
940000000.0 0.02823062099122075 -0.011951528889966095
960000000.0 -0.03786461695294435 -0.018716449317921716
980000000.0 -0.027229821869685044 0.043584977686073396
1000000000.0 -0.05494417931578509 -0.017547655032636257
1020000000.0 -0.05691602907875546 -0.0441187374037642
1040000000.0 -0.07220334039550125 -0.042642529268982106
1060000000.0 0.1057532455798873 0.06352879630363857
1080000000.0 -0.07252008841124452 -0.12023409237445905
1100000000.0 -0.06385779011115698 -0.15411739340790012
1120000000.0 -0.19243924342289068 0.046213642027341836
1140000000.0 0.23939207991320346 -0.03563992535692119
1160000000.0 0.09835363556259673 -0.26868337408251597
1180000000.0 -0.2594767044809458 -0.2050019987222938
1200000000.0 -0.3529800443756228 -0.09959576038395565
1220000000.0 -0.003499150751697559 -0.39702046284397063
1240000000.0 0.401711590746633 0.11816978157579347
1260000000.0 -0.4375747236006016 0.04358032614010933
1280000000.0 0.4380187170343791 -0.09833758596825919
1300000000.0 -0.4289013117100687 -0.12916025298091488
1320000000.0 -0.08864029949309625 0.4256139774831655
1340000000.0 -0.34317087158728793 0.23954803324656979
1360000000.0 -0.1632935061656699 -0.37306082370147275
1380000000.0 0.22007112718290728 -0.3418775002491096
1400000000.0 0.265720762405301 -0.29424221605413287
1420000000.0 0.20827109975577185 -0.3264096207818291
1440000000.0 0.006459078153890707 -0.373477673315309
1460000000.0 -0.34000306616877984 -0.11005850893044324
1480000000.0 0.11272906132183329 0.3188816278914478
1500000000.0 -0.20532786164991879 -0.2348117037743422
1520000000.0 0.06214607666954954 0.2786977422783307
1540000000.0 0.04026356805737166 0.25090940259845324
1560000000.0 0.19992989627886076 0.07532090839078545
1580000000.0 0.12740682033513923 -0.1247547869833399
1600000000.0 0.024052978513249515 0.14226463277210188
1620000000.0 -0.10115518892308466 0.014308325669024154
1640000000.0 0.03795750091767422 0.06323977615589421
1660000000.0 0.04641695805729388 0.0084521618934761
1680000000.0 0.011659355667829496 0.011453573391781246
1700000000.0 0.0038670608185923596 0.011268522082438504
1720000000.0 -0.029124816316012284 -0.012431985628532712
1740000000.0 -0.043653539044927116 0.02724372634308513
1760000000.0 0.04312630150802343 -0.04830202178780096
1780000000.0 0.008588791707700534 0.08307736556972195
1800000000.0 0.04269403800506798 -0.09838605212314572
1820000000.0 0.1198895839596131 -0.020793959648467048
1840000000.0 -0.08388149515672597 0.12104888742964247
1860000000.0 -0.13122376400960373 -0.11307921889682956
1880000000.0 0.15252901391676155 -0.14556667871015985
1900000000.0 0.2280195212929488 -0.11639353864954056
1920000000.0 -0.29078217390096267 -0.08357205194434178
1940000000.0 0.14572725873366263 0.3166534938107387
1960000000.0 -0.09453503896381624 -0.37445623831605646
1980000000.0 0.1482017663947481 0.38644926683296116
2000000000.0 0.12855846700686133 -0.41724130122639425
2020000000.0 -0.1974240364899489 0.40397441681293994
2040000000.0 0.4497687632980601 0.04366074602347287
2060000000.0 -0.23686538700040816 -0.3795404933004096
2080000000.0 -0.40283476049458283 0.1570424008585529
2100000000.0 -0.29491943893653166 0.2935049583607352
2120000000.0 -0.37474481572711354 0.13623134499425082
2140000000.0 -0.37448038119361915 -0.08012768147206324
2160000000.0 0.30822727245752823 -0.20456352931973884
2180000000.0 0.35958004712411923 0.021752477422744207
2200000000.0 0.3376622908867792 0.10159210890193496
2220000000.0 0.3118811142463052 -0.16583427430770117
2240000000.0 -0.19844092691159793 -0.29111552531004137
2260000000.0 -0.31495586205081866 0.1660223833094085
2280000000.0 0.20801263872520687 0.2926384733856524
2300000000.0 0.2177182654136325 -0.3009671680943744
2320000000.0 -0.38392973870184216 -0.0675862925367735
2340000000.0 -0.08745439950255851 0.4070679598196516
2360000000.0 0.44928780842947197 -0.05073462200307398
2380000000.0 -0.4213943350655283 -0.2668369589535534
2400000000.0 0.2886922797432318 0.4680620338471208
2420000000.0 -0.4100362670907889 -0.4433027479742917
2440000000.0 0.6414540851086376 0.1320023455264099
2460000000.0 -0.6244775254882645 0.3097038935350769
2480000000.0 0.3740558777947064 -0.6261682045053324
2500000000.0 -0.3681185225981972 0.6548244861614674
2520000000.0 0.45124546045519975 -0.6145341830140002
2540000000.0 -0.6365816038329546 0.4237394917402146
2560000000.0 0.7549290169546565 0.08691514927719249
2580000000.0 -0.3847016591975093 -0.6373707473873972
2600000000.0 -0.25584613701565756 0.6729286393978058
2620000000.0 0.6732785594267247 -0.15012237121414632
2640000000.0 0.5168804501637674 -0.3991752770789337
2660000000.0 -0.5749664628157569 -0.20367439044558722
2680000000.0 0.16681712884955524 0.5409551149723753
2700000000.0 0.16950934653662342 -0.49371580962082223
2720000000.0 -0.2637472809566589 0.3957344851880435
2740000000.0 0.21957928423366685 -0.3711032794049115
2760000000.0 -0.11232043735322751 0.37315291170745174
2780000000.0 -0.1853336162921895 -0.30343917461650266
2800000000.0 0.30874029620548676 0.09807131999684808
2820000000.0 -0.28805766865738297 0.08832437178595721
2840000000.0 0.2688673883738626 -0.10065870314266023
2860000000.0 -0.2658453416325765 0.09622958306316624
2880000000.0 0.27207887225242267 -0.07874126019461272
2900000000.0 -0.2674502262317836 -0.10813263698366139
2920000000.0 0.06594080441735604 0.2926646919178052
2940000000.0 0.18388149172593132 -0.2523687105487713
2960000000.0 -0.3014019157620401 -0.10491333648175832
2980000000.0 -0.29661677120569674 0.133100622389508
3000000000.0 -0.2735329316487644 0.18236873885160249
3020000000.0 -0.32355495385451866 0.04206524802066133
3040000000.0 -0.05704709455748065 -0.31505193737750903
3060000000.0 0.24642951168770652 0.19115726875538736
3080000000.0 -0.2042497139522839 -0.2218188885772776
3100000000.0 0.11815673657042076 0.26798744187174184
3120000000.0 0.08706244865978653 -0.2694602969574892
3140000000.0 -0.22051600892987538 0.16047760686833606
3160000000.0 0.2604677422810289 -0.018526672044466647
3180000000.0 0.029461939084394578 -0.24741133634168588
3200000000.0 0.17054849104396047 0.15900186832759844
3220000000.0 -0.050968773035849846 0.2052271339374689
3240000000.0 -0.09569556753766927 0.15848069065856907
3260000000.0 -0.09962485368024337 0.11555582058192637
3280000000.0 0.05866485406121707 0.10052442219440302
3300000000.0 0.08035361826146514 0.006552181843136786
3320000000.0 -0.036000271754208654 0.02626521390970491
3340000000.0 0.004988653830157218 0.013332663972766313
3360000000.0 -0.010800276289284389 -0.005540345736991195
3380000000.0 0.003076264299924006 0.024448471696131284
3400000000.0 0.022732343852159848 0.01997445305309304
3420000000.0 -0.0163781997886203 -0.026677610193478234
3440000000.0 0.007984427138028967 0.031730934210226956
3460000000.0 0.02378394129428477 0.0345174801913944
3480000000.0 0.05958029686457008 -0.01880388938163239
3500000000.0 -0.053449104748506886 0.06787532112374563
3520000000.0 -0.0043351309075450725 0.10940426522711146
3540000000.0 0.1187011695802481 -0.04088270881229346
3560000000.0 0.08224415111942204 -0.10840453196902283
3580000000.0 0.10775671691910414 0.09520305049415617
3600000000.0 -0.14071057473709553 0.06089936762884797
3620000000.0 0.025060538113855963 -0.1580148908821246
3640000000.0 -0.07626311703403792 0.14885179175035346
3660000000.0 -0.02833823783939738 -0.17613636866516139
3680000000.0 0.1664200014042592 0.08646537918452489
3700000000.0 0.03970378267334828 0.18905545056757908
3720000000.0 -0.009522226374109335 0.19920571046928626
3740000000.0 0.13083570010499695 0.14826123384570078
3760000000.0 -0.05123501697571343 0.18525996489181135
3780000000.0 -0.18012173360220043 -0.004588713291474475
3800000000.0 0.16255203500681242 -0.020892605264821815
3820000000.0 0.1489570545569664 0.00989524357115302
3840000000.0 -0.1363152859634181 0.004993350813264253
3860000000.0 -0.09695280655505338 0.09530054777488055
3880000000.0 0.0767946976781115 -0.12715783692845856
3900000000.0 -0.14396188273956673 -0.0744564108423874
3920000000.0 0.1688491195745401 -0.04319328216852271
3940000000.0 0.1818435156711712 0.016947518478210223
3960000000.0 0.045117971367428567 -0.1823795698005835
3980000000.0 -0.13065775068906513 0.12820755456131777
4000000000.0 -0.023714456884413714 0.1677279334851478
