! Created with skrf (http://scikit-rf.org).
# Hz S RI R 50.0 
!freq ReS11 ImS11
400000000.0 -0.7928978363563528 0.3400667069116398
420000000.0 0.14654904737770205 0.8527236456335767
440000000.0 0.8198070991538926 -0.17584346497802572
460000000.0 0.32807885550604854 -0.7171892291640373
480000000.0 0.5700862969500381 -0.44651928032394234
500000000.0 -0.462925082469629 -0.3217511833057342
520000000.0 -0.43554743274214924 -0.2204807273785827
540000000.0 0.06782805149536913 -0.40859515527451284
560000000.0 -0.36121076546964065 -0.06306941325229376
580000000.0 0.1578160008368222 -0.2786299579965046
600000000.0 -0.0033932625725058905 -0.32841009455468156
620000000.0 0.28875728463625433 -0.16279716540783953
640000000.0 -0.34832151909966447 -0.018389810709182115
660000000.0 -0.28719660821056 0.25242005762185094
680000000.0 0.15694784541658763 -0.37312788639340394
700000000.0 -0.4259625652817361 0.10716353036740187
720000000.0 0.0061199003124114935 0.44258288475535806
740000000.0 -0.3878171762206362 0.2403391380670448
760000000.0 -0.16700792550049467 -0.4016967049552141
780000000.0 0.40026387672556407 -0.0013023895204948039
800000000.0 0.17885981446281227 0.31517477898573965
820000000.0 0.05336029209293353 0.29356160994749303
840000000.0 -0.052255217956243584 -0.24091054400568654
860000000.0 0.1819433800112747 -0.06550128820721494
880000000.0 -0.03352060113902507 -0.14483564442117172
900000000.0 0.024108091472772118 0.06390009390191878
920000000.0 -0.029537404053038615 0.019762551350262236
940000000.0 -0.004328035873066645 0.04032843291573458
960000000.0 -0.045045403962351134 -0.02479828046152004
980000000.0 0.03371351449721102 0.04446268237051621
1000000000.0 -0.061900803763629955 0.012481221743314888
1020000000.0 -0.01997524915113373 -0.06726182636258578
1040000000.0 0.001324957152971395 0.08098471086078408
1060000000.0 0.07009240048652025 0.09159668983504293
1080000000.0 0.13281726103038222 0.03815324654161896
1100000000.0 0.09488849839962109 -0.13334286320579222
1120000000.0 0.0010292484029278336 -0.19921507869944136
1140000000.0 0.23381428873110935 0.07513944566653186
1160000000.0 0.052113303312251974 -0.28437137481854136
1180000000.0 -0.2744015393882717 0.18789722663414707
1200000000.0 -0.33975279124822977 0.12964714959497398
1220000000.0 -0.3474579961405729 -0.19127651987960645
1240000000.0 0.4008100562967883 -0.10278007928231811
1260000000.0 -0.3385384669455113 0.27415406724762537
1280000000.0 0.4004634585823187 -0.1789282384514915
1300000000.0 -0.2637044390123535 -0.3543741107501959
1320000000.0 -0.4027599126063483 0.1479546663166155
1340000000.0 -0.17412634467507976 -0.3846244293274485
1360000000.0 0.2546094656735666 -0.3342445118261369
1380000000.0 0.2852485214074212 -0.31157161283061585
1400000000.0 -0.2798647021533054 -0.30025021835682403
1420000000.0 -0.39583472449695606 -0.03774405539915079
1440000000.0 0.07122103536828592 0.36956753114326163
1460000000.0 0.28621096859540457 0.1982090226882577
1480000000.0 0.22650796082302319 -0.23298118856796632
1500000000.0 -0.20298869110703174 -0.21655203860788602
1520000000.0 -0.2590317728968779 0.0724051331777376
1540000000.0 0.05964395359593211 -0.23744976657434258
1560000000.0 0.09883983539168752 -0.18646953967829763
1580000000.0 0.049306156809763926 -0.17251645413198047
1600000000.0 -0.02567885253649102 0.14492726767889239
1620000000.0 0.0620639460701384 -0.0933097155277597
1640000000.0 -0.0027357263024275222 -0.08397956091354927
1660000000.0 -0.05877844439586288 0.011173047052507231
1680000000.0 -0.014507887471438979 -0.026805674713736113
1700000000.0 0.011102483516947656 0.0017811022766485898
1720000000.0 0.015877266937977492 0.005835844923782361
1740000000.0 -0.007765656354426886 0.03622797014325205
1760000000.0 0.009333238296186288 -0.05666472363209059
1780000000.0 0.017295483057392473 0.07873643280956431
1800000000.0 -0.11039971768021238 -0.03066040636691009
1820000000.0 0.12131892380583464 -0.07063197088425395
1840000000.0 -0.09058515017736653 -0.14104833537177963
1860000000.0 -0.053364901080754125 0.18799122433858173
1880000000.0 0.01669598955006986 0.2241814232285194
1900000000.0 0.03522939839047681 0.25900247920642183
1920000000.0 0.28791310961913374 -0.07501044968048683
1940000000.0 0.11649206762111088 -0.3133583330534662
1960000000.0 -0.3684815613363325 -0.021944358473213636
1980000000.0 0.1736078913578291 0.35569199323989675
2000000000.0 0.3961507331505581 -0.14070454251285863
2020000000.0 -0.22160749678565725 -0.38119303068723365
2040000000.0 -0.17202174708233842 0.4177841624721734
2060000000.0 0.4524582311514903 0.036897506683330576
2080000000.0 -0.16218167432894895 -0.4205203437893234
2100000000.0 -0.3586882529985027 0.25060210859343224
2120000000.0 -0.09386487097763002 0.4071907153824907
2140000000.0 -0.3949808841213309 -0.045069060350396845
2160000000.0 -0.37676969343226197 -0.036370032250840026
2180000000.0 -0.1850648952232986 -0.31239167677147595
2200000000.0 -0.033646313649055425 -0.3490244934205196
2220000000.0 0.23495643753044249 -0.2561860179156457
2240000000.0 -0.03978130438252853 -0.34811695926122155
2260000000.0 -0.29486552909025493 -0.20307573558107486
2280000000.0 -0.14529696205561646 0.3367618559208771
2300000000.0 0.37275182593780587 -0.08054822427555415
2320000000.0 -0.3508213297327858 -0.19839584053661338
2340000000.0 -0.07220316065541675 0.4241745189299167
2360000000.0 0.2586340638971245 -0.3863885985065512
2380000000.0 -0.493542825714272 0.12500407587460455
2400000000.0 0.5408858955828221 -0.14239966037410992
2420000000.0 -0.48153733835339196 0.3742091850198624
2440000000.0 0.13592085957943173 -0.6434056916143678
2460000000.0 0.3386515900617016 0.6083869715000334
2480000000.0 -0.5996992144213288 -0.41028086550315235
2500000000.0 0.6578748009423067 0.35053397071619374
2520000000.0 -0.5913754794027807 -0.4694821838479003
2540000000.0 0.3693046517146146 0.6597887095375767
2560000000.0 0.1980765783482037 -0.7230476207025225
2580000000.0 -0.6854363289965179 0.2648112276426659
2600000000.0 0.591651303579092 0.3936535186774309
2620000000.0 -9.775773498647281e-05 -0.679940020589727
2640000000.0 -0.31871811229440816 -0.5582923667851699
2660000000.0 -0.3303236510586626 0.4988857513183662
2680000000.0 0.5520842427797837 0.05133658602794271
2700000000.0 -0.2598351824165932 -0.43938378104619247
2720000000.0 -0.007833708199045107 0.4647414697827118
2740000000.0 0.2700111412911694 -0.325066006649853
2760000000.0 -0.30634197981740663 0.2323175233245649
2780000000.0 0.18434934899453947 -0.299806010778531
2800000000.0 -0.08077417951080014 0.3153733754735971
2820000000.0 -0.1667907983551317 -0.25706406061336545
2840000000.0 0.2847058876669537 0.07391348456163704
2860000000.0 -0.2569527358417556 0.1300073867396402
2880000000.0 0.09789252388711012 -0.2684485823077557
2900000000.0 -0.10634947315970629 0.26379985881209145
2920000000.0 0.28911051992096265 0.0036528207182160923
2940000000.0 -0.044709443493379 -0.29126727952707565
2960000000.0 -0.2689903118506762 -0.13296177150137437
2980000000.0 -0.3061461642449029 0.005420291810113896
3000000000.0 -0.2743052023470838 -0.14702165001734482
3020000000.0 -0.08931835229540183 -0.3007307221519729
3040000000.0 0.3086053611344019 -0.03152370170931344
3060000000.0 -0.07210315513933709 0.30028809521724337
3080000000.0 -0.1533254332748567 -0.2613843053387356
3100000000.0 0.2855680957995661 0.07804285382923375
3120000000.0 -0.28090041177021113 0.055503776252293115
3140000000.0 0.2036742752751168 -0.1816490836467332
3160000000.0 -0.18197039009038193 0.18034305488485033
3180000000.0 0.1541973690171874 0.18302716203319383
3200000000.0 -0.1753267230328006 -0.12969356198907914
3220000000.0 0.1829393018863636 0.07394239389859512
3240000000.0 -0.14196295834394007 0.09728801780551226
3260000000.0 0.004315246323160345 -0.14538550450788756
3280000000.0 0.11529913304933245 0.015893120566934475
3300000000.0 0.08680881027501605 0.015087041941640497
3320000000.0 -0.03392559012502095 -0.046738289005188983
3340000000.0 -0.028986729073734414 0.0023724184225576983
3360000000.0 0.011362225618274855 0.001848696631538688
3380000000.0 -0.008038369304186315 0.01835912425491278
3400000000.0 -0.031825169658265005 0.002113529949377862
3420000000.0 0.013693478792476864 -0.03993096174600775
3440000000.0 -0.02536775031810844 -0.036630049374698104
3460000000.0 0.0035754772908363416 0.046138417510651925
3480000000.0 0.05026833663274673 -0.01827651672209373
3500000000.0 0.06964820273965695 0.0013205055612894837
3520000000.0 -0.02246887716674747 -0.0903458740507329
3540000000.0 0.06522867222612448 -0.09286576495424931
3560000000.0 0.0929358541545156 -0.09227860338612022
3580000000.0 0.14247359572384527 -0.02164754170650204
3600000000.0 0.13726720003281614 -0.08491660386217037
3620000000.0 0.16208270589236834 -0.047227896421218246
3640000000.0 0.16922475623189445 0.04877173103530905
3660000000.0 0.02283404784508511 0.18010501760931075
3680000000.0 -0.17923847320154793 -0.042459745421102264
3700000000.0 0.06114351369171338 -0.17295078154928886
3720000000.0 0.08570888175346679 0.1636361802625307
3740000000.0 -0.13542481519191807 0.12315934919791885
3760000000.0 0.0889716807108769 -0.15743616779543776
3780000000.0 -0.02500928694663342 0.17331024201099035
3800000000.0 0.03220474782257676 -0.1649525581366259
3820000000.0 -0.14960340823928503 0.05166085391045076
3840000000.0 -0.14384502494707269 0.03616556749865879
3860000000.0 0.04893801530911748 -0.13425828367903542
3880000000.0 0.08672148536937764 0.11811418370479661
3900000000.0 0.024873731148770777 0.14954558000923296
3920000000.0 0.10897723450709448 0.1178612975459722
3940000000.0 -0.15306889425763034 0.07695912812521649
3960000000.0 -0.1516595762620013 0.09888744288749439
3980000000.0 0.1759764689088214 -0.05473403774593568
4000000000.0 -0.08402859976172684 -0.15454956632549252
