! Created with skrf (http://scikit-rf.org).
# Hz S RI R 50.0 
!freq ReS11 ImS11
400000000.0 0.19125471818332757 0.8535802953528556
420000000.0 0.5992311578515366 0.618126185903645
440000000.0 0.8131809132869264 -0.1486832835924988
460000000.0 0.13873033894745768 -0.7770379032645706
480000000.0 0.5669474751868561 -0.4208237371287119
500000000.0 0.465259885931164 -0.3124275859897462
520000000.0 0.1951265626266912 -0.44778996793384657
540000000.0 0.39069849523564554 0.17133768994140536
560000000.0 -0.28133395313268633 -0.22016438998082535
580000000.0 -0.33676408206737934 0.030144755483587794
600000000.0 0.33340873795815346 -0.02918698805817659
620000000.0 -0.11939557926163194 -0.32975313224755165
640000000.0 -0.3611099893131161 -0.131010622506916
660000000.0 -0.304179016034143 0.259995912000603
680000000.0 -0.1203640600653991 -0.4099701943630431
700000000.0 0.22397193325695894 0.38872148118068395
720000000.0 0.1259293006146692 -0.4310419005514064
740000000.0 0.42241656776311814 -0.12259766405355425
760000000.0 -0.4044960971402177 -0.1021815502568991
780000000.0 0.18987568739962657 -0.334777045119408
800000000.0 0.13567458553058528 0.3227799562915238
820000000.0 0.16291496211664921 0.23746534878429565
840000000.0 0.20504460234025013 0.11166358504149233
860000000.0 0.09660076869037834 0.17446782846680076
880000000.0 -0.13527168952793422 0.020845483344481473
900000000.0 -0.0516549718324489 -0.049057412615562845
920000000.0 0.03695915369186478 -0.011222767261178379
940000000.0 0.026445177918419924 0.014470272015093625
960000000.0 -0.041841224247986135 0.0012300023913755953
980000000.0 -0.009611241282469637 0.050164804461329184
1000000000.0 -0.05685895313682417 0.0071807535224608955
1020000000.0 -0.06677409478012798 -0.02673654005243104
1040000000.0 -0.0763569839873934 -0.03501042063398387
1060000000.0 0.1130709945379843 0.049851640996109024
1080000000.0 -0.07602552503444548 -0.11870907350170236
1100000000.0 -0.0512675376780354 -0.15968267595158941
1120000000.0 -0.19856880946583833 0.00831185232971895
1140000000.0 0.24247548500109387 -0.014195409936425585
1160000000.0 0.14785485767420217 -0.2454663185096065
1180000000.0 -0.23148899500233833 -0.23639884189845592
1200000000.0 -0.3396624703227059 -0.13796592014350348
1220000000.0 0.0331780991203258 -0.3953555426223519
1240000000.0 0.38952135058709014 0.15195373286746586
1260000000.0 -0.4386092409860137 0.02143118789565929
1280000000.0 0.44108930691885506 -0.08025096990445123
1300000000.0 -0.42644078886180703 -0.1350032572730386
1320000000.0 -0.09009921161859534 0.42490530741753474
1340000000.0 -0.341400331788752 0.24153106450936604
1360000000.0 -0.1729589385517064 -0.36864164036339203
1380000000.0 0.21262276713797867 -0.34665984744476963
1400000000.0 0.25171655444291696 -0.30667467932681897
1420000000.0 0.19346941554020625 -0.3359931590667213
1440000000.0 -0.016991070432674782 -0.3737965565735196
1460000000.0 -0.34701347885748185 -0.088062521520116
1480000000.0 0.1322600668855036 0.3122410707938033
1500000000.0 -0.2163632748877668 -0.22590800834616712
1520000000.0 0.04483469739999012 0.28312534045922017
1540000000.0 0.03757966473142966 0.25227530395251824
1560000000.0 0.16656726676413475 0.13527437903550954
1580000000.0 0.15987059337894996 -0.07984977449144705
1600000000.0 -0.04219714246177423 0.13789291859694794
1620000000.0 -0.0998899455699329 -0.019969249507470286
1640000000.0 0.001677778594331351 0.07303127552591569
1660000000.0 0.04562073688860039 0.0071370462333379845
1680000000.0 0.00571056808396454 -0.015421260104293413
1700000000.0 -0.01235886177413033 0.001150291656477648
1720000000.0 -0.0014231195229624724 -0.0319307025801413
1740000000.0 -0.051330432827858964 0.00024040502231084096
1760000000.0 0.06099521093854239 -0.019436762622337234
1780000000.0 -0.026737595587959646 0.07793845333764549
1800000000.0 0.064822031018558 -0.08404069933785809
1820000000.0 0.12018339157341924 0.0038660481268839022
1840000000.0 -0.09348377391891637 0.11209565005921555
1860000000.0 -0.12371852893059342 -0.11961896736448636
1880000000.0 0.15447271633397794 -0.14196868009549515
1900000000.0 0.22511271059922022 -0.12024303879866623
1920000000.0 -0.2930405088056148 -0.07324337756455992
1940000000.0 0.16875489702745927 0.30491121304995733
1960000000.0 -0.12256332768043199 -0.3664065517131039
1980000000.0 0.167480583053977 0.37910429327487555
2000000000.0 0.09883005534625038 -0.4259791781992909
2020000000.0 -0.1648472668663705 0.41933945237334214
2040000000.0 0.45042612361381174 0.047805765748368464
2060000000.0 -0.22607869011498244 -0.3873874671554851
2080000000.0 -0.4204870184640552 0.10632939971398662
2100000000.0 -0.34109657447703895 0.24024454147652693
2120000000.0 -0.3924893409787192 0.07583441636687616
2140000000.0 -0.3520632651343597 -0.152778812605239
2160000000.0 0.35264989985851 -0.11412468601333385
2180000000.0 0.34690577138465045 0.09839788943245288
2200000000.0 0.2783833562840238 0.21678115104617157
2220000000.0 0.3413850606550743 -0.0892207530963405
2240000000.0 -0.10922631104230263 -0.33426209390445344
2260000000.0 -0.34534145042708064 0.08342278625130355
2280000000.0 0.16154720407479145 0.3195328077427206
2300000000.0 0.257538888789252 -0.2662347416604716
2320000000.0 -0.37390019466347885 -0.10520268683796573
2340000000.0 -0.11384850315358674 0.3990234235588538
2360000000.0 0.44978619993931546 -0.03060983421722012
2380000000.0 -0.4063495551889219 -0.2873563363456192
2400000000.0 0.28328315727760406 0.4709232997065012
2420000000.0 -0.3966543971709405 -0.4553282703478387
2440000000.0 0.6364171877671486 0.15745520322094336
2460000000.0 -0.6361756334142122 0.2878310858977907
2480000000.0 0.4234531752351586 -0.5960783119160604
2500000000.0 -0.41561979778694136 0.6279435032831951
2520000000.0 0.5099652304473845 -0.5696941005055909
2540000000.0 -0.7026211412830932 0.30755916705015546
2560000000.0 0.7301505905392142 0.217864345911218
2580000000.0 -0.22517183975389876 -0.7116138608403747
2600000000.0 -0.40156770141934245 0.5995119945268759
2620000000.0 0.6910173058015227 -0.012783585966739048
2640000000.0 0.5832557992847428 -0.2963593289076856
2660000000.0 -0.5232257701428615 -0.3148670278167611
2680000000.0 0.02479884613854643 0.5660029158560886
2700000000.0 0.25035377685495447 -0.45856252722436736
2720000000.0 -0.32937715293920505 0.3434900296091634
2740000000.0 0.27602843914533826 -0.3312995335059784
2760000000.0 -0.12256472083254041 0.36994980346274553
2780000000.0 -0.19695069894648046 -0.2959440238123993
2800000000.0 0.31566527717995474 0.0732972245650847
2820000000.0 -0.2754361301804989 0.12273767904944032
2840000000.0 0.25224432240965666 -0.13820176412421928
2860000000.0 -0.253370341778513 0.12761865034682754
2880000000.0 0.26722084956150305 -0.09770188000432273
2900000000.0 -0.2714552553100822 -0.10211718545694468
2920000000.0 0.05511253642857624 0.29660150461812235
2940000000.0 0.20324866869377384 -0.23941981232940787
2960000000.0 -0.29511798556057145 -0.12599682078524355
2980000000.0 -0.3156780227905281 0.0826374198358489
3000000000.0 -0.3146278569149915 0.10097647787822288
3020000000.0 -0.3271409070784024 -0.017674237928738103
3040000000.0 0.07256736112165516 -0.31312658731766313
3060000000.0 0.13904090568363506 0.27964965680574577
3080000000.0 -0.12067120152215198 -0.27676353539782955
3100000000.0 0.046139444744753975 0.28977074781574647
3120000000.0 0.19952252202828336 -0.20070364274518085
3140000000.0 -0.2641688898436063 0.0668271387869076
3160000000.0 0.25186763097001696 0.06829046649587274
3180000000.0 0.1079224958486251 -0.22387629556491412
3200000000.0 0.14547715110142823 0.18148461485561204
3220000000.0 -0.08176495804762891 0.19360863611049525
3240000000.0 -0.09067881376810562 0.1605305251678047
3260000000.0 -0.07745932249016854 0.13023125494067153
3280000000.0 0.1071359346408848 0.04287410916252928
3300000000.0 0.06193200852392827 -0.0500317825415521
3320000000.0 0.03820084940092554 0.021615489456532095
3340000000.0 0.005266912108485411 0.013665148479974853
3360000000.0 -0.0007003795968827269 -0.013162811671253204
3380000000.0 0.006755461129891038 -0.023627773408081715
3400000000.0 -0.028269006064626685 0.010600726809796877
3420000000.0 0.023807041570799055 0.01973088707085395
3440000000.0 0.014944443093740522 -0.02867795287330064
3460000000.0 -0.026410895625737847 0.034086624128655145
3480000000.0 0.030561133288724368 0.05565228705333677
3500000000.0 -0.08617019212201588 -0.013266537061110155
3520000000.0 -0.08124692763207017 0.07412481978759596
3540000000.0 0.1119306518201654 0.0565039476766344
3560000000.0 0.13385201442900238 -0.022109591298512882
3580000000.0 0.048369407660874025 0.1351733943278847
3600000000.0 -0.1528698845124214 -0.00717735381039598
3620000000.0 0.10436492596485412 -0.1207119150848472
3640000000.0 -0.1410140471134076 0.0891519031345705
3660000000.0 0.06300558787634558 -0.16626127535393045
3680000000.0 0.10251371809088325 0.15592003272417124
3700000000.0 -0.03562279640638563 0.18913427618161577
3720000000.0 -0.0730022746554829 0.18437795316753547
3740000000.0 0.09550378614782837 0.17128054202532508
3760000000.0 -0.08313345309139088 0.17157162776013218
3780000000.0 -0.17763650062045053 -0.014910931368914358
3800000000.0 0.1615806096358129 -0.009673240408797322
3820000000.0 0.14604281232606717 0.018241671643249677
3840000000.0 -0.1308549031035693 -0.031261450145366014
3860000000.0 -0.11814771057999675 0.06396700593964406
3880000000.0 0.10142509126227349 -0.10586495397898234
3900000000.0 -0.12853498925877374 -0.09545685658885127
3920000000.0 0.1699695301121937 -0.02827277034939078
3940000000.0 0.18026004376819874 0.008067522000980246
3960000000.0 0.020622156233028866 -0.18433155668007317
3980000000.0 -0.14961750950943029 -0.10156336293581514
4000000000.0 0.10700896325713276 0.12905291722034948
