! Created with skrf (http://scikit-rf.org).
# Hz S RI R 50.0 
!freq ReS11 ImS11
400000000.0 -0.8093084254114018 0.2945472790081164
420000000.0 0.17057242305869313 0.8485462035887601
440000000.0 0.8208586464207771 -0.17176937335524795
460000000.0 0.319958691567806 -0.720381904526569
480000000.0 0.593883334948305 -0.41447131008054094
500000000.0 -0.48869763518757425 -0.282016192690463
520000000.0 -0.42415777334148796 -0.2427552306006312
540000000.0 0.07862674058443331 -0.4051859620601889
560000000.0 -0.3497760702547351 -0.11459127555629842
580000000.0 0.12689353788951244 -0.29353015736656574
600000000.0 0.0007512277591363474 -0.32799883030764715
620000000.0 0.31469054871539426 -0.1040883265648926
640000000.0 -0.348664751218889 0.010244748175460165
660000000.0 -0.31152813266929774 0.22369063214752635
680000000.0 0.1513324056259013 -0.3748575248903674
700000000.0 -0.43224783988177934 0.08117145536304624
720000000.0 0.016672445061857458 0.4421876416740694
740000000.0 -0.3744862923688791 0.26031560352579675
760000000.0 -0.1924757931504761 -0.3898834755522942
780000000.0 0.39972490951269923 0.025208640483965362
800000000.0 0.19095502679916906 0.3081441851575083
820000000.0 0.06147391165713928 0.29179775334997743
840000000.0 -0.030254456340847256 -0.24446081544003603
860000000.0 0.1805932378464685 -0.06889628285952178
880000000.0 -0.018026644932997073 -0.14757321192540818
900000000.0 0.036090862204886734 0.0577849581003061
920000000.0 -0.0349295339574506 0.0071852351618047535
940000000.0 -0.028336562223179932 0.028583710675993017
960000000.0 -0.04567099283942236 -0.02220005016190312
980000000.0 0.02688163063024271 0.04899326141857495
1000000000.0 -0.06334078849471496 0.004842054651740446
1020000000.0 -0.01937529359870044 -0.06728882424932595
1040000000.0 -0.012332672812913387 0.07997049634372269
1060000000.0 0.06579024600160466 0.09504106757026042
1080000000.0 0.12833218517859427 0.051724253495402314
1100000000.0 0.09159545510602476 -0.13547762122860352
1120000000.0 0.02357893237493975 -0.1977192912037295
1140000000.0 0.23465055364022205 0.0729699975976658
1160000000.0 0.08202060717919517 -0.27688606098750884
1180000000.0 -0.26993857561157836 0.19444071834461463
1200000000.0 -0.3337170440209352 0.14493742053964562
1220000000.0 -0.36705291684124847 -0.15116066922459803
1240000000.0 0.3853980770538855 -0.14965163374494014
1260000000.0 -0.34705338208224507 0.2635122197238579
1280000000.0 0.39005576780951523 -0.20045742842517966
1300000000.0 -0.26811006232027235 -0.3511289408053649
1320000000.0 -0.4018164532496135 0.1507068597094626
1340000000.0 -0.1786231539467416 -0.3825063071142751
1360000000.0 0.2549604972068241 -0.3340144640858159
1380000000.0 0.2862698920054221 -0.31066477273040904
1400000000.0 -0.2762652136297211 -0.3039215194296881
1420000000.0 -0.3951621165096832 -0.04635336633328782
1440000000.0 0.06141059986367887 0.37153313315872033
1460000000.0 0.2904483111686019 0.191318454087157
1480000000.0 0.22264637504842694 -0.235898387929857
1500000000.0 -0.18592950019650656 -0.23105135325272233
1520000000.0 -0.26405598820959736 0.05186064756433917
1540000000.0 0.038308098680894284 -0.24177631660300855
1560000000.0 0.14232450215007925 -0.15551294276211056
1580000000.0 0.07807134463311494 -0.16170320484114686
1600000000.0 -0.0005648198717738976 0.14699810227877042
1620000000.0 0.06096660686333029 -0.0938056082940971
1640000000.0 -0.008844481860453267 -0.08370347500155406
1660000000.0 -0.05973770682963868 0.0036717621566506576
1680000000.0 -0.02057850021461932 -0.023052536067361847
1700000000.0 0.005933839609402549 0.010102038747055304
1720000000.0 0.0155425175723527 0.005950599821058766
1740000000.0 -0.008431330280556041 0.03624722093173652
1760000000.0 0.0033455313862674257 -0.05707494240090547
1780000000.0 0.02476457116878814 0.07691419755190844
1800000000.0 -0.10854623457635477 -0.03606466339289358
1820000000.0 0.12444736172886366 -0.06500033253517289
1840000000.0 -0.09721318103945258 -0.13617103181620552
1860000000.0 -0.06117782507540904 0.18579030396813598
1880000000.0 0.0073342869365517335 0.2245535517272407
1900000000.0 0.0361409912086354 0.2586848573553065
1920000000.0 0.2848273548950925 -0.0859821855834352
1940000000.0 0.12617731005815525 -0.30942501504929154
1960000000.0 -0.36868466519239007 -0.019574680221621413
1980000000.0 0.16197512969258127 0.36113287200352295
2000000000.0 0.4062299686141513 -0.1090881799660917
2020000000.0 -0.24346997738841275 -0.36744722909320665
2040000000.0 -0.20974057635842352 0.4005284485507742
2060000000.0 0.4526081402699412 0.03263170043466096
2080000000.0 -0.16495841880405826 -0.4193583543938631
2100000000.0 -0.34285649155026804 0.27163667742596675
2120000000.0 -0.10435957249998488 0.4044240547408818
2140000000.0 -0.3915869063727543 -0.06965669035950058
2160000000.0 -0.3749282259719893 -0.05009705202737416
2180000000.0 -0.17031057492444804 -0.32047320773772847
2200000000.0 -0.028390927230808074 -0.34929171476019183
2220000000.0 0.2194977478468243 -0.26882091126169705
2240000000.0 -0.00692638677206261 -0.3503786005729626
2260000000.0 -0.29545812309995556 -0.20197069476434978
2280000000.0 -0.13281724745299978 0.34187422607953755
2300000000.0 0.37054116783992186 -0.09039177414350784
2320000000.0 -0.3407956396336295 -0.2144937225306225
2340000000.0 -0.06964021684793793 0.4244211179014582
2360000000.0 0.2587073932930437 -0.38610206134125935
2380000000.0 -0.49525292748877014 0.11876043503416508
2400000000.0 0.5499191527472257 -0.1016201881809187
2420000000.0 -0.4991635964856009 0.35041813354807433
2440000000.0 0.17643845858593069 -0.6338230970663548
2460000000.0 0.2957520417745134 0.6306397598253853
2480000000.0 -0.60592502842861 -0.4005891217817518
2500000000.0 0.6302547165373167 0.3982979986238785
2520000000.0 -0.5822685697551067 -0.48098076022560426
2540000000.0 0.3320895033712979 0.6796856778188227
2560000000.0 0.23087699544163806 -0.7136609761258217
2580000000.0 -0.7101954050619322 0.19086945380332318
2600000000.0 0.5554761558055522 0.44344458802960446
2620000000.0 0.004739484299150804 -0.6803841682060658
2640000000.0 -0.24222349476378333 -0.5958738178251936
2660000000.0 -0.3504108068750214 0.4854880154242836
2680000000.0 0.5528544817660423 0.04543759530047502
2700000000.0 -0.27817036223961916 -0.42847616967765345
2720000000.0 0.000491726361531684 0.4652403761658347
2740000000.0 0.23064063314397298 -0.3549958051019179
2760000000.0 -0.2891661062375504 0.25382987589473793
2780000000.0 0.19280276748857733 -0.2950065382995171
2800000000.0 -0.07310982700251752 0.31765228486808494
2820000000.0 -0.15599919067946244 -0.26413706054903574
2840000000.0 0.27868843365629603 0.09549059970809201
2860000000.0 -0.2565302554811321 0.1317789263130841
2880000000.0 0.09980947608257384 -0.26745368073368625
2900000000.0 -0.11744199471847969 0.2594237972597214
2920000000.0 0.2866936949700509 0.03889773048755424
2940000000.0 -0.057142985414702384 -0.28913394689892163
2960000000.0 -0.26014213140349113 -0.14947059111928426
2980000000.0 -0.3059356032781089 0.012001907284004869
3000000000.0 -0.27633403388245514 -0.14202242788146147
3020000000.0 -0.096721973929944 -0.29844826909825173
3040000000.0 0.2947628058210853 -0.09633008790287552
3060000000.0 -0.058876296727250095 0.30335014504210545
3080000000.0 -0.1564050322902578 -0.25977613756581636
3100000000.0 0.2875526771775747 0.07089450258073572
3120000000.0 -0.2854262924676771 -0.008788342887386719
3140000000.0 0.20339287298477035 -0.18217920236872742
3160000000.0 -0.18680215223142546 0.1750830825971659
3180000000.0 0.15502352780908676 0.18258651001100307
3200000000.0 -0.18090652435709012 -0.12214687915106519
3220000000.0 0.18628341708128035 0.06474325492001383
3240000000.0 -0.13397383263517532 0.10807721027394673
3260000000.0 0.00753338245851324 -0.14543605368457968
3280000000.0 0.1164952725986552 -0.002881501949776233
3300000000.0 0.0882359125765178 0.007943838095472779
3320000000.0 -0.03423116092546017 -0.04630737443452066
3340000000.0 -0.0023844812504587834 0.02923620428049841
3360000000.0 0.009359869329041304 0.00817708711512427
3380000000.0 -0.004884565500698058 0.019387950455186643
3400000000.0 -0.02941131079605405 -0.012803318111315484
3420000000.0 0.02966959805564744 -0.0298572330024738
3440000000.0 -0.03282267045166708 -0.030333811910204338
3460000000.0 -0.031726234952804334 0.03311886700577836
3480000000.0 0.045907918255390034 0.0266686247673201
3500000000.0 0.06945012630984292 -0.006495366817077038
3520000000.0 -0.007764863064372673 -0.09266187650966387
3540000000.0 0.08111754409931597 -0.079063924047171
3560000000.0 0.09084274970815621 -0.09390964752770949
3580000000.0 0.13787386432063706 -0.04159983840926851
3600000000.0 0.159501425606293 -0.016636978990651936
3620000000.0 0.16099620411715623 -0.04774619467846417
3640000000.0 0.16363784303782686 0.06599388800176416
3660000000.0 0.02382630065522665 0.17973704402997015
3680000000.0 -0.17457693875932204 -0.059127693893258185
3700000000.0 0.07286748532099314 -0.16843186523761264
3720000000.0 0.06359351868875901 0.17342240703149103
3740000000.0 -0.1374649701542704 0.12098944011875473
3760000000.0 0.09345257544456248 -0.1546377084153408
3780000000.0 -0.018612369658061182 0.17373418616167546
3800000000.0 0.01318359567461966 -0.16752988611747568
3820000000.0 -0.14489301499426901 0.06367125419002044
3840000000.0 -0.13712106067973592 0.05489940954057457
3860000000.0 0.032653214818185894 -0.13915436665473238
3880000000.0 0.0996767891361926 0.10720978069742225
3900000000.0 0.03564882065923236 0.14743135232344937
3920000000.0 0.11898434435222431 0.10707078933511034
3940000000.0 -0.15136394099039618 0.08158346112280906
3960000000.0 -0.14899175410141458 0.10218486673334864
3980000000.0 0.18037684732572867 -0.03671591928423158
4000000000.0 -0.06123344619391478 -0.16446222849537878
