! Created with skrf (http://scikit-rf.org).
# Hz S RI R 50.0 
!freq ReS11 ImS11
400000000.0 -0.7997963150083287 0.3240022170831164
420000000.0 0.17363424084825266 0.8482851831103851
440000000.0 0.8047339693113371 -0.23555936392376262
460000000.0 0.3029141529805471 -0.7265614385364526
480000000.0 0.6411040623167796 -0.3373216240271233
500000000.0 -0.5048068102336021 -0.2566780940930664
520000000.0 -0.4636312466280965 -0.1516795033464797
540000000.0 0.15734204733989848 -0.37960856203118426
560000000.0 -0.32438636779905716 -0.1770559495476304
580000000.0 -0.025642407197378227 -0.3193657876824019
600000000.0 -0.02103421991063478 -0.3261978485788802
620000000.0 0.32970758884387913 -0.03518737859628024
640000000.0 -0.3480864998023312 0.034796971291062795
660000000.0 -0.3070430108453996 0.2291312854204089
680000000.0 0.14443661968059293 -0.3774759780402785
700000000.0 -0.434163775178679 0.0673584872306981
720000000.0 -0.018688832575075483 0.44247775844042125
740000000.0 -0.3798672077382593 0.2518693572125324
760000000.0 -0.18223921171857463 -0.39495331740174616
780000000.0 0.40060643701146836 -0.0034733114955222315
800000000.0 0.18749211040138725 0.31037550397056735
820000000.0 0.06097577179283199 0.29177496664542835
840000000.0 -0.05814341200138168 -0.2397332044032992
860000000.0 0.179748822994414 -0.07115731959310163
880000000.0 -0.041176258002453996 -0.14306343805303248
900000000.0 0.020208195382392824 0.065292008300781
920000000.0 -0.035699922913075145 0.003250738549434931
940000000.0 -0.006841316428222966 0.03953078297737678
960000000.0 -0.04782209043879779 -0.0167036048312085
980000000.0 0.03577437634111621 0.04292995914849882
1000000000.0 -0.06292974901716594 0.006846813241496367
1020000000.0 -0.031084532423879773 -0.06265832886766175
1040000000.0 -0.004853450840920761 0.08091465186290002
1060000000.0 0.07811113910687194 0.08531663757191424
1080000000.0 0.13298155614559498 0.038072934778447684
1100000000.0 0.10771715409250673 -0.12285918444397603
1120000000.0 -0.01278690962531355 -0.19916618098260172
1140000000.0 0.2312086412112533 0.08296677393225296
1160000000.0 0.07462722188054358 -0.2790708147428461
1180000000.0 -0.27509893916528144 0.18711009351189503
1200000000.0 -0.33914819481142194 0.13213628327014862
1220000000.0 -0.3514699124070735 -0.1830002008671031
1240000000.0 0.3996495525852572 -0.10682229181124075
1260000000.0 -0.33808897949888855 0.27477885591899026
1280000000.0 0.3998433392452185 -0.1803521620899241
1300000000.0 -0.27599718625115544 -0.3450101782345639
1320000000.0 -0.4030161880086778 0.14721070805575118
1340000000.0 -0.18331891677030515 -0.3802281661626971
1360000000.0 0.2495076426523772 -0.3382844299224226
1380000000.0 0.28745651950661755 -0.3096106929752391
1400000000.0 -0.28266419453188496 -0.29797065897887126
1420000000.0 -0.39452560514168156 -0.05192469716096347
1440000000.0 0.07110754925840748 0.3698664278297253
1460000000.0 0.2938699893542466 0.18649587050367394
1480000000.0 0.2428144693069417 -0.21552161223601388
1500000000.0 -0.18167990764233485 -0.23497119043800882
1520000000.0 -0.26149400120537825 0.06448936247837517
1540000000.0 0.03066262887918639 -0.24263247437701713
1560000000.0 0.13378681435580606 -0.16348502525832928
1580000000.0 0.08013210319781519 -0.16076220658033502
1600000000.0 0.0065315738990294496 0.1467838234790877
1620000000.0 0.06280000563243777 -0.09256761271137405
1640000000.0 0.0076496363217700095 -0.08376098795645287
1660000000.0 -0.05971474105258068 0.006647518049232275
1680000000.0 -0.02079653390421522 -0.02222242679213042
1700000000.0 0.008307281296810057 0.007890329744544095
1720000000.0 0.016680108662883813 -0.0013339468780381998
1740000000.0 0.004540463378132486 0.03686213667560613
1760000000.0 0.012593031062438365 -0.055727482238432685
1780000000.0 0.01104608858931213 0.07993057473577743
1800000000.0 -0.11416097934798793 -0.01329952169824437
1820000000.0 0.1254708040995388 -0.06292413994083873
1840000000.0 -0.08952674099347643 -0.14172959086901024
1860000000.0 -0.04224519200534789 0.19095622282618804
1880000000.0 0.01270601331212328 0.22463234428391224
1900000000.0 0.03978768881635385 0.25836729094077027
1920000000.0 0.2863694350578126 -0.08118087948003175
1940000000.0 0.13107250997451583 -0.3073676620472319
1960000000.0 -0.3689126375435254 -0.016746978064976624
1980000000.0 0.16344512934024782 0.3604062227094396
2000000000.0 0.39938523623960986 -0.13067824815777013
2020000000.0 -0.21562285883972082 -0.38457252972078176
2040000000.0 -0.1889453913983005 0.4105058363412564
2060000000.0 0.4529981875458967 0.030600255637459838
2080000000.0 -0.14970071381319197 -0.4249930874205992
2100000000.0 -0.35631281752621646 0.2541579182864987
2120000000.0 -0.10369130078918538 0.40494592587363415
2140000000.0 -0.39264831965481667 -0.06368944826270244
2160000000.0 -0.3775311413716687 -0.027955327358807756
2180000000.0 -0.18503723859770863 -0.3124450991534895
2200000000.0 -0.030719209259406976 -0.34929748782441233
2220000000.0 0.24693744677142962 -0.24396907111647131
2240000000.0 -0.024957446359928904 -0.34934382128053115
2260000000.0 -0.2989948560337939 -0.19736755276821835
2280000000.0 -0.15491772877732704 0.33229101919515824
2300000000.0 0.37551626628982765 -0.0648170709164905
2320000000.0 -0.3390170432863195 -0.21797181076317393
2340000000.0 -0.06569692886511108 0.4252386383426938
2360000000.0 0.2517006511630378 -0.3906707752982541
2380000000.0 -0.49159880002198947 0.1327134541859815
2400000000.0 0.5419623725940993 -0.13817184921074618
2420000000.0 -0.48149598943698046 0.37453705360572287
2440000000.0 0.11741027723576743 -0.6471582981496102
2460000000.0 0.332175008140524 0.6121840275722892
2480000000.0 -0.6254113810078137 -0.3694491847739494
2500000000.0 0.6441863367098526 0.37543848925329604
2520000000.0 -0.5669044779217082 -0.49899409951951246
2540000000.0 0.35337614389125277 0.6688186061388783
2560000000.0 0.2178344582915777 -0.7177606532226346
2580000000.0 -0.6718731369253169 0.29832594983679744
2600000000.0 0.5686797799516216 0.4262745284464404
2620000000.0 -0.052750609949620046 -0.678263003046
2640000000.0 -0.2971391167255234 -0.5701252254040231
2660000000.0 -0.35692981603594176 0.48053556598033464
2680000000.0 0.553398955576011 0.035165061272181025
2700000000.0 -0.2586655547701227 -0.43996701332265337
2720000000.0 -0.006241954499278358 0.464650192286181
2740000000.0 0.26354860354833126 -0.33044894994465823
2760000000.0 -0.29485311628090133 0.24669358603602548
2780000000.0 0.18112027501499253 -0.3018444325665688
2800000000.0 -0.06980874344436351 0.31789061948076286
2820000000.0 -0.16842721141486275 -0.25615141138337905
2840000000.0 0.28479759565733115 0.07463074575958953
2860000000.0 -0.25841413616170605 0.1282258912541495
2880000000.0 0.100703390415125 -0.2672551099064811
2900000000.0 -0.12906324161704338 0.2539571519740798
2920000000.0 0.28508223233650554 0.05240210187945076
2940000000.0 -0.0036965730011226925 -0.2947970925519468
2960000000.0 -0.2450243193099754 -0.1732989105005942
2980000000.0 -0.30657927936460616 0.002268070526335852
3000000000.0 -0.2750944180882178 -0.14499198690802903
3020000000.0 -0.08427124984740371 -0.3022439914791127
3040000000.0 0.3007485700152993 -0.0756604513354781
3060000000.0 -0.03600569935737027 0.30703848927541405
3080000000.0 -0.14048385970881758 -0.26836016935849516
3100000000.0 0.28905247915302623 0.06576939963311074
3120000000.0 -0.2855301321902671 0.007079550834989757
3140000000.0 0.1884340922364361 -0.19737368172047945
3160000000.0 -0.1735604148267781 0.18813955729918294
3180000000.0 0.17384691632397167 0.16484364495637993
3200000000.0 -0.1842966242266796 -0.11684592852603004
3220000000.0 0.18975920620276387 0.05447188480236813
3240000000.0 -0.14229125364050754 0.09735456001458713
3260000000.0 0.008382402347601129 -0.14544131897831586
3280000000.0 0.1159249517839699 0.01283875686488955
3300000000.0 0.08744382577088719 0.011546478774401698
3320000000.0 -0.033921617567293505 -0.046505667528336285
3340000000.0 -0.0291402774470835 0.0022444421917074955
3360000000.0 0.011148596858481095 0.004477513813079006
3380000000.0 -0.003875874461466646 0.019770249377915997
3400000000.0 -0.0285709681079796 0.01449752367586978
3420000000.0 0.03319634701342959 -0.025520980409099597
3440000000.0 -0.03152715898090194 -0.03188786568453625
3460000000.0 -0.013806880106802933 0.043784637441502905
3480000000.0 0.05336715009261984 5.78059279894658e-05
3500000000.0 0.06947344638732768 0.0016242379159855077
3520000000.0 -0.005973465526688508 -0.09289452845915301
3540000000.0 0.05709696454449259 -0.09776436320130899
3560000000.0 0.0812590289044669 -0.10279329999712578
3580000000.0 0.1364920233064842 -0.04672816222120435
3600000000.0 0.15021279705757157 -0.057736939314430365
3620000000.0 0.15318907546269975 -0.0705013289495191
3640000000.0 0.17348525554104965 0.034094860442105406
3660000000.0 0.027685533528834575 0.1794050452878593
3680000000.0 -0.1766421640104023 -0.05215992666576864
3700000000.0 0.06350908115755889 -0.17235549541504314
3720000000.0 0.07590775381327088 0.16841899127129087
3740000000.0 -0.1297786815709028 0.12882588570896622
3760000000.0 0.0858189688299118 -0.15891583692092476
3780000000.0 -0.028938225980263858 0.1728707378320222
3800000000.0 0.017629618512941113 -0.16707730461680173
3820000000.0 -0.15257964946374014 0.04359505847634351
3840000000.0 -0.1373160866578155 0.05479929166041725
3860000000.0 0.03945516633935951 -0.1374390127363743
3880000000.0 0.07738173663192414 0.1247738955632256
3900000000.0 0.028175421431299866 0.14907002649800696
3920000000.0 0.10943027616476284 0.117156999908322
3940000000.0 -0.16228582358315288 0.05750523492039944
3960000000.0 -0.15893183652266818 0.0871955098133218
3980000000.0 0.1838261501785354 -0.012530242985036757
4000000000.0 -0.027971199605262717 -0.17372801331448032
