! Created with skrf (http://scikit-rf.org).
# Hz S RI R 50.0 
!freq ReS11 ImS11
400000000.0 0.21450255944593594 0.846358376896834
420000000.0 0.6204921005015419 0.595309207394914
440000000.0 0.807267487168092 -0.17653537901042324
460000000.0 0.12127670290936778 -0.779915561206158
480000000.0 0.5464917726335847 -0.4469005398319654
500000000.0 0.45652870559281555 -0.32545231827261856
520000000.0 0.21163586040955074 -0.44074728965538895
540000000.0 0.3883948236127023 0.17749503408076922
560000000.0 -0.2872217291413603 -0.21292224516995606
580000000.0 -0.33131940535951815 0.06513605040620343
600000000.0 0.3294016565423395 -0.05492887965959322
620000000.0 -0.09267967087719702 -0.3371807419625638
640000000.0 -0.36636960849576866 -0.1132832341078212
660000000.0 -0.3061818906753485 0.2573565254001149
680000000.0 -0.1300526991017268 -0.4072105453462902
700000000.0 0.2595520410881036 0.36600816384048285
720000000.0 0.12987692331189626 -0.42983617773645516
740000000.0 0.41683054006176384 -0.1408343985633765
760000000.0 -0.40045742264951517 -0.11863242105055335
780000000.0 0.19225394325798806 -0.3341879685187237
800000000.0 0.1021477164170489 0.3353572438760052
820000000.0 0.1210905849661567 0.26164996030528026
840000000.0 0.1834391572587596 0.14426513617538372
860000000.0 0.087164330725807 0.17905402881030166
880000000.0 -0.1303665972457011 0.040047480293397365
900000000.0 -0.06818198295231039 -0.018397195225017374
920000000.0 0.024290013258984732 -0.030008323648394737
940000000.0 0.029512145814523317 0.0075055628181933814
960000000.0 -0.039096040977735426 -0.015706659653611937
980000000.0 -0.025283742843486032 0.044727096302633655
1000000000.0 -0.05286116536375436 -0.02323305857712406
1020000000.0 -0.05310809936191246 -0.048685517376755215
1040000000.0 -0.06536509542467192 -0.05255357452934115
1060000000.0 0.10249216233907754 0.0686592345520661
1080000000.0 -0.06349247683568099 -0.12519235257102834
1100000000.0 -0.06654077418500902 -0.15307532291732076
1120000000.0 -0.19668146012824825 0.022610585848502958
1140000000.0 0.2390538264255921 -0.0392465291338259
1160000000.0 0.11332897400829943 -0.26262675355754556
1180000000.0 -0.26397658491441656 -0.19905498975662478
1200000000.0 -0.35554211377066597 -0.08948504392528157
1220000000.0 -0.028153818607547898 -0.39596772296427
1240000000.0 0.405870273952533 0.10242744247037557
1260000000.0 -0.4365302801304208 0.05121044371986074
1280000000.0 0.4358473730649201 -0.10734050638281863
1300000000.0 -0.43682968519951126 -0.09945133255979875
1320000000.0 -0.09159091650974431 0.4248782820367472
1340000000.0 -0.34415621389887086 0.23812387787181127
1360000000.0 -0.1643094767810973 -0.37273051705837795
1380000000.0 0.2249399323786452 -0.338740770100733
1400000000.0 0.26801605754164737 -0.2921297058328684
1420000000.0 0.20439016668149812 -0.3287798581319627
1440000000.0 0.015570246671563846 -0.3733558688765424
1460000000.0 -0.33889916423503746 -0.11275349623808853
1480000000.0 0.11541372286312743 0.31746427315277875
1500000000.0 -0.20711190173820862 -0.2328927160579705
1520000000.0 0.02413867329062037 0.2848937906705019
1540000000.0 0.04272953508010807 0.25050341161228695
1560000000.0 0.1943059368917988 0.08875316521102089
1580000000.0 0.13755830361082336 -0.11329684749335447
1600000000.0 0.03830971780098463 0.13876785280633666
1620000000.0 -0.10175654579449064 0.007118588874119503
1640000000.0 0.04386450150350648 0.059262760639914286
1660000000.0 0.047189283964937656 0.0002462353447702269
1680000000.0 0.016564406898809756 0.0044042985973015815
1700000000.0 -0.0030249310487943724 -0.011078167339070685
1720000000.0 -0.023568618594197677 -0.020637288201299567
1740000000.0 -0.042359099694831016 0.02860369951656342
1760000000.0 0.024038294722465332 -0.06002952050383313
1780000000.0 0.018241199601650337 0.08127044072701599
1800000000.0 0.03485623908900829 -0.10138293989339373
1820000000.0 0.11803677371083067 -0.028527746841485922
1840000000.0 -0.07282474638730424 0.12771840281857363
1860000000.0 -0.13759445261057815 -0.10532608667131191
1880000000.0 0.1463053629993385 -0.15192332885101495
1900000000.0 0.2266731316474103 -0.11927171657981159
1920000000.0 -0.2895550287159769 -0.08857247840182966
1940000000.0 0.14105647896513138 0.3190906248295783
1960000000.0 -0.08864164788091931 -0.3760778486960525
1980000000.0 0.14463845167418385 0.3879691363211777
2000000000.0 0.13139369912909402 -0.41641131422909367
2020000000.0 -0.21758271607887472 0.3936130962759602
2040000000.0 0.45072506372631227 0.030117046986142065
2060000000.0 -0.22728798312081738 -0.3854221333020325
2080000000.0 -0.4064025022728626 0.14765662814171399
2100000000.0 -0.31139808856365425 0.2758200813911654
2120000000.0 -0.3565634478047984 0.17813168450110367
2140000000.0 -0.3755352443020986 -0.07404724600249389
2160000000.0 0.30063753208364924 -0.2150694543102863
2180000000.0 0.35957300141894466 -0.012629148821889166
2200000000.0 0.3330184218031374 0.11517067058634704
2220000000.0 0.2907111692633108 -0.19997709825540047
2240000000.0 -0.18733579025274882 -0.29853723108830504
2260000000.0 -0.32359142452935286 0.14845331484061386
2280000000.0 0.20781769879714435 0.2928852862076185
2300000000.0 0.2259580896000978 -0.2949962311046717
2320000000.0 -0.38091786983377357 -0.08230803914624023
2340000000.0 -0.09654184952291775 0.40497668865255027
2360000000.0 0.44980563596079354 -0.04633912482775877
2380000000.0 -0.41518328132908583 -0.27636125536591455
2400000000.0 0.2813288521812247 0.47248920103431435
2420000000.0 -0.40151362446228434 -0.45089508966083836
2440000000.0 0.6406911144862242 0.13610216119192492
2460000000.0 -0.6226354756338336 0.3131085405360302
2480000000.0 0.4058938171544887 -0.606449361314153
2500000000.0 -0.3121363627533291 0.6827721302561541
2520000000.0 0.4314150386993282 -0.6284874930973837
2540000000.0 -0.6652056574119635 0.3777424324514304
2560000000.0 0.7551705725014632 0.08213543144728984
2580000000.0 -0.336736281476827 -0.6639859625760341
2600000000.0 -0.271524278060187 0.6664008743658825
2620000000.0 0.6674275710774916 -0.1736885523890581
2640000000.0 0.5021225669805306 -0.41773304793051835
2660000000.0 -0.5777036760101164 -0.19508877001203687
2680000000.0 0.13982943820475346 0.5483640549996537
2700000000.0 0.17038462433719478 -0.49343316908284185
2720000000.0 -0.26202563269604673 0.3969881463291633
2740000000.0 0.23983946354152902 -0.3583445872992773
2760000000.0 -0.09941202278761375 0.376992427981173
2780000000.0 -0.18312143810372797 -0.3048192076137812
2800000000.0 0.3088010880288547 0.09868767855324231
2820000000.0 -0.2897338717540804 0.08256220293202679
2840000000.0 0.27289832795481944 -0.09026258283567348
2860000000.0 -0.2690124102625357 0.08734483846077976
2880000000.0 0.2755395578428064 -0.06633716007469087
2900000000.0 -0.26987813197703664 -0.10144807946507564
2920000000.0 0.022181669055569612 0.2995165347293569
2940000000.0 0.19243829640317234 -0.24583567339470624
2960000000.0 -0.3062089097327676 -0.08895939571417193
2980000000.0 -0.29832276464383845 0.1285234671974248
3000000000.0 -0.27871701122222897 0.17363136337487006
3020000000.0 -0.3254431870786273 0.0198408388481923
3040000000.0 0.00691855935487883 -0.32016841953419395
3060000000.0 0.21802649576401265 0.2222892217883209
3080000000.0 -0.2047159623922176 -0.22091547867544326
3100000000.0 0.12511368714253737 0.2646796699164754
3120000000.0 0.1002117837584086 -0.26452007270817174
3140000000.0 -0.19936154302893233 0.18634442790116196
3160000000.0 0.2568230255931983 -0.04782925623273891
3180000000.0 0.02043918872823207 -0.24831310197066903
3200000000.0 0.18953668474339197 0.13605014925976483
3220000000.0 -0.037079001206659336 0.20827135827117288
3240000000.0 -0.07736890442508158 0.1683588691341436
3260000000.0 -0.08232207405170633 0.12861295679828275
3280000000.0 0.06979666301155485 0.09334661678357466
3300000000.0 0.08050027912375783 -0.007397291744902644
3320000000.0 -0.014437665349672042 0.042607618424958436
3340000000.0 -0.0013074549876152689 0.014502796632210282
3360000000.0 -0.009809054079610352 -0.006830835385090113
3380000000.0 -0.0034799928639375486 0.023854331274378075
3400000000.0 0.03006282353883424 -0.003970529346742668
3420000000.0 -0.025975405695259867 -0.017372220594408395
3440000000.0 0.008172869286443864 0.031323557330263714
3460000000.0 0.03466607752977138 0.023490370914869257
3480000000.0 0.052541888179568966 -0.03411311194559284
3500000000.0 -0.06023870369352541 0.061703247751332936
3520000000.0 0.011306504760701972 0.10891059262873642
3540000000.0 0.11834528663324277 -0.04031136629197898
3560000000.0 0.09465137936009944 -0.09690801840178076
3580000000.0 0.11877416287383039 0.08042792942599818
3600000000.0 -0.1139340341682754 0.10343145028351744
3620000000.0 0.006456252465133919 -0.1598993552226632
3640000000.0 -0.06914322518212684 0.1521017322031503
3660000000.0 -0.035771665687206994 -0.17469436682745793
3680000000.0 0.17188380612875692 0.07492486269078114
3700000000.0 0.05370778695406742 0.18597844296496804
3720000000.0 -0.005759138969951866 0.19888870482048987
3740000000.0 0.1358889619263323 0.14350708451563265
3760000000.0 -0.04262781251024161 0.1870658137895755
3780000000.0 -0.18000748345008846 0.005913573883928461
3800000000.0 0.16389017606440584 -0.007981678382533544
3820000000.0 0.14811522375672714 0.02061227764621689
3840000000.0 -0.13671263239615436 0.00022380836300612468
3860000000.0 -0.0935680977939956 0.09882707118093927
3880000000.0 0.06982281825901861 -0.1310053231025455
3900000000.0 -0.15032787409180215 -0.06063461436490307
3920000000.0 0.17085300894438585 -0.035885568355679125
3940000000.0 0.18026127490864086 0.032152313258949884
3960000000.0 0.04115843378564649 -0.1829241952184753
3980000000.0 -0.12335826463227142 0.13489191441425005
4000000000.0 -0.0024487542784022843 0.1691288245457293
