! Created with skrf (http://scikit-rf.org).
# Hz S RI R 50.0 
!freq ReS11 ImS11
400000000.0 -0.8085869551621939 0.3004555775710249
420000000.0 0.1478856850822553 0.8535113812182684
440000000.0 0.8159568316404071 -0.19104896964492782
460000000.0 0.33565067554636463 -0.7131033387117569
480000000.0 0.6099120849655848 -0.3907216781219211
500000000.0 -0.47359135744006614 -0.30660953886901743
520000000.0 -0.4259260544240961 -0.23947573541429243
540000000.0 0.07445403075241296 -0.40557649123456624
560000000.0 -0.35925346896751637 -0.07668488161872351
580000000.0 0.1560958646242213 -0.27961490629993163
600000000.0 0.00973826260663096 -0.3284955029242197
620000000.0 0.2974559047810074 -0.1476359292451685
640000000.0 -0.3467561248786248 0.030688479430058778
660000000.0 -0.3221388384622831 0.20820157092193273
680000000.0 0.14449299439273244 -0.37904657780940576
700000000.0 -0.42572497186596314 0.11019629506295212
720000000.0 -0.0029644203916803624 0.4421205524332425
740000000.0 -0.38978065511993604 0.23636055170064094
760000000.0 -0.1937041987201515 -0.3896113907371595
780000000.0 0.40027968704424727 -0.004689545748154811
800000000.0 0.17405171046615056 0.31768052974290034
820000000.0 0.04167744381626755 0.2947803211357011
840000000.0 -0.03782925420003567 -0.24345240179508812
860000000.0 0.18540576050360016 -0.05408067828081716
880000000.0 -0.00392534078969201 -0.14790180314856802
900000000.0 0.011132402858096867 0.06685490209976336
920000000.0 -0.028701538697276867 0.02019669724891596
940000000.0 -0.01705646981004317 0.037130424601271264
960000000.0 -0.03992828063434824 -0.03176705868903036
980000000.0 0.028876266488560696 0.047876141309307924
1000000000.0 -0.06141119391546363 -0.015254432927326901
1020000000.0 -0.01149558928883986 -0.06898328969146734
1040000000.0 -0.004754921329021676 0.08049333702645242
1060000000.0 0.06508858224391474 0.09488489519480368
1080000000.0 0.13000669609345764 0.046077657937329645
1100000000.0 0.0720993066985921 -0.14693846471757813
1120000000.0 -0.006678276060534715 -0.19903683280254622
1140000000.0 0.231318106954074 0.08224861034518532
1160000000.0 0.05261022341982488 -0.2843478378783877
1180000000.0 -0.25994571469037675 0.20807491723883118
1200000000.0 -0.33075519661826625 0.15162746079164352
1220000000.0 -0.35435681606579555 -0.17831560631832627
1240000000.0 0.3946273405897723 -0.1246154212896962
1260000000.0 -0.3427679438298045 0.26918066714359334
1280000000.0 0.4043835375057261 -0.1702529013851839
1300000000.0 -0.2522406359085549 -0.36293487451831125
1320000000.0 -0.40978275755775384 0.12838034452991548
1340000000.0 -0.1634435466816038 -0.38900541495006735
1360000000.0 0.2609559715568662 -0.3294498999022354
1380000000.0 0.28990999549960716 -0.30730286621328234
1400000000.0 -0.2784700003510077 -0.3016896058617775
1420000000.0 -0.39545096986539613 -0.04218893421058523
1440000000.0 0.0499696316265061 0.3733784205505205
1460000000.0 0.28190119011222103 0.2042363831165947
1480000000.0 0.20913625910619663 -0.24805638753646594
1500000000.0 -0.2065478760179818 -0.21332030426933457
1520000000.0 -0.2550794017316716 0.0858988404909966
1540000000.0 0.02344358149325046 -0.2433440690449525
1560000000.0 0.08023921228226438 -0.19518856176168092
1580000000.0 0.036133313670057676 -0.17546195053484007
1600000000.0 -0.001621180677774985 0.146621863259712
1620000000.0 0.03745578426591651 -0.10599737197534123
1640000000.0 -0.008615257792588123 -0.08410683452946566
1660000000.0 -0.060299746820361134 -0.0031026517850026667
1680000000.0 0.009921310183247024 -0.02850645954849357
1700000000.0 -0.00759026736352739 0.00858459282992773
1720000000.0 0.014374070888384315 -0.007862103945203381
1740000000.0 0.01720476314111514 0.03281621713678762
1760000000.0 0.006682088405279389 -0.05706204064202536
1780000000.0 0.018206612000201204 0.07876967791408787
1800000000.0 -0.11400690388895723 -0.014403389339322706
1820000000.0 0.13178849500058484 -0.0492489728337535
1840000000.0 -0.08849626599839522 -0.14210743272963453
1860000000.0 -0.07238203202279617 0.1813981489787549
1880000000.0 -0.007049155606172387 0.22448527310086255
1900000000.0 0.016429033013680976 0.26053651758494356
1920000000.0 0.2910309206108898 -0.061253434042980455
1940000000.0 0.1308608583964185 -0.30748349479770737
1960000000.0 -0.36886753113789705 -0.016038773576776248
1980000000.0 0.1574630021363248 0.3628160566762358
2000000000.0 0.41005323362868756 -0.09300511952013679
2020000000.0 -0.2131972362940389 -0.38562850541229154
2040000000.0 -0.16165929092940814 0.42146583843449786
2060000000.0 0.4528732778554351 -0.0185541685731163
2080000000.0 -0.1882338212932771 -0.4088271573728733
2100000000.0 -0.34058058815973663 0.27337656248452974
2120000000.0 -0.09971815719799922 0.40564221789705046
2140000000.0 -0.39501653937142345 -0.04481953566618669
2160000000.0 -0.37803149621923665 -0.022475764573274184
2180000000.0 -0.18203821388235858 -0.31430873266123954
2200000000.0 -0.05516701171165304 -0.346766891527318
2220000000.0 0.23182626569521236 -0.2597391463149304
2240000000.0 -0.06011440002871736 -0.34518908058538056
2260000000.0 -0.3019530298407778 -0.1929180193940172
2280000000.0 -0.12051023459852145 0.3467050645512048
2300000000.0 0.36809885680055 -0.09954237825439989
2320000000.0 -0.34541678476094106 -0.20739053873244442
2340000000.0 -0.0813329760292002 0.42266905985477743
2360000000.0 0.26227052726275846 -0.3841371160673967
2380000000.0 -0.4964797149028106 0.11231998475612255
2400000000.0 0.5514117706009171 -0.09155870652145234
2420000000.0 -0.5055554196333352 0.3408074636771938
2440000000.0 0.17927096593974634 -0.632612267333403
2460000000.0 0.3036378126869259 0.6263518284448443
2480000000.0 -0.6151963879755364 -0.3852325534384574
2500000000.0 0.6525743290740067 0.35932209463892284
2520000000.0 -0.5916285902704365 -0.4688189500110552
2540000000.0 0.3576858769141695 0.6661314141301494
2560000000.0 0.21870176419600829 -0.7179873039013879
2580000000.0 -0.7058113237566747 0.2066585265631535
2600000000.0 0.5831436445219736 0.40695104673220495
2620000000.0 0.013700492548108578 -0.6811654487333645
2640000000.0 -0.2940767365927078 -0.5733609494489055
2660000000.0 -0.31716820252696065 0.5092410194666975
2680000000.0 0.5510550865184566 0.07172573124605258
2700000000.0 -0.24437145164585458 -0.44946904615826355
2720000000.0 -0.03248642663063189 0.46499202511409415
2740000000.0 0.26727513514831114 -0.3287152452505307
2760000000.0 -0.29886335711218626 0.24297226497979565
2780000000.0 0.21820061123239357 -0.27655603161058084
2800000000.0 -0.10115876922317038 0.30993078918965394
2820000000.0 -0.13400960606092638 -0.27624400771894325
2840000000.0 0.27563689317229434 0.10309205246115706
2860000000.0 -0.2502283803689886 0.14195379164908095
2880000000.0 0.10217972239290733 -0.26667319708403914
2900000000.0 -0.06798304171701618 0.2761902594532505
2920000000.0 0.2886059244055422 -0.019917521100582963
2940000000.0 -0.10768470521012116 -0.27449159918511823
2960000000.0 -0.2648935489120591 -0.1424434203455024
2980000000.0 -0.3037079397941214 0.04579282550067346
3000000000.0 -0.2854195591709719 -0.12339432441218882
3020000000.0 -0.08410034822262485 -0.3025013287508197
3040000000.0 0.2915810257252731 -0.10744329052175354
3060000000.0 -0.03436615869054848 0.3071433292387081
3080000000.0 -0.1581084891883421 -0.2589155227540052
3100000000.0 0.27358671341702556 0.11305389683448949
3120000000.0 -0.2848227544685314 -0.020358378758985555
3140000000.0 0.1804292880370319 -0.20452279214741903
3160000000.0 -0.1882468946882339 0.1734629950437076
3180000000.0 0.15832678540120826 0.17958840116965646
3200000000.0 -0.176981607669099 -0.1279233688968898
3220000000.0 0.18552740731175504 0.06585832537644261
3240000000.0 -0.13388723695796448 0.10836024247823416
3260000000.0 0.023430893149769972 -0.14384917824176335
3280000000.0 0.11665706561955769 -0.00023277784332413935
3300000000.0 0.08820254258911912 -0.0009224177155744978
3320000000.0 -0.03646545685350124 -0.04470457669222371
3340000000.0 -0.029309746624049712 -0.0014596215083447343
3360000000.0 0.006290977465565876 0.010279714046697265
3380000000.0 -0.01832664518388688 -0.007465053464998184
3400000000.0 -0.029411421548481472 0.011906794656352485
3420000000.0 -0.017041441947690084 -0.03773740360972678
3440000000.0 -0.04108444505679683 -0.01722016815743806
3460000000.0 0.01567333454875274 0.04275294048028088
3480000000.0 0.04799019000480366 -0.02269411401094876
3500000000.0 0.06605603116497262 -0.02070787382701782
3520000000.0 -0.05228417258209528 -0.0771309958367012
3540000000.0 0.02261949692545331 -0.1110925954507342
3560000000.0 0.03581222202245695 -0.1260250334956613
3580000000.0 0.12495581359500856 -0.07186507404702175
3600000000.0 0.14195353937380095 -0.07633873815454005
3620000000.0 0.15562800561370332 -0.06481858188401243
3640000000.0 0.17542629169158963 0.02315830329986326
3660000000.0 0.05278354298187348 0.1736040037319984
3680000000.0 -0.18314276343206756 -0.024209040078694042
3700000000.0 0.05672254799331935 -0.1750478767250472
3720000000.0 0.1014798419262582 0.1547008628059942
3740000000.0 -0.14844116793782114 0.10882101287969001
3760000000.0 0.11270143156056335 -0.1416279575709528
3780000000.0 -0.05733626900382718 0.16647552231506904
3800000000.0 0.04868586436234197 -0.1610165085816506
3820000000.0 -0.15869107654449194 0.0003853942261121803
3840000000.0 -0.13462930518988359 -0.063214797244982
3860000000.0 0.1045097823339343 -0.09819984341757663
3880000000.0 0.037933240275600175 0.14214768836319744
3900000000.0 -0.051237014882217095 0.14326017936906932
3920000000.0 0.07500564536628954 0.1421063040537768
3940000000.0 -0.1713605916472188 -0.015139075451548087
3960000000.0 -0.18120707265451108 -0.005964154565355852
3980000000.0 0.1789864799299517 0.03991953063892237
4000000000.0 0.03629170665469377 -0.1712644320191014
