! Created with skrf (http://scikit-rf.org).
# Hz S RI R 50.0 
!freq ReS11 ImS11
400000000.0 0.23000903337674825 0.8419946879994429
420000000.0 0.640336880160366 0.5736709212049976
440000000.0 0.8018415525240157 -0.19662619272039736
460000000.0 0.1922100289054401 -0.7665861936800962
480000000.0 0.5367422122055293 -0.45850658668101524
500000000.0 0.41078704469560706 -0.3810772652952145
520000000.0 0.3523752109845282 -0.3407632448025538
540000000.0 0.4231236637303746 0.0677754349826791
560000000.0 -0.2967790170380708 -0.19608134244643893
580000000.0 -0.33252821660146076 0.05882488635422665
600000000.0 0.3304257907451046 0.05096625150494486
620000000.0 -0.23926074118492727 -0.25582198243136894
640000000.0 -0.34589439572253555 -0.16478248692082983
660000000.0 -0.27949844679726965 0.2857959646060399
680000000.0 -0.1305599004456622 -0.4077193208284693
700000000.0 0.2619933301827348 0.36378651571678616
720000000.0 0.06530416708137779 -0.44459888429169503
740000000.0 0.4178557705957524 -0.13756465982577157
760000000.0 -0.4002475231039516 -0.11926936439543322
780000000.0 0.20586612844338584 -0.32560327870907246
800000000.0 0.1226808431667811 0.3280854548844498
820000000.0 0.09711894508759622 0.27158190842359303
840000000.0 0.19490795792353197 0.12827572834660764
860000000.0 0.08343289327477978 0.1808986150044389
880000000.0 -0.13506642697299326 0.020868950453115005
900000000.0 -0.07089973045226641 -0.002185016202137581
920000000.0 0.02689893904328957 -0.02762013760588253
940000000.0 0.023349612959211844 -0.01973205852464978
960000000.0 -0.016173462222189593 -0.03945375904173724
980000000.0 -0.024511520511351356 0.04535639891187116
1000000000.0 -0.04773675231483869 -0.03241569595254183
1020000000.0 -0.057530696788036545 -0.04384479861943634
1040000000.0 -0.05585143244369814 -0.062415881533555796
1060000000.0 0.11629105275275278 0.04175553347313152
1080000000.0 -0.06900724845710898 -0.12220043848567007
1100000000.0 -0.06382667019211043 -0.15437919011704582
1120000000.0 -0.19195362631107582 0.04830420323128328
1140000000.0 0.2362106400701097 -0.05359677893774843
1160000000.0 0.1130049572367935 -0.26307502026161883
1180000000.0 -0.2596232724597466 -0.20446706153284328
1200000000.0 -0.350963715275791 -0.10643240605805132
1220000000.0 -0.012937164861661356 -0.3967873655815637
1240000000.0 0.40010539816881185 0.12247325850734783
1260000000.0 -0.4375040181360119 0.043764717657412716
1280000000.0 0.4374989692198845 -0.09949914549451103
1300000000.0 -0.42865990723739306 -0.1300814423402424
1320000000.0 -0.0839531068392711 0.4263005438733415
1340000000.0 -0.34434515382928976 0.2379576168711241
1360000000.0 -0.15213118883072851 -0.37788411396286803
1380000000.0 0.21233301331641044 -0.34668120724720786
1400000000.0 0.26025640750658696 -0.2986699847670028
1420000000.0 0.20437411835104582 -0.328730223605377
1440000000.0 -0.007179103603490583 -0.3735073418403262
1460000000.0 -0.34030175249334466 -0.10813484559142303
1480000000.0 0.13563764724496402 0.3096731383150443
1500000000.0 -0.21514859307112086 -0.22608798070819708
1520000000.0 0.06340606593094217 0.27849821580946954
1540000000.0 0.04476741629004787 0.25013886629183923
1560000000.0 0.19154576597792383 0.09461056937881591
1580000000.0 0.14183376743067308 -0.10837474987385937
1600000000.0 0.03436656221049135 0.1397363534524164
1620000000.0 -0.10187663669784061 0.00689128897594706
1640000000.0 0.04563012128002468 0.05788484271803916
1660000000.0 0.04471189145854553 0.014103602913929154
1680000000.0 0.015760899600810195 0.007048236199892807
1700000000.0 0.0013943679375633745 0.011712167430464123
1720000000.0 -0.01867033658609543 -0.025700425012926267
1740000000.0 -0.03564168537651994 0.03719974323998297
1760000000.0 0.044664216762369154 -0.04658415121572258
1780000000.0 0.012447140715336156 0.0825142642904437
1800000000.0 0.040150013393168746 -0.09934629364133399
1820000000.0 0.1169639026735442 -0.03222858752879284
1840000000.0 -0.08211169331649312 0.12205889472666925
1860000000.0 -0.14163194699361883 -0.09987450815870072
1880000000.0 0.15088038748822 -0.14717204236892356
1900000000.0 0.22375750398096658 -0.12422108411835851
1920000000.0 -0.290504646482401 -0.08496018030151467
1940000000.0 0.13803041146384643 0.32024004477136636
1960000000.0 -0.0943292011058157 -0.3744586045046808
1980000000.0 0.159405601195901 0.3820025279795795
2000000000.0 0.12711345676386906 -0.41774098154619016
2020000000.0 -0.1915602400143674 0.40715577338403314
2040000000.0 0.44606447701715046 0.07315155537260465
2060000000.0 -0.2282843727755 -0.38484463438179434
2080000000.0 -0.39202537470084026 0.18216298071381593
2100000000.0 -0.3045576245910644 0.28350853706365153
2120000000.0 -0.3732569431581036 0.1400827129500402
2140000000.0 -0.3746944158862545 -0.07795429717997003
2160000000.0 0.31149695683582573 -0.19939159835958775
2180000000.0 0.35951592421108086 -0.0169037654937359
2200000000.0 0.3351827189267724 0.10956655256265092
2220000000.0 0.29269619116031176 -0.19695212921218733
2240000000.0 -0.2003280873325302 -0.28962233915375873
2260000000.0 -0.31886381597114916 0.15845474772488125
2280000000.0 0.2146293838125796 0.28777068805686207
2300000000.0 0.2196316779773279 -0.2997608715604189
2320000000.0 -0.3835168558828464 -0.06987518116233199
2340000000.0 -0.09808155743578983 0.4046294522334996
2360000000.0 0.45061438888213967 -0.03443717208403326
2380000000.0 -0.4141472276152657 -0.27777674242753275
2400000000.0 0.28981789879050385 0.4673034468118291
2420000000.0 -0.4051143435616265 -0.4475247091025142
2440000000.0 0.6413678209441239 0.1320984940339446
2460000000.0 -0.6182339787241528 0.3217715269442654
2480000000.0 0.3579901181954664 -0.6355224134527456
2500000000.0 -0.27681081046367245 0.6978059748906996
2520000000.0 0.4256914805801003 -0.6325763438638163
2540000000.0 -0.6502516001110639 0.40269516853434534
2560000000.0 0.7560562584616785 0.07814252977690832
2580000000.0 -0.3385708966473992 -0.6632920917844795
2600000000.0 -0.2764804927641973 0.664537139754377
2620000000.0 0.665785087641585 -0.17992471559919712
2640000000.0 0.5396724439486947 -0.36779495635969756
2660000000.0 -0.5729814429698319 -0.20900526497799352
2680000000.0 0.1600589475301499 0.5427371890413086
2700000000.0 0.18484547255571912 -0.4879683809566342
2720000000.0 -0.2722852145267967 0.3896881311413874
2740000000.0 0.2645739141034828 -0.3400258291721978
2760000000.0 -0.10766942329088657 0.37436765849998427
2780000000.0 -0.1831851536088168 -0.3043843309931493
2800000000.0 0.31010287698309236 0.09273073456220855
2820000000.0 -0.285321288525947 0.09525862923200135
2840000000.0 0.2606022225546437 -0.11961685386507868
2860000000.0 -0.25927445422612255 0.11274152815843144
2880000000.0 0.26356829251282 -0.10341635198961764
2900000000.0 -0.2719599067729473 -0.09654896316245534
2920000000.0 0.0644056809408052 0.29349015627721925
2940000000.0 0.18892558201773493 -0.24881812585083024
2960000000.0 -0.3046418503529884 -0.09592168892926785
2980000000.0 -0.2914264725272676 0.14361068691202733
3000000000.0 -0.28821017563070395 0.1574776624214997
3020000000.0 -0.3266838437061674 0.0065793591191294866
3040000000.0 -0.046971531662950296 -0.3167880468760892
3060000000.0 0.1933511923326691 0.24449459417714917
3080000000.0 -0.20699044258595176 -0.21938342617689469
3100000000.0 0.10528573098879512 0.2732974218067332
3120000000.0 0.0864399242226277 -0.2693568359451413
3140000000.0 -0.24155437103464944 0.12618315588361442
3160000000.0 0.25706878909469427 -0.0468196480120277
3180000000.0 0.027085828601386107 -0.24745596994813812
3200000000.0 0.17435216103467022 0.15470220292448555
3220000000.0 -0.04009123641043064 0.20739292434012827
3240000000.0 -0.0949381509390224 0.15877581817164038
3260000000.0 -0.09455685224465367 0.11982432866031283
3280000000.0 0.07197436385769401 0.09146459000766204
3300000000.0 0.08045408727540991 0.003972329600630379
3320000000.0 -0.01558754169758719 0.04211646282990084
3340000000.0 0.009830361234841024 0.01034677623318133
3360000000.0 -0.002604327557315613 0.012072349117552868
3380000000.0 -0.014878330788009922 0.019176061394142987
3400000000.0 0.03046388582830129 1.671359268045909e-05
3420000000.0 -0.022593526185805256 -0.02183695294117923
3440000000.0 -0.0004940220650676351 0.0326144198226609
3460000000.0 0.04152290574464684 0.007445106969903013
3480000000.0 0.03871194522683446 -0.049428082618345456
3500000000.0 -0.046458590546392356 0.07280642899653411
3520000000.0 -0.00432737802319563 0.10944301400161932
3540000000.0 0.12074004008664098 -0.033333119451619146
3560000000.0 0.10079559236742867 -0.09076133393476521
3580000000.0 0.10949386085521569 0.09307577263146571
3600000000.0 -0.12668193360096458 0.08703014233722574
3620000000.0 0.01837012532664567 -0.15918878177107504
3640000000.0 -0.060578909620462855 0.15665442912317298
3660000000.0 -0.03187154421826656 -0.17591608776089024
3680000000.0 0.1667943152594051 0.08629096344634654
3700000000.0 0.04037662220941889 0.18971170680824315
3720000000.0 -0.027732752482026262 0.19781083763397908
3740000000.0 0.12243742552151729 0.15524627631984123
3760000000.0 -0.07498099608989392 0.17736828893536213
3780000000.0 -0.177459156549868 -0.03380390565151429
3800000000.0 0.16390282399883033 -0.004449428787262862
3820000000.0 0.14268411934301056 0.04473443711518674
3840000000.0 -0.13613547511730825 0.001201578370757015
3860000000.0 -0.10578039838724874 0.08533913861450165
3880000000.0 0.08972608321135317 -0.11783488883622849
3900000000.0 -0.12849400017894794 -0.09859418598541464
3920000000.0 0.17414408152344002 0.00531865599654737
3940000000.0 0.17696075805463526 0.046643981975465765
3960000000.0 0.07051021925750131 -0.17328352855330398
3980000000.0 -0.11367060215908095 0.1427625922734368
4000000000.0 0.008849734751339263 0.16854306102539626
