! Created with skrf (http://scikit-rf.org).
# Hz S RI R 50.0 
!freq ReS11 ImS11
400000000.0 -0.5800386345447086 0.6304847387150417
420000000.0 -0.0962410414489898 0.8609333991592159
440000000.0 0.837953084836686 0.03222039660686536
460000000.0 0.14412050032258647 -0.7859644266354829
480000000.0 0.27818793808099085 -0.6747332632739532
500000000.0 -0.35697426842483 0.4420704627597114
520000000.0 -0.47328436466699114 0.010488323768601093
540000000.0 0.40315103227090576 0.10925651819098943
560000000.0 -0.33755449106488594 -0.10599002116088842
580000000.0 0.331109535024796 -0.03986325789994458
600000000.0 -0.14226958009384835 -0.29245500579579575
620000000.0 -0.020564317623352434 0.3391624455818206
640000000.0 -0.18963690281058704 0.30913099521593523
660000000.0 -0.22208819618352005 0.30897492334768456
680000000.0 -0.15272482572915433 -0.37770848755221886
700000000.0 -0.40650051267210363 0.1367665084541703
720000000.0 -0.03934705742956039 0.43726395597618034
740000000.0 -0.3459617738877432 0.27536144594082185
760000000.0 0.3161292458595505 -0.2865209474562784
780000000.0 0.3896153091707685 0.07172304721323004
800000000.0 -0.15423505255112865 0.3268916870408852
820000000.0 -0.019452779724112225 0.3037398811351803
840000000.0 -0.09228552195262034 -0.22740465405680937
860000000.0 0.0314117393255047 0.19613667034479104
880000000.0 0.03038015427180896 0.15362344652457616
900000000.0 0.05945001199794892 0.05759203286004555
920000000.0 -0.040912019134202476 0.0271466980729256
940000000.0 0.015898006620690703 0.03407037311925674
960000000.0 0.048399376541480854 -0.007399376258140613
980000000.0 -0.012850464458519045 0.062207710545703336
1000000000.0 -0.05514324926025008 -0.040948087763835204
1020000000.0 0.011478737249168938 -0.08216366310357047
1040000000.0 0.03581035178661144 -0.08188763342298695
1060000000.0 -0.08654960054320308 -0.0960197146250036
1080000000.0 0.029986067348122116 0.14442738061931407
1100000000.0 0.096589582814525 0.14658561934423414
1120000000.0 0.1787230502425032 -0.08887805614986533
1140000000.0 -0.17059968707913017 -0.16907106339353564
1160000000.0 -0.24775983064282903 0.13319534784789328
1180000000.0 -0.14657273411884145 0.28306488809054664
1200000000.0 -0.24308673993220567 0.2526518112961839
1220000000.0 -0.027921564556983313 -0.3778345377551714
1240000000.0 0.22353077432815757 0.33583423790784717
1260000000.0 -0.1295194898074833 -0.40639823396866215
1280000000.0 -0.014171949570078007 0.44053039463004
1300000000.0 0.2902698840378705 -0.34135983979527107
1320000000.0 -0.37294415962558997 -0.23716250806472303
1340000000.0 -0.2832070498548405 -0.3299901169802563
1360000000.0 0.013415403130235039 -0.4295051161890934
1380000000.0 -0.25253667771022836 -0.3489422259989724
1400000000.0 -0.31662703962325334 0.2711880596875401
1420000000.0 0.04370912448191657 0.3960701004904772
1440000000.0 0.37218010749872565 0.001810041596212556
1460000000.0 0.2391859776758139 -0.24285707645884022
1480000000.0 0.11994909401921315 -0.28920985982805053
1500000000.0 -0.024792302611185254 -0.2841414945277045
1520000000.0 -0.23131224548266668 0.11991033160173054
1540000000.0 0.13131273124090112 0.19898000731233445
1560000000.0 -0.11045814939757335 0.17695285545253472
1580000000.0 -0.17411723076222868 0.052017238852942224
1600000000.0 0.14995179475450082 -0.0057373971945767575
1620000000.0 -0.056083222018746985 -0.1020359023110843
1640000000.0 -0.07401329109758263 -0.05229830890423142
1660000000.0 0.045147403456747594 -0.0502009549409358
1680000000.0 -0.03777993539225693 0.014862497009265363
1700000000.0 -0.02135859342476181 -0.0016716693015790063
1720000000.0 0.011667887783948524 0.011007662745569692
1740000000.0 -0.024675470453935054 0.017457642713566833
1760000000.0 0.027457296678926987 -0.043665520830815284
1780000000.0 0.07363306373985552 0.0332422862844232
1800000000.0 -0.09369749799417153 -0.06855745450465613
1820000000.0 -0.09198641794892422 -0.11346931084227396
1840000000.0 0.1700299966257428 -0.05746597939460361
1860000000.0 -0.11958844329478306 0.17166373360624712
1880000000.0 0.2369597986361715 -0.040524027350615686
1900000000.0 -0.15001462939753785 -0.22786579174632926
1920000000.0 -0.22928842115176704 0.19886616423061373
1940000000.0 -0.0047979965966336675 0.3313596374745885
1960000000.0 0.17216389523283526 0.3180245885972758
1980000000.0 0.3798494864443249 -0.06521452086309634
2000000000.0 0.35171756134887294 -0.20907290037862666
2020000000.0 -0.0951448811878707 -0.4216237791306307
2040000000.0 -0.441423041947937 0.07270043580089137
2060000000.0 0.17752313077728002 0.4163004921465953
2080000000.0 0.3292954575355605 -0.3084538914576325
2100000000.0 -0.29604058384559095 -0.3312490014504826
2120000000.0 -0.4181385237173229 0.089265617057078
2140000000.0 -0.29190628045094774 -0.28924176006127916
2160000000.0 -0.3868267468794423 0.05849452052570042
2180000000.0 -0.3705004017760836 0.02008894406285517
2200000000.0 -0.3288875388695382 0.13467603882471152
2220000000.0 -0.3267899335731805 -0.10158179313832216
2240000000.0 -0.34074114033340464 0.034453788303262164
2260000000.0 -0.30625494937154824 0.16025994406806054
2280000000.0 -0.028227122129850873 0.35547190011582513
2300000000.0 0.3456336753943524 -0.1375564620700891
2320000000.0 -0.3211548832691506 -0.23566191550288415
2340000000.0 0.05973709392322642 0.4253134978158671
2360000000.0 -0.006398950378500934 -0.47085488478489373
2380000000.0 0.015402562501111092 0.5153531567362039
2400000000.0 -0.17594988640456477 -0.5374904818852811
2420000000.0 0.4757181089449916 0.38823788014231236
2440000000.0 -0.6587098510268729 -0.02561702384202802
2460000000.0 0.607323257393183 -0.3388443576281832
2480000000.0 -0.507324556452393 0.5156104514713229
2500000000.0 0.5631888968466887 -0.48093569030524724
2520000000.0 -0.7140568690889144 0.22693619884212954
2540000000.0 0.7046645149234015 0.2539592745028768
2560000000.0 -0.21250756167205057 -0.7102458233163652
2580000000.0 -0.5470055197753292 0.4751166378902533
2600000000.0 0.6584776018910563 0.23421197828597015
2620000000.0 -0.10394989613997035 -0.6586927036246302
2640000000.0 -0.30884943651552577 -0.5470555599729385
2660000000.0 -0.34619010681340123 0.468485922041156
2680000000.0 0.5078135225985634 0.17298294013900997
2700000000.0 -0.05251012840089176 -0.4879388005100622
2720000000.0 -0.319500751365824 0.3096846863432489
2740000000.0 0.3809987499553469 0.13551575475861696
2760000000.0 -0.24756651736191226 -0.2747582578417692
2780000000.0 0.22795274999077178 0.25591303873390686
2800000000.0 -0.32250281577252315 -0.010709068733050804
2820000000.0 0.03316363037648051 -0.3057845964124663
2840000000.0 0.2970518236097899 0.007620574348227097
2860000000.0 -0.021249772175475294 0.29149239219630835
2880000000.0 -0.2841941947362076 -0.05283433144441601
2900000000.0 0.28812919776321355 -0.0009584664289491779
2920000000.0 -0.1515373663908034 -0.2464373318406813
2940000000.0 -0.25460821219135715 0.1393454707534943
2960000000.0 -0.2752774783345465 0.09826319618996184
2980000000.0 -0.27910901481238576 -0.10331719590987012
3000000000.0 0.08347854676694334 -0.29053305711658556
3020000000.0 0.30255246450759504 0.05250631051962746
3040000000.0 -0.12739844722596055 0.28058061242538385
3060000000.0 -0.19158045850167668 -0.24267635012572156
3080000000.0 0.3060644151857984 -0.01144065699193776
3100000000.0 -0.17184094415917772 0.24690038532775843
3120000000.0 -0.18430603560758324 -0.22638152687684593
3140000000.0 0.24745682032299574 -0.12948013232841837
3160000000.0 -0.21689507924336154 -0.14368754871760003
3180000000.0 0.2059045509407831 -0.12417798986489927
3200000000.0 0.014401751354368282 0.21329621696581721
3220000000.0 -0.05422902872257649 -0.17648642431587072
3240000000.0 -0.05067514285412824 0.14754317991989097
3260000000.0 0.09487587371969826 0.08676618587620821
3280000000.0 0.09618866392283715 -0.039321579924872424
3300000000.0 -0.07844417473552022 -0.031020114044208666
3320000000.0 -0.026753414727905565 -0.053978262004307276
3340000000.0 0.018461077947011875 0.034246075020398316
3360000000.0 0.018826076406067344 0.003824317624002307
3380000000.0 0.010957908784560957 0.013907183507390912
3400000000.0 -0.01643368933209604 0.025644581487991494
3420000000.0 -0.04485877531419554 0.004380561329371443
3440000000.0 0.053062342605273614 -0.0010412027337493722
3460000000.0 -0.021645588644710424 0.0521693084471282
3480000000.0 0.002987634855159222 -0.05929424668377361
3500000000.0 -0.06621139104793247 0.005757591076778791
3520000000.0 0.08055524418799592 0.013830659993191607
3540000000.0 0.04291534375427135 -0.08930124555977283
3560000000.0 -0.06072618599048241 0.09994061315406089
3580000000.0 -0.089051303795599 -0.10308218158774332
3600000000.0 -0.05345291654469734 -0.1481949376134652
3620000000.0 -0.16127425913306626 0.056732884990288876
3640000000.0 -0.1772862049795803 0.043330714383791546
3660000000.0 -0.05783283309988743 0.18071381239935358
3680000000.0 -0.10337756304021588 0.1579371036430456
3700000000.0 -0.176160835930217 0.05695671664868781
3720000000.0 -0.05856119545842098 -0.1703759180148566
3740000000.0 0.17038411391397476 0.03147616273936931
3760000000.0 -0.010910619048742914 -0.16850035110371603
3780000000.0 -0.13980893857855559 0.08258731802478234
3800000000.0 0.025606609955292205 0.1571558306239961
3820000000.0 0.15179165273364284 -0.03924739430630857
3840000000.0 -0.007758630164940836 -0.15244330827827818
3860000000.0 -0.04337979278552347 -0.14432197643839947
3880000000.0 -0.11005251404028803 -0.1013469957821019
3900000000.0 -0.14649729302371828 -0.025085763411111794
3920000000.0 -0.09153087510009257 0.12029746375893496
3940000000.0 0.13517409209375977 0.08015878720036877
3960000000.0 -0.05875059671650941 0.15568253635459528
3980000000.0 0.01678739459817224 0.17116486130143374
4000000000.0 0.1510283323770437 0.07759360731724005
