! Created with skrf (http://scikit-rf.org).
# Hz S RI R 50.0 
!freq ReS11 ImS11
400000000.0 0.2082511238480104 0.8477764944750472
420000000.0 0.647839532360275 0.5662789841015493
440000000.0 0.7865425062407879 -0.25015124059903077
460000000.0 0.183320472422399 -0.767431658146465
480000000.0 0.565609673681855 -0.4227340523339702
500000000.0 0.32507732827799424 -0.45915796394619257
520000000.0 0.2981045166473759 -0.3856500948275685
540000000.0 0.3597154605907274 0.23012169047260625
560000000.0 -0.22729790845668862 -0.2766144321315934
580000000.0 -0.25622813840245545 0.21998024828923166
600000000.0 0.32762713040056257 0.056772480325308274
620000000.0 -0.1430738692282512 -0.319530654362049
640000000.0 -0.36898707164175226 -0.10896989892574528
660000000.0 -0.27928625057319684 0.28615562075349193
680000000.0 -0.16468928186077259 -0.3943210998947836
700000000.0 0.2334386973041087 0.3818186399183773
720000000.0 0.08515141155560377 -0.44185438732396926
740000000.0 0.4144902365143028 -0.14963047324917617
760000000.0 -0.40150045806433615 -0.11460695198313317
780000000.0 0.21049872563166497 -0.3231876736348411
800000000.0 0.11313754288972414 0.33151765497319635
820000000.0 0.11469105205205092 0.26468191473372543
840000000.0 0.19367924510405504 0.1299687889669666
860000000.0 0.07222114428203617 0.1856689599866399
880000000.0 -0.13178667381054143 0.035045372402461764
900000000.0 -0.07032791868332695 0.0004364654826364893
920000000.0 0.03333889673840629 -0.019817622347334255
940000000.0 0.030719056518193434 -0.0030422524619893145
960000000.0 -0.03895439245595577 -0.017544369605989287
980000000.0 -0.03583575497248163 0.037216724105851785
1000000000.0 -0.04703004867654237 -0.033657387840000184
1020000000.0 -0.06143705971546657 -0.03844542788216151
1040000000.0 -0.04529259455629364 -0.07073389867311852
1060000000.0 0.1166506740888374 0.039803787705531765
1080000000.0 -0.05812597354044512 -0.1274992352239894
1100000000.0 -0.08197506880954228 -0.14554425394608397
1120000000.0 -0.19388787553252682 0.039162134598465514
1140000000.0 0.2379063513334107 -0.04440024769816988
1160000000.0 0.10259564943002968 -0.2674453460576215
1180000000.0 -0.2692154158562442 -0.1917353198829845
1200000000.0 -0.3504374098529767 -0.10921559902277599
1220000000.0 -0.01399351947926668 -0.39687505052432837
1240000000.0 0.39748680126944913 0.1318267221216093
1260000000.0 -0.435941588164483 0.05866231147922087
1280000000.0 0.43782787602794204 -0.09882178156600846
1300000000.0 -0.42865118096778976 -0.13083462046110528
1320000000.0 -0.08482969755963335 0.42622380303504664
1340000000.0 -0.34202751942536785 0.24171743099090284
1360000000.0 -0.16428477275215123 -0.3723635353405171
1380000000.0 0.22689668429838888 -0.33743628293818706
1400000000.0 0.25798386221216024 -0.30070122052880066
1420000000.0 0.20363947629954593 -0.3291664819007756
1440000000.0 -0.0036483207941546566 -0.3734561799743197
1460000000.0 -0.3377154644053959 -0.11636111706982649
1480000000.0 0.13283296313546164 0.3108597340865033
1500000000.0 -0.22264782524844035 -0.2186463015452964
1520000000.0 0.05439857251553474 0.2803574043880534
1540000000.0 0.0414810097382374 0.2508738031461899
1560000000.0 0.1938194503859186 0.090687502774773
1580000000.0 0.13062999364347777 -0.12146241978223049
1600000000.0 0.0010533234725277913 0.1440755988109613
1620000000.0 -0.10229495769036338 -0.004899813281488821
1640000000.0 0.0427269375246343 0.06011558386747897
1660000000.0 0.04582446583078508 0.010401116784791473
1680000000.0 0.01613861711305786 -0.004007257774743065
1700000000.0 -0.005679646635413619 0.010214601687411213
1720000000.0 -0.02142505099852225 -0.023277875478719925
1740000000.0 -0.0506634712810763 0.008564529086735885
1760000000.0 0.05670935918820963 -0.03114534241626265
1780000000.0 0.004678962267506649 0.0832820238652725
1800000000.0 0.044300727109856 -0.09771058113362037
1820000000.0 0.12067215109736949 -0.014254100149656293
1840000000.0 -0.08022079067946215 0.12362304269711716
1860000000.0 -0.14477001496205033 -0.09514063591651727
1880000000.0 0.152083736494079 -0.1457303036663295
1900000000.0 0.22784056067294314 -0.11674815246839158
1920000000.0 -0.29088174153316154 -0.08314201910470334
1940000000.0 0.14541162061950935 0.3170854249545698
1960000000.0 -0.09237761172982982 -0.3748657584161918
1980000000.0 0.15456311305037806 0.3841970917895671
2000000000.0 0.12476917148107695 -0.41838499125780043
2020000000.0 -0.20359775974789462 0.40119357540937145
2040000000.0 0.4507959392523556 0.032719847123677454
2060000000.0 -0.2084675534712147 -0.3963152105307315
2080000000.0 -0.4010920887093821 0.162218919892336
2100000000.0 -0.34041118677593335 0.24027196488660585
2120000000.0 -0.3505947440056479 0.18959406084684435
2140000000.0 -0.37222050560734116 -0.09076071650007195
2160000000.0 0.3108625994457564 -0.20075345013898685
2180000000.0 0.35920775844237524 -0.024564314681765183
2200000000.0 0.3353964156000159 0.10949977533015327
2220000000.0 0.28915169785557565 -0.20250484609436342
2240000000.0 -0.19459515526172444 -0.2937914976648925
2260000000.0 -0.31324584489529456 0.16962147063914715
2280000000.0 0.20637261647343905 0.2938470853763735
2300000000.0 0.2226545873942668 -0.2975670954966393
2320000000.0 -0.38287617179436667 -0.07339155822156233
2340000000.0 -0.07544650515253945 0.4095943097874524
2360000000.0 0.44638546584099587 -0.07284304578849607
2380000000.0 -0.4105648477016281 -0.28282628284162503
2400000000.0 0.31606719340705863 0.4500913960028033
2420000000.0 -0.4336653903777343 -0.41997013527036914
2440000000.0 0.6465987098354067 0.10431423639386685
2460000000.0 -0.6069431997022569 0.34225569808749634
2480000000.0 0.328935622765668 -0.6508816088665755
2500000000.0 -0.2594813790116431 0.7042618406361534
2520000000.0 0.3916177906739002 -0.653636521112112
2540000000.0 -0.6231340978877227 0.443179772167547
2560000000.0 0.7562497240079649 0.07152057460591062
2580000000.0 -0.4023040754476983 -0.625880683321486
2600000000.0 -0.30371004325651785 0.6524144858910317
2620000000.0 0.6673759055232745 -0.1723228633229454
2640000000.0 0.5076981795653255 -0.41021414206526474
2660000000.0 -0.5901305217887467 -0.1523556398778382
2680000000.0 0.15707179673452287 0.5431327194198131
2700000000.0 0.1591763668949475 -0.4966200148684963
2720000000.0 -0.27939536606376536 0.3845534202517961
2740000000.0 0.2455017789036075 -0.3539866844502562
2760000000.0 -0.11163199320519594 0.3729377083437396
2780000000.0 -0.17965544260663086 -0.30634388444055877
2800000000.0 0.3073966704231689 0.10195587216449617
2820000000.0 -0.28077540653773897 0.10751440797232537
2840000000.0 0.2686118320330638 -0.10154039007986503
2860000000.0 -0.25896444971648114 0.11249289468581343
2880000000.0 0.27055551640853553 -0.08450828345359192
2900000000.0 -0.2696387064724144 -0.1030127696861506
2920000000.0 0.07680806217612161 0.28989889440036964
2940000000.0 0.1893487935030333 -0.24816632365171098
2960000000.0 -0.30230885017557063 -0.10289714327110781
2980000000.0 -0.28812057308530303 0.14971746326921886
3000000000.0 -0.2840640489641842 0.16562208516899432
3020000000.0 -0.32692539287216527 -0.006705698727794961
3040000000.0 -0.04391470924689778 -0.31776684427505164
3060000000.0 0.19420838772278853 0.2437504941973936
3080000000.0 -0.1928133517392428 -0.23149694769018286
3100000000.0 0.054006911630789786 0.28776756708243745
3120000000.0 0.0955594692450548 -0.2665569340645284
3140000000.0 -0.20778781300877258 0.17678834375621946
3160000000.0 0.2596665296834628 -0.02919997869593906
3180000000.0 0.058565882308539416 -0.24176942339702936
3200000000.0 0.16932008266472473 0.16036245973708116
3220000000.0 -0.05601175091546963 0.2036497925217162
3240000000.0 -0.10749437881540726 0.15010849906055262
3260000000.0 -0.11925892299218326 0.0950380733877583
3280000000.0 0.05930308359021669 0.10022640565161654
3300000000.0 0.08020113190773594 0.00047106918929252535
3320000000.0 -0.02290613709699746 0.038333477791677215
3340000000.0 0.005711025331932129 0.012965983867657075
3360000000.0 -0.0007957037996272821 0.012454098915178163
3380000000.0 -0.021694693735644525 0.010863392423463621
3400000000.0 0.01857970113552496 0.024053258901584697
3420000000.0 -0.018310611641501034 -0.02563949941562947
3440000000.0 0.006010930134899632 0.03234105176435181
3460000000.0 0.04192577206979771 -0.008528486614761015
3480000000.0 0.052070183201789445 -0.03483528211887343
3500000000.0 -0.06421986241866232 0.057522070177391145
3520000000.0 0.002067242926175994 0.10978435494332237
3540000000.0 0.12078900021956121 -0.03336526962449165
3560000000.0 0.07939579756076262 -0.1103797862183608
3580000000.0 0.12054613677046175 0.07938716988923691
3600000000.0 -0.11884688152444271 0.09806722154139758
3620000000.0 0.021055640947519397 -0.15913971279735395
3640000000.0 -0.056930227293075904 0.15818846858023985
3660000000.0 -0.03085321071466148 -0.17626181167799956
3680000000.0 0.16197352723650887 0.09479159646436293
3700000000.0 0.02919522404116714 0.19148898782951768
3720000000.0 -0.03893797663430635 0.195637282806834
3740000000.0 0.11538806497251461 0.1607127647423638
3760000000.0 -0.0796553791966511 0.1751520243549964
3780000000.0 -0.177465553175798 -0.03129087256236665
3800000000.0 0.16407042697038401 0.0030562434140350312
3820000000.0 0.14865365153173815 0.011440549543315892
3840000000.0 -0.13144928574446044 -0.03803279574551217
3860000000.0 -0.10655398417048463 0.08507015768107029
3880000000.0 0.08839530885489083 -0.11938913245285508
3900000000.0 -0.12786943212023177 -0.09959243507487867
3920000000.0 0.17432991713928295 -0.002994322876193413
3940000000.0 0.17794869840004032 0.039583432750650946
3960000000.0 0.06814192216517784 -0.17423793512756297
3980000000.0 -0.1233698887643456 0.1345670528486954
4000000000.0 0.02099260398842436 0.16744444067113026
