! Created with skrf (http://scikit-rf.org).
# Hz S RI R 50.0 
!freq ReS11 ImS11
400000000.0 0.19672584074958502 0.8520161868217113
420000000.0 0.5957300295321991 0.6210873076770649
440000000.0 0.8142290543403191 -0.14465770042537773
460000000.0 0.1568199696131373 -0.7741418129337819
480000000.0 0.5721140034060845 -0.413856238813003
500000000.0 0.47249052848251333 -0.30146646304525276
520000000.0 0.21688993901708173 -0.4377085386666319
540000000.0 0.39718332196090667 0.1559921722326121
560000000.0 -0.29857241444706556 -0.1967799481320742
580000000.0 -0.3254404112688274 0.09191626771711109
600000000.0 0.3285007676122301 -0.0632523586990931
620000000.0 -0.0909312680765849 -0.3385481151194255
640000000.0 -0.3600631691270435 -0.13400542616851507
660000000.0 -0.3264318026412856 0.23189218165895525
680000000.0 -0.11066011613101785 -0.4133039486408931
700000000.0 0.21863618113514108 0.39194422658327227
720000000.0 0.13797775842122673 -0.4272623408097251
740000000.0 0.42370410234543177 -0.11770848034706602
760000000.0 -0.4010243161751763 -0.11477375674167457
780000000.0 0.19626808102837903 -0.33127731544060307
800000000.0 0.1308312052768129 0.324620102317436
820000000.0 0.1463325925595765 0.24821943807846208
840000000.0 0.19381460501122522 0.13033809690878265
860000000.0 0.08853426842506225 0.17853710579684665
880000000.0 -0.13252751583316771 0.033163121546505296
900000000.0 -0.06621604892582954 -0.025111186016039226
920000000.0 0.03641477707878331 -0.01324250153974468
940000000.0 0.020677194831412532 0.021692228076049938
960000000.0 -0.041065105405084804 -0.005398662060607609
980000000.0 -0.005208056116535533 0.05037757142946958
1000000000.0 -0.05558161149164954 0.013047469974887262
1020000000.0 -0.06721880584473824 -0.02493746946586031
1040000000.0 -0.07890818040080765 -0.028246243295392368
1060000000.0 0.1119169537100569 0.052230514452737846
1080000000.0 -0.0695317572214739 -0.12259824997347896
1100000000.0 -0.05862946161749638 -0.15717706171948076
1120000000.0 -0.19884462161557998 -0.0018513529760675234
1140000000.0 0.24285195068290166 0.0041528142975391725
1160000000.0 0.13094126517893415 -0.255229380372419
1180000000.0 -0.22643868908952017 -0.24167453186288498
1200000000.0 -0.33834286078972764 -0.1419626571736697
1220000000.0 0.036614380116898604 -0.3953162457460696
1240000000.0 0.3854323216897507 0.16266263526510885
1260000000.0 -0.4381254936074798 0.031525050347061205
1280000000.0 0.4428627193984663 -0.07009995163199585
1300000000.0 -0.4256856105574435 -0.13731826083551021
1320000000.0 -0.0984900341850641 0.42279113531343565
1340000000.0 -0.34116744322929926 0.24161358539137262
1360000000.0 -0.16842999717582371 -0.37042502123015725
1380000000.0 0.20771567956046175 -0.3494162323356972
1400000000.0 0.24665774849280533 -0.3106427834201606
1420000000.0 0.18010557877951627 -0.3431882833005364
1440000000.0 -0.027017622217528542 -0.37321837096223354
1460000000.0 -0.3481616944480505 -0.08403038358758623
1480000000.0 0.13734628483698008 0.31011451703857223
1500000000.0 -0.21381633232578295 -0.22829345429850256
1520000000.0 0.0531131179722561 0.28170851964352284
1540000000.0 0.026108334790086174 0.25371792709578894
1560000000.0 0.19013353749317352 0.09923846462045774
1580000000.0 0.14459935378547567 -0.10507661991647685
1600000000.0 -0.0329616232740211 0.14041586152033989
1620000000.0 -0.0934649584588311 -0.04011550917690483
1640000000.0 -0.008326848021762904 0.07243702836833572
1660000000.0 0.04498598387789403 0.009510594812698602
1680000000.0 -0.004171627069884804 -0.015194231026648655
1700000000.0 0.004627392758483639 0.011778375701241364
1720000000.0 0.0007767180048169715 -0.03216997333145605
1740000000.0 -0.046310043413928095 -0.02193657144923388
1760000000.0 0.06299888169155475 -0.011305961902980884
1780000000.0 -0.024266263155427934 0.07882230912970693
1800000000.0 0.06495333605762632 -0.08380533929455239
1820000000.0 0.12000319366510627 0.00629224290562866
1840000000.0 -0.09543996026188907 0.11036670948089329
1860000000.0 -0.12204893454806141 -0.1212465986649162
1880000000.0 0.1586967864060171 -0.1367999148728939
1900000000.0 0.22584347935800028 -0.11873824804542486
1920000000.0 -0.2942459924881746 -0.06847479117359144
1940000000.0 0.17964331790925467 0.29858742196987603
1960000000.0 -0.13360589531998757 -0.3626121509818408
1980000000.0 0.19068303992315225 0.3679476530671201
2000000000.0 0.0828198541038711 -0.429471211833413
2020000000.0 -0.18241967516771176 0.4119520297582639
2040000000.0 0.4517171318012454 0.03449100708500111
2060000000.0 -0.19669186962089896 -0.4035671323725228
2080000000.0 -0.41864619041285445 0.11371068429645802
2100000000.0 -0.3440229285244648 0.2366812175063262
2120000000.0 -0.3914379416522958 0.08204596281549142
2140000000.0 -0.3408563485806226 -0.17731806058587893
2160000000.0 0.35162924629436293 -0.11813910420829753
2180000000.0 0.343431044544175 0.11070148155379107
2200000000.0 0.27606059001201 0.22012425284040774
2220000000.0 0.34429173819901104 -0.0777385864623269
2240000000.0 -0.09918344957358022 -0.3373348763018793
2260000000.0 -0.3460174135764637 0.0801963191226232
2280000000.0 0.15087390143157609 0.3246419092849889
2300000000.0 0.262164010847373 -0.26132771440297825
2320000000.0 -0.36940312422397176 -0.11913799100468275
2340000000.0 -0.13506214961466081 0.39186536922619825
2360000000.0 0.4503738760602801 -0.004296802640784487
2380000000.0 -0.40152126184009257 -0.2938563134004925
2400000000.0 0.28097906579957493 0.47193610520526863
2420000000.0 -0.3912112189367593 -0.4597247904835011
2440000000.0 0.6333398020707173 0.16863033825145152
2460000000.0 -0.6402787800057064 0.27832751963617924
2480000000.0 0.4467006215899906 -0.5792754757518686
2500000000.0 -0.3778182748338596 0.6511603992797382
2520000000.0 0.5031834776920625 -0.5757023023350913
2540000000.0 -0.7116900411964369 0.28628131271647594
2560000000.0 0.7286815592934579 0.2230897401553415
2580000000.0 -0.22268084331743576 -0.7128076866085704
2600000000.0 -0.416274426607692 0.5896548919376557
2620000000.0 0.691583380654448 -0.00048142656664927695
2640000000.0 0.5998366804812796 -0.2621846707782835
2660000000.0 -0.5060853772433777 -0.3422663944143439
2680000000.0 0.030235472620118095 0.565923261104029
2700000000.0 0.24800870276909817 -0.4601071769676426
2720000000.0 -0.3340898415925338 0.3386998772604484
2740000000.0 0.2661560988979863 -0.3392085729335706
2760000000.0 -0.11391785249976383 0.3726192243678657
2780000000.0 -0.19496316476513034 -0.2972059094939217
2800000000.0 0.31514763908979126 0.07564171354301291
2820000000.0 -0.2772801257361915 0.1183820723030237
2840000000.0 0.2515145401395827 -0.13930969371402468
2860000000.0 -0.23865767584942443 0.15267244982313977
2880000000.0 0.26634151284239405 -0.10041159545479902
2900000000.0 -0.2776521836536357 -0.0831379497133133
2920000000.0 0.0773434430903329 0.29174822756806906
2940000000.0 0.18683790763469238 -0.2526307965312968
2960000000.0 -0.2864540411174662 -0.14509888273220573
2980000000.0 -0.31248551050272527 0.09591209432203485
3000000000.0 -0.3027878621386857 0.13132855840878005
3020000000.0 -0.32760062685878766 1.107578322698103e-05
3040000000.0 0.029436764573976943 -0.32002780317947765
3060000000.0 0.15757418162908918 0.2699310254766527
3080000000.0 -0.13333920911478023 -0.27112107501878147
3100000000.0 -0.04848562580926922 0.2889858656199246
3120000000.0 0.15561342588787283 -0.23722000789282682
3140000000.0 -0.25722824880221445 0.09128956032198567
3160000000.0 0.2518708193343627 0.06861489352859514
3180000000.0 0.10943706798965992 -0.22344771952314818
3200000000.0 0.13673567999682568 0.18824738188935577
3220000000.0 -0.07783176810600723 0.1959207856919861
3240000000.0 -0.10333628059079385 0.15230302310530316
3260000000.0 -0.07127735977469339 0.13352077404446944
3280000000.0 0.09781845761537146 0.06087113540939846
3300000000.0 0.05345634023226004 -0.058918495059765874
3320000000.0 0.043995978012399316 0.0001838654206187825
3340000000.0 0.002679791668964027 0.014101774231114956
3360000000.0 0.008679505759235435 -0.009967529079526258
3380000000.0 0.02369490145125669 -0.0055835296258755175
3400000000.0 -0.024649894641817747 -0.01716089964011847
3420000000.0 0.015999180432572552 0.026694447598764808
3440000000.0 0.02393605356934416 -0.022169713969850787
3460000000.0 -0.03868156357654812 0.01949302645287025
3480000000.0 0.038145726794157515 0.05116704856914097
3500000000.0 -0.08715622084518888 -0.00892877879751846
3520000000.0 -0.08454571101522866 0.07068615502175574
3540000000.0 0.0965614606011708 0.07979077165013755
3560000000.0 0.13561002721572626 0.0047868968747658905
3580000000.0 0.015491050215854766 0.14255386604921627
3600000000.0 -0.1515517877212205 -0.022992899694806078
3620000000.0 0.12458605071738736 -0.09981406911641619
3640000000.0 -0.1539383066023083 0.06356697206782286
3660000000.0 0.085654330109217 -0.1556481467730862
3680000000.0 0.0900960552023859 0.16339285533443093
3700000000.0 -0.04940998976041822 0.185979646424989
3720000000.0 -0.0837778475773626 0.17905135976982375
3740000000.0 0.07737465467307234 0.18018645453530965
3760000000.0 -0.09955559881678056 0.16247438755316718
3780000000.0 -0.17522597804556161 -0.03120608492252766
3800000000.0 0.16150905486497666 0.0009254606424306491
3820000000.0 0.14444699394290494 0.0247195395091871
3840000000.0 -0.12769396111809242 -0.0411633314167467
3860000000.0 -0.11640388826359743 0.06542946787805796
3880000000.0 0.11030764250744286 -0.09600811418810296
3900000000.0 -0.12302513397629611 -0.10185262408661962
3920000000.0 0.1704795249531211 -0.022202963836720328
3940000000.0 0.17990574124041914 -0.005095791032279729
3960000000.0 -0.012444726547454965 -0.18466937444147033
3980000000.0 -0.16306904688297252 -0.07758716238850932
4000000000.0 0.1201504623833369 0.11638709648607935
