! Created with skrf (http://scikit-rf.org).
# Hz S RI R 50.0 
!freq ReS11 ImS11
400000000.0 -0.7935141890208383 0.3401245200271354
420000000.0 0.1603112204889881 0.8496001522118317
440000000.0 0.8175042739701346 -0.18924038113977282
460000000.0 0.2877889890246462 -0.734679789230958
480000000.0 0.5621344069058628 -0.4553549113593957
500000000.0 -0.3720746903965757 -0.4227379486981391
520000000.0 -0.44264179046241703 -0.21308151155864
540000000.0 -0.10656658825823548 -0.3976462237414952
560000000.0 -0.3322288320723648 -0.1523489427367951
580000000.0 0.23053689502737912 -0.2244849368865185
600000000.0 -0.11113812940498835 -0.30965852970301827
620000000.0 0.2739579018986762 -0.18488820299955935
640000000.0 -0.3430086375067829 -0.05893221682486802
660000000.0 -0.2785646703266312 0.26326238203129676
680000000.0 0.19848225885478932 -0.35413465886597423
700000000.0 -0.4196172495707238 0.1293802839256027
720000000.0 -0.018278580290584445 0.4416926941633866
740000000.0 -0.3891540805993422 0.2381033952939316
760000000.0 -0.2078858766642996 -0.38204271640113396
780000000.0 0.40016503108180557 0.011479729748596772
800000000.0 0.16308583117143471 0.3238759133648489
820000000.0 0.058424680086374324 0.29244245966892146
840000000.0 -0.04090864487772583 -0.24294499313537063
860000000.0 0.18901350145748044 -0.04146378561335115
880000000.0 -0.053171020585427574 -0.13899755744600734
900000000.0 0.030145126027834188 0.06129725074138058
920000000.0 -0.03590877313126143 0.0006946267668052364
940000000.0 -0.009117399514599086 0.039086089506744345
960000000.0 -0.03961503458412968 -0.03187486174345962
980000000.0 0.03731374678117331 0.04142044185050111
1000000000.0 -0.06256320920728498 0.010981960845431337
1020000000.0 -0.022520630765048382 -0.06626693829645076
1040000000.0 -0.009461170971771016 0.08042548339226231
1060000000.0 0.07262202004468318 0.08976129253650657
1080000000.0 0.13318492774396887 0.0361475039623444
1100000000.0 0.1030616532968806 -0.12670334993921667
1120000000.0 0.012405266194696412 -0.19879791283696222
1140000000.0 0.23533593316601278 0.0707388296907205
1160000000.0 0.06339593280193902 -0.2814938202701017
1180000000.0 -0.2695537506556825 0.19535403610538743
1200000000.0 -0.330587166428064 0.15281023253043804
1220000000.0 -0.3638903688621625 -0.1582021069183756
1240000000.0 0.3969378449978123 -0.11639351600134507
1260000000.0 -0.33937585898182754 0.27332772438546443
1280000000.0 0.3959316186651026 -0.1889716748514464
1300000000.0 -0.26518119558428244 -0.35339018930334193
1320000000.0 -0.3996829037865397 0.15610098010781306
1340000000.0 -0.1847029861891778 -0.3797097637338367
1360000000.0 0.258443001355728 -0.33122295744983665
1380000000.0 0.2633637092786891 -0.3303892375836165
1400000000.0 -0.2841249457172765 -0.29588154758960206
1420000000.0 -0.3956879412189861 -0.04154235613001571
1440000000.0 0.0868605862674957 0.36626525524443265
1460000000.0 0.29338442052175995 0.18704425701833816
1480000000.0 0.21953330299208024 -0.2388257609825104
1500000000.0 -0.1934203468445979 -0.22524428304740415
1520000000.0 -0.2545947934640061 0.08687703158115695
1540000000.0 0.02667709778255202 -0.24296630762624963
1560000000.0 0.1424675756864464 -0.1559333955438033
1580000000.0 0.07552498092167502 -0.1632714189401532
1600000000.0 0.006037987821489246 0.14702529639665846
1620000000.0 0.06349587003423733 -0.09207053369802752
1640000000.0 0.00030682593531308934 -0.08422692554418326
1660000000.0 -0.05952115183646319 0.008754673813617941
1680000000.0 -0.02746061614269802 -0.014591174192451211
1700000000.0 0.011292369251993548 -0.0036746249555910963
1720000000.0 0.016579531069752254 0.00020130894627567897
1740000000.0 -0.0012437516475723043 0.03711556283827418
1760000000.0 0.009046116076177675 -0.05660085529833456
1780000000.0 0.007818375778901751 0.08049206705001549
1800000000.0 -0.11224919082376537 -0.02418580785902426
1820000000.0 0.12441710249064403 -0.06526792853703099
1840000000.0 -0.09620423098263868 -0.1369722584907417
1860000000.0 -0.058605907585838925 0.18651499893557216
1880000000.0 0.02153675840464931 0.22389475857708235
1900000000.0 0.046354339890998214 0.2570147929217738
1920000000.0 0.2834164377428726 -0.09037735732947462
1940000000.0 0.12002041221521095 -0.312028776164284
1960000000.0 -0.369087337018454 -0.010364302977527171
1980000000.0 0.16780267333390766 0.3584811052346749
2000000000.0 0.4004689504702055 -0.12808616774146087
2020000000.0 -0.2481084319897698 -0.3643631111030791
2040000000.0 -0.21022838746197575 0.4002026983750027
2060000000.0 0.4536094026773425 -0.0036402364387304606
2080000000.0 -0.18321115818087216 -0.41198604444900605
2100000000.0 -0.34854834258306233 0.2643535646178657
2120000000.0 -0.14459724648871075 0.3924334739067948
2140000000.0 -0.39192026320188206 -0.06801337242474123
2160000000.0 -0.37690226058337484 -0.03462585693743787
2180000000.0 -0.18972971689972085 -0.309517824717202
2200000000.0 -0.05484131429648411 -0.3460435742288501
2220000000.0 0.23754652756357914 -0.2534616072321576
2240000000.0 -0.030350999225208123 -0.34874937035237386
2260000000.0 -0.3063395322315922 -0.18578521521739397
2280000000.0 -0.1451384784641469 0.3368405730473181
2300000000.0 0.37483892838445854 -0.06897776537436473
2320000000.0 -0.3449874030978622 -0.20867496405950722
2340000000.0 -0.06805241717182947 0.4248503290220042
2360000000.0 0.2549507275270052 -0.3888976037010748
2380000000.0 -0.4909328797944166 0.13534330738415068
2400000000.0 0.542322604471637 -0.13677488794217546
2420000000.0 -0.4912751987647345 0.3615764645998906
2440000000.0 0.15649283217430265 -0.6389742421991347
2460000000.0 0.3133575837139914 0.6220531851054424
2480000000.0 -0.6122932111016794 -0.39084035330793
2500000000.0 0.652659389624697 0.3600539124127587
2520000000.0 -0.5978213507083536 -0.4617123498504118
2540000000.0 0.33179951355764487 0.6798838071135549
2560000000.0 0.19739359984722787 -0.7234440133803166
2580000000.0 -0.7008139581284936 0.22205898999712195
2600000000.0 0.5915309478243937 0.39440057682100005
2620000000.0 0.007756238615954209 -0.6805160471125734
2640000000.0 -0.26559615862931285 -0.5857951447722624
2660000000.0 -0.35891564105910895 0.4789906743538977
2680000000.0 0.5518857447063388 0.055757544738651174
2700000000.0 -0.25829435106757664 -0.44044999413891545
2720000000.0 -0.0007496058073232381 0.4649443363286333
2740000000.0 0.2625430874376448 -0.3315053997578998
2760000000.0 -0.28964799912416334 0.253025474272399
2780000000.0 0.18903214437453844 -0.29717095002213867
2800000000.0 -0.07602211144856276 0.31660011144678885
2820000000.0 -0.17544415153520426 -0.2514632531885553
2840000000.0 0.28593409208366943 0.06916417756863344
2860000000.0 -0.25056766955958787 0.1418242385585951
2880000000.0 0.09110926623376012 -0.2708375783068206
2900000000.0 -0.10393549117549626 0.2650299770600636
2920000000.0 0.28903045362344737 0.01365359771615864
2940000000.0 -0.0344370170120124 -0.2927929544698601
2960000000.0 -0.2615643144456206 -0.14758589206642725
2980000000.0 -0.30519368122623947 0.02998914862162362
3000000000.0 -0.27413440016108603 -0.14621127044187293
3020000000.0 -0.07842943174382072 -0.3037043699440122
3040000000.0 0.29323655191851217 -0.10163876353338466
3060000000.0 -0.03382423200720713 0.30737820882868466
3080000000.0 -0.1527076607746843 -0.2616291396641858
3100000000.0 0.26343364215373904 0.1352416900624967
3120000000.0 -0.2844963413031197 0.031542169706768056
3140000000.0 0.18426925014878054 -0.20152084531810907
3160000000.0 -0.18427728897857854 0.1774365266770926
3180000000.0 0.149986723621156 0.1865359900918775
3200000000.0 -0.1811745601677909 -0.12164619199948312
3220000000.0 0.18305794018027585 0.07290131715149921
3240000000.0 -0.14679437638493803 0.08992006333980028
3260000000.0 0.0031441135213694208 -0.1456080528385788
3280000000.0 0.11623981340540013 0.005240290215198813
3300000000.0 0.08185090220174951 0.03339384695122848
3320000000.0 -0.04064327683265275 -0.04096568106235639
3340000000.0 -0.010328886977003295 0.027611376393206676
3360000000.0 -0.010643932076976005 0.006564759521910271
3380000000.0 -0.006759615957574152 0.019027931283224882
3400000000.0 -0.024629734342854048 -0.020235814653959405
3420000000.0 0.036418907718667376 -0.020886482721364733
3440000000.0 -0.03805339411037491 -0.023835037722876904
3460000000.0 -0.00834010562106464 0.04499647742233836
3480000000.0 0.05168660318861779 -0.013931359389507106
3500000000.0 0.06562104751977753 -0.024121740564785974
3520000000.0 -0.010024610919636781 -0.09235964514930105
3540000000.0 0.06773829891440736 -0.09102345826389319
3560000000.0 0.10268482449543544 -0.08106634084298134
3580000000.0 0.1409788081711481 -0.029725539917805497
3600000000.0 0.15219924731756612 -0.05233050961743967
3620000000.0 0.16096644390946624 -0.0495118069733152
3640000000.0 0.17504940669682123 0.02522161186729517
3660000000.0 0.019382540350372058 0.18000581495686274
3680000000.0 -0.1748895676180537 -0.05734550749149689
3700000000.0 0.0674323625248819 -0.17052031694164027
3720000000.0 0.07722031971411684 0.16791786453044907
3740000000.0 -0.13777708976571545 0.1201816401592033
3760000000.0 0.09103269081280171 -0.15608141971008055
3780000000.0 -0.03543418355491016 0.17167892301469181
3800000000.0 0.02905193513478174 -0.16537089973296665
3820000000.0 -0.1539645080693705 0.03865439772772954
3840000000.0 -0.14236140475558853 0.04041018871392937
3860000000.0 0.052988664894672535 -0.13311848571447224
3880000000.0 0.0960670891598913 0.11040690696217567
3900000000.0 0.01767350336277211 0.15083536992404106
3920000000.0 0.10181554789042109 0.12374357295401728
3940000000.0 -0.16034281435424141 0.06267120161524252
3960000000.0 -0.16595590103492752 0.07284059790991051
3980000000.0 0.18434492587215595 0.0027286234531628414
4000000000.0 -0.03126624112448782 -0.17292428130246523
