! Created with skrf (http://scikit-rf.org).
# Hz S RI R 50.0 
!freq ReS11 ImS11
400000000.0 -0.8079357406573408 0.2990750451991054
420000000.0 0.15150610425439082 0.8532927466610138
440000000.0 0.8253591628425532 -0.14511492287508493
460000000.0 0.36119038225383976 -0.7014502669954148
480000000.0 0.5794953784617041 -0.43499708769847095
500000000.0 -0.4812850759721272 -0.2918069057770837
520000000.0 -0.3955894662418002 -0.2869204997001728
540000000.0 0.06978212675041154 -0.4075711898141619
560000000.0 -0.362862647060979 -0.05773079490172642
580000000.0 0.1183221310939471 -0.29686788548733883
600000000.0 0.0755036259446571 -0.31941966967784635
620000000.0 0.2983743678222849 -0.1471597239320041
640000000.0 -0.3454682155420176 0.045915102612586224
660000000.0 -0.3174399553401847 0.21462253775702603
680000000.0 0.17892506160295046 -0.36379881780662393
700000000.0 -0.43031271727876785 0.09265397198381906
720000000.0 0.02373978589180088 0.4417689343854495
740000000.0 -0.3967196290778542 0.22501428989387365
760000000.0 -0.19659937944945943 -0.38819948933982074
780000000.0 0.40041829101241866 0.0007595649267132863
800000000.0 0.18164978088274206 0.3133362246345018
820000000.0 0.03630277586520227 0.29547815616509154
840000000.0 -0.03621117553887756 -0.24350172019711802
860000000.0 0.18517939764905292 -0.05549663112923835
880000000.0 -0.015292295302667366 -0.14734953860063163
900000000.0 0.008246192627924627 0.06740883706067048
920000000.0 -0.03487212680605432 0.005528645931186107
940000000.0 -0.02863727239523283 0.028849491914085017
960000000.0 -0.038577189940487665 -0.03320435019341713
980000000.0 0.032987657462964635 0.04490258403451435
1000000000.0 -0.062081373124875744 -0.011824262967956987
1020000000.0 -0.003152261900017491 -0.06978011964829021
1040000000.0 -0.008505669768569138 0.08037191205486534
1060000000.0 0.07161533702481682 0.090057810732285
1080000000.0 0.13059739540097173 0.04461329554396551
1100000000.0 0.08541888729061164 -0.13981920194247802
1120000000.0 -0.001222942275011487 -0.19947080519416413
1140000000.0 0.2287683841614537 0.08930438750397066
1160000000.0 0.0416573326742946 -0.2863530252858097
1180000000.0 -0.26836834164882417 0.19742775390939377
1200000000.0 -0.3254988463314198 0.1633531833651114
1220000000.0 -0.36747880422682655 -0.1495989479471106
1240000000.0 0.39516293735400043 -0.12224448515621629
1260000000.0 -0.346289933355611 0.26432270174574996
1280000000.0 0.4038871604384231 -0.17087527406403602
1300000000.0 -0.2544546158177364 -0.36117303633094905
1320000000.0 -0.41086536378731603 0.12396627849032296
1340000000.0 -0.15642901707032275 -0.3918066009477516
1360000000.0 0.2600434804147047 -0.3301427457915536
1380000000.0 0.2923062766501316 -0.30485157552747894
1400000000.0 -0.2717567048169127 -0.30803685805842157
1420000000.0 -0.39466987811665466 -0.05002381034198646
1440000000.0 0.06174573954707105 0.3717036197820459
1460000000.0 0.2812085281289437 0.2052963548854248
1480000000.0 0.2294567860796049 -0.2298365851494753
1500000000.0 -0.20358818531109563 -0.21616722645099332
1520000000.0 -0.2608010678190269 0.06843495890008808
1540000000.0 0.007389892305151015 -0.244461428385995
1560000000.0 0.1135690682851057 -0.17813679442080377
1580000000.0 0.07264745179940416 -0.16388776658097579
1600000000.0 0.005747702318737724 0.14627831586682896
1620000000.0 0.06053778845984582 -0.09442532225923901
1640000000.0 0.017816207961142732 -0.082429110292656
1660000000.0 -0.05959890670575674 -0.006510557462814264
1680000000.0 -0.00869949109798862 -0.029203443303213086
1700000000.0 -0.006622773834566203 0.009765815214829476
1720000000.0 0.01553196068821343 -0.006007632850292059
1740000000.0 0.025943963639385864 0.026435838078245056
1760000000.0 0.015165503881476052 -0.055147395645280234
1780000000.0 0.021045383351517434 0.07807345758575239
1800000000.0 -0.11277872098462328 -0.01957178823562554
1820000000.0 0.13185270271681454 -0.04805090205891891
1840000000.0 -0.08539103038078467 -0.1437930352637183
1860000000.0 -0.07234176945827736 0.18138847483110493
1880000000.0 -0.008062743233985661 0.22416740465141344
1900000000.0 0.02520993087361345 0.2598495259426418
1920000000.0 0.29176999098662587 -0.05773164369393906
1940000000.0 0.13206707677038426 -0.30689796470530384
1960000000.0 -0.3692040940365105 -0.011553917830989436
1980000000.0 0.1666060246697784 0.35872890213992203
2000000000.0 0.3974934902477357 -0.1363156708851054
2020000000.0 -0.22574424420977948 -0.3786475476134683
2040000000.0 -0.1476996060463658 0.4266060509155105
2060000000.0 0.4534634554318989 -0.004140553123005664
2080000000.0 -0.22143162036909295 -0.39179308399044466
2100000000.0 -0.3539735490635464 0.2561064895073349
2120000000.0 -0.1082589271731993 0.4032939685334006
2140000000.0 -0.3957754436330533 -0.03481016916063881
2160000000.0 -0.37439238357418353 -0.055402717118286315
2180000000.0 -0.19216110792006547 -0.30822601897907076
2200000000.0 -0.039464555712471656 -0.34899173160282293
2220000000.0 0.23341715023754667 -0.2581748287950682
2240000000.0 -0.06251229380627311 -0.34473772865192426
2260000000.0 -0.29925030763809324 -0.19702960200900835
2280000000.0 -0.12389642395581046 0.3452845364862797
2300000000.0 0.36624119561568774 -0.10603999515330424
2320000000.0 -0.346429225961923 -0.20558616699200719
2340000000.0 -0.08722252892737202 0.4212865841085525
2360000000.0 0.2647578428393622 -0.3822113598783768
2380000000.0 -0.49754218846003223 0.10786530029709421
2400000000.0 0.5509990294788978 -0.0940797393373401
2420000000.0 -0.5193069878929962 0.3198688861153213
2440000000.0 0.18151758357550987 -0.6319050868857687
2460000000.0 0.29235006050892265 0.6319080208058946
2480000000.0 -0.6115625919285241 -0.39126042884414436
2500000000.0 0.6418861646145879 0.37868292430906514
2520000000.0 -0.5988041629862038 -0.4597649051215291
2540000000.0 0.36997057635674585 0.6596833761001963
2560000000.0 0.2300742555260297 -0.7144747958758814
2580000000.0 -0.7041482434974788 0.21258475363643048
2600000000.0 0.5746975177937999 0.41946580106439785
2620000000.0 -0.009208953625336467 -0.6812037870221753
2640000000.0 -0.3145107576804894 -0.5627099027692232
2660000000.0 -0.31786968946853883 0.5091502333405643
2680000000.0 0.5559836712287718 0.01791471404457173
2700000000.0 -0.2544150520443799 -0.4440494757628839
2720000000.0 -0.031531175331520965 0.464892102300623
2740000000.0 0.28932220869542535 -0.30927942504073275
2760000000.0 -0.3074005951355093 0.23141112523540217
2780000000.0 0.22292398025955587 -0.2724207697166725
2800000000.0 -0.10187511236500192 0.3093396479144859
2820000000.0 -0.14545302793427117 -0.2701197930727398
2840000000.0 0.2778917924609491 0.09689010756775145
2860000000.0 -0.26061342896079165 0.12266685251034028
2880000000.0 0.1022412596490389 -0.26682843687091984
2900000000.0 -0.07614922886599836 0.2745851407114578
2920000000.0 0.28876244789214484 -0.022358364779747678
2940000000.0 -0.10234468885954853 -0.27694156136989595
2960000000.0 -0.27981220091312436 -0.11045136951888496
2980000000.0 -0.30638188449842907 0.02065393214739357
3000000000.0 -0.26909696521949544 -0.15661496072732103
3020000000.0 -0.04568395839146504 -0.3111209264425163
3040000000.0 0.30379889749584715 -0.06723010003426888
3060000000.0 -0.06265880644513543 0.30256961662969484
3080000000.0 -0.1284563205697143 -0.27462121260128197
3100000000.0 0.2678969628203813 0.12611616992670388
3120000000.0 -0.28397294436334464 -0.02986568380927796
3140000000.0 0.19069155522134767 -0.19468124130235137
3160000000.0 -0.20223687982853492 0.15636314587821024
3180000000.0 0.15044086675153087 0.18633958457722855
3200000000.0 -0.1752090190206318 -0.13002310049793322
3220000000.0 0.19116435184042677 0.04740917127919405
3240000000.0 -0.13284601543849198 0.10905780201139327
3260000000.0 -0.0023600154497153826 -0.14560396461422415
3280000000.0 0.1162844605432459 -0.009225295482150151
3300000000.0 0.08039168562003114 -0.035793827580308746
3320000000.0 -0.0517478835897733 -0.025452311934250745
3340000000.0 -0.02942984917892117 0.0011639737789738756
3360000000.0 0.003959257082117134 0.011872984635802534
3380000000.0 -0.01999691133423553 -0.0009023938775789354
3400000000.0 -0.031033921353702427 0.006271964778462519
3420000000.0 0.0018357455477352167 -0.041238876518344035
3440000000.0 -0.016588875084091757 -0.040779445955999444
3460000000.0 -0.028546875348749532 0.03536624173626759
3480000000.0 0.04904795941114348 -0.020279926714940968
3500000000.0 0.06160531747446918 0.030547563557192313
3520000000.0 -0.029349201151741645 -0.08815895277902677
3540000000.0 0.016205124920157573 -0.11239090802163702
3560000000.0 0.047399051416482194 -0.12152325415602992
3580000000.0 0.12380791779070933 -0.07335156338768778
3600000000.0 0.14006089334781846 -0.07952816609034781
3620000000.0 0.14979401940099168 -0.07636961327200696
3640000000.0 0.1757143888080581 0.017591891991305703
3660000000.0 0.053640256787398075 0.17335442108538734
3680000000.0 -0.1839914026542161 -0.01843963244900652
3700000000.0 0.042846488342669534 -0.17863237465500414
3720000000.0 0.11209803368113637 0.14737830360949156
3740000000.0 -0.1411575184962472 0.11787511717126914
3760000000.0 0.100851466014943 -0.1507378309626751
3780000000.0 -0.04193510443168356 0.17094688243849768
3800000000.0 0.04272068535993779 -0.16262527951217656
3820000000.0 -0.1586490627407694 -0.0012273699191882308
3840000000.0 -0.14442160939413318 -0.0323964371536616
3860000000.0 0.10624338173202465 -0.09645109046845875
3880000000.0 0.03270367130139583 0.1435901955329142
3900000000.0 -0.05022772312332822 0.14347455472730997
3920000000.0 0.06634831094494635 0.14607707099922526
3940000000.0 -0.17155860418393473 -0.016941367465076306
3960000000.0 -0.1807990772778152 -0.012786822720652395
3980000000.0 0.17969958894970706 0.034822380629939476
4000000000.0 0.014722872379443723 -0.17410729852390489
