! Created with skrf (http://scikit-rf.org).
# Hz S RI R 50.0 
!freq ReS11 ImS11
400000000.0 -0.7937222071280613 0.3383413454422672
420000000.0 0.14939298733426495 0.8524048222623045
440000000.0 0.8226913486501314 -0.1648350661753098
460000000.0 0.2830826364296554 -0.7356511774470992
480000000.0 0.6080004758962707 -0.39253249120806405
500000000.0 -0.460446405576306 -0.32725032141344573
520000000.0 -0.4641761751244679 -0.1492892344595525
540000000.0 0.09194838878021862 -0.40186986359723154
560000000.0 -0.34343090460347653 -0.13228599767018903
580000000.0 0.07737860879879561 -0.31053711999468553
600000000.0 -0.04278060455983904 -0.3251289004895245
620000000.0 0.32683268548737593 -0.056733986759243155
640000000.0 -0.34684919221062976 0.038191060190744856
660000000.0 -0.32979652072382704 0.1946984332299704
680000000.0 0.17462946282718828 -0.3650635118854762
700000000.0 -0.4301221010129015 0.08970297937414853
720000000.0 -0.04099176421006672 0.4405873441277762
740000000.0 -0.3721114589363409 0.26384090677715355
760000000.0 -0.1754786129809848 -0.3978237325726796
780000000.0 0.399722808542799 -0.026609598865336637
800000000.0 0.1891958641788176 0.3095306425175956
820000000.0 0.050862280359319396 0.29371003432322385
840000000.0 -0.05137989538982119 -0.2416042977654656
860000000.0 0.18547619441837443 -0.055280851562146946
880000000.0 -0.04702748498804828 -0.14155368920553765
900000000.0 0.01478724957475316 0.06698638157944042
920000000.0 -0.034422603939699925 0.007876839949276999
940000000.0 0.0025450201921469197 0.04001399610202095
960000000.0 -0.04216242320523977 -0.028930497907060704
980000000.0 0.03173286637406487 0.046064523494105086
1000000000.0 -0.06265563063306724 0.007919078663900818
1020000000.0 -0.01334452594120169 -0.06874789729791977
1040000000.0 -0.01582286162932084 0.07947202877444291
1060000000.0 0.0739459815121087 0.08887201548361588
1080000000.0 0.130485658159769 0.04527171932475572
1100000000.0 0.1089951590344858 -0.12169553155477618
1120000000.0 0.004376225432554536 -0.1992822142357503
1140000000.0 0.22902432222709074 0.08822917494926688
1160000000.0 0.058677381293401894 -0.2828262586244638
1180000000.0 -0.2735099144079921 0.18910720297073144
1200000000.0 -0.34057138822486477 0.12734605780423333
1220000000.0 -0.34901932587028006 -0.18784962110737924
1240000000.0 0.40138668867652305 -0.1007605511660963
1260000000.0 -0.32986579128748206 0.28461829090208773
1280000000.0 0.40341487800635767 -0.17267524292305855
1300000000.0 -0.2711258022360387 -0.3487286704585828
1320000000.0 -0.4075680783436116 0.13385096616581832
1340000000.0 -0.18068101588783064 -0.38187200261448395
1360000000.0 0.25643678951187576 -0.333095589120836
1380000000.0 0.292989489167194 -0.30443985420792036
1400000000.0 -0.27244693277292403 -0.3072714985763271
1420000000.0 -0.3948218023530137 -0.046965590709245005
1440000000.0 0.0762188386334107 0.3688773582180027
1460000000.0 0.2828126720960817 0.2029543099383501
1480000000.0 0.2469366683845809 -0.21098591940337882
1500000000.0 -0.18779604979800602 -0.23017767421602733
1520000000.0 -0.2547859316633252 0.08670901254216556
1540000000.0 0.035463805102363764 -0.24156218334112148
1560000000.0 0.1190272389570624 -0.1744436521479441
1580000000.0 0.04002663086362909 -0.1747304606385199
1600000000.0 -0.023367004728731 0.14538914954143256
1620000000.0 0.03285384078061805 -0.10721735071005974
1640000000.0 0.004605502511978975 -0.08394408117334308
1660000000.0 -0.059080241219266146 0.010151691874613676
1680000000.0 -0.006423474514026371 -0.02978811142290603
1700000000.0 -0.0017502753536636712 0.011253226699193165
1720000000.0 0.01664816303102243 -0.0003208247487562032
1740000000.0 0.002400640979118986 0.03687096851915948
1760000000.0 0.01876820052921699 -0.053913016209821904
1780000000.0 0.013440752231328642 0.07963417072907768
1800000000.0 -0.11233824576161874 -0.022562245967342295
1820000000.0 0.12338021469598666 -0.06741627478005825
1840000000.0 -0.08340416762457797 -0.1454117898810256
1860000000.0 -0.0564853596304263 0.18715875673948237
1880000000.0 0.012083404748427107 0.22463021684361517
1900000000.0 0.03208709119358091 0.25939705863919993
1920000000.0 0.2898489331488855 -0.06648609461453511
1940000000.0 0.12158049677245393 -0.3114163942321928
1960000000.0 -0.36807966002128634 -0.027157976426642905
1980000000.0 0.1751316861064401 0.35464379118010353
2000000000.0 0.3965821705261559 -0.138788991264655
2020000000.0 -0.2502240127910342 -0.36314452222796173
2040000000.0 -0.20655066410135117 0.40205366582885393
2060000000.0 0.4532876563937517 0.020131790952354425
2080000000.0 -0.1769268996287099 -0.41447855905494413
2100000000.0 -0.36693640324315413 0.2381506254147489
2120000000.0 -0.09748331947382459 0.4062794616300841
2140000000.0 -0.3944462444525431 -0.04904089545379142
2160000000.0 -0.37488006560640097 -0.05172004637409248
2180000000.0 -0.18168193962632506 -0.31438178046303744
2200000000.0 -0.017081208223655612 -0.35035344321054523
2220000000.0 0.2401208759251892 -0.25126293429234325
2240000000.0 -0.028233091030628873 -0.3490603548433354
2260000000.0 -0.29360866976563277 -0.20475084884567407
2280000000.0 -0.13191294447347876 0.34213951532100617
2300000000.0 0.3732823402992747 -0.07694070448036217
2320000000.0 -0.35367812647470076 -0.19274473741744064
2340000000.0 -0.07680469756047688 0.4231812554361417
2360000000.0 0.24861821924889815 -0.3928057809413137
2380000000.0 -0.49157533790205626 0.13316072815715746
2400000000.0 0.5454843879695547 -0.12327072063229572
2420000000.0 -0.5059193340563944 0.34117429693430046
2440000000.0 0.16875118764572317 -0.635782905831018
2460000000.0 0.31168013490557367 0.622995562016603
2480000000.0 -0.6203052527473183 -0.3775783526337021
2500000000.0 0.6782660868988553 0.30884934330723723
2520000000.0 -0.6096343178429656 -0.4457450813705553
2540000000.0 0.30458600176269635 0.6924330292632135
2560000000.0 0.1924019108942754 -0.7247071825049163
2580000000.0 -0.7117038612643968 0.1840747479699577
2600000000.0 0.5758634401923111 0.4162673731459432
2620000000.0 0.03242603507046341 -0.6794192516122595
2640000000.0 -0.28048596661698855 -0.5783737567240751
2660000000.0 -0.3487441174466912 0.4863983220243975
2680000000.0 0.5479379041119244 0.08439695537643907
2700000000.0 -0.24981657702194235 -0.445262063655833
2720000000.0 -0.006166169261278575 0.4649408941047018
2740000000.0 0.2466927112520496 -0.34351494778809655
2760000000.0 -0.28887564179815955 0.2542393678826588
2780000000.0 0.1822433960073197 -0.3012482049459273
2800000000.0 -0.0900611085813008 0.3130485926935914
2820000000.0 -0.16158275649196124 -0.26100248145747396
2840000000.0 0.2870475243585709 0.0653038954377889
2860000000.0 -0.25011255767072155 0.1426877323754781
2880000000.0 0.12277128798161258 -0.25828165857024793
2900000000.0 -0.12506101773277403 0.2559298319282893
2920000000.0 0.2891312773714863 0.008439246519038483
2940000000.0 -0.04271615408766865 -0.2913368009013424
2960000000.0 -0.25653429277851236 -0.15509984776898944
2980000000.0 -0.3059107377900582 0.01891342695338266
3000000000.0 -0.28677582466447626 -0.11755896239813585
3020000000.0 -0.11295187959911206 -0.29203395422435785
3040000000.0 0.30985016823774675 -0.006213123462888897
3060000000.0 -0.056641242417616276 0.30347245042261095
3080000000.0 -0.14956079028504612 -0.2631758597251279
3100000000.0 0.27542726440794063 0.10799799367213414
3120000000.0 -0.28174901603806557 0.049145246106416865
3140000000.0 0.19232848241547404 -0.19361999173348213
3160000000.0 -0.17687948254047958 0.18492829204750957
3180000000.0 0.1601121624475367 0.17863465247786514
3200000000.0 -0.1862393771629673 -0.11380206520204675
3220000000.0 0.1914621193812168 0.04733455995761117
3240000000.0 -0.14262269847811113 0.09656694870220708
3260000000.0 0.02124158149329508 -0.14429230448302707
3280000000.0 0.11521193234865557 -0.01880710842947544
3300000000.0 0.07522471438128416 0.045707850005871714
3320000000.0 -0.026100655714603637 -0.051065268710868264
3340000000.0 -0.027610488664373184 0.010497389946897012
3360000000.0 -0.006034373932929377 0.010747841938961158
3380000000.0 0.004291280164990138 0.01954915104243963
3400000000.0 -0.03226153214937513 0.0005209444981859768
3420000000.0 0.02730563412081237 -0.03184974086642756
3440000000.0 -0.035092322884641494 -0.02785132237364333
3460000000.0 -0.034135037248367556 0.030730891923532195
3480000000.0 0.05069768789786438 -0.01825918263038289
3500000000.0 0.06822532457472918 -0.0153246210235301
3520000000.0 -0.026550542687558014 -0.08935668834614648
3540000000.0 0.064382562383109 -0.09395380469789175
3560000000.0 0.09078334919861576 -0.09493876526926731
3580000000.0 0.14306484164483643 -0.014683961260113397
3600000000.0 0.151247020522253 -0.05447670774792087
3620000000.0 0.16034444028395786 -0.05321642422475935
3640000000.0 0.17013070617897946 0.04533147199474758
3660000000.0 0.03542480899388422 0.178476889794877
3680000000.0 -0.17589020545394207 -0.054893803387147305
3700000000.0 0.05775819947380464 -0.17418435294824508
3720000000.0 0.08211158237526381 0.16561416378834568
3740000000.0 -0.13453719410244352 0.12412072809549765
3760000000.0 0.07570283831843774 -0.1639268206277091
3780000000.0 -0.013228146798616237 0.17453704939530568
3800000000.0 0.029239843318903617 -0.1653955948687899
3820000000.0 -0.1452774361521897 0.06290638990929846
3840000000.0 -0.13519159843397358 0.059941788413277845
3860000000.0 0.05296691354546072 -0.13296291029744137
3880000000.0 0.08217476185312207 0.12134431277346813
3900000000.0 0.032836948296890316 0.14804788735135185
3920000000.0 0.11351890355918798 0.11369856480612583
3940000000.0 -0.1535316853098369 0.07612687263320016
3960000000.0 -0.15847102554436218 0.08872174393100972
3980000000.0 0.18147659021601453 -0.031235791753069283
4000000000.0 -0.02380960249499203 -0.17421458765047076
