! Created with skrf (http://scikit-rf.org).
# Hz S RI R 50.0 
!freq ReS11 ImS11
400000000.0 0.20657652342866234 0.8496448101785655
420000000.0 0.6099286392685928 0.6072786992179795
440000000.0 0.81223218848606 -0.1539739716381536
460000000.0 0.15933051173457422 -0.7733785080917752
480000000.0 0.5586196213220082 -0.43169268608777445
500000000.0 0.469480555443968 -0.3062443041853715
520000000.0 0.20318055359983428 -0.4445173659896333
540000000.0 0.39296925639806446 0.1666178881971353
560000000.0 -0.2875643301058373 -0.2125888421772291
580000000.0 -0.3309730392181485 0.06824588560589255
600000000.0 0.3297903704560754 -0.05502093973946129
620000000.0 -0.09619533851528644 -0.3369532996246498
640000000.0 -0.362649619248945 -0.1267682220712805
660000000.0 -0.3231338460894432 0.23624845080298998
680000000.0 -0.10363614559141672 -0.41493063666863794
700000000.0 0.23380549673103693 0.38313974671553563
720000000.0 0.15312933203295234 -0.42210536700076445
740000000.0 0.42071359397871744 -0.12845263524485592
760000000.0 -0.39918604050170764 -0.12265920549027139
780000000.0 0.19676961136949 -0.3310557248605045
800000000.0 0.11850713599315305 0.32973565697206125
820000000.0 0.13822327188514874 0.2528274744900686
840000000.0 0.1963868033084761 0.1259796343881909
860000000.0 0.09086639875281927 0.1772765518126702
880000000.0 -0.1311700002590918 0.0389523347173491
900000000.0 -0.0666074016220962 -0.025327810150829716
920000000.0 0.037787527604884255 -0.009931096558031689
940000000.0 0.014528096424935565 0.02628061802326232
960000000.0 -0.038829420267783264 -0.015363809219431068
980000000.0 -0.01452519115358035 0.048883008974470836
1000000000.0 -0.05721724842070233 -0.0026844546811004033
1020000000.0 -0.0659264964596755 -0.02845550495906854
1040000000.0 -0.07535092492879476 -0.03682886280056192
1060000000.0 0.11243178795892682 0.050879586498451194
1080000000.0 -0.07100392165773049 -0.12160705943827219
1100000000.0 -0.0619829823460926 -0.1556971573480363
1120000000.0 -0.19716030439463228 0.024929212493125154
1140000000.0 0.24237327490202457 -0.016687774555462786
1160000000.0 0.13701548074482658 -0.2517977300275236
1180000000.0 -0.23251076122873843 -0.2355367375458454
1200000000.0 -0.3429774343845297 -0.12993318896410877
1220000000.0 0.03269630595180978 -0.39543252325085093
1240000000.0 0.38937143408919817 0.15245277284727116
1260000000.0 -0.43738896001175376 0.037097880930180634
1280000000.0 0.44189900665291243 -0.07497790853347251
1300000000.0 -0.4300753238442502 -0.12270355623538637
1320000000.0 -0.08087761479311407 0.4265534401895677
1340000000.0 -0.33833880859204873 0.24556036813256854
1360000000.0 -0.17334974817329624 -0.36822617498388627
1380000000.0 0.21422033851031233 -0.34552621737915395
1400000000.0 0.25143853087233464 -0.30681171668946966
1420000000.0 0.19421061050463623 -0.3354875128019396
1440000000.0 -0.025525598874318055 -0.37311798088006937
1460000000.0 -0.34618608822641833 -0.09106525234452247
1480000000.0 0.1281673778838485 0.31355862277178326
1500000000.0 -0.21203081072801475 -0.22973646570921794
1520000000.0 0.02568786095043395 0.28581019792991214
1540000000.0 0.018912866254727025 0.2543167837718257
1560000000.0 0.1834650271386704 0.11068326848005074
1580000000.0 0.16322427339599363 -0.07283759571694313
1600000000.0 -0.010545314681274377 0.14367077612530113
1620000000.0 -0.0893376363801287 -0.04844280566318112
1640000000.0 -0.001661662491506165 0.07288409595813947
1660000000.0 0.04566031430963462 0.007412260572668911
1680000000.0 0.0029097560937782017 -0.016225353444816026
1700000000.0 0.0070815858986675575 -0.009860772478245145
1720000000.0 0.011074810413423163 -0.029997002133193493
1740000000.0 -0.049612837291465 -0.012401257181557991
1760000000.0 0.0579146927674515 -0.027725385985603535
1780000000.0 -0.021894645374645784 0.07938763821050629
1800000000.0 0.0589760175496141 -0.08834725672028831
1820000000.0 0.12038318129164952 -0.0031406278804253355
1840000000.0 -0.08957626959842858 0.11540333807093049
1860000000.0 -0.12799048596239632 -0.11530149196149787
1880000000.0 0.14722668607007314 -0.14962766660941196
1900000000.0 0.22675126247634764 -0.11754060574674474
1920000000.0 -0.2937091142561421 -0.07131992111123273
1940000000.0 0.16766414557460382 0.3055426269816831
1960000000.0 -0.11708074654801313 -0.36815142892884106
1980000000.0 0.18176659072042875 0.37219061056075936
2000000000.0 0.10286324961156254 -0.42484579017666063
2020000000.0 -0.21070649745960052 0.3981668962443602
2040000000.0 0.45152211244356694 0.033084402953893574
2060000000.0 -0.18919734381438805 -0.40685463977648045
2080000000.0 -0.4202034240305364 0.10664142532613427
2100000000.0 -0.3481452592041507 0.22980442159068665
2120000000.0 -0.3862517160477652 0.10220573167763676
2140000000.0 -0.34921479322667476 -0.15915940572345338
2160000000.0 0.34567550843909417 -0.13376110767749672
2180000000.0 0.351467775177739 0.07988422638739884
2200000000.0 0.2916507666583292 0.1986206552712873
2220000000.0 0.3331080508883368 -0.11629700557711878
2240000000.0 -0.11735866145694852 -0.3319873439818561
2260000000.0 -0.3432270078155604 0.0915743679705692
2280000000.0 0.15758617849936105 0.3215698512017225
2300000000.0 0.26033636228779405 -0.2633454398059199
2320000000.0 -0.3711577056352476 -0.11474700162035582
2340000000.0 -0.13563071106627717 0.39215840933223745
2360000000.0 0.4506316886514028 -0.0014559946751829557
2380000000.0 -0.39421576728024954 -0.3038993517953996
2400000000.0 0.2586848157247691 0.48447159629642983
2420000000.0 -0.37950901104276796 -0.4692860757171143
2440000000.0 0.6306810680198914 0.17732278111719105
2460000000.0 -0.6421243039824212 0.2729803657112844
2480000000.0 0.42942702027782287 -0.5910752226922658
2500000000.0 -0.4248451329701765 0.6210775375963785
2520000000.0 0.5125871717579079 -0.566968279291136
2540000000.0 -0.7044000624556637 0.30275747718563734
2560000000.0 0.727083532142009 0.2282806081319203
2580000000.0 -0.24445294809030021 -0.7053085877532945
2600000000.0 -0.39255460100153416 0.6057051988420256
2620000000.0 0.6915671702334052 0.010761754009313713
2640000000.0 0.6040863877360687 -0.2521643420836881
2660000000.0 -0.5214350873236638 -0.31910253772650266
2680000000.0 0.061001044240926304 0.5639861465824266
2700000000.0 0.25428872034695804 -0.4568553767158475
2720000000.0 -0.3262066497470306 0.3470638362339869
2740000000.0 0.2904562558482662 -0.3193321922014383
2760000000.0 -0.1292684285202726 0.3680525415658067
2780000000.0 -0.182444381092723 -0.3054929619273997
2800000000.0 0.31213454035543575 0.08754211852025492
2820000000.0 -0.2783315826886575 0.11564279486792277
2840000000.0 0.2575390554090996 -0.12798732730959597
2860000000.0 -0.24926168418370878 0.13505519026470036
2880000000.0 0.26703335381972 -0.09804765297914121
2900000000.0 -0.27379212534621433 -0.09515923948212109
2920000000.0 0.06483332904981877 0.29453730568212305
2940000000.0 0.20201222559392906 -0.24016420786171205
2960000000.0 -0.2918381611834469 -0.1329550600398165
2980000000.0 -0.303905887838829 0.12003489487816524
3000000000.0 -0.3069089605570045 0.12216271779071501
3020000000.0 -0.324704440031687 -0.044687756162456786
3040000000.0 0.03580350273289726 -0.31959584701918153
3060000000.0 0.13696351415460162 0.28062901669642853
3080000000.0 -0.11875330329053337 -0.2775255294790091
3100000000.0 -0.009570397715991861 0.2927369272430088
3120000000.0 0.16016152474970052 -0.23347477432170627
3140000000.0 -0.2590950273781622 0.08425525284208231
3160000000.0 0.2598594319100236 0.026054859854319865
3180000000.0 0.0740643353580973 -0.2374507283221028
3200000000.0 0.1583904377714633 0.17033834626542937
3220000000.0 -0.05714125158876956 0.2026570942283475
3240000000.0 -0.07980450914435214 0.16645494544970887
3260000000.0 -0.0648096198459826 0.1372616331933282
3280000000.0 0.11097561426577127 0.03256814556873438
3300000000.0 0.05556661991088173 -0.057820583163637085
3320000000.0 0.040680686656522524 0.017632673249602167
3340000000.0 -0.01293042165681624 0.007149387383202862
3360000000.0 -0.009763598225764484 0.007955546682200857
3380000000.0 -0.0007271281922373751 -0.024213042898972362
3400000000.0 -0.029309043890981608 -0.0024146018733206577
3420000000.0 0.02566258158481225 0.016653914557432987
3440000000.0 -0.015112945855013674 -0.028838977258454423
3460000000.0 -0.04232736126812561 -0.0014096348961030185
3480000000.0 0.021974797418759174 0.0590361685342454
3500000000.0 -0.08598955683352011 0.013588091340618216
3520000000.0 -0.07500677489240574 0.07999435559280764
3540000000.0 0.12486099429780136 0.015082043693661012
3560000000.0 0.12756520649899128 -0.04572705286902167
3580000000.0 0.055615515910784334 0.1319272811754353
3600000000.0 -0.1489740516820547 0.035914982035647754
3620000000.0 0.08775536554616829 -0.13301787325498163
3640000000.0 -0.1288517888542588 0.10620095349808023
3660000000.0 0.041209030923910414 -0.17325889604262143
3680000000.0 0.12719376331770094 0.13671909401687607
3700000000.0 -0.012368296034040884 0.19234577411905082
3720000000.0 -0.05341217307062885 0.1914643376856506
3740000000.0 0.10177274447602085 0.16829729241406935
3760000000.0 -0.07420364367963271 0.17587567714890784
3780000000.0 -0.17728149767087217 -0.02277061342002765
3800000000.0 0.16249800593928143 -0.005010064494931832
3820000000.0 0.14703766292638792 0.013531177258428175
3840000000.0 -0.1340691543051514 -0.012322528055511468
3860000000.0 -0.10756652144665876 0.08048712252562235
3880000000.0 0.09969216493571492 -0.10796607890401004
3900000000.0 -0.12804784203116432 -0.09620564900321454
3920000000.0 0.1719000480826067 -0.015495222834853573
3940000000.0 0.17819011507778448 0.030562325263998175
3960000000.0 0.04083652022223657 -0.1811239263134087
3980000000.0 -0.1176306230036722 -0.1375989714999948
4000000000.0 0.03919753904430785 0.16281738549839242
