! Created with skrf (http://scikit-rf.org).
# Hz S RI R 50.0 
!freq ReS11 ImS11
400000000.0 0.19788116367972156 0.8514132275572808
420000000.0 0.6209093863342725 0.5956087867685911
440000000.0 0.8088107787287664 -0.170499919473048
460000000.0 0.1506909400528551 -0.7749583931881013
480000000.0 0.5563009728760238 -0.4347354639497264
500000000.0 0.4531112276252959 -0.32967394232260644
520000000.0 0.19947875367165727 -0.4458206391605123
540000000.0 0.38588788023376575 0.18150152348430493
560000000.0 -0.27060734907258055 -0.233776766849319
580000000.0 -0.33636724718086997 0.03263534986561519
600000000.0 0.3303458803387088 -0.05043972264729768
620000000.0 -0.1155281189040101 -0.3305641800475223
640000000.0 -0.37246514774483885 -0.09413541999001362
660000000.0 -0.319899877055376 0.24068624518308185
680000000.0 -0.11519657054464463 -0.41189716109689956
700000000.0 0.23663615340412 0.3812734675740916
720000000.0 0.14588205637044596 -0.4246716877223435
740000000.0 0.4196498839399721 -0.13117560505305303
760000000.0 -0.40258390470784916 -0.11080273136376943
780000000.0 0.19038274032695468 -0.33488031711935556
800000000.0 0.11634157836372026 0.33061605753409584
820000000.0 0.1462885386053584 0.24815358774218624
840000000.0 0.19034481222775473 0.13467881206222101
860000000.0 0.08717140710022685 0.1790931016187688
880000000.0 -0.13063637010823037 0.04073585784136265
900000000.0 -0.06090185111916655 -0.03727157394995473
920000000.0 0.03815472732192111 -0.007828370579076295
940000000.0 0.023257820767778024 0.019402779333164057
960000000.0 -0.041044973035500545 -0.007563163278135265
980000000.0 -0.012152863041035711 0.049647617719037564
1000000000.0 -0.05695114105326451 0.0073396261064102115
1020000000.0 -0.06192063341457975 -0.03646161165875924
1040000000.0 -0.07089744640736899 -0.04481861400140089
1060000000.0 0.10899555312194094 0.05787371970202025
1080000000.0 -0.06503639040777073 -0.12478353362638653
1100000000.0 -0.05693988546004206 -0.1575237373655934
1120000000.0 -0.198235558210235 0.011359623789016674
1140000000.0 0.24196851721914261 -0.02012599299862872
1160000000.0 0.14190073292449606 -0.2489205370494322
1180000000.0 -0.2387440916263301 -0.2291593510713218
1200000000.0 -0.3435557489839198 -0.12810992668177015
1220000000.0 0.00840021416819582 -0.396748700855802
1240000000.0 0.3918107505380275 0.14631456620123123
1260000000.0 -0.43730713568697466 0.03999896709006526
1280000000.0 0.43986052109907664 -0.08695004959414579
1300000000.0 -0.42768581048165893 -0.13128371420717574
1320000000.0 -0.09169892321763518 0.4243878393471448
1340000000.0 -0.3396841238758551 0.2438428347262781
1360000000.0 -0.17311743887256786 -0.3684185753744276
1380000000.0 0.21189696897858512 -0.34693718427785913
1400000000.0 0.25276815413985 -0.3056869302844828
1420000000.0 0.1869706967114566 -0.33933201418686737
1440000000.0 -0.0116619775026711 -0.3738562271676197
1460000000.0 -0.34381417334815445 -0.09911316366547965
1480000000.0 0.18322280262664453 0.28452001534565674
1500000000.0 -0.20862192625944814 -0.2329067024759647
1520000000.0 0.04587815233867119 0.282602212163548
1540000000.0 0.01953121638313921 0.253914860169144
1560000000.0 0.18092964097927533 0.11458280707581042
1580000000.0 0.1455685937707244 -0.10326606211771487
1600000000.0 -0.003036044490153316 0.1440617341293346
1620000000.0 -0.0977662323603422 -0.028102183373742352
1640000000.0 0.0011787327474409748 0.07288794995043998
1660000000.0 0.04623562263308136 0.0034029493444382056
1680000000.0 0.0037655976063653697 -0.01602711251294937
1700000000.0 -0.011469237821584564 0.004562813899213243
1720000000.0 -0.0012796785327528122 -0.03171636286766035
1740000000.0 -0.04881424277047039 -0.014736188435997074
1760000000.0 0.05311272346421822 -0.03601455600997075
1780000000.0 -0.009364744463520107 0.0820656103634237
1800000000.0 0.05380145566319057 -0.09161741315792248
1820000000.0 0.12046474049110796 -0.008047624166561684
1840000000.0 -0.08046502800615143 0.12211237574631376
1860000000.0 -0.1307612783743447 -0.11201107255632477
1880000000.0 0.15024205742710797 -0.14643162153005132
1900000000.0 0.22512396594755893 -0.12110482564663873
1920000000.0 -0.29443804567300735 -0.06876144500536055
1940000000.0 0.15755392241899793 0.3110599403045641
1960000000.0 -0.11219607038367299 -0.36988624592729846
1980000000.0 0.1575231908957116 0.3833324267984821
2000000000.0 0.13469238280836007 -0.41619444356460594
2020000000.0 -0.18177358772980962 0.411875896263965
2040000000.0 0.45050828250848807 0.04394980524927969
2060000000.0 -0.20595714451722388 -0.3984266762017575
2080000000.0 -0.41320615751257306 0.13008244902427576
2100000000.0 -0.3537454364413063 0.2210027286779975
2120000000.0 -0.3879836736631629 0.09506293831696087
2140000000.0 -0.3579754260486022 -0.13780553102231335
2160000000.0 0.344295540449822 -0.13673228107492877
2180000000.0 0.353658585201953 0.06969373200227555
2200000000.0 0.30416072814471384 0.17891482265296207
2220000000.0 0.32605972326110594 -0.13518360973253649
2240000000.0 -0.13324446920969227 -0.3258116414463467
2260000000.0 -0.3407034478460302 0.10188787680660921
2280000000.0 0.16424507671826932 0.31855044610784505
2300000000.0 0.25186556886025696 -0.27218094890175004
2320000000.0 -0.3729325668097104 -0.10995283556098841
2340000000.0 -0.11385983928398721 0.39946689375827793
2360000000.0 0.45022535893925075 -0.030089712461960794
2380000000.0 -0.407328824218488 -0.2863802788249583
2400000000.0 0.26805345775179534 0.47978481529732026
2420000000.0 -0.3894818764944914 -0.46142975010065596
2440000000.0 0.6350468003865367 0.1612994225720821
2460000000.0 -0.6406812539198584 0.27644383481414325
2480000000.0 0.41048652230523 -0.6047095896884598
2500000000.0 -0.367190495984915 0.6566876360173866
2520000000.0 0.454538361507802 -0.6140794227798702
2540000000.0 -0.6818125397077228 0.34968355083106123
2560000000.0 0.7441283969669602 0.16126602348961866
2580000000.0 -0.28115213874913764 -0.6911702117106181
2600000000.0 -0.4062411483157641 0.5958493541846815
2620000000.0 0.6881727308091187 -0.06283316546511782
2640000000.0 0.6041442300359222 -0.25066503451300504
2660000000.0 -0.527050509556204 -0.308490487524244
2680000000.0 0.042505822995747726 0.5648236585477604
2700000000.0 0.24253780623912416 -0.46254962077006667
2720000000.0 -0.31664643721257685 0.35517008502605774
2740000000.0 0.26444356980725103 -0.3406242947739423
2760000000.0 -0.1166894859846512 0.37177988697197345
2780000000.0 -0.18491495818786435 -0.3034932696780134
2800000000.0 0.31363607659491743 0.08153578086943754
2820000000.0 -0.27689074490472637 0.11847440239997793
2840000000.0 0.26283083088394393 -0.11722126496663973
2860000000.0 -0.25249856674514054 0.1284585521291271
2880000000.0 0.27029342783074994 -0.08878903697868028
2900000000.0 -0.27683135576550727 -0.08453682875107185
2920000000.0 0.04891753493997181 0.29764465167760973
2940000000.0 0.20334885191651444 -0.2386657014618412
2960000000.0 -0.29580847601039584 -0.12296350242207135
2980000000.0 -0.30701695655576644 0.1096582178397103
3000000000.0 -0.31042178877244814 0.11010242314448146
3020000000.0 -0.3246390411627168 -0.03780873113179001
3040000000.0 0.019986624865964208 -0.3201222584218348
3060000000.0 0.16958485820644656 0.26175760889665817
3080000000.0 -0.1422109284265773 -0.2659129315845427
3100000000.0 0.07476270482077485 0.2832416107284697
3120000000.0 0.1583133102698361 -0.23433311856342404
3140000000.0 -0.24862288138369426 0.11151449815358605
3160000000.0 0.26032337659193494 0.015796226188293398
3180000000.0 0.0660530464021488 -0.23957794554557468
3200000000.0 0.17462566923116743 0.15402552367218958
3220000000.0 -0.04925034495986966 0.20509312658486456
3240000000.0 -0.06769591070831658 0.1715779387840651
3260000000.0 -0.060466011762440486 0.13942900792790297
3280000000.0 0.09997135046199591 0.05828370123854169
3300000000.0 0.04923003286985813 -0.06341870844867736
3320000000.0 0.04026275226154136 0.019429829820729518
3340000000.0 -0.014272078750098557 -0.004053580418401572
3360000000.0 0.0004166806741310206 0.012328388440085436
3380000000.0 -0.012408834368863694 -0.020699516196618774
3400000000.0 -0.017477216862560492 0.02412089887660878
3420000000.0 0.03060741474708139 0.000980585100046641
3440000000.0 -0.02866928418216673 -0.015104351569907928
3460000000.0 -0.009560688985264945 0.04145252439426126
3480000000.0 0.05613456070765147 0.028796331892261034
3500000000.0 -0.08452394206960538 0.019653377864070364
3520000000.0 -0.053005185965072844 0.09599647676171516
3540000000.0 0.12311994865565926 0.022844668938346132
3560000000.0 0.12390650214124412 -0.05461047922406837
3580000000.0 0.06583077857880264 0.12699532227534616
3600000000.0 -0.15261110074233444 0.004212844416814609
3620000000.0 0.06644266195781878 -0.14561407058038478
3640000000.0 -0.12101826763025489 0.11483715965570812
3660000000.0 0.02794235052288361 -0.17561210549816744
3680000000.0 0.1303115799391852 0.13392157544545627
3700000000.0 -0.005977362902297227 0.1925543053055688
3720000000.0 -0.0608757938830994 0.18863782303957682
3740000000.0 0.10796784764311718 0.16439816082026207
3760000000.0 -0.06957079865707166 0.17782783803588542
3780000000.0 -0.1771785653189661 -0.027277395044111634
3800000000.0 0.16249123000345295 -0.006171128421673757
3820000000.0 0.1474872083506259 -0.0002470282793399638
3840000000.0 -0.13484422210411426 -0.001326770445075473
3860000000.0 -0.11210446025321688 0.07472123627420446
3880000000.0 0.09947420836279607 -0.10854791908141513
3900000000.0 -0.12361596699376312 -0.1026655177703497
3920000000.0 0.17292691110572925 -0.007445975846887985
3940000000.0 0.17773153080638188 0.034727067991174594
3960000000.0 0.05519508041398028 -0.1777778183245046
3980000000.0 -0.11652784595423699 0.1388054490887599
4000000000.0 0.019927728362459565 0.16639061141629521
