! Created with skrf (http://scikit-rf.org).
# Hz S RI R 50.0 
!freq ReS11 ImS11
400000000.0 -0.8033622190231439 0.30776478721399275
420000000.0 0.13447878052618317 0.8530441053826543
440000000.0 0.8095807175559785 -0.21537615333058852
460000000.0 0.24823714830381746 -0.7477106946127211
480000000.0 0.5835856725516325 -0.42618159393034827
500000000.0 -0.39023364484193596 -0.40661718375650097
520000000.0 -0.46776522783205204 -0.15028298748958505
540000000.0 -0.03936786877949008 -0.4078571745207099
560000000.0 -0.2870970551780339 -0.228491934559009
580000000.0 0.08850280904225206 -0.3095752689192806
600000000.0 -0.16152924752598335 -0.28781405754965245
620000000.0 0.3126489961749991 -0.111036733303217
640000000.0 -0.34694571797861684 -0.04757813265723947
660000000.0 -0.3407572102514581 0.1807867919073551
680000000.0 0.2121715731532135 -0.34663812814782863
700000000.0 -0.439613074188555 -0.014550762957048166
720000000.0 -0.11509034021983047 0.4271148353631013
740000000.0 -0.43747532389309174 0.12845080497474612
760000000.0 -0.16877537688699867 -0.39940360583802886
780000000.0 0.39869613011088545 0.02582435618884216
800000000.0 0.2013698896892596 0.29948677425183257
820000000.0 0.13218850349132696 0.26675624593308983
840000000.0 -0.08773458871070505 -0.22983019159256077
860000000.0 0.1516655318881057 -0.12011168924990442
880000000.0 -0.06315763887050711 -0.13548117266410523
900000000.0 0.046460484708588906 0.05166288491293775
920000000.0 -0.008070744922830662 -0.036111631723560876
940000000.0 -0.017081124913562663 -0.0358257648731643
960000000.0 -0.024216634353649184 -0.042790937914275885
980000000.0 0.05211021939930883 0.015203243122199506
1000000000.0 -0.05431177092135007 0.030471935343906846
1020000000.0 -0.06873681598242452 -0.007739204751588006
1040000000.0 0.06800928233440515 0.04221912770147256
1060000000.0 0.11339842450763322 0.020353347099232436
1080000000.0 0.13837112538605106 -0.00983066046054633
1100000000.0 0.050809104870133626 -0.15699016862796145
1120000000.0 -0.04635608667228701 -0.19525693687138887
1140000000.0 0.22643774213147186 0.09886539153175361
1160000000.0 0.08694509389333613 -0.2774248580964027
1180000000.0 -0.29707813676450756 0.1528247948864367
1200000000.0 -0.3537292137095837 0.08996182557082034
1220000000.0 -0.3279844179668608 -0.22447066895198933
1240000000.0 0.4032657708964953 -0.09215215079989353
1260000000.0 -0.3786988654553056 0.21564284423945732
1280000000.0 0.4150963872904829 -0.14080002228066163
1300000000.0 -0.23796418314945053 -0.37229310251642933
1320000000.0 -0.41157840853949346 0.12142178644357708
1340000000.0 -0.17151829457945972 -0.3849981882946123
1360000000.0 0.25638190956078494 -0.33275460975783466
1380000000.0 0.2705640158511763 -0.3241458998062595
1400000000.0 -0.29197931685066264 -0.28876549717022093
1420000000.0 -0.39675000292645346 -0.028355102431679644
1440000000.0 0.0620145464985813 0.37195429834186006
1460000000.0 0.2931628195614481 0.18804856182600038
1480000000.0 0.2345568424051797 -0.22466906752230786
1500000000.0 -0.19484279354621528 -0.22452626322576053
1520000000.0 -0.25614908232081296 0.08485933521542795
1540000000.0 0.04930298117153588 -0.23997094024372528
1560000000.0 0.12552339111477176 -0.16994990103832128
1580000000.0 0.08052924683764974 -0.1604879435883421
1600000000.0 -0.03133992307493166 0.14337830350402025
1620000000.0 0.0663089058424456 -0.09020410461026902
1640000000.0 0.019824197003326802 -0.08154968730686828
1660000000.0 -0.059723316010629746 -0.001965796347813699
1680000000.0 -0.003713588348513021 -0.02974471402730039
1700000000.0 0.0082545369363344 -0.007660402789745853
1720000000.0 0.016531723089094907 -0.0017292824528550353
1740000000.0 -0.020774879392879562 0.030513586018690208
1760000000.0 0.006476465334490519 -0.0567310148210249
1780000000.0 0.0161138682294701 0.07913113235100988
1800000000.0 -0.11414191918202238 -0.010440969910902846
1820000000.0 0.12591528556453344 -0.062115824109671806
1840000000.0 -0.10306222688027637 -0.13153867143842302
1860000000.0 -0.056375532478985343 0.18682134145409762
1880000000.0 0.021735301176729345 0.223286868647443
1900000000.0 0.051952482045312574 0.2557826155242329
1920000000.0 0.282394071126062 -0.09415753209628548
1940000000.0 0.1296775182740686 -0.3079920838577099
1960000000.0 -0.36972972582478647 0.0036654876313098055
1980000000.0 0.1571574145826924 0.3631814097231923
2000000000.0 0.4020898667872695 -0.12255139987538512
2020000000.0 -0.20760325876001107 -0.38893054700323065
2040000000.0 -0.1889621125860803 0.4100197043594715
2060000000.0 0.45267487327593087 0.027839776530046646
2080000000.0 -0.18606048526616836 -0.40965919961148134
2100000000.0 -0.36214009437361 0.2441373104802843
2120000000.0 -0.12201965526576529 0.39898738137741513
2140000000.0 -0.39173059415335626 -0.06653370375297488
2160000000.0 -0.37501203570524455 -0.048491665857006816
2180000000.0 -0.17876639856160753 -0.3152975863241873
2200000000.0 -0.047127904693663125 -0.3473603547828632
2220000000.0 0.19908967013295964 -0.2840918189766542
2240000000.0 -0.08664117761773944 -0.338806671437429
2260000000.0 -0.3115109495465802 -0.175674378364597
2280000000.0 -0.09552464537000145 0.3541324330396145
2300000000.0 0.3582226603784293 -0.13013703726735945
2320000000.0 -0.3580357362512326 -0.1850868009893693
2340000000.0 -0.06957403423665458 0.4245184198331862
2360000000.0 0.2467959733106702 -0.394501237344351
2380000000.0 -0.4911114421384655 0.13449987447515943
2400000000.0 0.5518717889271185 -0.09028374953669507
2420000000.0 -0.5224046325373215 0.31532177173641135
2440000000.0 0.19240348222262857 -0.6291198858425727
2460000000.0 0.28676330122175725 0.6345324454643866
2480000000.0 -0.5962971537978043 -0.41434963770434774
2500000000.0 0.6549960208720929 0.35538345556499623
2520000000.0 -0.5861115624217773 -0.47500236372720794
2540000000.0 0.287047301752303 0.699374632744662
2560000000.0 0.2509170243013234 -0.7068810383407436
2580000000.0 -0.7183621222831412 0.15538377986075666
2600000000.0 0.5597835539877788 0.43757299328448446
2620000000.0 0.03968037366015893 -0.6794664952197413
2640000000.0 -0.283802759701234 -0.5778243274871526
2660000000.0 -0.36096877685819173 0.47833933661692135
2680000000.0 0.546364134105439 0.09751853948233183
2700000000.0 -0.22224013477660898 -0.45994439735739284
2720000000.0 -0.029409768239879355 0.464363600507026
2740000000.0 0.2539885387834155 -0.3383971234190796
2760000000.0 -0.28197392892117323 0.26160042098201625
2780000000.0 0.18725847263802592 -0.29810560267075226
2800000000.0 -0.07018360198987046 0.3181687877591506
2820000000.0 -0.16139710845613275 -0.2614790806623338
2840000000.0 0.28387660302673473 0.08019247845718916
2860000000.0 -0.2509949158601393 0.14245986199664448
2880000000.0 0.11426870793446185 -0.26275211926321296
2900000000.0 -0.06426702343582734 0.27761139418424235
2920000000.0 0.2898803820412275 -0.0008304029905707371
2940000000.0 -0.09490502617582107 -0.28014833676682316
2960000000.0 -0.249196356173238 -0.16874778068389432
2980000000.0 -0.30734337434568243 0.015489840221480759
3000000000.0 -0.24102337895875672 -0.19532931877317625
3020000000.0 -0.02548079543386384 -0.3126277153163048
3040000000.0 0.3099416483864561 -0.018677121606708248
3060000000.0 -0.08764416771196318 0.29579332569158634
3080000000.0 -0.07727878226886352 -0.29262475773157887
3100000000.0 0.2541305033947509 0.15082310471621133
3120000000.0 -0.28264448218067423 -0.032141009168673004
3140000000.0 0.18520331465640144 -0.1986869673311944
3160000000.0 -0.20042630237267792 0.15700496908640085
3180000000.0 0.16342283905329721 0.17373437338378234
3200000000.0 -0.19144570172951214 -0.10324230084748406
3220000000.0 0.19253135652542294 0.039114515418452137
3240000000.0 -0.11030568472704987 0.13125338147738225
3260000000.0 -0.024909452309227746 -0.14324077186603063
3280000000.0 0.11595176004216744 -0.012081866317198268
3300000000.0 0.06802855048149621 -0.056741592557009383
3320000000.0 -0.05723070842804048 -0.010878789250765264
3340000000.0 -0.00400431652994552 0.029964118499225628
3360000000.0 -0.01300643624115339 0.0029425951703854255
3380000000.0 0.017079779743180534 -0.00979323852659838
3400000000.0 -0.02516152604826446 -0.018619776701499835
3420000000.0 0.01720162026028238 -0.03683268111482821
3440000000.0 -0.002224936493837284 -0.04354459285709676
3460000000.0 -0.023660914845977474 0.038003777186309075
3480000000.0 0.05176943550835042 0.009099555864779802
3500000000.0 0.05149505937005703 0.04504977875840565
3520000000.0 -0.011255147127834304 -0.09197236757395601
3540000000.0 0.05780129861883067 -0.09645864001295487
3560000000.0 0.07191561433711068 -0.10860827190875919
3580000000.0 0.13668340987074548 -0.0425314618449151
3600000000.0 0.1447955896573629 -0.06880245883805396
3620000000.0 0.14663475602892825 -0.0806027064106031
3640000000.0 0.1742732323927145 0.024232927552686176
3660000000.0 0.07116155406910411 0.16589397611009318
3680000000.0 -0.18390479817213382 -0.005288157476233312
3700000000.0 0.0211163023753667 -0.18182651932214042
3720000000.0 0.1149166463299517 0.14412506095742977
3740000000.0 -0.14099795746731492 0.11718051689025917
3760000000.0 0.10340431308851669 -0.1483984501632647
3780000000.0 -0.03816374914259142 0.17099233114936968
3800000000.0 0.020005656628601817 -0.1666122220692052
3820000000.0 -0.15440074282819086 0.03425883159000747
3840000000.0 -0.14636936179859106 -0.02203966835706039
3860000000.0 0.07136361541618785 -0.12388080934199336
3880000000.0 0.0668314226745902 0.13073819010734064
3900000000.0 -0.01716710661461762 0.15051215713786015
3920000000.0 0.09433265089423422 0.12942756001526434
3940000000.0 -0.17124013370896055 0.006643653018398432
3960000000.0 -0.18090261850548262 -0.0012129505297607188
3980000000.0 0.18165524036079622 0.021977244956780287
4000000000.0 -0.0066090465611256585 -0.1747753645299723
