!Created with skrf (http://scikit-rf.org).
# Hz S RI R 50.0 
!freq ReS11 ImS11
400000000.0 -0.5218329055826788 0.7047356029864248
420000000.0 0.4336994171119185 0.7532337413072047
440000000.0 0.7006498200281426 -0.4691518622209947
460000000.0 -0.47064368344668134 -0.6484136406338267
480000000.0 0.053304679029641394 -0.7150313166095695
500000000.0 -0.559378525669708 -0.14726915252486422
520000000.0 0.01571171126634173 0.4956437948877862
540000000.0 -0.311718093186824 -0.26892704017968094
560000000.0 -0.2997164553704597 0.1829226537555455
580000000.0 0.15992784592295312 -0.2917709112962539
600000000.0 -0.33161067093610724 0.035133364914705985
620000000.0 0.34412531368504096 -0.006805048876959922
640000000.0 0.34508183562627903 -0.14961261952997382
660000000.0 -0.13080530404468943 -0.36602671368293943
680000000.0 0.38434044478660073 0.12560028990807218
700000000.0 0.2726053869853376 -0.30231004787336596
720000000.0 0.3519011461828236 -0.20858650027556433
740000000.0 -0.40750647211118907 -0.0008902496412981142
760000000.0 0.13022231399105202 0.3762974859736296
780000000.0 -0.0363039793418298 -0.3749966578340495
800000000.0 -0.06133389584337537 0.34956930010041837
820000000.0 -0.23930822171474858 0.2023555458277859
840000000.0 0.005492777306784103 -0.2715580680938519
860000000.0 -0.06698963717745508 -0.21699514071488388
880000000.0 0.15552955221875175 0.08267181420779517
900000000.0 0.06291454519668614 0.0931364123401085
920000000.0 -0.022798221448203707 0.07076825709324065
940000000.0 0.04816299580422697 0.020778816405221466
960000000.0 0.06207484307579938 0.009684324563348402
980000000.0 0.019899551031718442 0.07599982256905756
1000000000.0 -0.02517069213171833 -0.08764210509238135
1020000000.0 0.09217598688900724 0.0530974606023481
1040000000.0 -0.1164478375758126 -0.008811066614763916
1060000000.0 0.07465276894223044 0.13052784728525768
1080000000.0 -0.13505597849184925 0.09791277974742234
1100000000.0 -0.02671784851070586 0.18587813642048767
1120000000.0 -0.03538158262094421 -0.20442301703343763
1140000000.0 -0.2049573506868332 -0.11933144215852069
1160000000.0 -0.25166293097388465 -0.06964833038983408
1180000000.0 0.27848453564366304 -0.10213840298988147
1200000000.0 -0.06356913950508043 0.3164174366212212
1220000000.0 0.2759490501004557 -0.2275332584895335
1240000000.0 -0.38538694802167045 0.01924077081790925
1260000000.0 0.40114565943248937 0.118817278113983
1280000000.0 -0.14864967989119132 -0.4107078482383503
1300000000.0 0.0894770631866096 0.4419502336668468
1320000000.0 0.4500372378291516 0.058573696164759916
1340000000.0 0.21593591461782927 -0.3971747097393125
1360000000.0 0.08489673711308823 -0.4424021264736461
1380000000.0 -0.33876595898527134 -0.2863746157631716
1400000000.0 -0.08896269629090639 0.42349590365946915
1420000000.0 0.3759604885629348 -0.16844578743758454
1440000000.0 -0.3325822313977521 -0.17852356257279844
1460000000.0 -0.24491002174419135 0.23512500650128845
1480000000.0 0.01717801465766291 0.3024541935042418
1500000000.0 -0.18479386886346236 0.1912126303441351
1520000000.0 -0.16033608245853834 -0.17807325873679414
1540000000.0 -0.19798627295910226 0.08509583219594885
1560000000.0 0.17688067326764648 0.06391617136867844
1580000000.0 -0.10608205868786295 -0.13307597003505872
1600000000.0 -0.13760355521454298 -0.05001100162405429
1620000000.0 -0.12379524423326627 -0.013289268858111315
1640000000.0 -0.05806638115446214 -0.08485899847285347
1660000000.0 -0.0797506949145861 0.024491899856212515
1680000000.0 0.0020818226552801245 0.06290513756319187
1700000000.0 0.044546338527567717 0.015628604723940964
1720000000.0 0.0021583145468660617 0.026011073068401253
1740000000.0 0.003660037314266613 -0.018142114264483384
1760000000.0 -0.02486257079125297 0.024237218795502564
1780000000.0 0.049848798353021286 -0.04425233326628526
1800000000.0 -0.06957413587569179 -0.08038255903386636
1820000000.0 -0.11150570669778724 0.09528457206726648
1840000000.0 0.15589160258661588 0.10263719964055165
1860000000.0 0.09946210180246307 0.19791736978097157
1880000000.0 -0.245791913965604 0.07134571400942805
1900000000.0 0.2306751346489857 -0.179776004402407
1920000000.0 -0.22542868997695015 0.22802028530589422
1940000000.0 0.3477121827229891 0.02725324128891319
1960000000.0 -0.004980180689781638 -0.3718367342227391
1980000000.0 -0.3821984338043275 -0.059811061009582
2000000000.0 -0.40133382976641546 0.05113003086239712
2020000000.0 -0.15973450302343625 0.38313583675653606
2040000000.0 -0.11372676271736382 0.409738151328059
2060000000.0 0.22132859102271163 0.36726825490456105
2080000000.0 0.4013346794400054 0.15540809967013103
2100000000.0 0.4250001854094743 0.04394088041558487
2120000000.0 0.3700354389401876 -0.20423027131830757
2140000000.0 0.22984332604497665 -0.3460281050150653
2160000000.0 0.36869837059337873 -0.16834032041059832
2180000000.0 -0.060402927951984674 -0.3883934280625672
2200000000.0 -0.3440536853281189 0.1585427352901524
2220000000.0 0.023288034622185178 0.3628745674979171
2240000000.0 0.3407758161240972 0.0945891819790344
2260000000.0 0.3446695286094154 -0.038259824564156684
2280000000.0 0.3281313833070729 -0.10850537263629097
2300000000.0 0.2535726750783434 -0.25077622157142754
2320000000.0 0.04306162439107577 -0.3771798853975979
2340000000.0 -0.3759244341122612 -0.17498399651563787
2360000000.0 0.13611134945982778 0.43939469390279234
2380000000.0 -0.16565397617992944 -0.4836340904490709
2400000000.0 0.42881034209001273 0.36443029579526565
2420000000.0 -0.6036655103297138 0.11067249140951012
2440000000.0 0.33343973449156367 -0.569028409286105
2460000000.0 0.2195550037612354 0.6620399789088679
2480000000.0 -0.5180184812155338 -0.509290421167513
2500000000.0 0.5226542526003781 0.5307279979306194
2520000000.0 -0.4376014591017153 -0.6153640461942602
2540000000.0 0.021323863937452895 0.7565019421360901
2560000000.0 0.49280259332369386 -0.5672044862169685
2580000000.0 -0.7351606922011297 -0.05749812604667752
2600000000.0 0.32396382110439115 0.6369251915548956
2620000000.0 0.3507109109196863 -0.589040784681673
2640000000.0 -0.024634316191264653 -0.6498398053036515
2660000000.0 -0.4112279046356944 0.4454888576977338
2680000000.0 0.5472429296263873 -0.11523272419966818
2700000000.0 -0.47620597556356126 -0.18604531466792906
2720000000.0 0.16506085329320663 0.4297122941601919
2740000000.0 0.2931459233128016 -0.29135566970383414
2760000000.0 -0.37243030327260096 -0.0170797772191246
2780000000.0 0.16968420382544283 0.29816754218968194
2800000000.0 -0.008938935912460214 -0.3203508519143241
2820000000.0 0.1549246942214903 0.26654387701143595
2840000000.0 -0.26696604083434916 -0.14085947366758658
2860000000.0 0.18287036741353346 -0.24097264683984804
2880000000.0 0.2892026596206952 0.09761618189632117
2900000000.0 -0.08286259674838233 0.29617441197811606
2920000000.0 -0.07914029150220624 -0.29798079703906766
2940000000.0 0.03362297774666038 0.306095291649736
2960000000.0 0.303740646192247 0.029141174902673414
2980000000.0 0.29604001431570215 0.058531010302024775
3000000000.0 -0.003296516324851043 0.29782710376731203
3020000000.0 -0.21456534129028748 -0.20662114894516995
3040000000.0 0.1743488150980289 0.24025259121775305
3060000000.0 -0.11946755709971486 -0.2724910566141535
3080000000.0 0.15430401253915 0.2553592651137775
3100000000.0 -0.19632775637725333 -0.2248970779353494
3120000000.0 0.2947507035567134 -0.03380212122945486
3140000000.0 -0.015342320001988246 0.29151755046101946
3160000000.0 -0.2677122245694186 0.07231898508416465
3180000000.0 0.20541026338471197 -0.16170206437045367
3200000000.0 0.23426669020013938 0.011040455627658187
3220000000.0 0.14350977174566676 0.14384644923991785
3240000000.0 -0.06420641879919879 0.1565932561528766
3260000000.0 -0.02068601120029446 -0.13063053270089275
3280000000.0 -0.07739703164215837 -0.06079717185837118
3300000000.0 0.01474954568669037 -0.06799357676107633
3320000000.0 -0.03755257087403637 -0.028486503829205916
3340000000.0 0.02570917165050975 0.015993396699045283
3360000000.0 -0.014458001404145892 -0.011125044758719393
3380000000.0 -0.001115967157940012 0.005796397268155829
3400000000.0 0.0013655885971887828 0.007997042524705322
3420000000.0 -0.02490664676250597 -0.0019505898969574868
3440000000.0 -0.030219870127314436 0.028204585432965983
3460000000.0 -0.05529831180079943 0.011830738196733095
3480000000.0 -0.017649831053963103 -0.0687992014162675
3500000000.0 -0.06532821761711148 -0.05258955732756061
3520000000.0 0.08802153556318058 -0.03604570277396819
3540000000.0 -0.06827336007615913 0.08066980968734508
3560000000.0 0.10126156314187329 0.05429235828621422
3580000000.0 0.052130512411060155 -0.11542110196331411
3600000000.0 -0.0021213722858017072 0.14226634753114623
3620000000.0 -0.11900197469150822 -0.09988149791418405
3640000000.0 0.0795915105120302 -0.15000301133013066
3660000000.0 0.16504020583523113 -0.08025042387062845
3680000000.0 0.17752039831126454 -0.07586411790177017
3700000000.0 0.06684238241977915 -0.18313339044969104
3720000000.0 0.03463362276682881 -0.19086988174258568
3740000000.0 -0.035364128267837885 -0.1845308655241525
3760000000.0 0.09733193467646267 0.1503046483683961
3780000000.0 -0.14711848588733947 -0.07790604116964411
3800000000.0 -0.11059409947950236 0.1103028664169985
3820000000.0 -0.13938413283769932 0.041994978611392716
3840000000.0 0.038002085255829855 -0.1332252319862417
3860000000.0 -0.14153867788677837 -0.01575038556623726
3880000000.0 -0.12456663401522194 -0.08924445190667957
3900000000.0 0.008181262085260986 0.16507591454594128
3920000000.0 -0.1713894727858265 -0.008227220585998401
3940000000.0 -0.12929585363310186 -0.11896499771342504
3960000000.0 -0.1514812745736443 -0.0913165971741217
3980000000.0 -0.15293060178476464 0.07895123807007426
4000000000.0 -0.12043507614186003 0.1075047867174919
