!Created with skrf (http://scikit-rf.org).
# Hz S RI R 50.0 
!freq ReS11 ImS11
400000000.0 -0.5306026417822085 0.6984767708019762
420000000.0 0.44941060730599497 0.7444220184900542
440000000.0 0.6972740609084304 -0.4735589224730932
460000000.0 -0.42603242591142204 -0.677633082483735
480000000.0 0.10459379963122467 -0.7107657730862732
500000000.0 -0.5778629095848767 -0.007237130104024039
520000000.0 -0.1143198927969288 0.48031907188167566
540000000.0 -0.2716722604793393 -0.31251036657286574
560000000.0 -0.25304548265262744 0.24625967191761228
580000000.0 0.07873061449781629 -0.32169931402984575
600000000.0 -0.328004340696941 -0.06287906268182446
620000000.0 0.34475125490299297 -0.0215813570460344
640000000.0 0.34057270038577464 -0.160115328992456
660000000.0 -0.09202788595900777 -0.37761269401125386
680000000.0 0.386512625400892 0.11725478041367311
700000000.0 0.2815560381024122 -0.2953015872250287
720000000.0 0.3401066690446515 -0.2263279954710325
740000000.0 -0.4070829191560597 0.027045017950304152
760000000.0 0.1105245898759652 0.3825946324286341
780000000.0 -0.037675028771135446 -0.37453491650446785
800000000.0 -0.05784832052060213 0.3500113205863275
820000000.0 -0.24227236180653755 0.19850410607072502
840000000.0 -0.0140223339447305 -0.27175603031839324
860000000.0 -0.0851063966696253 -0.21057101686109622
880000000.0 0.16302152982601037 0.06771505251955627
900000000.0 0.06103215323730467 0.09447918971137353
920000000.0 -0.02954991379895962 0.06856439473256662
940000000.0 0.05137001663594977 0.009861052791178522
960000000.0 0.061665838360467295 0.01164918397068752
980000000.0 0.022918081310190783 0.07585119741410397
1000000000.0 -0.06473666985355464 -0.06425866878415955
1020000000.0 0.10236125762007366 0.02619562294442078
1040000000.0 -0.11581973544855602 -0.011979302943938197
1060000000.0 0.07866646808948903 0.12772757267435902
1080000000.0 -0.14606353452687462 0.08002440151667127
1100000000.0 -0.06505701790805724 0.17596061428409962
1120000000.0 -0.007539645059279234 -0.20758180216663397
1140000000.0 -0.19556639842634485 -0.13422084842774618
1160000000.0 -0.24109608761373647 -0.1011060456332793
1180000000.0 0.2786794284142945 -0.10241859480297613
1200000000.0 -0.06126093359363794 0.3171721359748183
1220000000.0 0.25167256251445885 -0.25456499674022676
1240000000.0 -0.3842833870093004 0.03431897772833538
1260000000.0 0.4008088355753809 0.11968325787659531
1280000000.0 -0.15398257989288675 -0.4086032407674822
1300000000.0 0.07943161797701581 0.4436605933169888
1320000000.0 0.4497093607958878 0.060249015009712956
1340000000.0 0.21941758034262046 -0.3952192344730317
1360000000.0 0.08481237730998785 -0.44236736186097486
1380000000.0 -0.343113074601822 -0.28131547113489974
1400000000.0 -0.09100194773726447 0.42308785677866395
1420000000.0 0.36613065084031715 -0.18822194443194842
1440000000.0 -0.3320315672669516 -0.17932356812244601
1460000000.0 -0.2502323555948616 0.22881963612176473
1480000000.0 -4.9521142526827663e-05 0.3026111947130812
1500000000.0 -0.19911141792268905 0.17652142111897207
1520000000.0 -0.14777521645735014 -0.18922939564369864
1540000000.0 -0.20215379198019032 0.07580411887412407
1560000000.0 0.16968552576879167 0.082545371144133
1580000000.0 -0.12371453512698867 -0.11731000888144381
1600000000.0 -0.1350311541393144 -0.05762899966676237
1620000000.0 -0.11929230223886218 0.036332288664684714
1640000000.0 -0.060669454900477766 -0.08313735910646555
1660000000.0 -0.07511996003079763 0.036004842315224155
1680000000.0 0.04494304859756388 0.044036622593453444
1700000000.0 0.04679913781153379 0.0003270618513284761
1720000000.0 0.014325311841622699 0.021678506206828846
1740000000.0 -0.018683418401310724 -0.0016197236456039342
1760000000.0 -0.025236078208534813 0.024802385350431444
1780000000.0 0.05244059208341315 -0.042146200330244576
1800000000.0 -0.08463579084408004 -0.06521354889405702
1820000000.0 -0.11743213725257855 0.08663397697961081
1840000000.0 0.16687871398449877 0.08278708762014943
1860000000.0 0.10896772571594204 0.19232434018659933
1880000000.0 -0.24526686047720916 0.07086491986600034
1900000000.0 0.23301174655907256 -0.175679537451614
1920000000.0 -0.22354759167048321 0.22907641557799954
1940000000.0 0.3469890032096912 0.031995675492447834
1960000000.0 -0.005301052609997331 -0.3713806235257414
1980000000.0 -0.3821003796732976 -0.05942105802006469
2000000000.0 -0.4009750323808706 0.05358614506606981
2020000000.0 -0.16831843414218928 0.3796049951916181
2040000000.0 -0.1245515272925514 0.40695470324585414
2060000000.0 0.21207146015922027 0.37315576553076296
2080000000.0 0.39655495312803635 0.16843371066741267
2100000000.0 0.42615419292761525 0.034012689351809365
2120000000.0 0.3842254131638966 -0.1770285518745879
2140000000.0 0.23637373661114341 -0.341618097553995
2160000000.0 0.37905571833473256 -0.1434360354029259
2180000000.0 -0.10753787504648447 -0.37776288722112217
2200000000.0 -0.35426005823836193 0.1334165415154362
2220000000.0 -0.0426468057000638 0.36077283390151293
2240000000.0 0.32334334925511554 0.14134977673431356
2260000000.0 0.3460591136936205 -0.011052283335997806
2280000000.0 0.33387391757883306 -0.08742633537562286
2300000000.0 0.2701950148784308 -0.2325786392055055
2320000000.0 0.06096795829883728 -0.3744881626559828
2340000000.0 -0.35689437062709195 -0.20974350419724302
2360000000.0 0.1243012054315724 0.44252910828829045
2380000000.0 -0.15729833557287348 -0.48640552605395293
2400000000.0 0.4223931731115554 0.3716508675359198
2420000000.0 -0.6054008138321457 0.10011911340962912
2440000000.0 0.332175469321481 -0.5698998670422879
2460000000.0 0.1914467131598437 0.6708128449045871
2480000000.0 -0.4439127480666828 -0.5758737701290191
2500000000.0 0.5506469731878719 0.5016283985278739
2520000000.0 -0.4223789168709589 -0.6266916826321903
2540000000.0 -0.0054555421335029655 0.7571468721317234
2560000000.0 0.5196056138963645 -0.5434298357086512
2580000000.0 -0.713105256670507 -0.19059084266688955
2600000000.0 0.3350874721391424 0.6316674061894659
2620000000.0 0.35365783960663194 -0.5882888570979278
2640000000.0 0.0613435079534624 -0.6478545184552462
2660000000.0 -0.4249169660614169 0.43321135893156665
2680000000.0 0.5533993179171832 -0.08619311129031523
2700000000.0 -0.45312094266953773 -0.23733722298687457
2720000000.0 0.14519356847899306 0.43749660666972157
2740000000.0 0.2849619377789053 -0.3002962593779341
2760000000.0 -0.37288106193905846 -0.022312049219537628
2780000000.0 0.15644192613632135 0.3059514293539665
2800000000.0 -0.0004905300538243424 -0.32118329302765336
2820000000.0 0.1623928123843567 0.2628107698929689
2840000000.0 -0.27672210651019735 -0.12183936384039067
2860000000.0 0.16222865972828876 -0.2557009055642916
2880000000.0 0.2972306860849172 0.07050825261272872
2900000000.0 -0.061461309628783045 0.30170089991394367
2920000000.0 -0.10533214855408644 -0.2896415425790792
2940000000.0 0.014468994397888856 0.30738796055177514
2960000000.0 0.30482795919862604 0.0010912409985399413
2980000000.0 0.2953258075927489 0.06441524862339065
3000000000.0 -0.038208975200327046 0.29570314595924646
3020000000.0 -0.19288570992187978 -0.22770775153557962
3040000000.0 0.1802730763429461 0.2374296471833686
3060000000.0 -0.11533875647373511 -0.27531078534314896
3080000000.0 0.15463214949249052 0.2557465184860954
3100000000.0 -0.19507937767373915 -0.22682012769792134
3120000000.0 0.2959797381319885 -0.02633247801982357
3140000000.0 -0.00915135563070918 0.29208523790540836
3160000000.0 -0.2716778270570965 0.0544008922570613
3180000000.0 0.22252261661393444 -0.13698643453561035
3200000000.0 0.23215131498620092 0.03216828896322282
3220000000.0 0.13639173873288712 0.1502268311555717
3240000000.0 -0.09116862787647052 0.14180075999628572
3260000000.0 0.022946931226340176 -0.1302069477388819
3280000000.0 -0.06924802227856319 -0.07005832370152608
3300000000.0 0.016465195095212822 -0.06763883562165984
3320000000.0 -0.03681191331952183 -0.029772773344024662
3340000000.0 0.030192756791984878 -0.0012922638779644222
3360000000.0 -0.011795267812920522 -0.01353209316495322
3380000000.0 0.0007244653264031291 -0.005634566231562616
3400000000.0 -0.008712617064632519 0.00025100638631589883
3420000000.0 -0.025710065353754898 0.0005700757509824709
3440000000.0 -0.02408822089632743 0.03442276313797444
3460000000.0 -0.05658646166129652 0.00696322155262178
3480000000.0 -0.04175230379161739 -0.05813417506933026
3500000000.0 -0.06039298694646906 -0.0585439181354427
3520000000.0 0.09483731409815088 0.002273991917427325
3540000000.0 -0.08454500427753023 0.06357087086781489
3560000000.0 0.09434034896341342 0.06608351566957626
3580000000.0 0.06774423535294481 -0.10730777762151063
3600000000.0 -0.02560322428552663 0.14015257698589484
3620000000.0 -0.11301468801238317 -0.1070253633019809
3640000000.0 0.09714903904268077 -0.13915652280509816
3660000000.0 0.16770105286795972 -0.07471796046877499
3680000000.0 0.17662893569859953 -0.07738835921401443
3700000000.0 0.07031009426247317 -0.1815342020538497
3720000000.0 0.035884820505625394 -0.1898800983109122
3740000000.0 -0.03666197305473693 -0.18342397340230965
3760000000.0 0.09809684323464035 0.14880092381180016
3780000000.0 -0.15025959021523907 -0.0701988908439008
3800000000.0 -0.11395052486482896 0.10593199572824993
3820000000.0 -0.13909877719405403 0.04177839645370457
3840000000.0 0.030895641307203573 -0.13481527127169388
3860000000.0 -0.14205599942563346 -0.00624712249695013
3880000000.0 -0.1280808775391265 -0.08337801724224413
3900000000.0 0.027022769425719424 0.162892592293199
3920000000.0 -0.17103143351198039 0.0013222998093818928
3940000000.0 -0.1439824479831077 -0.09954344869664837
3960000000.0 -0.1603232535241203 -0.07391533419907369
3980000000.0 -0.14404339347132272 0.09377656328329793
4000000000.0 -0.10973298269944051 0.11803919076946671
