!Created with skrf (http://scikit-rf.org).
# Hz S RI R 50.0 
!freq ReS11 ImS11
400000000.0 -0.5275529395155331 0.7006965152798357
420000000.0 0.44920399794492316 0.7443555447357126
440000000.0 0.7056251493371839 -0.46171380914024157
460000000.0 -0.4251844781782937 -0.67953012212759
480000000.0 0.05245754947710238 -0.7150213851485278
500000000.0 -0.5510511907510113 -0.17561133369789877
520000000.0 -0.027047450674540906 0.49499400490946643
540000000.0 -0.31569408669705046 -0.2641472509053803
560000000.0 -0.31490321013064976 0.15673831993217036
580000000.0 0.13864663864642954 -0.30355984803151287
600000000.0 -0.33158335111193254 0.03252817136831256
620000000.0 0.3446752799225174 0.007781380202147106
640000000.0 0.35452010939584033 -0.12725582508046446
660000000.0 -0.14602239235347703 -0.36054103220239425
680000000.0 0.37941735885680833 0.140654742693888
700000000.0 0.26314391610627397 -0.310876723859807
720000000.0 0.347876874057255 -0.21510390057914258
740000000.0 -0.4077560141450236 -0.017923283897855462
760000000.0 0.12416542049261746 0.378471255689522
780000000.0 -0.028821919317311713 -0.37535335011584664
800000000.0 -0.05192654887114812 0.35113808935773344
820000000.0 -0.24584529159699864 0.19445989993790622
840000000.0 -0.005466517895429047 -0.27192260072394187
860000000.0 -0.0763125985661604 -0.2138296740695929
880000000.0 0.15824177983520207 0.0774196557150621
900000000.0 0.07023536927620046 0.0876962192349066
920000000.0 -0.018803078045786934 0.07187837902862154
940000000.0 0.04438697995646326 0.028231296390062072
960000000.0 0.06154183255253803 -0.012541968878314129
980000000.0 0.04778603409918052 0.06281745274644593
1000000000.0 -0.07054626581671458 -0.057363005861516776
1020000000.0 0.10533974803612398 0.006783249390124907
1040000000.0 -0.11598565601827013 0.0032033308311354507
1060000000.0 0.0762387234487345 0.12886273612266017
1080000000.0 -0.14995609162840473 0.07209555015610303
1100000000.0 -0.06687675497928851 0.17540493933186663
1120000000.0 0.010325488487948464 -0.20745103403240575
1140000000.0 -0.18650630915098262 -0.1471709773348991
1160000000.0 -0.2428946808699419 -0.09755779480483522
1180000000.0 0.2821707634667588 -0.09305201520858983
1200000000.0 -0.07030277449159576 0.31531151501662835
1220000000.0 0.26143011028894575 -0.24440934449395488
1240000000.0 -0.3850913276147437 0.025448503272478946
1260000000.0 0.4106330144593764 0.08060503641558353
1280000000.0 -0.14486352910590947 -0.4118195108546947
1300000000.0 0.06336275967364614 0.4460551444611517
1320000000.0 0.4503885427564972 0.05419088058517008
1340000000.0 0.21352099934627553 -0.3983567452670946
1360000000.0 0.08179268599591845 -0.44286280126273597
1380000000.0 -0.3420648628064229 -0.2825020611591404
1400000000.0 -0.06488525455813193 0.4275864426403535
1420000000.0 0.361771498167584 -0.19642890747119718
1440000000.0 -0.3368962149419422 -0.1699628847036765
1460000000.0 -0.25081249982321935 0.22876526187283586
1480000000.0 -0.03338650868926155 0.30101264368270997
1500000000.0 -0.20718431557983533 0.16693679975410697
1520000000.0 -0.14380603717479737 -0.19228735214679982
1540000000.0 -0.2074513696629343 0.06066253137283675
1560000000.0 0.17168755084782486 0.07853009567396498
1580000000.0 -0.10475155863363445 -0.1346203169574413
1600000000.0 -0.14324107507413 -0.03258349989771166
1620000000.0 -0.12141624059151945 0.02881683505504929
1640000000.0 -0.07160805346485744 -0.07385342402137188
1660000000.0 -0.07030851177641911 0.04435512811880541
1680000000.0 0.042749816835949195 0.04568087727325825
1700000000.0 0.03600131804798406 -0.02997887155411626
1720000000.0 0.02057643128836033 -0.016102412417438438
1740000000.0 -0.017793348865695505 -0.007200012026233621
1760000000.0 -0.012759993081226075 0.032921943662208186
1780000000.0 0.04555386928905515 -0.049322521039594426
1800000000.0 -0.08327845009668727 -0.06648008655928474
1820000000.0 -0.09890632218855845 0.10794110688273861
1840000000.0 0.16803343625874553 0.08027467683207203
1860000000.0 0.11379988913337047 0.1893530128502774
1880000000.0 -0.2426778549900658 0.07933285888657399
1900000000.0 0.22388008085915803 -0.1871193032188288
1920000000.0 -0.2238589995439073 0.2289751381580953
1940000000.0 0.3475228595377578 0.024791985055631648
1960000000.0 -0.005478009149813121 -0.37149678792675517
1980000000.0 -0.3791024700370258 -0.07651732651622078
2000000000.0 -0.4030652792036135 0.03609206245050713
2020000000.0 -0.17862629143610817 0.37503707474408843
2040000000.0 -0.13302674295993944 0.40441463953523193
2060000000.0 0.21316350131721418 0.3724666951744478
2080000000.0 0.40103227365628935 0.15785106881730765
2100000000.0 0.42729738673421286 0.015482839038253851
2120000000.0 0.38076927081899664 -0.18434266589970988
2140000000.0 0.2224003427043409 -0.3511865769078622
2160000000.0 0.3772600507671494 -0.14828377291781378
2180000000.0 -0.06588778414768995 -0.38715521409966736
2200000000.0 -0.3538253235154341 0.1338453348350894
2220000000.0 -0.017209834751021738 0.3624250898660132
2240000000.0 0.3276933128312434 0.13054082711130827
2260000000.0 0.3457052249336905 0.012955459152518707
2280000000.0 0.34008323990596906 -0.05809569906164056
2300000000.0 0.29146042912629977 -0.20441522659826455
2320000000.0 0.09351575073583902 -0.36744039781729404
2340000000.0 -0.34978781134721704 -0.22155459524682447
2360000000.0 0.08856896542593551 0.4507307952411582
2380000000.0 -0.12807762642438864 -0.49442382099578275
2400000000.0 0.40221055883225 0.3931152013106604
2420000000.0 -0.604746646059005 0.10239287097146849
2440000000.0 0.39175936809080014 -0.5306855370922728
2460000000.0 0.15336519433626206 0.6806763703785221
2480000000.0 -0.4406056221131742 -0.5785655444588415
2500000000.0 0.4505209055142487 0.5941587562653241
2520000000.0 -0.390884488349141 -0.6468656521676446
2540000000.0 -0.07052623099215913 0.754389894713594
2560000000.0 0.5504714055412404 -0.5128656281552848
2580000000.0 -0.7234601208539089 -0.14913581728808864
2600000000.0 0.23552028819897725 0.675861904018832
2620000000.0 0.40717466133084557 -0.5531049509259683
2640000000.0 0.07956155851835045 -0.6464712338614671
2660000000.0 -0.44812672726634106 0.4099787970232026
2680000000.0 0.5594936773737674 -0.029722543660875452
2700000000.0 -0.4426598418367634 -0.2569167785294625
2720000000.0 0.13088692516012027 0.44209821227043355
2740000000.0 0.31617319337214667 -0.2674746601261561
2760000000.0 -0.371489573888092 -0.038210382545879426
2780000000.0 0.16145772859325466 0.30348940098716626
2800000000.0 -0.010524548368178406 -0.3212462595595805
2820000000.0 0.17539392027384018 0.2544853036052412
2840000000.0 -0.28381472821237197 -0.10453422266692564
2860000000.0 0.15493251519661216 -0.2609151650418879
2880000000.0 0.2997882199840121 0.060380328644978463
2900000000.0 -0.027724761988657934 0.30666537195698956
2920000000.0 -0.11633124090062077 -0.2857889078230522
2940000000.0 0.06342406507855726 0.30139987397303064
2960000000.0 0.30237659188037763 0.04294274909962666
2980000000.0 0.2791112511592884 0.11485466739515572
3000000000.0 -0.058502556350650936 0.29227690170893394
3020000000.0 -0.18775624375608935 -0.23194977605498826
3040000000.0 0.16688756559389809 0.24664379134702064
3060000000.0 -0.12071304162807556 -0.27309197141247027
3080000000.0 0.14496874162174003 0.26174731025095743
3100000000.0 -0.19012191213707236 -0.23126008615447954
3120000000.0 0.29332093358487366 -0.048347062607528225
3140000000.0 -0.00858222385212394 0.29179006747467917
3160000000.0 -0.2682194669847744 0.06958704967072973
3180000000.0 0.20744769106976363 -0.15851500656861695
3200000000.0 0.23306795794410926 0.01931092686244906
3220000000.0 0.12993845880124155 0.15545595995723163
3240000000.0 -0.09085132811104632 0.14220211686667564
3260000000.0 0.006731550415643989 -0.13196961285975783
3280000000.0 -0.07865247406551094 -0.059060721853371786
3300000000.0 0.006691201857011486 -0.06967338629419464
3320000000.0 -0.04720040167384878 -0.0049835975697264815
3340000000.0 0.016101963273234345 -0.025689812968127158
3360000000.0 0.015245295906640114 0.009347559704216824
3380000000.0 0.0013292475229949444 -0.005491097267008846
3400000000.0 -0.008479197389628854 0.0024653680453667844
3420000000.0 -0.019605932215828507 -0.016867159874430927
3440000000.0 -0.03320417395846663 0.025434201510559192
3460000000.0 -0.05568542070835955 0.01147647884038521
3480000000.0 -0.01417880022528075 -0.06982965339214792
3500000000.0 -0.04850915272794245 -0.06802988484394192
3520000000.0 0.09310257772165081 0.015736944038001997
3540000000.0 -0.09302259572450977 0.04961858193515343
3560000000.0 0.08514296279196397 0.07745873923739964
3580000000.0 0.07645494806732668 -0.10109102252563416
3600000000.0 -0.027294804491477986 0.13981904147829843
3620000000.0 -0.13225470543114903 -0.08349928736090927
3640000000.0 0.08716105265299545 -0.14547293015291798
3660000000.0 0.16337100813163627 -0.08313503590499978
3680000000.0 0.17682153827123062 -0.07585225954499131
3700000000.0 0.05316267419569094 -0.18696625060525196
3720000000.0 0.02300194853453132 -0.19225390001937462
3740000000.0 -0.040436939941577016 -0.18293025431058402
3760000000.0 0.08930392835295353 0.1547449229774328
3780000000.0 -0.14119431098618254 -0.08748402863710633
3800000000.0 -0.11846811422356873 0.10111486779930419
3820000000.0 -0.1421520482929018 0.030420004583028046
3840000000.0 0.040033985008510915 -0.13279474835611696
3860000000.0 -0.14192335251999177 -0.010046364787142804
3880000000.0 -0.12533471639491187 -0.08816027821340995
3900000000.0 0.02199335270811453 0.1635547261674744
3920000000.0 -0.17123819851169292 0.002902815293857836
3940000000.0 -0.1399045806899449 -0.10565073164833018
3960000000.0 -0.14755441112619141 -0.09704668932044701
3980000000.0 -0.15840565503143603 0.0661206125303821
4000000000.0 -0.13805187562828009 0.08340073828789032
