!Created with skrf (http://scikit-rf.org).
# Hz S RI R 50.0 
!freq ReS11 ImS11
400000000.0 -0.54739661892276 0.682344540194648
420000000.0 0.4419448400693498 0.7485930484791176
440000000.0 0.6993877044787485 -0.47088600981203144
460000000.0 -0.43687018968597374 -0.6720118300707548
480000000.0 0.047776022039985745 -0.7156376034869473
500000000.0 -0.5610697755185342 -0.1375291671016798
520000000.0 -0.02527126818322739 0.4953616037898492
540000000.0 -0.3298459490023149 -0.24768980473545366
560000000.0 -0.28184023114854645 0.20880911181639847
580000000.0 0.18081078608060783 -0.2797956783807741
600000000.0 -0.3322566678158768 0.03399370723602364
620000000.0 0.343105538206758 -0.02495760558160936
640000000.0 0.3594507421505196 -0.11067333013120297
660000000.0 -0.13332980169755415 -0.3651036284366965
680000000.0 0.3817316491453981 0.13371312995785
700000000.0 0.2717489564161889 -0.30326346035762014
720000000.0 0.34741737048939186 -0.21543101762526295
740000000.0 -0.40830399892985386 -0.012844166607585658
760000000.0 0.11949711352259546 0.3800037724578003
780000000.0 -0.03570799706860373 -0.3747984545649955
800000000.0 -0.06763802455093743 0.34861808864090105
820000000.0 -0.2550103683136162 0.18270636219892303
840000000.0 0.015414929051918888 -0.2715007916973937
860000000.0 -0.06127958873515567 -0.2186150816566081
880000000.0 0.15945777672886796 0.07580263359671935
900000000.0 0.060717374587113064 0.09517631853847655
920000000.0 -0.03203114470575774 0.06729314860279882
940000000.0 0.037370843862842215 0.03673420535088199
960000000.0 0.056414750809583115 0.027581687412592704
980000000.0 0.02833372741138986 0.07359093240527892
1000000000.0 -0.05335642969496597 -0.07405472140010631
1020000000.0 0.09815764520465331 0.03996991460149371
1040000000.0 -0.11513090583599785 -0.018902385484593272
1060000000.0 0.08128148132185756 0.1263862650863553
1080000000.0 -0.15171905171714956 0.06883018367647228
1100000000.0 -0.027578587797406864 0.18563161056443864
1120000000.0 -0.024453798924488054 -0.20610799434510338
1140000000.0 -0.2008622138927931 -0.12609904636481534
1160000000.0 -0.24945124823182005 -0.07787182084512667
1180000000.0 0.2752506124396184 -0.11081392153133253
1200000000.0 -0.0626002111158974 0.3167261297212047
1220000000.0 0.2553271249418176 -0.25078938367785214
1240000000.0 -0.3845191773847848 0.03104337460159146
1260000000.0 0.41042929842920106 0.08215154314590863
1280000000.0 -0.16614388996691837 -0.4039929887013914
1300000000.0 0.0715042414196448 0.4449753898457517
1320000000.0 0.45002371766494875 0.058183719110251234
1340000000.0 0.21792675135666942 -0.39598142118499285
1360000000.0 0.0884720480144998 -0.44162878050117976
1380000000.0 -0.3421308102893895 -0.28240311885118236
1400000000.0 -0.08053051314302091 0.4250157181168197
1420000000.0 0.3716628228399908 -0.1770444371758296
1440000000.0 -0.33644094600071933 -0.17140584748675694
1460000000.0 -0.2544017102609457 0.2245077007771815
1480000000.0 -0.07570272893700342 0.29319436281728894
1500000000.0 -0.18974308008373003 0.18612373588426737
1520000000.0 -0.15848536389690857 -0.1800447439459221
1540000000.0 -0.20910042376182622 0.053406831675348085
1560000000.0 0.1814030425636264 0.05031771647188164
1580000000.0 -0.10412115055679166 -0.13507248615427428
1600000000.0 -0.14124724176267647 -0.038220536294975474
1620000000.0 -0.12251472993861641 -0.02269522496023861
1640000000.0 -0.05886376030101404 -0.08432229278708701
1660000000.0 -0.0737067333141443 0.0386656885791952
1680000000.0 0.033538510755225015 0.053378331620874894
1700000000.0 0.042583402460359694 0.01948939207848491
1720000000.0 0.016544854111740594 0.0203392729539562
1740000000.0 -0.015965634597918096 -0.00868314974747115
1760000000.0 -0.01134732013998035 0.03322563778131442
1780000000.0 0.047230247485029554 -0.047490242518676305
1800000000.0 -0.07722806679731747 -0.07367230227753467
1820000000.0 -0.11113367928745385 0.09548371370309972
1840000000.0 0.15598261511814454 0.10224360159498384
1860000000.0 0.10372701511331618 0.19535436163264644
1880000000.0 -0.2470359451252274 0.06552934379009157
1900000000.0 0.22897271465940724 -0.1813419707816819
1920000000.0 -0.2227337308115537 0.2304182503789888
1940000000.0 0.34746682996122746 0.02767936945518209
1960000000.0 -0.009989362395402346 -0.3715784980527987
1980000000.0 -0.3832799433542798 -0.05122136866292518
2000000000.0 -0.4005643880824063 0.05654048380805718
2020000000.0 -0.17302595813689675 0.37715613196386805
2040000000.0 -0.10570778047990695 0.41200883138505034
2060000000.0 0.21363619865413397 0.372147345624099
2080000000.0 0.3861939185540259 0.1908267747591138
2100000000.0 0.42634402079906614 0.029481545340323833
2120000000.0 0.3807929875625128 -0.18411377375432605
2140000000.0 0.2352982284570301 -0.3425445865263216
2160000000.0 0.3704079198477039 -0.16436295387533895
2180000000.0 -0.08055590055689636 -0.3842744885895195
2200000000.0 -0.3483466427514304 0.148260559013564
2220000000.0 0.002022263002315217 0.3631900812537431
2240000000.0 0.3333489326904722 0.11624125254142946
2260000000.0 0.3461299749243825 -0.016880659966307516
2280000000.0 0.3294984385493967 -0.103897813991824
2300000000.0 0.2571774021161761 -0.2471197195683124
2320000000.0 0.04399686391134684 -0.3769491967241975
2340000000.0 -0.35727021226984795 -0.20894041620549714
2360000000.0 0.12416989471324542 0.44266255084162115
2380000000.0 -0.15387696934055645 -0.48740329510588326
2400000000.0 0.4192308629710375 0.3750292172600047
2420000000.0 -0.6008139459981485 0.12402490584893795
2440000000.0 0.32570791291630113 -0.5735732138682729
2460000000.0 0.18782942997367147 0.6718251270929614
2480000000.0 -0.4667315345972518 -0.5571217673348307
2500000000.0 0.5572595694866416 0.49403095386346885
2520000000.0 -0.42508689185598036 -0.6247092953659887
2540000000.0 0.0016982052577865139 0.7569561832096191
2560000000.0 0.5041509972436112 -0.5574078635336839
2580000000.0 -0.717632045954043 -0.17128889537580605
2600000000.0 0.33555968462530944 0.6310746032450965
2620000000.0 0.3200507899012744 -0.606958083708218
2640000000.0 0.05283968485385932 -0.6484441441025394
2660000000.0 -0.41766835056065177 0.44002122496383994
2680000000.0 0.5513709044403866 -0.09683517602252217
2700000000.0 -0.45488913835389577 -0.23325704346441267
2720000000.0 0.16310771135423266 0.4307534371442968
2740000000.0 0.2705281583782125 -0.31320182338660385
2760000000.0 -0.3729429410295925 -0.013846546950623519
2780000000.0 0.16909186959619094 0.2989053703145846
2800000000.0 -0.010728738957680325 -0.32076071320596
2820000000.0 0.15770156140652325 0.26536513257249855
2840000000.0 -0.27500168508113054 -0.12497501195400737
2860000000.0 0.17428088441243678 -0.24775429600829868
2880000000.0 0.2948432709195876 0.08045355296378358
2900000000.0 -0.05828598221205734 0.30208466100526504
2920000000.0 -0.10365110903468218 -0.29039514016749357
2940000000.0 0.021371329049037133 0.3074094992228454
2960000000.0 0.30462504245464517 0.006282194352109782
2980000000.0 0.294398021107692 0.06553720741082489
3000000000.0 -0.026666680168535576 0.2967515655587353
3020000000.0 -0.18924399524995233 -0.23023301487627348
3040000000.0 0.18509282373370878 0.2324002682818259
3060000000.0 -0.09868501586488068 -0.2811678188711537
3080000000.0 0.1556937834791213 0.2549701505607776
3100000000.0 -0.21390437366810233 -0.2090670761448854
3120000000.0 0.29526247771116393 -0.031727506778358984
3140000000.0 -0.0013688514919519836 0.2921625171773526
3160000000.0 -0.26884167929117936 0.06813874856101525
3180000000.0 0.22084063318921016 -0.13912661261024173
3200000000.0 0.23306071976239398 0.024789601863831834
3220000000.0 0.13116129629381676 0.1554760093919251
3240000000.0 -0.07520811539387186 0.15143582072668682
3260000000.0 0.007271895949197579 -0.1319684265956334
3280000000.0 -0.058081584629584765 -0.07939414877418012
3300000000.0 0.01567230220868447 -0.06794418336551378
3320000000.0 -0.04225426858375135 -0.020938419472535396
3340000000.0 0.02869271368641223 0.009456556207094246
3360000000.0 -0.01661995154711419 -0.007436775480555747
3380000000.0 -0.0016167194966053484 -0.005660638228370537
3400000000.0 -0.0004884301180746695 0.008494221241178105
3420000000.0 -0.025171930264031986 -0.004294043621745748
3440000000.0 -0.025189770187632222 0.0331854731859871
3460000000.0 -0.05682397443830389 0.001327005856447738
3480000000.0 -0.00815261596801059 -0.07082570011701897
3500000000.0 -0.0527629065142863 -0.06543012334632732
3520000000.0 0.09224540718576883 -0.022270335646260665
3540000000.0 -0.0826274437310093 0.0657460299027062
3560000000.0 0.09664160399404405 0.06236129227077929
3580000000.0 0.057670163687305494 -0.11290553835657852
3600000000.0 -0.02487329340736978 0.13982263625363237
3620000000.0 -0.12287073578337905 -0.09549285418545747
3640000000.0 0.08178929421735034 -0.14844067307498413
3660000000.0 0.16310152707894043 -0.08388218953732277
3680000000.0 0.17662772725123158 -0.07698201800863588
3700000000.0 0.06128635473752805 -0.18508367012436328
3720000000.0 0.028732033314441515 -0.1918290846900185
3740000000.0 -0.04098483703121156 -0.18289480305894695
3760000000.0 0.09774760583088234 0.1494854130798954
3780000000.0 -0.1454365552891899 -0.08060523489519268
3800000000.0 -0.10267247350473618 0.11714716482048518
3820000000.0 -0.135559527873752 0.05295543160217191
3840000000.0 0.030627240693426667 -0.13537655892925837
3860000000.0 -0.14200824994746586 0.007887179923426389
3880000000.0 -0.13369809187559148 -0.07426534022582362
3900000000.0 0.034568431661073415 0.16184458768197646
3920000000.0 -0.16990522472063596 0.021292438497445665
3940000000.0 -0.1527213150131687 -0.08593116802936367
3960000000.0 -0.16464062354933284 -0.06369415074938303
3980000000.0 -0.11190774103763679 0.13000542427104572
4000000000.0 -0.07409214399940843 0.14327413358849556
