!Created with skrf (http://scikit-rf.org).
# Hz S RI R 50.0 
!freq ReS11 ImS11
400000000.0 -0.5209327636458339 0.7032298905743966
420000000.0 0.4513239444298425 0.7438117014829017
440000000.0 0.6530809700313532 -0.5328030593786711
460000000.0 -0.411792491995175 -0.686212135408372
480000000.0 0.11308124609898679 -0.7095547424337044
500000000.0 -0.5793564532201035 -0.011026263017591676
520000000.0 -0.03600482905159552 0.4929127637631673
540000000.0 -0.2886160553050267 -0.295661193314973
560000000.0 -0.2365604163502039 0.26115529420936284
580000000.0 0.06580036275240449 -0.32428944495804507
600000000.0 -0.3295590975004617 -0.04762591676556827
620000000.0 0.34383077464923995 -0.018359797631237375
640000000.0 0.3397290446410258 -0.16013740996570894
660000000.0 -0.09507995601537621 -0.3766792240420299
680000000.0 0.39228961067988566 0.09487989976296893
700000000.0 0.2888005492801009 -0.28818719902920786
720000000.0 0.3582465148327491 -0.19609598860099334
740000000.0 -0.4078964075921574 0.015650602711371198
760000000.0 0.1051886747729931 0.3845092298397614
780000000.0 -0.05343361588629483 -0.3727631640934599
800000000.0 -0.08002679138170522 0.34600496007942755
820000000.0 -0.2612079375434606 0.17271014396725773
840000000.0 0.02802873732366936 -0.27049551835213426
860000000.0 -0.05294154981860324 -0.22085331772464523
880000000.0 0.1537316478754679 0.08696028870185876
900000000.0 0.06177100183769659 0.09441702663736014
920000000.0 -0.030692306702276406 0.06863927990557936
940000000.0 0.04070802051757723 0.033231508551604415
960000000.0 0.04237586993039209 0.04578762868982095
980000000.0 -0.0405360733536138 0.06775061255179289
1000000000.0 0.002338148437050837 -0.09116182758887936
1020000000.0 0.060599950047373126 0.0878825443074442
1040000000.0 -0.10644370826202282 -0.05098445312322974
1060000000.0 0.10340561799748875 0.11061623854834847
1080000000.0 -0.10386105817230569 0.13128345036885447
1100000000.0 0.021106713784682596 0.1865692090104298
1120000000.0 -0.09228996240252177 -0.18573091875198894
1140000000.0 -0.22392682922687818 -0.075889418483743
1160000000.0 -0.25529095183471034 -0.0530362587076562
1180000000.0 0.27072464999944695 -0.12023099557060847
1200000000.0 -0.057098038443071916 0.3175931312808268
1220000000.0 0.27193054147602214 -0.23247759675226107
1240000000.0 -0.3859268583214998 0.013319211528905344
1260000000.0 0.39977838115842856 0.12370928280231655
1280000000.0 -0.15654369060025422 -0.4079571852786134
1300000000.0 0.07865508747453859 0.44397897454014934
1320000000.0 0.4492544619476391 0.06416860320497056
1340000000.0 0.22344144082994327 -0.39297634220758276
1360000000.0 0.09055513209924322 -0.441210403898391
1380000000.0 -0.33278425783249693 -0.29338201029755934
1400000000.0 -0.10611722082023928 0.4193894448894877
1420000000.0 0.37722455522294185 -0.16528967433805344
1440000000.0 -0.3320133235614383 -0.17995220895647265
1460000000.0 -0.24081884825683428 0.23932418909485142
1480000000.0 0.038038121925952975 0.3007551190291151
1500000000.0 -0.1544154495954375 0.21655250728186753
1520000000.0 -0.18890695338734467 -0.14667374445210812
1540000000.0 -0.18191133397141826 0.11419633380826065
1560000000.0 0.17857437156968867 0.056950952311620444
1580000000.0 -0.11256231822222332 -0.12638776192202927
1600000000.0 -0.10999190890769524 -0.09603569350489395
1620000000.0 -0.10723490893342523 -0.06282996492788302
1640000000.0 -0.011499340008512222 -0.10203594948906894
1660000000.0 -0.08033794327565516 -0.02208997298418263
1680000000.0 -0.024210457965683004 0.05842992654275575
1700000000.0 0.0037922582643615792 0.04734425074970306
1720000000.0 -0.025521989817906397 -0.007686989317990732
1740000000.0 0.01090507714442719 0.014559803695476835
1760000000.0 -0.03225948435723562 0.011106489538571943
1780000000.0 0.05933755742573142 -0.029751115580647938
1800000000.0 -0.04622057189827878 -0.09565332222611007
1820000000.0 -0.13411775811637486 0.05921407337051439
1840000000.0 0.13866184379419233 0.12516088129201447
1860000000.0 0.0775143833294376 0.20791623535814355
1880000000.0 -0.250839977668739 0.05280169826474956
1900000000.0 0.23598510175701767 -0.1734748427695004
1920000000.0 -0.21731556357009787 0.23622080075174065
1940000000.0 0.3482739968809302 0.023861215669562567
1960000000.0 -0.014004467582350612 -0.37163436212559353
1980000000.0 -0.38445520709672526 -0.04367631322792305
2000000000.0 -0.3971373551241753 0.07652584499698084
2020000000.0 -0.1435321805166249 0.38922587616920357
2040000000.0 -0.08705524141888261 0.4158635602545549
2060000000.0 0.24103166745224844 0.3540356649208133
2080000000.0 0.4008340281811233 0.15534631340175886
2100000000.0 0.42645292644157856 0.0010656283898333248
2120000000.0 0.3679298372284328 -0.20684361767756906
2140000000.0 0.20439100902245505 -0.36124298450987896
2160000000.0 0.3670577283788527 -0.17116372468147706
2180000000.0 -0.09213805990060517 -0.3818635069147503
2200000000.0 -0.3491167489020301 0.14828309267914935
2220000000.0 0.018049484164301365 0.3635085838393523
2240000000.0 0.34452268624114957 0.0815438463549007
2260000000.0 0.3414339591549832 -0.06492497808171586
2280000000.0 0.3130104988036646 -0.1476367366469641
2300000000.0 0.2216681227605621 -0.2798591760719708
2320000000.0 0.007392824857589558 -0.3794927505729604
2340000000.0 -0.36888301627683856 -0.18749642863725086
2360000000.0 0.14346762569918792 0.4367479274093613
2380000000.0 -0.17070722924208323 -0.4817299687727551
2400000000.0 0.4500022971220803 0.33785284877333804
2420000000.0 -0.6000993090023418 0.12683549740823044
2440000000.0 0.3035636564926353 -0.5852016993207851
2460000000.0 0.20893050969782648 0.6650739788625813
2480000000.0 -0.5210836461433835 -0.5053727446197399
2500000000.0 0.5701197068268228 0.4783147101214906
2520000000.0 -0.4852505583901499 -0.5781280830408465
2540000000.0 0.0664019304572272 0.7533467488461101
2560000000.0 0.4552917781356547 -0.5970634291276153
2580000000.0 -0.728555898328686 -0.11234990996855197
2600000000.0 0.39189858182866705 0.5970396730726449
2620000000.0 0.25286306836630734 -0.6374783603050709
2640000000.0 0.008776750078971647 -0.6501710656874017
2660000000.0 -0.39914809970161935 0.4566175674400396
2680000000.0 0.5484427716932289 -0.11083098011214437
2700000000.0 -0.46386811618384427 -0.21467245293229476
2720000000.0 0.17793133571276856 0.4248655355730324
2740000000.0 0.26370829772736787 -0.3185708424306981
2760000000.0 -0.3727553659956789 -0.004157411093008904
2780000000.0 0.16867679717905762 0.2983091175011389
2800000000.0 -0.0028067426622808505 -0.31999546558875
2820000000.0 0.13308545343400335 0.27743992558588204
2840000000.0 -0.2500534264820775 -0.1675782025468595
2860000000.0 0.21570291043147263 -0.21205063505230057
2880000000.0 0.27791157307630104 0.1256741756596973
2900000000.0 -0.09254974077189089 0.2931305530095597
2920000000.0 -0.04961869809405279 -0.3045215905037243
2940000000.0 0.03459244572912713 0.30644201064726795
2960000000.0 0.3044834552834386 -0.025530707094389628
2980000000.0 0.30168559205465845 0.01246488513676124
3000000000.0 0.010316585844493367 0.29786069227763395
3020000000.0 -0.2364756130767011 -0.1812947193788164
3040000000.0 0.20273311109449038 0.21652115721669116
3060000000.0 -0.1094501695582159 -0.276029038053128
3080000000.0 0.1558473227227779 0.2540685579361229
3100000000.0 -0.204853238584253 -0.217261630798557
3120000000.0 0.2959481242468677 -0.019813309435963343
3140000000.0 -0.040863781811022834 0.2891897624059263
3160000000.0 -0.27527044235600606 0.037086448096636075
3180000000.0 0.23447070765146957 -0.11631284239641212
3200000000.0 0.23389850421716826 0.023279532365303852
3220000000.0 0.14360145891851764 0.14490118378893255
3240000000.0 -0.053378631015592 0.16141875571566236
3260000000.0 -0.04365373695050806 -0.1252312228419951
3280000000.0 -0.09442524540359394 -0.02694467514610928
3300000000.0 -0.008390746063121936 -0.06877503164059465
3320000000.0 -0.03209228504765357 -0.03411373657683135
3340000000.0 0.01504325675431476 0.025932418155606873
3360000000.0 0.01565672997483053 -0.009198854248039701
3380000000.0 0.0047115695062480084 0.004328987801311911
3400000000.0 -0.005511526309479529 -0.005485020258174223
3420000000.0 -0.02132655258934194 0.012202250312031749
3440000000.0 -0.027027300709323365 0.030968846388586387
3460000000.0 -0.0565258268811187 -0.0002623483330970167
3480000000.0 -0.033633197355441666 -0.0633415009616389
3500000000.0 -0.06826865274433044 -0.04964614548879472
3520000000.0 0.08178353073205556 -0.049186779451526746
3540000000.0 -0.031287233083502286 0.10161918556129201
3560000000.0 0.11512659050304005 0.003699266036520507
3580000000.0 0.0012453619791347615 -0.12672842696732647
3600000000.0 0.02946109837199605 0.13888184986367424
3620000000.0 -0.1460730133729129 -0.05350577363030615
3640000000.0 0.061624617365976034 -0.15790478645924957
3660000000.0 0.1564865787143086 -0.09595819111521144
3680000000.0 0.1789223941956015 -0.07269076895557629
3700000000.0 0.06953554603010434 -0.18298433776124748
3720000000.0 0.03475657443783581 -0.19171229395211595
3740000000.0 -0.03898608175941603 -0.18465223072411252
3760000000.0 0.0885648573122819 0.1565845098060535
3780000000.0 -0.14898040291348527 -0.07614955249349276
3800000000.0 -0.10539581337461654 0.1160060880566379
3820000000.0 -0.1344821448857806 0.05712664772113166
3840000000.0 0.026997761648516486 -0.13641491827543606
3860000000.0 -0.14062990899817704 -0.023900857375423322
3880000000.0 -0.10622134424846175 -0.11153742257996625
3900000000.0 -0.02597361291317986 0.1640966235507707
3920000000.0 -0.16832295932262156 -0.03633974270261801
3940000000.0 -0.10994098091050818 -0.13792961858663969
3960000000.0 -0.13484155349029753 -0.1157715834301454
3980000000.0 -0.15371389109678646 0.07781342409964304
4000000000.0 -0.10303195678676665 0.1244542089198107
