!Created with skrf (http://scikit-rf.org).
# Hz S RI R 50.0 
!freq ReS11 ImS11
400000000.0 -0.5457254801503362 0.6843294463548174
420000000.0 0.44303849132908807 0.7486735417213822
440000000.0 0.6789739066896818 -0.49962971150371205
460000000.0 -0.4363770883427524 -0.6707317142296912
480000000.0 0.11669704392861777 -0.7089877667413444
500000000.0 -0.5783899396886925 -0.015083474169012404
520000000.0 -0.12781402009673554 0.47637131541971317
540000000.0 -0.22841760247722082 -0.3441964525439097
560000000.0 -0.27557563707481075 0.22205697898770893
580000000.0 0.03773097767014572 -0.32965837484369176
600000000.0 -0.3214542042555364 -0.08927875048501845
620000000.0 0.3455895972599235 0.0004936824397182588
640000000.0 0.3352270637834808 -0.17223781750438188
660000000.0 -0.09648181730298462 -0.376697640052516
680000000.0 0.38696815361959935 0.11839576457449567
700000000.0 0.26098810120810084 -0.3136296004323576
720000000.0 0.33656600281750626 -0.23111296494823322
740000000.0 -0.4083874847855569 0.002964816318532851
760000000.0 0.10810737439996365 0.3832804060313867
780000000.0 -0.036141582136922056 -0.3744396000133074
800000000.0 -0.06879512823555474 0.3485293043513253
820000000.0 -0.24479817964578934 0.1955293067223331
840000000.0 -0.010734277206276724 -0.2720111594278613
860000000.0 -0.08148536244769854 -0.21165173042518481
880000000.0 0.16200492523278368 0.06978460303285942
900000000.0 0.06786541966709325 0.0893841919408116
920000000.0 0.0017303162327496366 0.07454912966480433
940000000.0 0.05200230986966206 0.008954018748723931
960000000.0 0.06126598245173004 -0.01479194341410545
980000000.0 0.05259800275113631 0.05921022692521076
1000000000.0 -0.08652657646956972 -0.026180243203674784
1020000000.0 0.10483499017062778 0.006192511868711141
1040000000.0 -0.11551389369688991 0.007293969223512932
1060000000.0 0.09279303202836076 0.11683005149897277
1080000000.0 -0.15562262605402294 0.05764163005480914
1100000000.0 -0.10010728431587541 0.15848212852536112
1120000000.0 0.027338583631270584 -0.20609661562543521
1140000000.0 -0.17881248652621512 -0.15656830411233058
1160000000.0 -0.23665133592095278 -0.11289124620722375
1180000000.0 0.2772323619872614 -0.10841385785358079
1200000000.0 -0.03802174590360303 0.3216706514787245
1220000000.0 0.24480057547891174 -0.2617949706869323
1240000000.0 -0.3840439397565196 0.040837573560998916
1260000000.0 0.4042721057367555 0.10749614265416375
1280000000.0 -0.14592853600792344 -0.4114638518632027
1300000000.0 0.06796531202916777 0.44526648428359505
1320000000.0 0.4485520560067939 0.06675543373382815
1340000000.0 0.21857384436543864 -0.3952934557938749
1360000000.0 0.09321314136396007 -0.44059616970879545
1380000000.0 -0.3398762087479018 -0.28484736468417604
1400000000.0 -0.07991210271166321 0.42510265804005837
1420000000.0 0.3631760037067285 -0.1938675237399091
1440000000.0 -0.3498238446219879 -0.14017329513536764
1460000000.0 -0.24775887361235097 0.23131431848748193
1480000000.0 -0.11195714964953848 0.2815330901953756
1500000000.0 -0.20961076698833647 0.1638548787137521
1520000000.0 -0.14749719570351014 -0.18965902124473652
1540000000.0 -0.20959946526731577 0.05354208713660252
1560000000.0 0.1673390538763661 0.08872519303704389
1580000000.0 -0.12859081467831088 -0.11290934546635792
1600000000.0 -0.13943218639373436 -0.04741930534800218
1620000000.0 -0.12465499039937039 0.00552960404036029
1640000000.0 -0.07144592783964479 -0.07404558400355526
1660000000.0 -0.05627428772551816 0.06107020879903601
1680000000.0 0.04534294143312445 0.042530912542841665
1700000000.0 0.03697170357255229 -0.0275000906857952
1720000000.0 0.008286526188336264 -0.02448356562628861
1740000000.0 0.0038217323202211035 0.018903765412780747
1760000000.0 0.0027692753562094264 0.035890774818525394
1780000000.0 0.042534759152969864 -0.052455259149413076
1800000000.0 -0.10336028973382702 -0.02891746439237656
1820000000.0 -0.09673868869858605 0.10980039682958535
1840000000.0 0.1685141363115238 0.07838980694136972
1860000000.0 0.11895626168263823 0.18575977844705358
1880000000.0 -0.241975435532505 0.07982420394277479
1900000000.0 0.22296828790620513 -0.1879983493122419
1920000000.0 -0.21973226388605369 0.2323722886893082
1940000000.0 0.345967211543174 0.0387290042341889
1960000000.0 0.00438444322439127 -0.37112666467884425
1980000000.0 -0.3785486361129532 -0.07808514276141201
2000000000.0 -0.40311338037748246 0.03464136116055255
2020000000.0 -0.19006616354365108 0.3695783163129803
2040000000.0 -0.12204803260860642 0.4079071539933777
2060000000.0 0.19369102285020826 0.38334388114789186
2080000000.0 0.40161921769706804 0.15732566602704903
2100000000.0 0.42731006072164923 0.020148595789044026
2120000000.0 0.37558825491487424 -0.19502039523176465
2140000000.0 0.21393109281327957 -0.35659383991357474
2160000000.0 0.373976637097012 -0.15665280026547515
2180000000.0 -0.07413702412904281 -0.38556057383590847
2200000000.0 -0.3624089806974588 0.10890746221204825
2220000000.0 -0.04474854475153878 0.3597664244605438
2240000000.0 0.3180153343168712 0.1512154668585331
2260000000.0 0.34363006681296215 0.0375557729557066
2280000000.0 0.3416104505073536 -0.04700877085118807
2300000000.0 0.29451233122005716 -0.20060818197203395
2320000000.0 0.11672205403957686 -0.3606352973081404
2340000000.0 -0.3355308142887107 -0.24233977822888517
2360000000.0 0.08194196125390887 0.4522136378560445
2380000000.0 -0.11848501436462135 -0.4970267229536009
2400000000.0 0.3868613816805105 0.40809781799093686
2420000000.0 -0.6085165602740514 0.07678055247063133
2440000000.0 0.382427350136218 -0.5373704308112011
2460000000.0 0.12572873518017622 0.686353999624103
2480000000.0 -0.4335934291863953 -0.5836317961746849
2500000000.0 0.49769264764551807 0.5549341618306749
2520000000.0 -0.37086465794020995 -0.6593624512889331
2540000000.0 -0.07041944691335932 0.7547958154144551
2560000000.0 0.5583316406232145 -0.5049802904224602
2580000000.0 -0.6967125473981552 -0.2466432491980246
2600000000.0 0.268868946858512 0.6638182863795425
2620000000.0 0.38254211753220696 -0.5712899569474085
2640000000.0 0.13044050987488162 -0.6386880609805033
2660000000.0 -0.4725486764174252 0.38213436816767155
2680000000.0 0.5608319947845901 -0.007947356266546992
2700000000.0 -0.43016892055362976 -0.27829321790553074
2720000000.0 0.11947079228825486 0.44590113240009693
2740000000.0 0.30842617233598996 -0.27728756313489
2760000000.0 -0.37062212405604306 -0.05194694866907903
2780000000.0 0.1565081282244179 0.306881875762978
2800000000.0 -0.018131220627235035 -0.3213717554443713
2820000000.0 0.1690975933655907 0.2595618147533546
2840000000.0 -0.286619903910734 -0.09791543544590048
2860000000.0 0.12367433257398402 -0.2770641037379466
2880000000.0 0.3035026833245222 0.03711677061219825
2900000000.0 -0.00642905392773977 0.3077122847470057
2920000000.0 -0.13757625854183722 -0.27585379971761986
2940000000.0 0.0357795170938338 0.3061055125978796
2960000000.0 0.30489777398838797 0.0034795699977226173
2980000000.0 0.2866083259835779 0.09686842002086045
3000000000.0 -0.0726431316644369 0.2896605635938931
3020000000.0 -0.18071858281486308 -0.2384417468522957
3040000000.0 0.1826951629242235 0.23606747016362273
3060000000.0 -0.11113737377730992 -0.27811546105968793
3080000000.0 0.1497588220633244 0.26008190128637965
3100000000.0 -0.1998192645375901 -0.22381964676851487
3120000000.0 0.2967828763822553 -0.020950324764230966
3140000000.0 -0.012192645258255207 0.2918927215777603
3160000000.0 -0.27096906821322886 0.05798012276268518
3180000000.0 0.22777798216975054 -0.12596634505160348
3200000000.0 0.22580506383669288 0.05924551790810326
3220000000.0 0.10397602914775562 0.17353032178906105
3240000000.0 -0.1085836621082646 0.12831101407719256
3260000000.0 0.044388421914043116 -0.12398629772806323
3280000000.0 -0.057694767792988044 -0.07956059263942451
3300000000.0 0.011441583464851633 -0.06887310298985698
3320000000.0 -0.045965224610105666 0.012015673860374249
3340000000.0 -0.004261697118032285 -0.029627835955843475
3360000000.0 0.017225811018631552 0.0030381187463713634
3380000000.0 0.003292668685401383 -0.003911998779467718
3400000000.0 -0.0025706479247936485 -0.009364022441027528
3420000000.0 -0.026531951814597183 0.0003834851842990101
3440000000.0 -0.02133091356342153 0.03656689625959883
3460000000.0 -0.05659780974579439 -0.006526915878473083
3480000000.0 -0.03641377102220441 -0.0614366667945036
3500000000.0 -0.04100940401022383 -0.07289327315362126
3520000000.0 0.09190958265916899 0.022063305603941617
3540000000.0 -0.0997280210992581 0.03438190739958185
3560000000.0 0.06506805616725188 0.094989061559004
3580000000.0 0.09394906268944016 -0.08508068346248707
3600000000.0 -0.045300166872152645 0.13501069460784287
3620000000.0 -0.12898496435486642 -0.08893598006479149
3640000000.0 0.0899507774841817 -0.14399715625063464
3660000000.0 0.15911781776715606 -0.09150474860382021
3680000000.0 0.16917611287361844 -0.0918728583519683
3700000000.0 0.04777880864298614 -0.18878409696528653
3720000000.0 0.025872195929874397 -0.1916610024649686
3740000000.0 -0.04251555528419267 -0.18210032192027548
3760000000.0 0.0814501912310985 0.15847443552232307
3780000000.0 -0.13996961829337712 -0.08911680519089421
3800000000.0 -0.12655179613839446 0.09069444098947367
3820000000.0 -0.1434543648605892 0.024398608362970624
3840000000.0 0.041188540399367146 -0.13221108777613091
3860000000.0 -0.1421417718160387 -0.008956280017528047
3880000000.0 -0.1330323730804492 -0.07569638803550262
3900000000.0 0.02204466322307522 0.16356842496200433
3920000000.0 -0.16978140352484003 -0.018574050846217424
3940000000.0 -0.12805819781191763 -0.11912522006537508
3960000000.0 -0.13012354444162114 -0.11905633130946663
3980000000.0 -0.16542957203467548 0.04588661832031666
4000000000.0 -0.15014462893288788 0.05802860274050956
