!Created with skrf (http://scikit-rf.org).
# Hz S RI R 50.0 
!freq ReS11 ImS11
400000000.0 -0.5501766388666501 0.6802659080029604
420000000.0 0.44574823793836255 0.7468422760305646
440000000.0 0.695338589103835 -0.4770767042532088
460000000.0 -0.41049608933908355 -0.6875431792005557
480000000.0 0.06994779599732069 -0.7144683562636184
500000000.0 -0.5743094756809012 -0.05713720923224532
520000000.0 -0.10474609002920936 0.4830643495013163
540000000.0 -0.2853721836137972 -0.2992149722490868
560000000.0 -0.28814553124163794 0.20320071121509967
580000000.0 0.14365325288740866 -0.2999045610104655
600000000.0 -0.33359340704895224 -0.01790023056344474
620000000.0 0.3441279345547668 -0.026600584455303538
640000000.0 0.34667793340892317 -0.14751217067188335
660000000.0 -0.07999255688353488 -0.3809937281516184
680000000.0 0.3879362881839389 0.11441889673947496
700000000.0 0.25985582931452855 -0.314216943291627
720000000.0 0.33817253813331327 -0.22885184999040817
740000000.0 -0.40814842574112176 -0.008779662474059147
760000000.0 0.10171600286419648 0.38510778437625576
780000000.0 -0.03195329177218835 -0.374768136768156
800000000.0 -0.05560322196785909 0.35053514511429124
820000000.0 -0.23471100097544062 0.20772357112316794
840000000.0 -0.0271791039260598 -0.2706991683207588
860000000.0 -0.0947865715458019 -0.20630092819943935
880000000.0 0.1585824489056343 0.07832039679595013
900000000.0 0.07106375848370047 0.08725912349933232
920000000.0 -0.028586380989263253 0.06878052894986403
940000000.0 0.05251935287828732 0.003041355170338584
960000000.0 0.06207746825852224 -0.010331173603870626
980000000.0 0.06638215614048383 0.04309053699368865
1000000000.0 -0.08525405937453126 -0.03108056320995749
1020000000.0 0.10403456052388298 0.016171358221564115
1040000000.0 -0.11584982794856885 0.0007616570967381735
1060000000.0 0.08417335907016045 0.12364423374506177
1080000000.0 -0.15570420903036078 0.05841001059592039
1100000000.0 -0.08996401363045414 0.1648246591838427
1120000000.0 0.039246177121645624 -0.2040956764155522
1140000000.0 -0.16909627935688326 -0.16689599326842838
1160000000.0 -0.23155551346702463 -0.12256101431924699
1180000000.0 0.28081962972557273 -0.09768714979524219
1200000000.0 -0.07579559191826703 0.3141558408513055
1220000000.0 0.25502348555936094 -0.2511623244265051
1240000000.0 -0.38467496350432906 0.028203483670987965
1260000000.0 0.4014765780428424 0.11684960412144327
1280000000.0 -0.15390038020047012 -0.40832660111770175
1300000000.0 0.08393641516518623 0.4425857143776742
1320000000.0 0.45117320120608 0.04791902081263768
1340000000.0 0.2096103183901003 -0.4004240494095989
1360000000.0 0.07766893959242341 -0.4435620480315783
1380000000.0 -0.3447119174245828 -0.27937734775521017
1400000000.0 -0.08231926232755338 0.424976035275982
1420000000.0 0.36289416248690803 -0.19429639716993619
1440000000.0 -0.3363858876105426 -0.17070884742025458
1460000000.0 -0.26159218068343665 0.21579058874927007
1480000000.0 -0.016717333630064873 0.3024075566210223
1500000000.0 -0.21236022764477352 0.16077045056637504
1520000000.0 -0.1554090990031788 0.18312969634200843
1540000000.0 -0.20954189096740378 0.05328635808913883
1560000000.0 0.1673499241840422 0.08818123388017103
1580000000.0 -0.11580058726484825 -0.12586920504808163
1600000000.0 -0.1459623709883571 -0.016637365011714304
1620000000.0 -0.12156308740283008 0.02904053222484202
1640000000.0 -0.07980087384342943 -0.06509055726163612
1660000000.0 -0.060169605742784335 0.05715734575860255
1680000000.0 0.05284333223468951 0.03356794021015906
1700000000.0 0.02280615712154817 -0.04093994617266194
1720000000.0 0.019762778554714568 -0.016459112339046438
1740000000.0 -0.0026241320124180904 0.019132012257888124
1760000000.0 -0.022604881583943477 0.02760498649861842
1780000000.0 0.04101440702250351 -0.053498728552231783
1800000000.0 -0.09109480760972315 -0.05589491555334536
1820000000.0 -0.09212867515619393 0.11370528881996558
1840000000.0 0.1704001278337367 0.07474653414081366
1860000000.0 0.12062012892007214 0.18480434702588688
1880000000.0 -0.24286621180711337 0.07744243378407618
1900000000.0 0.22956179093036774 -0.17958471978724375
1920000000.0 -0.2236694812496431 0.22855319647366928
1940000000.0 0.3456808850206604 0.040576184283450716
1960000000.0 0.00023236017810347146 -0.37117375750756165
1980000000.0 -0.37867752781938074 -0.07784394681758222
2000000000.0 -0.39825370588188613 0.06955342992985475
2020000000.0 -0.18462064124025152 0.3721528120976374
2040000000.0 -0.12009134834162769 0.4085892472232473
2060000000.0 0.19800506702380444 0.38125888398333757
2080000000.0 0.39519515778834446 0.17252660385005342
2100000000.0 0.42784069577598066 -0.003436739210734027
2120000000.0 0.373532852811793 -0.19874667935965798
2140000000.0 0.2619263410595632 -0.3232269246403833
2160000000.0 0.37686068311119747 -0.14949192665292912
2180000000.0 -0.05032513138409749 -0.3895426297201855
2200000000.0 -0.3576263793260116 0.123403229459807
2220000000.0 -0.04294480693868366 0.3600006800983216
2240000000.0 0.3121444077296668 0.1632191647767796
2260000000.0 0.3429671580918963 0.04243219729878165
2280000000.0 0.3441850844289232 -0.015331757518615471
2300000000.0 0.2959625534334702 -0.197887747944392
2320000000.0 0.11165519135433787 -0.36198702887859546
2340000000.0 -0.35088435948745667 -0.21963345317924993
2360000000.0 0.08807408940885941 0.45088295464797795
2380000000.0 -0.136489492846854 -0.49211706629235985
2400000000.0 0.39752791205125937 0.3977044296040765
2420000000.0 -0.6109694985208329 0.05737869439588981
2440000000.0 0.3588309028130864 -0.5535210683651764
2460000000.0 0.14985806056511516 0.6816430251537954
2480000000.0 -0.4476081773848946 -0.5731788458163154
2500000000.0 0.4675230624878547 0.5811701614178257
2520000000.0 -0.33678829821380335 -0.6774375894041897
2540000000.0 -0.08444671022219981 0.7533614822069631
2560000000.0 0.5660124359831601 -0.49634141833213824
2580000000.0 -0.7186737667808675 -0.17134074339430877
2600000000.0 0.23200232669018817 0.6772058709758236
2620000000.0 0.3824466034205399 -0.570427013145818
2640000000.0 0.10135057930250246 -0.6434558937701712
2660000000.0 -0.4426542905754726 0.41587571327502293
2680000000.0 0.5589918670727742 -0.0385042056090241
2700000000.0 -0.4486947056537786 -0.24612594060882137
2720000000.0 0.13117766638121392 0.44194008624149983
2740000000.0 0.2883628327424854 -0.2973527533525962
2760000000.0 -0.373443118234977 -0.01945795746799683
2780000000.0 0.170004778236658 0.2991264118196818
2800000000.0 -0.021311854665956826 -0.32099696867235394
2820000000.0 0.1792165944547733 0.2524277844246926
2840000000.0 -0.2902782496437049 -0.08688772399070624
2860000000.0 0.13660144387272422 -0.27106951866859297
2880000000.0 0.3041053521833681 0.033146709019873946
2900000000.0 -0.029454331471301737 0.30664999287402306
2920000000.0 -0.11551373386006823 -0.28616020156340893
2940000000.0 0.027285354748456753 0.30673531580781394
2960000000.0 0.3044796929364648 0.01706099213625424
2980000000.0 0.28562922258233253 0.0988584188577825
3000000000.0 -0.0727568987128348 0.2893140394339597
3020000000.0 -0.16931282373323478 -0.2461460096956627
3040000000.0 0.15290053406952417 0.25603329445837014
3060000000.0 -0.10608303472312555 -0.2795574450796836
3080000000.0 0.1561628079520104 0.25549140538999765
3100000000.0 -0.19479399760251456 -0.2274730150570065
3120000000.0 0.2947815148188414 -0.03976200041100449
3140000000.0 0.01668410189032181 0.2917629513227928
3160000000.0 -0.2703206966280195 0.060167460178004895
3180000000.0 0.23047191638263806 -0.12097034732524459
3200000000.0 0.23205994297412874 0.029422985822597218
3220000000.0 0.12373578434022031 0.160341030967638
3240000000.0 -0.10443447507368775 0.1322840902674593
3260000000.0 0.028459196860838767 -0.1289373311047967
3280000000.0 -0.07427369036609349 -0.06459135105923024
3300000000.0 0.010619247805539144 -0.06902099689599556
3320000000.0 -0.047360489294947905 0.0027974125153157558
3340000000.0 0.012625687333575148 -0.02724295878109781
3360000000.0 0.01585996286703088 0.007587845854900336
3380000000.0 -0.0032975895409730538 -0.00398751085220444
3400000000.0 -0.004974004003244153 -0.0080610725968795
3420000000.0 -0.024152085069840318 -0.010678953396457429
3440000000.0 -0.03125475419497497 0.028361195608455653
3460000000.0 -0.05662202960216396 -0.006836639719729933
3480000000.0 -0.024019472045438937 -0.06729768190501921
3500000000.0 -0.041341492490733905 -0.07268270454033487
3520000000.0 0.09277237531842257 0.018464620573869647
3540000000.0 -0.10021901684207002 0.032043877230035364
3560000000.0 0.07386199071392906 0.08841567973461222
3580000000.0 0.07423623273114356 -0.1031659627772043
3600000000.0 -0.047667445430123336 0.13406526679905031
3620000000.0 -0.10095095612161678 -0.11857505282242535
3640000000.0 0.09403991478498128 -0.14158512608648544
3660000000.0 0.16900841507047562 -0.07145328717711787
3680000000.0 0.17747865890925887 -0.0751451426859399
3700000000.0 0.060256468870016906 -0.18491145952900145
3720000000.0 0.033500558931307586 -0.19023974526915982
3740000000.0 -0.019739870798714903 -0.18589830205537644
3760000000.0 0.08463919544303677 0.15660435729578723
3780000000.0 -0.1397799679622481 -0.088640724618543
3800000000.0 -0.1217312389710561 0.09680491334745427
3820000000.0 -0.1395936312741108 0.03922776373807794
3840000000.0 0.04083487231492568 -0.13238850244474212
3860000000.0 -0.141597188001993 -0.014599108024056525
3880000000.0 -0.13251587270453274 -0.07578342405232494
3900000000.0 0.03431887113013379 0.16108513873044283
3920000000.0 -0.1702529458944895 0.003599524455780494
3940000000.0 -0.15015560798333297 -0.08874256371591122
3960000000.0 -0.15730251854962968 -0.07864197182311228
3980000000.0 -0.1306165508676908 0.11078442251389109
4000000000.0 -0.0716686633347782 0.14420120976361364
