!Created with skrf (http://scikit-rf.org).
# Hz S RI R 50.0 
!freq ReS11 ImS11
400000000.0 -0.5863397215860713 0.6440497022260084
420000000.0 0.6203308867173962 0.6081996267262352
440000000.0 0.3386894349053884 -0.7650023700844796
460000000.0 -0.5381516094576528 -0.5677737908284272
480000000.0 0.6512765868218279 -0.26840390657206026
500000000.0 -0.2522240771470854 -0.5221655553222465
520000000.0 -0.46819304443613063 0.16380104504090606
540000000.0 0.2990609654168148 -0.28622644049873114
560000000.0 -0.3686650566457728 0.005278662967173265
580000000.0 0.294294289248149 0.16761411722716762
600000000.0 0.2171395296622546 -0.27550652788389934
620000000.0 0.055885240353288505 0.35479401961366214
640000000.0 0.29259688581956333 0.25671466933734255
660000000.0 0.2645338645986705 -0.30556775138108777
680000000.0 0.36174972297905306 0.22504348394169815
700000000.0 -0.1078813415581932 -0.41834903198027906
720000000.0 -0.4242303916012525 -0.03977449046493768
740000000.0 0.23290574963747368 -0.34512537277225847
760000000.0 -0.37241613097888265 -0.12291025623066584
780000000.0 0.23062205673333847 0.2747036370788315
800000000.0 0.07842170743159903 -0.31279290763498524
820000000.0 -0.26803851456444777 0.07060992650433436
840000000.0 -0.0985836583889437 0.21915363850153072
860000000.0 -0.20510898277404652 0.00347051055270888
880000000.0 0.13908253712443883 -0.08443243687576137
900000000.0 0.07708503143372061 -0.08279089181606937
920000000.0 -0.07179450675824275 0.027452233944852227
940000000.0 -0.014258632321494697 -0.04382130850908532
960000000.0 0.03683607758811307 -0.03155492538537812
980000000.0 0.06569733456692248 -0.0005025575117328697
1000000000.0 -0.008206829503262871 -0.08275425587027535
1020000000.0 -0.01327178410231304 -0.10271337497395466
1040000000.0 -0.010623844001280957 -0.11799883384343056
1060000000.0 0.1502317193257088 0.03923780267590464
1080000000.0 0.1055294866166914 0.14048461421748532
1100000000.0 -0.09491844281318935 -0.17801130223578912
1120000000.0 0.1607818009549858 0.15589202530415758
1140000000.0 0.18162332772674078 -0.18082236899027485
1160000000.0 -0.07753493216308222 -0.27311044095732107
1180000000.0 0.08313655893073629 -0.30706462721654887
1200000000.0 0.33913456733116043 -0.04412001301236859
1220000000.0 -0.3116545368440339 0.19332121521297127
1240000000.0 0.3263370468451513 0.20663388640301542
1260000000.0 -0.0013725738659335898 -0.40849254741211316
1280000000.0 -0.4236515452124268 -0.022097472458516315
1300000000.0 0.25597600942728616 0.35165567507505946
1320000000.0 0.3996663978043625 0.1764258342422045
1340000000.0 0.4365843549224409 -0.014103087821612641
1360000000.0 0.43791990160868066 -0.03709127658675446
1380000000.0 0.20313804311894718 -0.38541529997368706
1400000000.0 -0.3914257583253572 -0.17629199354651365
1420000000.0 0.08727766347357911 0.4013337639298209
1440000000.0 0.3691292852164589 -0.10666217959779367
1460000000.0 -0.05767300698745397 -0.3493883064116357
1480000000.0 -0.3094479571177395 0.08913718070122609
1500000000.0 -0.060657443067913736 0.28277136257184904
1520000000.0 0.0814839370910744 0.24745874433383666
1540000000.0 -0.15436950336392197 -0.17169455357301444
1560000000.0 0.14602904551819992 -0.13260420369944126
1580000000.0 0.08768289885327468 0.14470062736793343
1600000000.0 0.13344083987802208 -0.011918942028778419
1620000000.0 0.10458399339865901 0.001875540921092582
1640000000.0 -0.04941167015751521 0.06013935476483067
1660000000.0 0.025955012373661965 -0.046620963458363494
1680000000.0 -0.01701109243961641 0.029437321383304876
1700000000.0 -0.02015453818824214 0.00019894829344069756
1720000000.0 0.002918506469788595 0.004661887805379153
1740000000.0 -0.010962649689650768 0.012098968230620859
1760000000.0 0.027173331308949333 -0.02062656431318376
1780000000.0 0.025960388737721378 0.05558329003366704
1800000000.0 -0.09177184279183596 0.01109183357904415
1820000000.0 -0.09972245117828848 0.07265597739223355
1840000000.0 0.10453745436081173 -0.12330849774907264
1860000000.0 -0.18921025587823082 0.060318408632141815
1880000000.0 0.22746424598164425 -0.07376565269322584
1900000000.0 -0.26404061470365403 0.10325251211264307
1920000000.0 0.2367394628133997 -0.2143180172971675
1940000000.0 -0.32357891342287826 0.14010407953341492
1960000000.0 0.3597096778575371 0.11839029830822617
1980000000.0 -0.0837407053900819 -0.38848193069978687
2000000000.0 -0.39355859800237114 -0.13184731280257728
2020000000.0 -0.21594924362288037 0.36747317807253715
2040000000.0 0.12205304056365283 0.41599467683660407
2060000000.0 0.4348438718134508 0.027135627290137944
2080000000.0 0.3064017861895279 -0.30641020242145
2100000000.0 0.11031247015792203 -0.4109263339798007
2120000000.0 -0.100373649607325 -0.4038351253158379
2140000000.0 -0.18551431258715387 -0.3601018113233105
2160000000.0 0.24219557308164358 -0.307442223133639
2180000000.0 0.09047088442463014 -0.36622747789288196
2200000000.0 -0.18784481594808516 -0.31295956555188226
2220000000.0 -0.3300268603578762 -0.1254341995628165
2240000000.0 -0.2962717521158082 0.18425760385201953
2260000000.0 -0.09736818906633304 0.3329013779533748
2280000000.0 0.12398479043053792 0.32814680610870167
2300000000.0 0.3586388732314642 -0.058506119341293635
2320000000.0 -0.04080311743720217 -0.38310418308578786
2340000000.0 -0.4050171260340857 0.09700521686300685
2360000000.0 0.33937242902428805 0.30595442459334254
2380000000.0 -0.23033727470612936 -0.45030990425648065
2400000000.0 0.35900492671647344 0.4260039676762578
2420000000.0 -0.5800935160260466 -0.18467128041947461
2440000000.0 0.6142550777057529 -0.23202522898776398
2460000000.0 -0.3289547072173812 0.6141982614135543
2480000000.0 -0.030137485430967784 -0.7274645267165749
2500000000.0 0.0005735078637683562 0.749301429372937
2520000000.0 0.11618985263434103 -0.7513998521744211
2540000000.0 -0.4543080966240857 0.6126895361372441
2560000000.0 0.7374209463382195 -0.17318604306422794
2580000000.0 -0.547879481547396 -0.5024970567239054
2600000000.0 -0.06377100814967902 0.7173521891528165
2620000000.0 0.5852333741004755 -0.36600170988885805
2640000000.0 0.3109075099591701 -0.5751429997246308
2660000000.0 -0.6033619927702608 0.07791615272909537
2680000000.0 0.40330085590264414 0.39156614382125515
2700000000.0 -0.018152931538043232 -0.5139390228231974
2720000000.0 -0.23188213828292265 0.40487995165460594
2740000000.0 0.4142725280149159 -0.07611930624903841
2760000000.0 -0.3796753258160129 -0.03726266287690226
2780000000.0 0.3497624446192968 0.03236702971757444
2800000000.0 -0.31441171911719823 0.08415857941521952
2820000000.0 0.0417959564087462 -0.30606267033610374
2840000000.0 0.22849273565730266 0.1898374575369827
2860000000.0 -0.2738310023893071 0.10533499568149371
2880000000.0 0.022332319199453082 -0.29205729648512807
2900000000.0 0.11738651934617417 0.27077329031109476
2920000000.0 0.07129875937601084 -0.2900577381111408
2940000000.0 -0.30252922414271016 0.02327651848973149
2960000000.0 -0.158875307240254 0.2632204256282992
2980000000.0 -0.16090208225276936 0.26723738187956436
3000000000.0 -0.2943192132139442 0.11080336001208808
3020000000.0 -0.20146621480355445 -0.2412318263930902
3040000000.0 0.3093400777462008 -0.028367433862299708
3060000000.0 -0.2292215233510681 0.20613501794354722
3080000000.0 0.17842426265261468 -0.24530064667613946
3100000000.0 -0.22180221927812152 0.19790657652403068
3120000000.0 0.07189245901190155 -0.28274767409923046
3140000000.0 0.05257245701377183 0.2768814330356214
3160000000.0 -0.23187987421362974 -0.13231875283555458
3180000000.0 0.05659954254152822 0.24478090910739808
3200000000.0 -0.22803036492865283 -0.0027582660401582406
3220000000.0 -0.006724952668474791 -0.2019489060733043
3240000000.0 0.17216573343508684 -0.008341283930512972
3260000000.0 -0.03536207411770526 0.1351609494596415
3280000000.0 -0.035449333827765085 -0.10238558974187406
3300000000.0 0.06493944901638803 0.04194521231002195
3320000000.0 -0.03615017727444598 -0.03506982164519947
3340000000.0 0.014305276435062167 -0.022247410433927858
3360000000.0 -0.004071215316900837 -0.007664742303461736
3380000000.0 0.01025359126601514 -0.0005398456802150925
3400000000.0 -0.010529430046615332 0.020848183475147025
3420000000.0 -0.02190257193551591 -0.028391030138465403
3440000000.0 0.04562191532077394 0.0013824434474713873
3460000000.0 -0.0011488897341104547 0.05445878625134207
3480000000.0 -0.06432182590451084 -0.012133608757982087
3500000000.0 0.05518539858283352 0.05736092749675949
3520000000.0 0.0583021844376193 -0.07249723118116805
3540000000.0 0.017286953070473236 0.10696574778267473
3560000000.0 -0.07867549018508833 -0.09431207575391568
3580000000.0 0.1353528993050477 -0.018938175396275958
3600000000.0 0.0641937565634181 0.13836470995652803
3620000000.0 -0.043516920307542374 0.15709742036262464
3640000000.0 -0.17307209068894902 0.007079814763132107
3660000000.0 -0.15511695006754578 -0.09407490818911828
3680000000.0 -0.043664837512516125 -0.18121307846557366
3700000000.0 0.021684299711088643 -0.1851533130632738
3720000000.0 0.16596025700279587 -0.08169083973841818
3740000000.0 0.17524125078818206 0.03815336546299059
3760000000.0 -0.15691457290119876 -0.07405933736759764
3780000000.0 0.15924780122882032 0.03694969913085864
3800000000.0 0.01564025779189694 -0.15547855461544008
3820000000.0 -0.13465630536032397 -0.0630472972436091
3840000000.0 -0.0967448742244124 -0.10245508578384009
3860000000.0 0.14164262272119593 0.0034870164875854363
3880000000.0 0.1292917364403921 0.06971713586881129
3900000000.0 0.08526556686789599 -0.1283591822606053
3920000000.0 -0.0779160591244005 0.1381769811478017
3940000000.0 -0.01974815011165088 -0.1627923973355966
3960000000.0 0.09157294279517604 -0.14271175778783757
3980000000.0 -0.06894990354091934 -0.15671560791693792
4000000000.0 -0.05905251524705572 -0.1557262780434447
