!Created with skrf (http://scikit-rf.org).
# Hz S RI R 50.0 
!freq ReS11 ImS11
400000000.0 -0.5902196059811631 0.6465594608678134
420000000.0 0.6174444322605755 0.6148535145491497
440000000.0 0.37287425794733237 -0.7497735742397362
460000000.0 -0.4565619543257458 -0.6354806427699982
480000000.0 0.6652744582789346 -0.23406681058841947
500000000.0 -0.28056399820193073 -0.5076382946421559
520000000.0 -0.47113327787713133 0.1549284979639478
540000000.0 0.357763830281331 -0.20854364103306258
560000000.0 -0.3689018833305391 -0.00183111660559261
580000000.0 0.2860784796565881 0.18124439977978218
600000000.0 0.14048510501696085 -0.3191883820433956
620000000.0 0.05063945176829417 0.3551400992122037
640000000.0 0.31336746677055566 0.2285660150641003
660000000.0 0.21034908283937614 -0.3439742123560264
680000000.0 0.39457151197226814 0.15945221683258104
700000000.0 -0.141465801376607 -0.40824100694993465
720000000.0 -0.425870833609338 0.018234319932658002
740000000.0 0.1852250373713348 -0.3739153060891176
760000000.0 -0.3821271458035417 -0.09053770864849926
780000000.0 0.23993940817207554 0.26767687114753463
800000000.0 0.10743169184633344 -0.30489782090268236
820000000.0 -0.2761299392092878 0.028868618626681587
840000000.0 -0.14835030060882065 0.18919374468142094
860000000.0 -0.1958033712938248 -0.05960727175179712
880000000.0 0.16195780524515052 -0.002114427306733982
900000000.0 0.09007101885870136 -0.06614749279278329
920000000.0 -0.05774004169449172 0.04805311010983226
940000000.0 -0.0194133780918955 0.04072035149142517
960000000.0 -0.044529413152645074 -0.02173167015615037
980000000.0 0.06426577599406114 -0.022065092234664956
1000000000.0 0.03701600639451663 -0.07647552421407303
1020000000.0 0.0672452949064679 -0.08022012428087542
1040000000.0 0.08726030467747636 -0.08034960852252378
1060000000.0 0.11143643794178312 0.10699519012545049
1080000000.0 0.027845690826869864 0.17244245713125994
1100000000.0 -0.0648873392126815 -0.18910314518356713
1120000000.0 0.15975110930065975 0.15320518088107427
1140000000.0 0.0922411034434217 -0.23659662248459093
1160000000.0 -0.15735807515388436 -0.23384274927267423
1180000000.0 -0.05568759643494025 -0.31150946176224964
1200000000.0 0.28147604512660485 -0.19141854555073134
1220000000.0 -0.21216617992097372 0.2975772168386308
1240000000.0 0.380143383653767 0.06513080705337111
1260000000.0 -0.1370401075577515 -0.3846094083762514
1280000000.0 -0.4096977135681755 0.11256386782928951
1300000000.0 0.31937886457435877 0.2967177267104734
1320000000.0 0.4156287297599224 0.1377073855097112
1340000000.0 0.4377517521936824 -0.009494232223870074
1360000000.0 0.4400323549990537 -0.014755412274842514
1380000000.0 0.22888310550423052 -0.37148379192019104
1400000000.0 -0.3654015834168889 -0.22523642345358522
1420000000.0 0.02434685743292678 0.4094489572762957
1440000000.0 0.381333317544998 -0.04013457927111363
1460000000.0 -0.002942461956397945 -0.3527406755993028
1480000000.0 -0.31903279482179264 0.024089072171582637
1500000000.0 -0.12226464952325207 0.25968290713378783
1520000000.0 0.09730868323710952 0.23891521349187278
1540000000.0 -0.18372072680668705 -0.136194990951017
1560000000.0 0.07319957532798471 -0.18062175653028886
1580000000.0 0.1571935924505778 0.0577119666357986
1600000000.0 0.055446392202249506 -0.12052857040387237
1620000000.0 0.018977874129715935 -0.10257860412805929
1640000000.0 0.05826634592799969 0.051773468090362665
1660000000.0 -0.05181726293822287 0.017683194731961952
1680000000.0 0.035646542396955784 0.0044142204731217995
1700000000.0 0.004873146793557991 -0.022026946412344404
1720000000.0 0.005267518618815854 -0.0038921277562457214
1740000000.0 0.004849878063104788 0.014688738514055373
1760000000.0 -0.020845287078248793 0.025770733670660007
1780000000.0 0.03281426247825877 -0.05244793268348644
1800000000.0 -0.02009951203677147 0.09144261031316851
1820000000.0 -0.02698500725169622 0.12164370542102945
1840000000.0 0.045816087227116054 -0.15611280430929908
1860000000.0 -0.17121854044678167 0.10378972592619047
1880000000.0 0.220953586787743 -0.09578115255369392
1900000000.0 -0.26832331849368246 0.09517368995287066
1920000000.0 0.2551379227503432 -0.19352748473733114
1940000000.0 -0.34226037888667166 0.08775187795367172
1960000000.0 0.32738687388821974 0.19045246320459994
1980000000.0 -0.018078951442368457 -0.3963325395404704
2000000000.0 -0.3622673292161046 -0.20068787309722855
2020000000.0 -0.27626735881432185 0.3227425332229693
2040000000.0 0.07394452524486539 0.42519450723581653
2060000000.0 0.42311979184094783 0.09278947045231883
2080000000.0 0.32456908511429217 -0.28239461909858066
2100000000.0 0.06732390816194485 -0.4172324010820318
2120000000.0 -0.1567721074873722 -0.3823657732528833
2140000000.0 -0.23752196518296392 -0.3243473295311595
2160000000.0 0.14164703143160637 -0.36098807815619044
2180000000.0 -0.05276486615225702 -0.3708559700815977
2200000000.0 -0.29119204531442205 -0.21605598066207418
2220000000.0 -0.34942453032673554 0.03981767578822844
2240000000.0 -0.1907199803612309 0.29043932251533416
2260000000.0 0.03426991740678569 0.34478503408679756
2280000000.0 0.20496749589575433 0.28360242505125943
2300000000.0 0.32225907486654304 -0.16680540570359367
2320000000.0 -0.11238930142976994 -0.3680922549005999
2340000000.0 -0.3988003300699338 0.11703120646961525
2360000000.0 0.3406814742671643 0.3031943817830929
2380000000.0 -0.2130582221611585 -0.4576411216640951
2400000000.0 0.28465874907272076 0.4772427626302181
2420000000.0 -0.5253390528696267 -0.30462886802866945
2440000000.0 0.647971785648688 -0.09671471976549353
2460000000.0 -0.45860099273321403 0.5228174899977099
2480000000.0 0.19093231104659758 -0.7018317985087333
2500000000.0 -0.11292109849992871 0.7392609839549072
2520000000.0 0.2392934144024321 -0.7207164568393322
2540000000.0 -0.5133705890621967 0.5633010693994009
2560000000.0 0.7477295688037783 -0.11709412593356666
2580000000.0 -0.5048752647431161 -0.544845796311115
2600000000.0 -0.08592709576369181 0.7144427799979318
2620000000.0 0.5927130022061092 -0.3521821084139135
2640000000.0 0.3377156301629985 -0.5587654319726197
2660000000.0 -0.6000358300067554 0.0995459326293394
2680000000.0 0.42625357951520626 0.36598601312782736
2700000000.0 -0.052939976776613364 -0.5122187205035217
2720000000.0 -0.22565926189662097 0.40860805792009064
2740000000.0 0.39800098760886027 -0.14007742914954657
2760000000.0 -0.38173250950947674 -0.008118538075792226
2780000000.0 0.3484173346460459 0.04095927219467741
2800000000.0 -0.30939367443508675 0.1003054619512951
2820000000.0 0.010314550808393495 -0.3081197496320454
2840000000.0 0.2419736800354858 0.1714967185481097
2860000000.0 -0.26564903946058094 0.1226754353995221
2880000000.0 0.002833317693279002 -0.29283416238680277
2900000000.0 0.1622686504488794 0.24601968104740546
2920000000.0 0.01834354976616144 -0.2978098540207697
2940000000.0 -0.2980609489791544 0.05589666974767582
2960000000.0 -0.12094033814648605 0.2834555568090905
2980000000.0 -0.12977767360539627 0.28444303982835706
3000000000.0 -0.2487828911664447 0.19276344136082457
3020000000.0 -0.28230525200188245 -0.1400468686527977
3040000000.0 0.24570199969112752 -0.1926883792290931
3060000000.0 -0.1914389345214858 0.24309004795317904
3080000000.0 0.15166858960517612 -0.2639323968090475
3100000000.0 -0.15126165566913335 0.25741523611293715
3120000000.0 0.05811804041861233 -0.28690066504571793
3140000000.0 0.06787723586024712 0.2748097741636317
3160000000.0 -0.21471245577371056 -0.16188377298639028
3180000000.0 0.0060821687830076585 0.2532206746938801
3200000000.0 -0.21439451296170509 -0.08169820273659993
3220000000.0 0.07700424054943338 -0.1881959687993034
3240000000.0 0.1427829294635196 0.09883232424262349
3260000000.0 -0.12822315947390026 0.058052786420689076
3280000000.0 0.08544505979468865 -0.06748215082307915
3300000000.0 -0.0548208815754702 0.05571978695000189
3320000000.0 0.05036081088947393 0.0018270447621110267
3340000000.0 -0.02491433288938208 -0.009552539491205957
3360000000.0 -0.004855516579867143 -0.006243615293831556
3380000000.0 -0.00903183116802019 -0.0024495947570537177
3400000000.0 -0.02339644760740547 -0.0020497457695174597
3420000000.0 0.01646173027493026 -0.03196491441464769
3440000000.0 -0.04493459033509047 -0.005411295309597432
3460000000.0 0.0001289455397970761 -0.05467323305656745
3480000000.0 0.06114964498096288 0.024168525029127884
3500000000.0 0.011018414892014296 -0.079099838127043
3520000000.0 -0.08416282174923521 -0.040937312540636886
3540000000.0 0.10816399723561866 -0.008363575150466334
3560000000.0 -0.11506492805082001 0.04637211928331695
3580000000.0 0.10265792660656686 -0.09068817126766969
3600000000.0 0.1445232015643452 0.051604874920412346
3620000000.0 0.061902242447309 0.15248566540327935
3640000000.0 -0.12599913958600323 0.12024524017827842
3660000000.0 -0.18077551767351374 -0.030712233290310885
3680000000.0 -0.12820930708262013 -0.13814836575859693
3700000000.0 -0.05941143846634751 -0.17897159910550373
3720000000.0 0.12739031694991026 -0.13771876537543806
3740000000.0 0.1814193242269493 0.0007031498482749434
3760000000.0 -0.1715937501075393 -0.03353612457893641
3780000000.0 0.1589684560268067 0.04471726473429771
3800000000.0 0.011794644775383344 -0.15817967009800074
3820000000.0 -0.1344200598390413 -0.06856982652295052
3840000000.0 -0.09905834621838712 -0.10331184265864202
3860000000.0 0.1411763730674092 0.025869784824185584
3880000000.0 0.13896655370340427 0.05188098204299358
3900000000.0 0.0839032704678417 -0.1311668119915462
3920000000.0 -0.08422524630024619 0.13580082989486617
3940000000.0 -0.00016455152769439293 -0.16420859640162233
3960000000.0 0.12839218577529468 -0.11176357555616089
3980000000.0 -0.04974971499221609 -0.16390447223267374
4000000000.0 -0.13055760281128778 -0.10333301319520793
