!Created with skrf (http://scikit-rf.org).
# Hz S RI R 50.0 
!freq ReS11 ImS11
400000000.0 -0.6105495315440724 0.6230172044753952
420000000.0 0.6259960873374362 0.6038961229641849
440000000.0 0.3530700020678858 -0.7582846491264973
460000000.0 -0.4821344207750651 -0.6151527944062731
480000000.0 0.6716467724456354 -0.21305877400462547
500000000.0 -0.2871876266656875 -0.5038687794539899
520000000.0 -0.4610961675983974 0.18092656357891798
540000000.0 0.3273484831957135 -0.25238200418554996
560000000.0 -0.364534763545691 -0.06314644342858587
580000000.0 0.3021718238271609 0.15389879904461287
600000000.0 0.21068099780591593 -0.2791132840508634
620000000.0 0.02156697398775532 0.3587019850948893
640000000.0 0.30865881906838005 0.2377727366535194
660000000.0 0.2861295056589894 -0.285384413076751
680000000.0 0.3494425540809447 0.24273367511089608
700000000.0 -0.09808737894373185 -0.42064782686735747
720000000.0 -0.4250862356334308 -0.022355369799921573
740000000.0 0.1775268678971612 -0.37485117842752785
760000000.0 -0.3748340897714626 -0.11411833769826782
780000000.0 0.24425532226351873 0.26279797510672215
800000000.0 0.07480147036599455 -0.31356520282451017
820000000.0 -0.26330672660196636 0.08615063162229235
840000000.0 -0.11372044447111944 0.2121137096320549
860000000.0 -0.2023133348880171 -0.03310898472734259
880000000.0 0.14849654120768807 -0.06636947152576315
900000000.0 0.08311593340346941 -0.07621618825303254
920000000.0 -0.06979356663851978 0.032330149452121766
940000000.0 0.0008771566905451187 -0.04609527941341327
960000000.0 0.04720935111910617 0.008824598706194658
980000000.0 0.06526780587636576 0.004199208915335668
1000000000.0 -0.005553544998400475 -0.08265309053397243
1020000000.0 -0.03201364165808936 -0.09873543107765526
1040000000.0 -0.01144838739858145 -0.11787446921944995
1060000000.0 0.1538552658593259 0.020780702429510294
1080000000.0 0.09447639001104097 0.1488718638337554
1100000000.0 -0.09790293685117911 -0.1769835454244034
1120000000.0 0.14785601275160273 0.1690754890986655
1140000000.0 0.20054292823350428 -0.1595979973601042
1160000000.0 -0.08142744375790767 -0.27231709474379207
1180000000.0 0.13562121587920806 -0.28752307535912774
1200000000.0 0.34113591554559675 0.008090657120884392
1220000000.0 -0.34276572940175165 0.12777801576349565
1240000000.0 0.3127182071236598 0.22610453381324094
1260000000.0 0.006442429283171423 -0.4077387854951664
1280000000.0 -0.4239258742570546 -0.011533567601129285
1300000000.0 0.27427707420119163 0.33726173856665403
1320000000.0 0.40615329346126366 0.15957829410466776
1340000000.0 0.43572619567923015 -0.02894122706063284
1360000000.0 0.43651872285544924 -0.04936456737983893
1380000000.0 0.18217417559312588 -0.39607798444091635
1400000000.0 -0.3996641215297469 -0.15633995535112993
1420000000.0 0.10100521208284813 0.39807028778952896
1440000000.0 0.36648033231741417 -0.11518868488004025
1460000000.0 -0.06201047429275802 -0.34892235202039273
1480000000.0 -0.2737927888128758 0.17004241580430873
1500000000.0 -0.05917400125981635 0.28288334470077114
1520000000.0 0.09121455280957813 0.2434270979805358
1540000000.0 -0.1665187512086777 -0.1600880606898807
1560000000.0 0.1414199091576067 -0.1370498753908149
1580000000.0 0.09555675016161276 0.13936863601236835
1600000000.0 0.13299597224194468 0.014556883633600625
1620000000.0 0.10450001060261228 0.00500229224726395
1640000000.0 -0.03474457033943792 0.06935416617197863
1660000000.0 0.01713141038594908 -0.05038634568129946
1680000000.0 -0.020415656954911314 0.027173049597167195
1700000000.0 0.01004048235990545 0.017828013733582213
1720000000.0 -0.0045702759288997075 0.003637267610041911
1740000000.0 -0.011985006851810469 0.010496792867671656
1760000000.0 0.018854876250199465 -0.027899493364152313
1780000000.0 0.04446422130762923 0.04237047104822481
1800000000.0 -0.08553033202632891 0.03552691214325878
1820000000.0 -0.08698697292434918 0.08780912146860846
1840000000.0 0.09105734697086283 -0.13340474268653155
1860000000.0 -0.1807659130693709 0.08259168750632992
1880000000.0 0.21871237524533638 -0.09730846723470901
1900000000.0 -0.2642464996745573 0.10310370811951501
1920000000.0 0.22330660225266724 -0.2282766201345915
1940000000.0 -0.31960631318871735 0.1496474932501129
1960000000.0 0.3645670320816228 0.10269261201680488
1980000000.0 -0.10039430844056844 -0.3846970272476044
2000000000.0 -0.390907132249391 -0.14010429018623738
2020000000.0 -0.20116889718880065 0.3761366310124521
2040000000.0 0.11176472592180624 0.4191382955673281
2060000000.0 0.43369505630958194 0.03676707585618886
2080000000.0 0.32688283349809005 -0.2840986115215708
2100000000.0 0.12695274455749367 -0.4058962456817183
2120000000.0 -0.10467445261083369 -0.40232270869567954
2140000000.0 -0.1455760275117871 -0.3778130053310945
2160000000.0 0.27895243639569356 -0.27377656988048443
2180000000.0 0.11120263195230258 -0.3599720698425024
2200000000.0 -0.16276918548217856 -0.32550600550658537
2220000000.0 -0.3307796932845269 -0.121465762425119
2240000000.0 -0.30187426925270766 0.17427765076495358
2260000000.0 -0.11803440750065138 0.32629900494853414
2280000000.0 0.09981263603163996 0.3361997979075214
2300000000.0 0.36004801531875125 -0.041458767218416695
2320000000.0 -0.030762361556547095 -0.3830942255282439
2340000000.0 -0.4082408018803042 0.0766058567617369
2360000000.0 0.3537326137013808 0.2879449468301914
2380000000.0 -0.26377844282493546 -0.43100897213538425
2400000000.0 0.36632867158467475 0.419121547650719
2420000000.0 -0.5815124185549037 -0.17882820361948334
2440000000.0 0.6196068190929535 -0.2181637875990014
2460000000.0 -0.34303340525672016 0.6070676043867929
2480000000.0 0.015264500934521237 -0.7286020854143914
2500000000.0 -0.06756436137764614 0.7470045941020833
2520000000.0 0.20079290377332987 -0.7337718542930406
2540000000.0 -0.4669519303612105 0.6038585102126279
2560000000.0 0.7500886770784932 -0.11068204726801562
2580000000.0 -0.539710788462118 -0.5110137687533979
2600000000.0 -0.09758837684117368 0.7134180844048436
2620000000.0 0.603421139950102 -0.3341422632044473
2640000000.0 0.3749819598444322 -0.535006934145196
2660000000.0 -0.6079849890139944 0.022620761257016706
2680000000.0 0.3605092396001794 0.43049010201117266
2700000000.0 0.02163162029190118 -0.5134727134505821
2720000000.0 -0.29244930381899403 0.3622436511357071
2740000000.0 0.41841270835564803 -0.042728565223835176
2760000000.0 -0.3769942708014412 -0.05244590348372178
2780000000.0 0.34636552805835014 0.050407119201459065
2800000000.0 -0.3043509590414546 0.1121416927763382
2820000000.0 0.006785986074718389 -0.307798221856572
2840000000.0 0.25756046749438516 0.14787116743644835
2860000000.0 -0.23876091619950332 0.17111611793543335
2880000000.0 -0.03301235334768682 -0.2917032839612136
2900000000.0 0.1535140386963459 0.252925982852873
2920000000.0 0.040716914162471425 -0.2969884044115345
2940000000.0 -0.3009661266917398 0.04660139737800666
2960000000.0 -0.11571685893900659 0.2862429939439586
2980000000.0 -0.19941452164758397 0.2417616227958725
3000000000.0 -0.3062419303851116 0.07895800332553644
3020000000.0 -0.17861986996106444 -0.2601607686869143
3040000000.0 0.3097184442692074 -0.030781124451252338
3060000000.0 -0.2695685829597065 0.14977489705521227
3080000000.0 0.22946638310719417 -0.19908426077893238
3100000000.0 -0.21703959593335398 0.20479754414323906
3120000000.0 0.14722471458622938 -0.25149398276353085
3140000000.0 -0.019445416405726196 0.28119910054358693
3160000000.0 -0.17704444812902498 -0.2003222745582324
3180000000.0 0.0021917814897122988 0.2513252340324252
3200000000.0 -0.22167783235795893 -0.05121209875570232
3220000000.0 0.016600161360496198 -0.20140996928245153
3240000000.0 0.16876066353883928 0.03544498364108202
3260000000.0 -0.06718848510435971 0.12251086054812282
3280000000.0 0.011276590034172324 -0.10736661707667032
3300000000.0 0.07499461895852871 0.01849054516273642
3320000000.0 -0.04663722421021847 -0.019418298404236554
3340000000.0 0.005990686657345139 -0.025712024813207415
3360000000.0 -0.0026008856852044503 -0.007694356907696243
3380000000.0 0.007483155114077545 -0.005833081954441719
3400000000.0 0.01930436987080465 0.012551216911677238
3420000000.0 -0.023805159445185804 0.025926803700289488
3440000000.0 0.03382956732891129 -0.0289514168937041
3460000000.0 0.04686391009843914 0.026445036626895083
3480000000.0 0.0023868787402016936 0.06511639862792977
3500000000.0 0.0729341830807429 -0.03144070927777412
3520000000.0 0.007248959672588923 -0.0924163398130808
3540000000.0 0.06244127014672181 0.08786855464132498
3560000000.0 -0.11086182521986843 -0.051930303325975175
3580000000.0 0.11511689134377107 -0.0737598058567847
3600000000.0 0.11627168970313945 0.0995126653823858
3620000000.0 0.009224569755244294 0.1632085898472694
3640000000.0 -0.17053488424373064 0.031653407367105126
3660000000.0 -0.1587303281325638 -0.08897671112208533
3680000000.0 -0.042022087714761194 -0.18185088416422823
3700000000.0 0.017864262006350957 -0.18618829886566474
3720000000.0 0.16844742212430247 -0.07760166841015907
3740000000.0 0.179698673626925 0.011723445258152493
3760000000.0 -0.1681981643439837 -0.045393640884818946
3780000000.0 0.1540394191647181 0.057043516298276774
3800000000.0 0.045803381221925524 -0.1505431216730252
3820000000.0 -0.1271502475989498 -0.07966167604612355
3840000000.0 -0.09023782468762992 -0.10942817954448315
3860000000.0 0.14282870458856953 -0.00011314122774535082
3880000000.0 0.13762214157882283 0.052347440376302914
3900000000.0 0.0785064350747565 -0.13358113151829326
3920000000.0 -0.10244437324875508 0.12179908490525068
3940000000.0 0.02479673127622275 -0.16346268980764966
3960000000.0 0.13445378741395023 -0.10459906998639634
3980000000.0 -0.020823308414489337 -0.17066677297997412
4000000000.0 -0.0654489491813603 -0.15353130416494915
