!Created with skrf (http://scikit-rf.org).
# Hz S RI R 50.0 
!freq ReS11 ImS11
400000000.0 -0.5397801011412279 0.6875442246522142
420000000.0 0.6370197483933545 0.5936298498636001
440000000.0 0.3568974804768009 -0.7575654853637931
460000000.0 -0.49219459301682333 -0.6082732069635157
480000000.0 0.6651772677115526 -0.23389979880923775
500000000.0 -0.2835138914285408 -0.5058422086170734
520000000.0 -0.47081828108475293 0.15539969903340478
540000000.0 0.31841444160551513 -0.26490542449063387
560000000.0 -0.36899464603823867 -0.01516173419300954
580000000.0 0.2998882988137058 0.15638966826658118
600000000.0 0.223435611089126 -0.268005265547937
620000000.0 0.037003747290985656 0.3566261184604998
640000000.0 0.31111055042161007 0.23186338899338327
660000000.0 0.18352396504009194 -0.3583928716718517
680000000.0 0.3918635776126966 0.16543169740419664
700000000.0 -0.16315683235422263 -0.4004881053225456
720000000.0 -0.42562838233765243 0.026685874579102577
740000000.0 0.17244300075787408 -0.37916509054204833
760000000.0 -0.3783041755556232 -0.10419522089355077
780000000.0 0.2459769717464015 0.26197524614511253
800000000.0 0.10093436315858115 -0.3069559930630873
820000000.0 -0.2760808786508133 0.031027242524966078
840000000.0 -0.17191010288267689 0.16851456365800901
860000000.0 -0.1768540305824176 -0.10269614583500532
880000000.0 0.16160561884184682 0.002243932216703772
900000000.0 0.09940601505776385 -0.04977163919633718
920000000.0 -0.061228873758030565 0.04369937478674319
940000000.0 -0.0424285936351796 0.01602397679424032
960000000.0 -0.021188824610365666 -0.044273697087874035
980000000.0 0.058368949632225935 -0.03320959431781838
1000000000.0 0.006427900247225663 -0.08475691724457513
1020000000.0 0.06132109795066723 -0.08505674964568807
1040000000.0 0.08131251780783766 -0.08678059163245525
1060000000.0 0.09544482393676208 0.12161083747237778
1080000000.0 0.015111574120679134 0.17411403990248353
1100000000.0 -0.0473731880163519 -0.19412075889761102
1120000000.0 0.15236501337435257 0.16074936507007623
1140000000.0 0.11572260876495241 -0.2257952693747613
1160000000.0 -0.18760135683180423 -0.21024929131924985
1180000000.0 -0.017652335477640203 -0.3150791304802284
1200000000.0 0.2910667655492205 -0.175741982745457
1220000000.0 -0.22998994172905796 0.28395076581488915
1240000000.0 0.38245968941903685 0.050048207786703824
1260000000.0 -0.13591199624729766 -0.3851475850015646
1280000000.0 -0.4094052790813587 0.11331776477973497
1300000000.0 0.3189318012511105 0.29724795847478896
1320000000.0 0.4234634261128244 0.11220133957426413
1340000000.0 0.43660793091616545 -0.03471534093784138
1360000000.0 0.4397483543477025 -0.02380497082691772
1380000000.0 0.2375903508404094 -0.3662830610783265
1400000000.0 -0.3684444777506159 -0.22052800807819442
1420000000.0 0.03722252029263698 0.408421974541621
1440000000.0 0.3806811965408519 -0.04776804418837778
1460000000.0 0.015858541313623752 -0.35266206095305896
1480000000.0 -0.3199959353681111 0.02081620216465527
1500000000.0 -0.1207233355078921 0.2605979177252877
1520000000.0 0.08446822917368318 0.24352819159932
1540000000.0 -0.17428195250264486 -0.14800150504239454
1560000000.0 0.09369268588713063 -0.17087533428388255
1580000000.0 0.14993621443485214 0.07390590864384632
1600000000.0 0.10190217849427964 -0.0846520367763063
1620000000.0 0.06207763943077779 -0.08342233607974193
1640000000.0 0.05570257873420961 0.05447963306720441
1660000000.0 -0.0543586364206559 0.002076844881913915
1680000000.0 0.029643560131893083 0.019609272604613714
1700000000.0 0.021833014512897486 0.003309512612110022
1720000000.0 -0.002698704602791557 0.006059411623357084
1740000000.0 0.006044914139057942 0.013857729308004533
1760000000.0 -0.025329630222310953 0.020750454803450318
1780000000.0 0.047073631449224294 -0.04000603509636943
1800000000.0 -0.015592778167829406 0.0917113895146205
1820000000.0 -0.004227452056726674 0.12460316598276058
1840000000.0 0.015941881865521645 -0.16191004665629422
1860000000.0 -0.15839807960101904 0.12253215275731241
1880000000.0 0.2157922651298453 -0.10714236610521737
1900000000.0 -0.2643759601027926 0.10687044532705436
1920000000.0 0.2479924139247672 -0.20303173980342462
1940000000.0 -0.3407297765069901 0.09395536129411391
1960000000.0 0.33954532734145626 0.16878798755169194
1980000000.0 -0.025900155833513457 -0.3963308070708647
2000000000.0 -0.36839425599744824 -0.18974041728746752
2020000000.0 -0.24971312317645344 0.3437724888382397
2040000000.0 0.05047939361478932 0.429300203642804
2060000000.0 0.42716620564852287 0.07497413401780471
2080000000.0 0.32814324387491733 -0.2792037690111693
2100000000.0 0.09421200337216248 -0.4122050208027138
2120000000.0 -0.13259802710124233 -0.3913066305890204
2140000000.0 -0.2101562882178373 -0.3433424737381207
2160000000.0 0.14070268948317172 -0.36163703056958524
2180000000.0 -0.02971266931698547 -0.37347775747874423
2200000000.0 -0.274162407901841 -0.23773173129143055
2220000000.0 -0.351999894897167 0.0029168858455658983
2240000000.0 -0.1838234290035246 0.2955603057471575
2260000000.0 0.02580787070380975 0.34556260250874016
2280000000.0 0.22713580712206186 0.26719351819725196
2300000000.0 0.31578716042926813 -0.179239893383278
2320000000.0 -0.12733277789532405 -0.36350549975325686
2340000000.0 -0.3909594246918971 0.14371653086612854
2360000000.0 0.37235109033695524 0.26463453007542015
2380000000.0 -0.24213725411931292 -0.44389839231488065
2400000000.0 0.33710008221873095 0.4428954955575672
2420000000.0 -0.5539941850270804 -0.25181354542999596
2440000000.0 0.6333627105449735 -0.17094515230346763
2460000000.0 -0.3815523231942914 0.582173616350929
2480000000.0 0.09116059369440929 -0.7214340911124082
2500000000.0 -0.010063749809531926 0.7474661690952508
2520000000.0 0.1445928565017102 -0.7445935564905328
2540000000.0 -0.4496693426265559 0.6133525491449612
2560000000.0 0.7202766947420729 -0.22856303893491997
2580000000.0 -0.5611357283491893 -0.48415494157941186
2600000000.0 0.041585993400475404 0.7168320909126561
2620000000.0 0.542528773164887 -0.42306979689010443
2640000000.0 0.2870589122682931 -0.5851648135039067
2660000000.0 -0.5884258308063756 0.15027002443036797
2680000000.0 0.4552522798538821 0.3281114071667753
2700000000.0 -0.046492718162205585 -0.5114643888084628
2720000000.0 -0.25165192693519606 0.39166768523563184
2740000000.0 0.4004598842892458 -0.12879417393749562
2760000000.0 -0.38039139642143943 -0.016927672875467956
2780000000.0 0.34792371044429166 0.038744561087682455
2800000000.0 -0.31646999823147 0.07109593164434715
2820000000.0 0.033785731021573215 -0.3055088759727328
2840000000.0 0.24028973069397094 0.1723236411833894
2860000000.0 -0.25421570291468815 0.14372666349506502
2880000000.0 -0.011108610730546394 -0.2915202274031637
2900000000.0 0.17868371428157337 0.23313361677279498
2920000000.0 0.0008449911144666136 -0.2977931991885392
2940000000.0 -0.2896396480531042 0.08733697074760827
2960000000.0 -0.09482027870455959 0.29286458787738145
2980000000.0 -0.104880020615947 0.2942787522958556
3000000000.0 -0.24331893367874496 0.19864033142079068
3020000000.0 -0.260129498038448 -0.17587694713765042
3040000000.0 0.2735390336444291 -0.14756378530199232
3060000000.0 -0.19203092987387366 0.2427750725589609
3080000000.0 0.1586773707660575 -0.25947873066120575
3100000000.0 -0.16416869486891034 0.2493199182809707
3120000000.0 0.09960633108148406 -0.2751823440710702
3140000000.0 0.00644605979651968 0.2828707231976613
3160000000.0 -0.1904047767862371 -0.18904821756724205
3180000000.0 -0.02034083433392802 0.25179735873970394
3200000000.0 -0.2039201062417445 -0.10326968348743194
3220000000.0 0.08213270625163517 -0.18588059514643332
3240000000.0 0.14553125565003125 0.09278087351997946
3260000000.0 -0.12680732521516153 0.059889381061181586
3280000000.0 0.07746201833322158 -0.0758499642640084
3300000000.0 -0.015500966161668852 0.07571641552018953
3320000000.0 0.04794989171615319 -0.014631924432960136
3340000000.0 -0.02364828363084535 -0.011385538844608935
3360000000.0 -0.006796067833035022 0.0025367911244441156
3380000000.0 0.004788647817939386 -0.008762362600414474
3400000000.0 -0.02049018282117825 -0.012397018943660347
3420000000.0 0.03527015529679608 -0.006544344541935754
3440000000.0 -0.040294499256757266 -0.021711811150653893
3460000000.0 0.04326720698171884 -0.03315493684177317
3480000000.0 0.056000863918262325 0.03457986715610003
3500000000.0 0.02300449664169406 -0.07589831237854207
3520000000.0 -0.047483031993604485 -0.08031084802882335
3540000000.0 0.10210901425860079 0.03466867893070455
3560000000.0 -0.12239033705267055 -0.002819557108724584
3580000000.0 0.05456955902236202 -0.1253566846556815
3600000000.0 0.14269533139252039 0.0531914985728935
3620000000.0 0.0629554610084247 0.1506541029684402
3640000000.0 -0.12542772496493637 0.1205468857609377
3660000000.0 -0.18159017417220719 0.010745669747707572
3680000000.0 -0.12619161319473407 -0.13825367265559985
3700000000.0 -0.07503032125643488 -0.1720715888842553
3720000000.0 0.1276290651883983 -0.13687061643563872
3740000000.0 0.17839812790061513 -0.02929043139190954
3760000000.0 -0.17414534351860766 -0.008571334020077747
3780000000.0 0.1633602982098979 0.024560231338580353
3800000000.0 -0.0247817749143944 -0.15609540464579807
3820000000.0 -0.13923978724217234 -0.058264800568048544
3840000000.0 -0.11019920723977139 -0.09113704772500343
3860000000.0 0.14114324734026393 -0.022649853575440873
3880000000.0 0.14470773063377726 0.031911333125107105
3900000000.0 0.05826096524614019 -0.14356825184906669
3920000000.0 -0.06936070180533817 0.14403059379765898
3940000000.0 -0.04093582240934174 -0.159714321858271
3960000000.0 0.09143614972543264 -0.1439347891320623
3980000000.0 -0.09676435728823085 -0.14212045014971772
4000000000.0 -0.12157705690302252 -0.11491859219079684
