!Created with skrf (http://scikit-rf.org).
# Hz S RI R 50.0 
!freq ReS11 ImS11
400000000.0 -0.5408694888722821 0.6860576587410494
420000000.0 0.6305320844684196 0.5997353703591238
440000000.0 0.3714536612558639 -0.7501628330269433
460000000.0 -0.42738895483168104 -0.6552775442068952
480000000.0 0.6714295319532239 -0.21486758620784074
500000000.0 -0.2675651346512928 -0.5142205047580578
520000000.0 -0.4772031282294632 0.135465474435983
540000000.0 0.32945185795573856 -0.25091063021143034
560000000.0 -0.3686581217688849 0.020860187413982594
580000000.0 0.2878677116108739 0.17656385182967474
600000000.0 0.21166143399186202 -0.27777119856049115
620000000.0 0.05888330439981457 0.3541329897456903
640000000.0 0.33752689357507215 0.19144327594914562
660000000.0 0.20191851566797522 -0.34847225283369
680000000.0 0.3799808365214927 0.1926138727718437
700000000.0 -0.16361542229986492 -0.39931829436852356
720000000.0 -0.4256343116282883 0.021208928506202793
740000000.0 0.16969510703817733 -0.3802755739863477
760000000.0 -0.3847675924433774 -0.07820761069427633
780000000.0 0.24918352425304316 0.2590390417310879
800000000.0 0.09205842318178517 -0.3096451282370824
820000000.0 -0.2767735103735025 0.023420299682580654
840000000.0 -0.16671641625372494 0.17407946533818713
860000000.0 -0.1896714207217135 -0.07799059434741502
880000000.0 0.16023545248774532 0.023079922360436236
900000000.0 0.10652073673989247 -0.032454226094340455
920000000.0 -0.06544528858265532 0.03693736744553656
940000000.0 -0.041313391418818554 0.01861173198259223
960000000.0 -0.027004494386215286 -0.04073663073720169
980000000.0 0.044234787721927675 -0.050926985678636905
1000000000.0 -0.003408953414250117 -0.08507973889251465
1020000000.0 0.037330865566419014 -0.09837053720130327
1040000000.0 0.10103145965605816 -0.06355289402942886
1060000000.0 0.09862974038802656 0.11958690127369576
1080000000.0 0.022187075004358736 0.173217666512259
1100000000.0 -0.012887104728605188 -0.19944711065194037
1120000000.0 0.12573622505702875 0.1818400341504745
1140000000.0 0.1457250779428042 -0.20708143235700638
1160000000.0 -0.1832773349644342 -0.21367243959399304
1180000000.0 -0.03155298173865095 -0.31384518199448597
1200000000.0 0.27446442978913665 -0.20043538328629618
1220000000.0 -0.18876732439874455 0.31282135300655245
1240000000.0 0.3842485140472513 0.03322994410076911
1260000000.0 -0.1731964884458644 -0.3699747892548756
1280000000.0 -0.40753197278410785 0.12022544089968215
1300000000.0 0.3486836370615638 0.2620716763291079
1320000000.0 0.4230912151398765 0.11347696468750984
1340000000.0 0.43590325510592104 -0.04335103597002596
1360000000.0 0.4400532004963558 -0.02660526571335093
1380000000.0 0.24528241097726178 -0.3614543648633191
1400000000.0 -0.358246192015026 -0.2373105826369991
1420000000.0 0.005389248501097093 0.41044669438985065
1440000000.0 0.3828671307420782 -0.024600288783200187
1460000000.0 0.030308149563452697 -0.35140336040056364
1480000000.0 -0.3180035895448216 0.03560060896400471
1500000000.0 -0.15316963133018402 0.24246155486450802
1520000000.0 0.05739403729809005 0.2508973420019685
1540000000.0 -0.16265203184194788 -0.15961502166794875
1560000000.0 0.0748257408301186 -0.17927310686200723
1580000000.0 0.1553016792362904 0.06093512778223806
1600000000.0 0.06311045057936009 -0.11603854480854173
1620000000.0 -0.00620053241153363 -0.10359263093418224
1640000000.0 0.0631610386465262 0.04529046331949977
1660000000.0 -0.053724616103791735 0.007805352427680171
1680000000.0 0.028816963483856203 -0.021800390014189222
1700000000.0 0.019332524662563095 -0.011560491090809455
1720000000.0 -0.00013584917195258778 0.0069955013359797895
1740000000.0 0.0123309116731629 -0.008733608315701169
1760000000.0 0.007691039950196645 0.03236484399172986
1780000000.0 0.0012509619196790186 -0.061822065339796985
1800000000.0 0.0009093812118178119 0.09367816855091368
1820000000.0 0.0039022161398679285 0.12499159947923753
1840000000.0 0.0321398610398177 -0.16011923091875183
1860000000.0 -0.16726792619416267 0.11076877091407049
1880000000.0 0.22493384722816212 -0.08777071761563432
1900000000.0 -0.2724076218622663 0.08489373563570243
1920000000.0 0.26670714399662254 -0.17803963945674026
1940000000.0 -0.34603710902909607 0.07134402610127068
1960000000.0 0.3284445561956985 0.188736465507632
1980000000.0 -0.010030373172037227 -0.3969107560424985
2000000000.0 -0.3632362842160042 -0.1991155101288159
2020000000.0 -0.2449266671705957 0.34683198073150334
2040000000.0 0.04515754494706393 0.4292320833285178
2060000000.0 0.43181427674062806 0.0351118417578493
2080000000.0 0.2940099578684081 -0.3142750393331763
2100000000.0 0.035943553187275004 -0.42074110620920513
2120000000.0 -0.1842321434070971 -0.36991992640001486
2140000000.0 -0.23102121273934026 -0.3294335379998762
2160000000.0 0.0813550742897254 -0.37997201483214027
2180000000.0 -0.0642886304525139 -0.3692482676653753
2200000000.0 -0.30738518648242835 -0.1922267885610683
2220000000.0 -0.34410608461418474 0.0715255261996297
2240000000.0 -0.16072990984291194 0.30942644927112317
2260000000.0 0.016206126313787116 0.3464031661704289
2280000000.0 0.2103096713491628 0.28079635867038033
2300000000.0 0.3324507213102489 -0.14638751623542812
2320000000.0 -0.12129654050546167 -0.36571926426573703
2340000000.0 -0.39369343046251576 0.13560737739135206
2360000000.0 0.348133393687321 0.29570570825821074
2380000000.0 -0.22236242473155993 -0.4536324142465221
2400000000.0 0.30778134289221887 0.4635927908438767
2420000000.0 -0.5426205091617103 -0.27378839404755095
2440000000.0 0.6408661484281906 -0.137103553827382
2460000000.0 -0.39411740301847636 0.5729606964197106
2480000000.0 0.053511253095265464 -0.7246889210073079
2500000000.0 -0.09979229750166084 0.7413435701801666
2520000000.0 0.17271614248170578 -0.7394035521300749
2540000000.0 -0.43155945263257106 0.6269832802125128
2560000000.0 0.7348778203937604 -0.17675963769231007
2580000000.0 -0.581541152159184 -0.459595421208221
2600000000.0 0.017990807078078985 0.7181096160266149
2620000000.0 0.5654876660897001 -0.39271217319547763
2640000000.0 0.2705421928681763 -0.5940833061780334
2660000000.0 -0.5905146383331286 0.14412634693859463
2680000000.0 0.4553097339124302 0.32826587815767067
2700000000.0 -0.0803222070907245 -0.5079279496579956
2720000000.0 -0.2062422267571023 0.4178402666432641
2740000000.0 0.39961498438540954 -0.1330360706609823
2760000000.0 -0.381164796460499 -0.013839131154803654
2780000000.0 0.3499631339937614 0.02330725761792249
2800000000.0 -0.3115506692640001 0.0921195763126229
2820000000.0 0.03279262571143548 -0.30612987830404725
2840000000.0 0.22937634694040798 0.18796983942696874
2860000000.0 -0.2587810389324207 0.13628090284927594
2880000000.0 -0.019908237790959956 -0.29147837114062886
2900000000.0 0.15614490455849736 0.24922404468254208
2920000000.0 0.04308387424568914 -0.29484150062923375
2940000000.0 -0.2991650952065171 0.04665715115171891
2960000000.0 -0.09314348956217457 0.29245677540129994
2980000000.0 -0.11692088879159886 0.28883253257899
3000000000.0 -0.2690491285926122 0.16114565669095257
3020000000.0 -0.2570987487746641 -0.1798798488929187
3040000000.0 0.2836582451522889 -0.12670877379888562
3060000000.0 -0.2002061490409416 0.23490245006428387
3080000000.0 0.17283171370264758 -0.24980370991600137
3100000000.0 -0.18029518477944514 0.23785229285375822
3120000000.0 0.04208784110925501 -0.2899503742529732
3140000000.0 0.06774435591960984 0.2741172774855674
3160000000.0 -0.2111899260161214 -0.16490493988035132
3180000000.0 -0.003845566671806826 0.2524171820891613
3200000000.0 -0.22314113655340082 -0.05079711627338089
3220000000.0 0.03609818284264559 -0.20032139129381268
3240000000.0 0.15073858163915538 0.08632975094881716
3260000000.0 -0.12532507108235322 0.06346805772689348
3280000000.0 0.09363485922718796 -0.05498542188592515
3300000000.0 -0.05352992783386137 0.055606982052861194
3320000000.0 0.049341456566897736 -0.007544880117442652
3340000000.0 -0.01606072520454119 -0.020426419949297024
3360000000.0 0.0020960557345428696 -0.006225523846137421
3380000000.0 -0.006293978958863056 0.007672193395102901
3400000000.0 -0.023750560462146842 0.0004888777529798875
3420000000.0 0.020581284517440134 -0.02919834018708677
3440000000.0 -0.04285424082462684 -0.015704378497657146
3460000000.0 0.02227527308294978 -0.05020299874017287
3480000000.0 0.06571768837793766 0.003849173443651873
3500000000.0 0.0020415999814713103 -0.0800824116724176
3520000000.0 -0.07809274456486186 -0.05161804077028006
3540000000.0 0.10798277727500391 0.009259368370154017
3560000000.0 -0.1097518529024259 0.056396747387378425
3580000000.0 0.0405306292433383 -0.1311585059723543
3600000000.0 0.15180760707101754 0.021913972307180306
3620000000.0 0.09346054065521667 0.13553643309050825
3640000000.0 -0.12690476554387975 0.11997609995480459
3660000000.0 -0.18329896341737362 0.006939311299609408
3680000000.0 -0.12871265138767654 -0.13702348424270377
3700000000.0 -0.04880544627789919 -0.18214104653196958
3720000000.0 0.14103696343979275 -0.12300211641935896
3740000000.0 0.18140432550346194 0.0037879007741421695
3760000000.0 -0.1654453623375261 -0.05628217137558489
3780000000.0 0.15937969763706303 0.042898930604583996
3800000000.0 0.04478065949046672 -0.15127931497803243
3820000000.0 -0.11814695118710893 -0.09306955642743113
3840000000.0 -0.07613393899056915 -0.11949972655613365
3860000000.0 0.13852824870923158 0.03391175877731025
3880000000.0 0.11792255227970987 0.08934322881997571
3900000000.0 0.08217277867678775 -0.13136983688491635
3920000000.0 -0.12151851254549909 0.10328344981435111
3940000000.0 0.058504236415911126 -0.1543230446084378
3960000000.0 0.14075757975453831 -0.09568937445180713
3980000000.0 -0.009605384809790108 -0.17153040274683073
4000000000.0 -0.04920287674998231 -0.15879123687737498
