!Created with skrf (http://scikit-rf.org).
# Hz S RI R 50.0 
!freq ReS11 ImS11
400000000.0 -0.5607336419957282 0.6691183583176943
420000000.0 0.6239823575196329 0.6064113117923245
440000000.0 0.36485755803250863 -0.7528975116592219
460000000.0 -0.521827348802734 -0.5822871413125756
480000000.0 0.6549516029699374 -0.25968336368174144
500000000.0 -0.28952776181533757 -0.5021860638254948
520000000.0 -0.4660208327575801 0.168269793428263
540000000.0 0.3390987237803645 -0.23674678609055133
560000000.0 -0.3690706926685537 -0.0017675052864171898
580000000.0 0.3093557001357159 0.13879369301061206
600000000.0 0.18599241291276203 -0.2959144973286621
620000000.0 -0.0037367669562353525 0.36007866207455536
640000000.0 0.29719288928480625 0.2518635911100983
660000000.0 0.26271741626584744 -0.30657163701798323
680000000.0 0.3660376769141256 0.21785682944832113
700000000.0 -0.07552181650418065 -0.42563307544457135
720000000.0 -0.42426463005751675 -0.036404425313661205
740000000.0 0.2282721137046729 -0.3480401700699295
760000000.0 -0.37976467907128286 -0.09613879692375095
780000000.0 0.25098589676635397 0.2565119368790816
800000000.0 0.08102132888300993 -0.31207778033180844
820000000.0 -0.26849276050913407 0.06962313409226989
840000000.0 -0.10720171089788964 0.21507613351772403
860000000.0 -0.2043702194613276 0.013858028585824285
880000000.0 0.1410976598825816 -0.0817690318102015
900000000.0 0.04869697484399798 -0.10254860091082847
920000000.0 -0.0663806168248696 0.039551968922702324
940000000.0 -0.019105652423548985 -0.042124913258948044
960000000.0 0.04812729521002858 -0.0050756451288113775
980000000.0 0.05609181167648133 0.03473091734778694
1000000000.0 0.02148808290027723 -0.08019796453635512
1020000000.0 -0.003915390641580279 -0.10314882514496419
1040000000.0 -0.008772795974309732 -0.11772309969613776
1060000000.0 0.15455031925688548 0.00687716207703037
1080000000.0 0.11630869506479405 0.13237334909523715
1100000000.0 -0.12107127978069389 -0.16181166149411225
1120000000.0 0.17564023238952373 0.1392262443988702
1140000000.0 0.13326809519380256 -0.21958800389723712
1160000000.0 -0.10287534674490029 -0.26548002868642506
1180000000.0 0.061243133263384486 -0.31286202865601714
1200000000.0 0.3367077241856555 -0.06127744327119134
1220000000.0 -0.31506750040229164 0.18812822396410353
1240000000.0 0.3292021966120179 0.2023683889951395
1260000000.0 -0.010081377005742728 -0.4082724143667539
1280000000.0 -0.4244141691749611 -0.002430557486333404
1300000000.0 0.2552406749829114 0.35238124053282166
1320000000.0 0.3935137360775894 0.18955140948006227
1340000000.0 0.43670802445090734 0.0044085127742605045
1360000000.0 0.4383218051951393 -0.027575200625961305
1380000000.0 0.1981430411022572 -0.3877686533219362
1400000000.0 -0.3948506330779819 -0.16663393053696712
1420000000.0 0.08689327842780115 0.4007236634884199
1440000000.0 0.36627530870063046 -0.11394943247099527
1460000000.0 -0.07831465343457453 -0.34469783992539876
1480000000.0 -0.3054647044195708 0.09981715625488133
1500000000.0 -0.05047152573367729 0.28408182371109997
1520000000.0 0.14722390381023806 0.21368779321147385
1540000000.0 -0.19033097396335205 -0.13034185176947552
1560000000.0 0.07091346161934386 -0.18391785909073818
1580000000.0 0.15513605082848583 0.06732986630152683
1600000000.0 0.12386143661156246 -0.052046793666878276
1620000000.0 0.09453753059916281 -0.046295918648466716
1640000000.0 -0.027582392522883626 0.07317424333178321
1660000000.0 -0.00484209214781664 -0.053858056391592
1680000000.0 -0.034605385301233055 0.00088606755350792
1700000000.0 -0.018287682172162586 -0.010560840423228359
1720000000.0 0.005348136365971639 -0.0028966742410002503
1740000000.0 0.013424639581405641 -0.009512058414645794
1760000000.0 0.006898190658566798 -0.033115395651568444
1780000000.0 0.05845429777902701 0.020940176154270348
1800000000.0 -0.0837823625836196 0.04157768418179544
1820000000.0 -0.09181970082384393 0.08365368997881453
1840000000.0 0.09160594198164587 -0.13375071424409793
1860000000.0 -0.18773996609509183 0.0672042472230634
1880000000.0 0.22152633006502204 -0.09171938983791265
1900000000.0 -0.26563558886623 0.10002901383463418
1920000000.0 0.23974114563996604 -0.21140497390780394
1940000000.0 -0.32951374344117956 0.12702985236717718
1960000000.0 0.3531594448341426 0.13706126673410524
1980000000.0 -0.07282665908462496 -0.39047203658194646
2000000000.0 -0.38491603361236915 -0.15502036256703486
2020000000.0 -0.2363620936518793 0.35434338149478195
2040000000.0 0.11062888917606405 0.41863895912327026
2060000000.0 0.4314994379648415 0.053204881745346766
2080000000.0 0.33353755749111497 -0.2745203309305183
2100000000.0 0.07219268545014225 -0.41802688217974154
2120000000.0 -0.08726543711057534 -0.40571890503959007
2140000000.0 -0.21500357664578387 -0.34146230988991333
2160000000.0 0.1997631726224017 -0.33401870742264106
2180000000.0 0.046539628164827776 -0.37274129329391886
2200000000.0 -0.24272674110565037 -0.27012247525477256
2220000000.0 -0.34915175782195323 -0.04758658686904999
2240000000.0 -0.20942878403245171 0.27704122571104245
2260000000.0 -0.005729033375114035 0.3464040595743376
2280000000.0 0.1956935410123948 0.29008322811578013
2300000000.0 0.3305029439825337 -0.14900145417693364
2320000000.0 -0.11435179440100769 -0.36759764279314966
2340000000.0 -0.38120731975423333 0.16745671517954092
2360000000.0 0.38256053553841546 0.24926198705590671
2380000000.0 -0.2799833907762604 -0.4211661449003194
2400000000.0 0.3831844165296564 0.4043580420163873
2420000000.0 -0.5892615386138702 -0.15354782883291165
2440000000.0 0.6160641728557724 -0.22807502538474506
2460000000.0 -0.32220109718078316 0.6183341154045607
2480000000.0 0.0035895521250302732 -0.7287687219287345
2500000000.0 -0.02569370282611435 0.7493766779616224
2520000000.0 0.18034372608739382 -0.7390092620982079
2540000000.0 -0.40078547634479855 0.6488136608823583
2560000000.0 0.7349847411973285 -0.18294146849757842
2580000000.0 -0.5657242107060954 -0.4809252711228547
2600000000.0 -0.008860218392786879 0.7187347059885649
2620000000.0 0.5459573864959835 -0.418531414332354
2640000000.0 0.29958077102375813 -0.5780607977388715
2660000000.0 -0.5893229135166606 0.14052915492510348
2680000000.0 0.4571574232321529 0.3221982810738092
2700000000.0 -0.09273849767843474 -0.50376130721427
2720000000.0 -0.1973419831047703 0.41990006924101314
2740000000.0 0.38744444952385143 -0.15905081973665222
2760000000.0 -0.37840755869551196 0.022902480382588422
2780000000.0 0.34818526025701807 -0.02017053331467921
2800000000.0 -0.2764912166812054 0.16789981582711724
2820000000.0 -0.04949368778946601 -0.30300876689814293
2840000000.0 0.27177481658707076 0.11765320726765344
2860000000.0 -0.2082955157440752 0.20484556961872985
2880000000.0 -0.06100770379581557 -0.28631976606402876
2900000000.0 0.18480414170300097 0.22990776791667356
2920000000.0 -0.004913545221515213 -0.29893776556501533
2940000000.0 -0.2962757662191505 0.0688900769615965
2960000000.0 -0.1260595099029784 0.28163094193066707
2980000000.0 -0.17550280450099304 0.25896944697284413
3000000000.0 -0.30195199792616967 0.08995792095854996
3020000000.0 -0.2181086349383365 -0.22736749750296859
3040000000.0 0.30666417716188576 -0.05567680459944486
3060000000.0 -0.27137790992775757 0.1474224188182001
3080000000.0 0.23232569989629176 -0.19611916569080098
3100000000.0 -0.2081614152180007 0.21300134501352558
3120000000.0 0.08981541935912996 -0.2776906397516509
3140000000.0 -0.03575742835569274 0.27938914734885906
3160000000.0 -0.16887168190108062 -0.20749290651041336
3180000000.0 -0.04246952925569931 0.24775999141756194
3200000000.0 -0.2060117838485489 -0.09675492274266026
3220000000.0 0.08944907711188514 -0.18086740823823697
3240000000.0 0.14384456178120875 0.09482054041112396
3260000000.0 -0.10979447732534378 0.08582704563347723
3280000000.0 0.07353110137203303 -0.0785101356784399
3300000000.0 0.001141279553869944 0.0768677221890311
3320000000.0 0.0053614964429864066 -0.04938640648681117
3340000000.0 -0.003100408733764035 0.02583819444706821
3360000000.0 -0.003982179659791244 -0.006363273948379415
3380000000.0 -0.006835748693901334 -0.007521715894979105
3400000000.0 -0.010988767293655343 -0.0213313767420219
3420000000.0 0.024577722342455005 0.026422569572785094
3440000000.0 -0.015407078296558421 -0.042707894472940655
3460000000.0 0.04021961120444724 -0.0366236932134772
3480000000.0 0.013217728806557645 0.06413723030697933
3500000000.0 0.06697238082783781 -0.043173212612812255
3520000000.0 -0.0509623917827028 -0.07830461321613412
3540000000.0 0.0906816014684973 0.05887034662740336
3560000000.0 -0.12163852542803309 -0.022231013474313485
3580000000.0 0.13597470812981435 -0.002903719812880623
3600000000.0 0.10028545088189862 0.11494314449886883
3620000000.0 -0.0047839803382330025 0.16382994389715394
3640000000.0 -0.154667745973636 0.07827057150589585
3660000000.0 -0.16443925185110314 -0.07866404980992327
3680000000.0 -0.09233466628905293 -0.16264507607367196
3700000000.0 -0.011627697867844124 -0.18692044787034284
3720000000.0 0.15156213744219837 -0.1073453707630354
3740000000.0 0.17738569492440368 0.03188434068806651
3760000000.0 -0.16432735237631055 -0.056962176420232595
3780000000.0 0.15680372508044155 0.047640394902089815
3800000000.0 0.0213579792507915 -0.1559948792044693
3820000000.0 -0.1351407934353342 -0.06341143797132331
3840000000.0 -0.07384598521290972 -0.1217520819267296
3860000000.0 0.14180352231398005 0.012570876506324328
3880000000.0 0.1435042641623536 0.032511893059640966
3900000000.0 0.0761249769500844 -0.13457924109468253
3920000000.0 -0.07877642744338205 0.13834607922572917
3940000000.0 -0.0021613095939086286 -0.16437884781965725
3960000000.0 0.12730299193713662 -0.11271697097200566
3980000000.0 -0.061115320893208404 -0.15948328110643945
4000000000.0 -0.13193186233511706 -0.10099063133265024
