!Created with skrf (http://scikit-rf.org).
# Hz S RI R 50.0 
!freq ReS11 ImS11
400000000.0 -0.592997801720241 0.6426799351580693
420000000.0 0.6106360220638022 0.6205719806276092
440000000.0 0.37118233776946974 -0.7504420492710904
460000000.0 -0.45399535215875053 -0.6368297950472842
480000000.0 0.6711043237628755 -0.2168999259106701
500000000.0 -0.28065025785752595 -0.5078139875477264
520000000.0 -0.4752017740003902 0.14117310813373454
540000000.0 0.3592045645403609 -0.2069011091651324
560000000.0 -0.36874755749899796 0.02341627459720035
580000000.0 0.3033740973657443 0.14895507631834853
600000000.0 0.22570775097025197 -0.2652622758242123
620000000.0 0.04521711877038457 0.3556089475855821
640000000.0 0.31567179721011857 0.22556099738122362
660000000.0 0.2171919794460997 -0.3393170822182972
680000000.0 0.38674557102999596 0.17534778731225437
700000000.0 -0.13503617229946258 -0.41053211418832053
720000000.0 -0.42556046944292064 0.02249415567535574
740000000.0 0.1997904292250195 -0.3652224331027503
760000000.0 -0.38391217995472127 -0.07981854227589685
780000000.0 0.23778399980085668 0.2705556477149905
800000000.0 0.13012773175416933 -0.2955176447769601
820000000.0 -0.2774732315403898 0.017339930595852787
840000000.0 -0.15818935983997218 0.18117237605343608
860000000.0 -0.18838441663085004 -0.07998817470687512
880000000.0 0.16202475783360215 -0.0019544208292555636
900000000.0 0.10367161985809639 -0.0408393976078535
920000000.0 -0.06757453017445689 0.03255920228587103
940000000.0 -0.018428095402058572 0.04074509820036464
960000000.0 -0.04877628092131993 -0.008496316964271155
980000000.0 0.04775328069203886 -0.04824235174691645
1000000000.0 0.018703805699854702 -0.08331147925772407
1020000000.0 0.06006404636806874 -0.08647709724432419
1040000000.0 0.09182834065940983 -0.07606883950068324
1060000000.0 0.07554463139810269 0.1350960372143468
1080000000.0 -0.013506444983754085 0.17429082639798837
1100000000.0 -0.04179641444655752 -0.1953847355601779
1120000000.0 0.13081971575619394 0.17843305258222023
1140000000.0 0.13334508595349737 -0.21537086604586916
1160000000.0 -0.14876724370615996 -0.238853657314196
1180000000.0 -0.04923516632697924 -0.3121411233117587
1200000000.0 0.27956246544150576 -0.1940304805381092
1220000000.0 -0.20753950897388465 0.30069401825687636
1240000000.0 0.38037059513680105 0.062280534087074096
1260000000.0 -0.15596454042288393 -0.37729283096635835
1280000000.0 -0.40594649726532267 0.12529771927855912
1300000000.0 0.3334260184075385 0.2810411936600334
1320000000.0 0.42291097070228334 0.114012435648394
1340000000.0 0.4367723568812696 -0.03378975094992173
1360000000.0 0.4408355808811037 -0.01426180917367451
1380000000.0 0.2461812155199067 -0.36100020629519786
1400000000.0 -0.36239108245687884 -0.23091745252760687
1420000000.0 -0.005594198313213089 0.4105418563104534
1440000000.0 0.3836842043906002 0.0029663405763581314
1460000000.0 0.0424100324452942 -0.3504175644436357
1480000000.0 -0.32048940752622634 0.000350394084541506
1500000000.0 -0.16087818875250193 0.23768113605837005
1520000000.0 0.042324847504304514 0.2538980528319387
1540000000.0 -0.14338725810154923 -0.17774158548953528
1560000000.0 0.11724107118264589 -0.15532084374030575
1580000000.0 0.14179407236352662 0.08757197821490774
1600000000.0 0.11050311608111407 -0.0730073924772039
1620000000.0 0.05103076594029817 -0.0903143266812507
1640000000.0 0.0389615656326368 0.06704777338413483
1660000000.0 -0.05286815338289337 -0.01094343474625593
1680000000.0 0.03461893878664994 -0.005917636453448157
1700000000.0 0.0184500160290116 0.011223507318683084
1720000000.0 0.005799637642976794 -0.0014209490255134157
1740000000.0 -0.00032085533299301683 -0.01537339244969605
1760000000.0 -0.030142767043757224 -0.013482762201763131
1780000000.0 0.05185977989521672 -0.032938402771003794
1800000000.0 -0.06638627573147399 0.06526542543695536
1820000000.0 -0.06586989763792225 0.1055542085511311
1840000000.0 0.08409025415071225 -0.1388668947927161
1860000000.0 -0.18674822031797456 0.0705597398951116
1880000000.0 0.23108513715940543 -0.0660034097950435
1900000000.0 -0.2714779941079948 0.08501190895208553
1920000000.0 0.26413930636597815 -0.1803268150865272
1940000000.0 -0.34087474823200953 0.09017169052888796
1960000000.0 0.3420490950036617 0.1616328864274904
1980000000.0 -0.054350887655112916 -0.3928665562462501
2000000000.0 -0.38231334729767175 -0.15923268442525682
2020000000.0 -0.2287634213072431 0.3582577391540581
2040000000.0 0.10606762667567483 0.4190704599884048
2060000000.0 0.43113526408009056 0.04979897004436919
2080000000.0 0.3071933801669258 -0.30311977612743324
2100000000.0 0.04758422999433402 -0.4211643836637388
2120000000.0 -0.11543729148629671 -0.3986471835346285
2140000000.0 -0.22161054799863544 -0.3378147536762823
2160000000.0 0.1878107987598115 -0.34239177231618056
2180000000.0 0.04681823555339549 -0.3741741284500949
2200000000.0 -0.22647617060835643 -0.28651602376937524
2220000000.0 -0.3463756062997894 -0.07188239458109114
2240000000.0 -0.2655351443642148 0.22747957930696164
2260000000.0 -0.12299201251765393 0.3257418990102316
2280000000.0 0.08619482210421034 0.34124843157555973
2300000000.0 0.364129990651517 -0.005619706195959921
2320000000.0 0.029308492623758356 -0.38477693030079796
2340000000.0 -0.41270632079614106 -0.05430456395370536
2360000000.0 0.24635217521614824 0.3843128450445482
2380000000.0 -0.10185303789253533 -0.49492795611544
2400000000.0 0.21538609025174224 0.5127549937450505
2420000000.0 -0.49669525331782377 -0.34999057054586485
2440000000.0 0.6504166383534782 -0.08145807183673419
2460000000.0 -0.44536774122614864 0.5345130975453734
2480000000.0 0.14199057824854375 -0.7136743619492182
2500000000.0 -0.05125886264152213 0.7467312777616012
2520000000.0 0.20526656446807912 -0.7320063299274892
2540000000.0 -0.5299143444777359 0.5496824383141217
2560000000.0 0.7449230446382699 -0.14189295828922088
2580000000.0 -0.5178407637291279 -0.5356140300905472
2600000000.0 -0.06222160642632303 0.7192049008191651
2620000000.0 0.5881347805548643 -0.3659209996477801
2640000000.0 0.2815103561903166 -0.5939812687092454
2660000000.0 -0.6045185156873895 0.10224865462225374
2680000000.0 0.4210726882448562 0.37950547622688385
2700000000.0 -0.04466998488775063 -0.5171515580795168
2720000000.0 -0.239104718615231 0.40569834066877375
2740000000.0 0.41236865082997043 -0.10684801644303439
2760000000.0 -0.37992055119861284 -0.06668588892089061
2780000000.0 0.3433144915667271 0.08850890990718102
2800000000.0 -0.32661166657574775 0.03205309965528845
2820000000.0 0.11095823877860833 -0.2901755167921214
2840000000.0 0.1463036298268475 0.2602785289204995
2860000000.0 -0.2883528362486507 0.055809666817528775
2880000000.0 0.083716020353688 -0.2808324499831857
2900000000.0 0.08686842388040511 0.2813992909995549
2920000000.0 0.0858776070581748 -0.2857721228977786
2940000000.0 -0.3010897661534071 0.03216133395359939
2960000000.0 -0.08817537248701637 0.29440793293218076
2980000000.0 -0.040514848460407274 0.30959130133740204
3000000000.0 -0.18841124970044157 0.25073309869369703
3020000000.0 -0.2998806360360188 -0.09422412150975196
3040000000.0 0.19075220121662992 -0.24582421066310445
3060000000.0 -0.07216409597046324 0.3008677552158114
3080000000.0 -0.025377322273610923 -0.3040684191381037
3100000000.0 0.05289406200996306 0.29544347009527255
3120000000.0 -0.09418181254422722 -0.27909887716753
3140000000.0 0.22326946603693515 0.1770281526794859
3160000000.0 -0.2703949159718632 0.013825691530529536
3180000000.0 0.1415082939299676 0.21196171022264307
3200000000.0 -0.21904591213374663 0.07760612208270212
3220000000.0 -0.0866385465497422 -0.18769495306572506
3240000000.0 0.17765539887707146 -0.004068418384446137
3260000000.0 -0.09751725558459456 0.10737657293063789
3280000000.0 0.08447131927097708 -0.07500737522451362
3300000000.0 -0.0768485588063482 0.029801329926763098
3320000000.0 0.031061615600801944 0.04527719599142133
3340000000.0 0.030176891138152206 0.004573043092907611
3360000000.0 -0.004030392074603163 0.010340268197097794
3380000000.0 -0.0030031297995016873 -0.0044225184954370675
3400000000.0 -0.014659857270892238 -0.013393771291246805
3420000000.0 -0.019314460935617013 0.02579882460187333
3440000000.0 0.034502420220511344 0.024319521025975854
3460000000.0 -0.04955246549558561 -0.01280278674234459
3480000000.0 0.029832119132198978 -0.0546281788785603
3500000000.0 -0.054493175462787036 -0.05390758751712256
3520000000.0 -0.07447439375353399 0.052180285023782004
3540000000.0 0.06647486564632918 -0.08215605196127909
3560000000.0 -0.022754219397289107 0.11878413893279553
3580000000.0 -0.02972359101697464 -0.13132353790469878
3600000000.0 0.11482006987389749 -0.09841915272541664
3620000000.0 0.14949041334412894 0.06414454986853009
3640000000.0 -0.03819487575848045 0.16873565782373154
3660000000.0 -0.16130497376504838 0.08534298030074877
3680000000.0 -0.17873998717981904 -0.05560011009668723
3700000000.0 -0.13014275772066777 -0.13610701189798907
3720000000.0 0.026414066760434386 -0.18468808912760673
3740000000.0 0.1582059578201952 -0.0898211957558621
3760000000.0 -0.17072179967646792 0.04181891062399356
3780000000.0 0.16596562239666673 -0.004764889941181393
3800000000.0 -0.010231612227116917 -0.15915835758042374
3820000000.0 -0.1465771436632748 -0.03860608249074215
3840000000.0 -0.10077145065898689 -0.1040860992170623
3860000000.0 0.14356627829700408 0.017477188710719935
3880000000.0 0.12968710950381543 0.07617321344435378
3900000000.0 0.10115598207442825 -0.12130923694572222
3920000000.0 -0.12987705658115187 0.09660914383842822
3940000000.0 0.07777786936530254 -0.14787527526120553
3960000000.0 0.17199845866142213 -0.011727114188579475
3980000000.0 0.1468953386621917 -0.09286904837093764
4000000000.0 0.1332706763960365 -0.10217560585744755
