!Created with skrf (http://scikit-rf.org).
# Hz S RI R 50.0 
!freq ReS11 ImS11
400000000.0 -0.6067176060521609 0.6261330143670394
420000000.0 0.6432954202176729 0.5848922204615137
440000000.0 0.3239904281462051 -0.7709425512491701
460000000.0 -0.4838648481493797 -0.61369456469897
480000000.0 0.6754324674982789 -0.20281387485106633
500000000.0 -0.303361619099873 -0.49483891226037413
520000000.0 -0.467848307800847 0.16203820083065112
540000000.0 0.3609844470317891 -0.20138148747496398
560000000.0 -0.3693318288221309 0.022595601841924776
580000000.0 0.3295771226546846 0.07845807025779554
600000000.0 0.16376759758738152 -0.3082990337502762
620000000.0 -0.028801128132651767 0.3583957063681574
640000000.0 0.3028117244091362 0.24526850103123318
660000000.0 0.22207414605491166 -0.3375625533095674
680000000.0 0.3647402059202348 0.21827320490778304
700000000.0 -0.020925755549238114 -0.43199813701793893
720000000.0 -0.42593245336347507 -0.018719221881534413
740000000.0 0.23638847098285723 -0.34253235350781713
760000000.0 -0.37740797452600483 -0.103825654010279
780000000.0 0.23410958689769537 0.2725923986146253
800000000.0 0.10642749802174324 -0.3040161902409152
820000000.0 -0.26888921495209506 0.06793831599059519
840000000.0 -0.10752747079218607 0.21468883334073965
860000000.0 -0.20470840506406207 0.0010786667617778327
880000000.0 0.1489106314730801 -0.06637524282197613
900000000.0 0.07926551456562585 -0.08079923700269706
920000000.0 -0.06701205814006984 0.03811999172239297
940000000.0 -0.019243968081247734 -0.04202220319855466
960000000.0 0.045806185297713464 -0.016000037142656156
980000000.0 0.06488092564296755 0.01132749314530959
1000000000.0 0.0024890863319484103 -0.08334157313699718
1020000000.0 -0.021290291799675416 -0.10144415866311297
1040000000.0 -0.010274043723207013 -0.11815767282910263
1060000000.0 0.15434463997536768 0.01613879281651238
1080000000.0 0.08608655352589334 0.15416890457749324
1100000000.0 -0.08787224536011476 -0.1823262558017448
1120000000.0 0.1378704801592847 0.1768345957805556
1140000000.0 0.17155026593065975 -0.19072538762433353
1160000000.0 -0.05604976819484261 -0.27899974874891403
1180000000.0 0.0977986616125294 -0.30300541905949685
1200000000.0 0.3387800504979517 -0.04450022330352577
1220000000.0 -0.314803640946062 0.186989492809556
1240000000.0 0.3315842989955413 0.19744302309115852
1260000000.0 -0.023824349739149913 -0.4072319787849316
1280000000.0 -0.42401087590989056 -0.00537068478523234
1300000000.0 0.2744584045808805 0.33739322787764797
1320000000.0 0.4045335618833569 0.16449742905939935
1340000000.0 0.4363086684064432 -0.014549537777722691
1360000000.0 0.4385005291626717 -0.030328943542698793
1380000000.0 0.19848826541428866 -0.3881534565174142
1400000000.0 -0.3915490089492278 -0.1759156862666477
1420000000.0 0.082673499612719 0.40225810461475736
1440000000.0 0.37290388439716177 -0.09220014028262442
1460000000.0 -0.04347447030493564 -0.35101928498283286
1480000000.0 -0.3129366085537084 0.07544750697742546
1500000000.0 -0.07786523858992177 0.27851997514440024
1520000000.0 0.07468391534981374 0.24916136913567502
1540000000.0 -0.15631249150485338 -0.1698830488930049
1560000000.0 0.13466280006369352 -0.14438512825684394
1580000000.0 0.09906840028533595 0.1367305731163175
1600000000.0 0.13364326947027982 0.007646728084255311
1620000000.0 0.10396044874601568 0.010125866401570982
1640000000.0 -0.04255733119219066 0.06459868777193058
1660000000.0 0.0029716310254977447 -0.05304313390084525
1680000000.0 -0.031160092346472712 0.011816784337499017
1700000000.0 -0.009912897714144124 0.017432212952223716
1720000000.0 0.001685672190490902 -0.004877515138914618
1740000000.0 -0.006742309342911201 -0.01460801847629701
1760000000.0 0.030768828168129123 0.012607543190187726
1780000000.0 0.02426267768890864 0.056264067571990886
1800000000.0 -0.08782999362354248 -0.026547760206574178
1820000000.0 -0.10981975394732307 0.055321004311478274
1840000000.0 0.11152794523161735 -0.11572705098353656
1860000000.0 -0.18775819610815558 0.062362632120947524
1880000000.0 0.22114032526581628 -0.0897164154858866
1900000000.0 -0.2567724777334745 0.11931034170050414
1920000000.0 0.2220146397485275 -0.22893928873637073
1940000000.0 -0.31746665160896054 0.15288538298456725
1960000000.0 0.3684568141657769 0.0873884708354956
1980000000.0 -0.11796440791325247 -0.3796337046453904
2000000000.0 -0.39686491988389444 -0.12184513939722126
2020000000.0 -0.19763983916884795 0.3781138761452424
2040000000.0 0.12295228923497913 0.4161783362686297
2060000000.0 0.43378311904466493 0.043516641602393095
2080000000.0 0.35037078053066323 -0.256055072422132
2100000000.0 0.16495835503836395 -0.3924744960416126
2120000000.0 -0.08070356947043412 -0.4081651886893727
2140000000.0 -0.11042793717349424 -0.38935062834914935
2160000000.0 0.25433456139733573 -0.2966326848813087
2180000000.0 0.1317289795793978 -0.3532068172056455
2200000000.0 -0.10326703606594813 -0.3493606201303393
2220000000.0 -0.33236827300983357 -0.11890823538664452
2240000000.0 -0.3035012412877982 0.16965528124484056
2260000000.0 -0.15168673245392297 0.3114965028125253
2280000000.0 0.071322503205778 0.3430796514845441
2300000000.0 0.36131090813006583 -0.029784915428987518
2320000000.0 0.009855097986689536 -0.38424249558863316
2340000000.0 -0.4150162781286115 0.021454872591329634
2360000000.0 0.2966236012117567 0.34635160745562776
2380000000.0 -0.17949505543010638 -0.47257799457351657
2400000000.0 0.25466962632053736 0.49466931849336526
2420000000.0 -0.535984117994107 -0.28849523968501584
2440000000.0 0.6501085907706802 -0.09466440785212646
2460000000.0 -0.442996199093955 0.5385229841117807
2480000000.0 0.13734346281133136 -0.7159123921096382
2500000000.0 -0.10037778450852437 0.7429215907049745
2520000000.0 0.2558566350506724 -0.7169286076481433
2540000000.0 -0.5462017033772473 0.533603047208392
2560000000.0 0.7590344819686791 -0.0004784693580186024
2580000000.0 -0.4299104948995316 -0.6080071685347841
2600000000.0 -0.1951317261517441 0.6943128092496423
2620000000.0 0.6539888289480587 -0.22464662879848143
2640000000.0 0.41352229273423485 -0.5079482110582545
2660000000.0 -0.609533530481309 0.029747671384031067
2680000000.0 0.3782220937935726 0.41877376930231397
2700000000.0 -0.01653929294998461 -0.5162603670592274
2720000000.0 -0.2395267139274772 0.40268084609147453
2740000000.0 0.39756739802942054 -0.14743724219887894
2760000000.0 -0.3843676527301046 0.011555993690597996
2780000000.0 0.3535270466183745 0.016060845083991748
2800000000.0 -0.3092699283084369 0.10922634166517504
2820000000.0 0.039706292305876106 -0.3085570289477003
2840000000.0 0.20602333682767315 0.21830093940815679
2860000000.0 -0.2878562765414397 0.06833447305357823
2880000000.0 0.06340855710707566 -0.2884932270693027
2900000000.0 0.05584286897619096 0.2918464162296883
2920000000.0 0.13781539599128637 -0.26666333683948396
2940000000.0 -0.2965768248835575 -0.07063818142495742
2960000000.0 -0.24738877729869904 0.1856441958813352
2980000000.0 -0.23849040926045678 0.20302244043664644
3000000000.0 -0.31032265364453976 0.05478292765517344
3020000000.0 -0.14438771528168978 -0.2801169190668816
3040000000.0 0.31026269183984334 -0.031142575878279892
3060000000.0 -0.2664952065143389 0.15677328603231172
3080000000.0 0.22426583243878775 -0.20423188522272878
3100000000.0 -0.24163541719062204 0.17395420599868555
3120000000.0 0.10507505220654505 -0.272857043262148
3140000000.0 0.05376799149414065 0.2765633072320997
3160000000.0 -0.22665593533124018 -0.1415803860747537
3180000000.0 0.05000333925759586 0.24635547599309768
3200000000.0 -0.2261567878965647 0.03210378091357136
3220000000.0 -0.07553174330411508 -0.18825935911849317
3240000000.0 0.17250576592756667 -0.017813760996138857
3260000000.0 -0.021977652373831005 0.13940407426921547
3280000000.0 -0.05713479908993323 -0.09383104028053309
3300000000.0 0.07287528153931007 0.03131768659474665
3320000000.0 -0.04614333760880178 -0.023986299913668074
3340000000.0 0.012810370256892622 -0.02556604785327778
3360000000.0 -0.0030558627792033922 -0.010249495306570471
3380000000.0 -0.008355159676131449 -0.0027477494235099023
3400000000.0 -0.02152303263497926 -0.0016005377601456337
3420000000.0 -0.03245321491613419 -0.00933618574269363
3440000000.0 0.038120772864334025 0.021173404629362923
3460000000.0 -0.024416892601186384 0.04670858689275714
3480000000.0 -0.03852427379374682 0.0511518638409833
3500000000.0 0.06855364502594466 0.03802055647791883
3520000000.0 0.007362796303330685 -0.09252326756378615
3540000000.0 0.06689167577046516 0.0856539237852582
3560000000.0 -0.08435482232931617 -0.08908224874069368
3580000000.0 0.13674421530487357 -0.0015590111325930345
3600000000.0 0.08673340095264465 0.12579005804257432
3620000000.0 -0.0042338333825206855 0.1638949531599552
3640000000.0 -0.16441574248154986 0.05638013025051166
3660000000.0 -0.16644298212011724 -0.07724585567041577
3680000000.0 -0.03772481067396483 -0.18409922549731175
3700000000.0 0.0019189774926610863 -0.18905057211609813
3720000000.0 0.15190292706722525 -0.10951911131875348
3740000000.0 0.1818109126684862 -0.00795918038548509
3760000000.0 -0.1698366232038198 -0.04619387919425855
3780000000.0 0.16185475565464869 0.0371293365074426
3800000000.0 0.029562923782812323 -0.15662428529133493
3820000000.0 -0.12442207601115182 -0.08690021383298284
3840000000.0 -0.09906181244050306 -0.10436223866336362
3860000000.0 0.139357991291941 0.039379903869492375
3880000000.0 0.132314845547786 0.06973357942715751
3900000000.0 0.09173958884611516 -0.12739100530260156
3920000000.0 -0.12955681799788007 0.09567428877151214
3940000000.0 0.09024975269605598 -0.14006415630209137
3960000000.0 0.15991528448177192 -0.059451696779729196
3980000000.0 0.07408732919027633 -0.15523451049232917
4000000000.0 0.04325063634914362 -0.1596755310028063
