!Created with skrf (http://scikit-rf.org).
# Hz S RI R 50.0 
!freq ReS11 ImS11
400000000.0 -0.5369010946560074 0.6896208288938362
420000000.0 0.6414264309879538 0.5887283727906618
440000000.0 0.3518530667911529 -0.7596729636889635
460000000.0 -0.5029362724651297 -0.5995472994033973
480000000.0 0.6617399447056986 -0.24287059850253495
500000000.0 -0.30035256654554454 -0.4965186340587203
520000000.0 -0.46690391572189427 0.16585450963123446
540000000.0 0.3483697113981909 -0.2236065069178092
560000000.0 -0.3683498902073127 -0.024235785411611387
580000000.0 0.27280109167491057 0.1996030592719998
600000000.0 0.2575570516304589 -0.23502127919931345
620000000.0 0.06713265615065904 0.35262082795271976
640000000.0 0.3232797868299389 0.21484884601125623
660000000.0 0.16332059325285664 -0.36776805745489777
680000000.0 0.40515758305598454 0.12865674356977144
700000000.0 -0.1689471343340133 -0.39805430203455605
720000000.0 -0.4237848629377352 0.050298280254082416
740000000.0 0.17017977801770298 -0.3807739900496896
760000000.0 -0.3809907082501479 -0.09350999069770721
780000000.0 0.2488445614595609 0.259430762150407
800000000.0 0.10466156999932173 -0.30556998817335557
820000000.0 -0.2751953411435453 0.038434413470087074
840000000.0 -0.16072396243044423 0.17928777237287372
860000000.0 -0.18935220106125603 -0.07765933096792987
880000000.0 0.16171429517349992 -0.003008238383532976
900000000.0 0.10390335201826449 -0.04046513344021924
920000000.0 -0.050451041343568946 0.05561169761565603
940000000.0 -0.03503295138679697 0.028725208816111437
960000000.0 -0.045007800344377784 -0.019846975562064467
980000000.0 0.0542322807611861 -0.04027772046968875
1000000000.0 0.006079929388525565 -0.08506621685087919
1020000000.0 0.06281249494414431 -0.08432229529643895
1040000000.0 0.08935366317031701 -0.07858157874701051
1060000000.0 0.0951782962721021 0.12149455786240537
1080000000.0 0.0052823980879102925 0.17461089879826153
1100000000.0 -0.04440783687667118 -0.1946850628963282
1120000000.0 0.14937668692057376 0.16322227423044
1140000000.0 0.11783681328134313 -0.2242729424410729
1160000000.0 -0.20344353506654755 -0.1949393450291898
1180000000.0 -0.05045319303527195 -0.3114582360878723
1200000000.0 0.27038498455382154 -0.20632951537513194
1220000000.0 -0.2006742933845486 0.30547798030158924
1240000000.0 0.38451886191459766 0.03029915620534699
1260000000.0 -0.163322770759905 -0.37434752781676023
1280000000.0 -0.40647498496595397 0.12329392685565971
1300000000.0 0.3276236677704522 0.2878047005690163
1320000000.0 0.41980932529758447 0.12469281076384561
1340000000.0 0.43615218102805864 -0.04087721984350972
1360000000.0 0.4397733763267078 -0.02669024640006527
1380000000.0 0.24219214472798706 -0.3633818815614252
1400000000.0 -0.3619498871335447 -0.23130733839772888
1420000000.0 0.00879322050165689 0.4102225232498305
1440000000.0 0.38184899992053334 -0.03332650262094801
1460000000.0 0.04162942187927228 -0.35033505927789677
1480000000.0 -0.32050845316113435 0.005110157513530256
1500000000.0 -0.1282435753706275 0.25653203619942677
1520000000.0 0.07887477908693478 0.24480780596595048
1540000000.0 -0.1730896459574469 -0.1488048343357096
1560000000.0 0.08274559405982039 -0.17600514517377458
1580000000.0 0.15615863113784087 0.057934954361358086
1600000000.0 0.08665407718074523 -0.09973193710846662
1620000000.0 0.027689617500884778 -0.1002299634811489
1640000000.0 0.07112565394220943 0.031743186573712424
1660000000.0 -0.04791910035514333 0.026532857063432596
1680000000.0 0.03585414942956848 0.0016614097210924698
1700000000.0 0.02264649497041385 -0.0009737413354805489
1720000000.0 0.004253324261254127 -0.005871872585038196
1740000000.0 0.009908456589027177 -0.011386248934701457
1760000000.0 0.00254256654391532 0.032627968808232606
1780000000.0 0.007031099296871563 -0.061446783004848196
1800000000.0 0.022634049487628188 0.0905292387976901
1820000000.0 0.021159974731890182 0.12319257529230557
1840000000.0 -0.010584570742027679 -0.16286182382532163
1860000000.0 -0.15175695495545075 0.13168849421220688
1880000000.0 0.21788981126307116 -0.10383348368837954
1900000000.0 -0.2670728566944494 0.10151886385951354
1920000000.0 0.25805200643364623 -0.19089492210631254
1940000000.0 -0.3458958061114651 0.07368097052709552
1960000000.0 0.31750849217351357 0.20737657580536584
1980000000.0 0.002288532548874363 -0.397087712786777
2000000000.0 -0.3563379655419076 -0.21092882611216868
2020000000.0 -0.24764194008483897 0.3449316223743761
2040000000.0 0.07577459302468374 0.4249228737444736
2060000000.0 0.42281983498164066 0.09485168327812385
2080000000.0 0.33613509814754483 -0.26872014045170106
2100000000.0 0.08388174869959303 -0.41396484321945526
2120000000.0 -0.16699807433964775 -0.3772240244434527
2140000000.0 -0.2618964443106492 -0.3045983511677589
2160000000.0 0.12653642532966752 -0.36643104884149097
2180000000.0 -0.059218245669234774 -0.36961604712950685
2200000000.0 -0.3100525439505792 -0.18814184979083265
2220000000.0 -0.346102816069121 0.06626526485111137
2240000000.0 -0.141266335317976 0.31814866647372536
2260000000.0 0.0678158087560886 0.34038910236477193
2280000000.0 0.2551302165546327 0.2415869977811241
2300000000.0 0.2946838657682865 -0.2133704398768101
2320000000.0 -0.15129120998639053 -0.35470562478878703
2340000000.0 -0.3844809261556798 0.1619055812441617
2360000000.0 0.3810525825839292 0.25274880646803355
2380000000.0 -0.2976269797142443 -0.409857151019742
2400000000.0 0.36648656073746433 0.4198892167263689
2420000000.0 -0.5754449789494456 -0.1989176343287923
2440000000.0 0.6250187457288878 -0.2000486802011006
2460000000.0 -0.347660732505736 0.6031399734872745
2480000000.0 0.05106751262332442 -0.725210477160261
2500000000.0 0.01699799574507298 0.7472181921999018
2520000000.0 0.14455578869818558 -0.7442561376049963
2540000000.0 -0.38075598862232896 0.657458269587331
2560000000.0 0.7012084961440684 -0.27950826902157394
2580000000.0 -0.6316527138929982 -0.3856674452508241
2600000000.0 0.10457928549563521 0.709142600647018
2620000000.0 0.5038518331743702 -0.46605728300649785
2640000000.0 0.19152321673130204 -0.6216129266545
2660000000.0 -0.55770447884907 0.2365197844282896
2680000000.0 0.48797105147941144 0.2741717009741182
2700000000.0 -0.1414872388607523 -0.492318216384365
2720000000.0 -0.16543459726856347 0.4340672448824468
2740000000.0 0.3904627684127387 -0.15314571424363616
2760000000.0 -0.3796873001118036 0.006610098583763447
2780000000.0 0.3490459565047939 0.014030227698357635
2800000000.0 -0.30803983058499596 0.09941114656479069
2820000000.0 0.02784494106970492 -0.3053989369863544
2840000000.0 0.24077164975865473 0.17071591758753452
2860000000.0 -0.2549480994419796 0.14145674866655814
2880000000.0 -0.019875129822490286 -0.2902042739275053
2900000000.0 0.16608399288976977 0.24160189587943687
2920000000.0 -0.004589629381969823 -0.2968537943115882
2940000000.0 -0.28297709729242393 0.10473071164714012
2960000000.0 -0.09053971467358601 0.2930782546094072
2980000000.0 -0.08403892403128688 0.299389922062862
3000000000.0 -0.25925791712533747 0.17482316420831867
3020000000.0 -0.26454629630315396 -0.16747782065889755
3040000000.0 0.2653659895804279 -0.15955241478990959
3060000000.0 -0.17676086135648375 0.2528995474852499
3080000000.0 0.13743903145851874 -0.27055176688182575
3100000000.0 -0.11082242742576971 0.2766243111107446
3120000000.0 0.031200520309287716 -0.2906395420973777
3140000000.0 0.06452006194284748 0.2754630751310567
3160000000.0 -0.21909419630473143 -0.15539272940262872
3180000000.0 0.024883819835804465 0.25150136886343727
3200000000.0 -0.21581669194037564 -0.07585122015611864
3220000000.0 0.07993738625168495 -0.1873203125902769
3240000000.0 0.14438326597049767 0.09575990342636899
3260000000.0 -0.12422309616680782 0.06579149014065554
3280000000.0 0.0923114232527704 -0.05714355661189933
3300000000.0 -0.057015654246918096 0.05284181108849012
3320000000.0 0.038608195829937735 0.03242494426769208
3340000000.0 0.01983356055026717 -0.017387013768456427
3360000000.0 -0.006873672313216966 2.2053845702052893e-05
3380000000.0 0.0061979838330240445 0.007285436890901551
3400000000.0 0.005485900360528987 0.023019701985558257
3420000000.0 -0.02895075465386189 -0.02127945366241182
3440000000.0 -0.02933945253161698 0.03504760792827569
3460000000.0 -0.027148822835927587 -0.04736534767083398
3480000000.0 0.06158325382180539 -0.022732451677374137
3500000000.0 -0.022072359694903062 -0.0761066928750754
3520000000.0 -0.08751501031943902 -0.03181122889677287
3540000000.0 0.10579953614913673 0.019505869325570607
3560000000.0 -0.11214364563585444 0.04909349601206594
3580000000.0 0.0096681084627682 -0.13687540012233185
3600000000.0 0.15008635271635792 0.026310304550783432
3620000000.0 0.09033541146166095 0.1363748643412822
3640000000.0 -0.10489079083711995 0.13893344109711586
3660000000.0 -0.17764946132392395 0.04111772958111216
3680000000.0 -0.13709556472789386 -0.1275784610501246
3700000000.0 -0.0845107676595673 -0.16809349592532086
3720000000.0 0.11274646909324834 -0.14946965779855526
3740000000.0 0.17718784028632215 -0.03735914372028752
3760000000.0 -0.174751820115343 0.005973498646255759
3780000000.0 0.16559027290806974 -0.0005540978973054926
3800000000.0 -0.04172167183850707 -0.15311990224320948
3820000000.0 -0.14644977704270098 -0.03956854859357974
3840000000.0 -0.12110552140159846 -0.07743468423263189
3860000000.0 0.14256902077286887 -0.021839517337418204
3880000000.0 0.1472383833668671 0.02294319822842919
3900000000.0 0.04657427044821011 -0.14881696361103708
3920000000.0 -0.06610291739103828 0.14682409206900326
3940000000.0 -0.02154537385366686 -0.1646083819489607
3960000000.0 0.11747087781918472 -0.12541940437740806
3980000000.0 -0.049887116109865945 -0.1656970336304929
4000000000.0 -0.07787959059239268 -0.1492047694182265
