!Created with skrf (http://scikit-rf.org).
# Hz S RI R 50.0 
!freq ReS11 ImS11
400000000.0 -0.5925330129562081 0.6393419709286423
420000000.0 0.5973558873989623 0.6315847831111998
440000000.0 0.3583654473316999 -0.7559566297891842
460000000.0 -0.5155575583599079 -0.587598751348477
480000000.0 0.6586629605146102 -0.25059295724979713
500000000.0 -0.22770794193417396 -0.5328105267166294
520000000.0 -0.45325618131569767 0.20329804216536929
540000000.0 0.3049503072155321 -0.2794629515903564
560000000.0 -0.36881652567051076 0.01712107422635729
580000000.0 0.3023865879222617 0.1531507988887843
600000000.0 0.15267866098937788 -0.31443731057382523
620000000.0 0.003411675018620135 0.3590498222302665
640000000.0 0.28162258610501034 0.26872180480914754
660000000.0 0.2755663638735537 -0.2946350027089763
680000000.0 0.3605076903565461 0.226345954062636
700000000.0 -0.07618074686829275 -0.42527005739787854
720000000.0 -0.4231991728835193 -0.04515973524348823
740000000.0 0.2605642465340505 -0.3240038696947827
760000000.0 -0.3801310429723218 -0.09116684024252987
780000000.0 0.2501651564817226 0.2579685967762023
800000000.0 0.09166361425098926 -0.30873505755308644
820000000.0 -0.26378043659799527 0.08576782189779207
840000000.0 -0.09892404933312052 0.21900347879086252
860000000.0 -0.2047633355331688 -0.009108890320940281
880000000.0 0.1504647601731344 -0.06270314525392953
900000000.0 0.0645249604886082 -0.09256257913138811
920000000.0 -0.07469034339521412 0.018585410600746394
940000000.0 -0.02983778986774341 -0.035154684771875624
960000000.0 0.04597068390409175 -0.016090354580560223
980000000.0 0.06530330419031423 0.005824094849247639
1000000000.0 -2.1036271824622012e-05 -0.08295805412636437
1020000000.0 -0.015168165121786528 -0.10209123130699152
1040000000.0 -0.02323827338840962 -0.11602924249232775
1060000000.0 0.15402767007752685 0.014520278194761515
1080000000.0 0.10865530633581576 0.13873531646623471
1100000000.0 -0.12194758560848767 -0.1614960607352183
1120000000.0 0.16754852346247692 0.1488520805399943
1140000000.0 0.15533429735546975 -0.20430475330677467
1160000000.0 -0.09686909510606152 -0.2677281305476908
1180000000.0 0.06717700303849732 -0.3118242567201536
1200000000.0 0.33713255491755056 -0.060685213935320705
1220000000.0 -0.32222713952114834 0.17558670612453778
1240000000.0 0.32121906712085185 0.21487577923314594
1260000000.0 -0.004592878455828957 -0.40846942032544686
1280000000.0 -0.4244331167176083 -0.005845454288471272
1300000000.0 0.2522499849050961 0.3547101548844335
1320000000.0 0.40060730339228895 0.17426668045550267
1340000000.0 0.4366495917747726 -0.008161185436969746
1360000000.0 0.4395240219981136 -0.009464225299965297
1380000000.0 0.21324903075134993 -0.37989188095639187
1400000000.0 -0.39339244899055803 -0.17064578129023947
1420000000.0 0.09842610336781582 0.39779985470399976
1440000000.0 0.36720916507477147 -0.11088065941311712
1460000000.0 -0.07401255763427503 -0.3456646863829433
1480000000.0 -0.30320597127835913 0.10592845586431801
1500000000.0 -0.058657648059175546 0.28229153432717624
1520000000.0 0.13960750446509673 0.21834352459819803
1540000000.0 -0.1846261507427323 -0.1377432784521697
1560000000.0 0.0943277443773577 -0.1726368176812807
1580000000.0 0.14596856973444938 0.08466570680900376
1600000000.0 0.12497321596566748 -0.048631118991361084
1620000000.0 0.09948535954936454 -0.03432400354872302
1640000000.0 -0.03880822130067972 0.06795056066110351
1660000000.0 0.011451274384472328 -0.05287740646918301
1680000000.0 -0.025766404878855863 0.023212345085264388
1700000000.0 -0.018426541355749535 -0.00961454749993648
1720000000.0 0.005836626157650438 0.0005983763050072771
1740000000.0 0.007676914876884953 0.014232882108642908
1760000000.0 0.01268273349891534 -0.03130288495837559
1780000000.0 0.058198313366609786 0.021125098517966005
1800000000.0 -0.08963881228768265 0.0246639462285502
1820000000.0 -0.0929124716032937 0.08218802549113394
1840000000.0 0.10147318742223735 -0.1260430178738804
1860000000.0 -0.1904036460452953 0.058320594469300026
1880000000.0 0.22827648668053627 -0.07411720128961924
1900000000.0 -0.26348306028842877 0.10572064131469994
1920000000.0 0.24574390286608527 -0.20423878442809015
1940000000.0 -0.32785061695316126 0.1296781572289797
1960000000.0 0.3581373061694726 0.12264036867625425
1980000000.0 -0.08898550200241757 -0.3870097615435726
2000000000.0 -0.39235794069083046 -0.1348519478559619
2020000000.0 -0.2207489917126781 0.36428696885779654
2040000000.0 0.11749321982631554 0.41692191404142376
2060000000.0 0.4326664299520995 0.043268787358881844
2080000000.0 0.3161048184806709 -0.2948163348402706
2100000000.0 0.08946134657364245 -0.4149128309043289
2120000000.0 -0.11989466883538648 -0.39747842220949486
2140000000.0 -0.19607526111727533 -0.353170477874319
2160000000.0 0.20343324859620954 -0.33272353837210905
2180000000.0 0.05516641075333097 -0.37193691486587166
2200000000.0 -0.1950423122947529 -0.30719897152157954
2220000000.0 -0.3373644158706358 -0.10054257529498944
2240000000.0 -0.27078022073233593 0.2178796634650815
2260000000.0 -0.08136846997656899 0.3361452990877682
2280000000.0 0.15224174822480022 0.31484814374264963
2300000000.0 0.3490804046433425 -0.09777557073989677
2320000000.0 -0.05732246685062654 -0.3792318767145972
2340000000.0 -0.40497487561098444 0.09074647452883654
2360000000.0 0.3509054436826544 0.290252686369473
2380000000.0 -0.22710527748943937 -0.45051935545721167
2400000000.0 0.32372702649149593 0.4520846407884904
2420000000.0 -0.5568962156093691 -0.24383041897334298
2440000000.0 0.6406597921563749 -0.14201147195266842
2460000000.0 -0.44082634273950877 0.5401457403972141
2480000000.0 0.15275160242073132 -0.7128180734320868
2500000000.0 -0.1118232806630083 0.7416832426331892
2520000000.0 0.27141050462186134 -0.7113710908814793
2540000000.0 -0.5672817097779428 0.5114684943282681
2560000000.0 0.7571118684155491 -0.03942600081146256
2580000000.0 -0.4405429419021766 -0.5993665931267684
2600000000.0 -0.15425172242929067 0.7029328894955522
2620000000.0 0.6289175621327484 -0.2818488884611397
2640000000.0 0.4041614565385655 -0.5131918614318851
2660000000.0 -0.6062074168969441 0.052903308600468726
2680000000.0 0.40595266107990025 0.3887020894599628
2700000000.0 -0.045364321146019355 -0.5119746167198723
2720000000.0 -0.23047995073332195 0.4046446873191638
2740000000.0 0.39138954460139275 -0.15564525212989866
2760000000.0 -0.38104765738214946 0.008432530836665822
2780000000.0 0.34949008618720434 -0.03141927661609218
2800000000.0 -0.28179278947464304 0.16270990979240527
2820000000.0 -0.04233542200283612 -0.30623143666506564
2840000000.0 0.2550926239740005 0.15362525436018462
2860000000.0 -0.24039691925527115 0.1693461531478203
2880000000.0 -0.014475055958053871 -0.2938786563189141
2900000000.0 0.13046281671536197 0.265971211715706
2920000000.0 0.06821487936725858 -0.2922529374386565
2940000000.0 -0.3050598809269357 0.0009537111415623531
2960000000.0 -0.1618595806915714 0.2637770295915814
2980000000.0 -0.17690595309880225 0.2587841386285927
3000000000.0 -0.30308188450912815 0.0881599832737934
3020000000.0 -0.18615715200060975 -0.2542644109627422
3040000000.0 0.3026694545100896 -0.07213903554271744
3060000000.0 -0.25201315922898687 0.17846828627327105
3080000000.0 0.20192332254741102 -0.2273376848290985
3100000000.0 -0.20654176326966464 0.21548931229615476
3120000000.0 0.14829247409288782 -0.25159871614740287
3140000000.0 0.002868945861205647 0.28179667743495534
3160000000.0 -0.1885916753938555 -0.18957945736977336
3180000000.0 -0.02251840397952948 0.25002160656189054
3200000000.0 -0.22012320178377 -0.05969899247785308
3220000000.0 0.02358811624323495 -0.20090670245402523
3240000000.0 0.1678838835432622 0.04272767398181072
3260000000.0 -0.09348433661896488 0.10512669596461764
3280000000.0 0.023567399971841672 -0.10608984875723444
3300000000.0 -0.001658010880012333 0.0786022264243646
3320000000.0 0.00787706787404067 -0.05089919268159097
3340000000.0 0.012190149288540281 0.024356303889073394
3360000000.0 0.0066753062852553035 0.005740807568962914
3380000000.0 -0.009022277274419633 -0.0007116905491479923
3400000000.0 0.013159474129926239 -0.01857822039998486
3420000000.0 0.019756175922604466 0.02910599950353259
3440000000.0 -0.02484996339514146 -0.03746273051886207
3460000000.0 0.05343930995714096 -0.005784032626935404
3480000000.0 0.01700997132727831 0.06258756359852305
3500000000.0 0.06951810659873642 -0.03759083874132628
3520000000.0 -0.04422863158496089 -0.08194338575243279
3540000000.0 0.09718288680117206 0.04729370728560085
3560000000.0 -0.12277150642539052 0.005834734540317012
3580000000.0 0.1037959547781002 -0.0888650392361197
3600000000.0 0.1387359038120565 0.06429468647918597
3620000000.0 0.046259911318390044 0.15746156826696614
3640000000.0 -0.1516994891195044 0.08490620615672533
3660000000.0 -0.1764350358329758 -0.047528493337624725
3680000000.0 -0.12029715576658792 -0.14381050845097693
3700000000.0 -0.05045969677378426 -0.18155313204563955
3720000000.0 0.10308668557869664 -0.1551252651830596
3740000000.0 0.17892780513490605 -0.030205171009838078
3760000000.0 -0.1749465086589464 -0.010866447041897044
3780000000.0 0.1628935144054192 0.027608632262477655
3800000000.0 0.015775379897546755 -0.1579872868897476
3820000000.0 -0.14758406107141214 -0.03154491919728382
3840000000.0 -0.11411197269407929 -0.08733089118769208
3860000000.0 0.14358575465828577 -0.001612428680033053
3880000000.0 0.14411248556557102 0.037760336528623956
3900000000.0 0.045511686007957255 -0.14963523143348856
3920000000.0 -0.07275497087398379 0.14315810506342103
3940000000.0 -0.004012217850911977 -0.16583928318764038
3960000000.0 0.12545655245435383 -0.11645515912692443
3980000000.0 0.020157511812117255 -0.1712925442586396
4000000000.0 -0.02933010525332763 -0.16452171095818477
