! Created with skrf (http://scikit-rf.org).
# Hz S RI R 50.0 
!freq ReS11 ImS11
400000000.0 -0.08612000691782858 0.8657722804568276
420000000.0 0.38639211390951705 0.7704006923602702
440000000.0 0.8268891386133851 -0.0798412805418748
460000000.0 0.32362795169210495 -0.7240424759153604
480000000.0 0.6529737586727189 -0.2917395282273771
500000000.0 -0.06624633737618948 -0.5682778619754325
520000000.0 -0.15254396782338145 -0.46794785782581516
540000000.0 0.3136304068214941 -0.30074539716341997
560000000.0 -0.3258811886990165 0.14821212571334663
580000000.0 -0.0047405748483652825 0.3393608415658775
600000000.0 0.28278322127012373 -0.18506118559153523
620000000.0 -0.33165512974449335 0.13312946807350082
640000000.0 0.12278837109264008 0.3692304859715453
660000000.0 0.39057282049659087 -0.08744594108455406
680000000.0 -0.015531627019388903 0.42014271125566544
700000000.0 0.21586951137915322 -0.37430460384386055
720000000.0 -0.254616648834229 -0.3430655307480152
740000000.0 0.39608755330361295 0.13476658565399496
760000000.0 0.05169688647733177 -0.39872536782662876
780000000.0 0.12071808680022804 0.35179879390186314
800000000.0 0.1268033222393869 -0.32006715533018126
820000000.0 0.28811045130211144 -0.06278236073396215
840000000.0 -0.00996496460792355 -0.24714168223645247
860000000.0 0.17877256248480478 -0.1183793439646236
880000000.0 -0.0611755126947004 0.14567984161339928
900000000.0 -0.06703503580490922 0.06599826304915195
920000000.0 -0.053454403413994094 0.03233859820858282
940000000.0 -0.009525628235501031 0.04710515852418907
960000000.0 0.029754733955437273 -0.04449194892060583
980000000.0 0.053682665363714466 0.04658754368136474
1000000000.0 0.009131281630305943 -0.07970686417419454
1020000000.0 0.025186535475684235 0.09523983126210187
1040000000.0 0.09311637784059144 0.05870794126577676
1060000000.0 -0.0213634236563633 0.14339651825614813
1080000000.0 -0.12149402645787429 -0.10364503308689908
1100000000.0 -0.1300893405306184 0.12480110274149377
1120000000.0 0.1528056649701473 0.13267730479544457
1140000000.0 0.19604882483024555 -0.12757404350500873
1160000000.0 0.269367895259413 -0.010669662959178946
1180000000.0 0.2623209181571167 0.16102575644466527
1200000000.0 -0.057322299317718005 0.3347764733638715
1220000000.0 0.03219589213878837 -0.36607468816533223
1240000000.0 -0.16780227010122414 0.3573133192609307
1260000000.0 0.4123828848351731 -0.09820839650531944
1280000000.0 -0.44000647151917205 0.06023677070341457
1300000000.0 0.43247515634364037 0.14852312046900973
1320000000.0 -0.18363484953189424 -0.4141606639145603
1340000000.0 -0.35959734353702094 -0.260367126637516
1360000000.0 -0.3239174396617274 -0.28754133884429683
1380000000.0 -0.35390266040947765 -0.2404353864000583
1400000000.0 -0.3958897488798706 0.12254657908360994
1420000000.0 0.011813326373757552 0.3961657968330393
1440000000.0 0.33325937817092416 0.16315019959321747
1460000000.0 0.2189033500066853 -0.2646836743678203
1480000000.0 -0.1536375442623413 -0.2725589494557293
1500000000.0 -0.26546716020546324 -0.09742930840117212
1520000000.0 -0.25452379278726867 -0.015448246121798452
1540000000.0 0.2086607840724123 -0.09341228690628677
1560000000.0 -0.04859046353966782 0.1902321650428967
1580000000.0 -0.16223250954259297 -0.06123193296058965
1600000000.0 -0.05010569835169279 0.13715534006183827
1620000000.0 0.11852330035901869 0.0038259575893073165
1640000000.0 0.08051881911076356 -0.05094523758003766
1660000000.0 -0.06727614516818277 0.023232419640185555
1680000000.0 0.021462264218078477 0.04238099784958331
1700000000.0 -0.02801688724731732 0.0015272008247546023
1720000000.0 -0.005663288578542005 0.011485686190416775
1740000000.0 0.003818266777234694 0.02071053038094024
1760000000.0 0.014631627111545786 -0.0398650524021995
1780000000.0 -0.04023623307812323 0.06490145693690355
1800000000.0 0.032393961609730564 -0.10865259732745185
1820000000.0 0.0884049143824924 -0.11737414668317603
1840000000.0 0.13896579923932817 0.11332442782347765
1860000000.0 -0.2078297139561433 -0.028110023486202514
1880000000.0 0.08560343470351509 0.22471568545835088
1900000000.0 0.2291657973490811 -0.15010398048828758
1920000000.0 -0.19929450753860867 -0.23093105659041696
1940000000.0 -0.3291505783178007 0.07076169592304417
1960000000.0 -0.027180220790391434 0.36659534255709714
1980000000.0 0.3910678831107551 -0.03345793473395809
2000000000.0 0.09631113546705321 -0.40348479229487316
2020000000.0 -0.4298666899794485 0.01946759262801016
2040000000.0 -0.06181072372742012 0.4331449159577061
2060000000.0 0.43232088508485395 0.07451275578131347
2080000000.0 0.29551331342398884 -0.3182556705309929
2100000000.0 0.06944907247323273 -0.42196167810992913
2120000000.0 -0.14702067061028726 -0.39181985848329526
2140000000.0 -0.36569678315648874 -0.17973478410470142
2160000000.0 -0.1157393155814729 -0.3753146882957226
2180000000.0 -0.35866165673190215 -0.11066037126104249
2200000000.0 -0.3236868765823635 0.15887399603015803
2220000000.0 -0.20503347416800738 0.27878461777656577
2240000000.0 -0.08018449736508652 0.3310612416207339
2260000000.0 0.004043781189578004 0.34075639728850965
2280000000.0 0.057995144717742426 0.34135286631674155
2300000000.0 0.35952950968310166 0.04820365293850125
2320000000.0 0.00938504117062567 -0.3884815568786834
2340000000.0 -0.3888769108132184 0.1640416612708549
2360000000.0 0.46358791830000734 0.01918816815256292
2380000000.0 -0.5102755105324075 -0.015146775001430838
2400000000.0 0.5596910515389211 0.005770713196585278
2420000000.0 -0.5622201648575001 0.2381784309421718
2440000000.0 0.3267987056542223 -0.5717682153672731
2460000000.0 0.10497060278142104 0.6902087105002748
2480000000.0 -0.3817861881183255 -0.6205151939440076
2500000000.0 0.4457427409051306 0.6007441400270622
2520000000.0 -0.24073010488520677 -0.7192121605971493
2540000000.0 -0.08391170662455832 0.7552727423813067
2560000000.0 0.5639770701151293 -0.49920232170465884
2580000000.0 -0.7121408127081558 -0.19448681835779824
2600000000.0 0.28140700364606663 0.6563047329899756
2620000000.0 0.32831852882208057 -0.5990310474209252
2640000000.0 0.010737977384466179 -0.6454680459550612
2660000000.0 -0.479786141705034 0.36168174839268036
2680000000.0 0.5349785182558754 0.1369055087621599
2700000000.0 -0.15406850652814058 -0.48099906617392496
2720000000.0 -0.29488064148029375 0.3498698479227785
2740000000.0 0.416010486248955 0.004724660405496296
2760000000.0 -0.30526072613390776 -0.22594727374233992
2780000000.0 0.32784829073938665 0.1278940459297464
2800000000.0 -0.3168615095340349 0.08621273322975957
2820000000.0 0.013558558789754996 -0.3121109165187094
2840000000.0 0.2945289557004846 0.060130518004118415
2860000000.0 -0.12172888867964604 0.26997579431611657
2880000000.0 -0.21793093821785994 -0.19522394638915383
2900000000.0 0.2643009998684274 0.12403570044139042
2920000000.0 -0.023440987907994683 -0.2931601116930451
2940000000.0 -0.2915390366084336 0.06617588792036232
2960000000.0 -0.19754519031273673 0.22688941129845508
2980000000.0 -0.28383435933152684 0.11242853207287529
3000000000.0 -0.26521703279635583 -0.16267839788533453
3020000000.0 0.035664251145687595 -0.3108243801568211
3040000000.0 0.2623941257436841 0.16706986202407195
3060000000.0 -0.30804250459846283 0.03418445437261608
3080000000.0 0.22078108830950033 -0.21156717309145764
3100000000.0 -0.03303236206436219 0.29755926822238005
3120000000.0 0.010905848995560054 -0.2900759657221714
3140000000.0 0.1384604802040581 0.24450331336275893
3160000000.0 -0.26488249452777335 -0.0402369993527407
3180000000.0 0.15369245514126464 0.19695716603763497
3200000000.0 -0.18418420695707516 0.13431223041504994
3220000000.0 -0.1777969046585949 -0.09070207478669191
3240000000.0 0.10887863066450938 -0.1291957521466969
3260000000.0 -0.09091487065921307 0.09789695312281468
3280000000.0 0.09822113896396593 0.03015858127575016
3300000000.0 0.06386498927052653 -0.04062436246669652
3320000000.0 0.04628160535937071 -0.021901342500970013
3340000000.0 0.029804671088715984 0.0047656818698058705
3360000000.0 0.009780694429286052 -0.008807903234264105
3380000000.0 -0.0044204191634097025 0.0010487143454232422
3400000000.0 -0.010618129254268216 0.016072674403457773
3420000000.0 -0.01279648867808007 0.033680315447629956
3440000000.0 -0.023641518051602726 0.04338303053979186
3460000000.0 -0.05525586169894762 0.018744528517394596
3480000000.0 -0.05949705339822953 0.032510606416839505
3500000000.0 -0.011729093822325981 0.07735152146414055
3520000000.0 0.03727529045866974 0.082171418503785
3540000000.0 0.08540397229062514 -0.05944516675848344
3560000000.0 -0.11759278364263541 0.010052181288771056
3580000000.0 0.07894501014143362 0.10811659732981567
3600000000.0 -0.11030344618230718 0.10925605452005818
3620000000.0 -0.12118644156492671 0.11903734531654295
3640000000.0 -0.1610801689764319 0.0834638296696655
3660000000.0 -0.12504286858946081 0.14407160417170117
3680000000.0 -0.1631617024611838 0.10265813592074996
3700000000.0 -0.19127474138939862 -0.015528579622329043
3720000000.0 -0.03546603048289648 -0.18587134982105918
3740000000.0 0.1486898452251673 -0.10793808964532568
3760000000.0 -0.17619154637628212 0.019844712250370822
3780000000.0 0.1611377921044839 0.053570687848950735
3800000000.0 0.011117671686776413 -0.16162755392900505
3820000000.0 -0.12162479329520615 -0.09586760066264116
3840000000.0 -0.008326042168939165 -0.14833905926579197
3860000000.0 0.1440564034994522 0.03685094068964501
3880000000.0 0.15434737072412147 0.004668529544371457
3900000000.0 0.005724748982849955 -0.15658082337266177
3920000000.0 -0.1312220800787658 0.0943495198909018
3940000000.0 0.07544533095701259 -0.148038070397511
3960000000.0 0.17116922848885852 -0.013770289095937537
3980000000.0 0.11355132086875554 -0.12968131975239391
4000000000.0 0.11079022243313208 -0.12418007530069879
