! Created with skrf (http://scikit-rf.org).
# Hz S RI R 50.0 
!freq ReS11 ImS11
400000000.0 0.24627847062983108 0.8368183147612978
420000000.0 0.6286916540439693 0.5854056758036759
440000000.0 0.7906622802914695 -0.23475859967101992
460000000.0 0.18761989649443683 -0.7614751385511925
480000000.0 0.6948578226833437 0.07036447518489646
500000000.0 0.5318761192965078 0.21209445841538704
520000000.0 0.3638208385119546 -0.3417719980060134
540000000.0 0.396701374018298 0.18673366920332743
560000000.0 -0.3306425874182879 -0.15735652987262455
580000000.0 -0.01105821174467348 0.3473155930838048
600000000.0 0.23014578086608156 -0.2551496174599967
620000000.0 -0.2931944386153751 0.20389341630107854
640000000.0 -0.038213786441047684 0.38283723121072977
660000000.0 0.13527040254157086 0.37583013876067467
680000000.0 -0.4250745453280543 -0.02847159648988606
700000000.0 0.42602953550097833 0.12080728341906348
720000000.0 -0.2958941680949326 -0.3334530502008368
740000000.0 0.1997087131621216 -0.3854399448242106
760000000.0 -0.355151360659276 0.20543144685932702
780000000.0 0.022810795356534696 -0.3697284444663233
800000000.0 -0.1597238957625481 0.2912994192326147
820000000.0 -0.0008662471045295532 -0.27508300369247907
840000000.0 0.1795919883243774 -0.14661706200224112
860000000.0 0.0851645797752978 0.1834516797935431
880000000.0 0.1362199132584793 0.05437633832849894
900000000.0 -0.03668915020852143 -0.08472017178323352
920000000.0 0.06064327676877167 0.01882185919018635
940000000.0 -0.034873139919920276 -0.02558611713670784
960000000.0 -0.030375847929950257 0.039959976494819464
980000000.0 -0.009861194964919589 0.0710635736326531
1000000000.0 0.08282666461312845 -0.01689775879589446
1020000000.0 0.06950342664464414 -0.0769708524637653
1040000000.0 -0.012573363001340156 0.10967859673128245
1060000000.0 0.004297832700975156 -0.1371222021162457
1080000000.0 -0.07153295403727668 0.12630744875616418
1100000000.0 0.020760872767077266 -0.16364149403267575
1120000000.0 0.19123101382414087 -0.017338095967187633
1140000000.0 0.0726718668975079 -0.22484682506729212
1160000000.0 -0.1718988874871466 -0.22524203337253637
1180000000.0 -0.2996083557609466 0.13208120808370724
1200000000.0 -0.1410693777613888 0.3303801157698851
1220000000.0 -0.3097170154573017 -0.2243241011025522
1240000000.0 0.3877777978437178 0.10755063627149482
1260000000.0 -0.24027832074591463 -0.34853973648532804
1280000000.0 -0.021114087165122523 0.4365808588942369
1300000000.0 0.4114391941635965 -0.16996402449992196
1320000000.0 -0.21399669370159916 -0.3849269006933936
1340000000.0 -0.13649810736957468 -0.4115719960481261
1360000000.0 0.07086028911198644 -0.42133507891517247
1380000000.0 -0.10364349357211565 -0.4130573774987579
1400000000.0 -0.37906584171908003 -0.15945150706318661
1420000000.0 -0.2873726527436339 0.26883409800207253
1440000000.0 -0.09147336501207458 0.3600209626420943
1460000000.0 0.25816568756015984 0.23346505024048306
1480000000.0 0.25420741829724736 -0.1994891487323427
1500000000.0 -0.27424206461090844 -0.11192112865645892
1520000000.0 -0.06193013680302142 0.26160301516224327
1540000000.0 -0.2358605021722705 0.028428911577509847
1560000000.0 -0.1805577715739449 -0.08590246551009177
1580000000.0 -0.014834329307966318 -0.1675243700504531
1600000000.0 -0.13438997995425 -0.015555464722569213
1620000000.0 -0.06618080213588154 -0.0788055953213782
1640000000.0 0.06015167845505378 0.05499185452032814
1660000000.0 0.059992264523162205 -0.0010800745256865187
1680000000.0 -0.015921455882663655 0.03534338186808505
1700000000.0 0.02101406849387536 -0.0036685522159069558
1720000000.0 0.00457925956621374 0.00015057007790856284
1740000000.0 0.013371035438621795 -0.016537632953791234
1760000000.0 -0.018932322703483148 0.03880073013707692
1780000000.0 -0.07186833684182521 -0.023900287456109993
1800000000.0 0.0356368622890267 0.10499934364760541
1820000000.0 -0.1333419614032335 0.04257652494330837
1840000000.0 0.142422684654114 -0.09524818602052001
1860000000.0 -0.19620988501949463 0.03420592647704822
1880000000.0 -0.1490743828546689 0.174875034948859
1900000000.0 -0.010878324836005726 0.2667148901142395
1920000000.0 0.30285502604181913 -0.0272943429247954
1940000000.0 0.040436861033923695 -0.3400723538899659
1960000000.0 -0.31905398594795625 0.19927674967717898
1980000000.0 0.3914257539917178 0.09126829066565549
2000000000.0 -0.015623455765411673 -0.42244159510361756
2020000000.0 -0.35202996730731634 0.2548934946849594
2040000000.0 0.23085094560214584 0.3734930256793834
2060000000.0 0.39264531705883 -0.1924849536166232
2080000000.0 0.056892864134702494 -0.42627320906587374
2100000000.0 -0.03326159419552762 -0.42063245098224006
2120000000.0 -0.19923946526913758 -0.3600608668402097
2140000000.0 -0.34960404946379375 -0.19589588374121258
2160000000.0 -0.012663962518748158 -0.38579561059035306
2180000000.0 -0.18448236771129936 -0.3210948959059863
2200000000.0 -0.27130264457057474 -0.23163873682380057
2220000000.0 -0.3447551514045994 -0.04286251683720544
2240000000.0 -0.28908948998930856 0.1851362710751942
2260000000.0 -0.14258431954977716 0.3120195722762618
2280000000.0 0.027057867552546598 0.3472135565183434
2300000000.0 0.3634845831597497 -0.0025792461074950037
2320000000.0 -0.04288805907676854 -0.385817357294072
2340000000.0 -0.34812617184566935 0.2332296339715185
2360000000.0 0.448054844339882 0.09586805442535794
2380000000.0 -0.43212705609425417 -0.259112617567532
2400000000.0 0.43664873495192696 0.34198012322710863
2420000000.0 -0.5690226856430107 -0.2109781308931061
2440000000.0 0.63073789373372 -0.18210989239315137
2460000000.0 -0.4184880463437951 0.5586540988643808
2480000000.0 0.1155599964219235 -0.7202330768121958
2500000000.0 -0.16330757356726275 0.7330364927082196
2520000000.0 0.26503159973221346 -0.714160315228085
2540000000.0 -0.5195895435652274 0.559626900720203
2560000000.0 0.7576636148191203 -0.03286419934503443
2580000000.0 -0.4845872511774446 -0.5631404800037766
2600000000.0 -0.17181937906328348 0.6985508273958753
2620000000.0 0.6323119449658463 -0.2729037732420256
2640000000.0 0.42731496732572144 -0.4899513130029464
2660000000.0 -0.6043904647166666 -0.04491692087635764
2680000000.0 0.3327717191906028 0.4492121537431577
2700000000.0 0.01647808260566553 -0.5124162172631221
2720000000.0 -0.2708349033656388 0.3779302109287859
2740000000.0 0.3706963847600903 -0.20026642489667548
2760000000.0 -0.3655139395333574 0.11123109234376305
2780000000.0 0.23950029458324487 -0.2570737324464035
2800000000.0 -0.05422308343168218 0.3209131968163474
2820000000.0 -0.24562017579486214 -0.18597314611844035
2840000000.0 0.2799815692041478 -0.0965374908286771
2860000000.0 -0.1368151548395091 0.25868323798657084
2880000000.0 -0.06466653296168577 -0.2852009572155343
2900000000.0 0.09797781626810194 0.27883084169204847
2920000000.0 0.1789219277173332 -0.24104143268288475
2940000000.0 -0.29330384490629763 -0.09311796678570035
2960000000.0 -0.2736738023803198 0.14685147632442408
2980000000.0 -0.27879030894366874 0.14657811785020652
3000000000.0 -0.30462173863204317 -0.08947555800049499
3020000000.0 -0.04211960778260031 -0.3158486242386278
3040000000.0 0.3160097028322215 0.014127298998626765
3060000000.0 -0.29016245485490594 0.11563154871405447
3080000000.0 0.2287395845876906 -0.2036529215854231
3100000000.0 -0.15887756706191447 0.25355990599532807
3120000000.0 0.12598232501925527 -0.2615956271275891
3140000000.0 -0.08293395431501771 0.2677918207834909
3160000000.0 -0.014702818972479315 -0.26516472419426756
3180000000.0 -0.22731424874299005 0.10289474520307748
3200000000.0 -0.05494709710264088 -0.22212711902418522
3220000000.0 0.1639090490117936 -0.11890647688598825
3240000000.0 0.12967829875524917 0.11285869581537247
3260000000.0 -0.1373301124621372 -0.011610112235315702
3280000000.0 0.08951141960780733 -0.05455854911536804
3300000000.0 -0.07493129959086009 0.0012555272121817342
3320000000.0 -0.006360955329755389 0.046204752777237026
3340000000.0 -0.01876606725114728 -0.012142115796642388
3360000000.0 0.0035253932862687673 -0.0028929112954049355
3380000000.0 -0.00350335290158885 -0.009347543739488522
3400000000.0 -0.02232809958225646 0.0013047189388081337
3420000000.0 0.013078380056149724 -0.03301700783447316
3440000000.0 0.02246289109170023 -0.04156098285619823
3460000000.0 -0.006365486901956909 -0.05624732200560498
3480000000.0 0.06117633593727612 -0.03145713657040638
3500000000.0 -0.028115966548613053 -0.07795881326833924
3520000000.0 -0.08215844529037684 0.05098167615772589
3540000000.0 0.04097277040958471 -0.10352336981875078
3560000000.0 -0.03424589942087441 0.11972520159465522
3580000000.0 0.06520969967949658 -0.12174487409888078
3600000000.0 0.10446055769360009 0.11659583207964576
3620000000.0 0.06013144636407764 0.15765324405121123
3640000000.0 -0.14389953325005309 0.10653728275499467
3660000000.0 -0.18620645861455065 0.031653322717936784
3680000000.0 -0.15222475134015354 -0.11884037253761827
3700000000.0 -0.030323471614676 -0.19112095033704957
3720000000.0 0.1678388060705629 -0.09721241695027566
3740000000.0 0.1894864312934351 -0.014119717701436848
3760000000.0 -0.1726517309037581 0.059314493729833585
3780000000.0 0.12512024794343354 -0.1181561616448276
3800000000.0 -0.1010030392757851 -0.1266326100207513
3820000000.0 -0.1389199338501504 -0.06446882607261298
3840000000.0 0.07238034843128531 -0.1266608150056255
3860000000.0 -0.022331616010723636 0.14573682956972625
3880000000.0 -0.04078619942165165 0.14859746068017013
3900000000.0 0.1557046580264033 0.03741354369591648
3920000000.0 -0.16061001549463189 -0.044470010563633776
3940000000.0 0.11024565728440609 -0.13103552112801423
3960000000.0 0.1723935144810662 -0.02231137205144878
3980000000.0 0.078480893280952 -0.15435358403877655
4000000000.0 0.04491390325377198 -0.15900362299219628
