! Created with skrf (http://scikit-rf.org).
# Hz S RI R 50.0 
!freq ReS11 ImS11
400000000.0 -0.5877044608135862 0.6245305223211659
420000000.0 -0.09443778715570202 0.8605709728814449
440000000.0 0.8380943955170719 0.0071525145119987615
460000000.0 0.12870617209761734 -0.7880916515381826
480000000.0 0.26303804391849317 -0.6801909900933261
500000000.0 -0.32421360878821487 0.4669800282935196
520000000.0 -0.47341820050980565 0.010022542128197302
540000000.0 0.4106556106543068 0.07435536615439181
560000000.0 -0.3224906287105049 -0.14461793343731855
580000000.0 0.33362056379839233 -0.011760102309730989
600000000.0 -0.16722290270994306 -0.2790571690970466
620000000.0 -0.019684067300707854 0.33846326207256494
640000000.0 -0.2150565759110234 0.2916302787276156
660000000.0 -0.23757410259825662 0.29765754320638366
680000000.0 -0.13423307795776196 -0.3862157946605005
700000000.0 -0.3969427881189765 0.16383265680615597
720000000.0 -0.009238213173924923 0.4394636827908433
740000000.0 -0.3022765907909417 0.32211229376838013
760000000.0 0.27203093189801497 -0.3286682330810669
780000000.0 0.3940412249064386 0.03743923802838703
800000000.0 -0.146905208951815 0.3296194535011132
820000000.0 0.01565754236430721 0.3031374688796586
840000000.0 -0.07140408801766886 -0.23399016361391198
860000000.0 -0.00221569086900149 0.19785508923064796
880000000.0 -0.004011310814799776 0.15574601655302858
900000000.0 0.05056415943643969 0.06357906448561074
920000000.0 -0.019192037238388054 0.043664759407945966
940000000.0 0.03602341551312732 -0.009816065041209
960000000.0 0.04749861615551279 -0.011278309542567092
980000000.0 -0.03611983675612186 0.05169282607411746
1000000000.0 -0.04989854227869371 -0.046559699700115004
1020000000.0 0.04149310674630452 -0.07134410278750651
1040000000.0 0.0705445569718788 -0.05445114183009512
1060000000.0 -0.037409346366087164 -0.12368627269086002
1080000000.0 0.00448604999822847 0.14716990693543494
1100000000.0 0.060761998666916076 0.1647654016690727
1120000000.0 0.1915174968581027 -0.057646721492868265
1140000000.0 -0.1545475285289769 -0.18409983961904172
1160000000.0 -0.22105490226375116 0.1751892682552707
1180000000.0 -0.11374503245368198 0.2982328006556346
1200000000.0 -0.21661479846540982 0.27580526145460343
1220000000.0 -0.046707631537226436 -0.3760364707822519
1240000000.0 0.23777656748447984 0.3258268964918665
1260000000.0 -0.17585854892333913 -0.3886033915231667
1280000000.0 0.00884667104072076 0.4408914205866094
1300000000.0 0.3070498108612702 -0.326477163285207
1320000000.0 -0.3658228185419732 -0.24783552568514564
1340000000.0 -0.2782756352089727 -0.33412935834754287
1360000000.0 0.020666894187132773 -0.4295317130470558
1380000000.0 -0.2242816842817515 -0.3675996516689492
1400000000.0 -0.3253953217467467 0.25952969208066434
1420000000.0 0.011811065788112498 0.39801504248237873
1440000000.0 0.37054207595705796 0.02914636900472825
1460000000.0 0.279581328716515 -0.19534516375764083
1480000000.0 0.16454655310227376 -0.26682072629374604
1500000000.0 -0.012231148319726414 -0.2850696677529131
1520000000.0 -0.22556621346341746 0.13114348932973854
1540000000.0 0.17603288094073194 0.16052218763899864
1560000000.0 -0.0662797977929411 0.1980221563940415
1580000000.0 -0.14332203243830471 0.11138924120678752
1600000000.0 0.1344775912253621 -0.06557367710562802
1620000000.0 -0.08709360072934101 -0.07647993213148904
1640000000.0 -0.08604641771614308 -0.02660974070179023
1660000000.0 0.024511865696855244 -0.06197972012672935
1680000000.0 -0.035334539787822264 0.01813223871666566
1700000000.0 -0.019563023309397118 -0.006142903814270671
1720000000.0 -0.013895650994319799 -0.006492216434575976
1740000000.0 0.02985104131996045 -0.005899863827460244
1760000000.0 -0.051074176573135 -0.010953271543741275
1780000000.0 0.08053671409387199 -0.007983833331079139
1800000000.0 -0.11201330118414377 -0.02974166884428641
1820000000.0 -0.10065208440413882 -0.10537765669231201
1840000000.0 0.16520908503631052 -0.06925647431394294
1860000000.0 -0.12822778421387498 0.16490238336579255
1880000000.0 0.23976720452567707 0.01073329053135823
1900000000.0 -0.1195312395055812 -0.24490514562093282
1920000000.0 -0.2468235308243154 0.17639517421447667
1940000000.0 -0.05265906142821793 0.3273040267346911
1960000000.0 0.15399131356534204 0.3276812250753177
1980000000.0 0.383999641325461 -0.037374067972688725
2000000000.0 0.35071705925040586 -0.21191363240105146
2020000000.0 -0.1162904296491346 -0.41690346976746634
2040000000.0 -0.4354324306404976 0.10504532665892119
2060000000.0 0.2153227282806851 0.3985336117823953
2080000000.0 0.33160545325764496 -0.3061411120805746
2100000000.0 -0.32992041705908154 -0.29690363166756395
2120000000.0 -0.41304853631096755 0.1092420914205456
2140000000.0 -0.3082420218596768 -0.2710019646853515
2160000000.0 -0.3879199751857336 0.04781787039643356
2180000000.0 -0.3708572422863946 -0.012336207031405921
2200000000.0 -0.3439687242377232 0.08937218599750077
2220000000.0 -0.30874543275765515 -0.14916266080286184
2240000000.0 -0.34251564481569924 0.026091446901597558
2260000000.0 -0.3033372362121634 0.1675096082208359
2280000000.0 -0.016587833434080452 0.35670013814862533
2300000000.0 0.3427348424730948 -0.1454170287184833
2320000000.0 -0.34785914008812224 -0.19484962202007888
2340000000.0 0.12845283470847726 0.4107349771958704
2360000000.0 -0.036189117432639535 -0.46987531109157377
2380000000.0 0.035921485855293686 0.5147981528653115
2400000000.0 -0.20880614301906722 -0.526237846879435
2420000000.0 0.49386209028275624 0.3657742395192279
2440000000.0 -0.6593873798473527 -0.025611436328560236
2460000000.0 0.5826311675441034 -0.380648183118931
2480000000.0 -0.4661898272064266 0.5534361453713784
2500000000.0 0.5516249760123509 -0.494840233304052
2520000000.0 -0.7002994660804912 0.2660776856904807
2540000000.0 0.7349740503353792 0.14277111080432311
2560000000.0 -0.2843250116088906 -0.6843654353462866
2580000000.0 -0.4611452139664416 0.5582448702320302
2600000000.0 0.6784182053568283 0.16569822263688488
2620000000.0 -0.17081775664256288 -0.6438508049095997
2640000000.0 -0.3707107826580594 -0.5065149924614969
2660000000.0 -0.2842868388145801 0.5078280861709858
2680000000.0 0.5243604971015293 0.11287532302036354
2700000000.0 -0.12680449489822768 -0.4740425654326262
2720000000.0 -0.27928569742781334 0.345912856642632
2740000000.0 0.3884435778525803 0.11076946090076259
2760000000.0 -0.2717497755780994 -0.2496760946312637
2780000000.0 0.24538673398397443 0.2384241908771986
2800000000.0 -0.3219742062756462 -0.006734988378014114
2820000000.0 0.02832316992172967 -0.30553522676240735
2840000000.0 0.2957623253679342 0.016962226844309397
2860000000.0 -0.05331379028493335 0.2863906112541862
2880000000.0 -0.27650500711266607 -0.08167929151677682
2900000000.0 0.2872281003587301 0.005151494842701221
2920000000.0 -0.16942633176755253 -0.23304830172508104
2940000000.0 -0.2561710533163564 0.1352790346431778
2960000000.0 -0.26628382519807553 0.1202125653094985
2980000000.0 -0.29362557872635 -0.04677324441710918
3000000000.0 0.017665408672596437 -0.3027702599828558
3020000000.0 0.30687654648639584 -0.009360244199251617
3040000000.0 -0.10104137912252129 0.2913749376238537
3060000000.0 -0.22032029009665777 -0.21721410275648875
3080000000.0 0.30195379500691216 -0.050828324074198614
3100000000.0 -0.10933035277123261 0.2804929115104223
3120000000.0 -0.16129421154239607 -0.2431556418026792
3140000000.0 0.26207583042160637 -0.09645120236813141
3160000000.0 -0.1943690096363906 -0.17278566804224532
3180000000.0 0.22586308658262158 -0.083424448877646
3200000000.0 -0.040653653314040826 0.21005769294512755
3220000000.0 -0.01382742522920043 -0.18475631147574084
3240000000.0 -0.07709670554072934 0.13562212313031075
3260000000.0 0.08647598329504287 0.0953133928786925
3280000000.0 0.10061818329605114 -0.024639429924261897
3300000000.0 -0.07622185142413201 -0.03453624273934794
3320000000.0 -0.008628473473945967 -0.05883766477243291
3340000000.0 0.003792714884602392 0.03755191236140557
3360000000.0 0.017547146524816815 0.003255651567688129
3380000000.0 -0.009428515770084387 -0.01468726326682275
3400000000.0 0.02468163800488652 0.017687815573676113
3420000000.0 -0.03276955783555931 0.03128079474290641
3440000000.0 0.0528028198400124 0.0043539011350829555
3460000000.0 -0.001478424192087865 0.056710735743338306
3480000000.0 0.006589148148795002 -0.059071290825071045
3500000000.0 -0.06702544151300532 0.0021453668823885577
3520000000.0 0.06981877110393532 0.043547897170036834
3540000000.0 0.05782807879556555 -0.08031280524374056
3560000000.0 -0.06429081508507595 0.09796734736380687
3580000000.0 -0.08813067060908639 -0.10414874167907098
3600000000.0 -0.055842388460074846 -0.14738415966285354
3620000000.0 -0.16691910354854528 0.03448054865585016
3640000000.0 -0.18144475072382035 0.01482347303371052
3660000000.0 -0.08439032407930211 0.16954996892052684
3680000000.0 -0.12281720762707383 0.14342392469700732
3700000000.0 -0.18306441363602907 0.026458027006570947
3720000000.0 -0.027050538475971986 -0.17757705846099414
3740000000.0 0.1661564087143849 0.04911131359752433
3760000000.0 -0.011899255467019584 -0.16845608306559445
3780000000.0 -0.1410709430488996 0.08042397462520594
3800000000.0 0.028023602167656998 0.15682979630440677
3820000000.0 0.15304449365935302 -0.03200473682436474
3840000000.0 0.014219543834194341 -0.1516002229711496
3860000000.0 -0.013246987788566388 -0.15000143963259596
3880000000.0 -0.07374608342531912 -0.1300104610810514
3900000000.0 -0.11812283911903787 -0.09068507976201522
3920000000.0 -0.1238060428225264 0.0875713398774522
3940000000.0 0.114441925473467 0.10886417801473719
3960000000.0 -0.09580162784250337 0.13707902743626202
3980000000.0 -0.006990318541340093 0.17266923600476514
4000000000.0 0.12702198613651997 0.11299863946041118
