! Created with skrf (http://scikit-rf.org).
# Hz S RI R 50.0 
!freq ReS11 ImS11
400000000.0 -0.5867446609993404 0.623875795040958
420000000.0 -0.1177095475364109 0.8579978792754979
440000000.0 0.8380745545991124 0.03161552219684627
460000000.0 0.11625983345557668 -0.7901197685120187
480000000.0 0.27182721813688393 -0.6767379280716421
500000000.0 -0.3345528071821527 0.4601501238007197
520000000.0 -0.47153719200773925 0.03850532430597266
540000000.0 0.40477710655178983 0.09982820420857745
560000000.0 -0.3200892936871951 -0.14902768206626021
580000000.0 0.3336215599772298 -0.021305714365357938
600000000.0 -0.1785530256380149 -0.2719127855479
620000000.0 -0.020850681301063965 0.33880965121611034
640000000.0 -0.1901024197384805 0.3085062325004366
660000000.0 -0.23875525640164652 0.2971244859202065
680000000.0 -0.15602058343549804 -0.3769382564830189
700000000.0 -0.4048273560300709 0.14337754391981034
720000000.0 -0.02536118117452592 0.43834082860980517
740000000.0 -0.314227599756748 0.31093573011521247
760000000.0 0.27613705603464667 -0.32417894346418685
780000000.0 0.3901208997400801 0.0707451823453893
800000000.0 -0.14820280077526585 0.32886577311702353
820000000.0 0.0014787022854108101 0.3038255839735894
840000000.0 -0.10850821551029899 -0.21960623795398446
860000000.0 0.015999342329519755 0.19802087646751523
880000000.0 0.010524610227131304 0.15618668831555566
900000000.0 0.030059354265262656 0.0764636558129711
920000000.0 -0.021205353236994753 0.043147887700324156
940000000.0 0.03462909264799901 0.014068204084971706
960000000.0 0.049088935737572524 0.0042145175832539504
980000000.0 -0.019856000947912986 0.06028009752247816
1000000000.0 -0.05799718943124586 -0.0367426421282945
1020000000.0 0.01947064750947116 -0.08047153364791275
1040000000.0 0.052277393875531444 -0.07234571923240717
1060000000.0 -0.06547867755362796 -0.11120999301742043
1080000000.0 0.029339459523620253 0.14443995941265386
1100000000.0 0.09213424619451022 0.1496815766115401
1120000000.0 0.18129042176218857 -0.084232992864717
1140000000.0 -0.1523055262593535 -0.18594189719619184
1160000000.0 -0.2515116522140441 0.1261427021221164
1180000000.0 -0.16205389100824014 0.27463908550038624
1200000000.0 -0.2579093760748168 0.23706596858262
1220000000.0 -0.001231832796538668 -0.3786310294840353
1240000000.0 0.22444961218228246 0.33510285691146874
1260000000.0 -0.1490237638227177 -0.3995463012894869
1280000000.0 -0.013266851158031733 0.4405308633845598
1300000000.0 0.2913582344220245 -0.34054013728923294
1320000000.0 -0.3630164320163943 -0.25169540485296615
1340000000.0 -0.2875934839417709 -0.3262739017290664
1360000000.0 0.010894061627052833 -0.429939617410566
1380000000.0 -0.24024842462737167 -0.3574739555041881
1400000000.0 -0.32896417703007297 0.2558373863296967
1420000000.0 0.020774652847672055 0.3979811204666733
1440000000.0 0.3717894464739793 0.012636569270941951
1460000000.0 0.26621426595192443 -0.21369929979231753
1480000000.0 0.14528268052664572 -0.27797007304477295
1500000000.0 -0.0007207066579560896 -0.2854412873735273
1520000000.0 -0.23738754859188674 0.10868932463569898
1540000000.0 0.16104229843420326 0.1758758756874067
1560000000.0 -0.10642284890520409 0.17969044643568047
1580000000.0 -0.1739193760608766 0.052933442138622284
1600000000.0 0.14829233352146698 -0.021417908762296836
1620000000.0 -0.04736066560472653 -0.1059309377391722
1640000000.0 -0.08447244381807337 -0.031927719641098876
1660000000.0 0.03693193194044393 -0.05630941965941864
1680000000.0 -0.036952029200546244 0.01610679717612527
1700000000.0 -0.020823696425447544 0.004192762048019402
1720000000.0 0.008904013407961094 -0.012876121441561852
1740000000.0 0.02371028247998782 0.01886550320715992
1760000000.0 -0.017624897185106632 -0.04891662921982378
1780000000.0 0.07858020106050558 0.01920782150875394
1800000000.0 -0.10246812830460188 -0.054144654632388364
1820000000.0 -0.08371495668787253 -0.1191939887548193
1840000000.0 0.16567341216755568 -0.06873489546198823
1860000000.0 -0.12906675396740555 0.16436294313054145
1880000000.0 0.24001383661740383 -0.00857667419688561
1900000000.0 -0.14870937802733342 -0.22832604491575373
1920000000.0 -0.23451420523761823 0.1923931231394536
1940000000.0 -0.018363343294383144 0.3311050993836941
1960000000.0 0.1729289163631773 0.3176040440467944
1980000000.0 0.3819858398335596 -0.053906899774903524
2000000000.0 0.34550282508298624 -0.2199217029603753
2020000000.0 -0.11979936685490988 -0.41566770911911044
2040000000.0 -0.4430315255511329 0.06540140295985543
2060000000.0 0.19931042146663766 0.40683911400157635
2080000000.0 0.31944256130084775 -0.3191078547897003
2100000000.0 -0.30045773442482354 -0.32722079992701364
2120000000.0 -0.41257604161984823 0.11277115578670409
2140000000.0 -0.31114901350322766 -0.26855342602553833
2160000000.0 -0.3876290257059119 0.05469647134011311
2180000000.0 -0.3713516984382206 0.0015900821439953456
2200000000.0 -0.3412122779028974 0.1010703062309605
2220000000.0 -0.314908938951083 -0.13586756315705115
2240000000.0 -0.34347393194523906 0.006136444763512669
2260000000.0 -0.3007763805149869 0.17214234982764942
2280000000.0 -0.031010810553130687 0.35576301467279303
2300000000.0 0.352224515266916 -0.12079014882976936
2320000000.0 -0.3367811088683866 -0.21392099146372548
2340000000.0 0.127073772180813 0.41138380956278164
2360000000.0 -0.024796195072869332 -0.4706523088635189
2380000000.0 0.06535303299538606 0.512223919259246
2400000000.0 -0.1858746379788165 -0.5348605333333967
2420000000.0 0.49466832391822446 0.36477822700403667
2440000000.0 -0.6583956961531691 0.0448832355066454
2460000000.0 0.5678404440734786 -0.40281443334232997
2480000000.0 -0.4506655589606092 0.5666346799274236
2500000000.0 0.5253981898327234 -0.5226161715310603
2520000000.0 -0.695179812824065 0.28019037286124315
2540000000.0 0.7174225067989248 0.21639152281134874
2560000000.0 -0.2723708134746376 -0.6893063187645347
2580000000.0 -0.5097306524751614 0.5147420219563793
2600000000.0 0.6761055018271936 0.175645864624753
2620000000.0 -0.15584181133714461 -0.6480430328106315
2640000000.0 -0.3533378529826869 -0.5189766249780268
2660000000.0 -0.28599303307258844 0.5069816594397326
2680000000.0 0.5231804211850741 0.11659864518677682
2700000000.0 -0.09583322206982024 -0.4809881505257374
2720000000.0 -0.3010198046144022 0.32701260633874246
2740000000.0 0.3900038615151802 0.10576540131219614
2760000000.0 -0.26641027632818237 -0.2557642794645752
2780000000.0 0.2403629747127828 0.24382115878335428
2800000000.0 -0.3222904880782765 -0.0095762296629459
2820000000.0 0.019883748884530417 -0.306711506818059
2840000000.0 0.2966645425895859 -0.012638172938298452
2860000000.0 -0.030889445105355684 0.29016386082698953
2880000000.0 -0.2787238032372084 -0.07568874995891409
2900000000.0 0.2876690497505176 0.006627356690147892
2920000000.0 -0.1800104999199981 -0.2254619685949945
2940000000.0 -0.26537323796158035 0.11680060933527668
2960000000.0 -0.27231520513650875 0.10597813590227499
2980000000.0 -0.2906344470310576 -0.06659767834085259
3000000000.0 0.040818612597985734 -0.30016718407213316
3020000000.0 0.3051112742646061 0.03542245373403253
3040000000.0 -0.12956843849073355 0.27975731631001444
3060000000.0 -0.17446174223233896 -0.25539787711798845
3080000000.0 0.30191947452260237 -0.051077055517844853
3100000000.0 -0.18618301140951055 0.2361141247232256
3120000000.0 -0.1765031783682766 -0.23282637649659413
3140000000.0 0.25769125752945404 -0.10852469171603196
3160000000.0 -0.2064083294084678 -0.15824387456785913
3180000000.0 0.222286650927564 -0.09143470972629893
3200000000.0 -0.0212092635247975 0.2126405120202105
3220000000.0 -0.045406262475753106 -0.1789300432014022
3240000000.0 -0.0689160978948379 0.13967139796584685
3260000000.0 0.08485153446815114 0.0962785063582888
3280000000.0 0.09915797412739827 -0.02963355697632936
3300000000.0 -0.07792445876442751 -0.030791954227043623
3320000000.0 -0.014936894926905234 -0.05764224423070805
3340000000.0 0.03150108078232331 0.02182743847122325
3360000000.0 0.0003123902838562088 -0.019340014926280517
3380000000.0 -0.0015000700259567318 -0.017749536848218065
3400000000.0 -0.00538637362578548 0.030336910052590364
3420000000.0 -0.040519417173477915 0.020837879557488375
3440000000.0 0.04689428540656297 0.02438026424162996
3460000000.0 -0.03464864003639756 0.04460999367811198
3480000000.0 0.012264295508015641 -0.058251344630183347
3500000000.0 -0.06662930157509642 -0.0036947536625317016
3520000000.0 0.0781911005458942 0.025608825741393913
3540000000.0 0.08930757796854458 -0.0417999351752225
3560000000.0 -0.09097438541325782 0.07289658077394884
3580000000.0 -0.059878911942401095 -0.12254874453011658
3600000000.0 -0.06562194452118017 -0.14379863652966182
3620000000.0 -0.16799154157915278 0.030106660207318187
3640000000.0 -0.181731154026098 0.011378985361799125
3660000000.0 -0.08905252955425992 0.16707750285301462
3680000000.0 -0.12687389261804455 0.1393078595125788
3700000000.0 -0.18255056599468938 0.02643621534824095
3720000000.0 -0.014558430164889004 -0.17848339207740976
3740000000.0 0.16270590983892336 0.057803526072134105
3760000000.0 0.006678259806317715 -0.1683855539236189
3780000000.0 -0.14309440238445476 0.07493653962206501
3800000000.0 0.011696299391823557 0.1584117599936331
3820000000.0 0.15282328512260646 -0.031205074127176668
3840000000.0 5.721171887396878e-05 -0.1520908643615673
3860000000.0 -0.022305916682100645 -0.14858715418469756
3880000000.0 -0.09732341091680434 -0.1129025088389292
3900000000.0 -0.13424851729603374 -0.06320298021677595
3920000000.0 -0.11243103704998561 0.10120192611569091
3940000000.0 0.12411347105807899 0.09623443048541978
3960000000.0 -0.08137408529179174 0.14526187199815177
3980000000.0 0.009533380890049011 0.17222377153646162
4000000000.0 0.1522773549334122 0.07482788315098819
