! Created with skrf (http://scikit-rf.org).
# Hz S RI R 50.0 
!freq ReS11 ImS11
400000000.0 -0.5749965281925928 0.6365698742553305
420000000.0 -0.08495152695801667 0.8623365911900454
440000000.0 0.8386521102335792 -0.0013704415168162064
460000000.0 0.1281198210776805 -0.7881636279693326
480000000.0 0.29511068220986325 -0.6669781996638227
500000000.0 -0.3525986613564348 0.44670289189311707
520000000.0 -0.4698556040546074 0.05626678023530864
540000000.0 0.4032624343772461 0.1043308066835954
560000000.0 -0.30814486371892075 -0.17414156615132895
580000000.0 0.3299905709977257 -0.05402672404093018
600000000.0 -0.12842845085731372 -0.2981998907399294
620000000.0 -0.05942124868078853 0.334354429839652
640000000.0 -0.19658900128814483 0.3053157108664777
660000000.0 -0.24488537218189338 0.29135421542096646
680000000.0 -0.15024639618856506 -0.37941574324927196
700000000.0 -0.401510660625535 0.15170483551873024
720000000.0 -0.02703378258695448 0.43855706702475583
740000000.0 -0.3184838380092335 0.30623728686815566
760000000.0 0.2911716009563558 -0.31133198573688825
780000000.0 0.39255225161755447 0.05823387439614283
800000000.0 -0.11053487064130081 0.34368363102257776
820000000.0 -0.01948658748138625 0.3029566193546615
840000000.0 -0.07988924363866015 -0.23150508002270992
860000000.0 0.028248797849610128 0.19674681927003682
880000000.0 0.03013781939812072 0.15293580411778995
900000000.0 0.040556303741200755 0.07146171368134135
920000000.0 -0.034200042226444335 0.034395017435287625
940000000.0 0.027054696414505454 0.025292001293328346
960000000.0 0.04908611733382479 -0.0028497644294053536
980000000.0 -0.012024955573052562 0.06243177035163579
1000000000.0 -0.05245668978869268 -0.043881514618999966
1020000000.0 0.034281369415864876 -0.07517206090145408
1040000000.0 0.055873846376897934 -0.06953796271744474
1060000000.0 -0.07267645728335408 -0.10674732935670216
1080000000.0 0.011565889566751178 0.14684028678966443
1100000000.0 0.0789868992891509 0.15699420037800996
1120000000.0 0.18642308478065345 -0.07232930145915033
1140000000.0 -0.15979342398858723 -0.17981379343236106
1160000000.0 -0.24316773978786504 0.142033931581615
1180000000.0 -0.14116149489276622 0.28612775093424
1200000000.0 -0.24439318854454628 0.25147529577625044
1220000000.0 -0.04381213526758215 -0.3763332337087058
1240000000.0 0.23114616846626634 0.3304148718019294
1260000000.0 -0.14295871352411035 -0.401672740651446
1280000000.0 -0.011078482542334435 0.44073193154679885
1300000000.0 0.2793097880420804 -0.35051961160961753
1320000000.0 -0.3620890971489565 -0.2527528676793467
1340000000.0 -0.2883073780651008 -0.32559097893368416
1360000000.0 0.013191583339030316 -0.4296012898977051
1380000000.0 -0.24567812391229993 -0.35352595574950496
1400000000.0 -0.3312853999442877 0.2526892886733164
1420000000.0 0.019543548272995575 0.3979174494913095
1440000000.0 0.37137009347628747 0.026530747834041166
1460000000.0 0.2547724159415802 -0.22683687327917995
1480000000.0 0.14347197824725982 -0.2786220897566425
1500000000.0 -0.013571216504308758 -0.2853712823984655
1520000000.0 -0.24034011159931246 0.10302927149890824
1540000000.0 0.16715714411830726 0.17037266191220224
1560000000.0 -0.10108170169396666 0.1827567593947909
1580000000.0 -0.17974401704158124 0.026254496085830425
1600000000.0 0.147512522972963 -0.02737242667476445
1620000000.0 -0.06504332764384968 -0.09599599113116643
1640000000.0 -0.0727560001997057 -0.052820999015619596
1660000000.0 0.0477979040373424 -0.04663591363750586
1680000000.0 -0.03132886149680154 0.02479273550948483
1700000000.0 -0.018023895722175498 0.010279446838055453
1720000000.0 -0.0010634465229038468 -0.015874367610777897
1740000000.0 0.024578004531005355 0.018243359169048977
1760000000.0 -0.022897444266936785 -0.046431410669509565
1780000000.0 0.07876007484849837 0.01736748561411518
1800000000.0 -0.0947737788160539 -0.06639497811749331
1820000000.0 -0.08440859292161948 -0.11851192069499115
1840000000.0 0.16640991758213106 -0.06555132069216009
1860000000.0 -0.129446951834558 0.16342151378252406
1880000000.0 0.23944507263653325 -0.013302384111250619
1900000000.0 -0.13463448548999526 -0.2369403197912607
1920000000.0 -0.23936412212242927 0.18642721128339465
1940000000.0 -0.014140354662491285 0.3311113401013491
1960000000.0 0.16445476148340935 0.32229235664945943
1980000000.0 0.38121261112362664 -0.06030392819703534
2000000000.0 0.3446193407025719 -0.22154142858425888
2020000000.0 -0.10844035262980377 -0.4191495249863384
2040000000.0 -0.4321751364617776 0.1174186561327929
2060000000.0 0.2084692029359819 0.40235153929429135
2080000000.0 0.31182338013833955 -0.3266885780338675
2100000000.0 -0.3163905899831668 -0.31186328424576265
2120000000.0 -0.4178510038525734 0.09055030403073686
2140000000.0 -0.27962606538827256 -0.301020574263838
2160000000.0 -0.3864796744394712 0.05942364736596109
2180000000.0 -0.37083447809347636 -0.015329383366154687
2200000000.0 -0.3450832222178589 0.08621281856532748
2220000000.0 -0.3155243935634501 -0.13381610748687275
2240000000.0 -0.34341847542495996 0.008086120869445407
2260000000.0 -0.30894615819864707 0.15650116914725745
2280000000.0 -0.027704982029767556 0.3559302757540816
2300000000.0 0.3478621664287664 -0.1322778397375534
2320000000.0 -0.33595621400846265 -0.2143617102707374
2340000000.0 0.08070578394375623 0.4221245450828415
2360000000.0 -0.01022206353382133 -0.47089727825842803
2380000000.0 0.04009550326846288 0.5145955288900206
2400000000.0 -0.2005465388611266 -0.529229684035494
2420000000.0 0.4952724419763622 0.36369349389079025
2440000000.0 -0.6596942296055051 0.011943528744444189
2460000000.0 0.5795405011716868 -0.3854221723620614
2480000000.0 -0.468171705575687 0.5518775215987278
2500000000.0 0.5427004245138177 -0.5045813760218864
2520000000.0 -0.696960545131019 0.2754357250191309
2540000000.0 0.7210495170980638 0.20305720968400476
2560000000.0 -0.26141630839474633 -0.6939258657383778
2580000000.0 -0.5198030641579096 0.504815912729931
2600000000.0 0.6723948360726271 0.19011650932592858
2620000000.0 -0.13662488014952856 -0.6526967112842403
2640000000.0 -0.3249247052663329 -0.5374680499262365
2660000000.0 -0.30219096170099474 0.4978811700192712
2680000000.0 0.5138810794291897 0.1533334534752969
2700000000.0 -0.07011620468502533 -0.4857408637486896
2720000000.0 -0.2963793893358272 0.331734014695839
2740000000.0 0.3868195963270279 0.1171440000397553
2760000000.0 -0.2566542646092995 -0.2656518084408379
2780000000.0 0.22937318109784868 0.25407550952771174
2800000000.0 -0.3221331058132653 -0.005832706412408225
2820000000.0 0.02229831277430075 -0.3062418821879507
2840000000.0 0.29639978947217155 0.008742231885221434
2860000000.0 -0.027848049990549975 0.2906366378669183
2880000000.0 -0.28431286340205086 -0.05000257833614721
2900000000.0 0.2871239128438508 0.0211055181708069
2920000000.0 -0.17626529140568722 -0.22888172058467393
2940000000.0 -0.2571719304688071 0.1351142909723529
2960000000.0 -0.2706977570709055 0.11123340165705331
2980000000.0 -0.28774752075972004 -0.07912221158820798
3000000000.0 0.06754633538320631 -0.29582196178570586
3020000000.0 0.3065617519963456 0.027175630294882944
3040000000.0 -0.10774334639511554 0.28929066636496975
3060000000.0 -0.1580095577288294 -0.26606984560779395
3080000000.0 0.3064178049602091 -0.009429506907146069
3100000000.0 -0.13089204619192704 0.27102846869106134
3120000000.0 -0.12867249913986667 -0.26153335335105826
3140000000.0 0.2719115200923587 -0.06377879651524444
3160000000.0 -0.18578429550879197 -0.18153192560143164
3180000000.0 0.22308877498857216 -0.08951134744641043
3200000000.0 -0.0422687015700286 0.20925465925543785
3220000000.0 -0.038540163906667715 -0.1809752009115505
3240000000.0 -0.04590197372009358 0.14870256420930583
3260000000.0 0.10096033607274738 0.07872831002128172
3280000000.0 0.08843824228078023 -0.05325437371026134
3300000000.0 -0.08321742370638295 -0.008849453131737968
3320000000.0 -0.040464823952425344 -0.043404259539759064
3340000000.0 0.03454391924867554 0.01612697106015394
3360000000.0 0.008054453164762844 -0.016777774529949788
3380000000.0 0.015777342322454913 0.009190796017255474
3400000000.0 -0.026896015256113726 0.015096891051802744
3420000000.0 -0.04485125085974598 0.005757125504637816
3440000000.0 0.03536208950967349 0.03904555369317076
3460000000.0 -0.04262054458214728 0.03699281325802872
3480000000.0 0.0360345065464921 -0.047087794428425624
3500000000.0 -0.06257506581466285 -0.023195597689355554
3520000000.0 0.05373375893713557 0.06194673067184774
3540000000.0 0.08078492953002193 -0.05687249545059177
3560000000.0 -0.0912598406684723 0.07260744330411018
3580000000.0 -0.06008273745982045 -0.12189825796003759
3600000000.0 -0.055004342162078106 -0.1477415351568711
3620000000.0 -0.16703303060138125 0.032318167196551825
3640000000.0 -0.18076444245133588 0.02221819992957979
3660000000.0 -0.0794576263891687 0.1718625905108129
3680000000.0 -0.12491791670193583 0.1410648151529717
3700000000.0 -0.18245524823670078 0.028940793354463076
3720000000.0 -0.03910229688288566 -0.17519238957833191
3740000000.0 0.1682684342119017 0.039619103973302275
3760000000.0 -0.007574112605036872 -0.16872703028246808
3780000000.0 -0.1353928565417942 0.08862532634017496
3800000000.0 0.021721016939172444 0.1572572708119382
3820000000.0 0.15386419254192787 -0.028680919453993876
3840000000.0 0.007744592249790744 -0.1523725321668478
3860000000.0 -0.0349144972586843 -0.14610249406017017
3880000000.0 -0.09970399347050797 -0.11068647075236789
3900000000.0 -0.13560461715249605 -0.060909106180065696
3920000000.0 -0.11819692966267352 0.09448710758057903
3940000000.0 0.11925835778898185 0.10316322070638614
3960000000.0 -0.07786715325840739 0.14664338527391207
3980000000.0 -0.00034029929009320853 0.17211028001878798
4000000000.0 0.15039611076619064 0.07835158369114041
