! Created with skrf (http://scikit-rf.org).
# Hz S RI R 50.0 
!freq ReS11 ImS11
400000000.0 -0.5915523913819775 0.6195919546581673
420000000.0 -0.08923775863547449 0.861519778661925
440000000.0 0.8359264971607873 0.06646806171529021
460000000.0 0.11421765231074354 -0.7902937889354031
480000000.0 0.27881948885723357 -0.6741435667043449
500000000.0 -0.34231512319657786 0.4542844999349736
520000000.0 -0.4724932819151033 0.02703513499445795
540000000.0 0.4087250995624889 0.08388673992460619
560000000.0 -0.32487146528106015 -0.1406428173627697
580000000.0 0.33404408137955427 0.0003264601303643957
600000000.0 -0.13736020181246605 -0.2942978069322141
620000000.0 0.005310943329221801 0.33935888848647505
640000000.0 -0.19738319139298874 0.304451177111455
660000000.0 -0.20641199959963583 0.32007307565190907
680000000.0 -0.17179721589995894 -0.3699923517319734
700000000.0 -0.40057834755057603 0.15392130780130778
720000000.0 0.0049188956550137875 0.4395076141729987
740000000.0 -0.3221109792668693 0.30333537767517305
760000000.0 0.2801755613362556 -0.32209564775812033
780000000.0 0.39195273187342927 0.05830811815368121
800000000.0 -0.13250432349750255 0.3356306649803923
820000000.0 -0.005164789777667654 0.30364404345561297
840000000.0 -0.08976237751304879 -0.22767930346827478
860000000.0 0.007115257488740977 0.19809374488428128
880000000.0 -0.003272162895694099 0.1559245210828729
900000000.0 0.05244988394179633 0.06286395268743425
920000000.0 -0.03387827647723103 0.03424534123579595
940000000.0 0.037230531091342195 -0.003003295594374242
960000000.0 0.04884600140263358 -0.003032389583094791
980000000.0 -0.034724832437463424 0.05323243877812835
1000000000.0 -0.031865423548608246 -0.06052499114342294
1020000000.0 0.043987341422442205 -0.06961915744995811
1040000000.0 0.07415198332759304 -0.04945221033173138
1060000000.0 -0.05350846171075184 -0.11751356269211649
1080000000.0 0.004405730663707843 0.14721632638728702
1100000000.0 0.0831273634646075 0.15450787162500393
1120000000.0 0.18021787683212065 -0.0862118873401634
1140000000.0 -0.17368375874344963 -0.16618609280650157
1160000000.0 -0.23150519781999024 0.1603763429129557
1180000000.0 -0.12149778375264114 0.2951772481870982
1200000000.0 -0.2326661915833922 0.26278990881237485
1220000000.0 -0.05831314826147349 -0.37456531321444864
1240000000.0 0.24410019966238594 0.321454078957051
1260000000.0 -0.15346557388284926 -0.39826518003502426
1280000000.0 -0.011501536260430432 0.44082007187623085
1300000000.0 0.2950118106021699 -0.33739347743434617
1320000000.0 -0.3683024288070471 -0.244243675319294
1340000000.0 -0.2732021852574109 -0.3383245918045233
1360000000.0 0.041346165088695805 -0.4276797812461675
1380000000.0 -0.22511662662938178 -0.3668728451324569
1400000000.0 -0.3289292350994714 0.2554541026840446
1420000000.0 0.01669253553853122 0.39771043795818184
1440000000.0 0.370819150534486 0.029851518834730268
1460000000.0 0.2695626429969252 -0.2085499710985488
1480000000.0 0.13365761584992092 -0.2834490161004641
1500000000.0 -0.04423777587768361 -0.2822195299846991
1520000000.0 -0.22088292416440036 0.13930641650610875
1540000000.0 0.15128654325496807 0.18435161048792392
1560000000.0 -0.09298970815101772 0.1869306722819718
1580000000.0 -0.15973589852506992 0.08643348339091385
1600000000.0 0.14220717962348178 -0.04751821630074954
1620000000.0 -0.07508117830779085 -0.0888197960735
1640000000.0 -0.0830935723010301 -0.03543924359316814
1660000000.0 0.02452754672045141 -0.062372327014410305
1680000000.0 -0.029325384829099937 0.026985928091744868
1700000000.0 -0.0201705853981864 0.005151524547535008
1720000000.0 -0.015416350070672975 0.0015672149744932968
1740000000.0 0.023723541396617004 0.01933960835071228
1760000000.0 -0.03442914702043933 -0.03895795189872006
1780000000.0 0.08080924477034493 0.0019128420846119174
1800000000.0 -0.09763227466810194 -0.06209601034354262
1820000000.0 -0.09102176846691486 -0.11353966520538954
1840000000.0 0.16866048983453485 -0.05881671196924338
1860000000.0 -0.13317945958773517 0.16043749767015586
1880000000.0 0.23923762747533026 -0.014935637548814202
1900000000.0 -0.12919734054720325 -0.2397552586357929
1920000000.0 -0.24281842646237015 0.1815745909680774
1940000000.0 -0.03193649182734957 0.3297879860198895
1960000000.0 0.1667788902816893 0.3211146345434349
1980000000.0 0.3823591096265724 -0.05246508685134245
2000000000.0 0.3584115777287393 -0.19909584187913817
2020000000.0 -0.1383581772323216 -0.4102149276675991
2040000000.0 -0.42965319142348096 0.12610547005387227
2060000000.0 0.22706999031894054 0.3920937259021095
2080000000.0 0.3210289060639289 -0.31753979852675107
2100000000.0 -0.32303949292568745 -0.3044860220006287
2120000000.0 -0.4223184872243872 0.06651626742863323
2140000000.0 -0.2991718890025371 -0.28092991691525443
2160000000.0 -0.39008564015079006 0.026123970220820907
2180000000.0 -0.36754608804125094 -0.04997353625443466
2200000000.0 -0.34490592164778544 0.0854441434353431
2220000000.0 -0.29452293486738385 -0.17550195187535272
2240000000.0 -0.3416687652492726 0.03035804285236706
2260000000.0 -0.3051894551238976 0.16321991194764862
2280000000.0 -0.01028740040667191 0.356516146246177
2300000000.0 0.34258610919824695 -0.14432208283270614
2320000000.0 -0.3429758997848497 -0.20226469067099428
2340000000.0 0.10747464942425931 0.41608847795302306
2360000000.0 -0.03265968281749391 -0.46980700223097693
2380000000.0 0.0318239517685772 0.5147071781302406
2400000000.0 -0.17321205989994876 -0.5384931760608056
2420000000.0 0.4756126911708075 0.3885261747698604
2440000000.0 -0.6589213489855068 -0.024418582892430166
2460000000.0 0.6156064097688831 -0.3242814507466784
2480000000.0 -0.5178008401014664 0.5053779046690029
2500000000.0 0.5803406462096693 -0.46028501969071883
2520000000.0 -0.7067563867393724 0.2479211156369189
2540000000.0 0.7181183100547999 0.21282121156172987
2560000000.0 -0.20799024498767918 -0.7116105380092471
2580000000.0 -0.5003646142004757 0.5237971508527429
2600000000.0 0.6606827367950765 0.2278968095191635
2620000000.0 -0.11388656056072814 -0.657061720877921
2640000000.0 -0.3168910508929466 -0.5425544562532378
2660000000.0 -0.3076299914774187 0.4949407456947172
2680000000.0 0.5192333308892534 0.13678281013434032
2700000000.0 -0.09864066609879969 -0.48146045871280546
2720000000.0 -0.29930038344580484 0.3300097442709773
2740000000.0 0.37440241407683994 0.15357124182239415
2760000000.0 -0.24557411714246308 -0.27664436826380806
2780000000.0 0.22945134286895713 0.2547375625169579
2800000000.0 -0.3207855632213363 -0.03231277374034514
2820000000.0 0.05371319465521864 -0.3024406867962026
2840000000.0 0.29628326113226355 0.015158779750120126
2860000000.0 -0.03873260014630026 0.2890241164189994
2880000000.0 -0.2768150349107112 -0.08145451938495027
2900000000.0 0.28761736292940876 0.008699333236728387
2920000000.0 -0.18195088836762321 -0.22445856895925206
2940000000.0 -0.2475188814059494 0.1513512938285253
2960000000.0 -0.2691789231995084 0.11450222702886054
2980000000.0 -0.29182056913797727 -0.06295038261871028
3000000000.0 0.015589444783241207 -0.30360373836574706
3020000000.0 0.30758397691187633 -0.01782865847132649
3040000000.0 -0.12500113627788711 0.28282613247298394
3060000000.0 -0.1687816960971027 -0.25990610167452155
3080000000.0 0.3044614753516047 -0.03857786110559104
3100000000.0 -0.1416189645663271 0.26598159627875717
3120000000.0 -0.14362897925973253 -0.2545981660816431
3140000000.0 0.2688405914667598 -0.0778503957612261
3160000000.0 -0.18576322083633917 -0.18266374914926706
3180000000.0 0.23541830327288749 -0.04892356342176039
3200000000.0 -0.06088655060298915 0.20498116253766402
3220000000.0 -0.019097430880909885 -0.18431698681631867
3240000000.0 -0.07809332509814897 0.13479256532755327
3260000000.0 0.08740650774207855 0.09381486548192876
3280000000.0 0.10282223256289166 -0.010739976213720802
3300000000.0 -0.08070443639611133 -0.021063893733133457
3320000000.0 -0.031093889345700662 -0.05029740316856002
3340000000.0 0.02777007324636295 0.025464860725145998
3360000000.0 -0.012794741328453629 -0.013573110847496815
3380000000.0 0.014908583301282842 -0.010641408810099779
3400000000.0 -0.006744379150703114 0.030209024171021354
3420000000.0 -0.04427153794526194 0.011233844192435892
3440000000.0 0.04406189488631821 0.02977102675070102
3460000000.0 -0.04283853114707962 0.03735206158969108
3480000000.0 0.036192818184339476 -0.047756156849640734
3500000000.0 -0.060736480035263274 -0.028959802609117024
3520000000.0 0.023104265784529444 0.0787942085319591
3540000000.0 0.08201648153168897 -0.05566049164124439
3560000000.0 -0.0786936574208292 0.08689941250396917
3580000000.0 -0.07957502269003848 -0.11095393354744028
3600000000.0 -0.03911060110236198 -0.15259016383708834
3620000000.0 -0.16899708317834097 0.02425848023271873
3640000000.0 -0.1816461226457494 0.016648669488389962
3660000000.0 -0.09217541071289491 0.16524966686255604
3680000000.0 -0.1240480403170728 0.1422587208989731
3700000000.0 -0.18359170811950418 0.021421390586790337
3720000000.0 -0.03466684721533968 -0.17639770763897852
3740000000.0 0.16866211930661001 0.0391936692251326
3760000000.0 -0.020246691359682763 -0.16727441584553981
3780000000.0 -0.1401456071206964 0.08180156019583903
3800000000.0 0.03782775028814578 0.1544109058769865
3820000000.0 0.14777844298953705 -0.0506630730728535
3840000000.0 -0.00978259844901047 -0.15177914170724255
3860000000.0 -0.0336933667144204 -0.14631973297798834
3880000000.0 -0.10123324177919021 -0.10950149280263499
3900000000.0 -0.13444924979019499 -0.06337960762994112
3920000000.0 -0.11558214973183674 0.09763573710221722
3940000000.0 0.11391371553211525 0.10940675108227972
3960000000.0 -0.07581908982044291 0.14805183588722023
3980000000.0 0.0031800712567237274 0.1722790616756205
4000000000.0 0.1393014150749632 0.0968357966537016
