! Created with skrf (http://scikit-rf.org).
# Hz S RI R 50.0 
!freq ReS11 ImS11
400000000.0 -0.6851044961450714 0.5081981641376767
420000000.0 -0.24822114006315926 0.8242489964242466
440000000.0 0.7004475904798181 0.4520583565164042
460000000.0 0.6534214075377079 -0.4578478210298791
480000000.0 0.6345445070700674 0.37570328419552773
500000000.0 -0.5532934219817921 0.2109280667460895
520000000.0 -0.3323734529474944 0.36395498720494374
540000000.0 0.2656747994958681 -0.3375732495070358
560000000.0 -0.21770709927357268 0.293173271727569
580000000.0 0.0951075926205368 -0.32523701567909413
600000000.0 -0.32289653254630674 -0.08637301321997357
620000000.0 0.3204379174400491 0.14526071597655044
640000000.0 0.3714765751757236 0.04512856883075073
660000000.0 0.3611994032610315 -0.15029333178949714
680000000.0 0.17251324370144822 0.3740253827742226
700000000.0 0.37342495925490643 -0.20113751193068743
720000000.0 0.03408005955786356 -0.42167230449118487
740000000.0 0.25003057288744485 0.3318748783380241
760000000.0 0.3304697460582857 -0.2229746765797244
780000000.0 -0.26648144122146716 0.25775517693250083
800000000.0 0.3371908192375148 0.06828022584381375
820000000.0 -0.04360670877901836 0.2999877859445201
840000000.0 -0.13948800971998915 -0.21904474102664254
860000000.0 0.11592834754368228 -0.1815049089273732
880000000.0 -0.07882075304163615 0.15071682942452203
900000000.0 0.028575873378126365 -0.10460425560806766
920000000.0 -0.040806999328253754 0.05153423106808665
940000000.0 -0.021504307542713957 0.04485914319710812
960000000.0 0.020670500710789935 0.05258891280830714
980000000.0 -0.042097872416258036 -0.06141881298886667
1000000000.0 -0.004401474222150904 0.08186009857934252
1020000000.0 -0.09923628682471577 0.007635812789377981
1040000000.0 -0.08788352832548103 -0.0586722346976836
1060000000.0 0.0810309371339696 0.11409707807664868
1080000000.0 -0.11563890974033413 -0.1014268393820238
1100000000.0 -0.17711462227100905 -0.012783362001108479
1120000000.0 -0.07928798196164884 0.1825581629214031
1140000000.0 0.15060644474840343 0.18134936419929762
1160000000.0 0.18607329225296565 0.20044305335144372
1180000000.0 0.13217682355288995 0.2825911120515754
1200000000.0 -0.04002606363609227 0.3437463442479433
1220000000.0 -0.17440343291661653 -0.3318674138887028
1240000000.0 0.20786682152935626 0.34171600927339363
1260000000.0 0.029609822253042966 -0.4243059374418793
1280000000.0 -0.1411034830061754 0.41891935360946314
1300000000.0 0.3817783332644078 -0.23654625588126688
1320000000.0 -0.26876274062533356 -0.35250152921637284
1340000000.0 -0.1820124483441209 -0.39622096510254196
1360000000.0 0.0885663217136267 -0.42061200288792483
1380000000.0 0.009878993144862874 -0.4286283892351865
1400000000.0 -0.41355723131708794 -0.0609219688026029
1420000000.0 -0.14742224232200093 0.37378360748938977
1440000000.0 0.36252076774076003 0.09815068393634849
1460000000.0 0.24230014283640264 -0.24685087782919105
1480000000.0 -0.14646970722313415 -0.2814395768165817
1500000000.0 -0.2862428325298885 -0.010330445263482485
1520000000.0 -0.17733563883632575 0.19158455048355738
1540000000.0 -0.0869728743344772 -0.21674812670243662
1560000000.0 0.08937119079979311 -0.1789481201224921
1580000000.0 0.16035096625155604 -0.05745061012860226
1600000000.0 -0.07252221906353506 -0.11855754206401539
1620000000.0 -0.09831619012110596 -0.03909591112829872
1640000000.0 0.050891958844719906 -0.0635108587114247
1660000000.0 -0.008834329321232706 -0.05543615977756385
1680000000.0 -0.02984233704178667 -0.013828879096091038
1700000000.0 0.012374193793531656 0.010279331703469924
1720000000.0 -0.0031800441475920687 -0.0030251436045737505
1740000000.0 0.003172173194641681 -0.02002726344314489
1760000000.0 0.0362874508557688 0.008127619370953937
1780000000.0 -0.015632533201188376 -0.06493484083842405
1800000000.0 0.03473950408934026 0.0933209689123439
1820000000.0 0.1307437601301696 -0.01426266843450745
1840000000.0 -0.16728800850383346 -0.023604349389231206
1860000000.0 0.18693118304490136 0.08632299382088514
1880000000.0 -0.1701731572440424 -0.17634425236698947
1900000000.0 0.15941537213430912 0.23679630167436408
1920000000.0 -0.12491469034402698 -0.29509670277270267
1940000000.0 -0.1863295667416158 0.29662985050948865
1960000000.0 0.37642012481368914 0.0023521870075898883
1980000000.0 -0.05988417816948221 -0.3903086524154155
2000000000.0 -0.32701039157561573 -0.2512424826566781
2020000000.0 -0.3427074655648154 0.25395782069506706
2040000000.0 -5.759564096099654e-05 0.435179005826206
2060000000.0 0.43462873717833916 0.06267064919709757
2080000000.0 0.23220713007821261 -0.36852481161624906
2100000000.0 -0.14698561146473085 -0.4026014444306988
2120000000.0 -0.34186747920751426 -0.24236914547666114
2140000000.0 -0.4033551791120951 0.0552342039995019
2160000000.0 -0.28856059796798716 -0.2646479046311542
2180000000.0 -0.3734201369703963 -0.038272473847423355
2200000000.0 -0.3243577109201587 0.16208933711875262
2220000000.0 -0.21571027178310936 0.27790142317800226
2240000000.0 0.04419185299950615 0.34711398243987013
2260000000.0 0.28508367644330107 0.20526784226563638
2280000000.0 0.3277808626454803 -0.14450479647441228
2300000000.0 -0.21219479548663994 -0.30681821496184714
2320000000.0 -0.2587488509290192 0.30127822978381014
2340000000.0 0.42286571791407335 0.07196427714070626
2360000000.0 -0.34632701942885563 -0.31612419421351146
2380000000.0 0.3495816277797058 0.37841092807876947
2400000000.0 -0.4426367346941789 -0.3500994273214509
2420000000.0 0.6072937824782334 0.08723156304127548
2440000000.0 -0.5442183120492486 0.36920878762035997
2460000000.0 0.27898789429110643 -0.6349182030780653
2480000000.0 -0.03375668824686324 0.7189079641842903
2500000000.0 0.08564811637299144 -0.7306871814090494
2520000000.0 -0.36850648696485633 0.6450645249891243
2540000000.0 0.6756232380784633 -0.30536617585978043
2560000000.0 -0.6467428717302244 -0.3446610836743516
2580000000.0 -0.059527140396609286 0.711925742425181
2600000000.0 0.6205211686460927 -0.2980215436953683
2620000000.0 -0.4999485280815384 -0.4258295372331636
2640000000.0 -0.5710079799740911 -0.2378912979231073
2660000000.0 -0.07745537671613556 0.5692795166699967
2680000000.0 0.5167370016056032 -0.11360156384247948
2700000000.0 -0.308792974513356 -0.3729390664465388
2720000000.0 -0.04302300028930569 0.43746500086263995
2740000000.0 0.3016323460658877 -0.2604183765224161
2760000000.0 -0.35100308214829556 0.08784329544502378
2780000000.0 0.32207405394961747 -0.07829414314352057
2800000000.0 -0.2681065041475987 0.15106143279553863
2820000000.0 0.1293232692798525 -0.2614123478927325
2840000000.0 0.09736295172571428 0.2655303949392871
2860000000.0 -0.2445962459839087 -0.13923459875753513
2880000000.0 0.25124808968511725 -0.13195189903175747
2900000000.0 -0.1426510165200284 0.25012430589034074
2920000000.0 0.19355457240192298 -0.22092314916860145
2940000000.0 -0.2882618114904745 0.07799475522209127
2960000000.0 -0.02183140018464619 0.2987599348322571
2980000000.0 -0.0344655090206239 0.2996849118149729
3000000000.0 -0.2415326608709884 0.18216078434403893
3020000000.0 -0.17625758010273307 -0.24480946015354846
3040000000.0 0.2931708874119054 0.05911190987712973
3060000000.0 -0.29840667681379407 -0.010891317895659726
3080000000.0 0.296406733217537 0.007137531220493161
3100000000.0 -0.28200964535662754 0.07965041765332585
3120000000.0 0.2521164315901276 -0.13586228525978405
3140000000.0 -0.08013013206460781 0.26781452813594137
3160000000.0 -0.19181887328322214 -0.18374391474322987
3180000000.0 0.06161016768118823 0.24124375034059747
3200000000.0 -0.19025594551236294 0.11919461106500867
3220000000.0 -0.13821300579552293 -0.13982908924921064
3240000000.0 0.13810231980985851 -0.08817808039515043
3260000000.0 -0.12462045762728387 0.03547973617893995
3280000000.0 -0.034865397338879764 0.09186371064948971
3300000000.0 -0.032817829115705396 0.06342890913780097
3320000000.0 -0.015335271532140225 -0.04353386905808228
3340000000.0 -0.02623337476514453 0.005110416311586298
3360000000.0 -0.0057937503187934685 0.008978226410793795
3380000000.0 -0.004842118362501185 0.002899553969694292
3400000000.0 0.006987188953044909 0.018565733283955235
3420000000.0 0.011495082634158788 0.0327930022243398
3440000000.0 0.01361200195131129 -0.04551713390674089
3460000000.0 -0.04529492831487083 -0.03529099541940734
3480000000.0 -0.06690344306468678 0.007956988763138776
3500000000.0 -0.017530991063889015 0.07670424108523116
3520000000.0 0.01203897549957324 0.08996132891860499
3540000000.0 0.035445575488572224 -0.09694387098959516
3560000000.0 -0.1107228533323572 0.03556839862196183
3580000000.0 0.09869509365214857 0.08713050248324344
3600000000.0 -0.14877956343148874 0.03367047789209163
3620000000.0 -0.16616263688496483 0.003023056160113228
3640000000.0 -0.13394129119046128 -0.11987572376303772
3660000000.0 -0.18563281120687058 -0.036883007602326434
3680000000.0 -0.1812300147488952 -0.06555472256325211
3700000000.0 -0.17981785311097576 -0.06462607314266858
3720000000.0 -0.06091821172053151 -0.17784438716616188
3740000000.0 0.09384740707990523 -0.155566802845141
3760000000.0 -0.15350959399998892 0.08169483332988342
3780000000.0 0.12240011414241932 0.11013894310759213
3800000000.0 0.14390480960009475 -0.06381516276790014
3820000000.0 0.13201906313927808 -0.07763651292564303
3840000000.0 0.13399708474356956 -0.06756833089299956
3860000000.0 0.1499379740724791 0.02341032041096044
3880000000.0 0.1399195336701529 -0.07035412713928416
3900000000.0 -0.07701770745660232 -0.13725139127234134
3920000000.0 -0.03566341128412584 0.15666426567248942
3940000000.0 0.03824357314117543 -0.15975292364945143
3960000000.0 0.1604411401059035 0.05474717415884369
3980000000.0 0.16964610933882496 -0.02007235162348519
4000000000.0 0.14869703947268062 -0.07336279151864339
