! Created with skrf (http://scikit-rf.org).
# Hz S RI R 50.0 
!freq ReS11 ImS11
400000000.0 -0.7142798600669857 0.46392248632449745
420000000.0 -0.22462448086064873 0.8320377488416314
440000000.0 0.7144164085332128 0.42952326628238024
460000000.0 0.6024965580390701 -0.5224378396564703
480000000.0 0.6544014123289672 0.3394022802330891
500000000.0 -0.5295096293902591 0.2645464222642657
520000000.0 -0.30824057584017184 0.3818580757854593
540000000.0 0.3042837073571602 -0.30154030977566126
560000000.0 -0.22137360409413614 0.2894121773293591
580000000.0 0.21127230996833415 -0.26517555443477203
600000000.0 -0.31972533228150396 -0.09776374110527257
620000000.0 0.31079360450822463 0.16510571850350722
640000000.0 0.36456781910511016 0.08112018718930535
660000000.0 0.3786092210848765 -0.09904812629064766
680000000.0 0.12575537694066743 0.39287448065492786
700000000.0 0.39429109272107254 -0.1596271544094677
720000000.0 -0.015125122834718955 -0.42327262212888656
740000000.0 0.26607445968082183 0.320458829485668
760000000.0 0.335597383306107 -0.21428743683827928
780000000.0 -0.24044376606893444 0.283202534500076
800000000.0 0.3373727654230466 0.06220697353214584
820000000.0 -0.034023672650637826 0.3011338542104799
840000000.0 -0.103142386734173 -0.2381936139593703
860000000.0 0.09825892831329551 -0.1927645819033711
880000000.0 -0.08277228776343667 0.1489158098019197
900000000.0 -0.003799623373723505 -0.1088827363938827
920000000.0 -0.007708768283091407 0.06531920753209736
940000000.0 -0.017807968506895276 0.04717718622992535
960000000.0 0.05711383719398635 0.007375363821895808
980000000.0 -0.06904450406585874 0.028191830644383034
1000000000.0 0.0648996186254532 0.04860634191095707
1020000000.0 -0.09826485872663303 0.001598904465987959
1040000000.0 -0.07030221358690233 -0.07809108255380541
1060000000.0 0.06282093990830366 0.12486188562423751
1080000000.0 -0.09531025070962766 -0.12061150460376657
1100000000.0 -0.17358391416810462 -0.036490853614359275
1120000000.0 -0.10540081694915342 0.16857737454181018
1140000000.0 0.1378545013866725 0.1912660587664831
1160000000.0 0.17965264730222807 0.20687087350939146
1180000000.0 0.11487443501986758 0.2901711947863411
1200000000.0 -0.07958459862701206 0.33686546226203984
1220000000.0 -0.14095400473767405 -0.34723306930220554
1240000000.0 0.23374638029853992 0.32512026462198695
1260000000.0 -0.02765122031939642 -0.4246109135040089
1280000000.0 -0.13005849234289382 0.42217714937000744
1300000000.0 0.3940839126674159 -0.2145903534935583
1320000000.0 -0.26103312959919617 -0.35863271434892485
1340000000.0 -0.181995978678676 -0.3968245456294637
1360000000.0 0.07541605347199949 -0.4238046174114131
1380000000.0 -0.04184109297895331 -0.4268976756082915
1400000000.0 -0.4178910816051564 -0.009814862197072269
1420000000.0 -0.11672692810137039 0.3837499693041067
1440000000.0 0.35426184615399625 0.1210895287682184
1460000000.0 0.29317939516111763 -0.18224595255226145
1480000000.0 -0.16259963479827544 -0.2721217275629206
1500000000.0 -0.2787869199070908 -0.06796219682558219
1520000000.0 -0.2143762157314981 0.15145909594538512
1540000000.0 -0.06710226415238692 -0.22583311238548703
1560000000.0 0.10870499693884134 -0.1704613594506472
1580000000.0 0.1330666823478846 -0.10800663381747042
1600000000.0 -0.11629333256345067 -0.07603043789124492
1620000000.0 -0.09792527171772135 0.0382383010417204
1640000000.0 -0.011948534941442187 -0.07922037138179595
1660000000.0 -0.03527236876472799 -0.04108457739957651
1680000000.0 -0.027135914773532877 -0.0148090565336665
1700000000.0 0.014401054497424431 0.0004672126374765465
1720000000.0 -0.004946140081406921 0.003314345028328974
1740000000.0 -0.001362989484320129 0.0207495832033348
1760000000.0 -0.003472889354010803 -0.03676086281057782
1780000000.0 -0.052197048438078326 -0.03996213954699269
1800000000.0 0.03335795181233401 0.09258783099883308
1820000000.0 0.12865459793543027 0.020784447884927497
1840000000.0 -0.1504803184250396 -0.07472758992718297
1860000000.0 0.16472851158134597 0.12274266458463626
1880000000.0 -0.14357097263879262 -0.1985514954307149
1900000000.0 0.15541760486445372 0.23975791251528186
1920000000.0 -0.1254285797870467 -0.2951794759465032
1940000000.0 -0.16707404116416985 0.3083692238474783
1960000000.0 0.37578626971946366 -0.03315205172469149
1980000000.0 -0.0987284909233757 -0.3832242218897425
2000000000.0 -0.35295542160537396 -0.21519349041378416
2020000000.0 -0.3074127730916228 0.2970452458903643
2040000000.0 0.05734285631855265 0.43207549338884815
2060000000.0 0.43764767336223415 0.04055992602160776
2080000000.0 0.25843892006136293 -0.3510912059871222
2100000000.0 -0.1005426996015405 -0.4171290686804206
2120000000.0 -0.2970420157237045 -0.29636804830801405
2140000000.0 -0.40670694040271416 0.03349173071729778
2160000000.0 -0.23563973329586685 -0.31476409800660493
2180000000.0 -0.37072016519580464 -0.06912731233557685
2200000000.0 -0.3244108070397138 0.16493587871776547
2220000000.0 -0.16933927231126966 0.3096928687786053
2240000000.0 0.05806468704343618 0.3459515474530496
2260000000.0 0.27827005930892684 0.21539590799083252
2280000000.0 0.3347240189562845 -0.12987498573577438
2300000000.0 -0.18262548734668346 -0.32650567973971756
2320000000.0 -0.27043541513507485 0.2929346025216774
2340000000.0 0.4298460927472413 0.03659438246848523
2360000000.0 -0.3823120736259601 -0.2756029707123714
2380000000.0 0.4135490375933467 0.3108882899261411
2400000000.0 -0.4835154744163961 -0.2949527502662711
2420000000.0 0.6146748843063494 -0.015779899393816237
2440000000.0 -0.4503201409939371 0.4809137972013159
2460000000.0 0.11929721165178662 -0.6842351481653332
2480000000.0 0.15611166728410097 0.702793750611196
2500000000.0 -0.09055846286529043 -0.7302326721882558
2520000000.0 -0.20607419598306304 0.713379200600526
2540000000.0 0.5949665279945071 -0.4418279725254949
2560000000.0 -0.7101473941451392 -0.17781468492147515
2580000000.0 0.1079089862155788 0.7051669362908348
2600000000.0 0.5253606984919992 -0.4432261349185222
2620000000.0 -0.6010737759249345 -0.2618344604106588
2640000000.0 -0.6108894598708476 -0.0910377580725188
2660000000.0 0.03594610751046339 0.5721767466197446
2680000000.0 0.48306402297542106 -0.2128626399414397
2700000000.0 -0.37755213624484285 -0.30102295294513065
2720000000.0 0.0258559836671902 0.4375620168287633
2740000000.0 0.2799999075608063 -0.28186850508541483
2760000000.0 -0.34670290463011194 0.09980141631127179
2780000000.0 0.32260155263941076 -0.07173275441944779
2800000000.0 -0.27104858103120916 0.14423945828157142
2820000000.0 0.1382674375675094 -0.2557657668553852
2840000000.0 0.07572257891171778 0.27177985955273043
2860000000.0 -0.24024331913619412 -0.14508916588739357
2880000000.0 0.23835579045528058 -0.15211704258173134
2900000000.0 -0.13793722447870158 0.25131668657982037
2920000000.0 0.18570023574350686 -0.22568729742440488
2940000000.0 -0.2674232858474846 0.13003648253249347
2960000000.0 -0.009504835999799281 0.29803278208577877
2980000000.0 -0.039141663786196566 0.2976513568597647
3000000000.0 -0.23875667954147012 0.18472156946373486
3020000000.0 -0.17432292645529127 -0.24535309575796968
3040000000.0 0.2921059655624644 0.060787743354206725
3060000000.0 -0.296730814144955 -0.02461947180989898
3080000000.0 0.29586704662175695 0.0029845694497408095
3100000000.0 -0.2668403947138554 0.11938091731915275
3120000000.0 0.2014478077036813 -0.20279215830714167
3140000000.0 -0.056995763401132854 0.27278429255635994
3160000000.0 -0.20230672407237996 -0.1708039252693251
3180000000.0 0.07747781371195808 0.2351796214089698
3200000000.0 -0.15783071629567963 0.15823370632471948
3220000000.0 -0.1633588171131955 -0.10744265122369967
3240000000.0 0.11485321004049215 -0.11594144504576145
3260000000.0 -0.1139093105821039 0.06074132431770254
3280000000.0 -0.01545057411411719 0.0970148310982205
3300000000.0 -0.031044692631545776 0.06432324766304184
3320000000.0 -0.04221879218000416 -0.01934293758066956
3340000000.0 0.02135878396059486 0.01612994870204234
3360000000.0 0.010074405819334359 -0.0035310899235784137
3380000000.0 0.00232085536365128 -0.004961467300161902
3400000000.0 -0.017144818661370503 0.009318358970476124
3420000000.0 -0.017053309161060085 0.0301268609470698
3440000000.0 0.032041271053964815 -0.03412784610136464
3460000000.0 -0.03491115739511672 -0.043993038229022806
3480000000.0 -0.06413280140975573 -0.016356879617736873
3500000000.0 -0.06022272882016124 0.04875503074652857
3520000000.0 -0.041960329207504234 0.07925896987726296
3540000000.0 0.08881262340047666 -0.050065748768829174
3560000000.0 -0.11318102416185083 -0.023118945763224576
3580000000.0 0.05384518296530311 0.11969012773622564
3600000000.0 -0.15094955627503087 -0.009426167327389611
3620000000.0 -0.1653725524945145 0.006502313871122677
3640000000.0 -0.15399552031341096 -0.09172281135084363
3660000000.0 -0.1834835884850674 -0.039275176488005985
3680000000.0 -0.18185856370102157 -0.059550720400582104
3700000000.0 -0.17161139620102442 -0.0797940211633498
3720000000.0 -0.051712271472238065 -0.17926307308143594
3740000000.0 0.10371260120504848 -0.14729217636932118
3760000000.0 -0.16644097444847106 0.04714617901138555
3780000000.0 0.10695770689443883 0.1244571585717427
3800000000.0 0.15230663095569894 -0.038211053247469005
3820000000.0 0.14311929852911887 -0.05513457025647326
3840000000.0 0.1401667956115989 -0.05451655080225206
3860000000.0 0.15128936267611412 -0.0034946352450023078
3880000000.0 0.137936241434605 -0.07285270393488821
3900000000.0 -0.08748213200404058 -0.13007252504918862
3920000000.0 -0.049294408362916424 0.15263269171953947
3940000000.0 0.05681886748260367 -0.1542753427228512
3960000000.0 0.15555412052511314 0.06882471965686891
3980000000.0 0.17106053034848162 -0.008541155148829345
4000000000.0 0.1471136853470207 -0.0776834036545832
