! Created with skrf (http://scikit-rf.org).
# Hz S RI R 50.0 
!freq ReS11 ImS11
400000000.0 -0.689027268282902 0.5022225572111161
420000000.0 -0.23866311464379444 0.8282872585266724
440000000.0 0.7263528714336933 0.4091381585076305
460000000.0 0.6658925627854533 -0.4389278031378722
480000000.0 0.6037301169457442 0.4240725412842665
500000000.0 -0.5517977471123562 0.21610430864368363
520000000.0 -0.3155408720928381 0.3774533302383537
540000000.0 0.2573883220455875 -0.3426776574872788
560000000.0 -0.2246912500348352 0.2877633757161026
580000000.0 0.1984831171133841 -0.2756406264091994
600000000.0 -0.3304402340905028 -0.05040617956273691
620000000.0 0.32502585834872 0.1335367838945817
640000000.0 0.3736719275106114 0.016860766355820123
660000000.0 0.37220754639197007 -0.12175064817273373
680000000.0 0.15680980084910706 0.38154596238556376
700000000.0 0.38904092288592573 -0.17067887882015226
720000000.0 0.03349776144762357 -0.4215667427066332
740000000.0 0.2698313427114577 0.3162554892856954
760000000.0 0.33295564337737266 -0.2176989029639682
780000000.0 -0.2513166006380964 0.2738763652717672
800000000.0 0.3350805522290349 0.07503394180536441
820000000.0 -0.08760341759105246 0.29004327213715597
840000000.0 -0.10948602161810787 -0.23527366719246065
860000000.0 0.11827691504613003 -0.18108658681098963
880000000.0 -0.07714006684006205 0.15212165591409227
900000000.0 0.03230158504144623 -0.10383979250543406
920000000.0 -0.03542903318382769 0.05519506703702332
940000000.0 -0.049860872493610306 -0.004451435248943324
960000000.0 0.017046137749608153 0.05423481173279735
980000000.0 -0.06859376823562302 -0.028541714158729713
1000000000.0 0.050029291450293355 0.06430877082506284
1020000000.0 -0.09864716775928471 0.012079029885485043
1040000000.0 -0.09092257198265132 -0.054296118338003956
1060000000.0 0.08136459911062044 0.11414930919019192
1080000000.0 -0.10796994865997141 -0.1096852127878207
1100000000.0 -0.17635277297811094 -0.02368357236550597
1120000000.0 -0.10866690716067523 0.16679990911136794
1140000000.0 0.14007054529161544 0.18963965430329008
1160000000.0 0.171390889940858 0.21335885961675247
1180000000.0 0.11735554798637834 0.2891670102394209
1200000000.0 -0.05806529797363346 0.3411275356481997
1220000000.0 -0.15857013321772265 -0.33942107936175026
1240000000.0 0.1938455466868366 0.3496739073868098
1260000000.0 0.014655560898586535 -0.4249430510310961
1280000000.0 -0.14876643371532666 0.41603770552925756
1300000000.0 0.39796856553409543 -0.20740498618016645
1320000000.0 -0.2880466457860294 -0.3368140854704351
1340000000.0 -0.20373949895834526 -0.3855434133541393
1360000000.0 0.07283383934513057 -0.42376728985959394
1380000000.0 -0.030047261422479824 -0.42793386478718165
1400000000.0 -0.4169912927128206 -0.031467017173079
1420000000.0 -0.11013163753123066 0.3863630708202278
1440000000.0 0.35657999223076653 0.117558307113051
1460000000.0 0.2632312542408905 -0.22444778687987957
1480000000.0 -0.13913016408395537 -0.2850560822114439
1500000000.0 -0.2824973256990474 -0.04888921809311623
1520000000.0 -0.19883894109451053 0.16981082491653055
1540000000.0 -0.07920489138343387 -0.22095197991489865
1560000000.0 0.12273888805523811 -0.15955670080627862
1580000000.0 0.16256797267439788 -0.052433036438164424
1600000000.0 -0.08822458919628227 -0.10701368298929351
1620000000.0 -0.09207410724198907 -0.05095480212324378
1640000000.0 0.037649652027597166 -0.07141392706160847
1660000000.0 -0.013079333547609134 -0.053860891778798235
1680000000.0 -0.030541735502320734 0.010155922964373157
1700000000.0 0.01543904602137555 -0.0006717923652857876
1720000000.0 -0.004537736501601408 0.0007805854414475428
1740000000.0 0.0032571147611485485 -0.01992113669929235
1760000000.0 0.036558125663292265 0.004928044277066707
1780000000.0 -0.008166158583607242 -0.06567221759312783
1800000000.0 0.021433959752960086 0.09684432893771265
1820000000.0 0.13092922496251413 0.004379969611802855
1840000000.0 -0.15696184946475011 -0.061050118431028005
1860000000.0 0.17054760344341965 0.11456293747744198
1880000000.0 -0.16050866003889216 -0.18490859193858292
1900000000.0 0.15856065479832387 0.23693967647544406
1920000000.0 -0.12893300231184443 -0.29299235433705384
1940000000.0 -0.16122116141865933 0.3106964351792797
1960000000.0 0.3760330207396956 -0.01478023416710043
1980000000.0 -0.08582054498619456 -0.38562129454336247
2000000000.0 -0.3362730773314459 -0.23890528237172873
2020000000.0 -0.3417378864532501 0.25588526304571946
2040000000.0 -7.3119398937259394e-06 0.4357114426597809
2060000000.0 0.4368473862134595 0.04585558154859863
2080000000.0 0.252254419193175 -0.3557433663247719
2100000000.0 -0.12210385298940984 -0.41137506018786657
2120000000.0 -0.32828049675052123 -0.261617642736083
2140000000.0 -0.4046391561072595 0.051038468909795236
2160000000.0 -0.25194655746711403 -0.30083388686882173
2180000000.0 -0.3652623157544202 -0.08993362747832884
2200000000.0 -0.3440192255249297 0.11613857438075889
2220000000.0 -0.23043574682891016 0.26566703347116627
2240000000.0 -0.003789471436795817 0.3495867853349123
2260000000.0 0.25194152471209064 0.2446969790608478
2280000000.0 0.34350912623273694 -0.10211587455848388
2300000000.0 -0.1613502306983315 -0.33607717881353316
2320000000.0 -0.30907682233031936 0.248691489602324
2340000000.0 0.41370166608125525 0.11326119683584757
2360000000.0 -0.3194351748893958 -0.3430044157369321
2380000000.0 0.3318171043496369 0.3934959927096875
2400000000.0 -0.4024236261506136 -0.39489632609362324
2420000000.0 0.6016280260404339 0.11690033573575734
2440000000.0 -0.5769288489586036 0.3153192560151313
2460000000.0 0.31538036439625394 -0.6176938077223459
2480000000.0 -0.09208959280861025 0.7140778340006353
2500000000.0 0.21283170195363404 -0.7051591537017536
2520000000.0 -0.43803689933252 0.6004187691300757
2540000000.0 0.6977115586363108 -0.2536460734636355
2560000000.0 -0.6079147885631322 -0.41120203124807264
2580000000.0 -0.07888923953155373 0.7111876990150824
2600000000.0 0.6635881694359718 -0.18870867194264151
2620000000.0 -0.4605431706979403 -0.47030940584696973
2640000000.0 -0.5397517393980579 -0.3059890904287797
2660000000.0 -0.13781438696075618 0.5595961450487261
2680000000.0 0.5280059693304031 -0.054998987257444946
2700000000.0 -0.2898951425748668 -0.3899523891667922
2720000000.0 -0.06529592851741503 0.4361391599769607
2740000000.0 0.329242296440026 -0.2265897952123238
2760000000.0 -0.3550655134846893 0.0755367539704342
2780000000.0 0.3256518788347676 -0.06718809346413324
2800000000.0 -0.2785599750992228 0.13338064872974978
2820000000.0 0.15353568275220902 -0.24903461227879034
2840000000.0 0.07322298763158246 0.2740033196190403
2860000000.0 -0.24264392936089205 -0.14382836428914367
2880000000.0 0.2537893989781117 -0.12835964406462788
2900000000.0 -0.1524753161261562 0.2447948668304968
2920000000.0 0.2150474901561219 -0.2009107235330563
2940000000.0 -0.28664589032167065 0.08567511821657789
2960000000.0 -0.03987891436941295 0.29700765986237326
2980000000.0 -0.07514046824005656 0.292805757727898
3000000000.0 -0.2515332270143267 0.16850343395263714
3020000000.0 -0.16930116532225914 -0.2498547136725413
3040000000.0 0.28744446689520703 0.0833381122368765
3060000000.0 -0.2981943797686007 -0.020694769610040752
3080000000.0 0.29546760709231934 0.028351630543345656
3100000000.0 -0.29243705921650753 0.015189906666369143
3120000000.0 0.24718939531163975 -0.1444660865788101
3140000000.0 -0.0832311213054651 0.26665774615246335
3160000000.0 -0.19658478140868874 -0.1786348216640589
3180000000.0 0.05786665769177601 0.2418094552185109
3200000000.0 -0.1733178101801172 0.142466353225425
3220000000.0 -0.15571848363568408 -0.11904253532148583
3240000000.0 0.11769239696503721 -0.11408589155861956
3260000000.0 -0.11411216812497277 0.06152482806324915
3280000000.0 0.0337382102387093 0.09223240256655416
3300000000.0 0.008387942308515757 0.07099729460797587
3320000000.0 -0.04597703320149337 0.001401268134597791
3340000000.0 0.025589415913680597 -0.007567831398826599
3360000000.0 -0.010251791081480045 0.002165256565648385
3380000000.0 -0.005444052331869373 -0.001846468795866338
3400000000.0 0.019299547932877106 -0.0010287393128976107
3420000000.0 -0.0318316874834732 -0.013459346701161157
3440000000.0 0.04695441838312307 0.006037923917467048
3460000000.0 0.007873920549092698 -0.05637832782577754
3480000000.0 -0.030786865321772803 -0.05924052957518654
3500000000.0 -0.07366859577383897 0.027057739709409206
3520000000.0 -0.06008905549552964 0.06794214663872021
3540000000.0 0.07851451416609077 -0.06741906769394376
3560000000.0 -0.11533569867103588 -0.016635478784633853
3580000000.0 0.034060682539466494 0.1267293423325232
3600000000.0 -0.1443372693364283 -0.04635967519331447
3620000000.0 -0.1573915551540362 -0.05155897897293616
3640000000.0 -0.09034290749251704 -0.1543820342001029
3660000000.0 -0.17075523219080815 -0.08046721275454137
3680000000.0 -0.16848513376424348 -0.09217342864244442
3700000000.0 -0.15925406676064663 -0.10444612593198611
3720000000.0 -0.027341479478860217 -0.1855945135445929
3740000000.0 0.11099346375447888 -0.14285319697324433
3760000000.0 -0.15903138567658576 0.06733059303389258
3780000000.0 0.10923724232075721 0.12199568318538404
3800000000.0 0.14756010184661536 -0.051536018543303676
3820000000.0 0.1436957125616751 -0.05197755083329753
3840000000.0 0.13645674969489308 -0.060114987566750405
3860000000.0 0.14799157523038875 0.025807894997146492
3880000000.0 0.14238853436111307 -0.06195705505389712
3900000000.0 -0.08807919235479911 -0.1282842728391711
3920000000.0 -0.0458175847438004 0.152527874270381
3940000000.0 0.018735678198725868 -0.16160358259775207
3960000000.0 0.16389927760269532 0.037561905322735935
3980000000.0 0.16448121865934967 -0.04131121281987827
4000000000.0 0.12528060834324084 -0.10713256705931781
