! Created with skrf (http://scikit-rf.org).
# Hz S RI R 50.0 
!freq ReS11 ImS11
400000000.0 -0.674003389427552 0.5216902630644746
420000000.0 -0.23846828734448608 0.8275313684752896
440000000.0 0.7418154244880629 0.38096942947725715
460000000.0 0.6403967913723257 -0.47478474507077895
480000000.0 0.639929081593303 0.36683579174642694
500000000.0 -0.5543380176499629 0.20936325908507492
520000000.0 -0.31071002774444473 0.3811376234041296
540000000.0 0.2865964583471303 -0.31830023432145677
560000000.0 -0.22407988680213078 0.28726951909180165
580000000.0 0.15025220870728906 -0.30496601845515586
600000000.0 -0.30892130063571466 -0.12545612014750204
620000000.0 0.31431547452279757 0.15854313856186086
640000000.0 0.372795865326051 -0.02920542409635774
660000000.0 0.372024431368458 -0.12322089761716468
680000000.0 0.13103625647788356 0.3926185451386537
700000000.0 0.3629352774982737 -0.22100188755643144
720000000.0 0.019640477040359348 -0.4226257504627026
740000000.0 0.2690095670813641 0.31624235275439694
760000000.0 0.3352638819258904 -0.2155505133066916
780000000.0 -0.2616613727912136 0.26360747935574963
800000000.0 0.33255233937341455 0.08732713100571028
820000000.0 -0.09296320385657399 0.2885602379316304
840000000.0 -0.13291505901477915 -0.22186687067667726
860000000.0 0.16518507928133117 -0.13746118315511074
880000000.0 -0.08583524988962939 0.14817277345504076
900000000.0 -0.0058694859709941824 -0.10572061775355908
920000000.0 -0.05933270205848734 0.027329066973517203
940000000.0 -0.018080574280834726 0.0456349672952517
960000000.0 0.03151643485554231 0.0468110994945546
980000000.0 -0.030156525286426192 -0.06774571896277674
1000000000.0 -0.0013836123560530282 0.08127545648427757
1020000000.0 -0.0908931870887555 0.039147330043507206
1040000000.0 -0.0833597586255799 -0.06512047555348126
1060000000.0 0.07657612944471819 0.1180156160260639
1080000000.0 -0.1122266718282189 -0.10548514961685829
1100000000.0 -0.17649873920564396 -0.02090846902288565
1120000000.0 -0.07652445417687234 0.18370929512219789
1140000000.0 0.14964758522671612 0.18270299792330835
1160000000.0 0.18842856199712132 0.19834625542316558
1180000000.0 0.15892139348312614 0.2683419627529817
1200000000.0 -0.0055561691030370395 0.34578044286126813
1220000000.0 -0.18526147313298807 -0.32588631317738154
1240000000.0 0.23631079825228715 0.3233897431139709
1260000000.0 -0.038490828200194074 -0.42400403799501807
1280000000.0 -0.10806623400552413 0.4293736372238812
1300000000.0 0.3797949449360264 -0.24040286320504264
1320000000.0 -0.279732690879413 -0.3445269417133996
1340000000.0 -0.18765154678451978 -0.39366927482162284
1360000000.0 0.09209275027272663 -0.42021652998647463
1380000000.0 0.01988430917866336 -0.4285477383167316
1400000000.0 -0.40708545491448184 -0.09738796710930767
1420000000.0 -0.16259309287569773 0.3675449575930556
1440000000.0 0.34763809725346106 0.14191514516718415
1460000000.0 0.2704279516295379 -0.2157495989453121
1480000000.0 -0.11216030727192773 -0.29649314126845755
1500000000.0 -0.2854280983757877 -0.0202810835509475
1520000000.0 -0.17766386091127578 0.190270324511305
1540000000.0 -0.10803348453198319 -0.20639612534050766
1560000000.0 0.07577175633149622 -0.1843802844592743
1580000000.0 0.16887944744537975 -0.021092848632158056
1600000000.0 -0.06678591965879195 -0.1208295435060912
1620000000.0 -0.058390386205012475 -0.0873002027045647
1640000000.0 0.026544132165780523 -0.07667400100629955
1660000000.0 -0.026123402507000466 -0.05016901422939322
1680000000.0 -0.030212951853538075 0.014672331099599966
1700000000.0 0.008233983133629247 -0.01431047877868525
1720000000.0 -0.00035053795881912365 0.0036117908912568827
1740000000.0 -0.001550896566884227 -0.020316405263877714
1760000000.0 0.013281731672548612 0.0352339357146687
1780000000.0 -0.019024922290073177 -0.06528201595921534
1800000000.0 0.02042399621071028 0.09854498406423334
1820000000.0 0.1325214517009052 0.0014050684089694627
1840000000.0 -0.16900171315349513 -0.013010738771883988
1860000000.0 0.18599102249853952 0.08895043087149036
1880000000.0 -0.1464621854537965 -0.1964936925966133
1900000000.0 0.1207840986802363 0.25854769727878474
1920000000.0 -0.10507049694414834 -0.3018352454489648
1940000000.0 -0.1767399425874355 0.30207168383962935
1960000000.0 0.3762800066933263 0.002712390295915835
1980000000.0 -0.06941709887061825 -0.3887265328458763
2000000000.0 -0.33422969899990934 -0.24123756527176443
2020000000.0 -0.3457844820371641 0.2502895505441575
2040000000.0 0.041562406535519306 0.433484810133988
2060000000.0 0.4377656903189547 0.0424811196347757
2080000000.0 0.2230405493228059 -0.37508100217558027
2100000000.0 -0.1380837533832309 -0.4063174549979301
2120000000.0 -0.3762088623598646 -0.18549200852825526
2140000000.0 -0.3864949484030634 0.13007816699490884
2160000000.0 -0.3154383532157227 -0.2341349110589112
2180000000.0 -0.37680728226489063 -0.007231909567288118
2200000000.0 -0.3117096970544562 0.1873928138340812
2220000000.0 -0.16548615816072865 0.31161945905554894
2240000000.0 0.06140372208145344 0.34617230155072154
2260000000.0 0.2649018887030073 0.23442774654789958
2280000000.0 0.33982623043645904 -0.12000433741426034
2300000000.0 -0.18490220811987257 -0.3259464201306939
2320000000.0 -0.2700339990037233 0.2933681953579626
2340000000.0 0.4190656456055245 0.09735286056146779
2360000000.0 -0.3360977798988414 -0.3294788215743058
2380000000.0 0.35790026504768274 0.37231931489409353
2400000000.0 -0.44971953300855705 -0.3425397642771429
2420000000.0 0.6134491901934276 0.02770509095735417
2440000000.0 -0.5116599651398173 0.41390608054467676
2460000000.0 0.1847989266586437 -0.6685529698320011
2480000000.0 0.10625660941941015 0.7112259759633875
2500000000.0 -0.05066285110000651 -0.7336421640957825
2520000000.0 -0.24580921752821036 0.7008035800781918
2540000000.0 0.6104988524931969 -0.42006884712546555
2560000000.0 -0.70726258447258 -0.1897679548875968
2580000000.0 0.08450195138759935 0.7095505920382476
2600000000.0 0.554906979955198 -0.40718973663598346
2620000000.0 -0.5766322357412541 -0.3136251803492153
2640000000.0 -0.6002148105799593 -0.15050659865369537
2660000000.0 0.04853456318425858 0.5728738563137211
2680000000.0 0.49864735403871874 -0.17904153919329077
2700000000.0 -0.37440501980531493 -0.30850632396520694
2720000000.0 0.010451920040015564 0.43987265740517356
2740000000.0 0.28657198583493404 -0.27740070675120954
2760000000.0 -0.3492999346264492 0.09386202067316471
2780000000.0 0.32523391389292555 -0.0646763190723486
2800000000.0 -0.27934347998108344 0.12822437067061268
2820000000.0 0.14680599407934358 -0.25128102216763626
2840000000.0 0.05732285662334327 0.2758162587184672
2860000000.0 -0.21960411193056245 -0.17476855927166648
2880000000.0 0.2513783166503609 -0.1281781617399285
2900000000.0 -0.13133565852470358 0.25458043543742925
2920000000.0 0.19869982326056582 -0.2144264880303761
2940000000.0 -0.27895007440328345 0.10378829689583143
2960000000.0 0.009677398706242344 0.2983503284341346
2980000000.0 -0.006060420481934052 0.3007106787750993
3000000000.0 -0.1656990653928442 0.25187830956173723
3020000000.0 -0.2540431237444975 -0.16004946277596158
3040000000.0 0.29804407506122405 -0.006326536673714699
3060000000.0 -0.2909530457249659 0.06548388280292368
3080000000.0 0.2897719726319402 -0.0600579421126671
3100000000.0 -0.27132652551154585 0.10940279678515943
3120000000.0 0.19415409189889266 -0.21117418812385577
3140000000.0 -0.004457426404125355 0.27941976072704494
3160000000.0 -0.23054546454500993 -0.13252237568262001
3180000000.0 0.1225701592444352 0.2165764718875471
3200000000.0 -0.16192786486058378 0.15621567637451436
3220000000.0 -0.16952190578300286 -0.09955746306487094
3240000000.0 0.1341098376964139 -0.09575108958030049
3260000000.0 -0.11582650606356575 0.059593588495038305
3280000000.0 0.04418281335724233 0.0886480251780077
3300000000.0 0.0010552897118072946 0.07183219855570225
3320000000.0 -0.014176054374890381 -0.04442200796759471
3340000000.0 -0.01749575102087098 0.02098255094384924
3360000000.0 0.001019880959644604 -0.011451662019739616
3380000000.0 0.0011627355752194402 -0.005124448551851435
3400000000.0 0.016428063202555396 0.009395726435582893
3420000000.0 0.031152745297159893 0.011856380219768084
3440000000.0 -0.038902272102757735 -0.025305517320014664
3460000000.0 -0.030730380767569263 0.04645087756318567
3480000000.0 -0.060263607873840205 0.025735329449000078
3500000000.0 0.027259838823518928 0.07122329554839839
3520000000.0 0.030281617787964465 0.08370734318864144
3540000000.0 -0.007876160644693441 -0.10148098481355035
3560000000.0 -0.08592880442586787 0.07619006864597792
3580000000.0 0.0972413759567269 0.08606175228499097
3600000000.0 -0.1400409341096688 0.05514248291784983
3620000000.0 -0.15175346246094037 0.06584178849939545
3640000000.0 -0.16910224043057967 -0.06063270525598943
3660000000.0 -0.18754379684266861 -0.024449135972195425
3680000000.0 -0.19029827840858407 -0.03513734630886645
3700000000.0 -0.18093933420390673 -0.06405510388908241
3720000000.0 -0.10213635886086332 -0.15861215279772725
3740000000.0 0.09807709430313956 -0.15373436880306043
3760000000.0 -0.1598288131236075 0.06953130718560108
3780000000.0 0.13188265584945677 0.09884088786917072
3800000000.0 0.15763996128272179 -0.015456802467895093
3820000000.0 0.14392070562310616 -0.05552278332034999
3840000000.0 0.14452625833076066 -0.046173322062186585
3860000000.0 0.1394137085220572 0.062465929736166506
3880000000.0 0.12763275873867896 -0.09138585409273967
3900000000.0 -0.0757741696652715 -0.13848460571090784
3920000000.0 -0.08475055103271892 0.13760303551616504
3940000000.0 0.046160606558287624 -0.15804002580999627
3960000000.0 0.14850907017775927 0.08184985595460274
3980000000.0 0.1670536378358201 0.03648229545152054
4000000000.0 0.16530906578700036 0.004528754091123964
