! Created with skrf (http://scikit-rf.org).
# Hz S RI R 50.0 
!freq ReS11 ImS11
400000000.0 0.21421667434078095 0.845657223846477
420000000.0 0.6695783364081209 0.5396876233986645
440000000.0 0.7857969260083056 -0.24689503328169785
460000000.0 0.23027397083231382 -0.7527232959516411
480000000.0 0.6616070601022055 -0.23441623083808685
500000000.0 0.5565401381670945 -0.09700531182410939
520000000.0 0.43336989033517564 -0.23611515295632282
540000000.0 0.32640383854403965 0.28454857348236806
560000000.0 -0.2845016564940064 -0.22528321657590122
580000000.0 -0.23567351938318284 0.2481377042015723
600000000.0 0.3391364414519656 0.015259645375588549
620000000.0 -0.34680425193738157 -0.07898682493137454
640000000.0 -0.317601601915952 0.21932173469788746
660000000.0 -0.06936507164978052 0.39313044176384354
680000000.0 -0.35438668608531787 -0.23517331685347767
700000000.0 0.27976159023233577 0.3438576963145323
720000000.0 0.1707789408796882 -0.4128592170271687
740000000.0 0.4325970244313869 -0.0783796037264493
760000000.0 -0.3978031449139224 -0.12988214958023367
780000000.0 0.10383079578484866 -0.37021034050640267
800000000.0 0.210935833508214 0.2756612325027422
820000000.0 0.19165504162275912 0.2093684617090907
840000000.0 0.14455707403301443 0.17685888997223215
860000000.0 -0.11382938701156048 0.1572515659079429
880000000.0 0.12243186059439287 0.04421833393972192
900000000.0 0.06067360144066477 -0.036649623496655355
920000000.0 0.03559502312321706 0.02060451884853144
940000000.0 0.024911614999379987 -0.009053256950860495
960000000.0 -0.03389349836503239 0.008850886772620121
980000000.0 0.024455598138642 -0.04432078332276648
1000000000.0 -0.05592492529849527 0.011307084541987917
1020000000.0 0.0653420503779871 0.03468302938408625
1040000000.0 0.08224404317719883 0.026803279078387632
1060000000.0 -0.12770091069615416 -0.002468961778260646
1080000000.0 0.13946630348776523 -0.050441947465719804
1100000000.0 -0.043741700328762026 -0.1742820288645474
1120000000.0 -0.02135866536201725 0.20838232831554934
1140000000.0 -0.06792527434109191 -0.24118129595500487
1160000000.0 -0.2718044271511536 0.10602409529896889
1180000000.0 -0.07392077063865225 0.3220398352350889
1200000000.0 -0.09951129390517056 0.3470510674848368
1220000000.0 -0.3303043714531184 -0.19997711390242187
1240000000.0 0.4065940420718705 -0.004731706723015768
1260000000.0 -0.41175315218238717 -0.11873128270366126
1280000000.0 0.36456469957997645 0.24681209812632154
1300000000.0 -0.06205747265129906 -0.43869897151832954
1320000000.0 -0.4333708587070681 0.023745544068667277
1340000000.0 -0.35359970610228114 -0.23191459576768939
1360000000.0 0.13114301915096524 -0.39308683652711274
1380000000.0 0.32191994718498546 -0.26307128220062975
1400000000.0 0.20463275524037589 -0.3506678786920618
1420000000.0 -0.12353986364379217 -0.37675430099668367
1440000000.0 -0.371437894020813 -0.0781925576118286
1460000000.0 -0.04669334916345967 0.35703551703480974
1480000000.0 0.2430460143118697 -0.2323976989346726
1500000000.0 -0.2627171859322177 0.15801609065558467
1520000000.0 0.2772888487085795 0.0001244562761872208
1540000000.0 0.22828027650177507 0.082454861981092
1560000000.0 0.19402346531884998 0.04965241819890073
1580000000.0 0.1090248970622828 0.12250259415140552
1600000000.0 0.08684178837250671 -0.0958390236424094
1620000000.0 0.08619745808543981 0.03460562599726658
1640000000.0 -0.04368948751293471 -0.05557302144027767
1660000000.0 -0.04541976212548365 -0.009229657514993533
1680000000.0 -0.021653336038267187 -0.012306222672253545
1700000000.0 -0.008176020970078102 -0.008846852168279325
1720000000.0 0.011905361835284733 -0.0014090938550566762
1740000000.0 -0.025718413527002146 0.013292837080111015
1760000000.0 -0.007459951400200561 -0.04328683856681301
1780000000.0 -0.017797988937361797 -0.06753201497763528
1800000000.0 -0.00833780944765112 0.0983643339175133
1820000000.0 -0.11111841894133175 0.053804655080441265
1840000000.0 -0.01031979839499375 0.15704056946577769
1860000000.0 0.16393138117747935 0.09566467849891926
1880000000.0 0.1946411875718242 -0.11995472319094512
1900000000.0 -0.16263237340593836 -0.21849688841028164
1920000000.0 0.11819422427805057 0.28932078250121995
1940000000.0 0.11260877906801949 -0.33220350518706876
1960000000.0 -0.2778399038007978 0.2637206989250145
1980000000.0 0.3666683067213273 -0.17636611379593484
2000000000.0 -0.32861404141741296 -0.26917005487356704
2020000000.0 -0.09554118218698901 0.4248051039210755
2040000000.0 0.41103090229288175 0.1515328305914949
2060000000.0 0.2508501196275046 -0.3556345584573968
2080000000.0 -0.11524523061470106 -0.4100513057476794
2100000000.0 -0.14062518332233503 -0.39318142114280297
2120000000.0 -0.14412540785287292 -0.3810740606501396
2140000000.0 -0.171225241087824 -0.35859969014692533
2160000000.0 0.28444820407598553 -0.2588784868647701
2180000000.0 0.1608331447362489 -0.33474157427420864
2200000000.0 0.03193462122969773 -0.3594378690896456
2220000000.0 -0.304714363023314 -0.17871688044916562
2240000000.0 -0.2644025970574144 0.22720300105299418
2260000000.0 0.042330227312484175 0.3451991709956975
2280000000.0 0.25586302531628274 0.23759854939738692
2300000000.0 0.280678771305246 -0.22787233384531708
2320000000.0 -0.14670634891206283 -0.3535857273700282
2340000000.0 -0.3786997891539966 0.16734878539531212
2360000000.0 0.36272071825206015 0.27360424306078146
2380000000.0 -0.29620518997686474 -0.40603711762590333
2400000000.0 0.2866078685335182 0.4748456650818724
2420000000.0 -0.5095354992922326 -0.33121867782497016
2440000000.0 0.6548678848841072 -0.05855344835323217
2460000000.0 -0.5094982967412143 0.4786025368766567
2480000000.0 0.2473787185098862 -0.6879054068414092
2500000000.0 -0.22071296352888062 0.7193084574540848
2520000000.0 0.3910637917649991 -0.6552792119191583
2540000000.0 -0.6045328995719907 0.4689892680329746
2560000000.0 0.7533470205441701 0.09216966880195253
2580000000.0 -0.3621903248120425 -0.6503634690233874
2600000000.0 -0.2713984478923016 0.6669040177250422
2620000000.0 0.6728997816219203 -0.14888920492589544
2640000000.0 0.4738186513628804 -0.44776247758669774
2660000000.0 -0.6064131614885804 -0.047183604800932706
2680000000.0 0.3392435376603922 0.44683309032370994
2700000000.0 0.0030888809874259496 -0.5134349363404006
2720000000.0 -0.18540670566190243 0.4263313165893468
2740000000.0 0.3437023138705747 -0.2415593220454603
2760000000.0 -0.3720128603786164 0.08028956542554781
2780000000.0 0.31984666838661274 -0.14335914991233534
2800000000.0 -0.19197275349462445 0.2633566773930455
2820000000.0 -0.12058256898071959 -0.28481774178920294
2840000000.0 0.29683787714386006 0.03695206838328706
2860000000.0 -0.13632867605860322 0.26244524687158405
2880000000.0 -0.14318008402033486 -0.2584296217135234
2900000000.0 0.19578290658454875 0.22267836381724343
2920000000.0 0.06432416076908203 -0.2940933498150748
2940000000.0 -0.30311596684460784 0.0480776608202063
2960000000.0 -0.13296804356653324 0.27850232685541393
2980000000.0 -0.26281774947777586 0.16932960380818807
3000000000.0 -0.26244840635077105 -0.17441528054554675
3020000000.0 0.08748570360530598 -0.3036948324113148
3040000000.0 0.2222205554012455 0.22263448802570335
3060000000.0 -0.31193726616264494 0.03691596580762875
3080000000.0 0.27480620608298456 -0.14237844846687184
3100000000.0 -0.11398111627447621 0.28076220082200504
3120000000.0 0.06248962117249259 -0.2879832441217117
3140000000.0 0.14207309029833984 0.24540618426525432
3160000000.0 -0.23147103742384997 -0.13292904630154687
3180000000.0 -0.02012860509198751 0.24836260665397553
3200000000.0 -0.17538322689812788 -0.14333424511133616
3220000000.0 0.16693314601897769 -0.10858401622826463
3240000000.0 -0.004742736032123041 0.169308477223921
3260000000.0 0.0742848311926975 -0.1159065020872607
3280000000.0 -0.07461022422617412 0.07663862502207072
3300000000.0 0.07882193025741034 0.009354543459613044
3320000000.0 -0.03342002157822844 -0.0391416553212777
3340000000.0 0.02430961654269909 -0.012041003354428054
3360000000.0 0.005747429462714421 -0.0037297549645187392
3380000000.0 0.004553013199751614 0.009107350933184448
3400000000.0 -0.008371183408975549 0.02353503601623464
3420000000.0 -0.03755284634882667 0.008164363953853858
3440000000.0 0.018875874032414003 0.04613964767496437
3460000000.0 0.05196858207985417 0.02280001633650203
3480000000.0 -0.059104179823556154 -0.029667649061482178
3500000000.0 -0.03946368442936014 -0.0685047874970759
3520000000.0 -0.09455235638253642 -0.010489382416332549
3540000000.0 0.1055470404718062 0.033966901532815535
3560000000.0 -0.09843288801674066 0.077276989043539
3580000000.0 0.1010583241971305 -0.09561810567157196
3600000000.0 0.12885615975494874 0.09222686853108003
3620000000.0 0.05351594917590941 0.16110522439470892
3640000000.0 -0.1478266075182734 0.10297681090077646
3660000000.0 -0.1899686437573696 0.013136910034177966
3680000000.0 -0.15756187113072542 -0.11410028869780021
3700000000.0 -0.10993700135485072 -0.1597066134617795
3720000000.0 0.05995848476850576 -0.18393470652008737
3740000000.0 0.16787933257244606 -0.08619627338085738
3760000000.0 -0.16638348900915667 0.07162248476484134
3780000000.0 0.17041925883413844 0.001319748451726366
3800000000.0 0.040920096372284366 -0.15572933890032345
3820000000.0 0.03212270575586437 -0.15025381694741732
3840000000.0 0.13251491777764884 -0.066287821600472
3860000000.0 0.05242232284182796 0.13971154169279912
3880000000.0 0.08751928854523115 0.1293829251747903
3900000000.0 0.028126857116548887 -0.15648678696499552
3920000000.0 -0.12701802870613046 0.1021101166613619
3940000000.0 0.1014648335209564 -0.13181477653525467
3960000000.0 0.16815389967097782 0.022132295221955475
3980000000.0 0.1300702541719133 -0.10921639989229914
4000000000.0 0.12639925475055303 -0.10433812850375118
