!Created with skrf (http://scikit-rf.org).
# Hz S RI R 50.0 
!freq ReS11 ImS11
400000000.0 0.7305185688263474 0.468147559010933
420000000.0 0.836105323024505 -0.10078183114278097
440000000.0 0.7873707185102617 -0.12022708918833808
460000000.0 0.7376920409671484 -0.1300839251539948
480000000.0 -0.3672650510846054 -0.582757564414087
500000000.0 0.26346866685065956 0.5373344610673356
520000000.0 0.505499571388646 -0.007106287714218138
540000000.0 -0.38434668374112163 -0.20573340330165296
560000000.0 0.08110787066089925 0.38659741244213597
580000000.0 -0.2849375884378318 0.22382103030224562
600000000.0 0.1270712605808159 -0.33185263508653046
620000000.0 -0.32801881799492155 0.13627620987173408
640000000.0 -0.3753544677424945 -0.1424543724368592
660000000.0 -0.2738980495456968 0.2958742856012088
680000000.0 -0.039153153731421475 -0.43982789301792286
700000000.0 -0.0645555623920468 0.45857537649743996
720000000.0 -0.3461764339072766 -0.31792402388199953
740000000.0 -0.18436883603796278 0.39935568808927857
760000000.0 -0.04400045205068163 0.40905910083238683
780000000.0 -0.24472405898145605 0.2825357233289865
800000000.0 -0.12977032481875123 0.30387507915018686
820000000.0 -0.02955834197088787 0.28008977966064785
840000000.0 -0.20020149756518307 -0.0666038188932665
860000000.0 -0.16983242391470296 -0.011909557979876896
880000000.0 0.1271688381847105 0.054931505397126955
900000000.0 0.07926020640659648 0.04191716439974057
920000000.0 -0.006126404447808737 -0.05041706788108322
940000000.0 0.014160032109375525 0.032349067822337284
960000000.0 -0.018494640527406802 0.030225348011570157
980000000.0 -0.009159576536573922 0.06130967158858763
1000000000.0 0.043232951621446275 0.08996715000588476
1020000000.0 0.11726167875720427 0.04041775113471474
1040000000.0 0.03902594541012877 0.1285674751280101
1060000000.0 0.14643663972493495 0.05620363451468466
1080000000.0 -0.15455492813355953 -0.09623735061602082
1100000000.0 0.12758845230481247 -0.16829348881710998
1120000000.0 0.23456401893210704 0.03589089754675661
1140000000.0 -0.18209208032382806 0.185474566100724
1160000000.0 0.0462494861398547 0.2828487310314408
1180000000.0 -0.24879587153299845 0.1878462483297282
1200000000.0 0.29828590915428116 -0.1664816929376568
1220000000.0 -0.3120043197257132 0.20337651053206218
1240000000.0 0.3517352176650673 -0.1747649038051381
1260000000.0 -0.26418739149911497 -0.30630416068156624
1280000000.0 -0.3547570551051002 0.2278788042278427
1300000000.0 0.17372255776918533 0.394002543623476
1320000000.0 0.3254809295964021 0.29064591200336226
1340000000.0 0.3864719865057244 0.2194804776063634
1360000000.0 0.42866065123635866 -0.13542869110752534
1380000000.0 -0.3031368803279527 -0.3189820147357365
1400000000.0 -0.30844480703935395 0.2935492788324458
1420000000.0 0.3944881924079393 0.06985010318509643
1440000000.0 0.2630779275785654 -0.2564933480033129
1460000000.0 0.23347532707007346 -0.2436506436055671
1480000000.0 -0.21850238746059641 -0.22271463742566946
1500000000.0 -0.18381361478747435 0.21506378157027925
1520000000.0 -0.2134100516948908 0.13285803451107495
1540000000.0 0.19984530524930638 -0.10314686164630246
1560000000.0 -0.002367827746066827 0.19745523289378092
1580000000.0 0.051405312371021576 0.16575117261217
1600000000.0 0.029826066854301243 -0.13539002412788198
1620000000.0 -0.05339384940126954 -0.09006768176918506
1640000000.0 0.057186262442291615 -0.05606817753339292
1660000000.0 -0.013322516223198884 -0.06307515676675061
1680000000.0 -0.033615067602436564 -0.020444060568518815
1700000000.0 0.011496551418380326 0.011772359976737692
1720000000.0 -0.0024574477764585136 -0.004749520960889606
1740000000.0 -0.00610266030492838 0.020187154667736303
1760000000.0 -0.03677210016758557 0.006818904174599973
1780000000.0 0.05393818386668863 0.018284148463424386
1800000000.0 -0.03200069595642166 0.08312949551419598
1820000000.0 -0.11840400065593068 0.022847349070919384
1840000000.0 0.02814779186216894 0.1581936571737197
1860000000.0 -0.18711788919077624 0.06516610250075529
1880000000.0 0.11576522871674526 0.20988971568071907
1900000000.0 -0.150032523015362 -0.24469249227686307
1920000000.0 0.32371559548846274 -0.04986342658866561
1940000000.0 -0.3402257998466307 0.09244769430728264
1960000000.0 0.2416800569013241 0.2875312240155352
1980000000.0 0.2304822609690197 -0.32958965621282993
2000000000.0 -0.4178126087053272 0.011916044865265976
2020000000.0 -0.2076098926733263 0.36955441275633144
2040000000.0 0.05897011078264239 0.42670880774273917
2060000000.0 0.32960294402097134 0.2795163777935629
2080000000.0 0.4258365805701076 -0.06973653100267081
2100000000.0 0.131479074657807 -0.4061819502052684
2120000000.0 -0.2081700729532827 -0.35891688879783573
2140000000.0 -0.30666253986856074 -0.25557729415998703
2160000000.0 0.328117179409252 -0.20572047898392648
2180000000.0 -0.03359947339572087 -0.37404140667526725
2200000000.0 -0.30796890673736493 -0.19012053519299532
2220000000.0 -0.3323755498137639 0.1124072149495544
2240000000.0 -0.22946593443383012 0.2554390189208943
2260000000.0 -0.05307013439106896 0.33810886263983464
2280000000.0 0.14627076305827397 0.3130712553928734
2300000000.0 0.32559617110560135 0.14672481993876116
2320000000.0 0.26221338784717013 -0.2814053268527385
2340000000.0 -0.34213351340015447 -0.23700010031048466
2360000000.0 -0.06971735907759534 0.45166632457649003
2380000000.0 0.1222830300540866 -0.49475656316160915
2400000000.0 0.14184330757655098 0.5451076539092332
2420000000.0 -0.5020303333763623 -0.35457667711974056
2440000000.0 0.6531362067839107 -0.10042157036775456
2460000000.0 -0.5074821446636583 0.4833854057904018
2480000000.0 0.21320063574019094 -0.7004452114612035
2500000000.0 -0.11335772272933267 0.7432845092860768
2520000000.0 0.2085015812560283 -0.7332268367967336
2540000000.0 -0.457114194097044 0.6129191668441064
2560000000.0 0.749308267524559 -0.12401924022444256
2580000000.0 -0.5685157700750374 -0.4814125103083146
2600000000.0 -0.09397317734893543 0.7155037145230502
2620000000.0 0.5310211878411675 -0.44505001099340497
2640000000.0 0.18605471007992097 -0.6302747048977034
2660000000.0 -0.5207170444475212 0.32699839629945493
2680000000.0 0.5631428624083464 -0.0718184769757156
2700000000.0 -0.47658145631549925 -0.2051704531481549
2720000000.0 0.37831203012198766 0.27794947929498054
2740000000.0 -0.14315977778379452 -0.39322524974570644
2760000000.0 -0.2638591304042943 0.2718963374394181
2780000000.0 0.3050451589409224 -0.16684442914174893
2800000000.0 -0.2607736203170371 0.19316462858065336
2820000000.0 0.16360222478872086 -0.26033225441274843
2840000000.0 0.1690477688989012 0.24885673235504557
2860000000.0 -0.23410955965307237 0.17704095894854188
2880000000.0 -0.00808004252229248 -0.289571199395932
2900000000.0 -0.13111182258069193 0.2572853518950792
2920000000.0 0.2831092734736932 0.08100046436293265
2940000000.0 0.005532545403302543 -0.30595666102781566
2960000000.0 -0.3079900699629879 0.05301593094337721
2980000000.0 -0.1663456382273436 0.26609865317253883
3000000000.0 -0.31048213805006725 0.045297293185869544
3020000000.0 -0.08023908761236687 -0.30894655181294817
3040000000.0 0.15936289634463416 -0.275733226900285
3060000000.0 0.18905027521451315 0.2473948905923557
3080000000.0 -0.21221679350319522 -0.21211083288020482
3100000000.0 -0.01688187888205147 0.29021866202378177
3120000000.0 0.13145804256806756 -0.2536834810803256
3140000000.0 -0.0071186364937030205 0.2774513974791478
3160000000.0 -0.1449566862889021 -0.2220986019036032
3180000000.0 -0.08209155713557019 0.23577446956408293
3200000000.0 -0.2074681564543492 -0.09561059450679166
3220000000.0 -0.06511060723539223 -0.19168005700930935
3240000000.0 0.08652697578414333 -0.1470434749982319
3260000000.0 0.13332439950289957 -0.01518132336801994
3280000000.0 0.030906139310399955 -0.09286279603041
3300000000.0 -0.06470442395307638 -0.03023802051344981
3320000000.0 0.008327966765031138 -0.04164453003332909
3340000000.0 0.015844154419389325 0.016820971251286114
3360000000.0 0.005000333361940425 -0.004592296588865119
3380000000.0 -0.0031572804525440727 0.006089384193551766
3400000000.0 -0.008747453769470356 -0.017497592121958113
3420000000.0 0.026950488243097568 0.0242479631122232
3440000000.0 -0.041342418576884525 0.02679104171606047
3460000000.0 0.01682807557252101 0.05760797184916671
3480000000.0 0.012173083738558101 0.06916064504726274
3500000000.0 0.07385706342012718 0.05010694685310321
3520000000.0 0.07677910152467479 0.07018268870067344
3540000000.0 -0.1154209118963145 0.007932181184055453
3560000000.0 0.0702348214668458 -0.10288721185709236
3580000000.0 -0.13508405066820753 0.011890399603710897
3600000000.0 0.10225153895985387 -0.10881035074893136
3620000000.0 -0.04381527763276518 0.15704425188326132
3640000000.0 -0.1551676223875627 0.08666403836424498
3660000000.0 -0.12714067496034603 -0.1369835145783304
3680000000.0 -0.054794678600599646 -0.18697213255868264
3700000000.0 -0.1593808253858362 -0.11542031221794645
3720000000.0 -0.14021025434759046 -0.13571180083350579
3740000000.0 0.045315580218900656 -0.18027058065530419
3760000000.0 -0.1578135936316738 0.08565033971302156
3780000000.0 0.16616535615019007 -0.04641515465958083
3800000000.0 -0.14559073299268951 -0.07249806843226908
3820000000.0 -0.1533719890177636 -0.0246415236302753
3840000000.0 0.013137381476494944 -0.148389771003338
3860000000.0 -0.042266024979409275 -0.1438491699659757
3880000000.0 -0.06203158659957811 -0.13550329703822467
3900000000.0 0.13744815223809212 -0.057905806529795274
3920000000.0 0.11259041103587762 -0.11058550043404956
3940000000.0 0.0299178930358615 0.1644259719397303
3960000000.0 0.04870943209077172 0.1668152731210612
3980000000.0 0.1726581101867344 0.017774140548679936
4000000000.0 0.045864064799881456 -0.16118823286301837
