!Created with skrf (http://scikit-rf.org).
# Hz S RI R 50.0 
!freq ReS11 ImS11
400000000.0 0.7038314721816609 0.5069477970480691
420000000.0 0.8383028290431974 -0.08763377196768361
440000000.0 0.7901021857934645 -0.09882742169721499
460000000.0 0.7460913521870294 -0.06398285126677306
480000000.0 -0.3166152945120119 -0.6127023767081505
500000000.0 0.270066951877368 0.5343437371450971
520000000.0 0.5053896454231231 -0.007487659940879476
540000000.0 -0.4038721943120224 -0.16297437154485242
560000000.0 0.12570774817362762 0.3729173566125194
580000000.0 -0.288164549983054 0.21758193931464806
600000000.0 0.16556725445726156 -0.3147403688585509
620000000.0 -0.35110614424674863 0.0574220817620276
640000000.0 -0.30932005475446234 -0.25723611817472425
660000000.0 -0.3107129244939055 0.2595270729042274
680000000.0 -0.06697412888601001 -0.4382449869846357
700000000.0 -0.04795706746075754 0.45940458113929666
720000000.0 -0.32959518159993406 -0.33256519207793894
740000000.0 -0.23420767682444701 0.37060805997284835
760000000.0 -0.13421120422211041 0.38888028592035995
780000000.0 -0.24116196367153686 0.2870210463552324
800000000.0 -0.046367312626858656 0.3277693698578888
820000000.0 0.11681287709066547 0.2556010635521898
840000000.0 -0.19744791650351637 0.06881864607166346
860000000.0 -0.16749233077401376 -0.015003956844492197
880000000.0 0.07431283676568158 0.11610629188484875
900000000.0 0.033633145979382016 0.08483405760521667
920000000.0 0.05223056655695025 0.008173396521347572
940000000.0 -0.02988046350521931 0.02288205290674587
960000000.0 -0.016261284681903056 -0.03358985937626167
980000000.0 -0.036202630241066625 0.051325667095523636
1000000000.0 0.05196049094241434 0.08597827321368842
1020000000.0 0.11174628107781566 -0.05629438213079508
1040000000.0 0.10530185362599655 0.08463771794942715
1060000000.0 0.1567830677790736 -0.015110680339556398
1080000000.0 -0.16921741045717828 -0.06831114506892519
1100000000.0 0.12342563626146692 -0.17171361623364464
1120000000.0 0.2300363485255729 0.05977225761227246
1140000000.0 -0.2205287894993674 0.13864428602566517
1160000000.0 -0.026195574175064438 0.2859271709097369
1180000000.0 -0.2703834262372458 0.15509479253056171
1200000000.0 0.3253323773333676 -0.10100831258653094
1220000000.0 -0.35493646429710907 0.10945740725960003
1240000000.0 0.3848413386059971 -0.07610456142101832
1260000000.0 -0.20025741639359027 -0.3512154182862998
1280000000.0 -0.36713770092730363 0.20593868527766665
1300000000.0 0.12791073826237045 0.4103759553183918
1320000000.0 0.31617601468544243 0.29984520972791967
1340000000.0 0.4041379674807682 0.1844860369369492
1360000000.0 0.4083557892585768 -0.18763371083165853
1380000000.0 -0.33904869328698306 -0.27986833124009636
1400000000.0 -0.2736427742428934 0.32571767151816505
1420000000.0 0.39785638581043237 0.04746054465010223
1440000000.0 0.2785059571734179 -0.24098326610829002
1460000000.0 0.2423410267263581 -0.23687448673855496
1480000000.0 -0.1805591026797706 -0.2564470552783735
1500000000.0 -0.19260799313190494 0.2091695172683792
1520000000.0 -0.2311150883010731 0.10260784474571188
1540000000.0 0.22161929000293087 -0.04513183684860673
1560000000.0 -0.08738005149236702 0.17870354647285636
1580000000.0 -0.04296801635874828 0.16956634204029017
1600000000.0 0.07138845545659575 -0.11923337387545052
1620000000.0 -0.010156415310344545 -0.10366560093317284
1640000000.0 0.0670752678085765 -0.041138699291735206
1660000000.0 0.022079383900118606 -0.05802310635252863
1680000000.0 -0.02663616017664569 -0.025994546907126635
1700000000.0 -0.01472830489807801 0.0005856575207413893
1720000000.0 0.0009604040213361763 0.005592212000981962
1740000000.0 -0.01625216422857981 0.013841935323575135
1760000000.0 -0.03625772172396168 -0.0013662067503168584
1780000000.0 0.03822813865892352 0.04029053338900784
1800000000.0 -0.06547124258744842 0.05798587944611898
1820000000.0 -0.10514370066867883 -0.054738952069451174
1840000000.0 -0.05015413652169389 0.15116514209295617
1860000000.0 -0.19742198176476874 0.008345732931498585
1880000000.0 0.11057637239985563 0.21301815013497463
1900000000.0 -0.20060238029925812 -0.20578131372880704
1920000000.0 0.29567799906335956 -0.1408277300491717
1940000000.0 -0.30258965028355395 0.18043740346484907
1960000000.0 0.28472197254043957 0.24461627438973135
1980000000.0 0.18335136055560747 -0.3580819813310923
2000000000.0 -0.41696419666928347 0.0354578356476895
2020000000.0 -0.20858604964920632 0.37000568735215134
2040000000.0 0.018329568818826365 0.43165052341330656
2060000000.0 0.2962470205694946 0.31665976942296326
2080000000.0 0.4333419957897726 0.003417507954273965
2100000000.0 0.1919172504736007 -0.3833967004061135
2120000000.0 -0.15402622924988166 -0.3872144571248454
2140000000.0 -0.26102148738794356 -0.3041082169468688
2160000000.0 0.36572087800178116 -0.1302354103319385
2180000000.0 0.06233851453068773 -0.3703850793019313
2200000000.0 -0.21896860674808016 -0.28775527574251164
2220000000.0 -0.3484119457355814 -0.03646189987101903
2240000000.0 -0.312099839935657 0.14112630773126417
2260000000.0 -0.1630213747018918 0.30003322443524716
2280000000.0 0.05710318248438167 0.3400135509510464
2300000000.0 0.2945223574101615 0.20054526624513996
2320000000.0 0.27302034307751544 -0.26940365125189714
2340000000.0 -0.3464179804791566 -0.22854780284786408
2360000000.0 -0.0443129332693181 0.4537188981622659
2380000000.0 0.08203607767670426 -0.5021965706135625
2400000000.0 0.18439666990938694 0.5316960657886556
2420000000.0 -0.5252443392965828 -0.3195888341256966
2440000000.0 0.6444201765011968 -0.15029522685501634
2460000000.0 -0.4845331174698708 0.5080970720984961
2480000000.0 0.16244858927423445 -0.7156173072444587
2500000000.0 -0.14195943653596746 0.740471881018611
2520000000.0 0.2654543702893311 -0.7168907787225772
2540000000.0 -0.5335405261860703 0.5505282376870655
2560000000.0 0.7606819283507654 -0.02556724671391996
2580000000.0 -0.42421112946188544 -0.6141523617578616
2600000000.0 -0.24224243805482426 0.6807547338020776
2620000000.0 0.6553736055520956 -0.22712441132447062
2640000000.0 0.39215735837108645 -0.5272353289579814
2660000000.0 -0.5913699695071966 0.16633015996202488
2680000000.0 0.5648179132283527 0.043804179240505677
2700000000.0 -0.42150855830364453 -0.30006018295215287
2720000000.0 0.33126821516101024 0.330279048839424
2740000000.0 -0.11266059127788391 -0.4013147804378382
2760000000.0 -0.26231238107593535 0.27105538479247687
2780000000.0 0.2882186429821837 -0.19226653102319638
2800000000.0 -0.21537403494770652 0.24171406654786112
2820000000.0 0.10189819529720295 -0.28995533089252357
2840000000.0 0.2242807624297271 0.20134167860243207
2860000000.0 -0.20560509910448566 0.21181286833773083
2880000000.0 -0.0852987435840399 -0.27858676417299605
2900000000.0 -0.08425496910631645 0.27820830686326575
2920000000.0 0.2887213109732447 0.0666805488089585
2940000000.0 0.05517577061268555 -0.30265161796117074
2960000000.0 -0.3118307929840523 -0.037048728523362204
2980000000.0 -0.25200023783396414 0.18937482462930647
3000000000.0 -0.3011311023167305 -0.09611916078841988
3020000000.0 0.05830979605243901 -0.31541495626821475
3040000000.0 0.29149134246970654 -0.13097141906230889
3060000000.0 0.07352402631733629 0.3028237276193399
3080000000.0 -0.10310934903037956 -0.2814887058992157
3100000000.0 -0.11910933361208922 0.26470097975879125
3120000000.0 0.2043193762925611 -0.19925730929698396
3140000000.0 -0.14005656903787625 0.237925821071666
3160000000.0 -0.019580019227228917 -0.2627326801546263
3180000000.0 -0.17991179828377635 0.17045748575203704
3200000000.0 -0.16635066650495242 -0.15381914269449404
3220000000.0 -0.01557137515479148 -0.1999213115443461
3240000000.0 0.09777846643014268 -0.1373922596280182
3260000000.0 0.12777878378166274 -0.03415350391292306
3280000000.0 -0.0352571051978177 -0.08928458441061198
3300000000.0 0.005702842667787278 0.06907708222852377
3320000000.0 -0.03594424904971167 0.017178664192144127
3340000000.0 -0.00016502429118714628 -0.020906415277817766
3360000000.0 0.0044791981907332445 0.0009966639820014407
3380000000.0 0.004156953747469494 -0.007207031507979237
3400000000.0 0.010989870884377223 0.01740815732059912
3420000000.0 -0.0369568336462066 0.0030731904784138103
3440000000.0 -0.007708968110460132 -0.04961511429026717
3460000000.0 -0.061023596697227366 0.009522427632957912
3480000000.0 -0.05226992308989012 0.050043395164022876
3500000000.0 0.04444256113416677 0.07907709035826851
3520000000.0 0.021259251672096777 0.10223050860559948
3540000000.0 -0.08093115903492916 -0.08268575515082426
3560000000.0 0.12467480552882414 0.001560868238699355
3580000000.0 -0.08971293937990495 -0.10194747494561822
3600000000.0 0.1492311893255931 -0.014645432767524887
3620000000.0 -0.13728562464831026 0.0882577486573049
3640000000.0 -0.17638372178033113 -0.023006305483150885
3660000000.0 -0.04353827462339222 -0.1816877171849493
3680000000.0 0.03227351430381983 -0.19154039013805146
3700000000.0 -0.09534824408721908 -0.17092684120981774
3720000000.0 -0.0804602715392564 -0.17678564920820727
3740000000.0 0.11271172472314697 -0.14611707301149407
3760000000.0 -0.1765921554494082 0.023716883511904183
3780000000.0 0.16992711716517 0.021531799995986044
3800000000.0 -0.12414318832251756 -0.10292052773856758
3820000000.0 -0.14376200590967994 -0.055187588584056334
3840000000.0 0.02674820841779291 -0.1449389661553004
3860000000.0 -0.008708525923107259 -0.1479255828824804
3880000000.0 -0.011975192746427641 -0.14668525162787058
3900000000.0 0.1472397558457401 -0.009556252765400243
3920000000.0 0.13342354645265642 -0.08089287130196117
3940000000.0 0.011265290934870236 0.16509606204640387
3960000000.0 0.014668711301404886 0.17119615960848922
3980000000.0 0.17117373321613627 0.00825936685150103
4000000000.0 -0.009310869408931409 -0.16534715466053718
