!Created with skrf (http://scikit-rf.org).
# Hz S RI R 50.0 
!freq ReS11 ImS11
400000000.0 0.7115519813305983 0.49700583889220895
420000000.0 0.8383203445688301 -0.08817545133784689
440000000.0 0.791377506157806 -0.0880206448854714
460000000.0 0.7462991209099714 -0.058787215531302575
480000000.0 -0.3180164861442186 -0.611733564852822
500000000.0 0.26902193794102974 0.5347877065643049
520000000.0 0.5052827920026468 -0.010849050184622655
540000000.0 -0.40179352128778495 -0.16815273560856472
560000000.0 0.1405385912722777 0.3676177965133853
580000000.0 -0.2977697035594577 0.20486256460734242
600000000.0 0.1614083196823519 -0.31717990860294454
620000000.0 -0.3504413000255134 0.0632466964082438
640000000.0 -0.30782726712884073 -0.25939728455301686
660000000.0 -0.3175411780398051 0.25083427810979175
680000000.0 -0.05832527864605214 -0.4394020152581625
700000000.0 -0.0535535188374024 0.4589882332699402
720000000.0 -0.3353775171644221 -0.32699822458888095
740000000.0 -0.22868255628951958 0.37406542979516905
760000000.0 -0.1303227900995597 0.38994826565266527
780000000.0 -0.2466378301065463 0.28206568360386153
800000000.0 -0.046175053901167475 0.3280214232016886
820000000.0 0.12291031142783553 0.25294014081421656
840000000.0 -0.1903314399098119 0.08729419453819813
860000000.0 -0.16809770439092558 -0.008079614970865238
880000000.0 0.06962619191884752 0.11907279216743495
900000000.0 0.021414317156857383 0.08858116654843548
920000000.0 0.05222559378485401 0.004894309984457239
940000000.0 -0.031520101469316074 0.01983756461093521
960000000.0 -0.022439197177430058 -0.02938808171557216
980000000.0 -0.02844989051509443 0.056047739605210554
1000000000.0 0.05662537552292264 0.08294555687347059
1020000000.0 0.11120349414186304 -0.05748943307726424
1040000000.0 0.10412486010972767 0.08609486014774509
1060000000.0 0.15478530139266533 -0.029175600165463934
1080000000.0 -0.17047074692837588 -0.0651728288090815
1100000000.0 0.13584510474998573 -0.16208269074636286
1120000000.0 0.23411691101064272 0.040282029241959984
1140000000.0 -0.2261913120183311 0.1284807884561954
1160000000.0 -0.01286935678242363 0.2868636078555008
1180000000.0 -0.2737730938930447 0.1493327797433354
1200000000.0 0.32045786344027705 -0.11558304555817465
1220000000.0 -0.35480416464659376 0.10922929040479898
1240000000.0 0.3842647351188414 -0.0778386314747153
1260000000.0 -0.20363148556208815 -0.3492585087152661
1280000000.0 -0.3644963859415259 0.21072402553205427
1300000000.0 0.17116461609479053 0.39460486302408376
1320000000.0 0.32063811495546485 0.2954367525391068
1340000000.0 0.39653502975952987 0.20069667452399742
1360000000.0 0.4106583050453209 -0.18276495722770328
1380000000.0 -0.33628898644212224 -0.2834128601299713
1400000000.0 -0.2801228193953105 0.3202262771446956
1420000000.0 0.3967371643031625 0.05560416957109764
1440000000.0 0.27609225828620476 -0.24350788865329226
1460000000.0 0.24105116310052724 -0.2378688455158107
1480000000.0 -0.2272533800674792 -0.21581121082663948
1500000000.0 -0.19736958972537008 0.2047410254599542
1520000000.0 -0.23380286206659542 0.0963119503223287
1540000000.0 0.21439271789819983 -0.07127872910898449
1560000000.0 -0.08198597228165334 0.181049442509178
1580000000.0 -0.0037407276712227533 0.1746619635099542
1600000000.0 0.0673287535653873 -0.12175799608552547
1620000000.0 -0.04022821616436245 -0.09621924337981012
1640000000.0 0.06663095640953423 -0.04205080652378311
1660000000.0 0.017854202826986226 -0.05977240417879213
1680000000.0 -0.0115469863552475 -0.035488118985584155
1700000000.0 -0.013619926227335117 0.005837076961606005
1720000000.0 0.005031408069751196 -0.002925601017575407
1740000000.0 -0.014774400937024269 0.015099212640620934
1760000000.0 -0.03606067832535721 -0.003853500875041555
1780000000.0 0.03146883409481337 0.04564561149358702
1800000000.0 -0.058788982102118026 0.06525594366856172
1820000000.0 -0.10855527814003428 -0.04736393841085203
1840000000.0 -0.04695945053560707 0.15235689679661213
1860000000.0 -0.19755648972235063 0.0033436866614757702
1880000000.0 0.10281434431455816 0.21683649285967022
1900000000.0 -0.19359353172155314 -0.2124732791608042
1920000000.0 0.2976070995980522 -0.13642980820853784
1940000000.0 -0.30184921504213325 0.18146763415723552
1960000000.0 0.285111801383585 0.24397960223694723
1980000000.0 0.19670786765877518 -0.35082494576912426
2000000000.0 -0.4173629766361228 0.029548067774130788
2020000000.0 -0.2045155448086442 0.37224556917003027
2040000000.0 0.036689150712376946 0.4302305238381052
2060000000.0 0.2860152628792193 0.32602990752975514
2080000000.0 0.43318199608924235 -0.009577781736869564
2100000000.0 0.19469675579468335 -0.38216461168289917
2120000000.0 -0.15229551004886463 -0.3878653073723042
2140000000.0 -0.24735670931830916 -0.31557870786947356
2160000000.0 0.36515822119371555 -0.1319160617635468
2180000000.0 0.07447528045215145 -0.3683947786135508
2200000000.0 -0.22493054630357473 -0.2832636503484617
2220000000.0 -0.34440735610523265 -0.06647260691377391
2240000000.0 -0.30212393466155246 0.16147859854466243
2260000000.0 -0.1640694351218101 0.29947515103217975
2280000000.0 0.05526521679939498 0.34021319111119874
2300000000.0 0.2995435556692872 0.19313442056422153
2320000000.0 0.26729535606719995 -0.2752691045092245
2340000000.0 -0.3440490990789521 -0.2323036681268972
2360000000.0 -0.030902238361567667 0.4549694465865514
2380000000.0 0.06827998274674978 -0.5043065846769019
2400000000.0 0.1919981303842721 0.5290788554512604
2420000000.0 -0.5264784807007911 -0.3175755709578049
2440000000.0 0.6431636795149717 -0.15599414362602299
2460000000.0 -0.47419561588217474 0.5178214889410258
2480000000.0 0.15757011587745923 -0.7165727246603564
2500000000.0 -0.1334992176761887 0.7421925296170159
2520000000.0 0.2940073968966193 -0.7058792498056266
2540000000.0 -0.5174217455851844 0.5650304208827722
2560000000.0 0.7588392346123891 -0.05587171767692793
2580000000.0 -0.40232389212578795 -0.6285968538446552
2600000000.0 -0.24000348500714985 0.6812257570772482
2620000000.0 0.6279341262373207 -0.29344476629460065
2640000000.0 0.3085361681847016 -0.580164266557244
2660000000.0 -0.5822013691224524 0.1952291659081923
2680000000.0 0.5640513961291256 0.05172494754609961
2700000000.0 -0.43670062103662205 -0.27735302039236065
2720000000.0 0.3539898392880157 0.3057653073689247
2740000000.0 -0.1227421778014302 -0.3983628942258673
2760000000.0 -0.25464078302138576 0.2784815571504307
2780000000.0 0.28384427378575455 -0.1988995848930136
2800000000.0 -0.22203322481523918 0.23587118844341268
2820000000.0 0.09730369100964419 -0.29167169136393467
2840000000.0 0.21504648837557597 0.21178061782592225
2860000000.0 -0.2037175425407306 0.2134666878053259
2880000000.0 -0.06934836262651072 -0.2828600620846118
2900000000.0 -0.08839640202909947 0.2766226790963037
2920000000.0 0.2837681047415281 0.08459449267444921
2940000000.0 0.058969111904921524 -0.30173796690412413
2960000000.0 -0.31041356969276745 -0.047219412181031976
2980000000.0 -0.25000416297863803 0.19235157112426415
3000000000.0 -0.29788898865235286 -0.10499515098267319
3020000000.0 0.034528176708721554 -0.3186462260520135
3040000000.0 0.26539903673156207 -0.17788039056252736
3060000000.0 0.12108339186677944 0.2873387705793384
3080000000.0 -0.11751314701318324 -0.2757788945250989
3100000000.0 -0.14078260882199486 0.2536841788387182
3120000000.0 0.2137972373187549 -0.1886832777269663
3140000000.0 -0.09974838256032757 0.2579544565916124
3160000000.0 -0.038612283192101145 -0.2608314133900111
3180000000.0 -0.1726231201633756 0.17781452869170106
3200000000.0 -0.16406309653177248 -0.1563963061878661
3220000000.0 -0.008667368015501388 -0.2002080331853682
3240000000.0 0.1039537076736021 -0.1331340958591166
3260000000.0 0.12998712784700933 -0.025547578105590597
3280000000.0 -0.04798989560361227 -0.08319368237674596
3300000000.0 -0.03672136199591081 0.058792021219474494
3320000000.0 -0.030462229981359678 -0.02585233383909036
3340000000.0 0.006204284913293806 -0.019924808916324196
3360000000.0 0.0017900934875358153 -0.0043975009350667804
3380000000.0 -0.007968777957689379 0.0025060698359505545
3400000000.0 -0.01901262661095929 0.007653216457183335
3420000000.0 -0.034490574275822077 -0.013740222463344621
3440000000.0 -0.0021723317557560545 -0.05012940086505175
3460000000.0 -0.0469033005835917 -0.03941888415678983
3480000000.0 -0.04165842303991223 0.059413646119271614
3500000000.0 0.058989134204579234 0.06928194942730466
3520000000.0 0.016257355115466905 0.10307084216426639
3540000000.0 -0.07929563796814484 -0.08459112837903048
3560000000.0 0.12451823125766145 -0.007670490818754156
3580000000.0 -0.08880444809860785 -0.10268697194993005
3600000000.0 0.1493367906877613 0.010041136861710927
3620000000.0 -0.13867194448541834 0.08600902129014219
3640000000.0 -0.1744874710995664 -0.033703162939609684
3660000000.0 -0.029388111579272142 -0.184239854095143
3680000000.0 0.03527216101827211 -0.1906627287606214
3700000000.0 -0.09614658285693357 -0.17011923792885475
3720000000.0 -0.07769939288361254 -0.17723905832256112
3740000000.0 0.12172194748235853 -0.1383420281921316
3760000000.0 -0.1760228564871122 0.02566237619594671
3780000000.0 0.16838706843757098 0.03264292758974687
3800000000.0 -0.12175284154137468 -0.105541006800504
3820000000.0 -0.14332076080034103 -0.05509697388134588
3840000000.0 0.02800968298153706 -0.14467522402318647
3860000000.0 -0.0009509133400686066 -0.14822484739126732
3880000000.0 -0.006952254907859078 -0.14709367989599836
3900000000.0 0.1475111185641635 -0.0077634751805425286
3920000000.0 0.12172431445681271 -0.0976165057604958
3940000000.0 0.03434980442737058 0.1617620691613092
3960000000.0 0.05971479545230772 0.16060701132311972
3980000000.0 0.16802047265633488 -0.03417887214160132
4000000000.0 -0.04651287692373243 -0.15925987518611068
