!Created with skrf (http://scikit-rf.org).
# Hz S RI R 50.0 
!freq ReS11 ImS11
400000000.0 0.7133839644468873 0.4931132373829103
420000000.0 0.837398606320187 -0.09523839064570752
440000000.0 0.7887131388381491 -0.1095828251587812
460000000.0 0.7432753224010449 -0.08925906842029192
480000000.0 -0.3456396392018001 -0.5965158827645659
500000000.0 0.2722805417956734 0.5331754573344359
520000000.0 0.5054205333752366 -0.003197458652278808
540000000.0 -0.39410026676883303 -0.18640070535436473
560000000.0 0.1111238638678475 0.37804198911157305
580000000.0 -0.27934646548517067 0.22935595718871965
600000000.0 0.14359172239824106 -0.3250936487371194
620000000.0 -0.3446350948459762 0.08818702510887802
640000000.0 -0.3214255990853877 -0.24129194435565948
660000000.0 -0.32400847486349815 0.24132683580132605
680000000.0 -0.030249991611188003 -0.4420476735579728
700000000.0 -0.02529864532037267 0.4618244427956218
720000000.0 -0.3356710166830168 -0.32707310505193626
740000000.0 -0.19978020814601802 0.3907112051967943
760000000.0 -0.11183764139427062 0.3961071115030949
780000000.0 -0.2452540931947466 0.28314966660712976
800000000.0 -0.09006398520446587 0.31863717473843817
820000000.0 0.07507603762698749 0.2713378525743249
840000000.0 -0.1961759504452221 0.07401958335285833
860000000.0 -0.16732686827878743 0.017228899522914606
880000000.0 0.09538011100321074 0.09948566403838077
900000000.0 0.03340438917919956 0.08474324871716023
920000000.0 0.052109585479666376 0.001422656191121759
940000000.0 -0.025581548055760656 0.026667632564392595
960000000.0 -0.030683365788109693 -0.020711524273544148
980000000.0 -0.031423768330361354 0.05488856275019683
1000000000.0 0.04482288741280736 0.09022042095901324
1020000000.0 0.12240911525296772 -0.026728131639657843
1040000000.0 0.08714938844575082 0.10339817919030746
1060000000.0 0.15750170583777748 0.0016107320281065652
1080000000.0 -0.1752330695097644 -0.05037619660352614
1100000000.0 0.10386499462925229 -0.1836217090924305
1120000000.0 0.2334645195050202 0.041023727066284335
1140000000.0 -0.21519252477142206 0.14549951594961774
1160000000.0 -0.022033393087343478 0.28611530637685095
1180000000.0 -0.27023467832046794 0.156472371545873
1200000000.0 0.3089950645063919 -0.14437201017682583
1220000000.0 -0.33511366021409766 0.16053766512561676
1240000000.0 0.37629403842037146 -0.11062172807746758
1260000000.0 -0.22250558503519058 -0.33745084632386607
1280000000.0 -0.3703518142473314 0.2005867752521033
1300000000.0 0.13915770875907887 0.4073820729412753
1320000000.0 0.30701337622624464 0.3098220017473249
1340000000.0 0.39309607788708806 0.2076004572502461
1360000000.0 0.4098317828840504 -0.18509489276598737
1380000000.0 -0.33121722474646254 -0.28940547502052005
1400000000.0 -0.2871655570442898 0.31384441218317327
1420000000.0 0.3962409638266121 0.05757137374109566
1440000000.0 0.2863209055622194 -0.2310133235270475
1460000000.0 0.2474226891347125 -0.23091386975539857
1480000000.0 -0.21963783710441181 -0.22326290594082918
1500000000.0 -0.18224703730771977 0.21767423703747235
1520000000.0 -0.22013985394003366 0.12336529039017372
1540000000.0 0.21278496302599514 -0.07473020061189531
1560000000.0 -0.06087317854166829 0.18889665503763686
1580000000.0 -0.007535338181975357 0.17434158518973772
1600000000.0 0.051041383036216456 -0.12942418780737777
1620000000.0 -0.048613618316808556 -0.09239630772002834
1640000000.0 0.06383322653336564 -0.04609866767462785
1660000000.0 0.008491422107476476 -0.06199032649247058
1680000000.0 -0.007807709708743239 -0.03683632490157135
1700000000.0 -0.015215420020534045 0.000874463862403046
1720000000.0 -0.0043631623873266155 -0.0038133243664489024
1740000000.0 -0.002392581969541547 0.020965745422904088
1760000000.0 -0.0361027481998136 0.004312813227088536
1780000000.0 0.03783308500696866 0.04111376647914433
1800000000.0 -0.06491006557240415 0.058837105565093584
1820000000.0 -0.11331626892602562 -0.036732556616457974
1840000000.0 -0.02944718653160321 0.15715134031440872
1860000000.0 -0.1967707661168044 0.017995430662316774
1880000000.0 0.10581380110046379 0.2154245924736771
1900000000.0 -0.18415439283293375 -0.22113013205867388
1920000000.0 0.3039511640599583 -0.12209549192365537
1940000000.0 -0.31278114033438464 0.16210475970874796
1960000000.0 0.27353213824795664 0.2567717920244359
1980000000.0 0.21104173941015167 -0.3423484929847485
2000000000.0 -0.41836005011327837 0.006890306972144197
2020000000.0 -0.18881957922298012 0.37988320090080296
2040000000.0 0.022902301847975017 0.43095470414757453
2060000000.0 0.30190703690088727 0.31084826088648154
2080000000.0 0.433053012034166 -0.006923523335773855
2100000000.0 0.17042897689175457 -0.3932162073834342
2120000000.0 -0.18705508392327255 -0.3719682688001811
2140000000.0 -0.27636961356126005 -0.28953760101794696
2160000000.0 0.35007765244772565 -0.16700333387963456
2180000000.0 0.03547679892637243 -0.37384237307307366
2200000000.0 -0.24379058711261267 -0.2674951772227183
2220000000.0 -0.3508778907831418 -0.000571293946806896
2240000000.0 -0.3016748674789166 0.16425437705822551
2260000000.0 -0.13685536922991187 0.3136125195849424
2280000000.0 0.06568846241331454 0.3387984146507553
2300000000.0 0.29443728455669416 0.2008849540752451
2320000000.0 0.27526134666595947 -0.26786443775938634
2340000000.0 -0.3477087593548868 -0.2278349202206398
2360000000.0 -0.053686113387045785 0.4531835354929558
2380000000.0 0.1002186814915662 -0.49915149447893964
2400000000.0 0.1839455974794242 0.5322963293205737
2420000000.0 -0.5240031748069742 -0.32127407974484096
2440000000.0 0.640944397623538 -0.16375358146461694
2460000000.0 -0.4593128929846506 0.5304252718902907
2480000000.0 0.128840081244794 -0.7215273313097992
2500000000.0 -0.10241887558563657 0.7460741035276032
2520000000.0 0.2358539905089598 -0.7262516178067967
2540000000.0 -0.5027924436034586 0.5772546260415352
2560000000.0 0.7507330729675953 -0.11848427989848682
2580000000.0 -0.4485624916289502 -0.5957591389783448
2600000000.0 -0.1858132464738932 0.6975893734761166
2620000000.0 0.6145339186540935 -0.3197919022490475
2640000000.0 0.24897110987453694 -0.6080108368315699
2660000000.0 -0.553481088946981 0.26616594851881126
2680000000.0 0.5666308706466071 -0.010262096165157135
2700000000.0 -0.45558497570105655 -0.246134748824586
2720000000.0 0.3576555356862559 0.30223070583075246
2740000000.0 -0.09569075732816287 -0.4061590034847796
2760000000.0 -0.2717949569584787 0.2624091055806463
2780000000.0 0.2998696231953528 -0.17420972722193567
2800000000.0 -0.2416682276927701 0.21569022864190937
2820000000.0 0.13461078774184526 -0.27613602955094135
2840000000.0 0.19139595544429797 0.23291778028710106
2860000000.0 -0.2283210875994687 0.18619288282744484
2880000000.0 -0.06754950261765079 -0.28260989461515884
2900000000.0 -0.09782143061207477 0.27261934449980624
2920000000.0 0.28711720619131564 0.06908985832068415
2940000000.0 0.045190544456241835 -0.30334850359559506
2960000000.0 -0.31290914163180295 -0.012705387142662656
2980000000.0 -0.22955376743384706 0.2155866566826943
3000000000.0 -0.3040608189857865 -0.08566273587621216
3020000000.0 -0.030584151096310016 -0.3189106303145597
3040000000.0 0.2384671056890437 -0.21233745667526963
3060000000.0 0.14338283120215867 0.2764132498577099
3080000000.0 -0.1563076720902554 -0.2556910776974492
3100000000.0 -0.09979617425699511 0.2725195087639511
3120000000.0 0.18185128200850054 -0.2196406546743454
3140000000.0 -0.060913872392043045 0.2698978284385867
3160000000.0 -0.07940377832411931 -0.2514342048029858
3180000000.0 -0.14743074200087677 0.1996935909037793
3200000000.0 -0.18197591658132506 -0.13621155148391745
3220000000.0 -0.028364198392416762 -0.1989397260904523
3240000000.0 0.08539769621125942 -0.1465292063005035
3260000000.0 0.12817309741088748 -0.03513041971649993
3280000000.0 -0.038436968866375446 -0.08858507459538456
3300000000.0 -0.04632511885216427 0.05222251147568793
3320000000.0 -0.01861396896303678 -0.03601554412316352
3340000000.0 0.01731094522958712 -0.012912131547984977
3360000000.0 0.003933346744716087 0.0035937571776713598
3380000000.0 0.005931443491926705 -0.005339200729560492
3400000000.0 0.01028451268420384 0.017041892580034423
3420000000.0 -0.031005800893178552 0.019700043266169583
3440000000.0 -0.03921475960937318 -0.03078634808478493
3460000000.0 -0.057456343992636896 0.020462810989248337
3480000000.0 -0.0069753382345098675 0.07149948526860332
3500000000.0 0.08620964234862731 0.027539205346770446
3520000000.0 0.054067444257928095 0.08864199355909673
3540000000.0 -0.10510248567265564 -0.047754781572132046
3560000000.0 0.10901593006245845 -0.06081310103734529
3580000000.0 -0.1268851282322582 -0.04884257898474155
3600000000.0 0.14160032626662652 -0.04881711125927837
3620000000.0 -0.10068829154399493 0.1287105398710367
3640000000.0 -0.1762155726861238 0.02735193065415346
3660000000.0 -0.07610448734717165 -0.17082475730782112
3680000000.0 -0.002074544463286721 -0.1944268993497833
3700000000.0 -0.10854565320010655 -0.16312546931854122
3720000000.0 -0.0934882792585969 -0.1707260913295337
3740000000.0 0.09945941447626197 -0.15587933393991193
3760000000.0 -0.17528566858418637 0.036165024519231696
3780000000.0 0.1715239498492661 0.019433081654744295
3800000000.0 -0.13649566576698957 -0.08727073668334726
3820000000.0 -0.14791130234896707 -0.04557876488910767
3840000000.0 0.012297097017527346 -0.14745580940849023
3860000000.0 0.0042597267351015995 -0.14940752281193032
3880000000.0 -0.01896098795480395 -0.14701793775598615
3900000000.0 0.14861685615184447 -0.0006673611954995428
3920000000.0 0.1385226027346661 -0.0740767578724222
3940000000.0 0.017450330236859317 0.16470229133646042
3960000000.0 0.005874649097800583 0.1724649503697113
3980000000.0 0.17154624577783598 0.014059455165630385
4000000000.0 -0.008750399339868431 -0.16597653498252887
