!Created with skrf (http://scikit-rf.org).
# Hz S RI R 50.0 
!freq ReS11 ImS11
400000000.0 0.7111089437035322 0.49440331233551194
420000000.0 0.8383695902061924 -0.08248231590663353
440000000.0 0.7883426126545355 -0.111811364265167
460000000.0 0.7407329247816546 -0.10995288537020786
480000000.0 -0.3582240307061742 -0.5883243697707069
500000000.0 0.28589059295426494 0.5257205934618081
520000000.0 0.5056245291242188 0.004901486377856722
540000000.0 -0.3939036678981532 -0.18715765415852656
560000000.0 0.1274358271541455 0.3733442093569703
580000000.0 -0.2683618322307785 0.2426482409811911
600000000.0 0.11323830734467394 -0.3366822688963815
620000000.0 -0.3388360507524596 0.10638020826866446
640000000.0 -0.3453577403188639 -0.20460661143433992
660000000.0 -0.28350265298620747 0.2873858129701717
680000000.0 -0.04852399725921494 -0.43965495223452594
700000000.0 -0.07034031709103969 0.45722923673434906
720000000.0 -0.37549191158708484 -0.28170738889262464
740000000.0 -0.17122319615344261 0.4042316942802528
760000000.0 -0.06883870360104509 0.40572617968902874
780000000.0 -0.2538750811141508 0.27493558501821197
800000000.0 -0.08925687224709726 0.31845367255748896
820000000.0 0.039877290865414985 0.2783747700774613
840000000.0 -0.20961238111260816 0.01690968753794293
860000000.0 -0.16883253208951987 5.0067586364865036e-05
880000000.0 0.09765606228511488 0.0973996737745843
900000000.0 0.02287596099640161 0.08731141616717879
920000000.0 0.05127797996831903 -0.006604449911031229
940000000.0 -0.017791671606836267 0.031659854980400706
960000000.0 -0.03582439472567213 0.0057831333740234
980000000.0 -0.01830355312580674 0.06023537815032024
1000000000.0 0.026177873490429507 0.09740403793017942
1020000000.0 0.12379047903321018 0.019465006328687785
1040000000.0 0.06004641356948736 0.12116456776253494
1060000000.0 0.15512966237785253 0.026951057778626948
1080000000.0 -0.16934469612937797 -0.06785382530110783
1100000000.0 0.10035904698048138 -0.18572985439592635
1120000000.0 0.23641314976992084 0.01423886679811132
1140000000.0 -0.1885983743044852 0.1780612257131572
1160000000.0 -0.0005107464484104315 0.2862300170062662
1180000000.0 -0.27714524636857135 0.14350739946428817
1200000000.0 0.3079815273991633 -0.1485418974210409
1220000000.0 -0.3054589067566758 0.21314259360635
1240000000.0 0.3526587148399425 -0.17197337158477255
1260000000.0 -0.2512854839152294 -0.31620173762879306
1280000000.0 -0.3661428838641972 0.20836024943667295
1300000000.0 0.1490248899818693 0.40423666973955474
1320000000.0 0.3191990039538157 0.297934642271863
1340000000.0 0.39258030825356627 0.209239247609804
1360000000.0 0.4196850884254285 -0.16225536306977958
1380000000.0 -0.3203356807267459 -0.3014973258162681
1400000000.0 -0.30058332209351574 0.3008751770941909
1420000000.0 0.39202204565341303 0.08068823106527089
1440000000.0 0.2897553639197002 -0.22589258219883485
1460000000.0 0.2610919943271096 -0.21423120277732768
1480000000.0 -0.20404011797480845 -0.23705958423983015
1500000000.0 -0.1889131317424054 0.21192697910945912
1520000000.0 -0.21450529852689945 0.13266455970162483
1540000000.0 0.19081610119851466 -0.11902496092398002
1560000000.0 -0.041089122726921945 0.19339537559513179
1580000000.0 0.004581303326501497 0.17391116218051497
1600000000.0 0.03980715375835866 -0.1335904550852621
1620000000.0 -0.08025981820266005 -0.06801439451341834
1640000000.0 0.0031081627103846875 -0.0794405766377419
1660000000.0 -0.03293638495711251 -0.0537680559453369
1680000000.0 -0.01643720573769094 -0.034102142655044874
1700000000.0 0.007515225867855586 -0.0137597763798305
1720000000.0 0.0014599006049657187 -0.006118574321425173
1740000000.0 0.018529577637660614 -0.010882668244886193
1760000000.0 -0.01272427013317786 0.03447342562588608
1780000000.0 0.053210027552521695 0.017297735608641913
1800000000.0 -0.050735999037774704 0.07258923014881075
1820000000.0 -0.11230461631200157 -0.04079115631020657
1840000000.0 -0.015468273737570195 0.1599944601309866
1860000000.0 -0.19394136023879052 0.04251800210618414
1880000000.0 0.11436479671928312 0.21138407675853935
1900000000.0 -0.17069714588529794 -0.23135959912799894
1920000000.0 0.3158954829323994 -0.08677587435794976
1940000000.0 -0.32550490485504135 0.13494538477241733
1960000000.0 0.2618361682259529 0.268619861504279
1980000000.0 0.2147153635171298 -0.33945879715761984
2000000000.0 -0.41747052262448153 0.012588682957262011
2020000000.0 -0.19775870430014525 0.3747260680442653
2040000000.0 0.009211480594297522 0.4310520036357651
2060000000.0 0.31714940927778035 0.29411294481970796
2080000000.0 0.43082131884919556 -0.03473674525929874
2100000000.0 0.14688681414467614 -0.40165030044481215
2120000000.0 -0.16907575662593696 -0.3798636703999063
2140000000.0 -0.31305674156229285 -0.2481654353650158
2160000000.0 0.33121987773694617 -0.20055043777588122
2180000000.0 -0.011481097044214579 -0.37500763790506486
2200000000.0 -0.27213699411233777 -0.23813857295584215
2220000000.0 -0.3509174090413052 0.011095839445827586
2240000000.0 -0.2601457741885893 0.22402197665907456
2260000000.0 -0.07380727849149717 0.33438288727178334
2280000000.0 0.136742847426181 0.3172920741214854
2300000000.0 0.32821719361977986 0.14065406239949
2320000000.0 0.25266147244426723 -0.28949446902614645
2340000000.0 -0.34933810216134337 -0.2255990067465586
2360000000.0 -0.048762209244255984 0.45407084959423155
2380000000.0 0.11033139446589657 -0.49733380085216816
2400000000.0 0.16277207386454715 0.5391983278505429
2420000000.0 -0.5113098356168301 -0.3410187327836973
2440000000.0 0.6500261226382196 -0.12018172785595778
2460000000.0 -0.48773813983202075 0.503403414363755
2480000000.0 0.14975973146785637 -0.7164855732578796
2500000000.0 -0.08363911568857246 0.7476300007980003
2520000000.0 0.23360660533697097 -0.7261150827407883
2540000000.0 -0.49817161525412695 0.5800847579771562
2560000000.0 0.745497442660972 -0.14485715900356264
2580000000.0 -0.4864225049554281 -0.5645160312651526
2600000000.0 -0.1323482695399322 0.7093707577024178
2620000000.0 0.5771200627034078 -0.3827962608304996
2640000000.0 0.25256840945775383 -0.6062756619411801
2660000000.0 -0.5388158766442834 0.29555004925752887
2680000000.0 0.5631380972128553 -0.06859206063056693
2700000000.0 -0.46690940947374837 -0.2252864390401263
2720000000.0 0.37113680820677813 0.2868390540471906
2740000000.0 -0.12616317707876576 -0.3987313071516325
2760000000.0 -0.267627085019388 0.26769380072439736
2780000000.0 0.3042623093876861 -0.16776530453691033
2800000000.0 -0.2520854465841534 0.20395734088188402
2820000000.0 0.15337206091705266 -0.26630332289063186
2840000000.0 0.17165966756441658 0.246898074464296
2860000000.0 -0.23093454631208218 0.18164675654917814
2880000000.0 -0.008923801069558049 -0.29010307340605135
2900000000.0 -0.10937641754008733 0.2673508522597631
2920000000.0 0.2760740510218584 0.1033919542003744
2940000000.0 0.02568646899686538 -0.30476282358443857
2960000000.0 -0.31163644616978303 0.024723149081011555
2980000000.0 -0.19253660692420083 0.24867097242691308
3000000000.0 -0.3137364297551532 0.007009282343183308
3020000000.0 -0.06084240885746209 -0.31372064315145365
3040000000.0 0.1952148285476342 -0.2519425489500398
3060000000.0 0.1939611312130375 0.2434288899912339
3080000000.0 -0.19869998584554804 -0.2246542022712623
3100000000.0 0.02942411498177869 0.2895823887983879
3120000000.0 0.16657549770808402 -0.23166941871831787
3140000000.0 -0.025533392936789842 0.27588957339261083
3160000000.0 -0.11373582624794766 -0.23891374881347904
3180000000.0 -0.11877487165366278 0.21908181263260396
3200000000.0 -0.1872039464051888 -0.13033246497375436
3220000000.0 -0.033837805037835934 -0.19958510411609115
3240000000.0 0.09713124696627705 -0.1402418506562491
3260000000.0 0.13205315263879913 -0.021898333686590707
3280000000.0 0.006483323388051235 -0.09720518577104542
3300000000.0 -0.06794714884508232 0.01988786424766625
3320000000.0 -0.0006538217528383182 -0.04149843897823674
3340000000.0 -9.123577622702788e-05 0.02235134700180269
3360000000.0 -0.0043530265014553975 0.004990382900250075
3380000000.0 0.005262505923291096 0.005061830296729661
3400000000.0 0.01911708606809942 -0.003533834753509693
3420000000.0 -0.004131268696901205 0.03606835704337178
3440000000.0 -0.04874613271679609 -0.006897224960568813
3460000000.0 0.004156666781531681 0.0603805171030098
3480000000.0 -0.009978514659263906 0.06980191115661352
3500000000.0 0.08393302614973072 0.030946829660120512
3520000000.0 0.07095012724548432 0.07536807842171575
3540000000.0 -0.11499304752382307 -0.00663477630136305
3560000000.0 0.08534838450024256 -0.08979314421887444
3580000000.0 -0.13480611512354046 -0.010012288447037011
3600000000.0 0.11947457862496111 -0.08929194642638127
3620000000.0 -0.06035804025304394 0.1513939735686845
3640000000.0 -0.15740156157758825 0.08326733237370486
3660000000.0 -0.12863231016223559 -0.13596333284209258
3680000000.0 -0.0554257535191404 -0.18655910586333868
3700000000.0 -0.16054316446642905 -0.11344069342439556
3720000000.0 -0.1419726666702843 -0.13403298315503423
3740000000.0 0.04466146780562019 -0.17999785201732738
3760000000.0 -0.16320831076510342 0.07515345119163036
3780000000.0 0.1734663872605948 -0.009677212783417362
3800000000.0 -0.1561887550478809 -0.046244035814557743
3820000000.0 -0.1553649449256288 -0.011131711948143823
3840000000.0 0.009516489110516687 -0.14925856342726132
3860000000.0 -0.033447834962793736 -0.14605731221407423
3880000000.0 -0.04430265816757587 -0.14211573345027717
3900000000.0 0.1465613077554968 -0.02966338492554911
3920000000.0 0.11706872380213834 -0.10615257820275764
3940000000.0 0.01104867208546196 0.16750653803240992
3960000000.0 0.02936969934666712 0.17114235180805018
3980000000.0 0.1675847438784833 0.0458719710930865
4000000000.0 0.07452062709635253 -0.15004824228055347
