!Created with skrf (http://scikit-rf.org).
# Hz S RI R 50.0 
!freq ReS11 ImS11
400000000.0 0.7399262381772709 0.453384870492677
420000000.0 0.8342813842409994 -0.11793642472827988
440000000.0 0.7891844810142117 -0.10586718183756195
460000000.0 0.7443661310759231 -0.08301161528945408
480000000.0 -0.3626326120294314 -0.5860756647812456
500000000.0 0.2807615815426915 0.5284574578175482
520000000.0 0.5055398528735626 -0.00672150209666369
540000000.0 -0.3963493561174733 -0.18157309871950453
560000000.0 0.09176003006238602 0.3833237513836596
580000000.0 -0.27503856998798576 0.23471547160977949
600000000.0 0.13125344235384592 -0.32994822808408647
620000000.0 -0.34222071542870974 0.0958335816339344
640000000.0 -0.3397942371335727 -0.21401116464625783
660000000.0 -0.3065801150500732 0.26269869466805035
680000000.0 -0.027320730839794093 -0.44227097228938284
700000000.0 -0.052611761165925364 0.45956583055671046
720000000.0 -0.3612919503473135 -0.29904378764076955
740000000.0 -0.18971248382420064 0.3960640340571867
760000000.0 -0.09770667502830402 0.3996566459495358
780000000.0 -0.24946245223628596 0.2795539823462349
800000000.0 -0.072345132577193 0.32319989568920476
820000000.0 0.062406242308034536 0.2744414839612901
840000000.0 -0.20024251645446695 0.06269145779685947
860000000.0 -0.16839609269347927 0.006304591807897699
880000000.0 0.08734963348255843 0.10660731878985139
900000000.0 0.035191984388843536 0.08347440532831286
920000000.0 0.05024859753568233 -0.013852590455805443
940000000.0 -0.02760443312723694 0.02427103192078612
960000000.0 -0.03555931591913814 -0.008338265169612188
980000000.0 -0.026204102977721754 0.05697740323042506
1000000000.0 0.027759568867879208 0.09691245410318361
1020000000.0 0.12519625419395292 -0.0001373775809964309
1040000000.0 0.06887937384168846 0.11647175242562784
1060000000.0 0.15667603953998802 0.016295391093397945
1080000000.0 -0.17535126338811285 -0.050028276167538924
1100000000.0 0.09905178770504598 -0.18641023855472713
1120000000.0 0.23593723948135234 0.019612174022145705
1140000000.0 -0.20523585554089407 0.15846090595397472
1160000000.0 -0.0363202689941493 0.2842060164125852
1180000000.0 -0.2745512454641127 0.14898693684302663
1200000000.0 0.3082432584140683 -0.14721108705899977
1220000000.0 -0.31012683520290496 0.20572059839721288
1240000000.0 0.35822152850078254 -0.15957341608671072
1260000000.0 -0.22202874359621244 -0.3372943606154111
1280000000.0 -0.36684220884700264 0.20690602607239142
1300000000.0 0.12621959956165676 0.41157931184109775
1320000000.0 0.3212568700318957 0.29542905898277944
1340000000.0 0.40479277036295863 0.18408992108573607
1360000000.0 0.4161198494389496 -0.170539486650396
1380000000.0 -0.31543952916765344 -0.30670742746167307
1400000000.0 -0.29402435767992613 0.30767508684104783
1420000000.0 0.394846596439279 0.06687332238263785
1440000000.0 0.28965287064575834 -0.2264504247938437
1460000000.0 0.25778309133434363 -0.21861886263027155
1480000000.0 -0.2070911789777478 -0.23458287571497985
1500000000.0 -0.18647850846378797 0.2142232440423621
1520000000.0 -0.21539961847161648 0.13121818824494336
1540000000.0 0.21362733520628518 -0.07169182097928439
1560000000.0 -0.06807397615767313 0.18616207532828496
1580000000.0 -0.009740322974257701 0.17397101414010624
1600000000.0 0.043564750482050746 -0.13226453701928537
1620000000.0 -0.06641756524089862 -0.080965733459873
1640000000.0 0.016038685655476177 -0.07761223218367204
1660000000.0 -0.02067480096861721 -0.05945681432960107
1680000000.0 -0.03351063844669024 -0.01766345151409175
1700000000.0 -0.011505292886183911 -0.010464555523229169
1720000000.0 0.005962994018651748 -0.0006978527828272276
1740000000.0 0.021041883981759272 -0.0035068212166008248
1760000000.0 -0.025477746809175653 0.026099069582168188
1780000000.0 0.04486006244365896 0.033110079238373474
1800000000.0 -0.06898461143146577 0.05424922984172665
1820000000.0 -0.11404925536581001 -0.03535923167682237
1840000000.0 -0.033581992070081154 0.15645408617139694
1860000000.0 -0.19593191126018805 0.02763996340782324
1880000000.0 0.10981219874579821 0.2133001377735083
1900000000.0 -0.17829740944976213 -0.22582366207740828
1920000000.0 0.30817011474578443 -0.11129185559149608
1940000000.0 -0.3163892864464743 0.15506001000365738
1960000000.0 0.2647999903225101 0.26598952831525974
1980000000.0 0.21929194823920076 -0.33704173486166444
2000000000.0 -0.4181629537252442 0.0011692349975628588
2020000000.0 -0.19511366770034183 0.37643451140845513
2040000000.0 0.029649275401470825 0.4302239893864001
2060000000.0 0.30553285456167467 0.30685879571749736
2080000000.0 0.4317579315272958 -0.028172997730960235
2100000000.0 0.14916873910893066 -0.4011044132288287
2120000000.0 -0.15045089131751307 -0.3879436947651796
2140000000.0 -0.3122597912497542 -0.24972856135841295
2160000000.0 0.3393467589226091 -0.18742700931868467
2180000000.0 0.012166047936432299 -0.37510623668347515
2200000000.0 -0.27222807340664534 -0.23809980747040166
2220000000.0 -0.351385908964611 0.0007460925641508827
2240000000.0 -0.26839844689989434 0.21402397266469644
2260000000.0 -0.09134212733869443 0.32996395071913953
2280000000.0 0.11346104163517119 0.32607914070126987
2300000000.0 0.31653002099917216 0.16475094063832002
2320000000.0 0.258764664013043 -0.2840322640849713
2340000000.0 -0.3524047792818888 -0.2205357373980855
2360000000.0 -0.053825194340574034 0.45336027015480357
2380000000.0 0.10476369986895756 -0.49862939774512366
2400000000.0 0.17849786324006311 0.534093721130832
2420000000.0 -0.5231763095603483 -0.3225356214299132
2440000000.0 0.6487984154588275 -0.1279830002819954
2460000000.0 -0.4717984764897208 0.518676885937073
2480000000.0 0.14543738098776166 -0.7177162423047028
2500000000.0 -0.15191610370691422 0.7373950336634619
2520000000.0 0.2759574264006343 -0.7117329275500788
2540000000.0 -0.4843521360835332 0.5921043823973471
2560000000.0 0.7499972211234296 -0.12182792291398808
2580000000.0 -0.4906781588623394 -0.5615281748578091
2600000000.0 -0.1437396624835982 0.7077623762953471
2620000000.0 0.5817606268385564 -0.3765510669786164
2640000000.0 0.23810980766642664 -0.6126071586249457
2660000000.0 -0.5493981275276955 0.2754381662400914
2680000000.0 0.5669170112691925 -0.015243865231714176
2700000000.0 -0.45991868892956 -0.23896581372356185
2720000000.0 0.3546032201067102 0.3067222322293568
2740000000.0 -0.09627328407523442 -0.4065237171030133
2760000000.0 -0.27338679110479824 0.2614072595889046
2780000000.0 0.3077804755584207 -0.160381911670565
2800000000.0 -0.2484859307225743 0.2078052407402608
2820000000.0 0.13966955704649228 -0.27357232660562647
2840000000.0 0.18262697003960188 0.23955886860640613
2860000000.0 -0.23592423323759337 0.17591228428322908
2880000000.0 -0.051019538392587 -0.2857084846098998
2900000000.0 -0.09380901806849067 0.27369730325969793
2920000000.0 0.2863871337766242 0.07062075443685524
2940000000.0 0.033882393907212045 -0.3043627300964376
2960000000.0 -0.3126803234698187 0.008396038017795317
2980000000.0 -0.21925290468438544 0.22601340386280497
3000000000.0 -0.310304979638182 -0.053660973241254545
3020000000.0 -0.027691349370306744 -0.31888585075490683
3040000000.0 0.27066088854514325 -0.16888612893976984
3060000000.0 0.18451473217755457 0.2510730261197355
3080000000.0 -0.16524055661913015 -0.2501397937852504
3100000000.0 -0.022223067614919417 0.2897498525919698
3120000000.0 0.18162327335500733 -0.21981138304273787
3140000000.0 -0.03791698937331396 0.2741764035262835
3160000000.0 -0.09345534317524518 -0.2470057381087547
3180000000.0 -0.13948193418184388 0.20583736997684002
3200000000.0 -0.18172941769029016 -0.13719229888880832
3220000000.0 -0.029257047956649504 -0.1993766627261367
3240000000.0 0.09024519494920043 -0.1438568864491587
3260000000.0 0.1308754851687878 -0.024396980836298165
3280000000.0 -0.020984598784561864 -0.09447535262965201
3300000000.0 -0.06508609168237074 0.026210711114259128
3320000000.0 -0.010376446057848699 -0.039555050607700114
3340000000.0 0.019520248926913286 -0.009862746698512602
3360000000.0 -0.005308324306301612 0.0021569753235451392
3380000000.0 -0.00581446918314345 0.004934871018138802
3400000000.0 -0.0006819841198645492 0.019709868222515203
3420000000.0 -0.028296009333992143 0.023391237592826797
3440000000.0 -0.04982609365286849 0.0027710973159825623
3460000000.0 -0.051148930254445994 0.03241691966885768
3480000000.0 -0.035686111438994576 0.06163532105429622
3500000000.0 0.07514309246430152 0.049838122699532465
3520000000.0 0.0597599662854201 0.08477690382928965
3540000000.0 -0.10577660743248754 -0.04517853645815028
3560000000.0 0.1005345826178198 -0.0734775712248643
3580000000.0 -0.13349764547765403 -0.025420550745692685
3600000000.0 0.13047695130960457 -0.07288129489394343
3620000000.0 -0.0812301208119239 0.1416947779584609
3640000000.0 -0.16727666193848842 0.0611322220103829
3660000000.0 -0.10656037328632095 -0.15395686408643475
3680000000.0 -0.022739263936988052 -0.19315198356113764
3700000000.0 -0.1345110390122946 -0.1425568870306443
3720000000.0 -0.12145523597473089 -0.15238220341891084
3740000000.0 0.08234756314330145 -0.16601760953202224
3760000000.0 -0.1716419731747089 0.052742678907909304
3780000000.0 0.1726305367478039 0.0002722720241048455
3800000000.0 -0.13693052242135936 -0.08787501432368854
3820000000.0 -0.1534546585322278 -0.023977890044725603
3840000000.0 0.020750920435630236 -0.14745068754876522
3860000000.0 -0.0015971424873774172 -0.15002719235651846
3880000000.0 -0.02153445702058379 -0.14718375456942187
3900000000.0 0.14868949254728892 -0.013611440995199208
3920000000.0 0.13165857051167434 -0.08643874856396107
3940000000.0 0.011818063588919295 0.16631329344470816
3960000000.0 0.016288369643993994 0.17233513894208813
3980000000.0 0.17153733226338275 0.020277627458351533
4000000000.0 0.010240553630380698 -0.16630793560678941
