!Created with skrf (http://scikit-rf.org).
# Hz S RI R 50.0 
!freq ReS11 ImS11
400000000.0 0.7236751494717212 0.4748452887385219
420000000.0 0.8401441534474952 -0.06422956536537389
440000000.0 0.7899933533114915 -0.10045516243361063
460000000.0 0.7348136352294024 -0.14493220129508255
480000000.0 -0.36236649336147164 -0.585797442310021
500000000.0 0.27651073356930955 0.5308746678995035
520000000.0 0.5054091232105351 -0.00800064656771157
540000000.0 -0.3878520357075619 -0.1991224741274175
560000000.0 0.10956853570540762 0.379081762077758
580000000.0 -0.26303048136594254 0.24880802942060518
600000000.0 0.10762657806510147 -0.3386584366601086
620000000.0 -0.3355395049895357 0.11618955962717968
640000000.0 -0.35864679654460613 -0.17974196455504446
660000000.0 -0.2921933156087085 0.2778624016474051
680000000.0 -0.030028375972095196 -0.44075073679996196
700000000.0 -0.06271571339974823 0.45888961606318285
720000000.0 -0.339282564727723 -0.32467129733023814
740000000.0 -0.16737987930107084 0.40524839049323785
760000000.0 -0.07812206042508266 0.4040987734006232
780000000.0 -0.24988065973458154 0.27843265755402274
800000000.0 -0.09983056496863864 0.31522101990102214
820000000.0 0.009275416381399953 0.2814130353480553
840000000.0 -0.21065923367528475 -0.0035562786509644637
860000000.0 -0.16904113730740944 -0.003984551094505366
880000000.0 0.10716595649057906 0.08660731675726784
900000000.0 0.04107806915381601 0.08005326757418056
920000000.0 0.037702494430513364 -0.03475089088578892
940000000.0 -0.01606371851488743 0.03239456086618004
960000000.0 -0.03536032615982598 0.008425710081708542
980000000.0 -0.03393113499075891 0.052779837041012814
1000000000.0 0.04122122003073562 0.09160559328984537
1020000000.0 0.12322956641533293 0.018325656414283402
1040000000.0 0.06489697271466881 0.11800723136473716
1060000000.0 0.1531554519793941 0.03587971526186495
1080000000.0 -0.16453044677564274 -0.07838353871143114
1100000000.0 0.10848221836614796 -0.18132543435052928
1120000000.0 0.23582694736889373 0.025927446178088377
1140000000.0 -0.1788954776062102 0.18837677102913458
1160000000.0 0.03733781171858226 0.28393452955542997
1180000000.0 -0.2644043683661716 0.1648781888054271
1200000000.0 0.31535200998885765 -0.1309199045836678
1220000000.0 -0.3222927959433615 0.18695226292738787
1240000000.0 0.35424795048755664 -0.1696060825766989
1260000000.0 -0.25833381944068917 -0.3110397348158605
1280000000.0 -0.3574581817567557 0.22299957759899283
1300000000.0 0.12798768184321466 0.410866486679853
1320000000.0 0.3099111644348867 0.3072982016144567
1340000000.0 0.3909885751320039 0.2119135674968518
1360000000.0 0.42407716699983616 -0.15023359542014963
1380000000.0 -0.3227369250983928 -0.29931901687908025
1400000000.0 -0.2886821645726598 0.3125821059957094
1420000000.0 0.3938423357889078 0.07244736652115873
1440000000.0 0.2738535470020639 -0.24478629755070766
1460000000.0 0.2525127659758906 -0.22387769434381208
1480000000.0 -0.1971555167989161 -0.2424645851191728
1500000000.0 -0.18680533936603771 0.21316265434273424
1520000000.0 -0.20872952583092722 0.1409927362578632
1540000000.0 0.18730800865333377 -0.12463070989139975
1560000000.0 -0.010497735412904238 0.19726451363865952
1580000000.0 0.020221221772515244 0.17255918844221968
1600000000.0 0.05153571447060252 -0.1293378895850129
1620000000.0 -0.06484705317179197 -0.0827560450482489
1640000000.0 0.01163396481227495 -0.0793038097492078
1660000000.0 -0.026730088187024645 -0.05777411861224116
1680000000.0 -0.018962529533311543 -0.03336337123073197
1700000000.0 0.009793175021713927 -0.011902869006717245
1720000000.0 0.00497498946411854 -0.0034696770623185483
1740000000.0 0.020888809418499982 0.004200605422070716
1760000000.0 -0.009777558632772666 0.035978748588159234
1780000000.0 0.055618434923449096 0.008185953867088515
1800000000.0 -0.03761485524092231 0.08048759947432611
1820000000.0 -0.11635057930723003 -0.028765427033945665
1840000000.0 -0.021280096404166688 0.15940295103211827
1860000000.0 -0.19639674319715023 0.02950777008073603
1880000000.0 0.11056099827078722 0.21332924849223514
1900000000.0 -0.16557087555533584 -0.23488052123777386
1920000000.0 0.3164251390867304 -0.084381483469846
1940000000.0 -0.32762409935139714 0.129475679917142
1960000000.0 0.25832585732832297 0.2720158138539632
1980000000.0 0.21726866510090131 -0.33793246214920647
2000000000.0 -0.41746567499775467 0.013911982873929812
2020000000.0 -0.20810191389215732 0.36919002819157454
2040000000.0 0.03718587568497883 0.4292697147502606
2060000000.0 0.30122650461254674 0.3104134047352086
2080000000.0 0.42847402904474347 -0.055784784670078594
2100000000.0 0.12154689697123675 -0.4100117572553116
2120000000.0 -0.22007288570325087 -0.35219069147105336
2140000000.0 -0.3145152206783585 -0.2466488626987833
2160000000.0 0.3225371926434077 -0.21453907962668123
2180000000.0 -0.018176106561349385 -0.3747317753468264
2200000000.0 -0.28916500929250377 -0.2170641019715502
2220000000.0 -0.3500994792868324 0.027815463028656867
2240000000.0 -0.24748914669746488 0.2381016343878021
2260000000.0 -0.0664031291186067 0.3359901842460013
2280000000.0 0.144936542576308 0.3138454927415277
2300000000.0 0.3306228660553772 0.13497693993757073
2320000000.0 0.2511939742083515 -0.2909301299318586
2340000000.0 -0.3476641417541153 -0.2281753633364834
2360000000.0 -0.0774644391553962 0.44989154165931605
2380000000.0 0.11400299386061784 -0.4966007354772733
2400000000.0 0.15559907062657075 0.5411561738286776
2420000000.0 -0.49855977743322766 -0.35941182375452213
2440000000.0 0.650131980543243 -0.11941070710473752
2460000000.0 -0.4893014389223667 0.5018018455595542
2480000000.0 0.14751687490925997 -0.7168980398242563
2500000000.0 -0.0881223103988262 0.7470488333287385
2520000000.0 0.22532093587700291 -0.7286217996346649
2540000000.0 -0.49445449178429424 0.5831825943821276
2560000000.0 0.7407444148746676 -0.16699426965795938
2580000000.0 -0.4954488386538418 -0.5566751348937962
2600000000.0 -0.10465283770529438 0.7139280391814664
2620000000.0 0.57626707704167 -0.38495825795724387
2640000000.0 0.20722586726142758 -0.623591607188025
2660000000.0 -0.5313680723066171 0.30925103179805297
2680000000.0 0.5665222023161516 -0.03047997737388421
2700000000.0 -0.46196587436587405 -0.23559594221955554
2720000000.0 0.36656287120696607 0.29305504313089525
2740000000.0 -0.12705166098937393 -0.39866619892337934
2760000000.0 -0.26734374119409726 0.26833828361617656
2780000000.0 0.3044463331634054 -0.16764328487577765
2800000000.0 -0.2575494445361584 0.19713410240577303
2820000000.0 0.16124832052421365 -0.26167574496096085
2840000000.0 0.17013576057344673 0.24780090020874576
2860000000.0 -0.24595561068372404 0.16099158303230415
2880000000.0 -0.03806715669173222 -0.28712350467963527
2900000000.0 -0.11506343416729914 0.2651240721110619
2920000000.0 0.28497206151790955 0.07493291095337741
2940000000.0 0.004283277681831859 -0.30602228928359815
2960000000.0 -0.31132929410004845 0.02747211353787917
2980000000.0 -0.11728765382879543 0.2920116044032076
3000000000.0 -0.3138264364589536 0.00884091444703906
3020000000.0 -0.0920331360153507 -0.3059288553574726
3040000000.0 0.21476017935282965 -0.2354929698101303
3060000000.0 0.19007306892988093 0.2468241796388786
3080000000.0 -0.19825163206580518 -0.22522661539574082
3100000000.0 0.03089857849038357 0.289400611514739
3120000000.0 0.15986235376650793 -0.23646650230378072
3140000000.0 -0.012160447032975459 0.2770387465877857
3160000000.0 -0.11254121406444628 -0.23965509049886483
3180000000.0 -0.11002697215413286 0.22387020026349574
3200000000.0 -0.199107936072794 -0.11147911328084183
3220000000.0 -0.04026263782222705 -0.19836615223678097
3240000000.0 0.09638459135464425 -0.14092558121675972
3260000000.0 0.13274938805698736 -0.01997777811657622
3280000000.0 0.014132765715916868 -0.09667696271216658
3300000000.0 -0.06977732534766219 0.012732048028729612
3320000000.0 0.019562785562515048 -0.03696206320618422
3340000000.0 0.019047452748492184 0.012420309443317306
3360000000.0 -0.004049073220965481 -0.005060018736782435
3380000000.0 -0.0012876259080463954 0.0069156121857017715
3400000000.0 0.01922607440987866 -0.0016302069396842104
3420000000.0 -0.012240853975620853 0.033823083986467814
3440000000.0 -0.04760575568066467 -0.012022133118945606
3460000000.0 0.011097704979468968 0.05941220528909835
3480000000.0 0.01575944697125903 0.06893561191278949
3500000000.0 0.08008555011077476 0.03952373880195742
3520000000.0 0.07948732348674221 0.06661174820386184
3540000000.0 -0.11439413117535313 0.017206316143402928
3560000000.0 0.07667129384050095 -0.09809022183677919
3580000000.0 -0.13404735198222986 0.020925041366420108
3600000000.0 0.11055846159233043 -0.10006503318225901
3620000000.0 -0.049726572092412984 0.155352406683335
3640000000.0 -0.15731365471498443 0.08392523565612811
3660000000.0 -0.1306391174179884 -0.13389808914723197
3680000000.0 -0.0610402857977948 -0.1848400564762839
3700000000.0 -0.1534204276636401 -0.12271698537675806
3720000000.0 -0.13671908775948377 -0.13965208593289358
3740000000.0 0.05463992055008034 -0.17751795396723505
3760000000.0 -0.1626302180572485 0.07665367060172126
3780000000.0 0.16991124380833206 -0.031000935594565123
3800000000.0 -0.15259772095743307 -0.05634820227008045
3820000000.0 -0.15445274210640014 -0.016699903978725054
3840000000.0 0.010264990036146846 -0.14870462584438415
3860000000.0 -0.0199455052317662 -0.14891175157336234
3880000000.0 -0.045534940321138126 -0.14179912826320645
3900000000.0 0.14235718950129647 -0.045213455717223676
3920000000.0 0.11806593323660856 -0.1044522775369073
3940000000.0 0.030652703316526843 0.1641279369673232
3960000000.0 0.038874681539941815 0.1690767016653579
3980000000.0 0.17289716914325845 0.011754244496006807
4000000000.0 0.018156960856043992 -0.16633190879386836
