!Created with skrf (http://scikit-rf.org).
# Hz S RI R 50.0 
!freq ReS11 ImS11
400000000.0 0.7075591352461494 0.5011880355607359
420000000.0 0.8366991261853757 -0.10035797572167846
440000000.0 0.7890822669122182 -0.10684457275935853
460000000.0 0.7456131907439573 -0.06778143985981805
480000000.0 -0.33001190278217823 -0.6054339788628861
500000000.0 0.2710506117564154 0.533785837447834
520000000.0 0.5053677417884078 -0.0054085686792555545
540000000.0 -0.40321057403137045 -0.16544221627184832
560000000.0 0.12113430207724078 0.37490041130712143
580000000.0 -0.28053175586845586 0.22774469209152953
600000000.0 0.15556371528703475 -0.3194233932666433
620000000.0 -0.34789381798548846 0.0726385974569642
640000000.0 -0.3196242150717563 -0.24375017195745266
660000000.0 -0.3169859049243678 0.25077478813491927
680000000.0 -0.06845789671120542 -0.4379744623212367
700000000.0 -0.043469258779757 0.46034180345881986
720000000.0 -0.3492637533853493 -0.3125038512676694
740000000.0 -0.1987073441068323 0.39054051349574676
760000000.0 -0.11565385680510554 0.3947615593373776
780000000.0 -0.25377740554520406 0.27561161488223057
800000000.0 -0.0724902823460303 0.32314837639603056
820000000.0 0.09120599160753592 0.2661800099902165
840000000.0 -0.19683476645750195 0.07213762099718606
860000000.0 -0.1677838966859027 -0.012932732894741887
880000000.0 0.07139772870146695 0.11770509646185381
900000000.0 0.02832203198735932 0.08594880555387668
920000000.0 0.052002843737447374 0.0002399614359633573
940000000.0 -0.021632138194348196 0.030191294552738262
960000000.0 -0.029250646871665998 -0.02290014868877898
980000000.0 -0.039203643528005976 0.0493547251827913
1000000000.0 0.04331524245718485 0.09091385385832848
1020000000.0 0.120520337957022 -0.03406046846642989
1040000000.0 0.0936748419271789 0.0975181244111489
1060000000.0 0.1573608294215769 -0.006069521560114324
1080000000.0 -0.17281269599432691 -0.05789076296024805
1100000000.0 0.10793674757348794 -0.18131281534378765
1120000000.0 0.23034313250073227 0.055971097051824834
1140000000.0 -0.21897298003056137 0.13976867806133694
1160000000.0 -0.031104676693462577 0.2852441206443173
1180000000.0 -0.2671459926983845 0.16125308632989027
1200000000.0 0.3108983288499826 -0.1397487001389017
1220000000.0 -0.33961571232941057 0.15021406786012392
1240000000.0 0.37828221918144445 -0.10366525965017741
1260000000.0 -0.2073620452941213 -0.3470291726581344
1280000000.0 -0.36554027847399023 0.20921800566203622
1300000000.0 0.13204157320482074 0.4094815699036009
1320000000.0 0.31982649055469237 0.2966355617368615
1340000000.0 0.4032643041926913 0.18712036434786997
1360000000.0 0.41183809956931017 -0.1804680288347263
1380000000.0 -0.33157487027186955 -0.28913283515484073
1400000000.0 -0.28529581836251355 0.3156500473476923
1420000000.0 0.3957673322585065 0.062039365039889015
1440000000.0 0.2756727398275152 -0.24366744518548433
1460000000.0 0.2425576431821078 -0.23610085107978415
1480000000.0 -0.20993700905040347 -0.23249479688258223
1500000000.0 -0.19460722873390648 0.20667267368931655
1520000000.0 -0.22618597212001892 0.11213301156872371
1540000000.0 0.20803616946585987 -0.0876154527953689
1560000000.0 -0.08616160955081935 0.1790292925535471
1580000000.0 -0.02509470220207905 0.17269610891480874
1600000000.0 0.05460932418282405 -0.1276466291641336
1620000000.0 -0.04760994480120255 -0.09262013201606675
1640000000.0 0.03932387095700548 -0.0683504936522222
1660000000.0 -0.0028283876257620445 -0.062402344199144706
1680000000.0 -0.01763765869811523 -0.033206713185850285
1700000000.0 -0.008622940975851043 -0.012116327827606662
1720000000.0 -0.00547271507365161 -0.001739271283278684
1740000000.0 -0.004922938979503635 0.02043496706856315
1760000000.0 -0.035941798065377145 0.005641241270205836
1780000000.0 0.0429078425219928 0.03549413210245274
1800000000.0 -0.04733397855603204 0.07412164752588377
1820000000.0 -0.11318178859937018 -0.03679403102673721
1840000000.0 -0.03578876581334604 0.1557913794471693
1860000000.0 -0.19755312882299808 0.011215649255169486
1880000000.0 0.10800368605481914 0.21463156633742675
1900000000.0 -0.19014402184557383 -0.21570989864656426
1920000000.0 0.30240149997840543 -0.12626000185921382
1940000000.0 -0.3098705649148496 0.16780849499179776
1960000000.0 0.2795646184551002 0.2502433379157329
1980000000.0 0.20344331991828937 -0.3468738704064807
2000000000.0 -0.418462612248252 -0.007921056813813299
2020000000.0 -0.2158435487405161 0.36547335464916936
2040000000.0 0.016560438685402204 0.43136070037849716
2060000000.0 0.29763589427092796 0.314745045228778
2080000000.0 0.4330073356505639 0.01199656049908177
2100000000.0 0.1816431848118314 -0.38820609058382366
2120000000.0 -0.18123184938967668 -0.3748648404131807
2140000000.0 -0.27608115096012326 -0.2899931443318695
2160000000.0 0.3419147594249219 -0.1832805190426131
2180000000.0 0.07982945309162981 -0.3673036356964348
2200000000.0 -0.25373433892915337 -0.25786137939349313
2220000000.0 -0.3509312459348285 -0.012627365306897974
2240000000.0 -0.28930745672589386 0.18436104446402146
2260000000.0 -0.13760658565550826 0.31309078276779306
2280000000.0 0.07503334303665447 0.33699233732988626
2300000000.0 0.29135862936336276 0.2053989198409949
2320000000.0 0.2723023118479031 -0.2708233635784033
2340000000.0 -0.345089963519836 -0.23160896548945484
2360000000.0 -0.04548597285592904 0.45416680879157656
2380000000.0 0.08102514577705457 -0.5026462659194365
2400000000.0 0.19702529517423265 0.5274295571826924
2420000000.0 -0.5295992654151811 -0.3123579490762246
2440000000.0 0.6392957223807115 -0.17037589852973342
2460000000.0 -0.47217725907541097 0.5191444825270513
2480000000.0 0.17586188097683433 -0.7120317446682682
2500000000.0 -0.10994698308164627 0.7451964395912614
2520000000.0 0.24448399526047382 -0.7236122553568644
2540000000.0 -0.5372229346038612 0.5459482872665459
2560000000.0 0.7518860665255274 -0.11055234812567165
2580000000.0 -0.43872866756913376 -0.6031681199794524
2600000000.0 -0.20016147724780975 0.6935603160164764
2620000000.0 0.619813327811418 -0.3093788549354578
2640000000.0 0.26484367204570564 -0.6012357144815728
2660000000.0 -0.5631334833090073 0.2449341893841621
2680000000.0 0.5664228964901602 0.010632657285147893
2700000000.0 -0.44821712226018356 -0.2589879625150517
2720000000.0 0.3501029072488376 0.31055934341008645
2740000000.0 -0.12774727322183416 -0.39699812994034334
2760000000.0 -0.27180760112737257 0.2620644469863622
2780000000.0 0.2946727448881687 -0.18282273200981533
2800000000.0 -0.23593939781436518 0.221915365056836
2820000000.0 0.11999229289125189 -0.2828701928838783
2840000000.0 0.2093500253427587 0.21639615707587112
2860000000.0 -0.22028590539542353 0.19580643224675134
2880000000.0 -0.05226888092694993 -0.2863269391032287
2900000000.0 -0.10078522637762692 0.27203224960618977
2920000000.0 0.28721208967132017 0.06920044730978187
2940000000.0 0.06329458887729772 -0.300444923360204
2960000000.0 -0.3123156149976474 -0.026101741285402047
2980000000.0 -0.2426560079499471 0.20044845156032515
3000000000.0 -0.30623994900962836 -0.0740795569839175
3020000000.0 -0.023872437191747434 -0.3191093821220037
3040000000.0 0.28692148211247115 -0.13912228140411712
3060000000.0 0.16497874675960209 0.2641822612947347
3080000000.0 -0.14674464867999465 -0.26105559410180246
3100000000.0 -0.04574881804867852 0.28657922499683053
3120000000.0 0.19919132823129873 -0.2034591928132448
3140000000.0 -0.06302769574957652 0.26903382479461024
3160000000.0 -0.0725058477658747 -0.2535073870658883
3180000000.0 -0.14941114079692921 0.19832385976255862
3200000000.0 -0.18535116657093656 -0.13144700145406119
3220000000.0 -0.03973335680892793 -0.19753128864507855
3240000000.0 0.08637253344420771 -0.1458346840320563
3260000000.0 0.12994584475764634 -0.028147543143142342
3280000000.0 -0.013274236478460055 -0.0958643724544558
3300000000.0 -0.04545345278153156 0.05306597477908154
3320000000.0 -0.01843205308007535 -0.03612621254988804
3340000000.0 0.02016075468119717 -0.007882698262320855
3360000000.0 -0.0034898446612512913 0.0044114765587547995
3380000000.0 -0.006886734802709666 -0.003000933152239149
3400000000.0 0.01786670490219191 0.008925314876072262
3420000000.0 -0.01420163265632994 0.03377189205013087
3440000000.0 -0.02393120502079305 -0.043501106137248675
3460000000.0 -0.05259987333684479 0.031138615876337594
3480000000.0 -0.007857063294740292 0.0716163778769008
3500000000.0 0.07371287726510041 0.05231009403972388
3520000000.0 0.04721004498446319 0.09248085482973302
3540000000.0 -0.1061027773562243 -0.04601114681076401
3560000000.0 0.11231654155356792 -0.054574486087401855
3580000000.0 -0.12774268849093345 -0.04666496851402855
3600000000.0 0.14181888510568036 -0.048414889811748726
3620000000.0 -0.10822638450335652 0.12238502959958458
3640000000.0 -0.1759996061471816 0.0316889712132944
3660000000.0 -0.07653356241216762 -0.17067274577857838
3680000000.0 0.005341746480088705 -0.19441221005339832
3700000000.0 -0.11539268493333261 -0.15843232326214032
3720000000.0 -0.09465346725895726 -0.1700293774376307
3740000000.0 0.09875991100522875 -0.15617927913366603
3760000000.0 -0.1755065568043758 0.03394262994852656
3780000000.0 0.17160919750474019 0.01051393562098545
3800000000.0 -0.1290733492294487 -0.0977120551623209
3820000000.0 -0.14850045179906413 -0.04179170070890097
3840000000.0 0.029943055745646856 -0.14530032672125198
3860000000.0 0.0012453663922399147 -0.1492398728570527
3880000000.0 -0.02483883734752087 -0.1460544188962316
3900000000.0 0.1481326174602343 -0.01146305824347927
3920000000.0 0.13296566191145384 -0.08341385126637543
3940000000.0 0.0107963988651098 0.16578713364341494
3960000000.0 0.009475329321848785 0.17237806900096747
3980000000.0 0.16456135579613088 0.05115621460802399
4000000000.0 0.04194534337718194 -0.16099167186007915
