! Created with skrf (http://scikit-rf.org).
# Hz S RI R 50.0 
!freq ReS11 ImS11
400000000.0 0.158244307033705 0.8560684379914176
420000000.0 0.7058453180244733 0.48701203517814645
440000000.0 0.7648585663376386 -0.30602198808959985
460000000.0 0.11377568413985448 -0.7790284682778449
480000000.0 0.5549450405667938 -0.4376699320519545
500000000.0 0.3074791493427766 -0.4697976989551783
520000000.0 0.37394604067777953 -0.3118522322928084
540000000.0 0.3651128837369856 0.2256316082691543
560000000.0 -0.2592150373026901 -0.2439171776688152
580000000.0 -0.3238813478717157 0.09757783600704602
600000000.0 0.3346654011260758 0.0055061136206115404
620000000.0 -0.19965598383599503 -0.2901436108763774
640000000.0 -0.35452726219306163 -0.15353207165859856
660000000.0 -0.37493907955556993 0.1438876923670694
680000000.0 -0.06724528096525058 -0.42381278557976093
700000000.0 0.19296642449881568 0.40539596279573004
720000000.0 0.11866779923269026 -0.4333593894746653
740000000.0 0.4282320577551041 -0.10440351891100104
760000000.0 -0.38067008632663063 -0.16815983306962567
780000000.0 0.19943127183451353 -0.3286872058506242
800000000.0 0.17193451904121143 0.30361385344812497
820000000.0 0.2148571967315368 0.18992819152526158
840000000.0 0.2219497515388121 0.06724850462673079
860000000.0 0.14611397866381753 0.13407631144106866
880000000.0 -0.11550556446330679 0.07367253250405548
900000000.0 -0.06461980553740017 0.029027307643683005
920000000.0 0.03452707400069451 0.01877044804404472
940000000.0 -0.0002765199500434149 0.03022565828549104
960000000.0 -0.024418954482903037 -0.030882721208663144
980000000.0 -0.03657513025169122 0.03340899523475936
1000000000.0 -0.026586450583517635 0.04829399208060459
1020000000.0 -0.06678941334669605 0.023248765378956236
1040000000.0 -0.08255000948062466 -0.006646169181931704
1060000000.0 0.12295868756807429 0.0041734763579454005
1080000000.0 -0.09901824100483601 -0.10148285018014265
1100000000.0 -0.11079022231385414 -0.12787779417484502
1120000000.0 -0.19090905562091035 0.06154142273403151
1140000000.0 0.2381514747342518 -0.059090145066514395
1160000000.0 0.14026040459261763 -0.2537240095981406
1180000000.0 -0.20472508763588057 -0.26195740812685464
1200000000.0 -0.3167508426516821 -0.18735595909103062
1220000000.0 0.07345598588725041 -0.391218620253607
1240000000.0 0.37116460660345213 0.19466123697041676
1260000000.0 -0.43884818075265286 -0.018133703314277303
1280000000.0 0.44640143830577833 -0.04059524234671669
1300000000.0 -0.4195174024112991 -0.15300447558966473
1320000000.0 -0.10150656165445497 0.42077477749989894
1340000000.0 -0.3676932872674982 0.19727929016342136
1360000000.0 -0.1540524112208476 -0.3759653785421523
1380000000.0 0.2552205734097344 -0.3160666959709112
1400000000.0 0.22806328997059372 -0.3240550295457181
1420000000.0 0.20498481779078961 -0.3286051853839209
1440000000.0 -0.05795738260107133 -0.36980792405126117
1460000000.0 -0.3557098454695228 -0.04209509765672756
1480000000.0 0.181498970490175 0.28643194901376645
1500000000.0 -0.2545402049200167 -0.18186552311311738
1520000000.0 0.06886858869212512 0.27815244546825013
1540000000.0 0.05615420912186592 0.24939700374151974
1560000000.0 0.21137019695046044 0.03328430438349481
1580000000.0 0.1433113989944727 -0.1052506159986734
1600000000.0 -0.022392798808590495 0.1420666519072145
1620000000.0 -0.04797161980596076 -0.08903659506462892
1640000000.0 -0.04077688630995613 0.059563221913161365
1660000000.0 0.04482475186452705 -0.0025547142383904606
1680000000.0 0.01099085701134392 -0.010992986222716786
1700000000.0 0.012101938380684131 1.2623659134456613e-05
1720000000.0 -0.02462791159535377 0.020418303539877617
1740000000.0 -0.0476339584527675 0.018266629905733342
1760000000.0 0.045001773972412104 -0.044367406859074275
1780000000.0 -0.0377317136008271 0.07306698663135261
1800000000.0 0.06657867893180937 -0.08282774245811683
1820000000.0 0.11931237485706206 0.011560109673502066
1840000000.0 -0.11097217800755266 0.09442482428153595
1860000000.0 -0.08645191029790786 -0.14896093872097702
1880000000.0 0.19419798450677048 -0.08275611254787235
1900000000.0 0.24326400824459873 -0.0829325135445575
1920000000.0 -0.2796859419415175 -0.11800410104548059
1940000000.0 0.18228958233056783 0.29795079476232605
1960000000.0 -0.14039315593306387 -0.360707176344427
1980000000.0 0.196014431277667 0.3655733227664085
2000000000.0 0.06485438765334577 -0.43221213098289163
2020000000.0 -0.16782535204067164 0.41721874225654854
2040000000.0 0.4516417114359164 -0.0036488656660209414
2060000000.0 -0.2162899444221172 -0.39136170764607753
2080000000.0 -0.39802839730044115 0.16912970377684988
2100000000.0 -0.3294109469622385 0.25408002241694216
2120000000.0 -0.3879183782542938 0.09255742839955661
2140000000.0 -0.3416184037988992 -0.17396907154196778
2160000000.0 0.36261260904817083 -0.07292801035041735
2180000000.0 0.34141472634247594 0.11285456723098339
2200000000.0 0.2861588508335868 0.20696579913739166
2220000000.0 0.3296422035141924 -0.1284578270950314
2240000000.0 -0.15966804879992655 -0.314115384161058
2260000000.0 -0.3314016672789876 0.12869333760680998
2280000000.0 0.19885271154483725 0.29817455263758524
2300000000.0 0.24407981300359186 -0.2790336399982319
2320000000.0 -0.36728571763272055 -0.12679987082715716
2340000000.0 -0.15035883599838792 0.3869656681423879
2360000000.0 0.44988525447043826 0.036446124969996496
2380000000.0 -0.35465024799617184 -0.34990382301394174
2400000000.0 0.18999919691030828 0.515594852189353
2420000000.0 -0.3182460799004491 -0.5131516533032489
2440000000.0 0.6142939428553709 0.22774558302995615
2460000000.0 -0.6610264537470381 0.22326915069109027
2480000000.0 0.4937709810351116 -0.5389850612875896
2500000000.0 -0.4272468507070635 0.6191708127467315
2520000000.0 0.5327816677960938 -0.5467965347378609
2540000000.0 -0.7235988062552989 0.25151178234387
2560000000.0 0.7298535418525652 0.21145127487791465
2580000000.0 -0.20509152610193968 -0.7169871799165783
2600000000.0 -0.3915445625898424 0.6053703885941574
2620000000.0 0.6898271695458449 0.039608905668839796
2640000000.0 0.6003111729155941 -0.25930327337783754
2660000000.0 -0.5151088140731395 -0.3279365349827473
2680000000.0 0.05599863032203117 0.5632761022865221
2700000000.0 0.21116644549310307 -0.4770339047194903
2720000000.0 -0.2402111558922514 0.4100257065503631
2740000000.0 0.224422002117772 -0.3685194451032617
2760000000.0 -0.050894687838880064 0.386679981741619
2780000000.0 -0.2061277867324716 -0.2901023807787341
2800000000.0 0.31959046320076717 0.05436134239444957
2820000000.0 -0.2783450915895213 0.11693072612025533
2840000000.0 0.2549395551120896 -0.13463718956286996
2860000000.0 -0.24480988605071938 0.14404654385075538
2880000000.0 0.2796328690637648 -0.05431146927714756
2900000000.0 -0.25181804527037793 -0.14505473200899527
2920000000.0 0.0425889057235079 0.2992422427242643
2940000000.0 0.2147437318326314 -0.2285528083124932
2960000000.0 -0.27003845683921274 -0.1721765671405815
2980000000.0 -0.3171298345206684 0.07890875676778336
3000000000.0 -0.2927062909673916 0.14949931479826048
3020000000.0 -0.3254759779487136 0.007644854854165284
3040000000.0 0.03910897926547082 -0.3169716397225185
3060000000.0 0.191210376672143 0.24640310373379531
3080000000.0 -0.20329260188873183 -0.22186265858414353
3100000000.0 0.06348273173830236 0.2847503545624572
3120000000.0 0.15046512371415177 -0.2381211936214727
3140000000.0 -0.22183952376549596 0.15755135897075723
3160000000.0 0.25667622201407814 -0.046975308514154664
3180000000.0 0.01368526232124014 -0.24792194175648885
3200000000.0 0.20897187823023164 0.10456439208125112
3220000000.0 0.028692313893963303 0.20948736558475164
3240000000.0 -0.026341783488578543 0.18363922261936905
3260000000.0 -0.02364676646863777 0.1510402817913559
3280000000.0 0.10600562259947624 0.048159428526305455
3300000000.0 0.05060878908852536 -0.06300590539744166
3320000000.0 -0.006262177458510312 0.045268407362901976
3340000000.0 -0.01041247454827665 -0.010181078791312713
3360000000.0 -0.010293284035916032 0.005272749938354964
3380000000.0 0.0233620877057979 -0.00033571425399681623
3400000000.0 -0.011270686097175048 -0.02694865162293295
3420000000.0 -0.029954481277378056 0.0037334994962510836
3440000000.0 -0.013043374233651754 -0.028632850444060477
3460000000.0 0.011305160034111493 0.04123396602262539
3480000000.0 0.06301393918216269 -0.006760785978191638
3500000000.0 -0.015696426699693133 0.0857081425710854
3520000000.0 0.08447950545008442 0.06926836440383065
3540000000.0 0.0834479411126621 -0.0942097076209295
3560000000.0 0.04818069507782872 -0.12584000006146379
3580000000.0 0.12940617919831876 0.06001349606875035
3600000000.0 -0.11542819219898832 0.10027771932349193
3620000000.0 0.021773796628507827 -0.15801762096468372
3640000000.0 -0.11226681474390894 0.12318956292260541
3660000000.0 0.060598814958432605 -0.16756686962680142
3680000000.0 0.1467458873019527 0.11593676038337396
3700000000.0 -0.0013100024770420695 0.19311567678089608
3720000000.0 -0.0400234628097265 0.1948161081537891
3740000000.0 0.11504973998052731 0.16062726675711558
3760000000.0 -0.0657597921884357 0.17907568183493242
3780000000.0 -0.1750795392044262 -0.036101221196819806
3800000000.0 0.1589393499329936 -0.029408037316134745
3820000000.0 0.14583792415655947 0.01644789470184873
3840000000.0 -0.13402733415531914 0.005786350978776732
3860000000.0 -0.11118382283668089 0.07565075708487674
3880000000.0 0.1047426696920601 -0.10384979412048109
3900000000.0 -0.11222445482421116 -0.11476663678410512
3920000000.0 0.16868802387494472 -0.03365015982739971
3940000000.0 0.17984470014896772 -0.016785440731995317
3960000000.0 -0.07020902909547302 -0.17064574072011063
3980000000.0 -0.1791489987786233 -0.007703331504414744
4000000000.0 0.1526122868157338 0.06376211465973963
