!Created with skrf (http://scikit-rf.org).
# Hz S RI R 50.0 
!freq ReS11 ImS11
400000000.0 0.5316725883696116 0.6853328835239316
420000000.0 0.8416450894516062 -0.08698939472653952
440000000.0 0.5986154983202615 -0.5328434068310082
460000000.0 0.6150505206068929 -0.40586079830184296
480000000.0 -0.10119745223249518 -0.6633268484469198
500000000.0 -0.34121019137335307 0.4849651730465554
520000000.0 -0.3781028418314575 0.3348397839234251
540000000.0 0.2759421792867824 -0.34621869090663315
560000000.0 -0.28858551865846616 0.2835963431651502
580000000.0 -0.1464988460769202 -0.3386499628266729
600000000.0 0.35646772260318993 0.056645884299110605
620000000.0 -0.29955455255543745 -0.20346741135921684
640000000.0 0.3206361275647965 -0.26281179102744434
660000000.0 0.4099165241016474 0.09164745501152978
680000000.0 -0.4196121573198923 0.1528589419501346
700000000.0 0.45539854063285123 -0.0019359353813481368
720000000.0 -0.24422486020119274 0.38413071444349084
740000000.0 -0.20463636847838595 0.3648683628383197
760000000.0 -0.124852329871025 -0.3769766484069851
780000000.0 0.11124473842734521 -0.3572397428064883
800000000.0 0.2520242348424704 -0.2353322120246511
820000000.0 -0.20166597050832155 0.2165454937794486
840000000.0 -0.10989296785080704 0.19304840715044405
860000000.0 -0.028355094528780267 0.17420095254554177
880000000.0 0.01599110579136815 -0.1397326600137324
900000000.0 -0.06061438206577383 0.06117994923837654
920000000.0 0.047127679766567405 0.005043747139782374
940000000.0 -0.019281864187351137 -0.020643979741005097
960000000.0 -0.022571537639281283 -0.022886173350908607
980000000.0 0.050218371550721945 -0.018914712995427026
1000000000.0 -0.08228947200214136 0.039592814706220406
1020000000.0 -0.09892104498229488 0.06607102203084313
1040000000.0 0.041563451624445975 -0.126578575176295
1060000000.0 -0.15150395861009078 0.0589675484816943
1080000000.0 -0.1841679269959715 -0.04833555054290238
1100000000.0 -0.12869737183707836 -0.17209220175523987
1120000000.0 -0.03646081992631381 -0.22929873483056887
1140000000.0 0.21255908564676598 0.13345015125439227
1160000000.0 -0.21212481078919748 0.16749210645042287
1180000000.0 0.08887046986351001 -0.287358563479136
1200000000.0 -0.09707543881793851 0.3286993158968294
1220000000.0 0.004365249422682798 -0.3791152657674518
1240000000.0 0.40552788228631953 0.0059179788393240096
1260000000.0 -0.37437279802076073 0.18107425890811524
1280000000.0 -0.022697879244024166 0.4242023972916007
1300000000.0 0.4181805344815434 -0.08343498943705639
1320000000.0 0.42260031557977074 0.043879625278307875
1340000000.0 -0.0568864943608568 0.43018342735340953
1360000000.0 0.24749238118432634 0.36901022674212614
1380000000.0 0.1703803370836898 -0.40498641676060493
1400000000.0 -0.2233322722995392 -0.36612389219303426
1420000000.0 0.034424513851946364 0.4074706788527793
1440000000.0 0.2551208617926278 -0.28038869190864824
1460000000.0 0.028478525233002035 -0.3441375577853859
1480000000.0 -0.31033937624993463 -0.04088675659998451
1500000000.0 -0.029130036069678573 0.27773858967235965
1520000000.0 -0.1967807210095585 0.15265797844601436
1540000000.0 0.055285454835287254 0.2150799790781027
1560000000.0 -0.1639093926884816 0.10481140134983953
1580000000.0 -0.17420142297881236 -0.004661482457967234
1600000000.0 -0.0038438490320879203 0.1400999310854796
1620000000.0 0.036798296542877466 -0.09598379817575971
1640000000.0 -0.07951680922359075 -0.0035572721939155067
1660000000.0 0.058444041028547083 0.032226356400497876
1680000000.0 -0.04435430863905281 0.0063427066538187075
1700000000.0 0.020809375895050736 0.008672496756315486
1720000000.0 0.0016371680163430658 0.006164061190638544
1740000000.0 0.010593299929182152 0.006357340739811679
1760000000.0 0.020007295585884648 0.01956125092869221
1780000000.0 0.049782039633905976 -0.01943577213465191
1800000000.0 0.09550775604472096 0.01990539570312197
1820000000.0 -0.11358607237806186 -0.05888054128267563
1840000000.0 0.1456930378771019 0.07316193919299545
1860000000.0 0.15725435842690313 0.12494155815481675
1880000000.0 0.2313739997038261 -0.03941989106296838
1900000000.0 0.09011029378967651 -0.26060857060092063
1920000000.0 0.31523350799761063 0.05265310009545458
1940000000.0 -0.08529777521049502 -0.3352071360018358
1960000000.0 -0.3736312923540788 -0.0184589508891339
1980000000.0 0.386262997287209 -0.11652246920009098
2000000000.0 -0.2610782014418859 -0.32789870420702655
2020000000.0 -0.3977928884711437 -0.14782373659265635
2040000000.0 0.0039336005879813864 0.42896493216085557
2060000000.0 0.04200173046516892 0.4300925250722226
2080000000.0 0.17358371273613446 0.39512082966531914
2100000000.0 0.08639506722807465 -0.4181324047258596
2120000000.0 -0.13168356149462287 -0.39329313611310845
2140000000.0 0.03153413841472607 -0.39556070842798574
2160000000.0 0.25165806373826616 -0.2872895641945321
2180000000.0 0.26527558708992743 -0.2591643831339015
2200000000.0 0.22278016970885375 -0.28198361781159487
2220000000.0 -0.34067725442210595 -0.08100895182515858
2240000000.0 -0.33393033852819154 -0.08920594964414764
2260000000.0 -0.3303952351185362 0.09856828670189893
2280000000.0 0.29318620147005287 0.18430809098803827
2300000000.0 0.30522823401830895 0.1785904336585542
2320000000.0 0.30768574009851923 0.2167975684538702
2340000000.0 -0.21361155057936324 -0.35067383385134154
2360000000.0 -0.4494007536240208 -0.0059562467648458005
2380000000.0 0.22235183430865318 0.4465528255086574
2400000000.0 -0.437200296663354 0.3471654722888951
2420000000.0 0.49554621980811187 -0.3554794645099909
2440000000.0 -0.5015288834270134 0.4230767640659822
2460000000.0 -0.6907737815231177 -0.11361755471429306
2480000000.0 0.7056080048378007 0.1912655492110132
2500000000.0 -0.42517140848127727 -0.6214595629843064
2520000000.0 0.6903549249565343 -0.33107346656165454
2540000000.0 -0.6635386540174447 -0.3887525504946636
2560000000.0 -0.25085908803593093 0.7235553655643129
2580000000.0 -0.2555794086913102 -0.7066157051725213
2600000000.0 -0.6869443668087737 0.24831778791931325
2620000000.0 0.26433047169285356 0.6521772275544376
2640000000.0 0.2918869867018448 -0.5984126462119268
2660000000.0 -0.5802804470900577 -0.2332946233351124
2680000000.0 -0.06761413614764344 0.5760290560649699
2700000000.0 -0.36358528100296056 -0.3838365754076466
2720000000.0 -0.02005243706816036 0.4817614979846162
2740000000.0 0.39815750883685364 -0.16938167738889132
2760000000.0 -0.2768554041901995 0.27384793069972246
2780000000.0 0.35835341076275323 0.008227252779857478
2800000000.0 -0.2833674505478923 -0.17743819705194538
2820000000.0 0.07591317803502784 -0.3046861806881859
2840000000.0 0.10204294304280585 0.28724322565970206
2860000000.0 -0.25119468379364673 -0.15610326278118022
2880000000.0 0.08704568034019643 -0.27699570982033794
2900000000.0 -0.2660344807030944 -0.11431176706262483
2920000000.0 -0.2608018347178442 0.14364247325434587
2940000000.0 0.16868388013468608 -0.26046272392009195
2960000000.0 -0.20880590695038465 -0.2391266074158385
2980000000.0 -0.3112744787248028 -0.07061628474376579
3000000000.0 -0.28640504725343563 0.1349551614548973
3020000000.0 0.31048823840660167 0.07063079399412707
3040000000.0 0.30817585694360305 0.07892883596880308
3060000000.0 0.21377939937231363 0.2266824152162645
3080000000.0 0.25830801245379476 -0.1532257939432529
3100000000.0 -0.20076178067424041 0.2121680742234849
3120000000.0 -0.0027186997530290915 -0.2867728073440746
3140000000.0 -0.27748586403552383 0.018413030395255194
3160000000.0 0.08551219907944455 -0.25208014557225533
3180000000.0 -0.1235196642937739 0.21834727507032323
3200000000.0 0.1285858507164281 -0.19640844954608747
3220000000.0 -0.012530727381125432 -0.20714868963714125
3240000000.0 -0.06287800537598234 -0.16195443417577246
3260000000.0 0.13088369593061477 0.05887754246514425
3280000000.0 -0.09343838065189532 -0.04280928004697463
3300000000.0 0.019360885058940028 0.06952348317847358
3320000000.0 0.004049389250668506 0.0456056450064453
3340000000.0 -0.02451069069604521 -0.0008432295819409891
3360000000.0 -0.008701443316617107 -0.0005047816324265106
3380000000.0 -0.0011890460380309259 -0.0026447215435919593
3400000000.0 -0.0012749399892719119 0.01480664787267725
3420000000.0 0.032114405941608304 -0.002183626893588801
3440000000.0 0.032029398052307985 -0.03396456891889918
3460000000.0 -0.0115009245273928 -0.061322328519441784
3480000000.0 0.07559700713305115 -0.006755748573799791
3500000000.0 0.030804207792089287 -0.08119984652926919
3520000000.0 0.04995311641695619 -0.08679204214296168
3540000000.0 -0.04843145355631634 0.10103263754926856
3560000000.0 0.11406458240577798 0.028319937158221203
3580000000.0 0.08998984381664711 -0.09815178014423556
3600000000.0 0.14630079007696287 0.05231772581369873
3620000000.0 -0.1653834757862858 -0.017513308501934572
3640000000.0 -0.0843282340671123 0.16200372023179305
3660000000.0 -0.03658272742679053 0.18621623206641075
3680000000.0 -0.16367463778792762 -0.09753935966688557
3700000000.0 -0.1400110160149475 -0.1312714918036182
3720000000.0 0.05818866616716195 -0.18277153003192026
3740000000.0 0.14387706458211877 0.11839066603496261
3760000000.0 -0.05675619268360095 -0.17506136875166842
3780000000.0 0.17623322392757637 0.03471924678763843
3800000000.0 -0.17077139469576333 0.010630661368834204
3820000000.0 0.04593167556324553 0.15102901857752765
3840000000.0 -0.142692702033217 0.03423570273545958
3860000000.0 0.037091393997629084 -0.13964976001614215
3880000000.0 0.12546101701151594 0.07743850398163622
3900000000.0 0.026553508486370253 0.1520371268303214
3920000000.0 0.1593814349205285 -0.01562663156032683
3940000000.0 0.04589434337427613 0.1648597060299814
3960000000.0 0.13893899480936478 0.10899002863219086
3980000000.0 0.15414286800415475 0.08097929873430276
4000000000.0 0.14223401904021557 -0.08476779201006245
