!Created with skrf (http://scikit-rf.org).
# Hz S RI R 50.0 
!freq ReS11 ImS11
400000000.0 0.8033628466027233 0.33607624292237004
420000000.0 0.6488443437983291 -0.5433765502798417
440000000.0 0.35245182718391993 -0.7062740001556707
460000000.0 0.7317300452463221 0.010982423901397486
480000000.0 0.10123978921361271 -0.6742455101320156
500000000.0 -0.10292376939873799 0.5901168989224445
520000000.0 0.34933033732341373 0.3654084233042163
540000000.0 -0.20189126865053733 -0.3921082338070826
560000000.0 -0.18990838941880836 0.3520863839405074
580000000.0 -0.365818270831452 -0.00016196971555018384
600000000.0 0.2256702435705084 -0.27665713797394903
620000000.0 -0.34808018372455757 -0.07461193923479777
640000000.0 -0.1672171520602685 -0.37270635890456827
660000000.0 -0.002300271701685915 0.41671787261371984
680000000.0 -0.39687916419612657 0.20568810987806047
700000000.0 0.44983929003962314 0.06915675322450653
720000000.0 -0.4584733393225593 -0.04651754417320671
740000000.0 -0.24368585298468465 0.3571587124990339
760000000.0 -0.22981489245965558 0.33655666089473096
780000000.0 -0.36946449976394036 -0.03848936458494647
800000000.0 -0.31725293619455003 0.09652365292739107
820000000.0 -0.23696652289229514 0.15397904831130657
840000000.0 0.07136545567210595 -0.20285951920484271
860000000.0 -0.17571289861875103 0.03539515322017504
880000000.0 -0.1337052499068858 -0.05400291367608444
900000000.0 -0.07635479315229894 0.0455476548875226
920000000.0 -0.03320925909378993 0.0329135487427846
940000000.0 -0.031695797990016254 0.0169320100037414
960000000.0 -0.04165039755858584 0.004891357365343724
980000000.0 -0.023232899518251096 0.06614859628541082
1000000000.0 -0.05580500556938155 0.08773750968549021
1020000000.0 -0.05801952162218053 0.10818558066643386
1040000000.0 0.014393526624915848 -0.1291627045076323
1060000000.0 -0.011261322236606183 -0.1511055089518819
1080000000.0 -0.16849862110160393 -0.03394634730021705
1100000000.0 0.17355580081445718 0.10405111212488834
1120000000.0 -0.06537024598075176 0.2237727434845568
1140000000.0 -0.2083217155706446 -0.15278052742148795
1160000000.0 -0.23626886901453936 0.166514575601512
1180000000.0 -0.257096987513136 0.18781113047185033
1200000000.0 0.053160825011746106 -0.3425999004572809
1220000000.0 0.04852841247640442 0.3696198547692129
1240000000.0 0.1567304456887992 -0.35831179803445656
1260000000.0 -0.3619507092549691 -0.18010726196399832
1280000000.0 -0.29507483989465527 0.29981015357245955
1300000000.0 0.22724024428163275 0.3645223292612336
1320000000.0 0.2990143965802733 0.31678803900205127
1340000000.0 0.3920841513586835 0.2116296954160627
1360000000.0 0.38827048100091394 -0.22876925969121628
1380000000.0 -0.3242740839053153 -0.2977041327159214
1400000000.0 -0.35862224698485473 0.22495580938785587
1420000000.0 0.261518074942896 0.3026285627792748
1440000000.0 0.3700965301161039 0.0002851713552220368
1460000000.0 0.3253185132879941 -0.10796341568952805
1480000000.0 -0.24272255630519507 -0.20467158504137367
1500000000.0 0.03576330531094042 0.28310600271285796
1520000000.0 0.10665557810835226 0.22706702249497665
1540000000.0 -0.07035015355357904 -0.20639259770504959
1560000000.0 -0.0806992733490457 0.17087850154884304
1580000000.0 -0.16581575454539496 0.020798918266925186
1600000000.0 0.05980227486534439 0.12349163440709199
1620000000.0 0.10088132073419913 -0.03172971772963776
1640000000.0 0.07920347210816724 0.02171550762750437
1660000000.0 0.0535578118520135 -0.03987333113074806
1680000000.0 0.04308518792561117 0.005231205922114464
1700000000.0 -0.02232566107127337 -0.003307573882223701
1720000000.0 0.003003095140972431 -0.0001299808927343208
1740000000.0 0.016381820321753088 0.005476299987524117
1760000000.0 -0.005329068345675708 -0.03415452134006337
1780000000.0 -0.04786850481492152 -0.02826020198658734
1800000000.0 -0.01665272647188464 -0.09234791438680248
1820000000.0 -0.11012716418228585 0.062242677974753934
1840000000.0 0.1651425793736573 0.018232074122730854
1860000000.0 0.02532061369316263 0.20036252850739208
1880000000.0 0.21254621239411162 -0.11283159528637451
1900000000.0 -0.2710730687592123 0.08630872922074669
1920000000.0 0.24648096068343042 -0.2072440373707802
1940000000.0 -0.34286753226748073 0.05262627809295506
1960000000.0 0.009777792105466766 0.3719323857669533
1980000000.0 0.3969794504637785 -0.06378623342110386
2000000000.0 -0.3426775376531762 -0.24351058897032585
2020000000.0 -0.2943010287986528 0.31211105998897365
2040000000.0 0.14983555371452945 0.4095383918975535
2060000000.0 0.4362354401791861 0.02100094244271216
2080000000.0 0.18143211697418293 -0.3911744389473487
2100000000.0 -0.15994648256451047 -0.3935749606942602
2120000000.0 -0.3536736669855061 -0.21155399997268712
2140000000.0 -0.37508759060985464 -0.128118878247536
2160000000.0 0.33588191646806337 -0.1887245809903296
2180000000.0 0.11612252019759187 -0.35805706994790304
2200000000.0 -0.2555562772338404 -0.2614735364359013
2220000000.0 -0.35387358656771417 0.04104304876988891
2240000000.0 -0.1790852380058749 0.3015498425963268
2260000000.0 0.1749215371957556 0.30389171827404404
2280000000.0 0.34683459235334696 0.04933878182973119
2300000000.0 0.31029129058387567 -0.18109805005942162
2320000000.0 0.09266609442034152 -0.3738117472189507
2340000000.0 -0.3899040770250092 -0.1494078342648426
2360000000.0 -0.002769720415514891 0.459626623729553
2380000000.0 0.03620023363602805 -0.5116721544047157
2400000000.0 0.33927114453546436 0.454004843304241
2420000000.0 -0.6163461126181597 -0.024619518134744306
2440000000.0 0.4443821678389539 -0.49104479407864426
2460000000.0 -0.011101969808088233 0.7007798156296385
2480000000.0 -0.39009319270358145 -0.6176455349675654
2500000000.0 0.4461963373816401 0.6019399582564928
2520000000.0 -0.35955851746684436 -0.6692206442309412
2540000000.0 0.04334888567691819 0.7604202722175943
2560000000.0 0.4267855890336277 -0.6232480963024277
2580000000.0 -0.7385863165659459 -0.05603034358652945
2600000000.0 0.45115243102955105 0.5571373578305616
2620000000.0 0.12984777097360206 -0.6762682935043465
2640000000.0 -0.3001154900719243 -0.5794624771234105
2660000000.0 -0.25977801175807336 0.551678513203649
2680000000.0 0.5243768526985418 -0.2047309045335515
2700000000.0 -0.4657331571223441 -0.2218026939713356
2720000000.0 0.32883086503633435 0.3348439663668829
2740000000.0 -0.11955981928085847 -0.40313350644548357
2760000000.0 -0.2174150785818918 0.31310121605164615
2780000000.0 0.2278584017739573 -0.2628949233254453
2800000000.0 -0.19290396417078864 0.257770408555857
2820000000.0 0.1781629101595109 -0.2449444586387018
2840000000.0 0.0553697791498465 0.28932758559913746
2860000000.0 -0.2821947413102064 -0.05757441725737384
2880000000.0 0.2049062527281068 -0.19964006741357154
2900000000.0 -0.2614850359874625 0.11464633625951468
2920000000.0 0.1922637671757688 0.2196049502921504
2940000000.0 0.09235903760261105 -0.2884319659779912
2960000000.0 -0.3052089320449885 0.056343881458222625
2980000000.0 -0.11966276598288007 0.28774528147748457
3000000000.0 -0.2397741039162342 0.20008571232870995
3020000000.0 -0.3010619461921226 -0.09422087702226241
3040000000.0 -0.027318564036010306 -0.31221589655099546
3060000000.0 0.29466393592079043 0.07888461896754453
3080000000.0 -0.27139400819561393 -0.11382934215924657
3100000000.0 0.07224035650648097 0.2783605794836173
3120000000.0 -0.03495371566929961 -0.28210272285687066
3140000000.0 0.11913480998589929 0.24974449014132782
3160000000.0 -0.21585673220230775 -0.15534626066152296
3180000000.0 0.09896974818527775 0.23261413598977876
3200000000.0 -0.07282675786336039 0.22036065117365478
3220000000.0 -0.11317135978863337 0.16927913677620549
3240000000.0 -0.15436274277442794 -0.07136653572386215
3260000000.0 0.11526971139341645 -0.06583405270510068
3280000000.0 0.0839980674507573 -0.04944011298210893
3300000000.0 0.07093094913360186 -0.01651303946383517
3320000000.0 -0.047931783533198054 -0.003775252820805378
3340000000.0 -0.002364399546250529 0.03089721362832007
3360000000.0 0.012648620060285684 0.0009657805899657883
3380000000.0 0.0003210899533290405 -0.003660446945823125
3400000000.0 -0.015593584952540743 0.010240113702683289
3420000000.0 0.021301823191138314 -0.027825487157410043
3440000000.0 0.04094142844288004 0.023430966287647778
3460000000.0 -0.0425039449479702 -0.03949040483254982
3480000000.0 0.044458155908003574 -0.04859060442499603
3500000000.0 0.0832437928409638 0.009254145157252267
3520000000.0 0.051828253599296395 0.08488236565025964
3540000000.0 -0.10699279432440957 -0.039775217560280296
3560000000.0 0.029246847558931408 -0.12129756703810739
3580000000.0 -0.1118354717423811 0.07691687746440706
3600000000.0 0.0026745588222564136 -0.14990359137624612
3620000000.0 0.11699849556263169 0.11253441869203334
3640000000.0 -0.031747735757921454 0.17374140440406932
3660000000.0 -0.14330725191381155 -0.11587380785012785
3680000000.0 -0.09444753583718374 -0.1688455642569082
3700000000.0 -0.16460098340087786 -0.10692009902948671
3720000000.0 -0.1218408905590641 -0.1509823432654679
3740000000.0 0.10974377899947622 -0.14981667027148624
3760000000.0 -0.18097095724347884 -0.013040578114412874
3780000000.0 0.16657721887687046 0.05182633626428745
3800000000.0 -0.16377642760498196 -0.030305148445293705
3820000000.0 -0.07019224615299559 0.14030623464709766
3840000000.0 -0.148098506411204 -0.0004543789120078874
3860000000.0 -0.006318260253201883 -0.14782874823421527
3880000000.0 0.10330407473949828 -0.10851777733158642
3900000000.0 0.1385171206145327 0.06820003681822823
3920000000.0 0.07709668768700374 -0.14426449350681345
3940000000.0 0.14610223050300586 0.09018178970808406
3960000000.0 0.15192428243646713 0.09326252050314449
3980000000.0 0.16575939397862574 -0.057209018827221535
4000000000.0 0.15444344552055037 -0.06592323404812801
