!Created with skrf (http://scikit-rf.org).
# Hz S RI R 50.0 
!freq ReS11 ImS11
400000000.0 0.8217175815035188 0.287634150700719
420000000.0 0.6532922965002644 -0.5375760650147238
440000000.0 0.3434660122203967 -0.7102376674018215
460000000.0 0.7318651230725916 -0.0012750111386628186
480000000.0 0.04702038998463295 -0.6803584628597014
500000000.0 -0.12827176501253637 0.5855630419866453
520000000.0 0.33281134138123736 0.38078091424638105
540000000.0 -0.19136685752436336 -0.39765645625364154
560000000.0 -0.20501037144104137 0.34330985969107536
580000000.0 -0.36544644623868294 0.011681343260503898
600000000.0 0.22732852930242772 -0.27546134140499534
620000000.0 -0.3512313881260306 -0.05733948384923402
640000000.0 -0.17576078613101923 -0.3686129859247681
660000000.0 -0.025190570110518524 0.4162733932222151
680000000.0 -0.3949482391839517 0.2101831720928731
700000000.0 0.4480518615508398 0.07947250038598896
720000000.0 -0.4602732318473928 -0.021687733494093853
740000000.0 -0.2242733414125286 0.3697832375520063
760000000.0 -0.22540394894280424 0.33990231774930446
780000000.0 -0.3690107003357495 -0.043756089023747044
800000000.0 -0.3173558072381312 0.09634508061433955
820000000.0 -0.2393024885018955 0.15008426778702258
840000000.0 0.04588936743550651 -0.2101198644069076
860000000.0 -0.1749565610968706 0.039650751030971126
880000000.0 -0.13574136163501577 -0.049157586802167766
900000000.0 -0.07229683869276196 0.0503668495135167
920000000.0 -0.04600090194221327 0.0005953933667472257
940000000.0 -0.026631355537787744 0.023198439111221103
960000000.0 -0.015468252010075163 0.038979203599607125
980000000.0 -0.008566014623198089 0.06952704882895719
1000000000.0 -0.048902286046243845 0.09209192686046219
1020000000.0 -0.04688627118370316 0.11348802461154679
1040000000.0 0.009552963008039761 -0.12986135336996335
1060000000.0 0.001148184473160962 -0.15182968615708414
1080000000.0 -0.16518498801006848 -0.0470293063713433
1100000000.0 0.15539748857236385 0.12909669201338464
1120000000.0 -0.08401239358286983 0.21715098698786528
1140000000.0 -0.21167560851907316 -0.14715536389146883
1160000000.0 -0.2241535194192238 0.1817869144771029
1180000000.0 -0.24196831486130746 0.2059877579127941
1200000000.0 0.018059350368520206 -0.34621261991100216
1220000000.0 0.08048401550214902 0.3633791388944451
1240000000.0 0.12660791318205583 -0.36959045869161444
1260000000.0 -0.37288743885095255 -0.15528995930088385
1280000000.0 -0.2703434818967333 0.32205976827494337
1300000000.0 0.24147800814765844 0.35510622267226805
1320000000.0 0.30663211095089155 0.3097397033661149
1340000000.0 0.40315842927932166 0.19046059415278963
1360000000.0 0.3857641609596965 -0.23356174287708398
1380000000.0 -0.32958643677304067 -0.29210760878052494
1400000000.0 -0.34593966636157075 0.24358968718483398
1420000000.0 0.26230507971816025 0.30216116021400347
1440000000.0 0.36997930639231197 -0.00686610827147281
1460000000.0 0.3281721090294721 -0.09934039428138239
1480000000.0 -0.19506062420593476 -0.25118067179658
1500000000.0 0.009787639200979322 0.2855877915915324
1520000000.0 0.07269891282703216 0.24005553755799053
1540000000.0 -0.08287499704651612 -0.20119924794925154
1560000000.0 -0.0709511116780416 0.17486980602625943
1580000000.0 -0.1659683034411611 -0.019568922986902684
1600000000.0 0.05911550351867447 0.12360996206786261
1620000000.0 0.10451138672812083 -0.013826606345190147
1640000000.0 0.07500633320318187 0.03264162442428956
1660000000.0 0.056944824848887694 -0.03488564005064314
1680000000.0 0.04300520687202164 -0.008696343921245938
1700000000.0 0.002291388628130378 -0.02248534510357525
1720000000.0 -0.0034772142875683473 4.770641016157464e-05
1740000000.0 0.008599969892040763 -0.015160731830380358
1760000000.0 0.0008129964831201848 -0.03471125551090333
1780000000.0 -0.04315489225599508 -0.03589358336633199
1800000000.0 -0.02578028545566256 -0.0909197652995395
1820000000.0 -0.1159972226725138 0.052155925668194617
1840000000.0 0.1598671258580637 0.04661266910970597
1860000000.0 0.0013558433755321258 0.20192729300173154
1880000000.0 0.22421141780601897 -0.08648607006828517
1900000000.0 -0.2786610989311271 0.057408067806501074
1920000000.0 0.25384185221560646 -0.19797111851697502
1940000000.0 -0.34490498407059234 0.03407219528399377
1960000000.0 0.003599889627100121 0.3715955868330817
1980000000.0 0.39563375420370495 -0.06990622219040664
2000000000.0 -0.3507192691197567 -0.23109856430609205
2020000000.0 -0.29513393215877154 0.31139769695437386
2040000000.0 0.17640477575286995 0.39880033947765553
2060000000.0 0.43691275368665966 0.009672980825191555
2080000000.0 0.18952145964301087 -0.38791204773672927
2100000000.0 -0.169645653734887 -0.3902379575487183
2120000000.0 -0.3479818004183764 -0.22218643526170245
2140000000.0 -0.36525813417861774 -0.15540190237640994
2160000000.0 0.336042592441398 -0.19048183817288356
2180000000.0 0.1263782462949682 -0.3552658376863172
2200000000.0 -0.24945548032737092 -0.26813481951021223
2220000000.0 -0.34471446797341826 0.09133699497602038
2240000000.0 -0.22845319916092213 0.2674800819915222
2260000000.0 0.15176221484978658 0.31678728235543496
2280000000.0 0.34544325234067796 0.062446738948945486
2300000000.0 0.3251592080573545 -0.15268729211873147
2320000000.0 0.11543385336845577 -0.3677875331296702
2340000000.0 -0.3927615190424164 -0.14375899527812386
2360000000.0 -0.00020277246238906325 0.46011668363621017
2380000000.0 0.02040145924672153 -0.5132098912353672
2400000000.0 0.3605201312501392 0.43781307907225814
2420000000.0 -0.6171023346421839 -0.016639509758333733
2440000000.0 0.45351912425205193 -0.48284031497959534
2460000000.0 -0.00975180397565555 0.700296143454354
2480000000.0 -0.44072628001968384 -0.5817572207570937
2500000000.0 0.4272716063793052 0.6155264475098048
2520000000.0 -0.35635670106806305 -0.6707041321646522
2540000000.0 0.09960846450294876 0.7545456444835417
2560000000.0 0.41815431043281037 -0.6282298976774889
2580000000.0 -0.7399699575530334 0.02476271842734019
2600000000.0 0.4704939665904445 0.5406770850578188
2620000000.0 0.1622343869654537 -0.6687887723062024
2640000000.0 -0.3061793178910152 -0.5759229535776588
2660000000.0 -0.17008467250492484 0.5858858904064567
2680000000.0 0.4848994533348963 -0.28777583594330647
2700000000.0 -0.4849439255429036 -0.1778942039126434
2720000000.0 0.3495231554422223 0.31437507325528796
2740000000.0 -0.13420151987830167 -0.3994205242729925
2760000000.0 -0.214207289099688 0.3160535587840717
2780000000.0 0.23548100043457854 -0.2568897463117727
2800000000.0 -0.20636550790553226 0.24776596344182103
2820000000.0 0.18267581436164673 -0.2423572664589621
2840000000.0 0.05913252973978939 0.28917642848512115
2860000000.0 -0.2799858778460011 -0.07098907748548418
2880000000.0 0.2039848173767709 -0.20092567428685218
2900000000.0 -0.2619575307459103 0.11427860806370478
2920000000.0 0.2160660557708213 0.1958556412907392
2940000000.0 0.05187452022671561 -0.298186098805644
2960000000.0 -0.30898101533504535 0.021541536506184275
2980000000.0 -0.09497594849548277 0.29705691488753655
3000000000.0 -0.2556063452722434 0.17901341152868674
3020000000.0 -0.2655359212816004 -0.17000968033889238
3040000000.0 -0.03893382727853447 -0.3104440330130933
3060000000.0 0.30136073813698083 0.050904678344608836
3080000000.0 -0.27301095894074034 -0.10965293059370489
3100000000.0 0.10995488890118033 0.265585479269098
3120000000.0 0.0094848984013509 -0.28352323756673997
3140000000.0 0.13966219506953967 0.23879520186624148
3160000000.0 -0.22882110820990906 -0.13599235523995654
3180000000.0 0.11242218967251158 0.22705979783145824
3200000000.0 -0.05094666036777173 0.2268581352347372
3220000000.0 -0.10953546884642423 0.1716998098143702
3240000000.0 -0.15928416825414465 -0.05975667624820928
3260000000.0 0.08775136232607098 -0.10026846282948831
3280000000.0 0.07919139648149724 -0.057661689579618675
3300000000.0 0.06634050350080957 -0.032346179729556536
3320000000.0 -0.0340737394625138 0.035143508140950006
3340000000.0 0.03162414458824741 0.0010624536439084818
3360000000.0 0.00841688661488689 -0.010853533781970279
3380000000.0 0.0010587154952605637 0.002578218747745841
3400000000.0 -0.01661151243156624 -0.006939093891436478
3420000000.0 0.02128932455258616 -0.0271231026943409
3440000000.0 0.04655951273448364 -0.005042497213228576
3460000000.0 0.0005809277990135587 -0.057332533412923214
3480000000.0 0.04176835286831683 -0.051191393811903206
3500000000.0 0.08002939454053265 0.024910747076279553
3520000000.0 0.011634645336903487 0.09908182096586797
3540000000.0 -0.09367196579027288 -0.0654402222271559
3560000000.0 0.06412140279127856 -0.10677497970094413
3580000000.0 -0.11929845935207493 0.06558738096064863
3600000000.0 0.01868489302669107 -0.14958003717060775
3620000000.0 0.08415114533435938 0.13889723779366428
3640000000.0 -0.05831714224948179 0.16631531195321783
3660000000.0 -0.12367637580577072 -0.13697993853025645
3680000000.0 -0.04688009808294369 -0.1878102703787748
3700000000.0 -0.13877840546704912 -0.13801406593338905
3720000000.0 -0.09006058628126586 -0.1717352292356305
3740000000.0 0.10456137327457815 -0.15275377098486337
3760000000.0 -0.17972140967558287 -0.01925168458340914
3780000000.0 0.16579676249282058 0.05347339457357575
3800000000.0 -0.1564684567028553 -0.0552310281811538
3820000000.0 -0.08784779875007069 0.12941073638913042
3840000000.0 -0.14355551461595664 -0.034069775478763116
3860000000.0 -0.009529552900367935 -0.14647279874119548
3880000000.0 0.1055735675409227 -0.10460576277823486
3900000000.0 0.14408125874679917 0.05040877764058738
3920000000.0 0.016940040271415237 -0.1621530919563288
3940000000.0 0.15810003072356046 0.06485846003935766
3960000000.0 0.17449194251776418 0.032468968769846535
3980000000.0 0.12424859623747439 -0.12288907406145017
4000000000.0 0.09498099040558648 -0.1372304466567428
