!Created with skrf (http://scikit-rf.org).
# Hz S RI R 50.0 
!freq ReS11 ImS11
400000000.0 0.5382969708012529 0.6812846455724233
420000000.0 0.8454497559756546 -0.0514093781862549
440000000.0 0.5793251217925133 -0.5532057313413875
460000000.0 0.618957781042384 -0.39933747730488034
480000000.0 -0.12549109902889638 -0.6588541159904804
500000000.0 -0.3528013601082633 0.47655654746781206
520000000.0 -0.3692460874840277 0.34417703061805405
540000000.0 0.2485739665805556 -0.36613728303880655
560000000.0 -0.28988867527440404 0.2818180797680434
580000000.0 -0.15326891360120334 -0.3357022941265177
600000000.0 0.35351616997693946 0.07271122688791279
620000000.0 -0.28725952667193655 -0.22029553017884532
640000000.0 0.3298922735163821 -0.2506412043279903
660000000.0 0.4061964367238384 0.10564738580212724
680000000.0 -0.42840488195973314 0.12501966923700378
700000000.0 0.4545614685462263 -0.024530647134312984
720000000.0 -0.2753024935931339 0.36208342697344903
740000000.0 -0.23008301072056944 0.3496584330876954
760000000.0 -0.1156482746588821 -0.37990883693841676
780000000.0 0.10712458311341758 -0.35859666237200905
800000000.0 0.24916863930285513 -0.23847673389030707
820000000.0 -0.20713240775743222 0.21140551272404803
840000000.0 -0.12050733985612573 0.18660654483968372
860000000.0 -0.0325130748679701 0.17367385619927755
880000000.0 0.005486734595118916 -0.14083349968424527
900000000.0 -0.06745036779627396 0.05425317725311
920000000.0 0.04751408938265625 0.0029068057622498714
940000000.0 -0.01633840460785594 -0.0232672528028085
960000000.0 -0.03183092574976287 0.0051917801161990304
980000000.0 0.039929084786588985 -0.03617783996286128
1000000000.0 -0.0786923372163247 0.04681414662339092
1020000000.0 -0.08963485981719525 0.07846022851177506
1040000000.0 0.03875690774442153 -0.12763362683334942
1060000000.0 -0.1433452120866794 0.07699160896721625
1080000000.0 -0.1777859993556937 -0.06964732628100775
1100000000.0 -0.13394942716779154 -0.16850653764805767
1120000000.0 -0.03896519857362935 -0.2292864931453949
1140000000.0 0.2208924557749879 0.11944642116790259
1160000000.0 -0.22440490718557812 0.14986156100807319
1180000000.0 0.09879500752483603 -0.2835240647120817
1200000000.0 -0.10312305929379367 0.32668683286680533
1220000000.0 -0.003401765860813932 -0.37903789255304793
1240000000.0 0.403747167424898 0.033132194558865284
1260000000.0 -0.3748278666015838 0.17858062579201964
1280000000.0 -0.033406081411787414 0.42305741505498334
1300000000.0 0.4149065110686124 -0.09663803700426019
1320000000.0 0.42426000932283775 0.021441640797410268
1340000000.0 -0.024282949389999548 0.4331920478799708
1360000000.0 0.2677996236102039 0.35476211627261894
1380000000.0 0.15339905468112647 -0.41198283524395435
1400000000.0 -0.2275828375923934 -0.3638366034009257
1420000000.0 0.05819607673258676 0.4047662719187212
1440000000.0 0.2589669794639716 -0.27728476558546356
1460000000.0 0.040106649347413266 -0.34330903185736505
1480000000.0 -0.3112991098064489 -0.034551543301051015
1500000000.0 -0.04027762857571135 0.27671571991870103
1520000000.0 -0.21656343228801217 0.12380687351448248
1540000000.0 0.019634119801288548 0.22131267689768572
1560000000.0 -0.1819376106596613 0.06805668308997619
1580000000.0 -0.1718938797792495 -0.025681651176665724
1600000000.0 -0.025098732748540967 0.13719089639801843
1620000000.0 0.044434809013771594 -0.0925124860581321
1640000000.0 -0.07869051494232344 0.006952115214909258
1660000000.0 0.05809756098004968 0.031692517126161425
1680000000.0 -0.044238062378487236 -0.00037153749841533024
1700000000.0 0.021478394426687187 0.0044577195771243455
1720000000.0 -0.006093864672752338 -0.000624790866878651
1740000000.0 -0.0034204836330903113 0.011761508803407874
1760000000.0 0.02205704224902035 0.01726441343732865
1780000000.0 0.05113124020719698 0.015322761676522889
1800000000.0 0.09099138391200841 0.03448513860384399
1820000000.0 -0.10466340482750251 -0.07403009016741327
1840000000.0 0.12910027430257517 0.09893057819818397
1860000000.0 0.13348252355842752 0.14938603462756656
1880000000.0 0.23349626415875038 -0.01831268656936572
1900000000.0 0.1003886619880874 -0.2565992292838789
1920000000.0 0.3152898181450726 0.050286226482907294
1940000000.0 -0.08677221827210445 -0.3342928645669934
1960000000.0 -0.373853186953001 -0.006175964543165216
1980000000.0 0.3809614710586307 -0.13293523767304347
2000000000.0 -0.27607016516235106 -0.3154313887293986
2020000000.0 -0.4051317845740318 -0.12758235226892395
2040000000.0 0.03348614938264286 0.4282112714026866
2060000000.0 0.08160464628919414 0.4247397892132421
2080000000.0 0.2469915302289016 0.3547132441224401
2100000000.0 0.047263868221681084 -0.4250881285460843
2120000000.0 -0.148469517284423 -0.3881047546780427
2140000000.0 -0.01703246692092597 -0.3976274689649281
2160000000.0 0.2701610996323213 -0.2721794318636794
2180000000.0 0.30029479371124035 -0.21889154913359216
2200000000.0 0.2660581830501916 -0.24381039843713626
2220000000.0 -0.3148491774618491 -0.15483673876998252
2240000000.0 -0.28775574511127944 -0.19356348858443062
2260000000.0 -0.3452311831119896 -0.00806590582190084
2280000000.0 0.24364242552753787 0.24676768434414525
2300000000.0 0.247895355835818 0.25333682469680074
2320000000.0 0.24065839689883947 0.29013712176919465
2340000000.0 -0.11479696796215026 -0.39434243902984156
2360000000.0 -0.4398834590339087 -0.09254552923075192
2380000000.0 0.1312021192740375 0.4812453603440347
2400000000.0 -0.4876239132988525 0.27188401517198635
2420000000.0 0.5246331442697282 -0.3105529565428026
2440000000.0 -0.5042848573131118 0.41959223157278297
2460000000.0 -0.6851031815811994 -0.14248642427361724
2480000000.0 0.7016674408465936 0.2040506808763709
2500000000.0 -0.510355897515176 -0.5524267730103454
2520000000.0 0.6504148643268068 -0.403429948991998
2540000000.0 -0.6647398785929054 -0.3880960824757147
2560000000.0 -0.2435454136146652 0.7266960010182
2580000000.0 -0.1565984668003393 -0.7358832900124821
2600000000.0 -0.697027053885784 0.22087139141844706
2620000000.0 0.21901282447133202 0.670459947649333
2640000000.0 0.37948232098599904 -0.5488849737612381
2660000000.0 -0.5538824331881704 -0.2953103923711084
2680000000.0 -0.13153426544432198 0.566765947010239
2700000000.0 -0.32614956400316186 -0.4185636509020079
2720000000.0 -0.08746131684775627 0.4759145877243323
2740000000.0 0.411414574073975 -0.14016006121863323
2760000000.0 -0.2960910855799794 0.25575593358296606
2780000000.0 0.3582462144999461 0.03796164251656408
2800000000.0 -0.26764554988763345 -0.20277622095077683
2820000000.0 0.11143570977114568 -0.29455343654152755
2840000000.0 0.04803334865970018 0.30252025378119235
2860000000.0 -0.23065261070851772 -0.18614674946336615
2880000000.0 0.12483449328163655 -0.26272828786332514
2900000000.0 -0.24661372644700322 -0.15184084838799283
2920000000.0 -0.2675317502383353 0.1304534596017705
2940000000.0 0.17983110362853588 -0.252250750051754
2960000000.0 -0.17502578588739728 -0.2645693653644155
2980000000.0 -0.2852667584752859 -0.14065022471363084
3000000000.0 -0.2972076891848846 0.10753322032242184
3020000000.0 0.3144304028103755 0.047062231914573274
3040000000.0 0.3177287314333593 0.016283391823638117
3060000000.0 0.23611408038066378 0.20173013933566408
3080000000.0 0.2302013791963287 -0.19157066562949
3100000000.0 -0.14830692535515175 0.2515625828215234
3120000000.0 -0.04024635240472449 -0.28321145288055605
3140000000.0 -0.2677393320821765 0.0749050474678597
3160000000.0 0.017652215787009276 -0.2661866832857217
3180000000.0 -0.04793451746881547 0.2465540204097156
3200000000.0 0.03848210370514252 -0.2325789406980621
3220000000.0 -0.0822337464344594 -0.1917285379661385
3240000000.0 -0.10267519250506989 -0.14242198138107345
3260000000.0 0.1436926514977117 0.01700614383621953
3280000000.0 -0.10275137416266664 0.014408656524904997
3300000000.0 0.03090088054589763 0.06630102371051605
3320000000.0 0.014225754148913363 0.044774929379580136
3340000000.0 0.02522020056379448 0.0042568310803501085
3360000000.0 -0.0034358621380500653 0.009152926489413292
3380000000.0 0.001157976206087308 0.0020049768490813555
3400000000.0 -0.0011346854949078524 -0.013780051717136234
3420000000.0 0.007768187072512802 0.030897295484915904
3440000000.0 0.03362353215076898 -0.03185023021020419
3460000000.0 0.021061575023203223 -0.05824530095063511
3480000000.0 0.05454694147668867 0.05222965729713278
3500000000.0 0.0367483552368551 -0.0785793063624095
3520000000.0 0.08253037759015781 -0.05631752043882121
3540000000.0 -0.09076822611509998 0.0653864754343639
3560000000.0 0.09876717882920814 0.06402678013034842
3580000000.0 0.12293157714462051 -0.05054190456550995
3600000000.0 0.11304744610586605 0.10633825780335354
3620000000.0 -0.16154402249341082 -0.039518216863347035
3640000000.0 -0.1146903497145175 0.1413908178596529
3660000000.0 -0.08136787415813579 0.1703952590307389
3680000000.0 -0.13522468799731047 -0.13348070263208145
3700000000.0 -0.11963031575643762 -0.1490583661915333
3720000000.0 0.05507286658803039 -0.183059253984683
3740000000.0 0.1429975248756403 0.11768551239650879
3760000000.0 -0.02652234437167507 -0.1807345224365715
3780000000.0 0.1739034774170125 0.03771462800644891
3800000000.0 -0.1691101675583877 -0.01112570700696522
3820000000.0 -0.005749407345552596 0.15680401748044034
3840000000.0 -0.14594092178219153 -0.006203893513001985
3860000000.0 0.0560291848864102 -0.13193878732281297
3880000000.0 0.11625022621237242 0.09105022292342771
3900000000.0 0.0030163180028489065 0.15444333112349518
3920000000.0 0.15690336805589514 0.031478101670154114
3940000000.0 -0.002953127539497175 0.1719241501953548
3960000000.0 0.08330595844604927 0.15692061423046255
3980000000.0 0.09314731781120533 0.14799579726088422
4000000000.0 0.15572465641565345 0.057314918499406536
