!Created with skrf (http://scikit-rf.org).
# Hz S RI R 50.0 
!freq ReS11 ImS11
400000000.0 0.7892442639104328 0.36342493701994616
420000000.0 0.656991807378864 -0.5323081887161932
440000000.0 0.32014832950149874 -0.7205908657264984
460000000.0 0.7313360057018038 0.013553239161779793
480000000.0 0.0832427863117526 -0.6765959288936209
500000000.0 -0.09724967047535511 0.5910535049897047
520000000.0 0.35005885737580195 0.36484448595726
540000000.0 -0.21096991209781776 -0.38766387931014795
560000000.0 -0.19622874696710105 0.348940827777534
580000000.0 -0.3652864222171357 -0.023351705295150006
600000000.0 0.25205865384973797 -0.2526878327412496
620000000.0 -0.34024199557878226 -0.10470626740922385
640000000.0 -0.13421316831514707 -0.3857465279873981
660000000.0 -0.018065530031416577 0.41605179434354284
680000000.0 -0.39910284832332293 0.20046601421125457
700000000.0 0.4485930984911147 0.07367000601643557
720000000.0 -0.4606624488835292 -0.01117263440182475
740000000.0 -0.2229904950886797 0.3707881632619163
760000000.0 -0.21360092740319922 0.34733254793295903
780000000.0 -0.3709626197095545 -0.024632261951342358
800000000.0 -0.31323144648613827 0.10932523529612988
820000000.0 -0.23062753539955924 0.16383243628961278
840000000.0 0.05435534031368748 -0.20863834700736913
860000000.0 -0.1785879690226904 0.019229205158022667
880000000.0 -0.1153345673767777 -0.08649392515175637
900000000.0 -0.08549869522635936 0.01923742594638681
920000000.0 -0.043755875357936375 0.01253453402336195
940000000.0 -0.03116082157637771 0.016055721821779216
960000000.0 -0.024212001939803694 0.03413886507303615
980000000.0 -0.0171672194618282 0.06801113360161312
1000000000.0 -0.050201690845967595 0.09126390380990763
1020000000.0 -0.059743376664219104 0.10759324014764675
1040000000.0 0.028894712715239104 -0.12681144807482947
1060000000.0 0.02002594978481969 -0.15029770222549593
1080000000.0 -0.15534627689454872 -0.0726391016102599
1100000000.0 0.14939287998974654 0.13574332472522566
1120000000.0 -0.04943419803705348 0.22738179955506183
1140000000.0 -0.18513932574140618 -0.17892431018363045
1160000000.0 -0.21773643626171615 0.1890218155428407
1180000000.0 -0.22507411504951977 0.22403068379186614
1200000000.0 0.013707005004357191 -0.3459735993301753
1220000000.0 0.051500828817901356 0.368540292118096
1240000000.0 0.12990731439881023 -0.36873428814783915
1260000000.0 -0.36784142034020934 -0.16761301560865685
1280000000.0 -0.281677279860665 0.3122845535072475
1300000000.0 0.23276248097551042 0.3610455253693725
1320000000.0 0.3125428511880994 0.3039193916392253
1340000000.0 0.40298356435868976 0.1907842880989577
1360000000.0 0.38197508749464454 -0.23950008793341707
1380000000.0 -0.3316392852479629 -0.2896703906340329
1400000000.0 -0.3507066067350414 0.23684713428414475
1420000000.0 0.26805010734327483 0.2966477680259413
1440000000.0 0.3700868657137717 0.003482675593491988
1460000000.0 0.3263172295013658 -0.10465115044564349
1480000000.0 -0.24179775657074015 -0.20602012365323938
1500000000.0 0.02953871482179797 0.28377822393089236
1520000000.0 0.09713366812621414 0.23083871626007593
1540000000.0 -0.08152731542963552 -0.20153823285916916
1560000000.0 -0.05089474618072896 0.18169286062423962
1580000000.0 -0.16738254904439764 -0.004154690864752286
1600000000.0 0.03539650820723976 0.1324062142273529
1620000000.0 0.10023984292407756 -0.03301028755585178
1640000000.0 0.07748234562906747 0.02573382011082745
1660000000.0 0.045896340532119745 -0.048566195003397594
1680000000.0 0.04377448720775596 -0.000305675405636181
1700000000.0 -0.010444752095886451 -0.020270682681143834
1720000000.0 -0.0002433422406017251 0.0031762117859972004
1740000000.0 0.011881361426561425 -0.012347353365248307
1760000000.0 -0.010882458607734688 -0.033044419680086756
1780000000.0 -0.045165013075339384 -0.0330212169170885
1800000000.0 -0.022975472837846483 -0.09165716275718053
1820000000.0 -0.11106489339368576 0.06129240091847635
1840000000.0 0.16631475689714156 0.012373388805016605
1860000000.0 0.023727461159510996 0.20102306633802736
1880000000.0 0.21437957097904808 -0.1098911277095122
1900000000.0 -0.2782080731792184 0.06139301476162695
1920000000.0 0.2582479919550837 -0.19224630026447642
1940000000.0 -0.3455462056802671 0.03033353903042524
1960000000.0 -0.004797954854172763 0.37164581820168774
1980000000.0 0.39789199141358134 -0.055276668487675616
2000000000.0 -0.3426004149483469 -0.24268953844406785
2020000000.0 -0.33143746924388523 0.27200301718611064
2040000000.0 0.1624852185630124 0.4041476184331545
2060000000.0 0.4362541930770351 0.004646972202086167
2080000000.0 0.16246990775021322 -0.3990253496546776
2100000000.0 -0.1681612902895757 -0.38944779770940974
2120000000.0 -0.3667890838111353 -0.18844724735684826
2140000000.0 -0.3780057296910367 -0.11795004246376617
2160000000.0 0.3241698292842393 -0.20790071800182885
2180000000.0 0.07274362218374765 -0.36922911682103154
2200000000.0 -0.2829335241917202 -0.23196986265002878
2220000000.0 -0.3361635444231951 0.11828566213428683
2240000000.0 -0.1934696852146757 0.2933783042137982
2260000000.0 0.18796851738319487 0.296277880488321
2280000000.0 0.35064605808478283 0.013719372557023593
2300000000.0 0.30803763226377967 -0.1854778362012419
2320000000.0 0.08779150190157776 -0.37486278839105275
2340000000.0 -0.39796920755589754 -0.128285945637024
2360000000.0 0.0038589215589857383 0.4599980296263674
2380000000.0 0.0013517748952710127 -0.5133199088184099
2400000000.0 0.35955204034234606 0.43819879180915156
2420000000.0 -0.6170665025944466 -0.009505878175832401
2440000000.0 0.4317244918953292 -0.5017034768205607
2460000000.0 0.01990589795847138 0.6999782462551608
2480000000.0 -0.43533052042476583 -0.5859678779013032
2500000000.0 0.5024336468340613 0.5550673942724474
2520000000.0 -0.4005986370520509 -0.6449984846777645
2540000000.0 0.14602307879492013 0.7470388312903302
2560000000.0 0.38175253711814683 -0.651764445821951
2580000000.0 -0.740737326106918 0.013001502991185094
2600000000.0 0.44085715194331443 0.5653733965282844
2620000000.0 0.11002021598545203 -0.678943703213556
2640000000.0 -0.2796359923040459 -0.5886041371482726
2660000000.0 -0.2523515165298847 0.5550134010998521
2680000000.0 0.4937798263487274 -0.26983665497290554
2700000000.0 -0.46709935315844386 -0.21858341718877916
2720000000.0 0.32943779800911843 0.33370674762475655
2740000000.0 -0.1525366694893696 -0.3918971378281936
2760000000.0 -0.2125343674502095 0.31589951833321395
2780000000.0 0.2270570439218226 -0.26319514471598315
2800000000.0 -0.18847669807341003 0.26085711834439784
2820000000.0 0.1872646739089386 -0.23824501648033014
2840000000.0 0.05346619993573566 0.28973269079797825
2860000000.0 -0.281561577453971 -0.06020180410026346
2880000000.0 0.219563283104879 -0.18296234097945596
2900000000.0 -0.2603102755462169 0.11662518619751222
2920000000.0 0.20696139629619872 0.2052600561435415
2940000000.0 0.0455470150515348 -0.2990587414790501
2960000000.0 -0.3001958363655996 0.07648221163772165
2980000000.0 -0.09098661402842471 0.29842093133851927
3000000000.0 -0.24301361600834576 0.19461630978374017
3020000000.0 -0.2972531628584097 -0.10523679623803382
3040000000.0 -0.11326224323051154 -0.2916753267292077
3060000000.0 0.3022976877557393 0.0434374013738719
3080000000.0 -0.27968109988539014 -0.09258029294011692
3100000000.0 0.09372620473172631 0.2719180496844533
3120000000.0 0.018022391266594818 -0.28315460454431945
3140000000.0 0.15390185422404531 0.2300133790522306
3160000000.0 -0.2270295879250894 -0.13738658171872034
3180000000.0 0.105681989062648 0.22953572694851715
3200000000.0 -0.058051423323061305 0.2251866994717875
3220000000.0 -0.13239361588461732 0.15500175129659013
3240000000.0 -0.1580590836934887 -0.06398615732701894
3260000000.0 0.10030146884905475 -0.08756808001192744
3280000000.0 0.0745606214371839 -0.06371504014537388
3300000000.0 0.07371397601072832 0.003490862204946193
3320000000.0 -0.039659043576876093 0.028283679514403044
3340000000.0 0.028793886160793918 0.01341018741885026
3360000000.0 0.004530787568928715 -0.012919436479587897
3380000000.0 -0.00017392982715752116 -0.002478327563441153
3400000000.0 -0.01649522232763722 0.006599531809224773
3420000000.0 0.00443792655934019 -0.03424894866300308
3440000000.0 0.046373739306433376 0.006580865542814868
3460000000.0 -0.01849626394345396 -0.05370661142579139
3480000000.0 0.027042891787544567 -0.059160389732092165
3500000000.0 0.08228015101768149 -0.011275462448247231
3520000000.0 0.04104576018433871 0.08971252247345028
3540000000.0 -0.10888194088544557 -0.03171753841908623
3560000000.0 -0.019565922239725687 -0.12237024529539406
3580000000.0 -0.09165413811296254 0.09889602508431755
3600000000.0 -0.05151256261933415 -0.14058197981850587
3620000000.0 0.12529020726808293 0.10199506180936724
3640000000.0 -0.027961740179798775 0.17325368369268515
3660000000.0 -0.1511574613365887 -0.10535159265779875
3680000000.0 -0.10165348294051366 -0.1646046296110023
3700000000.0 -0.1800022300337469 -0.07882071386832878
3720000000.0 -0.14719538907039917 -0.1275742235120835
3740000000.0 0.04379068138423129 -0.18100495314359383
3760000000.0 -0.1729923127745143 0.055307179027705024
3780000000.0 0.17541372000124567 -0.006164625692922181
3800000000.0 -0.16732294597481245 -0.002728183148233162
3820000000.0 -0.07151480899899008 0.14103323938580478
3840000000.0 -0.14091085704301187 0.04821183705424074
3860000000.0 -0.033062192313258694 -0.14547434168484674
3880000000.0 0.06702083468074828 -0.13532027122798446
3900000000.0 0.14923079705281028 0.043620267810192154
3920000000.0 0.044769689705777375 -0.15924410095141467
3940000000.0 0.14971806499277598 0.08724065639827423
3960000000.0 0.1699147025775429 0.05760094515713613
3980000000.0 0.14114348412075162 -0.10536089163158262
4000000000.0 0.11156241973408292 -0.12575621996274153
