!Created with skrf (http://scikit-rf.org).
# Hz S RI R 50.0 
!freq ReS11 ImS11
400000000.0 0.5445284247734857 0.6768614831805945
420000000.0 0.8436676031709286 -0.07383427110041525
440000000.0 0.5808376086488815 -0.5519957421342838
460000000.0 0.6135397492749947 -0.40852559798682003
480000000.0 -0.11351935545311036 -0.6612728843706775
500000000.0 -0.3564384276731366 0.47389460477552114
520000000.0 -0.37012897566555275 0.34331263702199455
540000000.0 0.2604432761881862 -0.35764337785757316
560000000.0 -0.2802823507673769 0.2912266741382527
580000000.0 -0.14083086942304499 -0.3409913828273172
600000000.0 0.35584701691865545 0.06124964104965537
620000000.0 -0.2934513276938895 -0.21245194243508064
640000000.0 0.3254829662999158 -0.25738771498501617
660000000.0 0.4010660124026486 0.12542280429866
680000000.0 -0.427331095722678 0.12880852336582516
700000000.0 0.45538762716148024 -0.013700847592546384
720000000.0 -0.27064014806257064 0.365719923073367
740000000.0 -0.22960268353015584 0.3500613501671308
760000000.0 -0.1087950681526976 -0.38166857798844966
780000000.0 0.1052752591321872 -0.3588740985703875
800000000.0 0.24973040132631955 -0.23752563536149893
820000000.0 -0.200760255844848 0.21739221573453973
840000000.0 -0.11903673424068549 0.1875749710721202
860000000.0 -0.033527203243937875 0.17337376186505674
880000000.0 0.01351357531769709 -0.14025138196349157
900000000.0 -0.060532885428741225 0.061778258454403503
920000000.0 0.0463252405563354 -0.011169215273335146
940000000.0 -0.026878229456861 -0.008539490354611084
960000000.0 -0.03147136154191422 0.006180010743096767
980000000.0 0.04320523362425217 -0.0321199388673332
1000000000.0 -0.07724868558640098 0.04917978731539796
1020000000.0 -0.08709242457158921 0.08119721703966064
1040000000.0 0.04262569713810773 -0.1263527670232823
1060000000.0 -0.1546328192329867 0.05062483160379329
1080000000.0 -0.17444964960001239 -0.07659070751726474
1100000000.0 -0.13461251977513644 -0.1676315130926579
1120000000.0 -0.045601610201533783 -0.22785306768432598
1140000000.0 0.21722460413627054 0.12528584838057577
1160000000.0 -0.2214043463116742 0.15392188355421368
1180000000.0 0.0879220999968515 -0.2870394072206052
1200000000.0 -0.12417145960479882 0.3188295010304721
1220000000.0 -0.016972418414052195 -0.3785180764170805
1240000000.0 0.4048260365978038 0.002100771935152141
1260000000.0 -0.36847158496959226 0.19230392956266623
1280000000.0 -0.01186674564065773 0.42468664648462773
1300000000.0 0.4173118425402522 -0.08829316467134495
1320000000.0 0.424354073595929 0.02650569588998367
1340000000.0 -0.03264244191017453 0.43282892425090125
1360000000.0 0.2654961890712177 0.35666393816328407
1380000000.0 0.16946126471903172 -0.4056200637699386
1400000000.0 -0.2222657178090625 -0.36704784221082093
1420000000.0 0.03521835936345641 0.40730654424296925
1440000000.0 0.27203932241178685 -0.26397502506430676
1460000000.0 0.04992680155968273 -0.3416608853734108
1480000000.0 -0.3118284591482554 -0.018588708245541246
1500000000.0 -0.021757020346506326 0.2781373868288903
1520000000.0 -0.19540546684224236 0.15425943190450206
1540000000.0 0.047563475240382805 0.21694460708819002
1560000000.0 -0.16225193999762194 0.10709516408625205
1580000000.0 -0.17370557829277145 0.007609774552668264
1600000000.0 -0.005295284191925176 0.13975817603275775
1620000000.0 0.05293194241892596 -0.08790182501672712
1640000000.0 -0.07853480843046377 -0.013764481467596321
1660000000.0 0.06081601092942831 0.02791666122155034
1680000000.0 -0.040784602056587904 -0.01748280417175252
1700000000.0 -0.0030920832488400434 0.021665663531214758
1720000000.0 -0.006168967893762031 0.0007284302773683703
1740000000.0 -0.0005758601733970248 -0.012293171615384756
1760000000.0 -0.006437785024204394 0.02786947734962004
1780000000.0 0.052597532808707236 0.010193889046272171
1800000000.0 0.08149599640775185 0.05330913914302454
1820000000.0 -0.07843847792495397 -0.10081875574988278
1840000000.0 0.11454515139860182 0.11557045194506578
1860000000.0 0.11630663200061109 0.16289704106383657
1880000000.0 0.23398155192511386 0.0008840585429698209
1900000000.0 0.11380289240195542 -0.25044241443121557
1920000000.0 0.3105711005091288 0.07179234176197465
1940000000.0 -0.09539674640900266 -0.3315750547871707
1960000000.0 -0.3736144321865676 0.0019462576019123855
1980000000.0 0.3765316193083477 -0.14453146157224608
2000000000.0 -0.28034870161661135 -0.31168645257539423
2020000000.0 -0.40728876797330527 -0.11948297601384929
2040000000.0 0.020507977371865025 0.4291547066169245
2060000000.0 0.06549486587803471 0.4273773579243491
2080000000.0 0.232664854940952 0.36404287096115817
2100000000.0 0.055496981770961365 -0.42432217878196926
2120000000.0 -0.11211653533217357 -0.4001238108256457
2140000000.0 -0.011238774730772899 -0.3976122553817783
2160000000.0 0.2700971970642591 -0.2721717020506798
2180000000.0 0.3042942867929061 -0.21409870108188025
2200000000.0 0.26733700871320515 -0.2423997466070121
2220000000.0 -0.31571290150810116 -0.155053645706522
2240000000.0 -0.2704747681186893 -0.21810629742324628
2260000000.0 -0.34638306705526073 0.002141586498904247
2280000000.0 0.22210624982181626 0.2666756718803966
2300000000.0 0.23360442404214604 0.26657133212026274
2320000000.0 0.22839193217827353 0.29961869061089347
2340000000.0 -0.07604673080986203 -0.4033461754077704
2360000000.0 -0.43605863874764694 -0.10842258223302392
2380000000.0 0.1435929882652429 0.4778657563796842
2400000000.0 -0.4930050141364116 0.26170701648376354
2420000000.0 0.5280487995568665 -0.30483221578619607
2440000000.0 -0.5122685347213656 0.4099378485250153
2460000000.0 -0.6838001676539376 -0.14898822077306073
2480000000.0 0.6944025476893133 0.2303501371215786
2500000000.0 -0.4871649968597191 -0.5738339902931757
2520000000.0 0.6847673930398411 -0.3431692961678717
2540000000.0 -0.6253353987157978 -0.44878560376332216
2560000000.0 -0.25510403309452956 0.7221469895043888
2580000000.0 -0.10955775657019541 -0.7445947076458822
2600000000.0 -0.7079205870327075 0.1823996535822471
2620000000.0 0.1673738206691917 0.6848324418460954
2640000000.0 0.4189789325861989 -0.5189058223234753
2660000000.0 -0.5403464496504912 -0.3180849834780627
2680000000.0 -0.1721247654851929 0.5558175964055954
2700000000.0 -0.32926178864770694 -0.41669143177154827
2720000000.0 -0.078892922435726 0.4773292290065007
2740000000.0 0.4042381996748082 -0.16028635083461817
2760000000.0 -0.30019656794225924 0.2514765600549621
2780000000.0 0.3586203715918992 0.03558639638529911
2800000000.0 -0.26671881859686136 -0.20462813402586683
2820000000.0 0.12432080209950767 -0.2899364609393104
2840000000.0 0.03965535904962183 0.30368345094781773
2860000000.0 -0.19982884207468782 -0.21963127153568746
2880000000.0 0.14223559384112866 -0.25393646289394606
2900000000.0 -0.2239555965784147 -0.18422919941223959
2920000000.0 -0.2775039995149374 0.10661402194241418
2940000000.0 0.20180481486270538 -0.23424065786571766
2960000000.0 -0.19162214739965772 -0.25202853820853277
2980000000.0 -0.30824872255322844 -0.07716289034997122
3000000000.0 -0.27836310176183726 0.14999255599468528
3020000000.0 0.3176191889940733 0.012103279376511906
3040000000.0 0.3160590795326497 -0.03127988782966837
3060000000.0 0.2678541550952618 0.15675570725766622
3080000000.0 0.16750721901987264 -0.24970922616187158
3100000000.0 -0.18174912449715255 0.22825158433090414
3120000000.0 -0.11634863837225552 -0.26235058938392974
3140000000.0 -0.24511983390211708 0.132930653357055
3160000000.0 -0.027664038553918087 -0.26635146343210314
3180000000.0 -0.03255639255772205 0.2502364226063577
3200000000.0 0.0650000646727117 -0.22725645785519452
3220000000.0 -0.07829290976763759 -0.19375815057231524
3240000000.0 -0.09970112754114574 -0.14443204348061503
3260000000.0 0.13810810123869027 0.044664334071005125
3280000000.0 -0.1039619927528563 -0.004874248091421764
3300000000.0 0.020366890983466043 0.07067638012536305
3320000000.0 0.014042761646849358 0.04545441981338869
3340000000.0 0.022181784310935315 0.014066368485808882
3360000000.0 -0.006851713770740238 0.007155244115646082
3380000000.0 -0.0018920722998938817 -0.0016685172814121763
3400000000.0 -0.012430240977334342 0.005831156515670052
3420000000.0 0.025359472766158766 0.018949354850879653
3440000000.0 0.03393045645665339 -0.03197128452000871
3460000000.0 0.0278085440139855 -0.05542682538469546
3480000000.0 0.06426175349665804 0.0405749246480292
3500000000.0 0.03797157206046424 -0.07892692567516013
3520000000.0 0.09681624777718587 -0.0255148195088231
3540000000.0 -0.09707148698087611 0.05646716261677566
3560000000.0 0.07672842710129342 0.0894654241758704
3580000000.0 0.13281756655469545 -0.014145678223434424
3600000000.0 0.10333891389517234 0.11616143585522215
3620000000.0 -0.12446555767735529 -0.11011563362615574
3640000000.0 -0.16016277098127532 0.08730100464511491
3660000000.0 -0.13063274473471376 0.13731055760922953
3680000000.0 -0.0947676947433018 -0.16533772419238493
3700000000.0 -0.053578699432001636 -0.18387457576355665
3720000000.0 0.13409073456181744 -0.13640682828856573
3740000000.0 0.1188451647923276 0.14317231048275575
3760000000.0 -0.0130101212183521 -0.18249406128120427
3780000000.0 0.15851494414705264 0.08082535649481531
3800000000.0 -0.16423739005529753 -0.04160069244235532
3820000000.0 -0.006538388597155524 0.15601185983064633
3840000000.0 -0.14122217982649263 -0.03182635409595869
3860000000.0 0.06581390298668231 -0.12579410129947932
3880000000.0 0.09788067805635628 0.10800337125654517
3900000000.0 -0.05898930955341951 0.140691673004003
3920000000.0 0.15652014865847164 0.026935022419145336
3940000000.0 0.004445422876028392 0.17013536034359655
3960000000.0 0.12380430707276197 0.12346735849423925
3980000000.0 0.13680600843481586 0.10408408860209548
4000000000.0 0.14188944975465678 -0.08090558477606821
