!Created with skrf (http://scikit-rf.org).
# Hz S RI R 50.0 
!freq ReS11 ImS11
400000000.0 0.556454498070913 0.6679591131887919
420000000.0 0.8456231689236721 -0.05171003230294094
440000000.0 0.6041115448704436 -0.5276405454704867
460000000.0 0.6132794209775426 -0.4092830658772238
480000000.0 -0.10520208980681395 -0.6626747717296736
500000000.0 -0.38310542622747235 0.4529473382886978
520000000.0 -0.37638592887094235 0.3363891995851461
540000000.0 0.25608893003192723 -0.36105524840388953
560000000.0 -0.2750366763046337 0.2962357814551225
580000000.0 -0.15694127094506852 -0.33395444882018155
600000000.0 0.3562550869880322 0.05981352373287034
620000000.0 -0.2931102045123712 -0.21304370404261477
640000000.0 0.34847616801314796 -0.22479707722987385
660000000.0 0.4085747613230307 0.09861389037881646
680000000.0 -0.4313347440700676 0.11458642002810815
700000000.0 0.4540882178531044 0.031454319540159384
720000000.0 -0.2736464755171932 0.363151588841615
740000000.0 -0.2395727328057853 0.34249921409615186
760000000.0 -0.12153195521923521 -0.377375621102818
780000000.0 0.09899717033058213 -0.3605237921039576
800000000.0 0.24247966599021872 -0.24502119733344632
820000000.0 -0.19854002014538535 0.2192966208803858
840000000.0 -0.11849962266764127 0.18776873579645198
860000000.0 -0.009486197270958592 0.17638260503643421
880000000.0 -0.01460077589675357 -0.140205849236163
900000000.0 -0.033863016672291295 0.08001343150335331
920000000.0 0.04695291797448679 -0.010653530715411847
940000000.0 -0.00711544902700485 -0.028161262955686554
960000000.0 -0.012647820880882985 -0.029847673075907914
980000000.0 0.053587616997458724 -0.003305821010497961
1000000000.0 -0.08459254049087797 0.033764074964245334
1020000000.0 -0.08304339190377291 0.08466209868517352
1040000000.0 0.022126996039308962 -0.1311640260712165
1060000000.0 -0.13312529660114755 0.09369357440280275
1080000000.0 -0.18497158801216582 -0.04789428450124193
1100000000.0 -0.13047674086065514 -0.17165864274369236
1120000000.0 -0.04300104800010909 -0.22905153177923177
1140000000.0 0.2063741843167404 0.1430914401302084
1160000000.0 -0.237408095715495 0.12940119991912669
1180000000.0 0.12770668344960198 -0.27226985276141596
1200000000.0 -0.12968860816176006 0.3171789347095138
1220000000.0 0.008515672308877285 -0.3791334349797844
1240000000.0 0.40324236019528464 0.03800796141472586
1260000000.0 -0.3811151682702767 0.16508155089804485
1280000000.0 -0.04371984229648433 0.42221406257760363
1300000000.0 0.41788861184610193 -0.08117155252864147
1320000000.0 0.4201886516494272 0.058494707723165285
1340000000.0 -0.03800109393615437 0.43173557957997455
1360000000.0 0.2632689933341105 0.3574785824946893
1380000000.0 0.14496589195256962 -0.4146403774975056
1400000000.0 -0.24706509664444185 -0.3508423013145945
1420000000.0 0.06358473134111824 0.4041383102625834
1440000000.0 0.24650652734253298 -0.28838691113357084
1460000000.0 0.018954320644440074 -0.3450984799121594
1480000000.0 -0.3116609444642154 -0.029179426017418547
1500000000.0 -0.018340859496180317 0.2788825249376976
1520000000.0 -0.19516398735438925 0.15475602551287426
1540000000.0 0.04944806635968608 0.21678580503387146
1560000000.0 -0.16864519064353076 0.0972581695294201
1580000000.0 -0.1732670397233113 -0.016435093198765908
1600000000.0 -0.01641090677539137 0.13883060113424267
1620000000.0 0.04828477918578077 -0.09070619611484129
1640000000.0 -0.07908731665518334 0.008113375056161736
1660000000.0 0.06120352016425347 0.026490976732905253
1680000000.0 -0.03016714607125765 -0.03260732129047417
1700000000.0 -0.01609047415322838 0.014965919521168554
1720000000.0 0.001013623511481528 0.006178231745727733
1740000000.0 0.01216279682276107 0.003022799410850081
1760000000.0 0.015907251954001764 0.02358662599723759
1780000000.0 0.05362193733721547 -0.006196040498678912
1800000000.0 0.08379716974966041 0.04932267286856976
1820000000.0 -0.10569627310084799 -0.07271317685734634
1840000000.0 0.1298583230083552 0.09792804390334602
1860000000.0 0.15322548332682792 0.1291414103996518
1880000000.0 0.2320841007200316 -0.03105783074627057
1900000000.0 0.08538657713099049 -0.26179432181922385
1920000000.0 0.3161789854659223 0.047094205993501115
1940000000.0 -0.09551796135236783 -0.3322187928540974
1960000000.0 -0.37394219958332064 -0.011143387323491159
1980000000.0 0.3816658692545942 -0.13163047222334828
2000000000.0 -0.276278684120975 -0.31515426503473143
2020000000.0 -0.40959735896130284 -0.11115824557137383
2040000000.0 0.053477473941758336 0.4257142735917858
2060000000.0 0.0458649875800466 0.42964568086960986
2080000000.0 0.1973623864769799 0.38421941869585025
2100000000.0 0.04232564335126841 -0.42509482472233007
2120000000.0 -0.13390713730673545 -0.3926569833616569
2140000000.0 -0.022859026259190007 -0.39687845403020283
2160000000.0 0.23061528668107864 -0.3061042187478602
2180000000.0 0.28311529447605727 -0.24043327956258545
2200000000.0 0.22343519462298586 -0.28272814249498696
2220000000.0 -0.34294774531473765 -0.07605353590189029
2240000000.0 -0.32249370707884356 -0.12723468756682496
2260000000.0 -0.341997789148783 0.048765227115727956
2280000000.0 0.2782184382060693 0.2071408531201381
2300000000.0 0.2696856065859165 0.2292925617289057
2320000000.0 0.2772621379974785 0.2551520900526852
2340000000.0 -0.16725610939481703 -0.3750592409755222
2360000000.0 -0.447606987862725 -0.03843955083605079
2380000000.0 0.19829461264307457 0.4575551949535323
2400000000.0 -0.44519885744566134 0.33662411086781213
2420000000.0 0.4954674976589993 -0.35510998874267347
2440000000.0 -0.4831106551515149 0.44397696688560145
2460000000.0 -0.6928022753760048 -0.09934031891049357
2480000000.0 0.7065684786903192 0.19015500580860323
2500000000.0 -0.5099829176303351 -0.55408456272173
2520000000.0 0.6646536763496103 -0.38100803157569557
2540000000.0 -0.667600845771931 -0.3834743782828687
2560000000.0 -0.24677513570025217 0.7257321709686181
2580000000.0 -0.18044889615778562 -0.7305514729162931
2600000000.0 -0.7043357276101915 0.19648272927263347
2620000000.0 0.1484334237440192 0.6885339848145599
2640000000.0 0.4320499275693817 -0.507284342769397
2660000000.0 -0.5596666842148879 -0.2793945714657695
2680000000.0 -0.08853052197168516 0.5739336847837657
2700000000.0 -0.34366500701933334 -0.40215510634549917
2720000000.0 -0.05152657296637026 0.47890711114590195
2740000000.0 0.40526568228942844 -0.15152256228389996
2760000000.0 -0.28420718773643555 0.26578046489409357
2780000000.0 0.35822539089027394 0.00021321505689631207
2800000000.0 -0.29341504601060203 -0.15961744809081516
2820000000.0 0.053309438048361996 -0.3088464657251128
2840000000.0 0.12111522430130926 0.279993126127851
2860000000.0 -0.25735232937644203 -0.14722039829815153
2880000000.0 0.04211240660166418 -0.2872591429547467
2900000000.0 -0.27227432921340433 -0.1003806096143896
2920000000.0 -0.22880386659829066 0.1906219186842627
2940000000.0 0.1419325486503896 -0.2759003760282425
2960000000.0 -0.22721035150829424 -0.222046136793854
2980000000.0 -0.3172880747615875 -0.03315217681984383
3000000000.0 -0.28293610089262755 0.1432182010261528
3020000000.0 0.31533017444575684 0.04851459712021257
3040000000.0 0.31484142302404344 0.05356796063725981
3060000000.0 0.18877492044722047 0.2484422754174325
3080000000.0 0.25269496174428824 -0.16383277801095344
3100000000.0 -0.25070112854596804 0.15000239342667918
3120000000.0 -0.005077362759297656 -0.28700758362499923
3140000000.0 -0.27574606898269444 0.03890672929961945
3160000000.0 0.050956726808403685 -0.2620580967768286
3180000000.0 -0.1229572122553833 0.21938932606580894
3200000000.0 0.13732554767677455 -0.19105453646208037
3220000000.0 0.009741453684128818 -0.2079503439872514
3240000000.0 -0.03927572321572084 -0.16941862324543847
3260000000.0 0.11330700651270648 0.08746922570299266
3280000000.0 -0.09367080379613764 -0.03966327070534183
3300000000.0 0.0001650198523516765 0.07122417786023955
3320000000.0 0.0022775147771211188 0.04526952066663345
3340000000.0 0.004161391809315753 0.023938897609143948
3360000000.0 -0.0064604040988637925 0.005133759413625905
3380000000.0 0.0032195067844523707 -0.00027536393831161427
3400000000.0 -0.012074213444653413 -0.009494969253110259
3420000000.0 -0.0006549961397190967 0.03265940290910433
3440000000.0 0.03798591584998397 -0.02861351871684792
3460000000.0 0.04521469512080895 -0.04307612063976119
3480000000.0 0.017266609017786278 0.0738781265142915
3500000000.0 0.035555775597461196 -0.07989210997013878
3520000000.0 0.06479301472119395 -0.07718004090087165
3540000000.0 -0.08210976535835872 0.07771760118073882
3560000000.0 0.07619637383028463 0.09034674287634473
3580000000.0 0.12726044498144387 -0.041723592060006365
3600000000.0 0.08767016999591067 0.1279227731305587
3620000000.0 -0.13216943873403453 -0.10083563679196192
3640000000.0 -0.1473452346373855 0.10694695089586786
3660000000.0 -0.12549434990999986 0.14053360602626877
3680000000.0 -0.1016315138050052 -0.16015941168949108
3700000000.0 -0.09370142078807214 -0.16640764629334048
3720000000.0 0.09756659597796281 -0.16369797515007023
3740000000.0 0.10914220251381528 0.149775957431585
3760000000.0 -0.013711324780023596 -0.18209663744241336
3780000000.0 0.1614488387438628 0.07492809669821372
3800000000.0 -0.16633128457835913 -0.0342325713030349
3820000000.0 0.014781009105814511 0.15630504971837472
3840000000.0 -0.14518292414045647 -0.013804958599242365
3860000000.0 0.052813697486589706 -0.1329252705370525
3880000000.0 0.1007119590571624 0.10702959125795439
3900000000.0 -0.01753752368734939 0.15266161392771116
3920000000.0 0.15905752350621286 0.015936265293546515
3940000000.0 -0.04796150573608309 0.1648827854896714
3960000000.0 0.062310822162103416 0.1652948912964589
3980000000.0 0.07954918449217295 0.15463328474299343
4000000000.0 0.16287074646501257 0.03245685610968293
