!Created with skrf (http://scikit-rf.org).
# Hz S RI R 50.0 
!freq ReS11 ImS11
400000000.0 0.805674551460875 0.33117640717291275
420000000.0 0.6501011677447981 -0.5421192163832905
440000000.0 0.35558579757466624 -0.7047037373308572
460000000.0 0.731655689603092 0.017063232804685063
480000000.0 0.08883349966832448 -0.6758220463403213
500000000.0 -0.09911769095722833 0.5904028038883793
520000000.0 0.34134917823379807 0.37258231456369173
540000000.0 -0.19929265882702438 -0.3931799674490504
560000000.0 -0.18308807105304373 0.3552850291508097
580000000.0 -0.36510140029777627 0.019850028821722304
600000000.0 0.21866851689100122 -0.28239432602037623
620000000.0 -0.35077672670719007 -0.062499839377422865
640000000.0 -0.14563432140999433 -0.3819795242549057
660000000.0 -0.019034967439882262 0.4164869738632591
680000000.0 -0.39748502878951125 0.20348709699445122
700000000.0 0.4480128031381997 0.07832875411749801
720000000.0 -0.46015732180917135 -0.02262683585473357
740000000.0 -0.2332865718298631 0.36412457485665817
760000000.0 -0.21388328827465292 0.3464862196749615
780000000.0 -0.36919401785930606 -0.04007879158657884
800000000.0 -0.3139822609917485 0.10645825126804709
820000000.0 -0.23335781585973844 0.15908848311677906
840000000.0 0.04464839810673285 -0.21026967329136595
860000000.0 -0.17043086333130655 0.0558280571488841
880000000.0 -0.13974643548380694 -0.03581627212599717
900000000.0 -0.07602877542394029 0.04526655412137545
920000000.0 -0.02684565728587342 0.0379304823885632
940000000.0 -0.03384947804132224 0.011687018627426106
960000000.0 -0.040249103398604776 0.011616782378625434
980000000.0 -0.014055104825237546 0.06889108352852565
1000000000.0 -0.059274722082669776 0.08550636333907835
1020000000.0 -0.049503984687257266 0.11211428926139586
1040000000.0 0.00703810417083494 -0.1298231586067545
1060000000.0 -0.024961994127949992 -0.14951214240561028
1080000000.0 -0.17132077687244207 -0.01561416169442048
1100000000.0 0.17280504336468808 0.10541179005727869
1120000000.0 -0.06065859388547779 0.22525483216618325
1140000000.0 -0.20711032924927483 -0.15437507689815028
1160000000.0 -0.23289254630758718 0.17118387671767596
1180000000.0 -0.25703302830016467 0.18770765115827348
1200000000.0 0.06612023812254436 -0.34023710422791714
1220000000.0 0.04143261947527959 0.37031777502380286
1240000000.0 0.155360162051972 -0.35891906466198775
1260000000.0 -0.36012336172275033 -0.18353420874984594
1280000000.0 -0.29397446800944615 0.3006464333051164
1300000000.0 0.2349415089215769 0.3596618935010169
1320000000.0 0.3072117737916093 0.3090195067656661
1340000000.0 0.3987232799483134 0.19912277301898518
1360000000.0 0.38925871566103487 -0.2272983529309813
1380000000.0 -0.32876776234275557 -0.29280864355964553
1400000000.0 -0.35240737505737657 0.23428560913549118
1420000000.0 0.26939008182683805 0.29571251521069414
1440000000.0 0.37006503184893214 -0.007629339254253044
1460000000.0 0.32103883682522255 -0.12010162516569105
1480000000.0 -0.227232894477371 -0.2221641271530142
1500000000.0 0.03610540155220857 0.28333601237724726
1520000000.0 0.10517258855840501 0.22791104671806864
1540000000.0 -0.0814249955766059 -0.20193550121196374
1560000000.0 -0.04138776969273703 0.18432513727329217
1580000000.0 -0.16730170729162974 -2.0851884097630727e-05
1600000000.0 0.0646443136845715 0.12120510085114972
1620000000.0 0.10253944245743625 -0.026713249298183122
1640000000.0 0.07423318052866808 0.03501451741466467
1660000000.0 0.058809921086970966 -0.03181687251395741
1680000000.0 0.04351264742159713 -0.004541709394977835
1700000000.0 -0.02145049813360145 -0.0067792188505675765
1720000000.0 0.0013719832981692439 0.0023211178181247287
1740000000.0 0.01745203722162778 0.0016630557911613358
1760000000.0 0.00045709367797635816 -0.03461263896139413
1780000000.0 -0.04624450463486844 -0.031121765290755974
1800000000.0 -0.005856693830723018 -0.0936569187142231
1820000000.0 -0.11230538236634414 0.05900343805799553
1840000000.0 0.16488110888640717 0.02092895230738283
1860000000.0 0.023939337479117594 0.2006180041631958
1880000000.0 0.2138128708019168 -0.11051117939052264
1900000000.0 -0.273739172682678 0.07791570399437917
1920000000.0 0.24531548944477835 -0.20873814140628927
1940000000.0 -0.3427607028861056 0.052410959323179365
1960000000.0 0.012518771108750625 0.3718479300297445
1980000000.0 0.39693765270976944 -0.06474513730912348
2000000000.0 -0.33614321627365684 -0.25282244248639324
2020000000.0 -0.28620280086874916 0.3197238446553988
2040000000.0 0.15221581902645556 0.4087269431214741
2060000000.0 0.4357031092834725 0.03413769611918678
2080000000.0 0.19330917311805323 -0.3857722367483204
2100000000.0 -0.15222556065032516 -0.3970227820392164
2120000000.0 -0.35095472051121585 -0.2165303097063241
2140000000.0 -0.36838641760582314 -0.147012260615881
2160000000.0 0.3392782568122674 -0.18319059717536199
2180000000.0 0.1288943965815749 -0.3539638266705873
2200000000.0 -0.23977459946973673 -0.2760649806030107
2220000000.0 -0.35496079653578916 0.03062588435051386
2240000000.0 -0.19881084566642943 0.2888324682751287
2260000000.0 0.17427958571603258 0.30418614372135516
2280000000.0 0.3474971474890665 0.04419610373454913
2300000000.0 0.3027534611679401 -0.19338843704313802
2320000000.0 0.08029667251330785 -0.3765559104718072
2340000000.0 -0.39196615291217307 -0.1438841316934628
2360000000.0 0.026004926971589196 0.45898450598439483
2380000000.0 -0.006796738646595477 -0.5131205443222362
2400000000.0 0.36698125393329856 0.43174694250594803
2420000000.0 -0.6170560906380429 -0.00876530310854269
2440000000.0 0.4360864701020384 -0.49859801132281983
2460000000.0 0.016615769690154276 0.7009323547431057
2480000000.0 -0.39851618429174923 -0.6127408685477171
2500000000.0 0.47385019825474006 0.5807471813847798
2520000000.0 -0.356770112068044 -0.6709756645595033
2540000000.0 0.04922842605792722 0.7603030603500168
2560000000.0 0.43856775397297304 -0.6153247298275565
2580000000.0 -0.7399001130294672 -0.0326868745904873
2600000000.0 0.454837782340138 0.5539084563516901
2620000000.0 0.12443591447502377 -0.6770419696924498
2640000000.0 -0.28429722273058916 -0.5868978503331123
2660000000.0 -0.2587659332827839 0.5517191494361756
2680000000.0 0.5262771808792716 -0.19890398450863142
2700000000.0 -0.4575712879071109 -0.2371191611080873
2720000000.0 0.32757039825989515 0.3354565416084113
2740000000.0 -0.11585302438592537 -0.40374075183589114
2760000000.0 -0.21997391266528035 0.31087567203187955
2780000000.0 0.2268889112610285 -0.2632010235793424
2800000000.0 -0.18314189166180087 0.2644514268045297
2820000000.0 0.1723554390087504 -0.24886940075874978
2840000000.0 0.06175222963362762 0.2880324387043111
2860000000.0 -0.2826424059532322 -0.05618826018154992
2880000000.0 0.1964694401438863 -0.20774877582214363
2900000000.0 -0.2602663126907879 0.11761712052163954
2920000000.0 0.20649211250964766 0.2059589201598092
2940000000.0 0.08506216360452382 -0.2907695823051257
2960000000.0 -0.309186814914124 0.030648337814532016
2980000000.0 -0.12398059586676928 0.2865348894341892
3000000000.0 -0.2607474041247909 0.17264114204544492
3020000000.0 -0.28463129582055124 -0.13707201577838699
3040000000.0 -0.07621783628217706 -0.3044041830264932
3060000000.0 0.2986932149112396 0.06392229134134143
3080000000.0 -0.2640977029744731 -0.1313058148702828
3100000000.0 0.034135904829865275 0.28585822638446723
3120000000.0 0.012274543288904123 -0.28412642069412086
3140000000.0 0.08038340892935236 0.26467266283569896
3160000000.0 -0.2017083029365272 -0.17367135422744223
3180000000.0 0.08035257620739915 0.23987689143394345
3200000000.0 -0.09281157431821414 0.21272007149697528
3220000000.0 -0.13818516562068045 0.14893482201867744
3240000000.0 -0.13697501008025692 -0.10073750731027618
3260000000.0 0.125007425401828 -0.044336355548317045
3280000000.0 0.0886942614185907 -0.039499516633762145
3300000000.0 0.06937679384520758 0.021542513776795693
3320000000.0 -0.03767564066363416 -0.029767962960222195
3340000000.0 -0.003345600534495437 0.03057053876385072
3360000000.0 -0.006975259405253736 -0.010418411701250579
3380000000.0 -0.0037667834923029555 0.0008573268334594808
3400000000.0 -0.013251902026998589 0.013373218078693995
3420000000.0 0.03237639763979377 -0.013414668481602632
3440000000.0 0.04717498782638968 0.006477844824040295
3460000000.0 0.017251595836711375 -0.05508806341423595
3480000000.0 0.05918062453040708 -0.029275914394836768
3500000000.0 0.08158590872698437 0.02060477286041839
3520000000.0 0.031055992366798166 0.09480437576743259
3540000000.0 -0.07844485532018143 -0.0823399316575854
3560000000.0 0.04827911746371449 -0.11516884497444883
3580000000.0 -0.12266240846712712 0.05772555273980028
3600000000.0 0.023811807322848665 -0.14810151712223968
3620000000.0 0.09732757519759905 0.12952307970441984
3640000000.0 -0.06745354596042756 0.1625413812500638
3660000000.0 -0.12100576080801373 -0.13833389932868
3680000000.0 -0.07287045286513244 -0.17905422702472204
3700000000.0 -0.15730883205630794 -0.11645161654732489
3720000000.0 -0.11867774398688652 -0.15354470941862833
3740000000.0 0.10904572641076261 -0.1499726869338558
3760000000.0 -0.18011584517168022 -0.018635917778279287
3780000000.0 0.1636055358665929 0.06119060161380434
3800000000.0 -0.16433969567006748 -0.024394520885185393
3820000000.0 -0.08282438214083437 0.13355140305256213
3840000000.0 -0.14757774697320164 0.00956495623890555
3860000000.0 -0.02584096826337934 -0.14512616215713434
3880000000.0 0.08456978441818125 -0.12269551364099776
3900000000.0 0.1458863990334964 0.04859687073415595
3920000000.0 0.055394323630098274 -0.15314886190643637
3940000000.0 0.15966991440002476 0.06121753725644275
3960000000.0 0.16933692080780188 0.05377114967178419
3980000000.0 0.1319128740343415 -0.11476399094839268
4000000000.0 0.1005005865342801 -0.13407459703198324
