!Created with skrf (http://scikit-rf.org).
# Hz S RI R 50.0 
!freq ReS11 ImS11
400000000.0 0.8062973373405179 0.3250978695786011
420000000.0 0.6408008142725904 -0.5520446428024146
440000000.0 0.3066679301328154 -0.7272994031232188
460000000.0 0.7319001227304052 -0.0002098085615118194
480000000.0 0.07108577078699645 -0.6781416538619424
500000000.0 -0.1004940983539471 0.5905533648596506
520000000.0 0.3500773267177274 0.364474926058945
540000000.0 -0.1998296798475679 -0.3930271232186656
560000000.0 -0.19022350582287387 0.35195614137532166
580000000.0 -0.3659236325010895 0.005416835300474901
600000000.0 0.2305504806425704 -0.27269483360383157
620000000.0 -0.34781337195882583 -0.07528732336092799
640000000.0 -0.16870243092516013 -0.371883426174656
660000000.0 0.007340375611249943 0.41639429221921137
680000000.0 -0.4065631247751913 0.18606173721251754
700000000.0 0.4503880609046556 0.06550066590214486
720000000.0 -0.46008297056981023 -0.023764093647874955
740000000.0 -0.24456012696848914 0.35679782453337505
760000000.0 -0.2297014017707827 0.3368672737660221
780000000.0 -0.37062499454791903 -0.026350534286574034
800000000.0 -0.3135446430929046 0.10848212903673318
820000000.0 -0.23156199230788413 0.162199141957418
840000000.0 0.07130676371451011 -0.20371387223384596
860000000.0 -0.17766898741484533 0.023968080258398243
880000000.0 -0.12912991212272695 -0.06430514870780236
900000000.0 -0.08236073848087304 0.03135913571056232
920000000.0 -0.044215451227685006 0.013722084676786433
940000000.0 -0.03494651503570157 0.009129162174490392
960000000.0 -0.04212663787335101 -0.0010330948843582152
980000000.0 -0.029490680178676818 0.06311773620121791
1000000000.0 -0.05691761090709512 0.08673678017954894
1020000000.0 -0.027431125178359154 0.11980953745086896
1040000000.0 -0.002471826783980858 -0.13004283917316944
1060000000.0 0.009714695536494337 -0.15152438802434776
1080000000.0 -0.16455667503878244 -0.04972757790768267
1100000000.0 0.15738678707076942 0.12690205683505085
1120000000.0 -0.06417223882309461 0.22385968666590195
1140000000.0 -0.19630744579636894 -0.16617979426948998
1160000000.0 -0.2233970584932793 0.1826414172228992
1180000000.0 -0.2410091462224838 0.20702430409175657
1200000000.0 0.057878442599722725 -0.34137865663207834
1220000000.0 0.05171340776592816 0.3685791268716735
1240000000.0 0.13664879284633938 -0.36590950013473467
1260000000.0 -0.3598949468031584 -0.183434358201773
1280000000.0 -0.2873010536123179 0.30757261988069146
1300000000.0 0.21498977574290778 0.3718302409518962
1320000000.0 0.30116924203258894 0.31531453796834263
1340000000.0 0.3980050138431799 0.20044411878056373
1360000000.0 0.3875321642998173 -0.2301555450747792
1380000000.0 -0.33624410017954526 -0.2840394980132705
1400000000.0 -0.3414641162104776 0.2498165724602457
1420000000.0 0.2780513093566901 0.2871078392471217
1440000000.0 0.369342101679649 -0.020420343982918417
1460000000.0 0.31371823271125604 -0.13783431647580816
1480000000.0 -0.21916945336108168 -0.23046372902686899
1500000000.0 0.047675460152774324 0.28181800536287827
1520000000.0 0.11605013247969512 0.22211227356479818
1540000000.0 -0.09381268024709666 -0.19650985809659838
1560000000.0 -0.05353505337980314 0.18135031315482447
1580000000.0 -0.16736772889510174 0.008363952366254326
1600000000.0 0.036186293468270944 0.13269229108172811
1620000000.0 0.10152874387688107 -0.029263043862181884
1640000000.0 0.07794006611939441 0.025502423704804447
1660000000.0 0.05234401846174626 -0.04186442097746871
1680000000.0 0.042029126552226806 0.011869800095149199
1700000000.0 0.019013582600875833 -0.012376869256485658
1720000000.0 0.002790403248615161 0.0017677690432710133
1740000000.0 0.00014952987661430642 -0.017073297371324313
1760000000.0 -0.018590818568219182 -0.029415205070346482
1780000000.0 -0.04903608109911351 -0.027408772185331606
1800000000.0 -0.021344260339127966 -0.09163240895559181
1820000000.0 -0.11167771560645867 0.05982758987194132
1840000000.0 0.16604010104553363 0.014143006881546976
1860000000.0 0.014929247919034924 0.2015659130017127
1880000000.0 0.20803340703324652 -0.121021618490782
1900000000.0 -0.27686226960448435 0.06620440442145077
1920000000.0 0.2556959415147328 -0.19585207457906487
1940000000.0 -0.3451324898359676 0.03300646227181009
1960000000.0 -0.000983687538050687 0.3718102195043578
1980000000.0 0.3974418198343091 -0.05838361883547633
2000000000.0 -0.35086733950215526 -0.2310834648514985
2020000000.0 -0.31199015493893434 0.29438607189131977
2040000000.0 0.17855675612545055 0.3973896754202131
2060000000.0 0.4362524583267525 -0.019981877906864263
2080000000.0 0.178444695663124 -0.39281018526213907
2100000000.0 -0.16164859028890638 -0.39286744716099126
2120000000.0 -0.3725120336752329 -0.1772510641819543
2140000000.0 -0.3734863416059178 -0.1340591147681638
2160000000.0 0.3159060808918382 -0.22077163330787528
2180000000.0 0.07865375691033659 -0.36822728132943505
2200000000.0 -0.28463537679035666 -0.22958898615502588
2220000000.0 -0.3418871545196492 0.10105220225918883
2240000000.0 -0.16528958705911845 0.30972704695135017
2260000000.0 0.20139500529907148 0.2880109589900224
2280000000.0 0.3505910169579764 0.010614967894107596
2300000000.0 0.30679648460480136 -0.18678999899868684
2320000000.0 0.08944863863393869 -0.3746102943598891
2340000000.0 -0.3926833168592948 -0.14272917491251022
2360000000.0 -0.003556157579941393 0.45965610706221344
2380000000.0 0.028342321313554856 -0.512274004725368
2400000000.0 0.36425631328930025 0.4338776197057412
2420000000.0 -0.6169065244283529 -0.005265778598499785
2440000000.0 0.44429818125922677 -0.49079941372645897
2460000000.0 0.018771912811385 0.6998400995411871
2480000000.0 -0.4249404693322475 -0.593514295441849
2500000000.0 0.5243998792887907 0.5346189270691561
2520000000.0 -0.33764187423466535 -0.6805880567989468
2540000000.0 0.10646341307002127 0.7533320281734789
2560000000.0 0.37616078225380095 -0.6548543711326316
2580000000.0 -0.7407574129098388 0.014994125986300927
2600000000.0 0.49150659582839346 0.5220533462124185
2620000000.0 0.14455207621443728 -0.6737306444513343
2640000000.0 -0.24171858836141938 -0.6063696783431264
2660000000.0 -0.27690334207845196 0.5439087391188073
2680000000.0 0.5237409180314881 -0.2079704029109636
2700000000.0 -0.44941423766809385 -0.2530566085897185
2720000000.0 0.3282039697237408 0.3354132002832577
2740000000.0 -0.10584366006828097 -0.4072777680291754
2760000000.0 -0.22547747283680322 0.3071902035418812
2780000000.0 0.23708359734856765 -0.2543491305755365
2800000000.0 -0.20091568495758863 0.25150446370159674
2820000000.0 0.18520394495801484 -0.23924191845287684
2840000000.0 0.062034497470155554 0.2878664655195552
2860000000.0 -0.28373133800868067 -0.04930459727268611
2880000000.0 0.19012207594850453 -0.21315166223255771
2900000000.0 -0.24907978599479869 0.13901459189807494
2920000000.0 0.22945798524576588 0.17904571216854356
2940000000.0 0.039903298915029695 -0.30019194331868254
2960000000.0 -0.3040639131679732 0.057584447362415296
2980000000.0 -0.0517551621739894 0.30824924229409933
3000000000.0 -0.2451451220932364 0.19279042262696572
3020000000.0 -0.28321667993657823 -0.1394150395925567
3040000000.0 -0.047428706213444506 -0.30963054072191
3060000000.0 0.3005026569156626 0.05486200256760841
3080000000.0 -0.2750215903583253 -0.106839007070596
3100000000.0 0.12553545240987676 0.25936466624169346
3120000000.0 -0.0418187103847867 -0.2809505812397866
3140000000.0 0.13232503044689128 0.24362981707882098
3160000000.0 -0.21485407062292827 -0.15748299995403622
3180000000.0 0.09780548469471022 0.2342032718892149
3200000000.0 -0.08455734561257465 0.21734033889190793
3220000000.0 -0.12147429913656524 0.16391234111517688
3240000000.0 -0.14606411090797977 -0.08922396021211383
3260000000.0 0.12913930635752394 -0.03754366324630661
3280000000.0 0.09636949997246863 -0.022329729808937566
3300000000.0 0.04728876278477185 0.05748850339299625
3320000000.0 -0.029536528294855303 -0.039664365126117616
3340000000.0 0.002713660934812144 0.03197225277718387
3360000000.0 -0.012062728660962781 0.007231226670816717
3380000000.0 -0.00180523852443193 0.0010772493543400766
3400000000.0 0.01662434244379461 -0.0027020979008433904
3420000000.0 -0.031193268104868135 -0.012093812039907012
3440000000.0 -0.00885455281585602 -0.044859819194987605
3460000000.0 -0.024116223962833607 -0.050138605997718154
3480000000.0 0.0004813596560010969 -0.06462840084201067
3500000000.0 0.0646243962520485 -0.050959797945641545
3520000000.0 0.06232503767415577 0.0757767951572703
3540000000.0 -0.10942301085796069 -0.027099642458191065
3560000000.0 0.010268033725234722 -0.12274667104020655
3580000000.0 -0.10470841544446534 0.08406735134238434
3600000000.0 -0.061102224069072446 -0.13602998497102284
3620000000.0 0.12156283818145563 0.1051670893435721
3640000000.0 0.0006664078844252612 0.17485499170975774
3660000000.0 -0.174972827963678 -0.05593784671869338
3680000000.0 -0.12393656982098387 -0.1471975057795019
3700000000.0 -0.18629015013708727 -0.05881597308020211
3720000000.0 -0.17247965957063555 -0.08879480223512458
3740000000.0 0.029706158669906835 -0.18296761217802193
3760000000.0 -0.16397146960350428 0.0775300803394309
3780000000.0 0.1640564914136061 -0.05924809795026823
3800000000.0 -0.1661290027424353 0.014596810975749384
3820000000.0 -0.008368575900751787 0.15715268206214683
3840000000.0 -0.1468761986112435 0.02376018725625585
3860000000.0 -0.1028240371267582 -0.10664531513006409
3880000000.0 0.03525651735338247 -0.1457840304289345
3900000000.0 0.15204183633509114 -0.030548478207981074
3920000000.0 -0.0368817798129678 -0.16008446261268358
3940000000.0 0.17266617583546598 0.004311539971465944
3960000000.0 0.17954608072246045 -0.00883449558810914
3980000000.0 0.11074566834078564 -0.13806682002358164
4000000000.0 0.11106498093112484 -0.12845892469102033
