!Created with skrf (http://scikit-rf.org).
# Hz S RI R 50.0 
!freq ReS11 ImS11
400000000.0 0.5252481595142633 0.6918388884998176
420000000.0 0.8463909319597219 -0.024880992295741824
440000000.0 0.6209365663304212 -0.507566529787603
460000000.0 0.610207049321123 -0.41307549530326937
480000000.0 -0.11991151508192303 -0.6600241622015355
500000000.0 -0.33997591316448583 0.4857593004199157
520000000.0 -0.3734548238331826 0.3397656137338821
540000000.0 0.24520134927898843 -0.3686280969045316
560000000.0 -0.2760857322122818 0.2955707335206848
580000000.0 -0.1527650999336555 -0.335803425588072
600000000.0 0.35588354151629753 0.06280555024845556
620000000.0 -0.29628606817086456 -0.20839041580234033
640000000.0 0.3359198148542715 -0.24291693098031342
660000000.0 0.39964879021923766 0.13008161829491627
680000000.0 -0.4273242615244019 0.1281903649493392
700000000.0 0.45386273235310304 0.033673134497972275
720000000.0 -0.28384515848616737 0.3553192582938177
740000000.0 -0.22751258427795534 0.3506052557132662
760000000.0 -0.12257818140577226 -0.3770187144108463
780000000.0 0.0988655272960685 -0.3606275720920759
800000000.0 0.24426476504294722 -0.24370196672842026
820000000.0 -0.20284635691694367 0.2156403729311027
840000000.0 -0.10922779254075357 0.19368867231434822
860000000.0 -0.008918112655639819 0.17664180047435574
880000000.0 -0.00962537315347587 -0.14103913187647388
900000000.0 -0.053190974454038906 0.06898266657222467
920000000.0 0.04537312998257055 0.016333661672718023
940000000.0 0.013445850813153002 -0.025430876387737573
960000000.0 -0.029659913432796645 -0.011866803268676005
980000000.0 0.046083708621853 -0.027260219922793965
1000000000.0 -0.07463167379757805 0.05237097181368717
1020000000.0 -0.08567245986698181 0.08241213198213472
1040000000.0 0.035939168498349265 -0.12816980271246967
1060000000.0 -0.14598152759413047 0.07202564643239213
1080000000.0 -0.1845461610386993 -0.04920327418855282
1100000000.0 -0.14781973316899652 -0.15667466072958758
1120000000.0 -0.04127409913427005 -0.22899848431353292
1140000000.0 0.22019536230081466 0.12044543919584064
1160000000.0 -0.21626239696344865 0.16205667584021877
1180000000.0 0.12124165761882488 -0.27475827924521506
1200000000.0 -0.13109701635138268 0.3163303216233523
1220000000.0 0.0272111139763658 -0.37802383814957913
1240000000.0 0.4047599924630017 0.0241409052036718
1260000000.0 -0.37642861683075013 0.1761381471787009
1280000000.0 -0.02956599431949841 0.4235700641698668
1300000000.0 0.42006230664795957 -0.07087238498709204
1320000000.0 0.4216428761960339 0.04964482445855641
1340000000.0 -0.04077275517718828 0.4318726960545105
1360000000.0 0.26282443872277866 0.3581165458342785
1380000000.0 0.15697065716672065 -0.410204014681504
1400000000.0 -0.23022986100993384 -0.3618934273221783
1420000000.0 0.06026183058218477 0.40441630520364164
1440000000.0 0.2458458213550608 -0.2884010491503148
1460000000.0 0.0122757076257016 -0.3450768682898701
1480000000.0 -0.3122935490541028 -0.01969146307005829
1500000000.0 -0.012529094576744601 0.2790093735671999
1520000000.0 -0.20060532361397435 0.14838067868193733
1540000000.0 0.06637668312580473 0.2122055512283142
1560000000.0 -0.15531838409067447 0.1172492176384403
1580000000.0 -0.17425326445588482 -0.0014210456420252484
1600000000.0 0.026252126090291268 0.1373534496795487
1620000000.0 0.04801070196954515 -0.09109385111351283
1640000000.0 -0.07996559454509485 -7.570881324751562e-05
1660000000.0 0.059505839306344226 0.03139072911777984
1680000000.0 -0.015451863300362967 -0.041818529796703766
1700000000.0 -0.019166059147326497 0.011309945402815375
1720000000.0 8.604210493081567e-06 0.006735039690658479
1740000000.0 0.011731013457492969 0.0043707971312618625
1760000000.0 0.028491946610267962 0.0026111137382946697
1780000000.0 0.05257071823075939 -0.013428583078841842
1800000000.0 0.09755005152905867 0.00816036487808263
1820000000.0 -0.11169800736347184 -0.06343837547918121
1840000000.0 0.1367004949753374 0.08845388159637242
1860000000.0 0.152358609606089 0.13035027677586028
1880000000.0 0.23324241892478734 -0.020107470891772394
1900000000.0 0.09554540452088524 -0.25852773262673034
1920000000.0 0.31407945525875614 0.05889622414349081
1940000000.0 -0.09674453788372014 -0.3317868837941494
1960000000.0 -0.3738180578584418 -0.013159211862968834
1980000000.0 0.38368450558970274 -0.12515574443017097
2000000000.0 -0.26869126592166426 -0.3216513774439932
2020000000.0 -0.4014279578754772 -0.13696619789717385
2040000000.0 0.051978814915907647 0.42571015126847395
2060000000.0 0.060718060227290344 0.4277162929079242
2080000000.0 0.20148250387395164 0.3820675066255221
2100000000.0 0.03691558579936693 -0.4254726049372299
2120000000.0 -0.1536911601492651 -0.38546648879205336
2140000000.0 -0.009995118275546873 -0.39749025583315484
2160000000.0 0.24808359819933762 -0.2914410586118962
2180000000.0 0.2694193164468788 -0.2549700736050467
2200000000.0 0.224928523230045 -0.28054785740631294
2220000000.0 -0.33201102275762673 -0.11206414221406823
2240000000.0 -0.3106860904921228 -0.1522904466964344
2260000000.0 -0.3362741440817073 0.07617986540525463
2280000000.0 0.2837183052687952 0.19863379797997843
2300000000.0 0.29323389813948175 0.19743406093841026
2320000000.0 0.29483686642291795 0.23374204339661622
2340000000.0 -0.21170195648796652 -0.3515971091006491
2360000000.0 -0.44906578747908127 -0.004246661172391101
2380000000.0 0.2226360913884849 0.44605435711646707
2400000000.0 -0.4273886167887847 0.35909902227137697
2420000000.0 0.47932382479720576 -0.3766597604292667
2440000000.0 -0.4710015158176261 0.45685972471341046
2460000000.0 -0.6925460470165649 -0.10171169039377688
2480000000.0 0.7083586908022025 0.18168711207776425
2500000000.0 -0.46728978140212646 -0.5899575836040327
2520000000.0 0.6651742356491219 -0.3788639925502332
2540000000.0 -0.6708186629146687 -0.3759467828273443
2560000000.0 -0.2532028908623296 0.7225224546535982
2580000000.0 -0.21399809628132194 -0.7202365704950217
2600000000.0 -0.6992417428733894 0.20845990063839773
2620000000.0 0.17097204175894665 0.6816753535062257
2640000000.0 0.35016507444928274 -0.5658678805923516
2660000000.0 -0.5772369862784478 -0.23936863420126017
2680000000.0 -0.07701482434265135 0.5743080453008536
2700000000.0 -0.38136208390325804 -0.3657903413652845
2720000000.0 -0.02524647917982875 0.4807086856004426
2740000000.0 0.39788752827028684 -0.16983845849281448
2760000000.0 -0.2865902211557091 0.26362573352032354
2780000000.0 0.3582205951247209 0.01795551202950843
2800000000.0 -0.27442804420070155 -0.19053801387768504
2820000000.0 0.10235749316311375 -0.2967427318500697
2840000000.0 0.07539447443624137 0.2953009128060652
2860000000.0 -0.2414682284899641 -0.1701819417110019
2880000000.0 0.08140126827364844 -0.2780783199527329
2900000000.0 -0.2660732746731597 -0.11230018390925724
2920000000.0 -0.23821872239660488 0.1771105618862903
2940000000.0 0.13365487286552974 -0.2785644540579933
2960000000.0 -0.2594298676994866 -0.18152340597521083
2980000000.0 -0.31005022084051725 -0.0706270302197935
3000000000.0 -0.26620042963025614 0.1707102130540139
3020000000.0 0.3187185836644451 -0.008621763324554074
3040000000.0 0.31349612768743074 0.05801129238550617
3060000000.0 0.2282604524386475 0.21308830093376988
3080000000.0 0.21789240137781288 -0.20831825113172558
3100000000.0 -0.18674841042427712 0.22548092610330636
3120000000.0 -0.03909332727082218 -0.2848438405447782
3140000000.0 -0.27511311216047135 0.04808359430046509
3160000000.0 0.08218387208982558 -0.2545930365197369
3180000000.0 -0.12929822479443354 0.21632439359401465
3200000000.0 0.1478212764955255 -0.18346653906782998
3220000000.0 0.0326397251483476 -0.2054799127818983
3240000000.0 -0.017477082298805322 -0.173148323962964
3260000000.0 0.09648119405817061 0.10618848984379602
3280000000.0 -0.09319505611819684 -0.0419682531608646
3300000000.0 0.0002533470364911675 0.07171926215888823
3320000000.0 -0.005500307801302566 0.04525733828908833
3340000000.0 -0.004129733180578671 0.023759570928054773
3360000000.0 -0.0034073336430568593 -0.007344983794927095
3380000000.0 0.0021058718972622203 -0.0024162483904914193
3400000000.0 0.0017447970913670506 0.015438979003020221
3420000000.0 0.030830905012285137 0.011982260130056809
3440000000.0 0.011880575827354042 -0.046601846770421076
3460000000.0 0.0503247379101851 -0.03829955428333206
3480000000.0 0.03301991537005217 0.06903968533331833
3500000000.0 0.027867181321712953 -0.08368383559437094
3520000000.0 0.04650328751855433 -0.08987446377278255
3540000000.0 -0.0882039081415115 0.07062244164188503
3560000000.0 0.10090423370460129 0.06234858585535537
3580000000.0 0.12846237268156271 -0.039473397210754595
3600000000.0 0.10855852076311932 0.11135428045159158
3620000000.0 -0.13991186912096776 -0.09085201903890593
3640000000.0 -0.15186809571079332 0.10111598932542419
3660000000.0 -0.1143150171656371 0.1505157791920272
3680000000.0 -0.1095898758394846 -0.156140707209651
3700000000.0 -0.09318541033104573 -0.16738257070114443
3720000000.0 0.10822413598881298 -0.15732286457520026
3740000000.0 0.11889080306400843 0.14330445637538156
3760000000.0 -0.009285250791956662 -0.1839995828483807
3780000000.0 0.1712536971451441 0.05088464057684104
3800000000.0 -0.1680907581054434 -0.026610969199042725
3820000000.0 0.02596881028342906 0.15482974535777735
3840000000.0 -0.13642917067684018 0.05080022016725853
3860000000.0 -0.009299211281912717 -0.14288362215396214
3880000000.0 0.13336366071093667 0.06230839206577657
3900000000.0 0.022389452594216517 0.15271006690747213
3920000000.0 0.15549953639729208 -0.04092911236958322
3940000000.0 0.04086862929527816 0.1676667288185382
3960000000.0 0.13408766975720857 0.1175798313071592
3980000000.0 0.1586208236127569 0.07498729832124347
4000000000.0 0.15894717319108925 -0.05123139011225722
