!Created with skrf (http://scikit-rf.org).
# Hz S RI R 50.0 
!freq ReS11 ImS11
400000000.0 0.5480691856058424 0.6762069866793525
420000000.0 0.8461918561963909 -0.034575807487092255
440000000.0 0.6283893645845731 -0.498219569665727
460000000.0 0.6194698940185376 -0.3994679914837059
480000000.0 -0.11675899087187558 -0.6604992912204387
500000000.0 -0.3694763820135419 0.4642137605629646
520000000.0 -0.3781984209011833 0.3344231493623844
540000000.0 0.2448037649257241 -0.36885545901881367
560000000.0 -0.27043622857863997 0.3006598636354483
580000000.0 -0.15664617060023076 -0.3339896211344886
600000000.0 0.35972162677760766 0.0351206564429574
620000000.0 -0.3136976310798627 -0.1817616128948279
640000000.0 0.3429037360571896 -0.23353587358208586
660000000.0 0.4063274522831073 0.10703378781969979
680000000.0 -0.42871597090945124 0.12453955323161774
700000000.0 0.45302899549182696 0.04437395132845643
720000000.0 -0.2638940615397812 0.3704615394735657
740000000.0 -0.20159021758640897 0.3650633928421145
760000000.0 -0.12169605912391958 -0.3774938654652537
780000000.0 0.10946386833000052 -0.3576770581639709
800000000.0 0.24837700884469766 -0.23945688121738717
820000000.0 -0.20221127455147528 0.216350395142704
840000000.0 -0.08940055246311587 0.20368175033644015
860000000.0 0.01767487279832777 0.17614564454058718
880000000.0 -0.024272304996015234 -0.13944805289009873
900000000.0 -0.0515763610023459 0.07036811878388254
920000000.0 0.046182500899634556 0.013472221736962449
940000000.0 0.011174244756386167 -0.0263012096029094
960000000.0 -0.031344108259075104 0.005761905053061164
980000000.0 0.03751952825554116 -0.03849071392990477
1000000000.0 -0.07319594368136019 0.054731909883763905
1020000000.0 -0.08838392819697666 0.07961607865971487
1040000000.0 0.03901556197308461 -0.1272925099424739
1060000000.0 -0.14457294476337473 0.07472206769451922
1080000000.0 -0.18687010404745263 -0.03990895082707104
1100000000.0 -0.14685005855110309 -0.15776370284933888
1120000000.0 -0.04810921216476342 -0.22780165303497799
1140000000.0 0.2202670855359087 0.12048303259956412
1160000000.0 -0.2143910754242075 0.16465680813145425
1180000000.0 0.11819310175606203 -0.27612130547596686
1200000000.0 -0.12612241899243504 0.3185582541530267
1220000000.0 0.009527277078041364 -0.3792153651413204
1240000000.0 0.4042841151573307 0.029714499705963553
1260000000.0 -0.3777567245032545 0.17323357075511378
1280000000.0 -0.04013233134533723 0.4226232859034326
1300000000.0 0.42071091265262706 -0.06697324303300063
1320000000.0 0.41863546710713245 0.0695152219366206
1340000000.0 -0.04534302575496328 0.4312857986894319
1360000000.0 0.25357961312969496 0.36469816348636874
1380000000.0 0.161600861175631 -0.4083953648074574
1400000000.0 -0.23456108531616118 -0.3591014947108758
1420000000.0 0.05781758834572903 0.40474643653227704
1440000000.0 0.2459910930685867 -0.28827413695999576
1460000000.0 0.002796904473986286 -0.3452570329887829
1480000000.0 -0.3126207064160588 0.005276031441429274
1500000000.0 -0.001547170855857082 0.27935410041771497
1520000000.0 -0.20105348917281068 0.14822098124489408
1540000000.0 0.06762986819877949 0.21209872362973387
1560000000.0 -0.15375492466414387 0.11951569239787797
1580000000.0 -0.17446109746918415 -0.0018936978900649204
1600000000.0 0.027565868843762248 0.13731932759047294
1620000000.0 0.04937946743078219 -0.09054636201500843
1640000000.0 -0.07986048901432025 -0.006461431614118237
1660000000.0 0.05298755167723524 0.041387231999625566
1680000000.0 -0.02818566431539664 -0.034954579600156965
1700000000.0 0.009206281433545507 0.020564363627763857
1720000000.0 -0.004361477267365295 0.004830447533117873
1740000000.0 0.0019143058968443788 0.01267634256820314
1760000000.0 0.011073563646723137 0.026231404635240516
1780000000.0 0.053825098947362246 0.006767834327800535
1800000000.0 0.0906097014146233 0.036387142900363836
1820000000.0 -0.09877952700583345 -0.08183215139683518
1840000000.0 0.12378575526921605 0.10544363756917116
1860000000.0 0.14786249625810982 0.13518944434541122
1880000000.0 0.23318834862594714 -0.02123436897679661
1900000000.0 0.10021556347084802 -0.25649568774411535
1920000000.0 0.31387730852145174 0.05865715654116353
1940000000.0 -0.10021076989010862 -0.33053261800333855
1960000000.0 -0.37380906581246676 -0.0038502604942113015
1980000000.0 0.386652841202976 -0.11622374029353895
2000000000.0 -0.2800570085081356 -0.31190774059804705
2020000000.0 -0.41050361646062233 -0.10746330555702134
2040000000.0 0.00963217788272914 0.42926305502795375
2060000000.0 0.0754731604574088 0.4257071185043832
2080000000.0 0.25211313827988 0.35086732621192546
2100000000.0 0.03984572209137672 -0.4254558119443408
2120000000.0 -0.13901781766772198 -0.3912038916792632
2140000000.0 0.006207168348307441 -0.39786089516436957
2160000000.0 0.2876655717777192 -0.25273579349863157
2180000000.0 0.2808456128857801 -0.24264779577433157
2200000000.0 0.23608551350612678 -0.2712432110705266
2220000000.0 -0.3299659069544652 -0.11805502774109813
2240000000.0 -0.3066319350118997 -0.15894933202416528
2260000000.0 -0.34175598767064735 0.04232436416648074
2280000000.0 0.2859897752034815 0.1952089240891528
2300000000.0 0.29817362561586674 0.18987352322785503
2320000000.0 0.2966499953439198 0.23117663601831348
2340000000.0 -0.18979472643981268 -0.3632752372166347
2360000000.0 -0.4487484025044297 0.014794855501904163
2380000000.0 0.24736268707905038 0.43310399331194477
2400000000.0 -0.42886905091157546 0.3572990709408782
2420000000.0 0.4770710710523441 -0.3798311995827555
2440000000.0 -0.4597571102505026 0.4682399589459656
2460000000.0 -0.6943169491169446 -0.09138956116982247
2480000000.0 0.7089959661774047 0.18005340316314145
2500000000.0 -0.4617556255949343 -0.5947156364047068
2520000000.0 0.656547378937125 -0.3937798308743691
2540000000.0 -0.668543312312894 -0.3806158813880488
2560000000.0 -0.2538749548085882 0.7224553876310773
2580000000.0 -0.16496846503774049 -0.7332174678100983
2600000000.0 -0.7006631853531049 0.2036449830697673
2620000000.0 0.19071227253658743 0.6766062744235494
2640000000.0 0.3642848789829865 -0.5569652335381438
2660000000.0 -0.56501347637353 -0.26696802698979966
2680000000.0 -0.08719068214420606 0.5728615583248178
2700000000.0 -0.35924063416091123 -0.38742652734033906
2720000000.0 -0.02698538796316437 0.4806335073753483
2740000000.0 0.40137279352972616 -0.16106801495727396
2760000000.0 -0.28687005189764025 0.26303883032059855
2780000000.0 0.3582176938000762 0.012194835911966184
2800000000.0 -0.2785872164175175 -0.18405983013736532
2820000000.0 0.09032480263551591 -0.3003684919097552
2840000000.0 0.08495769282483502 0.2926443419758393
2860000000.0 -0.24759020179855656 -0.16108448590547225
2880000000.0 0.08322827704577326 -0.27774979011154544
2900000000.0 -0.26937376200037383 -0.10441307254229086
2920000000.0 -0.24518141647115446 0.16767608849556334
2940000000.0 0.1358373263197491 -0.27788627346178335
2960000000.0 -0.26586502381336224 -0.17283240267502523
2980000000.0 -0.3139172513969027 -0.05262959893635822
3000000000.0 -0.26491035644888483 0.17342643336614907
3020000000.0 0.3193837962638758 -0.009306633140060644
3040000000.0 0.31354076359711514 0.060977005500125
3060000000.0 0.22252198569006584 0.21958667139857757
3080000000.0 0.23164936363210092 -0.19371672186979577
3100000000.0 -0.20351762039471283 0.21105893867726963
3120000000.0 -0.04154331695094045 -0.2851207773474746
3140000000.0 -0.27940398494241725 0.005603572399581514
3160000000.0 0.1127865734069324 -0.24277295251183212
3180000000.0 -0.1671502357250766 0.18851259537307619
3200000000.0 0.16561029624367068 -0.1673391429957392
3220000000.0 0.04475097699336291 -0.20317900014449555
3240000000.0 -0.000654088660017299 -0.17373886444531142
3260000000.0 0.08479299112102053 0.11532940750452379
3280000000.0 -0.07705870728641834 -0.06694179681177499
3300000000.0 -8.056251549895325e-05 0.07138221274995322
3320000000.0 -0.0049469019601377905 0.04500921877034045
3340000000.0 -0.022682528503017305 0.007357542636270241
3360000000.0 0.006715367073688512 0.0038903560069812443
3380000000.0 -0.0006138969698558143 -0.003578346777801395
3400000000.0 0.013227747538104878 0.008886606779608622
3420000000.0 0.03341217602089102 -0.002049347876710457
3440000000.0 0.02072174406330458 -0.0436990591120838
3460000000.0 0.03218481960870967 -0.0549002131322451
3480000000.0 0.05083682107494293 0.05786150529238445
3500000000.0 0.05522409466818867 -0.06860883779268652
3520000000.0 0.08453505925156414 -0.055261881874613734
3540000000.0 -0.10297019089522737 0.04576102356558637
3560000000.0 0.08908215545861833 0.078163622350737
3580000000.0 0.1331859457108727 -0.016687429530373256
3600000000.0 0.09754494037004834 0.12129100670066455
3620000000.0 -0.13653408590574057 -0.09563977568743903
3640000000.0 -0.15529912906836676 0.09579707320448506
3660000000.0 -0.12480324775158488 0.1417976506207081
3680000000.0 -0.09939786057462527 -0.16243247102598476
3700000000.0 -0.08835243436444175 -0.16972995055480705
3720000000.0 0.1217220747177496 -0.1460645305824701
3740000000.0 0.11552677467407109 0.1456570426960742
3760000000.0 -0.009308609161065585 -0.1835330742991993
3780000000.0 0.16825153529647593 0.05919436461637695
3800000000.0 -0.1663737475235477 -0.03521543861929244
3820000000.0 0.01765234973905124 0.15563167701829514
3840000000.0 -0.1390230568178682 0.041665489226961956
3860000000.0 0.008814409021258405 -0.14255657875407035
3880000000.0 0.1272044126266846 0.07333321945814956
3900000000.0 0.002392339720522873 0.15396161853178253
3920000000.0 0.15856725105547673 -0.02523334389784599
3940000000.0 0.04324397514091093 0.16609656028243017
3960000000.0 0.12306914665550255 0.1291426394359303
3980000000.0 0.148192056068154 0.09382932098282933
4000000000.0 0.16423202712857896 -0.02936665644103701
