!Created with skrf (http://scikit-rf.org).
# Hz S RI R 50.0 
!freq ReS11 ImS11
400000000.0 0.8205936177631741 0.2926441985878681
420000000.0 0.6383417220127476 -0.555700096293647
440000000.0 0.32170506101269825 -0.720268024440305
460000000.0 0.7314921800685968 0.012181850185865019
480000000.0 0.06887099066046057 -0.6785178966461451
500000000.0 -0.12486577183701025 0.5862030971493966
520000000.0 0.34806936156422025 0.36676915814931565
540000000.0 -0.2192163041745596 -0.382840274388578
560000000.0 -0.18311683415615265 0.35551297721475567
580000000.0 -0.36477550152176386 0.028790134943777294
600000000.0 0.22211296395047678 -0.2801685102010286
620000000.0 -0.3509431428638853 -0.061028118727729126
640000000.0 -0.1718271795090821 -0.3708913734422855
660000000.0 -0.03952093402101769 0.4153083059629368
680000000.0 -0.4006504968877881 0.1989469203315258
700000000.0 0.4474011576669579 0.08272801514987396
720000000.0 -0.45962040432108653 -0.030126481997730162
740000000.0 -0.22110128550886055 0.3715618257198685
760000000.0 -0.219795069380068 0.34342633552571045
780000000.0 -0.36995040991590494 -0.03445074635479858
800000000.0 -0.31255212660433196 0.11076153131397198
820000000.0 -0.2258517214438742 0.16953145004678408
840000000.0 0.025341159542388837 -0.21378637971679512
860000000.0 -0.1695434629644564 0.059060658639422677
880000000.0 -0.13860149257062945 -0.04095557019619956
900000000.0 -0.07435660055150553 0.04801074419676032
920000000.0 -0.04605762915664543 0.000476264648868555
940000000.0 -0.02858838582345618 0.02058955821162849
960000000.0 -0.024269802238193708 0.034286363433134584
980000000.0 -0.014303940253746423 0.06840826762078088
1000000000.0 -0.04473530071016474 0.09391067823755679
1020000000.0 -0.035341033441623065 0.11740540054911336
1040000000.0 -0.01311294413274209 -0.1294061532631494
1060000000.0 -0.020619831131747413 -0.15058374308055678
1080000000.0 -0.16685889932424117 -0.041575188378270046
1100000000.0 0.16172111223654587 0.12157973089713191
1120000000.0 -0.08247105769839211 0.21815262451889791
1140000000.0 -0.18190291307598755 -0.18329160701366817
1160000000.0 -0.23415151859951086 0.16928884796626167
1180000000.0 -0.2470173982265511 0.200541075011936
1200000000.0 0.041048701282216785 -0.3444356087367634
1220000000.0 0.06050133538231157 0.36711797791391837
1240000000.0 0.14331273672320013 -0.36353054123283735
1260000000.0 -0.3676687609965699 -0.16719370345507995
1280000000.0 -0.2826881438100074 0.31115402675603904
1300000000.0 0.2229277020179085 0.36680087917807186
1320000000.0 0.30861948386669574 0.3076388601153895
1340000000.0 0.4019127933735175 0.19294081949829023
1360000000.0 0.3779375525390397 -0.2456543433866653
1380000000.0 -0.3419719205292857 -0.2771837041014003
1400000000.0 -0.34306302824453083 0.24760599379757162
1420000000.0 0.2854915418032102 0.2797555470562241
1440000000.0 0.36985665125384803 -0.01523485927458635
1460000000.0 0.3177885110405379 -0.12829883931722288
1480000000.0 -0.2551608638936529 -0.1892615648271143
1500000000.0 0.0425528010359185 0.28253341035388474
1520000000.0 0.11580600085134876 0.2222325379455218
1540000000.0 -0.1023382199062684 -0.19230465204005115
1560000000.0 -0.05042579087431943 0.18205993657476033
1580000000.0 -0.16617407755397381 0.01953807362783401
1600000000.0 0.061250130505912485 0.12309113932642106
1620000000.0 0.10054573339488365 -0.03269812864227911
1640000000.0 0.07333443738434667 0.03699281375965294
1660000000.0 0.06400797382369688 -0.019601140334118496
1680000000.0 0.03401154193661137 0.027210680027124533
1700000000.0 0.01854148871124291 0.01206927826218761
1720000000.0 0.003207200193014827 -0.0008960073614831459
1740000000.0 0.01155561655093389 -0.013414908476642368
1760000000.0 0.00579069785752372 -0.03451907027225578
1780000000.0 -0.04404083028420353 -0.03533746536065767
1800000000.0 -0.003990626637885546 -0.09370994423991316
1820000000.0 -0.11609752278880499 0.051983426316479904
1840000000.0 0.1627018275383985 0.03577204566863371
1860000000.0 0.002314951385233436 0.20197139614314677
1880000000.0 0.2207370680724781 -0.0956173221587562
1900000000.0 -0.27819591541726796 0.05980375510395261
1920000000.0 0.2562460861934903 -0.19496422185497825
1940000000.0 -0.344949344325513 0.034782961393098104
1960000000.0 0.011132941999723402 0.3714528756217836
1980000000.0 0.39658896290305656 -0.06557288626459638
2000000000.0 -0.35289824631264183 -0.22788947071792562
2020000000.0 -0.3091832416322111 0.29756186392802514
2040000000.0 0.16957869458629268 0.40193867305754827
2060000000.0 0.4359838733630609 -0.026664697437568163
2080000000.0 0.16151771814161037 -0.4001965706938408
2100000000.0 -0.1761498861481968 -0.3870850768269805
2120000000.0 -0.35373477178454604 -0.21286862522965266
2140000000.0 -0.37032204810827435 -0.1422416160750017
2160000000.0 0.33124875057114944 -0.19807520545291518
2180000000.0 0.13745013980039594 -0.35089094429515805
2200000000.0 -0.25716254577465925 -0.26027906596973416
2220000000.0 -0.34772377090353085 0.07824264528993685
2240000000.0 -0.2083494389850204 0.2822904262407756
2260000000.0 0.16157773526349878 0.31120289555365993
2280000000.0 0.34950507192581454 0.0270672350333131
2300000000.0 0.30227172937054064 -0.19348166558493463
2320000000.0 0.07448926874370483 -0.37778716488368463
2340000000.0 -0.4020862139358076 -0.11273469348152841
2360000000.0 0.05028641119493015 0.4570290191119588
2380000000.0 -0.04237602151364144 -0.5116734040099885
2400000000.0 0.38720484780014697 0.41406035302400646
2420000000.0 -0.616146115358297 0.04001932164807425
2440000000.0 0.4188854314921239 -0.51332939153993
2460000000.0 0.03154917263289458 0.6998789896740496
2480000000.0 -0.40584343958998775 -0.6075829567354772
2500000000.0 0.48404740832907234 0.5720492328494456
2520000000.0 -0.39230245029507643 -0.6508013094234238
2540000000.0 0.05837985668048734 0.7591286866517425
2560000000.0 0.4280885799679719 -0.6217738078009815
2580000000.0 -0.7401230797039928 -0.011030488267199748
2600000000.0 0.4748606593735116 0.5361149878878579
2620000000.0 0.14479312316160647 -0.6719571870319881
2640000000.0 -0.3190421333534628 -0.56799471212928
2660000000.0 -0.19368200080487175 0.577042357423312
2680000000.0 0.5014526533428612 -0.25449632770700914
2700000000.0 -0.4848147108230039 -0.17364548199853408
2720000000.0 0.35510702796105326 0.30538481062680206
2740000000.0 -0.17013930484579376 -0.38390241644240314
2760000000.0 -0.17654490178928559 0.3371126660043128
2780000000.0 0.19802696502405523 -0.28532614751215235
2800000000.0 -0.15729668001389702 0.2805460913715517
2820000000.0 0.13464495995588335 -0.2711961651957228
2840000000.0 0.11436652276073939 0.271952478366773
2860000000.0 -0.2877663299444637 -0.025203050184893664
2880000000.0 0.18356453410432405 -0.22033219955675246
2900000000.0 -0.2430160365321314 0.15114829280677303
2920000000.0 0.21879937843126313 0.1940131956217153
2940000000.0 0.050032277504705416 -0.29928791510099145
2960000000.0 -0.3074188491573687 0.042421351232645274
2980000000.0 -0.1325963778782737 0.2827312108098733
3000000000.0 -0.258237682236898 0.17621383181204983
3020000000.0 -0.25638179907434333 -0.18396739662038467
3040000000.0 -0.0704394302291683 -0.30530522101380225
3060000000.0 0.2898838743965038 0.0972183507631673
3080000000.0 -0.25292059246641707 -0.15052854547152303
3100000000.0 0.019407350599559968 0.28653658602590004
3120000000.0 0.016920345364918307 -0.283340535858063
3140000000.0 0.08107128773487698 0.2641721863290712
3160000000.0 -0.20363881910558979 -0.17104742678703153
3180000000.0 0.0710139143457205 0.24251529539616945
3200000000.0 -0.09452505694774634 0.21179367839095983
3220000000.0 -0.14557894450546904 0.14069266876582923
3240000000.0 -0.14427993271218664 -0.08861977500581326
3260000000.0 0.1068114011644969 -0.07798434060993073
3280000000.0 0.07456211758908204 -0.06165585297447267
3300000000.0 0.07224554080792238 -0.008827026686253566
3320000000.0 -0.03659433072061647 0.03105946394308402
3340000000.0 0.029297032793291176 0.008852440327326312
3360000000.0 0.011573670189057618 0.00516017596981143
3380000000.0 0.003250140963311585 0.0020215934207488823
3400000000.0 -0.009988689684540407 0.01634227501319305
3420000000.0 0.019781343625199368 -0.029583200390594217
3440000000.0 0.03449498253437589 0.03264912323593449
3460000000.0 0.003434392634282291 -0.05821724691365384
3480000000.0 0.06435786626837965 -0.017530698479372452
3500000000.0 0.06679626380214349 0.051816032272136485
3520000000.0 -0.012685800148240665 0.09973842253796096
3540000000.0 -0.08345163914835753 -0.07936068311485465
3560000000.0 0.08172992075112064 -0.09520024515785434
3580000000.0 -0.13083884700651155 0.039803853392139904
3600000000.0 0.05368089142428499 -0.14123352854347238
3620000000.0 0.044792162736820997 0.15601963998762175
3640000000.0 -0.09678280055276674 0.14739890222162566
3660000000.0 -0.08374736172941558 -0.16474408258280257
3680000000.0 0.004286061181325848 -0.19357123268819976
3700000000.0 -0.10264027336155084 -0.1665232997498695
3720000000.0 -0.05348925042997303 -0.18618498086490537
3740000000.0 0.1426623287224044 -0.11740677490146503
3760000000.0 -0.17321503569637417 -0.0499649798013037
3780000000.0 0.1534432233831093 0.08161479910482049
3800000000.0 -0.14647188862484856 -0.07686716807382482
3820000000.0 -0.11057537115802851 0.11011178879185084
3840000000.0 -0.13523805080763274 -0.05825533283760268
3860000000.0 0.011046233698472751 -0.14640452191107217
3880000000.0 0.11461695270567496 -0.0949778030112126
3900000000.0 0.14098427402637245 0.05798559954620067
3920000000.0 0.023392971672058355 -0.16113496291854856
3940000000.0 0.15507086618959132 0.07133159008445351
3960000000.0 0.17502390646001514 0.02670214812255438
3980000000.0 0.12947473974118387 -0.11686796275656494
4000000000.0 0.09523816220059425 -0.13676824043898578
