!Created with skrf (http://scikit-rf.org).
# Hz S RI R 50.0 
!freq ReS11 ImS11
400000000.0 0.7966221001795152 0.35237155037263945
420000000.0 0.6629342048516373 -0.5249793834916529
440000000.0 0.33550729707737 -0.7140004051282742
460000000.0 0.7311400247542115 0.020074532993545502
480000000.0 0.09464558473938577 -0.6751343973860616
500000000.0 -0.11423451415298624 0.5879886365696358
520000000.0 0.35007923258164125 0.3647248224613452
540000000.0 -0.20585202422070534 -0.3902365648969775
560000000.0 -0.18973613593575062 0.35246314977443033
580000000.0 -0.36594004755983467 -0.013366033485013718
600000000.0 0.2482435911182531 -0.2567252022835976
620000000.0 -0.33524558787334313 -0.12022647843440877
640000000.0 -0.13300930731842645 -0.38631219965436875
660000000.0 -0.04823983305498311 0.4138292314948543
680000000.0 -0.40673463664367027 0.1850369747600894
700000000.0 0.4475673515499063 0.07963709968002686
720000000.0 -0.46039709275218765 -0.019728617834873306
740000000.0 -0.23336598185109023 0.3643503985179186
760000000.0 -0.20647241622688334 0.35154026578767605
780000000.0 -0.3706063728403495 -0.027968076305587952
800000000.0 -0.31102225224718644 0.11522040638312711
820000000.0 -0.22759511271079202 0.16784054332100082
840000000.0 0.05697829161081662 -0.20788393594429372
860000000.0 -0.17922190423735293 0.01055514125929793
880000000.0 -0.11001333918628022 -0.0927894432069199
900000000.0 -0.08706659154910537 0.007937728926713763
920000000.0 -0.04469550397715319 0.006615628129809619
940000000.0 -0.027161051170716856 0.021693708347738275
960000000.0 -0.01807916163133366 0.03777931761647722
980000000.0 -0.016946155897972638 0.0680609715971855
1000000000.0 -0.05547025956003311 0.08798874130861482
1020000000.0 -0.05429245191642511 0.11036920299356381
1040000000.0 0.021244294020665692 -0.1282607425299653
1060000000.0 0.01754585008420252 -0.15067323620526554
1080000000.0 -0.15456392948245098 -0.07447080970071912
1100000000.0 0.14700080611587207 0.13852978429810148
1120000000.0 -0.058643851273820935 0.22527750707031632
1140000000.0 -0.17567214708404086 -0.18839189169597348
1160000000.0 -0.23552586474268658 0.1661179016312014
1180000000.0 -0.24155672388955687 0.2060330304636226
1200000000.0 0.032503685439847156 -0.3445691435426376
1220000000.0 0.0412757948549528 0.3697613051458648
1240000000.0 0.14919234670479947 -0.3612327256216541
1260000000.0 -0.36237941735005497 -0.17889668061879885
1280000000.0 -0.2883561142769965 0.30607088867245913
1300000000.0 0.23035599401396875 0.3625013742358386
1320000000.0 0.30837437828057934 0.30794903002010154
1340000000.0 0.4001036900302346 0.19664772566285788
1360000000.0 0.3884508405595366 -0.22889901298152474
1380000000.0 -0.3267922678707878 -0.29511395724843403
1400000000.0 -0.3437672773177188 0.24688385161342274
1420000000.0 0.27686188742045065 0.2886625695136238
1440000000.0 0.3699260229352674 -0.014621193317949744
1460000000.0 0.32152917221616767 -0.1193245351710008
1480000000.0 -0.2494351711637247 -0.1974508728519646
1500000000.0 0.03143848504870573 0.2839381438747807
1520000000.0 0.09705413455440015 0.23118547364118952
1540000000.0 -0.07930107581610409 -0.20283482325670935
1560000000.0 -0.07046810215314928 0.1754287458124834
1580000000.0 -0.16741387250326892 -0.0092057700789925
1600000000.0 0.013939942510072988 0.13649591323021948
1620000000.0 0.10549683345898596 -0.00023689892443797973
1640000000.0 0.06541803325700613 0.048927810197753954
1660000000.0 0.06108591443897509 -0.02649278876859635
1680000000.0 0.04210805672918344 0.010287548841695773
1700000000.0 -0.013652574603878384 -0.01750303326269999
1720000000.0 0.002480565081855996 -0.0011298869405751899
1740000000.0 0.0031130953138648835 0.016906489017689503
1760000000.0 0.015300904947942135 -0.031175924333212104
1780000000.0 -0.0282771203178273 -0.04793693651512414
1800000000.0 0.003540164186728845 -0.09412123551011994
1820000000.0 -0.12092417929457804 0.03588613087265267
1840000000.0 0.1646450197534955 0.024346547764605115
1860000000.0 0.014647658652181489 0.20143529122918402
1880000000.0 0.2189214741838196 -0.09954499238246182
1900000000.0 -0.27778413485671694 0.061561309769484256
1920000000.0 0.2502529644884002 -0.20221461692966508
1940000000.0 -0.34374661171042525 0.04627677211129921
1960000000.0 0.007056779477334665 0.37174914734183107
1980000000.0 0.3967171376136575 -0.06502645944719997
2000000000.0 -0.3472954233118642 -0.23644960401293896
2020000000.0 -0.3002817198451464 0.3061891789935225
2040000000.0 0.14495172898741168 0.4112337260007047
2060000000.0 0.4365574328507381 -0.011193246054155672
2080000000.0 0.1563667967691859 -0.40218520829836646
2100000000.0 -0.15413380752162886 -0.39597510458079566
2120000000.0 -0.3350517791437653 -0.24150302990338612
2140000000.0 -0.3719815736996331 -0.13747878373345224
2160000000.0 0.345664067196132 -0.1716706701899529
2180000000.0 0.12067531995199947 -0.35739612987679686
2200000000.0 -0.25421885011432144 -0.26391637318988975
2220000000.0 -0.355512982712459 0.03510489682930538
2240000000.0 -0.20288172847602462 0.28716092786400077
2260000000.0 0.1644282536393665 0.3103518807624776
2280000000.0 0.34762241526412546 0.048489862092923074
2300000000.0 0.31550136640375614 -0.1726270562363303
2320000000.0 0.10305129171722102 -0.3712607405870923
2340000000.0 -0.3894638135266667 -0.15261258737109828
2360000000.0 -0.02129849732346983 0.45976708102563735
2380000000.0 0.045948077394862626 -0.5111058477731482
2400000000.0 0.33428846103690574 0.4582042168925002
2420000000.0 -0.6169692320479453 0.021396662597807217
2440000000.0 0.42318535434342797 -0.509303196272444
2460000000.0 0.02012911699608118 0.7003902542205289
2480000000.0 -0.42824940886762364 -0.5915928785643322
2500000000.0 0.46945958187225273 0.5838920607563878
2520000000.0 -0.38422312075631476 -0.6557587392686265
2540000000.0 0.1162182549931172 0.7524679036087556
2560000000.0 0.3734075278825267 -0.6569430437113644
2580000000.0 -0.7410845251097113 0.013046209757232963
2600000000.0 0.47170205809285476 0.5409515862417533
2620000000.0 0.12466295452348598 -0.6773257464984774
2640000000.0 -0.2537696642152652 -0.6012896979176539
2660000000.0 -0.2781639383857768 0.543072235194491
2680000000.0 0.5105670795507286 -0.23827853751393896
2700000000.0 -0.4614042840603991 -0.23170969059606855
2720000000.0 0.31665116975873475 0.3466101851388153
2740000000.0 -0.13217140736137734 -0.3995909661206768
2760000000.0 -0.22119578965414508 0.3103646404281
2780000000.0 0.23480129213632678 -0.2566142286486509
2800000000.0 -0.19336851481038075 0.25769542718479754
2820000000.0 0.19166595997934643 -0.2351563363400113
2840000000.0 0.05450291934091063 0.28974619752797054
2860000000.0 -0.28065020592654405 -0.06623790492283109
2880000000.0 0.21468030434136295 -0.18893611244268288
2900000000.0 -0.25844014185997005 0.12140945714329582
2920000000.0 0.19814749720657132 0.21428326906142803
2940000000.0 0.05150264197399923 -0.298309191987844
2960000000.0 -0.3048918273258888 0.057684699520064844
2980000000.0 -0.09410998005524575 0.29725292585955926
3000000000.0 -0.2546999417800264 0.18013532977712723
3020000000.0 -0.2883112106356016 -0.12778421088481665
3040000000.0 -0.07305232190850681 -0.3043307289198398
3060000000.0 0.30581775311315423 2.9622381838179584e-05
3080000000.0 -0.27722630208139437 -0.09998217919259157
3100000000.0 0.05258784087906849 0.2828578230250322
3120000000.0 0.0012904948695750963 -0.28400003593669176
3140000000.0 0.12912861020835661 0.24467962038522256
3160000000.0 -0.2165615459061313 -0.15324701825467885
3180000000.0 0.10991038982315587 0.22764917203297177
3200000000.0 -0.06005767337443329 0.22446445021002734
3220000000.0 -0.13149844398363097 0.15539935518149461
3240000000.0 -0.16433409662407908 -0.04225491299401063
3260000000.0 0.09141430039668691 -0.09661775876755545
3280000000.0 0.05758115345223002 -0.07902215919217698
3300000000.0 0.043357621477051037 -0.05931931892113383
3320000000.0 -0.012680905527487116 0.0468422498610237
3340000000.0 0.023754974068506643 -0.020918590079671152
3360000000.0 -0.0016718102594154168 0.013703302099226246
3380000000.0 0.0017376133498936096 0.0019972859791953157
3400000000.0 0.0001854847544129153 -0.01781168179195049
3420000000.0 0.034285923012356466 0.003303612397004922
3440000000.0 0.021384777373449206 0.04141349079850877
3460000000.0 0.021371174271992904 -0.05244529453405506
3480000000.0 0.052751609763656705 -0.03760554679892151
3500000000.0 0.08023735393085131 0.021063231450059595
3520000000.0 -0.010770183853863323 0.09748152518604042
3540000000.0 -0.08742810451226145 -0.07158435078321175
3560000000.0 0.014803120735889515 -0.12273657179637013
3580000000.0 -0.11678777993169209 0.06634322552197568
3600000000.0 -0.019132292490648656 -0.14797194446321751
3620000000.0 0.11038009825892689 0.11725892271310501
3640000000.0 -0.050544608503315165 0.16733599105256078
3660000000.0 -0.1358173023953888 -0.12384182088483289
3680000000.0 -0.08150818585184194 -0.17485041631539253
3700000000.0 -0.17304580338906683 -0.09212105616413073
3720000000.0 -0.13558577758109464 -0.1388585970764927
3740000000.0 0.062022631637939446 -0.17486286041274526
3760000000.0 -0.1775627996217922 0.035667582841941464
3780000000.0 0.17393910324891332 -0.014186740053498667
3800000000.0 -0.16644891956916574 -0.009484943897895788
3820000000.0 -0.07971587385610417 0.1361118653359143
3840000000.0 -0.1417259464487635 0.0444064417139776
3860000000.0 -0.03433479012760265 -0.14474639710580714
3880000000.0 0.05854372488132785 -0.13870366551686403
3900000000.0 0.1502567502805145 0.03838958608112187
3920000000.0 0.03227886527881139 -0.16166447085586347
3940000000.0 0.15996852692141886 0.06504805624237743
3960000000.0 0.1780287003763005 0.017840008046519296
3980000000.0 0.09892157887740557 -0.14509234829454257
4000000000.0 0.04724527319423052 -0.16103480508978418
