!Created with skrf (http://scikit-rf.org).
# Hz S RI R 50.0 
!freq ReS11 ImS11
400000000.0 0.8112068752466647 0.3151997107612485
420000000.0 0.6484260127593542 -0.5436304511805371
440000000.0 0.3143939315915255 -0.7242283747925321
460000000.0 0.7317680413232819 0.01857318554660153
480000000.0 0.07571878335673606 -0.6776285794575897
500000000.0 -0.11124343417264267 0.5885705802676555
520000000.0 0.34524874312133536 0.3689764766014186
540000000.0 -0.20346997947871212 -0.39119078853700995
560000000.0 -0.18577317254438447 0.35436947759925264
580000000.0 -0.36588746495267177 0.00953621676881329
600000000.0 0.22790621182128853 -0.2749342317429758
620000000.0 -0.35383622649855545 -0.03996584524572285
640000000.0 -0.16157891605464736 -0.37539592823802304
660000000.0 -0.006514238425083965 0.4163870395983023
680000000.0 -0.4105572799048875 0.1779376196612315
700000000.0 0.445491541110074 0.09197069584615866
720000000.0 -0.46066995653872395 0.007532386570346149
740000000.0 -0.2534979331197507 0.35054049967601975
760000000.0 -0.2321580577028758 0.3351549934629639
780000000.0 -0.37084516760703423 -0.022943464302882858
800000000.0 -0.31356599655390627 0.1084669358343877
820000000.0 -0.2299566576276956 0.16449085953295725
840000000.0 0.061730475962248836 -0.2066340629337656
860000000.0 -0.1753712421349264 0.03791539434655947
880000000.0 -0.13358461847239073 -0.05515005541891545
900000000.0 -0.07910273777224643 0.03890819570793521
920000000.0 -0.04498377450075786 0.011392582455089723
940000000.0 -0.036008571523400285 0.0004820713140919712
960000000.0 -0.041890852082216365 -0.0012270326651772048
980000000.0 -0.03561988874338982 0.059761708878374724
1000000000.0 -0.05474564682645493 0.08821082417156115
1020000000.0 -0.030044843596810648 0.1191644800640049
1040000000.0 -0.005457924224521489 -0.13002270439329625
1060000000.0 0.007815792149004512 -0.1516773678723922
1080000000.0 -0.16389649193330377 -0.05265011958496982
1100000000.0 0.15715954334001553 0.12727152185009588
1120000000.0 -0.08986438706905249 0.2148313274909706
1140000000.0 -0.19505045199794124 -0.1677126066737654
1160000000.0 -0.23629168994346003 0.165524040224791
1180000000.0 -0.2483415487755708 0.1981360930757498
1200000000.0 0.06553789543329955 -0.34004626966585055
1220000000.0 0.056282461958774385 0.3679991600486249
1240000000.0 0.13434521543155117 -0.3666917735418563
1260000000.0 -0.36099804067807006 -0.18116605351021314
1280000000.0 -0.28907741256268393 0.3058481018247535
1300000000.0 0.2205738873292707 0.3685249248792955
1320000000.0 0.29541075860059796 0.320590395998937
1340000000.0 0.3922328654387851 0.21151015085277608
1360000000.0 0.3873799062676174 -0.23048706457665105
1380000000.0 -0.3344648497541591 -0.28613313652785316
1400000000.0 -0.34886157603323864 0.23945604579031593
1420000000.0 0.27920957333691954 0.28605703284396494
1440000000.0 0.3695958972647898 -0.014380662207217792
1460000000.0 0.3161808705885834 -0.13235831733137957
1480000000.0 -0.2533502978621292 -0.19219641171735516
1500000000.0 0.04724485495880654 0.28206570587744595
1520000000.0 0.11429210403662918 0.22314268557868638
1540000000.0 -0.06864968910500771 -0.20707249252311788
1560000000.0 -0.05250178656181914 0.18160846000243688
1580000000.0 -0.1673121008856916 0.007569506722333235
1600000000.0 0.05310199350902901 0.12666589688164523
1620000000.0 0.10184878467844018 -0.027805588820885806
1640000000.0 0.07152721916970689 0.03983215918739859
1660000000.0 0.04765527482567372 -0.047129930771180835
1680000000.0 0.043307786574500594 0.005513773192403785
1700000000.0 -0.007602835122674917 -0.021582465891567655
1720000000.0 0.0009736308994861609 0.0030388159957167515
1740000000.0 0.013319791834511343 -0.010620554623403793
1760000000.0 -0.008561793415612171 -0.03377933207562723
1780000000.0 -0.04668038845569817 -0.031100230524281444
1800000000.0 -0.016919244812173814 -0.09245713308134013
1820000000.0 -0.11759888257347112 0.04618275442175415
1840000000.0 0.16499229897679457 0.02193832026983539
1860000000.0 0.00286269762569507 0.20197755326781877
1880000000.0 0.2104949986033299 -0.11656535443648254
1900000000.0 -0.2779595521623952 0.06086712409919684
1920000000.0 0.25828874265215435 -0.1922455850869123
1940000000.0 -0.344826783532237 0.03538112122850205
1960000000.0 0.0041216922978508245 0.3717080258566033
1980000000.0 0.39528197278426763 -0.07147391224145912
2000000000.0 -0.358726822779406 -0.21878483350195752
2020000000.0 -0.29500482447415355 0.311399663407054
2040000000.0 0.163236509258932 0.4044586584575505
2060000000.0 0.43693830076086443 -0.009969134190900598
2080000000.0 0.17225594135037575 -0.3959949669497481
2100000000.0 -0.163369514615386 -0.3925189889701905
2120000000.0 -0.37285099181257475 -0.17733429434066855
2140000000.0 -0.3727996820556918 -0.1369141987822307
2160000000.0 0.33337222671433736 -0.19423589485588638
2180000000.0 0.09920498516538241 -0.3635251935336754
2200000000.0 -0.26259629775148985 -0.2549293110311125
2220000000.0 -0.34633956641113617 0.08448910886844964
2240000000.0 -0.1826069813606711 0.2998795467086978
2260000000.0 0.18246411869918033 0.30018631621115666
2280000000.0 0.3493641313175354 0.029333502853937057
2300000000.0 0.30999505462047866 -0.1814629247132057
2320000000.0 0.10193114126963905 -0.371252562926446
2340000000.0 -0.3900343173500614 -0.14959273530502307
2360000000.0 0.005811004301458096 0.4595897157221156
2380000000.0 0.021986828317482353 -0.5124686473630617
2400000000.0 0.36425050864578684 0.4339298190221225
2420000000.0 -0.6169249949930025 -0.00786523886698998
2440000000.0 0.4244560763679027 -0.5081484931878072
2460000000.0 0.02704226114341427 0.6997597229694535
2480000000.0 -0.4199456497014967 -0.5975289907825719
2500000000.0 0.5137966795897391 0.5453093679846539
2520000000.0 -0.3706778581675984 -0.6633875519541624
2540000000.0 0.11088934332703951 0.7529910843630095
2560000000.0 0.38918121329782696 -0.6474099486835506
2580000000.0 -0.7410392917610635 0.0007375188133423998
2600000000.0 0.47971839835656105 0.5330572478420417
2620000000.0 0.191291953254587 -0.6620963110318425
2640000000.0 -0.2693586427973084 -0.5948158216901435
2660000000.0 -0.28761413005494535 0.5384494225926251
2680000000.0 0.526749269116525 -0.2005020763048491
2700000000.0 -0.4534729646556796 -0.24575882767997054
2720000000.0 0.3216207746615972 0.34180845596982085
2740000000.0 -0.1011066680694239 -0.4085499572348487
2760000000.0 -0.22700263245377852 0.3061552204571215
2780000000.0 0.2466107384696419 -0.24523758626098716
2800000000.0 -0.18978005953976074 0.26011774091053635
2820000000.0 0.18250015439233883 -0.24154635149004144
2840000000.0 0.06534099833225364 0.28727597060054677
2860000000.0 -0.2786343548337919 -0.07542314679794776
2880000000.0 0.18034665861332017 -0.22144555098864468
2900000000.0 -0.25438961137932004 0.130124920962626
2920000000.0 0.2061908061360395 0.2062100407041224
2940000000.0 0.07660119492296157 -0.2933402059975999
2960000000.0 -0.3033546102407938 0.06102452101437678
2980000000.0 -0.08826798834394346 0.2991896455413448
3000000000.0 -0.24829999986621634 0.1894281674520072
3020000000.0 -0.27486898772320917 -0.1554978840745361
3040000000.0 -0.07406765285321719 -0.30439594441694406
3060000000.0 0.2965172184475129 0.0731111405659094
3080000000.0 -0.2748630695472305 -0.10691226774722709
3100000000.0 0.07777547457255386 0.27718453761718936
3120000000.0 -0.048902995519824945 -0.27975765039225714
3140000000.0 0.12763364529067253 0.24587401829773542
3160000000.0 -0.22212300602566679 -0.14686788251823446
3180000000.0 0.1003632117059497 0.2330831386885622
3200000000.0 -0.08740597151502011 0.21576743442017182
3220000000.0 -0.12243574392852265 0.16286525594617826
3240000000.0 -0.15088494985849282 -0.0801245259937706
3260000000.0 0.12283977698745051 -0.05322469761292945
3280000000.0 0.09541169486854381 -0.02326780758976649
3300000000.0 0.07038174257331674 0.021454258590111915
3320000000.0 -0.048372746990749275 -0.005493236831706399
3340000000.0 0.01381377595562032 0.027959330023537635
3360000000.0 -0.0075185707054113305 0.010729866721505731
3380000000.0 0.0005974088261714503 -0.002694421205599912
3400000000.0 0.01728318953996746 0.003743029758647288
3420000000.0 -0.017712467085966417 -0.029273008252297977
3440000000.0 0.03447372473092101 -0.030636469970546504
3460000000.0 -0.01924002417861461 -0.05339428243961731
3480000000.0 0.03235589133980358 -0.05683165173387052
3500000000.0 0.07986760730302579 -0.02231045235373556
3520000000.0 0.02775819270621038 0.09474053518835301
3540000000.0 -0.1029714598214838 -0.048045177682383894
3560000000.0 0.03728168823600421 -0.11822242476682551
3580000000.0 -0.11481367047325107 0.07135893606853153
3600000000.0 -0.004837150782036657 -0.14888710427936241
3620000000.0 0.10756570969696005 0.12028885205302013
3640000000.0 -0.02591212503492237 0.17380116754899075
3660000000.0 -0.1521106370509295 -0.10312118961283508
3680000000.0 -0.08875541489332671 -0.17098969551795093
3700000000.0 -0.16167282438421116 -0.10951608797508057
3720000000.0 -0.14186555514493035 -0.1319680077564501
3740000000.0 0.08256934619234982 -0.16543050293563535
3760000000.0 -0.17800230347167684 0.03243056829816668
3780000000.0 0.1745223160849098 0.005504038340588726
3800000000.0 -0.16485545598792925 -0.019140544815930118
3820000000.0 -0.05923364102443644 0.1457726547004748
3840000000.0 -0.14463147500485743 0.029466275836636458
3860000000.0 -0.07569623706064887 -0.12707523328396128
3880000000.0 0.056893405637053196 -0.13810056511100052
3900000000.0 0.15360784218820814 -0.009487725641921081
3920000000.0 -0.019672376848479386 -0.1618639727686468
3940000000.0 0.16996776597274116 0.028020628000223
3960000000.0 0.1782589956325317 -0.007794853335385189
3980000000.0 0.09385671606823531 -0.1488020887870751
4000000000.0 0.10232687996641816 -0.1343576679163499
