! Created with skrf (http://scikit-rf.org).
# Hz S RI R 50.0 
!freq ReS11 ImS11
400000000.0 0.20414880738739544 0.8494508267717678
420000000.0 0.6234017223473912 0.5924995725617307
440000000.0 0.7867241624242706 -0.2565687824839653
460000000.0 0.14952126214183223 -0.774542678741578
480000000.0 0.48305891466203604 -0.5192585668603719
500000000.0 0.1781582381182079 -0.5339312221167571
520000000.0 0.01839922218365806 -0.48716569446978775
540000000.0 0.4082852926148739 -0.11146897179310056
560000000.0 -0.2997170411900245 -0.18163542005885136
580000000.0 -0.27455735732578124 0.18520307554063772
600000000.0 0.2796375523114882 0.16699608132117427
620000000.0 0.048651177939131776 -0.34369462276415774
640000000.0 -0.21365712058221228 -0.3165337962544785
660000000.0 -0.39993969130046814 0.024282474148277396
680000000.0 -0.01622120469026096 -0.43038242507509
700000000.0 0.3286241176526973 0.3076283068188656
720000000.0 -0.0023523880157980295 -0.44872962940247346
740000000.0 0.40202535841013076 -0.17591918470776274
760000000.0 -0.3730002522423728 -0.18176874081402344
780000000.0 0.3263602176393769 -0.1995972195660491
800000000.0 -0.2042654196168478 0.28188229067853904
820000000.0 -0.17445764940575642 0.2334548779867771
840000000.0 0.0844601949429094 0.22192332607465423
860000000.0 -0.10873837674892615 0.17336856060117137
880000000.0 -0.14343496521584506 0.019525701952905383
900000000.0 0.06743181530398236 -0.041363131300685495
920000000.0 0.01719901708723832 -0.044456009449452535
940000000.0 -0.0012453070147452462 -0.042133140268708624
960000000.0 -0.03664985034688241 0.04108956852973006
980000000.0 0.06279553240235047 -0.005260283434693046
1000000000.0 -0.04230240228093637 -0.054073315757532506
1020000000.0 0.05519562221229034 0.05587431725732415
1040000000.0 -0.05464495365377275 0.05933366837263096
1060000000.0 -0.11030315587777519 0.037572731494389784
1080000000.0 -0.07766542101210497 0.10733720750943096
1100000000.0 -0.1305059687648251 -0.08965218478663407
1120000000.0 -0.1518187632081941 -0.11338091619733649
1140000000.0 0.1075714093229284 0.2120714268258585
1160000000.0 0.28249943718287346 -0.034410586302851605
1180000000.0 -0.07519956662099862 -0.3219876228038464
1200000000.0 -0.2789772437432947 -0.23815623831353316
1220000000.0 0.14545145951834182 -0.36967737952469315
1240000000.0 0.3233842901111892 0.2665967829926276
1260000000.0 -0.41967073451423653 -0.13467540127219566
1280000000.0 0.4402235568110181 0.09940115709752367
1300000000.0 -0.3677696959687379 -0.2629730659737034
1320000000.0 -0.10710795647772464 0.42665762606081786
1340000000.0 -0.245752120101082 0.34433232262192365
1360000000.0 -0.30245344910379596 -0.2779807594042404
1380000000.0 -0.06785888929897296 -0.4026371884552457
1400000000.0 -0.08240676927583178 -0.3864374360544818
1420000000.0 -0.0586648510243505 -0.378085724191673
1440000000.0 -0.22503969492471715 -0.29050020918588954
1460000000.0 -0.34059436016204575 -0.06771336136956166
1480000000.0 -0.14021022509975015 0.2972499069954366
1500000000.0 0.21491745639180257 -0.21922991818849877
1520000000.0 -0.23508545775825537 -0.1571283697715319
1540000000.0 -0.16192937377288602 -0.19841266561630913
1560000000.0 -0.2142063779283039 0.04887715419574321
1580000000.0 0.036301242517530294 0.18415401874567044
1600000000.0 -0.15377860690489306 0.00909374020632445
1620000000.0 -0.11229156319667402 0.007557616643218223
1640000000.0 0.07085723596138215 -0.04565641665462392
1660000000.0 0.04196248294549863 -0.041417385663119095
1680000000.0 -0.02062466288798153 -0.021802919293562185
1700000000.0 0.01586213161954037 0.010565620929711928
1720000000.0 -0.007335921249920694 0.03313091990346258
1740000000.0 0.045439330761446635 -0.03128343732702443
1760000000.0 -0.06241530437902812 0.03796422128753991
1780000000.0 0.07365399002885734 -0.05627389305369037
1800000000.0 0.09304243905279459 0.07413136609440914
1820000000.0 0.01831841602693602 -0.13129362973273928
1840000000.0 0.13009040076001888 -0.08671785310639951
1860000000.0 0.1776478263805413 0.0012022998265697037
1880000000.0 -0.15645495977232146 0.1377728618582739
1900000000.0 -0.21285182080778023 -0.12455853019803369
1920000000.0 -0.2677603298580009 0.1137090388234397
1940000000.0 0.006833813205613291 0.3363657248018399
1960000000.0 0.26873627662031657 -0.26446866936518243
1980000000.0 -0.30079515328531986 0.27643379824771935
2000000000.0 0.4345905733563136 0.010534445482658184
2020000000.0 -0.43878199032280224 -0.11191866465597536
2040000000.0 0.23234228420032813 0.3949088866972137
2060000000.0 0.01542668670791514 -0.4560555067554081
2080000000.0 -0.41888793514147576 0.14386961656605976
2100000000.0 -0.11694067895122873 0.40929855534155996
2120000000.0 0.01682780932747488 0.4031294753401911
2140000000.0 -0.2989628827116477 -0.23906311063842056
2160000000.0 -0.06324410055207695 -0.35899872127054644
2180000000.0 0.336189717116987 -0.10647041945107812
2200000000.0 0.30066809086561475 0.16879553451267842
2220000000.0 0.2542413730035265 0.23822229697142375
2240000000.0 0.19160150540860066 -0.2932359647177879
2260000000.0 -0.25101903805470865 -0.25147001089931315
2280000000.0 -0.17178683310070583 0.3182180885734572
2300000000.0 0.3736915222260779 -0.0022769818767895676
2320000000.0 -0.25098558389452363 -0.30180128336197765
2340000000.0 -0.27577433480311714 0.31382426475416275
2360000000.0 0.4416335851123189 0.10073118823248459
2380000000.0 -0.3128735442672018 -0.38805521480472144
2400000000.0 0.14246652758218858 0.5301018464439591
2420000000.0 -0.24151160089529744 -0.5515868956286258
2440000000.0 0.5237951534101307 0.39094120631978085
2460000000.0 -0.6960168577895818 0.01936282366956512
2480000000.0 0.5919464660989106 -0.42646981579922444
2500000000.0 -0.5407883830786556 0.5225854835857819
2520000000.0 0.6238343608081475 -0.4414525275785095
2540000000.0 -0.7582423266256112 0.11839739799821528
2560000000.0 0.6897743835888982 0.3252006886050451
2580000000.0 -0.09485375981137079 -0.7423457090058456
2600000000.0 -0.45045321857648357 0.5667713720872913
2620000000.0 0.6927500295656475 0.034655002992803455
2640000000.0 0.6304124589573756 -0.18346444015968377
2660000000.0 -0.4861641850670361 -0.3748535000922754
2680000000.0 -0.031017292206948672 0.5692154757822606
2700000000.0 0.35046861338135005 -0.394118364147887
2720000000.0 -0.3816694895134314 0.2944556270373652
2740000000.0 0.33228010728945634 -0.2868603275400687
2760000000.0 -0.10363182910166374 0.383556540309752
2780000000.0 -0.23819256926847385 -0.2723879659877028
2800000000.0 0.3283595646323531 -0.0286407962558792
2820000000.0 -0.20134930714247895 0.22931932201100388
2840000000.0 0.1737095631282042 -0.23019571196514216
2860000000.0 -0.21315757450267647 0.18599095500051244
2880000000.0 0.2645728792116757 -0.09775669956558375
2900000000.0 -0.26008084640718904 -0.12267211179002616
2920000000.0 -0.04399945071782129 0.29596983212572087
2940000000.0 0.28774372983009244 -0.11523974303843819
2960000000.0 -0.14863299341968447 -0.2814906145677478
2980000000.0 -0.3191152782353739 -0.07080969030805385
3000000000.0 -0.32221198008659757 0.0702876212181143
3020000000.0 -0.3262215904494288 -0.0399959860724936
3040000000.0 0.046202958124280324 -0.3193427277705741
3060000000.0 0.2974908294904556 0.10480543040852486
3080000000.0 -0.2995911837238709 -0.05725081806887588
3100000000.0 0.28834483197844174 0.060644839914385164
3120000000.0 -0.17170451112176233 -0.2242952183673735
3140000000.0 0.06053654135496923 0.2647327034811448
3160000000.0 0.17085177303260057 -0.19297025944033408
3180000000.0 -0.07258204400722132 -0.23407300675754494
3200000000.0 0.17738014435956653 0.14492285885961548
3220000000.0 -0.1627761829720118 0.12920105083667802
3240000000.0 -0.1745370469825146 -0.06109818912293639
3260000000.0 -0.08743203968920651 -0.12888901258719293
3280000000.0 -0.10568664001713389 0.06197468978372416
3300000000.0 0.05836239178310491 0.06574570634941058
3320000000.0 0.024333552638029984 0.04661546203291659
3340000000.0 0.018051929657291223 0.013955340532821197
3360000000.0 -0.013965085909376177 0.000636854091957209
3380000000.0 0.018801535816011666 0.018958084199089464
3400000000.0 -0.008593774167178075 -0.03446271313722907
3420000000.0 0.004762673022926297 -0.03945665843333508
3440000000.0 -0.026766814921255943 -0.025862020497060677
3460000000.0 -0.008027327708874715 -0.03806345355766929
3480000000.0 -0.022582852074260303 -0.050529231417026685
3500000000.0 0.041496875119201665 -0.06779224659998069
3520000000.0 0.04969582657369593 -0.09452042240374468
3540000000.0 -0.12031316770720225 0.03992575361165193
3560000000.0 0.008615487742462001 0.1389351788953936
3580000000.0 -0.053102502359859666 0.14059483501758546
3600000000.0 -0.07382885606600952 0.14262463366087103
3620000000.0 -0.1638818764725571 -0.028481089639315657
3640000000.0 0.15633403491948347 -0.06771158969886597
3660000000.0 -0.14009589531320749 0.10991474567480491
3680000000.0 0.12540718307760162 -0.13341756942236763
3700000000.0 0.11502699360523672 0.14888850512844376
3720000000.0 -0.1597394405518697 0.11056690899972368
3740000000.0 -0.12910097787220806 0.14657220815609934
3760000000.0 -0.16810500557320024 -0.09394209853784158
3780000000.0 0.04418510017875294 -0.17881839592661092
3800000000.0 0.10953471695834804 0.12971358714572043
3820000000.0 0.153860443869686 -0.014561891786957451
3840000000.0 0.04525024112995909 0.13289620426913412
3860000000.0 0.12962745217584637 0.044010536316191486
3880000000.0 -0.12674915370385573 -0.06878750801342834
3900000000.0 -0.12429909093114638 -0.09339209604579468
3920000000.0 0.05010017632287706 0.16105514467919807
3940000000.0 -0.10548364090403499 0.14554124296224094
3960000000.0 0.089322356195985 0.16507304048292548
3980000000.0 -0.1055050301871941 -0.15335071500625702
4000000000.0 -0.14238989605441016 0.1005733726994538
