!Created with skrf (http://scikit-rf.org).
# Hz S RI R 50.0 
!freq ReS11 ImS11
400000000.0 -0.630637587548213 0.6003196520209789
420000000.0 0.5349951216569145 0.6859956174304516
440000000.0 0.3752295445586485 -0.7481955127631692
460000000.0 -0.5933212238225689 -0.5159167509827981
480000000.0 0.5565925488433601 -0.42936573047518267
500000000.0 -0.12599903297761592 -0.5624048801304502
520000000.0 -0.3858550787966103 0.3115537766475001
540000000.0 0.27111950435587295 -0.3036536298705499
560000000.0 -0.0978804651081555 -0.3493361435732983
580000000.0 -0.0655437442309731 0.3350317945550534
600000000.0 0.3420265018488753 0.08222389394894966
620000000.0 -0.02958158742831544 0.36393348281683197
640000000.0 0.38216728133057326 0.07511687348332832
660000000.0 0.22075985705088547 -0.3385833186083212
680000000.0 0.4223880213395752 -0.06427316152285129
700000000.0 -0.08255724254701317 -0.42387988421338046
720000000.0 -0.2992804709999483 0.3088731936431349
740000000.0 0.06406639673607177 -0.40823588296166363
760000000.0 -0.3924026176782497 0.03175096506412013
780000000.0 0.32556315855326184 0.15437603515516182
800000000.0 -0.05603738711586182 -0.31887937122982307
820000000.0 -0.23429394209922738 0.1499017883125135
840000000.0 -0.033411216820113596 0.2374293235255343
860000000.0 -0.20133934637492237 -0.01936908925776699
880000000.0 0.15746110519468384 0.012741979155808924
900000000.0 0.047844958057919496 0.09827745074932588
920000000.0 -0.06917399359346092 -0.01818898714249007
940000000.0 -0.018537856006586414 -0.037218070326796096
960000000.0 0.0411296826329949 -0.022573594215997386
980000000.0 0.05995181194996046 -0.028973067472291808
1000000000.0 0.002781535171411654 -0.08440037233028518
1020000000.0 -0.02539628699572445 -0.1008093844608091
1040000000.0 0.030670653548492077 -0.11365912986517711
1060000000.0 0.14754146550794364 0.04070320167889773
1080000000.0 -0.025980297761567815 0.17123809824670508
1100000000.0 0.0079889249246267 -0.19915197662318626
1120000000.0 0.09058270423033837 0.2026832980377896
1140000000.0 0.1366734607645987 -0.21342747337589396
1160000000.0 -0.15735119847836135 -0.23204458146244078
1180000000.0 0.003286123661551602 -0.3156333036834234
1200000000.0 0.29306508586958274 -0.17489158416921335
1220000000.0 -0.1705803893884638 0.3236724835451235
1240000000.0 0.3852173934604471 -0.028666286143118315
1260000000.0 -0.2734617009747151 -0.3044545502137798
1280000000.0 -0.37269695518653406 0.204871327791766
1300000000.0 0.3935479824735158 0.19090642448223372
1320000000.0 0.43877012230126283 -0.02682874944656745
1340000000.0 0.39412385418382834 -0.19409845701298017
1360000000.0 0.4327722440813605 -0.08852645229776315
1380000000.0 0.15059753557451552 -0.410963785793837
1400000000.0 -0.4035208909172642 -0.14916840345359522
1420000000.0 0.039736624814600795 0.40992218141418807
1440000000.0 0.38392300037268506 -0.024171440751248715
1460000000.0 0.047973558824274544 -0.3512930725120014
1480000000.0 -0.31581706936628934 -0.06425417004000862
1500000000.0 -0.14359458495809888 0.25058280423182333
1520000000.0 0.014669180210477858 0.2590483288734084
1540000000.0 -0.12160097357325829 -0.19490965534753146
1560000000.0 0.163400290702328 -0.1068148840531074
1580000000.0 0.10293548353592613 0.13173717433530352
1600000000.0 0.13107662966486383 -0.01884304816780242
1620000000.0 0.1027930903200897 0.012678429195339503
1640000000.0 0.004257364129934049 0.07739840925310046
1660000000.0 -0.05315850723052157 -0.008990640998760712
1680000000.0 0.03086124202052678 0.015707441178369707
1700000000.0 -0.009018509758423781 0.018524629075027763
1720000000.0 0.006406262561785416 0.0012418674694166154
1740000000.0 -0.01637799621930493 -0.0011154372013275678
1760000000.0 0.011588234514311369 -0.030320622319263572
1780000000.0 -0.05046954382653341 0.032700006868647755
1800000000.0 0.07920502727698027 0.048126713029293104
1820000000.0 0.0889006193981661 0.0872938745103267
1840000000.0 -0.12502106361650958 -0.10612758827666605
1860000000.0 0.08663069233816738 0.18206453023333005
1880000000.0 -0.04036582694261786 -0.2387576686057633
1900000000.0 0.007515449597297075 0.2852226133751524
1920000000.0 0.003921509361788735 -0.3205770567189568
1940000000.0 -0.2384991344523388 0.2631457787015442
1960000000.0 0.3779427139926166 -0.06456283321315213
1980000000.0 -0.30319434925237393 -0.26523031594506946
2000000000.0 -0.35666106846871803 0.22172989383108327
2020000000.0 0.19404425574639061 0.3827346004648691
2040000000.0 0.3731900340924469 0.22317353818779617
2060000000.0 0.3794501412910596 -0.21550253802086108
2080000000.0 0.11390920244454826 -0.4190133943618244
2100000000.0 -0.1372763163071891 -0.40537928244340043
2120000000.0 -0.34984453266790166 -0.23086875080331368
2140000000.0 -0.402642922024837 -0.06459911600851238
2160000000.0 -0.16772456049803083 -0.3566975116605647
2180000000.0 -0.31593233788356595 -0.2143097124954931
2200000000.0 -0.32527249798370456 0.17786966590696007
2220000000.0 -0.005730860952239218 0.3606589996869142
2240000000.0 0.3117900725518931 0.1753302217530049
2260000000.0 0.3341892386347993 -0.12616201433031024
2280000000.0 0.06473374309189066 -0.3573208130503174
2300000000.0 -0.37653851494065665 0.03211560034844943
2320000000.0 0.16697242289013442 0.3653358376639811
2340000000.0 0.25654457770219075 -0.35057435621066785
2360000000.0 -0.44409185888783936 0.1663449130522396
2380000000.0 0.500569408616113 -0.14584805786998528
2400000000.0 -0.5071408027182686 0.25887081696343583
2420000000.0 0.21590458391394565 -0.576972987411398
2440000000.0 0.11993070486566113 0.6462773710179694
2460000000.0 -0.4510157680678043 -0.5229629681211505
2480000000.0 0.5957488082262311 0.3960129781833262
2500000000.0 -0.5354436625065496 -0.49460484186014125
2520000000.0 0.24014786598870166 0.6945106793814709
2540000000.0 0.23762677658537062 -0.6931745906824333
2560000000.0 -0.6920119914205567 0.21219289545216657
2580000000.0 0.4648031212137965 0.5312563404362424
2600000000.0 0.2955955598542774 -0.6127206034936991
2620000000.0 -0.6458601654965359 -0.051836612587895514
2640000000.0 -0.608324923743019 0.04973094051851935
2660000000.0 0.1901203302317434 0.5321386946382479
2680000000.0 0.4297904920611673 -0.2934901446103526
2700000000.0 -0.38634854205834684 -0.27845807272011963
2720000000.0 -0.03564174428378983 0.42980360463960265
2740000000.0 0.3738171302026459 -0.1131343653987121
2760000000.0 -0.33143189389823874 -0.12329515585461023
2780000000.0 0.2573522810920507 0.20022418848521253
2800000000.0 -0.2811202040850629 -0.1147501580317847
2820000000.0 0.18810661769695255 -0.21974935821718675
2840000000.0 0.10484198751664602 0.2595995932366571
2860000000.0 -0.2707445484169254 0.055107070307668614
2880000000.0 0.0786567991290159 -0.26558667999648494
2900000000.0 0.10549481011247061 0.25851082881239573
2920000000.0 0.04796789670048404 -0.2794137102147839
2940000000.0 -0.2864776249070238 0.03850076928208026
2960000000.0 -0.13775466624475763 0.260021956067848
2980000000.0 -0.16187978374281398 0.25128000655806365
3000000000.0 -0.29217750631484707 0.07715831262208125
3020000000.0 -0.2007049960559701 -0.2265965511501748
3040000000.0 0.300126136389752 0.005802694535372406
3060000000.0 -0.27737327765753356 0.11174321279925752
3080000000.0 0.21661820911910054 -0.1991627020696419
3100000000.0 -0.20473690549053297 0.20391897585735325
3120000000.0 0.11619991403062742 -0.2581394431755784
3140000000.0 0.03415152403253503 0.2722765295172915
3160000000.0 -0.1926240506912071 -0.17427507232175846
3180000000.0 0.0013548978641152903 0.2445813418785693
3200000000.0 -0.19666351205778168 -0.1011274020224409
3220000000.0 0.13202051797492936 -0.14433715969231758
3240000000.0 0.031374370656354345 0.16314449772426418
3260000000.0 -0.11518530177279404 -0.0698227034374009
3280000000.0 0.010342308758376502 0.1028540841026325
3300000000.0 0.034274289455730314 -0.06542405871049777
3320000000.0 -0.01622898402154178 -0.04495342409416609
3340000000.0 -0.01701072485705688 0.01788261359736006
3360000000.0 0.00547043120509067 -0.004813675232089931
3380000000.0 0.000566116901814129 0.00827520814522253
3400000000.0 -0.013452290022113088 0.01648283027099277
3420000000.0 -0.03050771586947569 -0.01121232777250213
3440000000.0 0.00021342658236438774 -0.04156301538561149
3460000000.0 -0.03296851699315197 0.03783173656158492
3480000000.0 0.007986134766611072 -0.06117450085063913
3500000000.0 -0.0394005986212564 -0.06492882122297247
3520000000.0 -0.07597698046426794 -0.04790626436759973
3540000000.0 0.08629874264547077 0.06018406594969096
3560000000.0 -0.11644450980332355 0.03320621204170096
3580000000.0 0.11385049003510433 -0.07311132632633671
3600000000.0 0.07639794684828624 0.13068429162348336
3620000000.0 -0.08369276348383266 0.1400804093862991
3640000000.0 -0.17316596208407833 -0.01332689146592046
3660000000.0 -0.07564720607128196 -0.16764951850532495
3680000000.0 0.11436192881127338 -0.15009160053341072
3700000000.0 0.14788675040056043 -0.11901919777859615
3720000000.0 0.16880711703311932 0.08713146465083371
3740000000.0 0.06180212781689046 0.174668801379602
3760000000.0 -0.040057789218583974 -0.17609450123215298
3780000000.0 0.09693906559439062 0.1408842598150621
3800000000.0 0.11670529334243829 -0.11476619961035786
3820000000.0 -0.10988062902143694 -0.11045580083018826
3840000000.0 -0.09170049348882067 -0.11676750087137931
3860000000.0 0.14414187519825236 0.03448439494474809
3880000000.0 0.14861028493298334 0.03908085503855379
3900000000.0 0.06291884671707675 -0.1480498631002434
3920000000.0 -0.11491046999403444 0.11811268860692066
3940000000.0 0.0015931994754296134 -0.1689840868651603
3960000000.0 0.17136766026462597 -0.03111052926469742
3980000000.0 0.06602168511227943 -0.16203487078299333
4000000000.0 0.017520297634757293 -0.16825019328183494
