! Created with skrf (http://scikit-rf.org).
# Hz S RI R 50.0 
!freq ReS11 ImS11
400000000.0 0.25503138870053915 0.8329530311130144
420000000.0 0.6568722994683788 0.5536958222933246
440000000.0 0.7832992604587886 -0.257029881365789
460000000.0 0.16442606875938015 -0.7674429192903843
480000000.0 0.6984919508669135 -0.0024091238713787344
500000000.0 0.5330277078641703 0.20423791374318673
520000000.0 0.3973827686483026 -0.30169664605874813
540000000.0 0.38729187517030883 0.20819884479280898
560000000.0 -0.3406088381301702 -0.13350828998533432
580000000.0 -0.06792998172917188 0.33968795229167553
600000000.0 0.2564625149994768 -0.22923847156579888
620000000.0 -0.2978001064893842 0.19838401818049065
640000000.0 -0.026022395200244828 0.38337489056850726
660000000.0 0.11834448158391433 0.3814747906038644
680000000.0 -0.42058035599073934 -0.07077802891970367
700000000.0 0.4260309024429609 0.12413398077332542
720000000.0 -0.2928113583280353 -0.3353490896930037
740000000.0 0.19523980115579423 -0.38749108950871997
760000000.0 -0.3517575930319458 0.2116312770932599
780000000.0 -0.000644080397042842 -0.3701832218996293
800000000.0 -0.18435821270523922 0.2762937019127534
820000000.0 0.01664738930109997 -0.2746959678171052
840000000.0 0.18374944306819432 -0.140478632845319
860000000.0 0.07209618073237345 0.18876060614179455
880000000.0 0.13372767247213188 0.06037598388160837
900000000.0 -0.04057504548460915 -0.08330015190050867
920000000.0 0.06234529510516636 0.01306874149229012
940000000.0 -0.02950936161361632 -0.03159865707221943
960000000.0 -0.0482160597653201 0.013551214619777704
980000000.0 -0.009582756732551932 0.07069295844796072
1000000000.0 0.08335688735421849 -0.014532672517349481
1020000000.0 0.05974506746980516 -0.08487851355653557
1040000000.0 -0.006351217819845059 0.11006518041228941
1060000000.0 0.02284303433263711 -0.13505183948254448
1080000000.0 -0.06929335317188973 0.12751760002153006
1100000000.0 -0.011315413140289004 -0.16461644436663386
1120000000.0 0.19104775385319708 -0.015160651464909384
1140000000.0 0.04929797655491198 -0.23140579192056193
1160000000.0 -0.16280969920173025 -0.2319330981678527
1180000000.0 -0.30168912891599187 0.12752210426473068
1200000000.0 -0.14091556028636287 0.33036616956698767
1220000000.0 -0.29854398144662125 -0.2387005136920807
1240000000.0 0.39030154796602534 0.09844788210088058
1260000000.0 -0.24370214407997692 -0.3462252712012715
1280000000.0 -0.017140768129423372 0.43672344390360773
1300000000.0 0.4166387716655208 -0.15603256567248816
1320000000.0 -0.20023250890886662 -0.39210554452759866
1340000000.0 -0.13471471674616428 -0.41192986188399716
1360000000.0 0.06811342825575718 -0.42156223616122745
1380000000.0 -0.10635724166703726 -0.41220300337395616
1400000000.0 -0.37251086681056306 -0.17408104397517307
1420000000.0 -0.30205955096491865 0.2524038729929823
1440000000.0 -0.08793056784105202 0.3608074946936211
1460000000.0 0.2553278086741631 0.23633004780461447
1480000000.0 0.2638309699131873 -0.18617820212693778
1500000000.0 -0.27567538448857476 -0.10732714287584783
1520000000.0 -0.08100733577577314 0.2564917818733332
1540000000.0 -0.23465217066482572 0.036752322330847485
1560000000.0 -0.17976237041958326 -0.08704607353911212
1580000000.0 -0.003672617653235337 -0.1683301176675547
1600000000.0 -0.1349118095062069 -0.007183791158929145
1620000000.0 -0.04086118572796306 -0.09442676321955798
1640000000.0 0.060038125760486935 0.05514305111363129
1660000000.0 0.05717160096946001 -0.01798646949417015
1680000000.0 0.003082320107549293 0.038658444060922025
1700000000.0 0.014506506433877037 -0.015526600155807788
1720000000.0 -0.001399250261874931 0.004742595619576445
1740000000.0 0.002688095865253658 -0.021189600934902065
1760000000.0 -0.025785409816081403 0.03440261164507571
1780000000.0 -0.07430516547436465 -0.01455881695387325
1800000000.0 0.03148693192546052 0.10596355262676452
1820000000.0 -0.13536117117040553 0.033266744042490345
1840000000.0 0.1390729648630173 -0.10029547228108089
1860000000.0 -0.195525231690948 0.03816219695788198
1880000000.0 -0.14563474842621582 0.17775534354714778
1900000000.0 -0.0015784490349160948 0.2671197960539464
1920000000.0 0.30239337344080036 -0.03294792604233197
1940000000.0 0.037735290243972396 -0.3404601699040933
1960000000.0 -0.32204069628185183 0.1946116934437564
1980000000.0 0.39195909344410396 0.0887896980520702
2000000000.0 -0.02021915107580302 -0.4223835129557936
2020000000.0 -0.35134628863540723 0.2562285842276226
2040000000.0 0.23166795849327726 0.37304987768503844
2060000000.0 0.3892998555678385 -0.19927270413136336
2080000000.0 0.06936518150214402 -0.4245064076324366
2100000000.0 -0.04128460470441866 -0.41974923506328604
2120000000.0 -0.17648117685653386 -0.3717768815928989
2140000000.0 -0.3486514456991255 -0.19737220391932353
2160000000.0 -0.03019706448608363 -0.3847104569101654
2180000000.0 -0.1903615745935935 -0.3176721245457863
2200000000.0 -0.2854976615555995 -0.2138824504398064
2220000000.0 -0.3413912828450805 -0.06423789937689987
2240000000.0 -0.2800516261500747 0.1981406769619418
2260000000.0 -0.13527752253676634 0.3153670992818374
2280000000.0 0.03723006093663466 0.34657623699681633
2300000000.0 0.3635928073646733 -0.010222089442942436
2320000000.0 -0.05263035884149485 -0.3848459822498688
2340000000.0 -0.35777513626040486 0.21834106802804532
2360000000.0 0.4482384936098925 0.09460037634472265
2380000000.0 -0.4511068657691077 -0.22526822563212964
2400000000.0 0.444287048524616 0.33232073968430625
2420000000.0 -0.5695630497485856 -0.2101779073338623
2440000000.0 0.6280764669016476 -0.19165813396004341
2460000000.0 -0.39965330065715926 0.5722478382317289
2480000000.0 0.10257311468365504 -0.7224306074585677
2500000000.0 -0.06895623292179337 0.7473646362217194
2520000000.0 0.22125068553486515 -0.728702388435056
2540000000.0 -0.5139503501592901 0.5645421477695183
2560000000.0 0.754345136666612 -0.07532237815178738
2580000000.0 -0.46853083352866864 -0.5761835300247639
2600000000.0 -0.13909801598523355 0.7051577833291034
2620000000.0 0.614987556472249 -0.30873140478285216
2640000000.0 0.41287438696196443 -0.5016781746281076
2660000000.0 -0.6057341905400938 -0.006090752888280331
2680000000.0 0.37566119016136174 0.4136756455760017
2700000000.0 -0.00711862276951453 -0.5121318858395953
2720000000.0 -0.24842718644683914 0.3926691696528511
2740000000.0 0.3610627195550741 -0.2166467655746657
2760000000.0 -0.3597425093472234 0.1277868196451487
2780000000.0 0.24324264191154227 -0.25336583924407885
2800000000.0 -0.057799801137245095 0.3203237297083764
2820000000.0 -0.2437770251268991 -0.18763999448873697
2840000000.0 0.2821135779852975 -0.08849877533289918
2860000000.0 -0.11372906351435949 0.26889440181029334
2880000000.0 -0.08993967551355515 -0.2779768999392525
2900000000.0 0.11071016467750852 0.2733175294524257
2920000000.0 0.17284908099083238 -0.24506200677432613
2940000000.0 -0.2914166909734312 -0.09835420077075688
2960000000.0 -0.23950476191449385 0.196819125914494
2980000000.0 -0.2804646409897972 0.14202863393351503
3000000000.0 -0.3115488150998084 -0.06264809309449489
3020000000.0 -0.04312629857580131 -0.31554943355525555
3040000000.0 0.3150501967114049 -0.030424801520574342
3060000000.0 -0.2823979194241323 0.13305499214781674
3080000000.0 0.2305808782068409 -0.20097227446047783
3100000000.0 -0.18223398422213366 0.23714072688798646
3120000000.0 0.13944289836100116 -0.254092131505708
3140000000.0 -0.08418608679404681 0.26716711774533963
3160000000.0 -0.008221485107234095 -0.2654759102177935
3180000000.0 -0.21348558536658127 0.12961442862291492
3200000000.0 -0.05067052716454015 -0.2230282254314797
3220000000.0 0.15696976090706308 -0.1282521536726411
3240000000.0 0.13109046646853426 0.11096138196045727
3260000000.0 -0.1375800923921055 -0.009022374568454781
3280000000.0 0.08851550261207944 -0.05641533999904713
3300000000.0 -0.07323044572426814 0.01673019903937177
3320000000.0 -0.021991945310603795 0.04122042601226956
3340000000.0 -0.022446344800024567 0.0034648524801591
3360000000.0 -0.0023153208844529844 -0.0041252590284419416
3380000000.0 -0.005475701795586721 -0.008191067741089688
3400000000.0 -0.01410224597653494 0.017263609081237724
3420000000.0 0.008144118443082188 -0.03444610490051093
3440000000.0 0.001069489064118844 -0.04704803662178539
3460000000.0 -0.013814436828198856 -0.05455629715427997
3480000000.0 0.06283593577548842 -0.027025862947728706
3500000000.0 -0.021986798570353152 -0.07962062361115137
3520000000.0 -0.03039751237952552 0.09244479777170085
3540000000.0 0.05020532610228406 -0.09877237266575897
3560000000.0 -0.023591545831035544 0.12197833254609627
3580000000.0 0.04775621145761107 -0.12940780415420836
3600000000.0 0.12131347911011879 0.09896163681188126
3620000000.0 0.0945878586910454 0.13998349871547322
3640000000.0 -0.11404261456352982 0.13870998785918429
3660000000.0 -0.18457493838759062 0.03780326915730923
3680000000.0 -0.1590895439085967 -0.10952044084415052
3700000000.0 -0.04610056178180109 -0.1881985297620457
3720000000.0 0.15864155295726848 -0.11193832963205
3740000000.0 0.18887482947742013 -0.021643738951572074
3760000000.0 -0.1676397212703709 0.07283316664326807
3780000000.0 0.12292382717393702 -0.12073353435424447
3800000000.0 -0.10736319736094956 -0.12133651001205277
3820000000.0 -0.14039500817502337 -0.06161846799375134
3840000000.0 0.06877521405317732 -0.12923204617510836
3860000000.0 -0.009028847744691981 0.1473256782421075
3880000000.0 -0.0344560398288634 0.15034523727232071
3900000000.0 0.1569890130391013 0.03466411805087551
3920000000.0 -0.16379970693355167 -0.03188808204570964
3940000000.0 0.1031236141543376 -0.1367966409788489
3960000000.0 0.17195191736784024 -0.026212830881960386
3980000000.0 0.06075730269148484 -0.16208412264840105
4000000000.0 0.0076974357488181384 -0.16492469699258266
