! Created with skrf (http://scikit-rf.org).
# Hz S RI R 50.0 
!freq ReS11 ImS11
400000000.0 0.18887640003785616 0.853110898351964
420000000.0 0.6210505478933946 0.5952535342391918
440000000.0 0.7895512709492731 -0.24875219718632355
460000000.0 0.17399163224919495 -0.7695595644161828
480000000.0 0.5101716681923867 -0.4934756048403813
500000000.0 0.14662275885294193 -0.5438478097233034
520000000.0 0.022050317792874634 -0.48606939153257767
540000000.0 0.42181488864518957 -0.04330747756209679
560000000.0 -0.3236582495769725 -0.1358126092933382
580000000.0 -0.25654224455440033 0.20819454860086553
600000000.0 0.2546942948849278 0.20332590243589868
620000000.0 0.07584554588813189 -0.3391827746271694
640000000.0 -0.24299532694811454 -0.294363088322218
660000000.0 -0.4002151580065036 -0.02258612571981447
680000000.0 -0.010885290509351397 -0.4303690602325751
700000000.0 0.3178598113953871 0.3190868547873121
720000000.0 0.030125925963450588 -0.44734567823979043
740000000.0 0.4071026911437468 -0.16571023006289382
760000000.0 -0.3783994861537993 -0.16935449367350758
780000000.0 0.3272277519989638 -0.1990804313209339
800000000.0 -0.20613545817721637 0.28089886234513833
820000000.0 -0.18567630594989132 0.22509526291959936
840000000.0 0.060302906941946274 0.22955981943964918
860000000.0 -0.11577825221541506 0.16896738538004005
880000000.0 -0.14425319075041515 0.010935497396877115
900000000.0 0.0712499721362935 -0.03544079811523981
920000000.0 0.033166106129974206 -0.03438551193912497
940000000.0 0.018335651994847206 -0.03778061785015713
960000000.0 -0.028897073844155033 0.04619843307982523
980000000.0 0.06032633642669844 -0.017239453697607297
1000000000.0 -0.05060988942551801 -0.046566326925895234
1020000000.0 0.06034944040494909 0.05002381579124565
1040000000.0 -0.048852306691100765 0.06439877563440825
1060000000.0 -0.11057161420982839 0.03721535431709463
1080000000.0 -0.09113589111949018 0.09648033107975189
1100000000.0 -0.12325499593705916 -0.09963243697309271
1120000000.0 -0.1418816854387447 -0.12572019988674632
1140000000.0 0.07006929994235596 0.22735766175757377
1160000000.0 0.2844070404498401 -0.015154207925598639
1180000000.0 -0.03987427739142091 -0.32819012517828605
1200000000.0 -0.26531869360933275 -0.2529159643511345
1220000000.0 0.1802938046015045 -0.3538310652221638
1240000000.0 0.31708892497443303 0.2737818296843917
1260000000.0 -0.4163944483958692 -0.1428420898166658
1280000000.0 0.43989308618668355 0.10100217491006504
1300000000.0 -0.37996617701383567 -0.24497995080536614
1320000000.0 -0.11487350989331759 0.42430167095615046
1340000000.0 -0.2371709010648932 0.35013242051996496
1360000000.0 -0.30566242411134736 -0.2742820267192291
1380000000.0 -0.08729960549314807 -0.39891741898944444
1400000000.0 -0.11075940562363001 -0.37933165010210335
1420000000.0 -0.07938376443352795 -0.374559377180235
1440000000.0 -0.22587340078369594 -0.2905030411809271
1460000000.0 -0.34204502145066895 -0.06254632836876428
1480000000.0 -0.11765045887139451 0.30770159470226305
1500000000.0 0.22837885096700636 -0.2057846110076983
1520000000.0 -0.2283797195867642 -0.16715255392268913
1540000000.0 -0.14916346684053125 -0.20879834003802603
1560000000.0 -0.21900170177452447 0.022435551835770902
1580000000.0 -0.02534252535172361 0.18607302760564615
1600000000.0 -0.15166420789246754 -0.028334254993360057
1620000000.0 -0.11030712958943188 -0.02048875872258844
1640000000.0 0.07705122130016641 -0.03284801861916173
1660000000.0 0.037267475982992286 -0.044723939346797636
1680000000.0 -0.02856057142891971 0.008572511298313538
1700000000.0 0.019521194234915842 -0.0023149673311095606
1720000000.0 -0.018684672525236284 0.029149819921059635
1740000000.0 0.055383082930254145 0.0004800426729174884
1760000000.0 -0.07249282373416141 -0.0048177108169220806
1780000000.0 0.08866901435436463 -0.025146076425949557
1800000000.0 0.07377416239924113 0.09277056339879036
1820000000.0 0.03495371104964232 -0.1270897805839592
1840000000.0 0.13932503565630625 -0.0691430099299866
1860000000.0 0.1766180453282658 0.00518596213326769
1880000000.0 -0.1551597314017645 0.13805203009240602
1900000000.0 -0.2163238968016257 -0.11732336920742324
1920000000.0 -0.2642693551312134 0.12049224745233397
1940000000.0 0.024931828505447978 0.33519400165527724
1960000000.0 0.2582457521925725 -0.2746493308561549
1980000000.0 -0.28739301504446213 0.2905876422339971
2000000000.0 0.43500125907420567 -0.005405754929447008
2020000000.0 -0.44507602238707716 -0.0860884869360724
2040000000.0 0.24321871188876945 0.38916220414543246
2060000000.0 0.038447801994215665 -0.45551891989438037
2080000000.0 -0.42430654075122864 0.13062322516097966
2100000000.0 -0.1394732910019311 0.40344379163051225
2120000000.0 -0.034479633141458285 0.40311430745604343
2140000000.0 -0.2609820295175446 -0.2816934860058717
2160000000.0 0.016072546973198574 -0.3652769257219499
2180000000.0 0.35072636971674587 -0.044575710500156594
2200000000.0 0.25580367099739854 0.2325175202005984
2220000000.0 0.19543061341264753 0.2891824150614211
2240000000.0 0.2561330404680716 -0.23962342911597304
2260000000.0 -0.193344981929917 -0.29855849916545457
2280000000.0 -0.2369693719576299 0.27332282733116675
2300000000.0 0.3676571127783069 0.06651974787451334
2320000000.0 -0.21992353355007968 -0.3250799967552133
2340000000.0 -0.2992880085817914 0.29148464634006727
2360000000.0 0.43259725880546857 0.13345368973324662
2380000000.0 -0.2797924298509419 -0.4122275247001587
2400000000.0 0.11639021384387281 0.536337458332187
2420000000.0 -0.21845674788009362 -0.5610927906734079
2440000000.0 0.5186817953197508 0.39786394462953395
2460000000.0 -0.6963946158994109 0.01703482677226528
2480000000.0 0.6212608482587474 -0.3841173994428521
2500000000.0 -0.5708731450125468 0.4906285100813867
2520000000.0 0.6439886226678897 -0.4129852338087548
2540000000.0 -0.7642550842164483 0.0798131807600358
2560000000.0 0.6749769023452273 0.35679270460275003
2580000000.0 -0.03443562082879419 -0.7489043862763433
2600000000.0 -0.5168478795713679 0.5092194502714702
2620000000.0 0.6827773454144807 0.1298160682123144
2640000000.0 0.6332816621873198 -0.1800026101907799
2660000000.0 -0.44674630990706127 -0.4237219954963163
2680000000.0 -0.11157660845957311 0.5605988840759729
2700000000.0 0.3821192407120979 -0.3658643375741217
2720000000.0 -0.40113245128046887 0.2705021655722431
2740000000.0 0.3384187018395573 -0.28165955212826577
2760000000.0 -0.1329715799882187 0.3757482813850661
2780000000.0 -0.2243938992156132 -0.28583140538274643
2800000000.0 0.3305551703768426 -0.00909265026692722
2820000000.0 -0.21821611399142885 0.2145291014139906
2840000000.0 0.19880302660073623 -0.2102300351933976
2860000000.0 -0.21465664196938655 0.18489382428000345
2880000000.0 0.27324543363666565 -0.07325995675943166
2900000000.0 -0.24848870899208583 -0.1454273681992186
2920000000.0 -0.06889921274144369 0.2914692585007899
2940000000.0 0.28944567145886435 -0.11308898901924518
2960000000.0 -0.16447082643251226 -0.27237529733741445
2980000000.0 -0.31264852759045525 -0.09339085153701737
3000000000.0 -0.32978499564612884 0.003835957068309516
3020000000.0 -0.3186996770154298 -0.08006082940788393
3040000000.0 0.06439638585647474 -0.315716820042337
3060000000.0 0.2512108590738895 0.18949971108722782
3080000000.0 -0.2997949631984829 -0.05657458819893572
3100000000.0 0.2892340914300198 0.0549039187102341
3120000000.0 -0.19789455793761462 -0.20074103860970982
3140000000.0 0.06550263584263341 0.2633236549475681
3160000000.0 0.17026922793367563 -0.19309787710125095
3180000000.0 -0.12173776115637977 -0.21267178282917262
3200000000.0 0.1931654799531798 0.12263657062749164
3220000000.0 -0.1297025590952377 0.16296700161253772
3240000000.0 -0.18485434961365785 0.0014959447713417582
3260000000.0 -0.13682613565487045 -0.07418380354993982
3280000000.0 -0.09197394214164825 0.08102318879411025
3300000000.0 0.08834310760414024 -0.0023997014660542514
3320000000.0 0.047871855518223656 -0.023238054311578844
3340000000.0 0.008446918499450897 -0.02171134586129886
3360000000.0 -0.01203493503623145 0.007445526028760612
3380000000.0 -0.011239566958657967 -0.02391597432922498
3400000000.0 0.023067453173917285 -0.02705238188702755
3420000000.0 0.03917796678457209 0.003544968894154829
3440000000.0 0.02275776019803433 -0.028810191458508994
3460000000.0 0.03848709825980404 -0.006299618511784951
3480000000.0 0.038626711863124635 -0.040211213015298196
3500000000.0 0.0800851907976364 -0.00353663042834374
3520000000.0 0.09261168777881008 -0.054071938028466576
3540000000.0 -0.1227820048446802 -0.03172312438496525
3560000000.0 -0.05526321613934304 0.12759446945617703
3580000000.0 -0.09577419523296495 0.11608264422977048
3600000000.0 -0.11969457692934131 0.10696884314204592
3620000000.0 -0.13294363836888518 -0.09849589708058237
3640000000.0 0.16941946697132584 -0.0005823118266183352
3660000000.0 -0.16935839023306698 0.05148983361482615
3680000000.0 0.16277666368344684 -0.08227893087689524
3700000000.0 0.05597753952216408 0.17840163640374573
3720000000.0 -0.17938780197723375 0.07189158855222767
3740000000.0 -0.1566408831750825 0.1143846437205502
3760000000.0 -0.1491950428466331 -0.1196392757282162
3780000000.0 0.05483134364803539 -0.17358226733904203
3800000000.0 0.08677008344949938 0.14427746841496286
3820000000.0 0.15273456845601693 0.004603089254597911
3840000000.0 -0.010279910035447783 0.138797259397119
3860000000.0 0.11435414474029221 0.07213074617500323
3880000000.0 -0.10152527221966484 -0.1002259625906239
3900000000.0 -0.09572788156602631 -0.12087200810124914
3920000000.0 0.025478660287964736 0.16541507847828368
3940000000.0 -0.11857407302654785 0.13253450474730624
3960000000.0 0.05824580545815737 0.17719344421977196
3980000000.0 -0.09924696227267232 -0.15569395660793872
4000000000.0 -0.13679156583547514 0.10593308602669274
