!Created with skrf (http://scikit-rf.org).
# Hz S RI R 50.0 
!freq ReS11 ImS11
400000000.0 0.42080678943129707 0.7624647706155877
420000000.0 0.8436779489944363 0.006410841529279961
440000000.0 0.7972429638844037 -0.04533472090335383
460000000.0 0.6567304144156145 0.3525551228130709
480000000.0 0.03014142038200085 -0.6866167384958455
500000000.0 -0.022076358621452553 0.6049328993607288
520000000.0 0.27479844904760253 0.4346493771586581
540000000.0 -0.43680698297245624 -0.011115388780334464
560000000.0 0.2884884675257391 0.2730914436535307
580000000.0 -0.2713195116800357 0.23657247241752688
600000000.0 0.16055132260094465 -0.3086838366059732
620000000.0 -0.14587453296044947 -0.31778019651987227
640000000.0 0.4024977111359125 0.06078614223555224
660000000.0 0.21664638840982525 0.35075190844368626
680000000.0 -0.1158924062266148 -0.4258910247996693
700000000.0 -0.1470046454359727 0.43397919139366586
720000000.0 -0.4264189075706186 -0.17878573316046525
740000000.0 -0.4207927238136882 0.0850773267283168
760000000.0 -0.1895350866535359 -0.36663090520722186
780000000.0 -0.3324538445564987 0.1938391867239158
800000000.0 -0.11170830935510155 0.32343931162244693
820000000.0 0.27336945064546764 0.06388917575446316
840000000.0 -0.12488286701971722 0.1648043981704681
860000000.0 -0.15082585431114137 -0.0736089414488241
880000000.0 -0.1201587233583026 -0.0722407916313959
900000000.0 0.06325035621267565 0.06923689425009641
920000000.0 -0.020726795865033187 -0.048276730991973056
940000000.0 -0.033069894442723805 0.0015973961395919609
960000000.0 0.025398534102713966 -0.020912720802579495
980000000.0 -0.045469559552935086 -0.03203130950795535
1000000000.0 -0.04637778170717477 0.08312231323126006
1020000000.0 -0.037459734179432026 0.11374491830031172
1040000000.0 0.054699702137497724 -0.12284762970346125
1060000000.0 -0.13548292020554462 0.08855103392621246
1080000000.0 -0.124819665385575 -0.14359396264972482
1100000000.0 0.1137703031036946 -0.18256371564886975
1120000000.0 0.20979428242293965 -0.11007067947134118
1140000000.0 -0.0644452434338618 0.25086484353180627
1160000000.0 -0.18800798429235477 0.2087042235920019
1180000000.0 -0.27285165017882385 -0.1413615404460507
1200000000.0 0.3349509995660424 0.056158351143270425
1220000000.0 -0.23391132551560329 -0.2865602581885353
1240000000.0 0.34653634282702345 0.18637040536929153
1260000000.0 -0.271608212280169 -0.30417104115115784
1280000000.0 -0.4228609518853201 0.012838793528119877
1300000000.0 0.22547591599836034 0.3671658744065867
1320000000.0 0.40073447815486263 0.16877478078384792
1340000000.0 0.18613502274498353 0.39865230951396446
1360000000.0 0.4345452855475949 0.10958445657066958
1380000000.0 -0.24901989356728557 -0.3622326372966054
1400000000.0 -0.40810136189624285 -0.12186579557339629
1420000000.0 0.21773703654638935 0.34107759326683146
1440000000.0 0.2733822405756615 -0.2550649749688791
1460000000.0 0.20191472804074437 -0.27697913074780756
1480000000.0 -0.25672059620732696 -0.17915596391831873
1500000000.0 -0.15683846421926473 0.23361264643607885
1520000000.0 -0.24185228462249028 -0.0656150166196417
1540000000.0 -0.15616898584411879 0.16368503261869785
1560000000.0 -0.19865823967838842 -0.006460480547287516
1580000000.0 -0.12905666508105537 -0.12173928175446021
1600000000.0 -0.047795480802530974 0.13599042623853408
1620000000.0 -0.060407773537806755 -0.08895975937461283
1640000000.0 -0.043913635441951676 -0.06859352807484492
1660000000.0 0.022865301015930317 -0.05962636970230529
1680000000.0 0.02432429621065262 -0.029144998169575005
1700000000.0 0.009342860468123083 0.00826758999764001
1720000000.0 -0.0033505623447160162 -0.0070873742896666635
1740000000.0 0.018153450361466036 -0.017701894213751106
1760000000.0 -0.0044949359702187615 -0.03767286707794596
1780000000.0 0.05005916499218628 0.017214831337565212
1800000000.0 -0.06119875983322704 0.061789219095870686
1820000000.0 -0.07183407857961807 -0.0898646093856218
1840000000.0 -0.15012242061967498 -0.022682897448360835
1860000000.0 -0.15773761973223105 -0.11690326324823598
1880000000.0 -0.18198059053203078 0.15335499528410854
1900000000.0 0.27643695247022887 -0.056913987676779645
1920000000.0 0.3271713638508637 0.008710919803669642
1940000000.0 -0.33445248962945556 -0.10373271901245602
1960000000.0 -0.23781198760817154 0.2875572414945027
1980000000.0 0.2948190202908639 -0.27341648889248626
2000000000.0 -0.3116238412970583 -0.2778910525724404
2020000000.0 -0.41933601921500946 -0.06425279217787719
2040000000.0 0.0592565891218718 0.42510557220316225
2060000000.0 0.09604611935870656 0.419988088338317
2080000000.0 0.14836425339854276 0.4036836777092442
2100000000.0 0.26191350293815263 -0.33563307745290344
2120000000.0 0.18763180129989684 -0.3708846525791066
2140000000.0 0.33817192275738334 -0.21627299521128124
2160000000.0 0.33800527038469247 -0.1929179895836143
2180000000.0 0.25453805064438406 -0.2787487307806563
2200000000.0 0.11339462090898439 -0.34560053325410306
2220000000.0 -0.34250439395643034 0.07713509861545206
2240000000.0 -0.33427021207712737 -0.07226975163687419
2260000000.0 -0.3187961138722966 -0.11347468353804363
2280000000.0 -0.12057049594980504 0.3215824261508066
2300000000.0 -0.11060437275611003 0.335792914013397
2320000000.0 -0.051423590010302264 0.3751466193936797
2340000000.0 0.060667546337284765 -0.4082549710525464
2360000000.0 -0.42122457602870356 -0.15971784435028746
2380000000.0 0.15210730670866945 0.47603182305488545
2400000000.0 -0.4593406260158897 0.3163064427580948
2420000000.0 0.5094266971181628 -0.3330598715242074
2440000000.0 -0.5435315176418537 0.36607553256690306
2460000000.0 -0.6497531664408791 -0.25933391959988716
2480000000.0 0.6353483267880641 0.3627582583286659
2500000000.0 -0.2680973940318041 -0.7045521373482694
2520000000.0 0.7538245204150359 -0.14158090312247906
2540000000.0 -0.5027287045182459 -0.5847141085597619
2560000000.0 -0.49231596283981727 0.5897964425538279
2580000000.0 0.1016941647913195 -0.747394644112783
2600000000.0 -0.7227207999401505 -0.12178098506922558
2620000000.0 -0.05381705508488167 0.7043672397379219
2640000000.0 0.5866700400356043 -0.3218271613514118
2660000000.0 -0.42599797805256295 -0.46284593398215945
2680000000.0 -0.21214187224491854 0.5440023621269939
2700000000.0 -0.2957168409518173 -0.44241581005717545
2720000000.0 -0.08463329062771266 0.4773670464403008
2740000000.0 0.39414942535901787 -0.18430330073277768
2760000000.0 -0.2435740905109552 0.3051210820954594
2780000000.0 0.35846299272240056 -0.002687088842548303
2800000000.0 -0.2939511800307982 -0.15693226383767464
2820000000.0 0.1522965320260067 -0.27174332874174345
2840000000.0 -0.178316698159849 0.24526945224460253
2860000000.0 0.08223773933251974 -0.2870471622349077
2880000000.0 0.25282814614963994 -0.15700589812530868
2900000000.0 -0.2976021532123721 -0.010891711055159655
2920000000.0 -0.0057554083443700724 0.3033928950065431
2940000000.0 -0.16700332782691402 -0.262795589932289
2960000000.0 -0.3132585207343929 0.029299544202374173
2980000000.0 -0.3116909621569738 0.028663668358675388
3000000000.0 -0.31250896535508355 -0.03191507535645344
3020000000.0 0.1682728789014645 0.2704082406971161
3040000000.0 0.1447356907909727 0.2868844515960477
3060000000.0 0.051851818864874395 0.31188002121579805
3080000000.0 0.30253747429470745 -0.042267164939661823
3100000000.0 -0.22536681838164355 0.1940857773403507
3120000000.0 -0.1833932877999509 -0.2239020851494254
3140000000.0 -0.20427815591472967 0.18943395550773678
3160000000.0 -0.017131015221945142 -0.26316776080555954
3180000000.0 -0.1904692957088696 0.1575948513395043
3200000000.0 0.22842100318420966 -0.04204745392944966
3220000000.0 0.18050875999440494 -0.09951012053460997
3240000000.0 0.1280163400997686 -0.11800561029769933
3260000000.0 0.0002685244451613537 0.14455898274562431
3280000000.0 -0.09722960934547364 -0.03804261621752616
3300000000.0 0.053071077700956835 -0.0496476096975708
3320000000.0 -0.032655913724134726 -0.030976198797124162
3340000000.0 -0.017809776704704038 0.011871256382707016
3360000000.0 0.0024231032428203955 0.0038470789675029526
3380000000.0 -0.003889838086900254 0.00573167234981866
3400000000.0 -0.006788607630336694 0.01851004118960614
3420000000.0 0.03310976676526838 0.005767095003149135
3440000000.0 -0.033196197675926464 0.030890256738795027
3460000000.0 0.04517505870977386 -0.03741350468750931
3480000000.0 -0.03685297682111655 -0.06478716513227939
3500000000.0 -0.07606670266572596 0.04594881140949108
3520000000.0 -0.05527925937548702 0.08950595686859704
3540000000.0 -0.10605404254732759 0.05483841969434689
3560000000.0 0.12305150306558942 -0.0007187833047906574
3580000000.0 -0.07383138527226751 -0.11349887674632564
3600000000.0 0.14930299017026386 -0.010781540474883002
3620000000.0 0.02079764454771481 -0.15841731150802146
3640000000.0 0.0702804670802768 -0.16428059915765533
3660000000.0 0.12790743259805942 -0.1416072764840628
3680000000.0 0.19185900117057927 0.04155258785493454
3700000000.0 0.006649658855501693 -0.19856935234196138
3720000000.0 -0.021512634470436987 -0.1942499446353223
3740000000.0 0.1550249162718138 -0.10093608252363187
3760000000.0 -0.14622612305399713 -0.0978443454098602
3780000000.0 -0.043501672001638306 0.16333626701682313
3800000000.0 0.16198451913134287 0.012937012433505935
3820000000.0 0.08996857059730125 -0.1284851577407274
3840000000.0 0.07380822557873153 -0.13153545365689948
3860000000.0 0.05555023562644732 -0.13722036274123334
3880000000.0 0.053443997081731004 -0.13665857997153769
3900000000.0 0.11547375603851245 0.09007619369362421
3920000000.0 0.11488528333797353 0.09600552709279338
3940000000.0 -0.08072017259700277 -0.1417005721887429
3960000000.0 -0.07229048979738008 -0.15714972992293963
3980000000.0 -0.1520219836223017 -0.08514880516462509
4000000000.0 0.08896653568862906 0.1412926278972563
