!Created with skrf (http://scikit-rf.org).
# Hz S RI R 50.0 
!freq ReS11 ImS11
400000000.0 0.7400329972978804 0.44935419777460717
420000000.0 0.842617348055662 -0.01306553906239049
440000000.0 0.7948798266320855 -0.06525532986747551
460000000.0 0.7314326216774955 -0.1714725585571526
480000000.0 -0.544375852475046 -0.42432514607222577
500000000.0 0.5202536636203087 0.2900951636389836
520000000.0 0.4980749295835472 0.010621011118653621
540000000.0 -0.19827427654398816 -0.38266425223629646
560000000.0 -0.2787890634996285 0.2749861685291853
580000000.0 -0.23072458192045056 -0.27913617711174415
600000000.0 0.35895418069249363 -0.008947990079201234
620000000.0 -0.3607838502851166 0.0029708348874124936
640000000.0 -0.3680393493858754 -0.1736773979289203
660000000.0 -0.191960106287297 0.3597488086978469
680000000.0 -0.3472927769854638 -0.2771427968405849
700000000.0 0.16372719028440477 0.43298512098083536
720000000.0 -0.4368642284636122 -0.16998398525938843
740000000.0 -0.06657685946790311 0.4343197189979754
760000000.0 0.08970587954082558 0.4000771016854085
780000000.0 -0.07924170515782504 0.3630902409179225
800000000.0 0.10077730363081662 0.3071602524531288
820000000.0 -0.24674907672287283 0.11399698898501547
840000000.0 0.20359849111264003 0.04104400635580583
860000000.0 0.04594461946990361 -0.17056564044820854
880000000.0 -0.10744960092789499 0.10668808474086978
900000000.0 -0.10342307684932002 -0.020902546997334088
920000000.0 -0.05179538185381002 0.022945433416808523
940000000.0 -0.015203887666721212 -0.031501406308680625
960000000.0 0.030745280524299038 0.018232506244020317
980000000.0 0.006943484927541441 -0.05751900404686657
1000000000.0 0.03231093877975252 -0.0882031749294249
1020000000.0 0.11885686763051756 -0.013055054546500775
1040000000.0 -0.016498174625330358 0.1337761577582046
1060000000.0 0.1376717285072862 -0.0786269975539524
1080000000.0 -0.17421557357624304 0.04350357176023784
1100000000.0 0.1383219581706857 -0.15434054027334884
1120000000.0 0.20752526720967066 0.10782735481753378
1140000000.0 -0.2418047942646308 0.08917766658274742
1160000000.0 -0.06290832526646378 0.2785419034260311
1180000000.0 -0.272012432883453 0.15172058160238464
1200000000.0 0.32469964980352506 -0.10389427797784254
1220000000.0 -0.34137761952375867 0.1480067849243812
1240000000.0 0.3791695328853534 -0.10546491765231865
1260000000.0 -0.2301955300639158 -0.33648389756089914
1280000000.0 -0.3324316485178905 0.2675181001275739
1300000000.0 0.3720235046946428 0.22330063738597314
1320000000.0 0.4358411458920939 -0.02462788626646831
1340000000.0 0.43166777172518156 -0.08608393422651112
1360000000.0 0.39661167095982863 -0.1966923556296022
1380000000.0 -0.06743041631751819 -0.4294701057612895
1400000000.0 -0.4141209902735341 -0.09026501540114037
1420000000.0 0.14853602673419775 0.37468616214840617
1440000000.0 0.3732812550015794 -0.009370954198258813
1460000000.0 0.18735268210859596 -0.2882355960076654
1480000000.0 -0.29574031182997024 -0.11052388550237006
1500000000.0 0.004981119138997417 0.28370814515061227
1520000000.0 -0.010953548638017074 0.25089624590229337
1540000000.0 -0.051027151284673784 -0.2166909554159019
1560000000.0 0.13013013771694082 0.1424637346249191
1580000000.0 0.14337714775020144 0.08494972483367143
1600000000.0 0.11235731922476798 -0.06648019671887505
1620000000.0 0.02150935863563315 0.0960059688740952
1640000000.0 0.054528556037830606 -0.056682890536771995
1660000000.0 0.06736842802104635 0.0016284073939977944
1680000000.0 0.04485749691860477 -0.015211580269253872
1700000000.0 -0.00040489865281578304 -0.026547891790629167
1720000000.0 0.0027763415832582723 -0.008735220506221738
1740000000.0 0.0063715389876407265 -0.009003888792508657
1760000000.0 0.027611934850341264 -0.017139072274910204
1780000000.0 -0.05712277276825496 -0.01664399668635973
1800000000.0 0.08266851349187483 -0.05234614493015673
1820000000.0 -0.12475168902472876 0.03723355901839586
1840000000.0 0.12355409629022669 -0.11366415088634575
1860000000.0 0.16229697536430435 0.11832686993436278
1880000000.0 0.180504092858598 -0.15396071753505775
1900000000.0 -0.27398117763758395 -0.06507766693955538
1920000000.0 0.3207232092673457 -0.019893322651733235
1940000000.0 -0.33517776853697007 -0.09512396561415473
1960000000.0 -0.02376448366087774 0.37341720583468374
1980000000.0 0.3881216048314043 -0.10867478804513951
2000000000.0 -0.3924176483113548 -0.15057279332397308
2020000000.0 -0.22853011548146712 0.3603703781643255
2040000000.0 0.09850112229909551 0.4210910050577096
2060000000.0 0.3891529687187564 0.1912375254101444
2080000000.0 0.37346698216486746 -0.21534617621717492
2100000000.0 0.05486479998370883 -0.42252898280466433
2120000000.0 -0.2954756948085906 -0.2910265139517729
2140000000.0 -0.3796933882388426 -0.12294594311135107
2160000000.0 0.21539847606788062 -0.32077644462157606
2180000000.0 -0.09367735514384742 -0.36114329553123165
2200000000.0 -0.2613333569515463 -0.24700087881967078
2220000000.0 -0.3493592813316247 -0.02222045373982172
2240000000.0 -0.34525633090068913 0.027377069133207744
2260000000.0 -0.1954763781923574 0.28818682313342237
2280000000.0 0.18983420357177663 0.2956883155100329
2300000000.0 0.36127082268769284 0.002424252021241604
2320000000.0 0.15189220720877245 -0.3537722581397493
2340000000.0 -0.38317440157146804 -0.1601046423835737
2360000000.0 -0.09251022206281971 0.44536395831216
2380000000.0 0.25393581030173884 -0.43927648664534447
2400000000.0 -0.05523970737315187 0.5591422332649866
2420000000.0 -0.3819304469418483 -0.48141232044594046
2440000000.0 0.6613475836060171 0.023608679143463845
2460000000.0 -0.5267926037749997 0.46325658607937986
2480000000.0 0.14426714007735258 -0.7182201016187361
2500000000.0 -0.07266217151817543 0.749063303333656
2520000000.0 0.15211126782455522 -0.7483321310605534
2540000000.0 -0.446392468331597 0.6224599561157413
2560000000.0 0.7229471517176194 -0.23582881356703775
2580000000.0 -0.5690355648604271 -0.48375130825341
2600000000.0 0.03472322622048282 0.7225419648235532
2620000000.0 0.4532658894649918 -0.526918772427357
2640000000.0 0.098917368514787 -0.6508573334994341
2660000000.0 -0.4463484577684781 0.4231966125893698
2680000000.0 0.5576390929254252 -0.10043554683927068
2700000000.0 -0.39204980205319234 -0.3363207577913218
2720000000.0 0.15139450341300442 0.44452017705460467
2740000000.0 0.14033118580091583 -0.39823638426869645
2760000000.0 -0.3545160306605373 0.1521218747119714
2780000000.0 0.26783371904506764 -0.23240062706530115
2800000000.0 -0.053824584606075754 0.3242716390575115
2820000000.0 -0.13715907685408033 -0.2761170627293769
2840000000.0 0.2895987586753429 0.07120140488317085
2860000000.0 -0.1969706316726128 0.21222661187095354
2880000000.0 0.06954744431625395 -0.2769346192088563
2900000000.0 -0.25050428801869923 0.13739301513516736
2920000000.0 0.10272525473441135 0.27471314238426786
2940000000.0 0.2521331059400502 -0.17592605684878404
2960000000.0 -0.30332471063457933 -0.09057911453914069
2980000000.0 -0.1341317587919258 0.2893385101228596
3000000000.0 -0.245482454706683 0.20184685163868873
3020000000.0 -0.2873390134489158 -0.1368825862549641
3040000000.0 -0.06685018738775612 -0.3077954680438971
3060000000.0 0.2692840768035006 0.14707774229374257
3080000000.0 -0.19393491292649526 -0.224412914394927
3100000000.0 -0.044401196406093246 0.2864349008674265
3120000000.0 0.1265633500110376 -0.25512017372336954
3140000000.0 0.018644936404425723 0.276621448906262
3160000000.0 -0.17536650203514925 -0.19937121913438408
3180000000.0 -0.0046637192154042675 0.25096821956734555
3200000000.0 -0.2018386314960092 0.11097824037701468
3220000000.0 -0.2024781038673385 0.01553056586740654
3240000000.0 -0.08473248244175578 -0.14772921572503225
3260000000.0 0.08146418690601982 -0.1072186184430188
3280000000.0 -0.06858467715962935 -0.06949424016545906
3300000000.0 -0.06393851859199114 0.029570878385791775
3320000000.0 0.04064109590997174 0.010194603569286106
3340000000.0 0.009888556329183057 -0.022372826352686875
3360000000.0 0.00805993403712923 -0.006153100187583504
3380000000.0 -0.003927871087682001 0.0017474913393414693
3400000000.0 -0.014358808043763731 0.006506168307958249
3420000000.0 0.0012513409857636292 -0.03397956010073915
3440000000.0 0.025666456544211742 0.04396478454877575
3460000000.0 -0.014717977810915293 0.06329057063461362
3480000000.0 -0.006406425507350214 -0.07341056967150529
3500000000.0 -0.08677584999316701 -0.015551897857142139
3520000000.0 0.08495039714759636 -0.05229454838119478
3540000000.0 -0.11273361040604625 -0.0004664056200306212
3560000000.0 0.10064983255902671 -0.072486478896968
3580000000.0 -0.1145758124652665 -0.07458959359716438
3600000000.0 0.13288054677750794 -0.07457702346545483
3620000000.0 -0.0517264819980307 0.15775638340747333
3640000000.0 -0.0962124910116663 0.15377191995447972
3660000000.0 -0.18266670931814116 -0.04609735178279707
3680000000.0 -0.17994595967439725 -0.07528771594458102
3700000000.0 -0.19375247796584688 0.021953190865608877
3720000000.0 -0.15557478866071373 -0.11267587866735547
3740000000.0 0.16298159072527457 -0.08249005035523169
3760000000.0 -0.04166812421623082 -0.17363437944356
3780000000.0 -0.10309224852315518 0.14301253483565332
3800000000.0 -0.01571804028113437 -0.17086620238875364
3820000000.0 0.004992765860254344 0.16248255548299018
3840000000.0 0.03431892288354813 0.14364550032892892
3860000000.0 -0.1408819533121383 -0.015364247871331633
3880000000.0 0.13931437029455015 0.02828034273386089
3900000000.0 -0.14993871253640964 -0.008057505035867815
3920000000.0 -0.0010607580832896401 0.16462507480982258
3940000000.0 -0.07948561920577847 0.15743402844835472
3960000000.0 0.16230360534875057 0.08120889431701801
3980000000.0 0.017929542826599167 -0.1744642667270647
4000000000.0 -0.017956935216174023 -0.16332593338949056
