!Created with skrf (http://scikit-rf.org).
# Hz S RI R 50.0 
!freq ReS11 ImS11
400000000.0 0.7283018454390766 0.46891638694087934
420000000.0 0.8431136780416851 -0.02767925730469982
440000000.0 0.7962179421869696 -0.061149197657644684
460000000.0 0.7333689771149433 -0.16423059798457013
480000000.0 -0.5394846662085577 -0.429033696110192
500000000.0 0.5191859423489465 0.2930741152509451
520000000.0 0.4963611536027523 -0.033399785785277476
540000000.0 -0.17532915918950187 -0.39267534670759696
560000000.0 -0.2962268987511358 0.25588511316081747
580000000.0 -0.28589030438476615 -0.22176156657241122
600000000.0 0.35752450364535543 -0.021522333363812915
620000000.0 -0.34521683733297026 -0.1022350388753429
640000000.0 -0.32516683412707353 -0.24541913262632353
660000000.0 -0.21294107943878088 0.34908566728691615
680000000.0 -0.3391011573528421 -0.288207513839323
700000000.0 0.14824100739633084 0.4386739389074261
720000000.0 -0.4340232794732748 -0.17862360431866386
740000000.0 2.72134121931048e-05 0.43878279089343614
760000000.0 0.16466673822232927 0.37355672655483435
780000000.0 -0.1419477249896623 0.3418430967290326
800000000.0 0.013491932678324497 0.3227146342123567
820000000.0 -0.23779714434889968 0.1343457560554678
840000000.0 0.20786712811019503 -0.013460055265204192
860000000.0 -0.02719365428395265 -0.17426720607306087
880000000.0 -0.08256040208487543 0.12764441977193794
900000000.0 -0.09980721891044339 -0.03436846388997103
920000000.0 -0.03678105036802424 -0.04245711526446696
940000000.0 0.006462724467916819 0.03424509545223522
960000000.0 -0.036990982729204196 0.00043251518437014384
980000000.0 -0.0013840838901079588 -0.05909941046395917
1000000000.0 -0.015322168997340626 -0.09320856181290404
1020000000.0 0.11908492290316981 -0.015209825733222227
1040000000.0 0.010774933222108837 0.13476638362576635
1060000000.0 0.10754770058226301 -0.1166431417179306
1080000000.0 -0.14635451035925995 0.10462467616853127
1100000000.0 0.1171509637853974 -0.17066015321555297
1120000000.0 0.18852897770213378 0.13809470055628142
1140000000.0 -0.2576418645048727 0.006933743350485018
1160000000.0 -0.09763891116066152 0.26919246766634536
1180000000.0 -0.24662315644447874 0.1906563422084069
1200000000.0 0.3249320320134601 -0.10138434412032839
1220000000.0 -0.3555779603588441 0.10762430194221397
1240000000.0 0.39021651643815874 -0.05357935377691335
1260000000.0 -0.21602120628400892 -0.34622929020272697
1280000000.0 -0.2997124832908176 0.3039970618919184
1300000000.0 0.38388614365380413 0.20122513925964608
1320000000.0 0.43546534758885425 0.01837355409626941
1340000000.0 0.4388645722321697 -0.029894622791871068
1360000000.0 0.41081285938198814 -0.16462144609963755
1380000000.0 -0.06980545277336944 -0.42944698199063036
1400000000.0 -0.41764354428684625 -0.07238585894356711
1420000000.0 0.1638867057131179 0.36880187756811444
1440000000.0 0.372036330140225 -0.03362186202857861
1460000000.0 0.19470709593263683 -0.2829796643731139
1480000000.0 -0.27580857932839764 -0.15379330451924927
1500000000.0 0.015538102840334475 0.28433295514122503
1520000000.0 0.037160076183109424 0.2493806329997849
1540000000.0 -0.07483048721312399 -0.2100974045655305
1560000000.0 0.15409258126958708 0.11614390514941528
1580000000.0 0.13079679244994677 0.1030554698406391
1600000000.0 0.12997645243328332 -0.004015720706220044
1620000000.0 -0.0035807633838956634 0.09846411367410635
1640000000.0 0.07324459250325653 -0.029292648419688615
1660000000.0 0.058152604138115856 0.034949494884109485
1680000000.0 0.04642486417233805 -0.010938386531201457
1700000000.0 -0.01981478558810459 -0.017861173636297228
1720000000.0 -0.0014771008596684457 -0.00875928506270764
1740000000.0 0.001610551443896224 -0.011532228051918543
1760000000.0 0.023634165388273506 -0.02256021688369854
1780000000.0 -0.05278795096040753 0.02787225062282862
1800000000.0 0.0369716654543616 -0.08994364723581942
1820000000.0 -0.11381275626411154 0.06093748617172763
1840000000.0 0.13340193678357182 -0.10018381633665206
1860000000.0 0.13738926894257772 0.14581184093854377
1880000000.0 0.19364029742983274 -0.1362075227749648
1900000000.0 -0.2717523478626448 -0.07301948115042173
1920000000.0 0.31832718523992476 -0.0465574064763328
1940000000.0 -0.3369286968378747 -0.08814614456424454
1960000000.0 -0.014727318378899444 0.37351642070005103
1980000000.0 0.3904137896779627 -0.10131814077070651
2000000000.0 -0.39927740995772937 -0.13147896790514563
2020000000.0 -0.22942606073669541 0.3599034981814432
2040000000.0 0.11671843459326951 0.4164474537137971
2060000000.0 0.3643510713265909 0.23541312046603188
2080000000.0 0.39482460505548517 -0.17370244595417852
2100000000.0 0.07759495823548282 -0.4192713958173444
2120000000.0 -0.27024271929592814 -0.31544780266565214
2140000000.0 -0.37978993750718815 -0.12626061719721504
2160000000.0 0.20689079099909038 -0.32668277111833627
2180000000.0 -0.05680274998161112 -0.3687367337417765
2200000000.0 -0.2345398490490333 -0.2723486901825055
2220000000.0 -0.3244045296110727 -0.13101280960678724
2240000000.0 -0.34473673608113264 0.02324778842824075
2260000000.0 -0.20961777647110025 0.2774000752742727
2280000000.0 0.16801236034391648 0.3080476018409413
2300000000.0 0.36028251523288907 0.009002190399961337
2320000000.0 0.13368881541195937 -0.3606837051637066
2340000000.0 -0.39134612077304404 -0.1357248923766441
2360000000.0 -0.06696749506515008 0.4490399085342199
2380000000.0 0.23101443083680429 -0.4507194901114678
2400000000.0 -0.008662998423002562 0.5615496159989009
2420000000.0 -0.40338576873448145 -0.4634376239678024
2440000000.0 0.6611767355081928 -0.02702992569939181
2460000000.0 -0.5229163670289122 0.4685735052859076
2480000000.0 0.11276801524027091 -0.7242576795584353
2500000000.0 -0.12871570440665034 0.742312376020826
2520000000.0 0.2590878767256468 -0.7189098984920568
2540000000.0 -0.4805916604753552 0.5968352364367994
2560000000.0 0.7453371686393457 -0.15005806853938997
2580000000.0 -0.5538474272094168 -0.5000695312729602
2600000000.0 -0.012343781700070978 0.7231428366142586
2620000000.0 0.5567802386851789 -0.41407554170052285
2640000000.0 0.12034695668214006 -0.6464096145440075
2660000000.0 -0.4905200791367749 0.36887521120548583
2680000000.0 0.5625124905700503 -0.058653485415675444
2700000000.0 -0.3462432584951083 -0.3827028167235715
2720000000.0 0.09906313268663566 0.45777494895176707
2740000000.0 0.1524825398401479 -0.3931207572469972
2760000000.0 -0.35343711404519085 0.15328822173331458
2780000000.0 0.26197041603557875 -0.2379835514622454
2800000000.0 -0.005810605482771134 0.32793926242655025
2820000000.0 -0.16423925956192884 -0.2597499200154215
2840000000.0 0.2960914461977808 0.022607783594669056
2860000000.0 -0.18892144326191396 0.21894808648729072
2880000000.0 0.05276538323811157 -0.2812909807783455
2900000000.0 -0.24805394413443524 0.14369961921830782
2920000000.0 0.07929552236581001 0.28406822260478115
2940000000.0 0.24596435539482941 -0.18579218079360668
2960000000.0 -0.3022833321920163 -0.09579211714255895
2980000000.0 -0.18186323113475125 0.26253270587623007
3000000000.0 -0.2768624307699864 0.15676217935656786
3020000000.0 -0.275546934247931 -0.15995054318627472
3040000000.0 0.015635080928058043 -0.3141776314875264
3060000000.0 0.2220128781629123 0.21256210700358524
3080000000.0 -0.14505439316910104 -0.25921491326114177
3100000000.0 -0.1358497705690159 0.25663573257022526
3120000000.0 0.13660724519224204 -0.2520821226602161
3140000000.0 -0.058484012827539025 0.27184097819694797
3160000000.0 -0.1311505667517114 -0.23053713711328508
3180000000.0 -0.04034591916994074 0.24780787587567354
3200000000.0 -0.22428929597310684 0.0515801536604754
3220000000.0 -0.19677382646939143 -0.047094708763239526
3240000000.0 -0.01894693764413677 -0.16911339253086216
3260000000.0 0.12994720743532684 -0.03212458379353388
3280000000.0 -0.0499429326468985 -0.08262187244039242
3300000000.0 -0.05589201554975312 -0.041369537536159524
3320000000.0 0.004042352082978875 0.04188790416061538
3340000000.0 0.009692253719365525 -0.022057755749878585
3360000000.0 0.004348404000341388 -0.008588079208650073
3380000000.0 0.004332005765370876 0.0014006522185248213
3400000000.0 -0.01041069044809179 -0.013303012011246822
3420000000.0 0.004000894492483362 -0.03417536662272138
3440000000.0 0.05031598647050683 0.008708415724808072
3460000000.0 -0.025715797082264097 0.059177414629502455
3480000000.0 -0.022240818680809772 -0.07065832845044327
3500000000.0 -0.07194795489207109 -0.05104081104801911
3520000000.0 0.08867474536416432 -0.04539242618529451
3540000000.0 -0.1122249788674583 -0.0072945529020151416
3560000000.0 0.11304499093251055 -0.04942683207673039
3580000000.0 -0.10500394914759638 -0.08669816418249394
3600000000.0 0.1435370836683985 -0.04711843709946497
3620000000.0 -0.05468267758167237 0.1561894712108006
3640000000.0 -0.09132765619360586 0.15611717178939502
3660000000.0 -0.18624331017983387 -0.022438588872693076
3680000000.0 -0.1815321515471601 -0.06969815847459998
3700000000.0 -0.19482865869301863 -0.0012536187854743702
3720000000.0 -0.1588951139025551 -0.10749431957221282
3740000000.0 0.14175117685166375 -0.11473676939536429
3760000000.0 -0.08832878708156877 -0.15533243990528098
3780000000.0 -0.040444921194989936 0.17141250402418207
3800000000.0 -0.11422963343922765 -0.12722016221094481
3820000000.0 0.0693108600294268 0.146565993502136
3840000000.0 0.06153059355140023 0.1348186953210446
3860000000.0 -0.1416551405291059 0.010377928625373817
3880000000.0 0.14221584171322443 0.01074587715223753
3900000000.0 -0.15005073495640162 0.007742967085103987
3920000000.0 0.06577780868540715 0.15037601238257095
3940000000.0 0.023994743513161013 0.17376656996463788
3960000000.0 0.17694690635538982 -0.037650591142178814
3980000000.0 -0.042796441907597106 -0.16982351761283693
4000000000.0 -0.10019177079162729 -0.13091166321274603
