!Created with skrf (http://scikit-rf.org).
# Hz S RI R 50.0 
!freq ReS11 ImS11
400000000.0 0.7404874942782624 0.45100684721141115
420000000.0 0.8422075221469832 -0.027059352879071654
440000000.0 0.7937626460837115 -0.07899728007585684
460000000.0 0.7293592185341334 -0.18040709123181264
480000000.0 -0.539921505358781 -0.42996310152637895
500000000.0 0.5325572293874807 0.2675164784742807
520000000.0 0.4965921710618278 -0.03172506692862137
540000000.0 -0.18278824128494356 -0.3896632670517607
560000000.0 -0.2942014774909491 0.2585155035247885
580000000.0 -0.2506971317697436 -0.26143268471659015
600000000.0 0.3582815497849382 -0.007830397282232815
620000000.0 -0.34327976449114195 -0.10964175471731041
640000000.0 -0.33277557697246923 -0.23543998609576827
660000000.0 -0.21755649957305753 0.3457740940001864
680000000.0 -0.3285963795842667 -0.29959543278471035
700000000.0 0.155517779170118 0.4357625807455249
720000000.0 -0.43609238469528516 -0.1727364093305418
740000000.0 -0.0194501742025935 0.43935825296532954
760000000.0 0.1363247416472107 0.3854316647947431
780000000.0 -0.12082193437791183 0.3506072520385148
800000000.0 0.0412230585078485 0.32058666993069057
820000000.0 -0.2405965519898847 0.12782211571957086
840000000.0 0.20776948377318746 -0.007703864880298372
860000000.0 -0.02032088919733929 -0.17559026193236746
880000000.0 -0.07081458753142296 0.13448234610200185
900000000.0 -0.10599072978044208 -0.0010905105093479432
920000000.0 -0.055099448764264924 0.012001942189873695
940000000.0 0.03462298966423394 0.002506043268346685
960000000.0 -0.02428672348343717 0.02650770323103329
980000000.0 0.03630005006663179 -0.04563661732354101
1000000000.0 0.03834484889901678 -0.08612120070073313
1020000000.0 0.11972801927655793 0.0010509272672877491
1040000000.0 -0.00390783648331369 0.13511686893148214
1060000000.0 0.12460210977906468 -0.09840227285040729
1080000000.0 -0.14959000923861404 0.09971606737446824
1100000000.0 0.12081938706353389 -0.16815115139799924
1120000000.0 0.2099314294140543 0.10224285733217929
1140000000.0 -0.25508113789886705 0.03992126074777315
1160000000.0 -0.08710945137901488 0.27282150137435307
1180000000.0 -0.26712630037692314 0.16052768022912187
1200000000.0 0.33174823230113787 -0.07616975264800778
1220000000.0 -0.3593373918349103 0.09510112084834298
1240000000.0 0.3911288026466953 -0.044559472417441036
1260000000.0 -0.20510907890730512 -0.352688462850918
1280000000.0 -0.3236262761497207 0.27798628665807107
1300000000.0 0.3800443751914982 0.2079710165490931
1320000000.0 0.4355127287363348 -0.00878112808280478
1340000000.0 0.4333561069550615 -0.07499113985856162
1360000000.0 0.40363482283396906 -0.18118239033632844
1380000000.0 -0.07579556487854053 -0.4281817515040329
1400000000.0 -0.41903131049900055 -0.06307158074181687
1420000000.0 0.16809412931476547 0.3667235473748757
1440000000.0 0.36889513531468193 -0.05657982255275412
1460000000.0 0.1887996403693576 -0.2872961345765035
1480000000.0 -0.28823282668230527 -0.13061308315247586
1500000000.0 0.0032441506652028805 0.2850048466977968
1520000000.0 0.002674399404854248 0.25236348864279634
1540000000.0 -0.018809200996868086 -0.22293974484457538
1560000000.0 0.14552373655865627 0.12703424134225422
1580000000.0 0.11229797076737105 0.123348435132568
1600000000.0 0.12849909278117397 -0.0230464267836332
1620000000.0 -0.0232682426797487 0.0956934386582662
1640000000.0 0.07838995278498528 -0.007763976745283117
1660000000.0 0.05527336323403555 0.038687600449858216
1680000000.0 0.042706797288508826 0.020008828466710007
1700000000.0 -0.01975863450354259 -0.01785053650494972
1720000000.0 0.0011996828774854178 -0.008818838877343286
1740000000.0 -0.01039314846440436 -0.005215653297530996
1760000000.0 0.02486684128595932 0.02143721160755155
1780000000.0 -0.05584426338485395 -0.020022942946172035
1800000000.0 0.07059750727993673 -0.06710575251299997
1820000000.0 -0.118250977649624 0.05127207027018282
1840000000.0 0.1185793854178101 -0.1172715668461387
1860000000.0 0.16350522831134895 0.11516334922733394
1880000000.0 0.1810885599764708 -0.15246634957936944
1900000000.0 -0.27522444802761703 -0.05890001880596713
1920000000.0 0.31758330368667886 -0.05032814940728303
1940000000.0 -0.34256203906651206 -0.06366889994173046
1960000000.0 0.0008020620122172095 0.3742167717770002
1980000000.0 0.3875539344109102 -0.11223451656219857
2000000000.0 -0.3958554615766101 -0.14308879962049828
2020000000.0 -0.22487827826480908 0.3633494556383217
2040000000.0 0.07102109640244292 0.42721569717210667
2060000000.0 0.36306523681069547 0.2378294247802682
2080000000.0 0.3956317746162993 -0.17149432949207533
2100000000.0 0.10385115375302956 -0.41353682116888935
2120000000.0 -0.24537785554374095 -0.3349711732460459
2140000000.0 -0.35298905152321586 -0.1872741780178307
2160000000.0 0.24901198527651205 -0.2953686250121991
2180000000.0 -0.0511238846033712 -0.36944612861022547
2200000000.0 -0.23178117911899976 -0.27432334762646315
2220000000.0 -0.3342235037539867 -0.10260094821440524
2240000000.0 -0.3440620290473857 0.030939828254217438
2260000000.0 -0.19582038483841016 0.2872572866852121
2280000000.0 0.1865979519167816 0.2970509262141579
2300000000.0 0.3601713783352584 0.013950013566675334
2320000000.0 0.12655243661520654 -0.3634210167921631
2340000000.0 -0.39014731181191636 -0.14056743176635647
2360000000.0 -0.07056970046437762 0.4487021111137088
2380000000.0 0.23000825240052036 -0.45177909386445675
2400000000.0 -0.033677821242932594 0.5607111107806945
2420000000.0 -0.37394338185537496 -0.4878619846103091
2440000000.0 0.6618960657998835 0.003951630191211243
2460000000.0 -0.5165783451762785 0.4751518977993348
2480000000.0 0.14123536764021088 -0.719253838577313
2500000000.0 -0.028621335103836774 0.7525073996679429
2520000000.0 0.18164679142861737 -0.7421416439916227
2540000000.0 -0.4508854540852358 0.6197444254695103
2560000000.0 0.7404374926523226 -0.17446720480840774
2580000000.0 -0.536972188730184 -0.519303139009486
2600000000.0 -0.03596504728556885 0.7226811284279233
2620000000.0 0.5547658312254232 -0.41850690491117276
2640000000.0 0.1539009679865207 -0.6398075120532544
2660000000.0 -0.4887138340096243 0.37278177772486487
2680000000.0 0.5651163942936417 -0.028941717639144302
2700000000.0 -0.3586564512357036 -0.37082306661184494
2720000000.0 0.10456234318797684 0.4570214147563093
2740000000.0 0.17629288733807916 -0.38295216675005633
2760000000.0 -0.3636034204505165 0.12619139658960107
2780000000.0 0.2572487067637775 -0.24288399778277323
2800000000.0 -0.01088659660079449 0.32782259824310966
2820000000.0 -0.18069848761392104 -0.24887477389241264
2840000000.0 0.2957862897644359 0.03127918402525604
2860000000.0 -0.1895438650445144 0.21912192670117372
2880000000.0 0.05821006527241774 -0.28017813576888206
2900000000.0 -0.253322886512487 0.13469177597669868
2920000000.0 0.09265665081044216 0.2796964600900793
2940000000.0 0.2623791602698579 -0.16238867579341792
2960000000.0 -0.29225667700905567 -0.12449265427282333
2980000000.0 -0.1818269594097943 0.26285809235772545
3000000000.0 -0.27902423059224396 0.15367310539210768
3020000000.0 -0.2774217358088518 -0.15765031491292897
3040000000.0 0.03643580594085863 -0.3134675761197607
3060000000.0 0.2062624789714698 0.22767117685922922
3080000000.0 -0.12479315972998271 -0.2691769543899894
3100000000.0 -0.16987739595951226 0.23441238421342125
3120000000.0 0.14143327496620547 -0.2476011749349668
3140000000.0 -0.03838782368063467 0.2739731924445509
3160000000.0 -0.1320538487285405 -0.22910465721908482
3180000000.0 -0.0408450795696531 0.24679780564574974
3200000000.0 -0.2155081396004944 0.0780999700255014
3220000000.0 -0.20175754243678856 -0.0017653132468068396
3240000000.0 -0.07865073547264644 -0.15009263517700897
3260000000.0 0.06073878440759301 -0.11922206123849845
3280000000.0 -0.09493778171929064 -0.01835559238725132
3300000000.0 -0.06151962870800337 0.03300697545708149
3320000000.0 0.04016413008272324 -0.01030316724095123
3340000000.0 -0.021939401905014654 0.010021653624379106
3360000000.0 0.009367928425493523 -0.0022867952926981737
3380000000.0 -0.0034544841576658433 -0.0011707994803024124
3400000000.0 0.009829312095591763 -0.01296242121657676
3420000000.0 0.03312420699339445 -0.008165720057859841
3440000000.0 0.00902871990962799 0.049778033911332016
3460000000.0 -0.06359959877552492 0.009343454325811266
3480000000.0 0.029066058108183673 -0.06735546416176634
3500000000.0 -0.03201026642082563 -0.08151809567547712
3520000000.0 0.0966281758224965 -0.024670497285855943
3540000000.0 -0.11233226895992775 -0.010003583026940708
3560000000.0 0.1152644212797813 -0.04467351805989491
3580000000.0 -0.0898141925205061 -0.10223956636567383
3600000000.0 0.141239536890604 -0.05588004828813616
3620000000.0 -0.07578672725818558 0.14736015995482304
3640000000.0 -0.10914081573782945 0.1446474177905558
3660000000.0 -0.17603006592124848 -0.06741990801801878
3680000000.0 -0.1718846892673247 -0.09210743596114104
3700000000.0 -0.19480908024723217 0.006972734908709128
3720000000.0 -0.15045968789548433 -0.11947938936049088
3740000000.0 0.16501704662949693 -0.0787713320513047
3760000000.0 -0.047041181331204496 -0.171919844253878
3780000000.0 -0.10470857946046877 0.14181580949359437
3800000000.0 -0.029366742445694833 -0.16874974894161576
3820000000.0 0.004435127188786977 0.16224514984520064
3840000000.0 0.0020517737853765067 0.14749558887337877
3860000000.0 -0.1300740375628305 -0.05605245946158679
3880000000.0 0.13256515630357943 0.050830425254757894
3900000000.0 -0.14783548243100192 -0.02579923276699538
3920000000.0 -0.020466895902502478 0.16266575791619578
3940000000.0 -0.08404778015928556 0.15409308884312858
3960000000.0 0.1579687085080221 0.08760028943554453
3980000000.0 0.0391942801267137 -0.17024303712087618
4000000000.0 -0.017003069959252548 -0.1631683029794366
