!Created with skrf (http://scikit-rf.org).
# Hz S RI R 50.0 
!freq ReS11 ImS11
400000000.0 0.7475985017141438 0.4390886521719021
420000000.0 0.8419035120886231 -0.03350118685565063
440000000.0 0.7916783457174036 -0.09540576636106314
460000000.0 0.7311311261240069 -0.174580437491296
480000000.0 -0.5412556779107388 -0.4286376406191835
500000000.0 0.5368016923115961 0.25789298395499527
520000000.0 0.4964057630947219 -0.034996068877752015
540000000.0 -0.15697174085207014 -0.40108569403769606
560000000.0 -0.29889437503724925 0.2531180715262602
580000000.0 -0.2380832355851564 -0.27260238029367156
600000000.0 0.3586539405531797 -0.0075751125875436285
620000000.0 -0.36001663359542 -0.020900441722297585
640000000.0 -0.3589485490711256 -0.19240982158723144
660000000.0 -0.20523193136231868 0.35234089784131356
680000000.0 -0.31830907303588707 -0.3104833381000328
700000000.0 0.15002797158002956 0.43746734739186677
720000000.0 -0.4356496793709571 -0.17327032672276052
740000000.0 -0.042868822765222046 0.437715811654873
760000000.0 0.12047091841112224 0.39166642945840474
780000000.0 -0.09546406542502146 0.3589583783575679
800000000.0 0.07669922454455859 0.31404980738703847
820000000.0 -0.23920313908220794 0.12930054539359453
840000000.0 0.2063438955461555 0.02172636001588345
860000000.0 0.006732320194619971 -0.17654136180392205
880000000.0 -0.08710495816719473 0.1243329632284468
900000000.0 -0.10555340198631959 -0.009473793673273013
920000000.0 -0.05177030506934953 0.023179339586826095
940000000.0 0.019612102910105407 -0.028902686642306875
960000000.0 0.019668565752530936 0.029955728362019377
980000000.0 0.008860640200979337 -0.057197991359363966
1000000000.0 0.02930916941098776 -0.08956221727849466
1020000000.0 0.11960995480669337 -0.0005971811403069746
1040000000.0 -0.01363283780213097 0.13424764835166988
1060000000.0 0.1336988318328717 -0.08520075494331732
1080000000.0 -0.1698217430854777 0.05845811661305995
1100000000.0 0.1233648504596342 -0.16654728472004146
1120000000.0 0.20600385813008748 0.11084312549171517
1140000000.0 -0.24752929936571166 0.07272582266236076
1160000000.0 -0.0575030373654819 0.2801276333417898
1180000000.0 -0.2631083303569701 0.16696274168209618
1200000000.0 0.32134593488171775 -0.11335456972977205
1220000000.0 -0.34605753193468475 0.13579706250718662
1240000000.0 0.3841489449645089 -0.08498430362458971
1260000000.0 -0.21369282145699853 -0.3474111666197601
1280000000.0 -0.32579586167650626 0.2757724323856334
1300000000.0 0.3689857889347313 0.22784680012329123
1320000000.0 0.4358885334866027 -0.016473676495604644
1340000000.0 0.43110353202547563 -0.08840832050431781
1360000000.0 0.39999117718434074 -0.18927666987711456
1380000000.0 -0.06627565596138003 -0.4296593542596094
1400000000.0 -0.413617602228006 -0.09234401926539082
1420000000.0 0.14223070483231048 0.37734200844180843
1440000000.0 0.3723278570749533 -0.024849543801231205
1460000000.0 0.18998279831116557 -0.28610650767981705
1480000000.0 -0.28346215349316384 -0.13853924403836756
1500000000.0 -0.0008127644149426508 0.2839766236779051
1520000000.0 -0.011414580759199041 0.25131220299847107
1540000000.0 -0.04307277119495158 -0.21847971561078777
1560000000.0 0.14667621128085123 0.12507121176392053
1580000000.0 0.1197691102605136 0.11599621582103772
1600000000.0 0.12548831461144772 -0.03610656462031056
1620000000.0 0.0033238355014568828 0.0983586307983046
1640000000.0 0.06343319810203105 -0.04670861313005713
1660000000.0 0.06710550510170307 0.008752809170813686
1680000000.0 0.04089709617510455 0.023385321320117378
1700000000.0 0.008478678281277683 -0.025202247396653908
1720000000.0 -0.006489494033349707 0.0064708121066782
1740000000.0 0.009191738265685484 -0.006424536235021611
1760000000.0 0.029253165546139926 -0.014494417275085623
1780000000.0 -0.058542678268375024 -0.01118548657099938
1800000000.0 0.07502602633190512 -0.06267805609232063
1820000000.0 -0.12264818578953118 0.04295057747068662
1840000000.0 0.11809398113515376 -0.11902527165578826
1860000000.0 0.16479876581488706 0.11435349553982853
1880000000.0 0.17949329614577644 -0.15487861281033868
1900000000.0 -0.2718598291311645 -0.07236466682859304
1920000000.0 0.3205012340794906 -0.024340459273151215
1940000000.0 -0.3345417885240376 -0.09730830484063359
1960000000.0 -0.01620719727010963 0.37376284594889725
1980000000.0 0.38542355567391373 -0.11783981887238981
2000000000.0 -0.3969933946368681 -0.13767293234633643
2020000000.0 -0.23911347187071932 0.3533558389325186
2040000000.0 0.09982493329815928 0.4206773412091199
2060000000.0 0.3608479279609576 0.240795629076242
2080000000.0 0.38823382477124646 -0.1873416592518259
2100000000.0 0.05521074235449182 -0.42238142030069814
2120000000.0 -0.2813258171030352 -0.3046789007551975
2140000000.0 -0.3860184174164493 -0.10006036434118115
2160000000.0 0.23114153251021272 -0.30912864322778677
2180000000.0 -0.07961304686584149 -0.364077532969036
2200000000.0 -0.25745363134968596 -0.2507801938784253
2220000000.0 -0.34334878612601827 -0.06952679227678962
2240000000.0 -0.3429497006788157 0.04493638980125587
2260000000.0 -0.19187124771876027 0.29010181968074633
2280000000.0 0.19207321477187295 0.2938093273001237
2300000000.0 0.3606909836377276 0.0017095136112321647
2320000000.0 0.134588883062072 -0.36047229422255045
2340000000.0 -0.3896148620882421 -0.1431513002825702
2360000000.0 -0.06795612120614347 0.44960817583838336
2380000000.0 0.23464157329535237 -0.44975140397970803
2400000000.0 -0.0502702841665013 0.5594701316418073
2420000000.0 -0.37606399088745684 -0.4861019528084742
2440000000.0 0.6615010980184275 0.01747927506557436
2460000000.0 -0.5183081621614264 0.47304186274013255
2480000000.0 0.14342795142798273 -0.7183608339607443
2500000000.0 -0.09687124598337528 0.7466318309148974
2520000000.0 0.15835040312212442 -0.7470851032578766
2540000000.0 -0.44679681306975694 0.622154636309497
2560000000.0 0.7382900991949674 -0.1822111444492944
2580000000.0 -0.6031930835516958 -0.4396876275401566
2600000000.0 -0.025514366137215375 0.7230500608304302
2620000000.0 0.5434111444739135 -0.43281016605624484
2640000000.0 0.09719211692137983 -0.6507117810999657
2660000000.0 -0.4492868920463463 0.4196222229262182
2680000000.0 0.5581612615009888 -0.09433409854534029
2700000000.0 -0.39143145200106505 -0.336313439725841
2720000000.0 0.1532971845523389 0.44343808506814625
2740000000.0 0.13994034475463485 -0.39811796993264326
2760000000.0 -0.3509637135298108 0.15944057490684868
2780000000.0 0.26071634381485825 -0.23976180063800193
2800000000.0 -0.026329477226614436 0.3274500254342153
2820000000.0 -0.15791375675746244 -0.26463343256402555
2840000000.0 0.29181750447749893 0.06176786893688513
2860000000.0 -0.19853625787285997 0.21085436672493063
2880000000.0 0.06677226176575869 -0.27778247065331946
2900000000.0 -0.25194387308430305 0.13499769727571098
2920000000.0 0.09308979361318341 0.2783151096630833
2940000000.0 0.25043113450067617 -0.17839620629553224
2960000000.0 -0.29520773816402124 -0.11507792168544348
2980000000.0 -0.16665749040142053 0.27149346352793297
3000000000.0 -0.2641554743048147 0.17530963349162104
3020000000.0 -0.28714804735760613 -0.13740383974061265
3040000000.0 -0.041047572663176865 -0.3123582547921816
3060000000.0 0.2781145007226645 0.12967232000830486
3080000000.0 -0.20295425213574514 -0.21595387869511148
3100000000.0 -0.10429876602579494 0.269947332573478
3120000000.0 0.08971055437005888 -0.27070263800555106
3140000000.0 -0.000327382235001613 0.2770332797520409
3160000000.0 -0.16312314145819062 -0.20910402526078528
3180000000.0 0.010139484425626701 0.2509366603848597
3200000000.0 -0.20784810267180076 0.09815788042945581
3220000000.0 -0.2022358964419442 0.01000388024373164
3240000000.0 -0.08355402522753577 -0.1484093030431655
3260000000.0 0.08494669136653202 -0.10431468594282522
3280000000.0 -0.08843052842329405 -0.04085754931489694
3300000000.0 -0.06730380010118749 0.02064172237964562
3320000000.0 0.03445640119879796 0.02362556154576471
3340000000.0 -0.008888088981604954 -0.022899042046827894
3360000000.0 0.0008054072052357945 -0.010148056525520381
3380000000.0 -0.003448675476986418 -0.002273399197357099
3400000000.0 -0.015726790736946168 -0.0014040409985221897
3420000000.0 0.0171421782209191 -0.029234225961561354
3440000000.0 0.042520657063004924 0.02813176476435728
3460000000.0 -0.0481990057710189 0.042788882056739815
3480000000.0 -0.010826338453136646 -0.07272855696361273
3500000000.0 -0.08510455878629251 -0.022239753924249303
3520000000.0 0.08103041933895218 -0.058600860288986596
3540000000.0 -0.1123852447393889 0.011016360176845248
3560000000.0 0.10220296172333271 -0.06985523011211689
3580000000.0 -0.09754274563819777 -0.09542312630156817
3600000000.0 0.13711972212123832 -0.06580483867048542
3620000000.0 -0.04769232664730111 0.15901497017888788
3640000000.0 -0.08384352772176146 0.16097333126018276
3660000000.0 -0.18008111791776787 -0.0552260061593637
3680000000.0 -0.17814914835426404 -0.07909796651076148
3700000000.0 -0.19383338349535129 0.0188195911184243
3720000000.0 -0.15461450507447652 -0.11392751121416565
3740000000.0 0.15784249821028737 -0.0918656204143912
3760000000.0 -0.04858341868345232 -0.1719124145888407
3780000000.0 -0.09699167174228401 0.14706453001658798
3800000000.0 -0.03953400385617429 -0.16662597495571027
3820000000.0 0.029677619075625206 0.15941667799630868
3840000000.0 0.028438951167770343 0.1450583945633251
3860000000.0 -0.13979020467571412 -0.023237996469147808
3880000000.0 0.1394027061717711 0.028415317493018982
3900000000.0 -0.15048465214578968 0.002288572525803626
3920000000.0 0.017998182076431207 0.16336647445813612
3940000000.0 -0.05702643410981305 0.16647918022690567
3960000000.0 0.17246278825863995 0.05521353688543001
3980000000.0 -0.004164131070316701 -0.1754022097380272
4000000000.0 -0.04626433483290675 -0.15818993095786113
