!Created with skrf (http://scikit-rf.org).
# Hz S RI R 50.0 
!freq ReS11 ImS11
400000000.0 0.7372935392855777 0.456633407700001
420000000.0 0.842209609835923 -0.014736276335231193
440000000.0 0.7924382112781186 -0.08942317929811854
460000000.0 0.7303615378462806 -0.17552888283620044
480000000.0 -0.5472328027586211 -0.4206139275043484
500000000.0 0.5318035347703527 0.2686063984029872
520000000.0 0.4967559840055538 -0.028810758903218124
540000000.0 -0.16660239475249325 -0.3966975735413626
560000000.0 -0.29227777139486827 0.2605513632247333
580000000.0 -0.23177522771301487 -0.27826179569523307
600000000.0 0.35848431189122737 -0.00516116705849412
620000000.0 -0.3473600001343944 -0.09618828737327792
640000000.0 -0.34871968999587616 -0.21064145243411553
660000000.0 -0.1963787658506245 0.3576834950271101
680000000.0 -0.3351282320204496 -0.291959651733705
700000000.0 0.1607904126536072 0.43370017313287484
720000000.0 -0.43532940408780757 -0.17491136319092648
740000000.0 -0.02511784372606531 0.43920514997628446
760000000.0 0.1325117662529357 0.3871142770330506
780000000.0 -0.12344132305398046 0.3495184833200876
800000000.0 0.060427637391084116 0.3175125518223535
820000000.0 -0.241170475042317 0.12660481914222094
840000000.0 0.20678794812400936 0.021360886459238542
860000000.0 0.006808854470222633 -0.1765715388149142
880000000.0 -0.09552079808265099 0.1177487560885167
900000000.0 -0.10524214887865181 -0.009003826959700739
920000000.0 -0.05348966506238424 0.016999228096529588
940000000.0 0.027351829043173317 -0.020913000110199354
960000000.0 -0.020386562333968208 0.02951299980673641
980000000.0 0.042582104376661635 -0.0396837379765842
1000000000.0 0.044304658066477355 -0.08313801680924399
1020000000.0 0.11974626711716478 -0.0020813203115132403
1040000000.0 -0.006796216891686007 0.13502007992899537
1060000000.0 0.12539742040302132 -0.09707576940189823
1080000000.0 -0.16429235117612356 0.07248612891540232
1100000000.0 0.10977811678247124 -0.17533023641332013
1120000000.0 0.2053174670534145 0.11089368243024965
1140000000.0 -0.2502231617187593 0.06223504987116038
1160000000.0 -0.06098483075852626 0.27932166077569565
1180000000.0 -0.258795271132239 0.17329707312568352
1200000000.0 0.32389371124082544 -0.10485992731083602
1220000000.0 -0.35257008751708097 0.11798344615279907
1240000000.0 0.3872683261518802 -0.07145925233750831
1260000000.0 -0.21806359615575416 -0.3450825508016699
1280000000.0 -0.31671904531526807 0.2864726529282556
1300000000.0 0.3792145729771952 0.21033080842654536
1320000000.0 0.43579193488951856 -0.00686170415865437
1340000000.0 0.4339249793858271 -0.07304751359872302
1360000000.0 0.40108570826870354 -0.18728233132445307
1380000000.0 -0.0825284960542201 -0.42699890453923367
1400000000.0 -0.4176988424815965 -0.0718122816418333
1420000000.0 0.1629063494874052 0.36861467519395935
1440000000.0 0.37249308664866554 -0.02319196774888113
1460000000.0 0.19558928329002495 -0.2825309380266676
1480000000.0 -0.2952328885618102 -0.11267726449352465
1500000000.0 0.0028600566642937746 0.28472876315613915
1520000000.0 0.025255528805838093 0.2503727677156802
1540000000.0 -0.032923330506424514 -0.22032222148950023
1560000000.0 0.14604002743691313 0.12592232135893766
1580000000.0 0.12173292002182139 0.11387773599131686
1600000000.0 0.11920783653917123 -0.05289060044694424
1620000000.0 -0.014216694226508607 0.09747699507372039
1640000000.0 0.07169442772450828 -0.03272946224380687
1660000000.0 0.0663208650966587 0.014281409268777868
1680000000.0 0.04745313363184006 -0.004600845609491031
1700000000.0 -0.009435561075308843 -0.02518198841517843
1720000000.0 0.009206364303972304 -0.00024839144157952445
1740000000.0 0.006200159962752803 0.009554352685542663
1760000000.0 0.032338544373176806 0.0044747086405502925
1780000000.0 -0.05953085666670661 -0.0018264626498069787
1800000000.0 0.06230791317493521 -0.07507453037937029
1820000000.0 -0.11645513350201511 0.05665989267674729
1840000000.0 0.10829546042869055 -0.12773515030671143
1860000000.0 0.1717122356075736 0.10325199001475453
1880000000.0 0.18042810935729567 -0.15357166135550773
1900000000.0 -0.2711479325336033 -0.07560272546581355
1920000000.0 0.3210250851472963 -0.01907552429374538
1940000000.0 -0.3377970959224093 -0.08613871860054509
1960000000.0 -0.012359151703630139 0.3739872599591155
1980000000.0 0.38811032897719644 -0.10892698647617415
2000000000.0 -0.3894576211078884 -0.15854921625259555
2020000000.0 -0.2417146451867379 0.35195243782080343
2040000000.0 0.0948906665791756 0.42190758806437295
2060000000.0 0.3750148018558866 0.21763819996484662
2080000000.0 0.37530365007489663 -0.21142881318663542
2100000000.0 0.09086914984751542 -0.41615250018023325
2120000000.0 -0.258886017884473 -0.3240064393331088
2140000000.0 -0.3651833300090927 -0.16133539765512717
2160000000.0 0.23966273400966565 -0.30273644141544265
2180000000.0 -0.0826623043759852 -0.3634837952842009
2200000000.0 -0.2638250036568165 -0.24369989242182954
2220000000.0 -0.34403071162384175 -0.0642194314131936
2240000000.0 -0.34404695914233335 0.03421438942944862
2260000000.0 -0.18831270445017198 0.29209929788848377
2280000000.0 0.2105932949552835 0.2808307076613997
2300000000.0 0.36062689099543455 -0.018866667578432025
2320000000.0 0.13323091890995614 -0.36114436024006563
2340000000.0 -0.3997670513605035 -0.11278796383992365
2360000000.0 -0.06065145012411797 0.4505837580678747
2380000000.0 0.24517197298851978 -0.4437727608406357
2400000000.0 -0.039815097706249275 0.5603281971317211
2420000000.0 -0.3813809430915096 -0.4819902313236265
2440000000.0 0.6610073431169865 0.0274135236456661
2460000000.0 -0.5601830573833814 0.42295485146778283
2480000000.0 0.1467409564279096 -0.7179151222032583
2500000000.0 -0.04305858104991585 0.7512513963533987
2520000000.0 0.16844995705671886 -0.74461111314542
2540000000.0 -0.45356516719080253 0.6171577026989997
2560000000.0 0.7339199922020744 -0.19911163593989514
2580000000.0 -0.5726578971071099 -0.47904648243315506
2600000000.0 0.01503341826279357 0.7229810950485076
2620000000.0 0.4729139682779836 -0.5090085512933249
2640000000.0 0.11515704940518415 -0.6479793555629746
2660000000.0 -0.45936652138519957 0.4088545875947554
2680000000.0 0.5620804370770368 -0.06856467486520557
2700000000.0 -0.37821766121605604 -0.3515699284548801
2720000000.0 0.1373574936610091 0.44889723049041064
2740000000.0 0.1430688226732992 -0.397206299336891
2760000000.0 -0.3535087880042208 0.15402780946984573
2780000000.0 0.25905225278062666 -0.24169572121851685
2800000000.0 -0.028357590619587175 0.32730039439834624
2820000000.0 -0.15011770436407273 -0.26871916920219124
2840000000.0 0.29021353274606787 0.0649945977307293
2860000000.0 -0.21506791088930288 0.19409191254467628
2880000000.0 0.08147744261084691 -0.27395065292354637
2900000000.0 -0.24834880546541194 0.14173629909442848
2920000000.0 0.10855362299982188 0.272840954443447
2940000000.0 0.2556604221010622 -0.1713141780738058
2960000000.0 -0.3094548099868743 -0.0678391399397066
2980000000.0 -0.16650515114021602 0.2719088058171652
3000000000.0 -0.27154358026682357 0.1658326289770096
3020000000.0 -0.2643373013209787 -0.17747329615495588
3040000000.0 0.052929640463355625 -0.31053334484524786
3060000000.0 0.2723973584926367 0.1422146617931829
3080000000.0 -0.16365962557165156 -0.24748579347480243
3100000000.0 -0.08465981200930943 0.27709411432524383
3120000000.0 0.14528591269011945 -0.24513278117857065
3140000000.0 -0.0032119263137630615 0.27672783277294594
3160000000.0 -0.15612312559212643 -0.2139840548998268
3180000000.0 -0.00034289048112767036 0.25070376344132306
3200000000.0 -0.20591370279655358 0.10221534410398267
3220000000.0 -0.20234307054843764 0.006831009641438397
3240000000.0 -0.08476117382488171 -0.14773014812358518
3260000000.0 0.06323561081850962 -0.11875076062976146
3280000000.0 -0.09273380585118489 -0.03010476225031699
3300000000.0 -0.06035599956501109 0.03635541184622367
3320000000.0 0.040135870017830935 0.011524927039829522
3340000000.0 -0.016128533606891583 -0.018580825158550907
3360000000.0 0.004273687071784433 0.009501230031860184
3380000000.0 0.003668271987146847 2.4299156611272937e-05
3400000000.0 -0.01519787402883956 -0.00396218147099565
3420000000.0 0.014547642209733388 -0.03054790838067078
3440000000.0 0.03637351955725706 0.03522252559408921
3460000000.0 -0.03588400545588398 0.05338548421587493
3480000000.0 -0.012195707908828832 -0.07238320448184146
3500000000.0 -0.08515355852015273 -0.022126786758384868
3520000000.0 0.07752926841833806 -0.06296356702269104
3540000000.0 -0.11057465408238316 0.022777899841180376
3560000000.0 0.09712096945541868 -0.07695975290399337
3580000000.0 -0.11597067193876437 -0.07138704442154777
3600000000.0 0.128135439681978 -0.081911355075067
3620000000.0 -0.04564504838655924 0.15926770070054672
3640000000.0 -0.09115667003759834 0.15621938065383542
3660000000.0 -0.18486630399000728 -0.03523985279166377
3680000000.0 -0.18775836388697142 -0.05321294820925125
3700000000.0 -0.18986893153446752 0.044795837991967034
3720000000.0 -0.16519189132083167 -0.09840564030122365
3740000000.0 0.15206446622634268 -0.10187629147252956
3760000000.0 -0.05897358780494901 -0.16888254339538508
3780000000.0 -0.08726015425291399 0.15332518254545335
3800000000.0 -0.04089565078844155 -0.16691163441833567
3820000000.0 0.02418204568175691 0.1606759356069736
3840000000.0 0.016631634140085772 0.14705079892629228
3860000000.0 -0.1385285564271585 -0.0315462080539982
3880000000.0 0.14133957649966436 0.01764630108598097
3900000000.0 -0.14991209359304467 0.014344151161057915
3920000000.0 0.030940614324925196 0.16141164337412453
3940000000.0 -0.04647513524676121 0.16973322195460117
3960000000.0 0.17830591039936589 0.03128644611165435
3980000000.0 -0.03698074900018368 -0.1714078177628508
4000000000.0 -0.07591282587881758 -0.14636503191946257
