! Created with skrf (http://scikit-rf.org).
# Hz S RI R 50.0 
!freq ReS11 ImS11
400000000.0 0.18162472451174805 0.8552495784306906
420000000.0 0.6062454496525771 0.6107710003590525
440000000.0 0.7889442701899492 -0.2508459331168952
460000000.0 0.19832227517630874 -0.7638686445824622
480000000.0 0.5030584543504305 -0.5006452763187578
500000000.0 0.20153671229783007 -0.5258731267657907
520000000.0 -0.01543925381563421 -0.4872089510311983
540000000.0 0.42183172565927446 -0.03046724636382731
560000000.0 -0.33222578411959464 -0.1133336782156734
580000000.0 -0.21876436630263044 0.2486634081838772
600000000.0 0.22232130480934756 0.23612785985533138
620000000.0 0.024772649860399888 -0.3477815584939357
640000000.0 -0.20851334431742038 -0.3195841918914668
660000000.0 -0.40014778860875727 0.026729348112288165
680000000.0 0.02203090831868566 -0.430382099333074
700000000.0 0.34785845254511283 0.28567793172928424
720000000.0 0.02548595327088249 -0.44816659767226263
740000000.0 0.40416427246750436 -0.16878603850435783
760000000.0 -0.3549657398471159 -0.21510727766333723
780000000.0 0.31811708095799557 -0.21200597568312368
800000000.0 -0.19745906173715194 0.28717896962878786
820000000.0 -0.1921450809449405 0.21923256804163666
840000000.0 0.09077872135559927 0.21944851430114284
860000000.0 -0.09089623915992169 0.18352130784027101
880000000.0 -0.1428081373109958 0.022243520473259518
900000000.0 0.0779304322595569 -0.014904058770335392
920000000.0 0.014991356208721732 -0.04562664939006452
940000000.0 0.003433982101669972 -0.04147142642999942
960000000.0 -0.040439741887232865 0.03656252658250885
980000000.0 0.061202108236262154 -0.014441880831445835
1000000000.0 -0.056038635889808425 -0.039820652407216425
1020000000.0 0.0545687545174606 0.055865052275210256
1040000000.0 -0.045683547619868106 0.0667005019425951
1060000000.0 -0.11015988062437282 0.03849403592020821
1080000000.0 -0.08326149355994582 0.1033188118327197
1100000000.0 -0.1266620072233992 -0.09576739439652028
1120000000.0 -0.14166897961771904 -0.12610220221253604
1140000000.0 0.09539592953024972 0.21828206412406684
1160000000.0 0.2848112866428493 -0.0055677190096725185
1180000000.0 -0.03915138313393519 -0.32823856148122194
1200000000.0 -0.26196007068890115 -0.2566164646842006
1220000000.0 0.172203719142701 -0.35787838208562356
1240000000.0 0.3216120367857432 0.26822548218634473
1260000000.0 -0.41623347182933296 -0.1431495163909326
1280000000.0 0.4381036066040562 0.10821685932461718
1300000000.0 -0.3756743756844405 -0.2513426005550837
1320000000.0 -0.10672041490723592 0.42651440331165286
1340000000.0 -0.24337510044722666 0.3458186880744844
1360000000.0 -0.30326041802375564 -0.27707033985724466
1380000000.0 -0.09149163033655472 -0.39815745391845453
1400000000.0 -0.10086027837737942 -0.3822067792613604
1420000000.0 -0.065126302016309 -0.3774994264612823
1440000000.0 -0.22294877448966152 -0.29276790322916196
1460000000.0 -0.3420925586154593 -0.0627926017369422
1480000000.0 -0.14216739905541867 0.2970633829720131
1500000000.0 0.2251912313049843 -0.20902479474039476
1520000000.0 -0.2184340849949387 -0.18052482478504311
1540000000.0 -0.15704133502290535 -0.20319468657237638
1560000000.0 -0.21665396042608814 0.03817832795877742
1580000000.0 -0.019667748758685384 0.18699036610418684
1600000000.0 -0.15398370235922218 -0.009554914019751979
1620000000.0 -0.10922253179074864 -0.025782305782273873
1640000000.0 0.08056100610152932 -0.0225537016189027
1660000000.0 0.037026725064982606 -0.04492197851345033
1680000000.0 -0.02929070052018994 -0.008169452845875929
1700000000.0 0.0052680101697393416 0.019077515209106843
1720000000.0 -0.031361022380381874 0.014814896254725844
1740000000.0 0.05518534676337239 0.006045515278212323
1760000000.0 -0.0717636836218157 -0.011725725316023658
1780000000.0 0.08354421670844021 -0.039052710925319485
1800000000.0 0.06614240989694722 0.09791774330124994
1820000000.0 0.03751121037979582 -0.12645250822771706
1840000000.0 0.1370621070607892 -0.0734824524403676
1860000000.0 0.17642603408773586 0.007822647974228504
1880000000.0 -0.160831511814289 0.13154069183019196
1900000000.0 -0.21238381812999213 -0.12426069407832964
1920000000.0 -0.264370922345054 0.11985664445788118
1940000000.0 0.01955012137458395 0.3354532230588209
1960000000.0 0.2521876715558909 -0.2799635834685809
1980000000.0 -0.281013589273192 0.29651924051120493
2000000000.0 0.43461038580627165 -0.016471594096999703
2020000000.0 -0.4478361369968542 -0.07008999728127614
2040000000.0 0.2528267253961876 0.3828631251103898
2060000000.0 0.023385250176295766 -0.4566062024885381
2080000000.0 -0.42306574552017046 0.13519360872638686
2100000000.0 -0.14507330066852744 0.4013568793644354
2120000000.0 -0.016817019503661636 0.4046356747987069
2140000000.0 -0.27369667004204007 -0.269507911593963
2160000000.0 0.008384320737324041 -0.3658792837725979
2180000000.0 0.3519732306276041 -0.03801521295641688
2200000000.0 0.250439582714206 0.23863970824193995
2220000000.0 0.20860323903976924 0.2798152016552499
2240000000.0 0.27566391437437443 -0.21712218519133053
2260000000.0 -0.18099187651640267 -0.30622608778928356
2280000000.0 -0.23599104835187562 0.27458558922281123
2300000000.0 0.36750086052596403 0.06764195397425535
2320000000.0 -0.2139492524921341 -0.32907890047493077
2340000000.0 -0.3010148150733531 0.2894978585129601
2360000000.0 0.4268377617009743 0.15048395006849238
2380000000.0 -0.288581207934728 -0.4058125890367135
2400000000.0 0.10440498977757807 0.5384847937264687
2420000000.0 -0.2152190239958443 -0.5620933739209067
2440000000.0 0.5244885382032802 0.38984415493357916
2460000000.0 -0.6957618202286613 0.029463466019495003
2480000000.0 0.6260249620004009 -0.3764867067420084
2500000000.0 -0.584775173372917 0.47441625355201855
2520000000.0 0.6319111242625313 -0.4314248771326907
2540000000.0 -0.7566827182201231 0.1352065268319831
2560000000.0 0.6522506752128694 0.39804232648384985
2580000000.0 -0.0890978893288097 -0.744549504982894
2600000000.0 -0.5641335739747442 0.45724635982470946
2620000000.0 0.6885225282283856 0.10042929153146564
2640000000.0 0.6498687220933906 -0.10663294830684528
2660000000.0 -0.41098050825340726 -0.45871668072203275
2680000000.0 -0.11569960292718715 0.5599953573556112
2700000000.0 0.40151112989344623 -0.34448467762542534
2720000000.0 -0.4244869252913462 0.23173542881932732
2740000000.0 0.33871456886317847 -0.28157991074714245
2760000000.0 -0.13448544503584117 0.3750261140403801
2780000000.0 -0.2166433649149777 -0.2914052426278203
2800000000.0 0.3307456146862345 -0.0012405999237935542
2820000000.0 -0.21254301764112182 0.22024464721548845
2840000000.0 0.18531293154334674 -0.22220767419670448
2860000000.0 -0.21876176690995897 0.1802222619998217
2880000000.0 0.2723265259016662 -0.07758658081070002
2900000000.0 -0.2541211238669957 -0.1359478192686884
2920000000.0 -0.06915869926682744 0.29153872715417606
2940000000.0 0.29387684860659563 -0.10035642896201079
2960000000.0 -0.16364551282861436 -0.2735677982210139
2980000000.0 -0.31612373537944577 -0.08430685575133216
3000000000.0 -0.3295858936772028 0.01306030531747538
3020000000.0 -0.3199947728636682 -0.07626220966889337
3040000000.0 -0.0039389412521935695 -0.32251646751439855
3060000000.0 0.2771553989174095 0.1501293269645038
3080000000.0 -0.2966753803817087 -0.07078842797419346
3100000000.0 0.2753566416395479 0.10395358255215481
3120000000.0 -0.19375654258223404 -0.20531382298221232
3140000000.0 0.0719806526968145 0.26179313040128044
3160000000.0 0.15071498134800038 -0.2089614898619655
3180000000.0 -0.10345628512716415 -0.22173209378674852
3200000000.0 0.19272479492624828 0.12349706490218493
3220000000.0 -0.12389207161345184 0.16678381064377723
3240000000.0 -0.1845630200256397 0.002203227738138639
3260000000.0 -0.1313116458661256 -0.0836011810098439
3280000000.0 -0.06778602498202593 0.1024257995807068
3300000000.0 0.08811163155236047 0.0009118028471714043
3320000000.0 0.051482062781348495 -0.012121011640227098
3340000000.0 0.0013655379088919838 -0.023569422166314104
3360000000.0 0.013374428372236088 0.005700320556136007
3380000000.0 -0.018421115056395775 -0.019266622578317544
3400000000.0 0.034201128071347515 -0.008957131610505625
3420000000.0 0.03811274956202683 0.009640909205166017
3440000000.0 0.03240728169486643 -0.01757193128502301
3460000000.0 0.03852116426792387 0.007545967165232081
3480000000.0 0.03328509748898032 -0.04502352728614383
3500000000.0 0.07947074919487121 -0.013121750808297385
3520000000.0 0.09647910588923903 -0.04793702096175625
3540000000.0 -0.12494289535175332 -0.02452912008331492
3560000000.0 -0.066355758402833 0.12267669020695349
3580000000.0 -0.10087131359505692 0.11221911003539121
3600000000.0 -0.12740318833553635 0.09852550624511072
3620000000.0 -0.11355471410323052 -0.12095670149215534
3640000000.0 0.16816682772041952 0.0250946878062977
3660000000.0 -0.17692797277268982 0.013519836091987892
3680000000.0 0.1732149254845359 -0.058313011977351316
3700000000.0 0.028051648606812862 0.18495397842124583
3720000000.0 -0.1900236239588693 0.03591728792085914
3740000000.0 -0.17397519372965323 0.08671440684714722
3760000000.0 -0.1357752099854479 -0.13411456128880825
3780000000.0 0.09501101360951042 -0.15567348680414447
3800000000.0 0.06133833158225353 0.15660089073917152
3820000000.0 0.15216661057068973 0.010857853418673397
3840000000.0 -0.029907439503222402 0.135397705712176
3860000000.0 0.10500126029857297 0.08465902087227789
3880000000.0 -0.08736893037613784 -0.11244528451328858
3900000000.0 -0.08219844885452632 -0.12942876395413938
3920000000.0 -0.006896702028942299 0.16657882959572598
3940000000.0 -0.1291616054138159 0.121442840014078
3960000000.0 0.057507127933309796 0.17665805618538744
3980000000.0 -0.10370823045193339 -0.15209130538836524
4000000000.0 -0.13605434689346846 0.10597007973768313
