!Created with skrf (http://scikit-rf.org).
# Hz S RI R 50.0 
!freq ReS11 ImS11
400000000.0 -0.6368564096756473 0.5991687770848101
420000000.0 0.5225281940924812 0.697288940159922
440000000.0 0.6583315700587774 -0.5240365386689567
460000000.0 -0.12929457883712253 -0.7843726436617074
480000000.0 0.6780589768207794 -0.2545474917050936
500000000.0 -0.5706031955313209 0.18523438836002898
520000000.0 0.4257363891238539 -0.2645825706461842
540000000.0 -0.38327282021739956 0.12655621716088633
560000000.0 -0.062288610822313864 0.3515984682412993
580000000.0 -0.20576269581564807 -0.2571065663809629
600000000.0 0.016628395631761203 0.330333419238956
620000000.0 -0.318047846316866 -0.10175106799107901
640000000.0 0.16460695356997476 -0.3136364691562475
660000000.0 0.21169021031552812 -0.30296892107954354
680000000.0 -0.3623057062807839 0.16101148420220848
700000000.0 0.1307245345358808 0.3859058693942505
720000000.0 0.08685543492676828 0.40461116253214635
740000000.0 -0.18785246173137327 -0.3767746256104165
760000000.0 -0.07058903371677798 0.40542419471662844
780000000.0 -0.27418428879734996 -0.2748585892486024
800000000.0 0.3336120479153949 0.14720331543451845
820000000.0 0.17503010295389934 0.2659497282291129
840000000.0 -0.14643580043895155 0.2308379768988848
860000000.0 -0.03646184331711102 0.22299499359950467
880000000.0 -0.17281490427817756 -0.018817985979715172
900000000.0 0.008160801081024797 0.10773396280331692
920000000.0 0.05811469427790041 0.0389200389103558
940000000.0 0.05291247724000321 0.006231724665011921
960000000.0 0.01743903923298372 -0.06192992993077526
980000000.0 0.0021378312152799494 0.0765601505817895
1000000000.0 0.05646330651210466 -0.06445616328823583
1020000000.0 0.09175460885217135 -0.00645431293015635
1040000000.0 0.03693874710787889 0.09351858908546233
1060000000.0 0.020396585830454877 0.130681061085817
1080000000.0 0.009694181455876444 -0.1475556224729553
1100000000.0 0.00961470638960309 -0.17243815932561277
1120000000.0 -0.08729978708517207 -0.1762578436103895
1140000000.0 -0.22653639220729235 -0.07231151061208368
1160000000.0 -0.08818893655505033 0.26131281521981536
1180000000.0 -0.1739937997075214 0.26782094495676373
1200000000.0 -0.1195688823597413 0.32802362530057366
1220000000.0 -0.2623847481720493 -0.27583803582086636
1240000000.0 0.3492394956184644 0.20029131771937944
1260000000.0 -0.35573993925628483 -0.23028716680381547
1280000000.0 -0.09936275558762181 0.4249696699186133
1300000000.0 0.26599148767149283 -0.3510414684089724
1320000000.0 0.031041951696978508 -0.4342453745702756
1340000000.0 0.10002119584080191 -0.4168297219622418
1360000000.0 0.4283658128849877 0.026226915541259645
1380000000.0 0.4216242710794133 -0.0795830127103337
1400000000.0 -0.03661875193755019 -0.4235498942742844
1420000000.0 -0.40108985257928703 0.09695387108672955
1440000000.0 0.29751036468398945 0.2513409269984863
1460000000.0 0.026685128771995862 -0.3594688067514771
1480000000.0 -0.1736790754559348 0.27612512644192594
1500000000.0 0.23931269267591979 0.16264406086964964
1520000000.0 0.23537103075764534 -0.09791216541109904
1540000000.0 -0.2071024288767004 0.08056536876206752
1560000000.0 0.05738257808841144 -0.1767033486893113
1580000000.0 -0.08938590003636625 0.12968487036976198
1600000000.0 -0.10285259681737874 -0.07362230846343555
1620000000.0 0.09883201163964886 -0.020759800523824604
1640000000.0 -0.06535414039187569 -0.04627833460601082
1660000000.0 -0.0039000816585726085 0.059937657557804655
1680000000.0 0.037573999485400404 -0.023942138118283364
1700000000.0 0.021413787625025195 -0.027298321659158267
1720000000.0 0.01820463869141196 -0.004182806175293443
1740000000.0 0.003313105703890478 -0.0024662609076296317
1760000000.0 0.001077219304344592 0.019004720167207948
1780000000.0 0.04964161719351094 -0.009951174187928548
1800000000.0 0.04411322449264636 -0.07500039125627314
1820000000.0 -0.12450706741040402 0.005618845622555467
1840000000.0 -0.10436706646316196 -0.1335642884679147
1860000000.0 0.10936785252672297 -0.18164966533694527
1880000000.0 0.22785409108545202 0.11381332974553102
1900000000.0 -0.18817425183278558 0.23306871882265026
1920000000.0 -0.2282261199822058 -0.24059957721102115
1940000000.0 0.28531943000074567 0.21891926725219513
1960000000.0 -0.1653675444773909 -0.3423613050401769
1980000000.0 -0.3369348485226849 0.20021469040960066
2000000000.0 -0.24229631171124563 0.3224111851712591
2020000000.0 -0.009400619764500873 0.41175745801010555
2040000000.0 -0.06251413102781203 0.4143606594406282
2060000000.0 0.14445318097322601 0.39769896617084255
2080000000.0 0.2447318169378119 0.34737801494521614
2100000000.0 0.3554777556987439 0.23133867378828502
2120000000.0 0.4138187110644021 -0.07556897417859622
2140000000.0 0.18626418651336657 -0.36987470691897323
2160000000.0 0.34935405622728505 -0.19637096700055795
2180000000.0 -0.10181067579409275 -0.3734893573922682
2200000000.0 -0.37077933076241704 0.03278575846063842
2220000000.0 -0.11434994526164052 0.33862561118920353
2240000000.0 0.2735587740250394 0.2160922849348968
2260000000.0 0.30845100321207697 0.14635901569135626
2280000000.0 0.29421800465199993 0.17259346092600805
2300000000.0 0.33642054075592376 0.10549401794563015
2320000000.0 0.3345944932608984 -0.17423734800611587
2340000000.0 -0.09216187501076148 -0.4019523835462695
2360000000.0 -0.2466194831820493 0.3851760286505867
2380000000.0 0.25512682740484177 -0.439578873656273
2400000000.0 0.004114498544296912 0.560447199301226
2420000000.0 -0.423376481099388 -0.4407358044913751
2440000000.0 0.6570850191599651 0.03725950081918284
2460000000.0 -0.531976097960224 0.45159080016273134
2480000000.0 0.24709533848938417 -0.6858492208291206
2500000000.0 -0.2791096506195716 0.6966669108214898
2520000000.0 0.36633497150113525 -0.6685195010260283
2540000000.0 -0.622796763859925 0.4431214703449013
2560000000.0 0.7576524892578964 0.06805524394007217
2580000000.0 -0.42049667392007684 -0.61693143084553
2600000000.0 -0.1915058049069037 0.6984862770680135
2620000000.0 0.6535530414093018 -0.23511186962300423
2640000000.0 0.40797060866399126 -0.5178101005266219
2660000000.0 -0.610812040943914 0.05874599731495817
2680000000.0 0.4602671474735218 0.33187201814369677
2700000000.0 -0.13438259057878812 -0.5017611000743845
2720000000.0 -0.13953538019113926 0.45003534011381147
2740000000.0 0.38919255269615216 -0.1721700874016113
2760000000.0 -0.38534313150116906 -0.003066593922260819
2780000000.0 0.34765119023030966 0.07038702279480447
2800000000.0 -0.3289622530545961 -0.0025482124565815007
2820000000.0 0.1800250296605733 -0.2550003793650404
2840000000.0 -0.008151802381692722 0.301408284934423
2860000000.0 -0.26076174860339774 -0.14777889290636106
2880000000.0 0.2186750797059142 -0.20587533937192729
2900000000.0 -0.0492050766003626 0.2977131223621536
2920000000.0 0.17523806933918232 -0.24879973978216566
2940000000.0 -0.30634497187159526 -0.029999438946082264
2960000000.0 -0.15380077372517026 0.27000603369972825
2980000000.0 -0.1036579833481964 0.29530446607664407
3000000000.0 -0.2655976433184023 0.1694110739623494
3020000000.0 -0.28243545049663443 -0.1357542581875772
3040000000.0 0.22222006774364614 -0.21272121690209964
3060000000.0 -0.1725372552643055 0.24996360641926998
3080000000.0 0.22958883903164806 -0.1911445299474
3100000000.0 -0.28225665101963227 0.08593387290458225
3120000000.0 0.25721727079904444 -0.1336031618617334
3140000000.0 -0.20719454152679234 0.19317769391800202
3160000000.0 -0.026863539199275623 -0.27060249669143904
3180000000.0 -0.0720903977005472 0.24876968039172714
3200000000.0 -0.21760378224954394 0.09516484042491147
3220000000.0 -0.20582867693277293 0.04785265191677455
3240000000.0 -0.16978185857002542 -0.05369918761645162
3260000000.0 -0.04439565007801121 -0.13422358073608484
3280000000.0 0.09781283844890862 0.036878346657667115
3300000000.0 -0.042492316401850125 -0.05591730540069786
3320000000.0 0.03698186939651156 -0.019084427704472544
3340000000.0 -0.010837336323603217 0.018174425371949916
3360000000.0 -0.007068779294392905 -0.008791666745306589
3380000000.0 -0.0042144587638987185 -0.0053857764953251985
3400000000.0 -0.008618906092708363 0.003787172047614163
3420000000.0 0.0017944045860888427 0.022025355746289617
3440000000.0 -0.03351596631589288 0.020070918530424538
3460000000.0 0.05380282463039368 -0.019106820000548617
3480000000.0 0.07289222641693566 0.012977275570654305
3500000000.0 0.05646651027429005 -0.06919704055281778
3520000000.0 0.09377958880623073 0.03650164316554343
3540000000.0 0.025002678155714424 0.10676738185141252
3560000000.0 0.03454896755461702 -0.11388000282040198
3580000000.0 -0.1288781125544831 -0.0100589422046123
3600000000.0 0.10294942598200582 0.1022173505318782
3620000000.0 -0.1582734319642406 -0.010521927989938798
3640000000.0 0.05888514872465681 -0.16389639713355908
3660000000.0 0.1267587102862921 -0.13916291749232407
3680000000.0 0.07585820550866279 -0.18083242506722902
3700000000.0 -0.06439155368308973 -0.18738700218489107
3720000000.0 -0.02901594999845701 -0.19474166139680418
3740000000.0 -0.05005053237543047 -0.18218270340371406
3760000000.0 0.02587354853446716 0.17822105869538357
3780000000.0 -0.0009036885294971208 -0.16774039553883854
3800000000.0 -0.11587047214745645 -0.10776301618019037
3820000000.0 -0.12277443870879218 -0.08400695747820301
3840000000.0 0.10438582195574966 -0.0980129565974969
3860000000.0 -0.11177713182445388 0.09585381106528855
3880000000.0 -0.052734331368201215 0.1466090915348426
3900000000.0 0.15663941918388802 -0.049079750456033674
3920000000.0 -0.13507190472851638 0.09872178347157261
3940000000.0 0.025680555661835438 -0.16831888077988427
3960000000.0 0.1557337463380955 -0.07831922489347834
3980000000.0 0.07791453289448429 -0.1537377635954322
4000000000.0 0.13509160951231372 -0.09293329144065171
