! Created with skrf (http://scikit-rf.org).
# Hz S RI R 50.0 
!freq ReS11 ImS11
400000000.0 -0.06784424533849777 0.8677168253764442
420000000.0 0.3860200946564124 0.7696440565769737
440000000.0 0.8192596531170309 -0.13224320374605517
460000000.0 0.2510010164684932 -0.7510150994854469
480000000.0 0.6618093463579489 -0.27178295137001973
500000000.0 -0.04181873807799355 -0.5701125640450808
520000000.0 -0.12294924731512105 -0.4786872446260678
540000000.0 0.31215990629338586 -0.300440494983119
560000000.0 -0.26950903529346 0.23406265913074437
580000000.0 -0.010808597740241987 0.3391685105511936
600000000.0 0.3031661580208518 -0.14836786691813159
620000000.0 -0.29166123250445253 0.20655721164484153
640000000.0 0.19098151480835682 0.33605601346205327
660000000.0 0.40017260390493975 -0.02552846593336119
680000000.0 -0.02866854797193454 0.4194878785718459
700000000.0 0.22638733574091244 -0.3677140716397541
720000000.0 -0.3126739338448517 -0.28981573515232234
740000000.0 0.40645590385091646 0.10578167696346555
760000000.0 0.17308497464337994 -0.3631231494233317
780000000.0 0.0709820738673674 0.3653345368023974
800000000.0 0.11242169605798157 -0.32548994338326037
820000000.0 0.2910718599338409 -0.04986239767452909
840000000.0 -0.017765369305759372 -0.24978405077960986
860000000.0 0.2024471864608799 -0.06715595317571345
880000000.0 -0.04323944136401113 0.15262949266781412
900000000.0 -0.010337809980992473 0.09406063254764434
920000000.0 -0.04296911209845723 0.047250754126971245
940000000.0 0.03983975163128214 0.0257927749109766
960000000.0 -0.006046828269376973 -0.054310423064453946
980000000.0 0.02227562431395737 0.06819423411400857
1000000000.0 0.04238689474871472 -0.06894462597420734
1020000000.0 0.055189356632984646 0.08029592966335336
1040000000.0 0.09669181762541988 0.05537569211563667
1060000000.0 -0.07622606890651115 0.12552114384304375
1080000000.0 -0.137193387605947 -0.08056963257072791
1100000000.0 -0.08746921557020367 0.1576250311375036
1120000000.0 0.17171154731201063 0.10454795219145671
1140000000.0 0.17249884290727535 -0.1578513245251112
1160000000.0 0.2691130327108113 -0.016502373050868203
1180000000.0 0.2399088827024053 0.19255137890020488
1200000000.0 0.018871378773204234 0.33768421750524724
1220000000.0 -0.0023003454710545657 -0.36571911800870344
1240000000.0 -0.14576796726934915 0.36555352596774443
1260000000.0 0.40217255489174214 -0.12911901878267146
1280000000.0 -0.4439863138091658 0.021845146315092552
1300000000.0 0.43192727618491905 0.1507556416390782
1320000000.0 -0.17999581251209248 -0.41682401622451076
1340000000.0 -0.3846799013227652 -0.224342835872505
1360000000.0 -0.325767574457144 -0.2864638370083065
1380000000.0 -0.3853365288041121 -0.18903927257615666
1400000000.0 -0.3838884619383555 0.15782934727351777
1420000000.0 0.0477036941402596 0.3939217302554866
1440000000.0 0.34405632286236126 0.13978294403215738
1460000000.0 0.20707583691325848 -0.2739257219409524
1480000000.0 -0.16564632229892767 -0.26516544219064025
1500000000.0 -0.2670093258574475 -0.0906432221155789
1520000000.0 -0.2544121569038506 0.004510026949572551
1540000000.0 0.21956503173022676 -0.057807549676402434
1560000000.0 -0.0306941674814694 0.19330513278949832
1580000000.0 -0.11633340711455377 -0.12678565203202125
1600000000.0 -0.045128121221503004 0.13900779118455647
1620000000.0 0.11464605122925509 0.028350189623466186
1640000000.0 0.09514520344111305 -0.007087644114646432
1660000000.0 -0.059004816473525616 -0.04017265718515721
1680000000.0 -0.02160139181398823 0.042791388090748075
1700000000.0 -0.02864735382714907 -0.008219496768216868
1720000000.0 0.011140470334697694 0.006165331347481922
1740000000.0 -0.014541320268287895 -0.012889950296505399
1760000000.0 0.01335742307040488 -0.03910818579088993
1780000000.0 -0.007389648373472877 0.07540818362938616
1800000000.0 0.03902029818580478 -0.10709881636554713
1820000000.0 0.08308474712823154 -0.12107032785629496
1840000000.0 0.12592018616000392 0.12900460319029391
1860000000.0 -0.2114346278682513 0.0033697330341767515
1880000000.0 0.11265776443846018 0.2145559075070493
1900000000.0 0.20847231571659094 -0.18008616506265676
1920000000.0 -0.2154434174287891 -0.21708189092322713
1940000000.0 -0.3323684381730594 0.05773980768598267
1960000000.0 -0.025055376843658543 0.3662772798059279
1980000000.0 0.3905167552810959 -0.03605251723029161
2000000000.0 0.0993478979363066 -0.40231696843689413
2020000000.0 -0.42978536913046117 -0.02119846327869748
2040000000.0 -0.0540617374876112 0.43346958972214894
2060000000.0 0.4287445874707287 0.08918851490679182
2080000000.0 0.3260254682048876 -0.2861444344448537
2100000000.0 0.05813395852382642 -0.42339196965010756
2120000000.0 -0.21317035452558156 -0.3595812951417522
2140000000.0 -0.40671474228328763 -0.0147518443286205
2160000000.0 -0.22193306942901228 -0.3237240167988785
2180000000.0 -0.37443915020739726 -0.021953130834191183
2200000000.0 -0.2751208687839297 0.23224831543160668
2220000000.0 -0.09905527819569773 0.33152978835056296
2240000000.0 0.017193517499500162 0.3407078382737973
2260000000.0 0.09034288836411077 0.3294149054818378
2280000000.0 0.15910839731230603 0.3086365623046554
2300000000.0 0.3621432617936455 -0.027509870291290872
2320000000.0 -0.05970343975402703 -0.3849940001339366
2340000000.0 -0.34969900996866105 0.23821557082926917
2360000000.0 0.46161905106917567 -0.06255173886122822
2380000000.0 -0.5017859170351656 0.10152278623349305
2400000000.0 0.5418380569171559 -0.14589500125294236
2420000000.0 -0.47824791750813833 0.38068633141982605
2440000000.0 0.2029290909989274 -0.6267567311769227
2460000000.0 0.24685018885241708 0.652372988375371
2480000000.0 -0.5526766378838426 -0.47271915246719387
2500000000.0 0.5082945584311234 0.5477460081493869
2520000000.0 -0.42804327094115235 -0.6240292715887178
2540000000.0 0.12434957414606188 0.7473471557019129
2560000000.0 0.4290291403154753 -0.61651399440883
2580000000.0 -0.7349147377368448 -0.03467528201479206
2600000000.0 0.37673220126730045 0.6027433670169919
2620000000.0 0.16826148796339097 -0.6592722811335672
2640000000.0 -0.13135765858723106 -0.6288566905518324
2660000000.0 -0.3848165750024473 0.45770645051832143
2680000000.0 0.5450633903578084 0.07483373063137523
2700000000.0 -0.20878200916740872 -0.45721622021099645
2720000000.0 -0.2370752755088621 0.38902502544720474
2740000000.0 0.4109117237914703 -0.05081241306882936
2760000000.0 -0.30895664199548684 -0.2171311233924815
2780000000.0 0.32306267983436243 0.13529795504529715
2800000000.0 -0.32536194497820575 0.035617293310388355
2820000000.0 0.025139065650270683 -0.30973239496866833
2840000000.0 0.29747632611082386 0.032250429443091214
2860000000.0 -0.09588156569180548 0.27872435089484193
2880000000.0 -0.2287659751922359 -0.18158003280498036
2900000000.0 0.2721268410819217 0.10395194535543231
2920000000.0 -0.06790405113045068 -0.28530583456456793
2940000000.0 -0.2854915184016339 0.08481137438157531
2960000000.0 -0.17831060202129895 0.24079030443223776
2980000000.0 -0.2713475672002608 0.13733354405417136
3000000000.0 -0.2856389599864268 -0.11724342223515408
3020000000.0 0.010996059358318294 -0.3110392833444343
3040000000.0 0.292484319573005 0.10204552167279922
3060000000.0 -0.2745657522663116 0.14074939541860168
3080000000.0 0.1751610628750269 -0.24949242360700616
3100000000.0 -0.01098630982665045 0.2989041881871652
3120000000.0 -0.0754727323192271 -0.2800799505887994
3140000000.0 0.17318922942199144 0.22072381524023757
3160000000.0 -0.26546401369875405 -0.02897518516330854
3180000000.0 0.199606321586821 0.1516253156182801
3200000000.0 -0.1349363888771626 0.18394412927652207
3220000000.0 -0.19196798519478694 -0.05904971430301889
3240000000.0 0.04996298261196162 -0.16236460596535368
3260000000.0 -0.07456714163221635 0.11249715861856725
3280000000.0 0.09964949323267117 0.02546359290154552
3300000000.0 0.0761255609080171 9.789956726687261e-05
3320000000.0 0.02292224901410511 0.04569665649842058
3340000000.0 -0.010831705147365984 0.02844052426138584
3360000000.0 0.006277396624763425 -0.012450024754574572
3380000000.0 -0.0028020802041378934 0.0002563500353900558
3400000000.0 0.0046816732716349115 0.016403815476806784
3420000000.0 0.03382140064446806 0.001763619806109755
3440000000.0 0.02427306190836646 0.04172154520750109
3460000000.0 -0.05736037748728437 -0.0015174409550476966
3480000000.0 -0.03768984121493882 0.05592514019442463
3500000000.0 0.02683564215070221 0.07309926003607585
3520000000.0 0.07585967788683812 0.04790911517443846
3540000000.0 -0.0008366182534215349 -0.10324230539530752
3560000000.0 -0.10727959702025647 0.046372483820362055
3580000000.0 0.11409835796816542 0.06773242257546981
3600000000.0 -0.06652191057015423 0.13936527447348898
3620000000.0 -0.07566014871639959 0.15173908727231114
3640000000.0 -0.1267147781641098 0.12983191527452756
3660000000.0 -0.08977841622653043 0.16823119590986868
3680000000.0 -0.15687943499204304 0.11282669170813618
3700000000.0 -0.19137011779128738 -0.006361257623689473
3720000000.0 -0.07788767455388519 -0.17193178901426015
3740000000.0 0.13359708051415137 -0.12772940102341818
3760000000.0 -0.17144679154805353 0.04818856894734141
3780000000.0 0.17023803718153274 0.01484103305787257
3800000000.0 -0.005211926125273316 -0.16360388538302656
3820000000.0 -0.14557228974658562 -0.058006125368078976
3840000000.0 -0.08848806239783273 -0.1211308712097582
3860000000.0 0.14994101569091037 -0.010431345749073931
3880000000.0 0.12966102121103737 -0.0876401111114831
3900000000.0 -0.08932930267204159 -0.13154409201190614
3920000000.0 -0.10072002860879906 0.12873132366560033
3940000000.0 0.06401541198642245 -0.15562736132588667
3960000000.0 0.17298105105882153 -0.006745105601991528
3980000000.0 0.10507576767730872 -0.13773653768695682
4000000000.0 0.08344941907083538 -0.14249508810109626
