! Created with skrf (http://scikit-rf.org).
# Hz S RI R 50.0 
!freq ReS11 ImS11
400000000.0 -0.06259882202614289 0.8666564928912627
420000000.0 0.3985334015978295 0.7632832551697079
440000000.0 0.8240357947386436 -0.09854952915967198
460000000.0 0.2985309857566485 -0.7342924878304288
480000000.0 0.6452858048328084 -0.30827616502506483
500000000.0 -0.06488864977533226 -0.5692332254848893
520000000.0 -0.1825069164195849 -0.45876016001815306
540000000.0 0.29786896505115806 -0.3155435875653816
560000000.0 -0.2786128939648587 0.22360362793753982
580000000.0 -0.04841867015862505 0.3351727840539402
600000000.0 0.281319792974565 -0.18336832039144715
620000000.0 -0.32739886168724475 0.14232498455642206
640000000.0 0.09581315488076533 0.3745551421800481
660000000.0 0.39175052890653345 -0.08276422172449524
680000000.0 0.04067519213466646 0.4185479126129496
700000000.0 0.2243131718324212 -0.3699836325423015
720000000.0 -0.3469651961837092 -0.2499137834835289
740000000.0 0.3994635504101724 0.12605153454091045
760000000.0 0.14707067560609705 -0.3751916235047027
780000000.0 0.08577686368533309 0.36274769562045406
800000000.0 0.1944947182598552 -0.284057836345746
820000000.0 0.2954260994620428 0.0007373882089514287
840000000.0 -0.05615016087579081 -0.2433245983764282
860000000.0 0.16310279024692792 -0.13794244752388266
880000000.0 -0.10684791635555536 0.11756649645999372
900000000.0 -0.04839703362793256 0.08170717426202803
920000000.0 -0.015385203270593988 0.0614234327410644
940000000.0 0.046082248823406405 -0.013798088782708925
960000000.0 0.003361292614310361 -0.05423686258167977
980000000.0 0.0458594544153026 0.05476031413111764
1000000000.0 0.032415320011567175 -0.07395820493342485
1020000000.0 0.01755421026610252 0.09694103158814621
1040000000.0 0.08527718666132512 0.0711840527855453
1060000000.0 -0.07321721689860422 0.12668893440041748
1080000000.0 -0.15307470442762702 -0.04449599080525446
1100000000.0 -0.07397513551646483 0.16508738732526052
1120000000.0 0.18535759299972387 0.07747567894057156
1140000000.0 0.17876276190720458 -0.14922464590877849
1160000000.0 0.2688558709532868 -0.01202757466870483
1180000000.0 0.2653069349843445 0.1548886436649114
1200000000.0 -0.009371960638387645 0.3388783794591158
1220000000.0 -0.014729816950392754 -0.36579909189289905
1240000000.0 -0.1442299842669495 0.3663888478691806
1260000000.0 0.4008377646075753 -0.13485104002309972
1280000000.0 -0.4441289891139635 0.026444417843438615
1300000000.0 0.4261536616298044 0.1664107629621368
1320000000.0 -0.21829878602045913 -0.3985890945737242
1340000000.0 -0.38531062059362786 -0.22343697876414156
1360000000.0 -0.3247260014235014 -0.2877849489112129
1380000000.0 -0.37059387695833085 -0.2166179285011789
1400000000.0 -0.3949743781987857 0.12771693762867165
1420000000.0 0.03903757320292793 0.3949485994031807
1440000000.0 0.3392926407619566 0.14991803065366502
1460000000.0 0.2086284807098904 -0.2724254224317336
1480000000.0 -0.1599601870495607 -0.26871038578138784
1500000000.0 -0.2651569380485351 -0.09620528379061799
1520000000.0 -0.2527331454313444 -0.024602309348722266
1540000000.0 0.2199858974185442 -0.05454755807094864
1560000000.0 -0.06667738785467713 0.18341138991874656
1580000000.0 -0.14104203046993022 -0.09815798544494748
1600000000.0 -0.06690859404732372 0.12966133708728428
1620000000.0 0.10525333982255518 0.05379498153656381
1640000000.0 0.08286463765728425 -0.04783287134651348
1660000000.0 -0.06738643108663397 0.02341092993316798
1680000000.0 -0.0054626337560080744 0.04774490980058127
1700000000.0 -0.002318345395073337 -0.029896335422132304
1720000000.0 -0.010281293877709713 0.008276765910507189
1740000000.0 -0.014870754975724874 -0.011843997527963853
1760000000.0 0.026801800773088667 -0.03136425913978532
1780000000.0 -0.04294812078519188 0.062228213054218426
1800000000.0 0.07813972562107901 -0.08228255471558493
1820000000.0 0.10795865136984453 -0.09969558769190358
1840000000.0 0.12509186069431888 0.13012561179312312
1860000000.0 -0.21153651034565474 0.0012554195517611253
1880000000.0 0.14006737803122085 0.19750308902748825
1900000000.0 0.20720627769323519 -0.18088669264155002
1920000000.0 -0.22368487485486455 -0.20841752622707224
1940000000.0 -0.32231233656533104 0.09879520138568375
1960000000.0 0.007240859802434075 0.3675293939692491
1980000000.0 0.38970588964770186 -0.04661576980524402
2000000000.0 0.10105303498597237 -0.40194142962833473
2020000000.0 -0.42881445416594943 0.031363459307988326
2040000000.0 -0.0882883920485202 0.428291428571053
2060000000.0 0.43381513205732186 0.05811677508339108
2080000000.0 0.3036392085962033 -0.3093001623872007
2100000000.0 0.07445136982511792 -0.4207061956986561
2120000000.0 -0.19608272970256427 -0.36950289103559253
2140000000.0 -0.40101478417665715 -0.07157229529505985
2160000000.0 -0.22820666334754947 -0.3194641079050925
2180000000.0 -0.37247338616915565 -0.047038411745554516
2200000000.0 -0.2542669371176733 0.2557308977800311
2220000000.0 -0.1019739590902322 0.33132573622413447
2240000000.0 -0.009856079208551602 0.3420086089837487
2260000000.0 0.07225035183756906 0.3353290908306748
2280000000.0 0.1399122311236361 0.3186329591050302
2300000000.0 0.3645496393527681 0.005167835093838707
2320000000.0 -0.04215846853944925 -0.3881060515570033
2340000000.0 -0.36449245878844366 0.21599529141912296
2360000000.0 0.4650002357872094 -0.03323544554331313
2380000000.0 -0.5089939417711351 0.058407086226659514
2400000000.0 0.5477982857023915 -0.12078936337810489
2420000000.0 -0.49430087191359917 0.35921015220502406
2440000000.0 0.175668738986278 -0.6342675443585158
2460000000.0 0.26578690923649995 0.6445254712425436
2480000000.0 -0.5526120329028829 -0.47201261643930015
2500000000.0 0.5828107866949583 0.46568111239220933
2520000000.0 -0.4615422485668986 -0.5976379537430051
2540000000.0 0.10661340577206126 0.7487243127231697
2560000000.0 0.43792933527193534 -0.608325050852463
2580000000.0 -0.734785525049227 -0.005101766311047402
2600000000.0 0.46810682678411397 0.5346591113159874
2620000000.0 0.12910907356375861 -0.6672774545363488
2640000000.0 -0.2192744220202441 -0.6041180579808882
2660000000.0 -0.3753558349155502 0.46588721235679226
2680000000.0 0.5490939801277568 0.04244655378057353
2700000000.0 -0.2588761657932337 -0.43214741084791886
2720000000.0 -0.1962905460302166 0.41171890308458664
2740000000.0 0.4078034791850459 -0.077349488112321
2760000000.0 -0.31646019130527964 -0.20822330008907627
2780000000.0 0.3174168098593854 0.1509186337268024
2800000000.0 -0.3283768631413327 0.011350217229387139
2820000000.0 0.06477378589075167 -0.305131232263592
2840000000.0 0.2798578066211544 0.11002460852082473
2860000000.0 -0.16040151656171941 0.2480385625147496
2880000000.0 -0.18418448880534488 -0.22650870083147498
2900000000.0 0.23120622124133564 0.17705311941410867
2920000000.0 0.03230002652712112 -0.2904804068775692
2940000000.0 -0.2918189713441256 0.05254901006861277
2960000000.0 -0.204184898070515 0.21800094208494972
2980000000.0 -0.2825949816445963 0.11158698941967042
3000000000.0 -0.27184455286064213 -0.14486992715529554
3020000000.0 -0.0004911650825206698 -0.30988263222544676
3040000000.0 0.3035425847934389 0.05427195137150524
3060000000.0 -0.23327545791583024 0.20076536511583515
3080000000.0 0.11951669352914235 -0.2798742564025146
3100000000.0 0.029667498771127516 0.29677247479764324
3120000000.0 -0.18618068889060296 -0.22256187010316206
3140000000.0 0.24766695213761017 0.1318839121595173
3160000000.0 -0.24382253849043492 0.10962669764844916
3180000000.0 0.2392480739316909 0.07498686723149534
3200000000.0 -0.07249128249083059 0.21637671580158402
3220000000.0 -0.20101692832030293 0.0049791989778613386
3240000000.0 0.024402789940457432 -0.16855120176906047
3260000000.0 -0.06079569519936986 0.12122331226822958
3280000000.0 0.1031288084159496 -0.006094087143056862
3300000000.0 0.06920091711290119 -0.033665063428080774
3320000000.0 0.035181813895925174 0.03864656464909529
3340000000.0 -0.024142595422060487 0.021100238190987795
3360000000.0 0.014991918060704847 0.0016392932579884416
3380000000.0 0.0013873219779520069 -0.0018648409355912496
3400000000.0 -0.017038243394710433 0.0024178395235015175
3420000000.0 0.003028547795568914 0.03367456039923422
3440000000.0 0.007644936717833795 0.048412586047078335
3460000000.0 -0.05726736690541001 -0.006877170304052327
3480000000.0 -0.05363864509091274 0.04142083510391427
3500000000.0 0.01213621182157109 0.07709330661236362
3520000000.0 0.09124073625031848 -0.007391230775501907
3540000000.0 -0.012076350253213687 -0.10264501334794453
3560000000.0 -0.055491647642759934 0.1036853997123143
3580000000.0 0.13117906695906356 0.02505871769909633
3600000000.0 -0.054074697675365165 0.14581139035378585
3620000000.0 -0.06963326179339141 0.15434301474702483
3640000000.0 -0.1370485190915574 0.11943795947775211
3660000000.0 -0.08843064046792705 0.16937218502989945
3680000000.0 -0.139669577489767 0.13399810498772272
3700000000.0 -0.19157297869571185 0.015320199740962468
3720000000.0 -0.06556785226225893 -0.1781801716298397
3740000000.0 0.13670594647596876 -0.12544886365529168
3760000000.0 -0.1761541892211261 0.03238649428718605
3780000000.0 0.1632479915170227 0.053295723430567064
3800000000.0 0.023875805291812765 -0.16124085513226244
3820000000.0 -0.1336833054726707 -0.08076512695404976
3840000000.0 -0.0542333121816862 -0.14048195867122065
3860000000.0 0.1499589859369539 0.005063808039964013
3880000000.0 0.14205956806875802 -0.06482708804265341
3900000000.0 -0.033307910215658695 -0.15489179530295938
3920000000.0 -0.13418127048840986 0.09321003558200293
3940000000.0 0.09394037571734042 -0.13860747799340853
3960000000.0 0.16605474348670535 0.04646331860547799
3980000000.0 0.12454719452741483 -0.1199922028729079
4000000000.0 0.08918452652179643 -0.13931826524940566
