! Created with skrf (http://scikit-rf.org).
# Hz S RI R 50.0 
!freq ReS11 ImS11
400000000.0 -0.10916818601122162 0.8633523133026508
420000000.0 0.3604118046654457 0.7830498172079027
440000000.0 0.820569324540189 -0.12468416636316022
460000000.0 0.31245586658831515 -0.7280523061078307
480000000.0 0.6812308005842089 -0.22128035836824778
500000000.0 -0.025157864664891887 -0.5717216078334086
520000000.0 -0.19703301217875202 -0.4512173139617823
540000000.0 0.29673602331660953 -0.3170518249309551
560000000.0 -0.2443429730352699 0.2645895473816415
580000000.0 -0.03885208639360128 0.33658652543877926
600000000.0 0.2406345936969968 -0.2310630409344681
620000000.0 -0.321634489056786 0.15914607771812142
640000000.0 0.00805543004096183 0.3865622845552373
660000000.0 0.3927327437197356 -0.08020898764570664
680000000.0 -0.07863950273469113 0.41362373251776313
700000000.0 0.25627135949362434 -0.34763047612935877
720000000.0 -0.327605522789158 -0.27424000344799343
740000000.0 0.3867550137100897 0.15770582913784956
760000000.0 0.09164908189274244 -0.39207553479290286
780000000.0 0.058972370992931344 0.36814984815456064
800000000.0 0.13637551604157938 -0.3146112988871927
820000000.0 0.2856386681405082 -0.0758060276092505
840000000.0 0.004145325420093364 -0.24915032714727622
860000000.0 0.1487691406081386 -0.1529272265602851
880000000.0 -0.12536642519622887 0.10006260752649185
900000000.0 -0.08144449163448794 0.04735643532643298
920000000.0 -0.054442365271965804 0.03320262087587224
940000000.0 -0.011387025200001523 0.04578447238931358
960000000.0 0.03766438369805898 -0.038696699570222
980000000.0 0.021975530235912765 0.06600283568277812
1000000000.0 -0.05312444863051316 -0.060425553936883446
1020000000.0 0.019207306330794708 0.09677540358674572
1040000000.0 0.09241206620007474 0.0613816683830657
1060000000.0 -0.02674368609727939 0.1448468330217011
1080000000.0 -0.13640059622863768 -0.08340422214265851
1100000000.0 -0.11326155668754927 0.14185495418527577
1120000000.0 0.1267410872195555 0.15778592100318678
1140000000.0 0.21455559380584444 -0.0915420870433879
1160000000.0 0.2683909923072755 0.03058212042413547
1180000000.0 0.18160598829169775 0.24786808739748073
1200000000.0 -0.06035307650051027 0.3334322644214551
1220000000.0 0.07715646370578125 -0.3577851530513124
1240000000.0 -0.23019180440504755 0.3185610426637149
1260000000.0 0.4138185395585423 -0.08450535153852169
1280000000.0 -0.4440755537295203 -0.0008434248097202043
1300000000.0 0.42317816554475535 0.17243570303675887
1320000000.0 -0.1825164838994011 -0.41509793155566815
1340000000.0 -0.3933165447152053 -0.20734039162811985
1360000000.0 -0.35324437232144357 -0.2506172592598957
1380000000.0 -0.3784431057948808 -0.20204643787411156
1400000000.0 -0.379999745083203 0.16641769164176623
1420000000.0 0.08130654973968977 0.38866170164554487
1440000000.0 0.3338499645613401 0.16413986474327297
1460000000.0 0.20957791981123716 -0.2731109639881215
1480000000.0 -0.15529765821150546 -0.273180203303062
1500000000.0 -0.26503145510311776 -0.10011409889599915
1520000000.0 -0.2542918274016957 -0.027138729638172546
1540000000.0 0.22732543280137005 -0.01944510196731668
1560000000.0 -0.10359827853890843 0.16729463976809758
1580000000.0 -0.09648150875495924 -0.14357571811672315
1600000000.0 -0.11837472004282425 0.08605786257401282
1620000000.0 0.08036225437489873 0.08634671474078119
1640000000.0 0.09459543504194434 0.005597166940412346
1660000000.0 -0.05253317993241269 -0.04576366309626649
1680000000.0 0.023944496317380062 0.0401079922444253
1700000000.0 -0.01702087254420934 0.022563225585184588
1720000000.0 0.004720711063419609 0.012833843133282804
1740000000.0 0.020003068156845473 -0.004488624651974831
1760000000.0 0.03898364382802122 0.014255550560708933
1780000000.0 -0.05303234574974388 0.05318148909442704
1800000000.0 0.06711105706426128 -0.0906327701755785
1820000000.0 0.09392474012898377 -0.11146741193895283
1840000000.0 0.13592701963569995 0.1165425644155486
1860000000.0 -0.2095184739525384 0.011599622128276567
1880000000.0 0.12909168766930593 0.2032886585358936
1900000000.0 0.19366390046798723 -0.1942333516332749
1920000000.0 -0.2215531707784699 -0.2100739521180891
1940000000.0 -0.32702202573976585 0.08264042868717411
1960000000.0 -0.013951957394915468 0.3674704183297447
1980000000.0 0.3878029035888223 -0.06194398368682248
2000000000.0 0.07848070212631211 -0.40793356566711847
2020000000.0 -0.4301511470297912 -0.03314676680011662
2040000000.0 -0.07849945225749833 0.43097686641076755
2060000000.0 0.4309235623647013 0.08364316100299443
2080000000.0 0.34707338264622006 -0.2625815910186373
2100000000.0 0.1248321024241851 -0.4101866736571664
2120000000.0 -0.15721044192401884 -0.3886040401491483
2140000000.0 -0.3755311539358588 -0.16031453287881312
2160000000.0 -0.12945097284133036 -0.37141782341390167
2180000000.0 -0.3298133498503092 -0.1795889733508916
2200000000.0 -0.335213952382442 0.1310392593886555
2220000000.0 -0.21235518872625725 0.27347369890279644
2240000000.0 -0.1446823483040383 0.30889651155944986
2260000000.0 -0.019251084510939827 0.3400886779780669
2280000000.0 0.04210762190708719 0.34379639183185806
2300000000.0 0.35229391815213706 0.08516194084848502
2320000000.0 0.039376465338743546 -0.38623852825883453
2340000000.0 -0.39290586754134377 0.15324310121232468
2360000000.0 0.4643776872237168 0.006823088285625657
2380000000.0 -0.5093297588801882 0.03891662970712121
2400000000.0 0.5569748312335943 -0.0620242811319986
2420000000.0 -0.5273965384222946 0.30907518365757436
2440000000.0 0.256297795792063 -0.6073865598518384
2460000000.0 0.14987213543962855 0.6827341908727287
2480000000.0 -0.43462113672467767 -0.5856225869200833
2500000000.0 0.4480678664801764 0.6004701861885268
2520000000.0 -0.35179011862007364 -0.6726355540210195
2540000000.0 -0.058548167729000934 0.7577183074059426
2560000000.0 0.5497919075412684 -0.5152456625664495
2580000000.0 -0.712685349054138 -0.19160977706539994
2600000000.0 0.22102505691706764 0.6783888706331594
2620000000.0 0.32501760240081806 -0.6006027822720167
2640000000.0 0.042622864307579666 -0.6433647128668317
2660000000.0 -0.5115594482172228 0.3139588587372329
2680000000.0 0.5218941875772563 0.18062395882975038
2700000000.0 -0.1310890212948082 -0.48735776112235507
2720000000.0 -0.2913627686600163 0.35284720812545733
2740000000.0 0.41542969220930875 0.00039671380255898057
2760000000.0 -0.30213385881286964 -0.22898398847952128
2780000000.0 0.32755458508776475 0.12815962782442097
2800000000.0 -0.3262688323682412 0.04143581334854023
2820000000.0 -0.005199271282837326 -0.31202067677903217
2840000000.0 0.29636846188457305 0.05482167427220486
2860000000.0 -0.0912340033576355 0.2817956706957411
2880000000.0 -0.22793871646867397 -0.185065787489197
2900000000.0 0.26712041437448597 0.12014063210528339
2920000000.0 -0.009461194612003614 -0.29492654952345054
2940000000.0 -0.29906618074018004 0.01730773890439685
2960000000.0 -0.2186792229929782 0.2067868264489692
2980000000.0 -0.2929120676675606 0.08635075586849746
3000000000.0 -0.25000381875737 -0.18315806123004796
3020000000.0 0.0994658976072381 -0.29571915967527435
3040000000.0 0.2085165532647932 0.22888147806963832
3060000000.0 -0.2969788594064299 0.08437473067925043
3080000000.0 0.23658912743770483 -0.19317681280334525
3100000000.0 -0.04178006315084036 0.29617396175748667
3120000000.0 -0.023311465161280794 -0.28849198651368474
3140000000.0 0.16131190555341068 0.2290034979247975
3160000000.0 -0.26668032551785714 -0.004036519779375151
3180000000.0 0.20599778997092652 0.14137013442580912
3200000000.0 -0.10034402135812873 0.2038280879821902
3220000000.0 -0.19945874494016988 -0.012359857210359775
3240000000.0 -0.0230364243248394 -0.16758723624778976
3260000000.0 0.01577381140923714 0.13361245847923994
3280000000.0 0.07972646916007929 -0.06483428434949703
3300000000.0 0.009640368057036613 -0.07566606635096738
3320000000.0 0.0251213695706876 -0.04466394214167895
3340000000.0 -0.008853904176638575 -0.02952028643524711
3360000000.0 -0.014420073002208595 -0.0014128250272536567
3380000000.0 0.0038362076255549606 0.0017647109540180753
3400000000.0 0.001919548070006834 0.01733251142466864
3420000000.0 -0.02808705692943985 -0.018535636436942567
3440000000.0 -0.045371269318776636 -0.015050478836562289
3460000000.0 0.03122369129820687 -0.047323672277934985
3480000000.0 -0.06490827179645497 -0.01573283391518244
3500000000.0 -0.07636614105032094 0.01091134858985252
3520000000.0 0.02603010191206424 0.08574783804343018
3540000000.0 0.10160152392266027 -0.0085214283772984
3560000000.0 -0.11171911944636653 -0.033489498108023534
3580000000.0 0.02232758813993941 0.130189369726503
3600000000.0 -0.1478053967530415 0.04057791878285816
3620000000.0 -0.1351717004293158 0.10074640795819191
3640000000.0 -0.1712950114709367 0.05539376080310814
3660000000.0 -0.1376489103954045 0.13024892645091699
3680000000.0 -0.17355762562514213 0.08196643750803856
3700000000.0 -0.18004796623803634 -0.06007399913258187
3720000000.0 -0.04068180313358308 -0.18322992756952375
3740000000.0 0.14951646684076791 -0.10592116596693402
3760000000.0 -0.172033785174728 0.038548345016549176
3780000000.0 0.16921476371865407 -0.000556955789686878
3800000000.0 -0.006902173549707289 -0.16156755515159646
3820000000.0 -0.146056726078805 -0.051621627628653896
3840000000.0 -0.0907420334579468 -0.11743458120111389
3860000000.0 0.1484469555682334 0.0007782325258578784
3880000000.0 0.13216802286657717 -0.07967120704783263
3900000000.0 -0.08362580616828312 -0.1332791219610597
3920000000.0 -0.07337198274470576 0.1441961542462963
3940000000.0 0.008716856329635227 -0.16586662051970102
3960000000.0 0.15656845527359034 -0.06962114150838607
3980000000.0 0.020861534161690672 -0.1707528161435571
4000000000.0 -0.008570129453219425 -0.1643230602903177
