! Created with skrf (http://scikit-rf.org).
# Hz S RI R 50.0 
!freq ReS11 ImS11
400000000.0 -0.08106701469315249 0.8648944029992682
420000000.0 0.3747821973577402 0.775675640801176
440000000.0 0.8205761471463884 -0.12696125869906608
460000000.0 0.23867525923016003 -0.7558315591584565
480000000.0 0.6474341858056021 -0.30486884889187155
500000000.0 -0.038892957177191 -0.570407225586655
520000000.0 -0.15724268676315115 -0.4682310916559869
540000000.0 0.28452525015290053 -0.32798887789194126
560000000.0 -0.2781763100441077 0.22501091410969748
580000000.0 -0.0020562880652213954 0.33851847509788674
600000000.0 0.2823813000224488 -0.18180096197070056
620000000.0 -0.31886852397832527 0.16113129922321862
640000000.0 0.1156959546636123 0.36884696771121683
660000000.0 0.40048676062277677 -0.012874730036523615
680000000.0 -0.03666329986861776 0.41858889143454003
700000000.0 0.26276836906979206 -0.34319909668641174
720000000.0 -0.3057842862057245 -0.2979646868349093
740000000.0 0.39424604566993166 0.13955818798080002
760000000.0 0.15619892694471632 -0.3716966721637014
780000000.0 0.08973183764888876 0.3612464150746875
800000000.0 0.19021798879301194 -0.2872104788944817
820000000.0 0.29460490718372484 -0.010633056162381733
840000000.0 -0.045385503229953175 -0.2456061330710949
860000000.0 0.17106453398711416 -0.1280241220177611
880000000.0 -0.10766794266961076 0.11772252941917195
900000000.0 -0.07740982851726141 0.05525188267598851
920000000.0 -0.049472801643556046 0.04062838754310282
940000000.0 0.026767163069205957 0.039627114729735145
960000000.0 0.04781462048295924 -0.02521810506803944
980000000.0 0.04806333697600407 0.05270553321006471
1000000000.0 0.0025761349918863433 -0.08086604320159901
1020000000.0 0.06351883284722974 0.07473422189197862
1040000000.0 0.0951332574497987 0.056228125342870576
1060000000.0 -0.06662732082041224 0.129419771053564
1080000000.0 -0.14882340062249305 -0.057293134524084154
1100000000.0 -0.07924883355318912 0.16256139424368876
1120000000.0 0.15622004199529554 0.12724723570990049
1140000000.0 0.16199994035673485 -0.1679186211397009
1160000000.0 0.26741136392739095 -0.033776074409949675
1180000000.0 0.2615364322245427 0.1613170822658273
1200000000.0 -0.05017359189859228 0.33505586382996666
1220000000.0 0.020547121763615728 -0.3657375966734485
1240000000.0 -0.1868886736848694 0.34620997361027406
1260000000.0 0.40525242520894184 -0.12096877126194205
1280000000.0 -0.44427401129027894 0.023502227930484405
1300000000.0 0.42441767622752574 0.17097168890919745
1320000000.0 -0.20201608708127827 -0.4064160271719161
1340000000.0 -0.38832152476904286 -0.21747306853387824
1360000000.0 -0.33220700640252776 -0.27895315443671553
1380000000.0 -0.3794929198832871 -0.20031926875130704
1400000000.0 -0.3866452606609469 0.1516147790823417
1420000000.0 0.057040171092580624 0.39293762669722004
1440000000.0 0.3480842534050973 0.1291731248754731
1460000000.0 0.18084488092075848 -0.291876084587614
1480000000.0 -0.1514662510646287 -0.27335594977343936
1500000000.0 -0.27293334832553007 -0.07075835189029794
1520000000.0 -0.2544432635316653 -0.0007998370102866324
1540000000.0 0.21452464318704426 -0.07395029694720018
1560000000.0 -0.03404502008123405 0.1923299665553065
1580000000.0 -0.11487545851505487 -0.12815349083385147
1600000000.0 -0.050217726855338506 0.13712767764545536
1620000000.0 0.10751672227333683 0.04898474630640732
1640000000.0 0.09445459483605936 -0.011014918983602929
1660000000.0 -0.06014537002315074 -0.037932231540804155
1680000000.0 -0.01544858144108477 0.04530366418807722
1700000000.0 -0.01690496372211724 -0.02461453419185068
1720000000.0 0.012692693157383665 0.0022495187134872452
1740000000.0 -0.019232154816736475 0.004191584896789425
1760000000.0 0.025900419352660388 -0.03217742235543566
1780000000.0 -0.0034748968490309453 0.0755497739153978
1800000000.0 0.07103431760270715 -0.08867107087662672
1820000000.0 0.08555273485487495 -0.11980789768508072
1840000000.0 0.1275012021898294 0.12743284594959234
1860000000.0 -0.21157066030805857 -0.003186528268016666
1880000000.0 0.1187083191617714 0.21124638950523178
1900000000.0 0.20721806961905137 -0.18128712930835414
1920000000.0 -0.21912483430378818 -0.21338043948740912
1940000000.0 -0.3306758193907876 0.06603934861459651
1960000000.0 -0.009604453143554495 0.36705405318949447
1980000000.0 0.38889935242272244 -0.05105418003722037
2000000000.0 0.07721545353371313 -0.40695429146106293
2020000000.0 -0.4300854415167345 0.0004952384557546949
2040000000.0 -0.060918770232675355 0.4328393326127461
2060000000.0 0.4323896912593855 0.06891543790776224
2080000000.0 0.3053773147899478 -0.30828555416287107
2100000000.0 0.047457832026182006 -0.4250749745652273
2120000000.0 -0.22645824538088094 -0.3517642227098387
2140000000.0 -0.40261456681258345 -0.06456206638009744
2160000000.0 -0.21248978064165966 -0.3300820605099943
2180000000.0 -0.37394649486595866 -0.03242868736368393
2200000000.0 -0.2683484464439036 0.24045215470829587
2220000000.0 -0.12390521975316554 0.32335477710615185
2240000000.0 0.0075409896722273785 0.34106769528013015
2260000000.0 0.07962637971534996 0.33217063463693386
2280000000.0 0.16451615535194544 0.30581064134347363
2300000000.0 0.36185901844955837 -0.030982495614576003
2320000000.0 -0.06542706438730349 -0.38392542567149074
2340000000.0 -0.34370032673850515 0.2458816525796414
2360000000.0 0.4591833035989794 -0.07691028812543835
2380000000.0 -0.49824176822386096 0.11622380499575345
2400000000.0 0.5346281189953582 -0.1692207604892099
2420000000.0 -0.4686850191616959 0.392366598298764
2440000000.0 0.1691154400738419 -0.6364905580718547
2460000000.0 0.2729682207042101 0.6419611796065241
2480000000.0 -0.5487910089759235 -0.4782468477200556
2500000000.0 0.5743906399583288 0.4775199394623722
2520000000.0 -0.470648444790398 -0.5925798847349563
2540000000.0 0.10404622521641967 0.7505787783431043
2560000000.0 0.41023394001821234 -0.6292784862733897
2580000000.0 -0.7332193547757865 -0.05841247415025053
2600000000.0 0.4101904641359432 0.5802763695496698
2620000000.0 0.2333435911787271 -0.6389555441362436
2640000000.0 -0.1042354880514799 -0.6334725759409395
2660000000.0 -0.39183135800268604 0.4508743609663675
2680000000.0 0.5363077700575882 0.11875652310881851
2700000000.0 -0.1949123133186855 -0.4625587904726926
2720000000.0 -0.22820214549106663 0.3935411984547517
2740000000.0 0.4106441355370134 -0.047995444958728
2760000000.0 -0.31230969236529554 -0.21137448995107044
2780000000.0 0.3219009649361127 0.1364870814211833
2800000000.0 -0.3222589387235796 0.05516263399036155
2820000000.0 0.024642040456443623 -0.3095015704625595
2840000000.0 0.296933450658953 0.036623525406576186
2860000000.0 -0.09228755427273075 0.2797999778729124
2880000000.0 -0.2372901764368148 -0.1700774056819729
2900000000.0 0.2742490731052145 0.0985144067568625
2920000000.0 -0.06649695033928579 -0.2861542932315768
2940000000.0 -0.2883149666713338 0.0759734831191675
2960000000.0 -0.16873142508005312 0.24776192767811098
2980000000.0 -0.27170942090059236 0.13853380027000192
3000000000.0 -0.27537849107524903 -0.1414172141417674
3020000000.0 0.06113674239387387 -0.3051886454189114
3040000000.0 0.2672586023300327 0.15670955533496414
3060000000.0 -0.29623336841213144 0.08722422265868701
3080000000.0 0.19452426056034583 -0.23544053454429842
3100000000.0 -0.04004688774391091 0.29619792431185266
3120000000.0 -0.08563656916922754 -0.2779665644928812
3140000000.0 0.1542117856147681 0.23458121631515141
3160000000.0 -0.2658620131214382 -0.0262185035421403
3180000000.0 0.15828656755540985 0.19386127351048568
3200000000.0 -0.16146130061169253 0.16094608107242242
3220000000.0 -0.1858802832433497 -0.07677219421773357
3240000000.0 0.06337567533163033 -0.15740867096270647
3260000000.0 -0.07646935003522312 0.11059611607777103
3280000000.0 0.08636406186363185 0.055223765804582006
3300000000.0 0.07557702516947064 0.0015322158560634722
3320000000.0 0.035090263642378564 0.036265035695723355
3340000000.0 -0.029879402505683324 0.0006542403092678291
3360000000.0 -0.005916541974887085 0.011937064500352508
3380000000.0 0.0016215399080875686 0.0024835654237501206
3400000000.0 0.003863654426999131 -0.017384491083016602
3420000000.0 0.03213448962478227 0.01260809909431422
3440000000.0 0.03151823390726916 0.03728662495204295
3460000000.0 -0.05809049541931611 0.0024127205557594044
3480000000.0 -0.03665734110851955 0.05739869437552301
3500000000.0 0.009584103724184678 0.0781025733836529
3520000000.0 0.05925634331871211 0.06816590335017111
3540000000.0 0.025502732585205936 -0.10050221946809101
3560000000.0 -0.11181389411472431 0.03654058584702962
3580000000.0 0.12166576866477442 0.055495926319341984
3600000000.0 -0.08554401843792986 0.12897953425815284
3620000000.0 -0.09732449223105494 0.13939455707199147
3640000000.0 -0.1421590832362449 0.11384862876503937
3660000000.0 -0.11602169277345638 0.15206868803292048
3680000000.0 -0.1704260646753749 0.09194813546728782
3700000000.0 -0.18363236823346824 -0.054760435930511095
3720000000.0 -0.025572579137723653 -0.18724979178494694
3740000000.0 0.15654761018934707 -0.09794200513298378
3760000000.0 -0.17708702471441654 0.011467022035500096
3780000000.0 0.16524363323826097 0.043147401357404615
3800000000.0 0.023204524343764042 -0.16153590709363783
3820000000.0 -0.12922687680945064 -0.08765643327004484
3840000000.0 -0.07608671424582918 -0.12858581862538937
3860000000.0 0.14913482338622883 0.012059085462048875
3880000000.0 0.14355275826873562 -0.06106049713629581
3900000000.0 -0.057490209795311935 -0.14788210874338334
3920000000.0 -0.10496728427397875 0.1251677259462039
3940000000.0 0.06733529756165149 -0.15321825969641828
3960000000.0 0.17196935137232902 0.012037638934346196
3980000000.0 0.1145438536681211 -0.12942275094837674
4000000000.0 0.0857229635993346 -0.14016119086463866
