! Created with skrf (http://scikit-rf.org).
# Hz S RI R 50.0 
!freq ReS11 ImS11
400000000.0 -0.08253207312256183 0.8660521520741197
420000000.0 0.32697717813889887 0.79643038622128
440000000.0 0.8174554296929455 -0.1438428237093501
460000000.0 0.29817896824720674 -0.7341360758238858
480000000.0 0.6676401265513996 -0.25681047902791565
500000000.0 0.03924649014831965 -0.5701275514370169
520000000.0 -0.2311090245211043 -0.4370834413898023
540000000.0 0.1907752303955237 -0.38862940938243923
560000000.0 -0.28772526220918715 0.21486388370051673
580000000.0 -0.06918910323826362 0.3332881230804005
600000000.0 0.30253000829933613 -0.14739917667701916
620000000.0 -0.31023776363394706 0.17567719885689356
640000000.0 0.14134755317521705 0.36050584132299857
660000000.0 0.3985303729165782 -0.046019259886315396
680000000.0 -0.04572111318239337 0.4175617587841931
700000000.0 0.2364724725610775 -0.3606907950527507
720000000.0 -0.2890581378551663 -0.31376091772712966
740000000.0 0.4080118042692961 0.09336565944007616
760000000.0 0.140729414334795 -0.37668362118726906
780000000.0 0.10314630858412156 0.35780912173618723
800000000.0 0.13398042981417826 -0.31689908325628857
820000000.0 0.29167964454302575 -0.047266071166850436
840000000.0 -0.009467081231950765 -0.24989890912626603
860000000.0 0.18690495062782836 -0.10164545988258318
880000000.0 -0.07856031599013086 0.1384132219345546
900000000.0 -0.06351953213902474 0.07033418494280005
920000000.0 -0.06044655909982452 0.01882510857107209
940000000.0 0.0479094157952876 0.001572818522422106
960000000.0 0.03624052099676047 -0.040932219087628584
980000000.0 0.010879184513876242 0.06977183589730028
1000000000.0 0.022422906819850052 -0.07735889952138765
1020000000.0 0.06688795602735728 0.07278760995171013
1040000000.0 0.08881027190969944 0.06716219714319942
1060000000.0 -0.03700070650991013 0.14109835147930633
1080000000.0 -0.15166842672441178 -0.047890735625434624
1100000000.0 -0.08284952600874719 0.1612996255802153
1120000000.0 0.16259001247684732 0.11887079250660558
1140000000.0 0.18688815803230208 -0.1395920416771109
1160000000.0 0.2691372230165704 0.0026939400068630736
1180000000.0 0.23397005213799424 0.1992482727391701
1200000000.0 -0.01862796699204113 0.33789385391228005
1220000000.0 0.028809092367308987 -0.36503753813675405
1240000000.0 -0.18091599842043918 0.3497731192959291
1260000000.0 0.4075993692095454 -0.1109914986594371
1280000000.0 -0.44358245841464705 0.028327609261838586
1300000000.0 0.4268646499019392 0.1641873147029731
1320000000.0 -0.19811590222241882 -0.40858977363352106
1340000000.0 -0.3884187944575526 -0.21771993605732606
1360000000.0 -0.33390824561582044 -0.2768546972800649
1380000000.0 -0.3827495923752882 -0.19401752650583817
1400000000.0 -0.38681688576883244 0.15109304462463546
1420000000.0 0.05585919517338919 0.3930890220794149
1440000000.0 0.34742645743408845 0.13208177031045132
1460000000.0 0.19714905911129943 -0.2815799669559431
1480000000.0 -0.1518823185542744 -0.2737928829783898
1500000000.0 -0.2662402244681321 -0.09502565134770014
1520000000.0 -0.25485359138297425 -0.01375579015143135
1540000000.0 0.21845279258802713 -0.06211405029935154
1560000000.0 -0.05873984011651675 0.1866765814183104
1580000000.0 -0.10207254056007461 -0.13911558013522857
1600000000.0 -0.06491813682801556 0.13100937805770352
1620000000.0 0.09011456845892674 0.07622675875090569
1640000000.0 0.09322265594004855 -0.020027429841330616
1660000000.0 -0.061193674450166644 -0.035794968372806574
1680000000.0 -0.0033872015533957674 0.04737383374434215
1700000000.0 -0.02747281355836419 -0.009560192330774717
1720000000.0 0.0037828398848711083 -0.012742747105493423
1740000000.0 0.0010007008705646301 -0.01957484469370206
1760000000.0 0.03978325256113138 -0.009663168601489577
1780000000.0 -0.02740737499908686 0.07016659936116834
1800000000.0 0.03311380983287194 -0.10870856993850098
1820000000.0 0.0842115514842923 -0.11970714354972124
1840000000.0 0.13628219163969707 0.11725363615902218
1860000000.0 -0.21050300939869387 0.013870129189668632
1880000000.0 0.12804677742052378 0.20514980825568643
1900000000.0 0.2027397285135107 -0.18592624235286595
1920000000.0 -0.2273657754278277 -0.20447820229781213
1940000000.0 -0.33081279217602944 0.06652624759445729
1960000000.0 -0.021925041042234642 0.36697166256065955
1980000000.0 0.39083132176106905 -0.03676270760351225
2000000000.0 0.11606506861102067 -0.39809342841924567
2020000000.0 -0.42976693597422894 -0.02401924959293813
2040000000.0 -0.09006977238467576 0.42798673736862114
2060000000.0 0.42103307047501304 0.12119745161194602
2080000000.0 0.34155659879831507 -0.26772851299152184
2100000000.0 0.09308522972983574 -0.41711298453386153
2120000000.0 -0.1679837270318017 -0.38267404651352027
2140000000.0 -0.3861857830621517 -0.1290018071531635
2160000000.0 -0.16976004772708062 -0.35338232945791737
2180000000.0 -0.37015591489383043 -0.05736750676832346
2200000000.0 -0.2958110364996788 0.20423537013873136
2220000000.0 -0.14065155311527064 0.31567688081016115
2240000000.0 -0.03467972791749383 0.33885366842537257
2260000000.0 0.06227031513970982 0.3351227599527927
2280000000.0 0.1269421708087065 0.3225931232070542
2300000000.0 0.36203709531508965 0.017048508733841013
2320000000.0 -0.024562666717422937 -0.38809052757262175
2340000000.0 -0.36591184864156084 0.21116307348037847
2360000000.0 0.46479743807070906 -0.020067736042830235
2380000000.0 -0.509772068414628 0.04081495521079907
2400000000.0 0.5546149071357381 -0.08317047345935522
2420000000.0 -0.5284966996548652 0.3072652847953145
2440000000.0 0.2643085861990117 -0.6036274283195917
2460000000.0 0.16090594242736464 0.6792913308914015
2480000000.0 -0.4916131643954117 -0.5368654514446435
2500000000.0 0.46650247573044573 0.5842213474540409
2520000000.0 -0.4085443110148114 -0.6376878882411349
2540000000.0 0.03752058924463062 0.7575476225563476
2560000000.0 0.5160438884519117 -0.5471431536074411
2580000000.0 -0.7338779259002515 -0.061087798540692455
2600000000.0 0.36203782004324386 0.6130652086800257
2620000000.0 0.23652854993571196 -0.6392604808893972
2640000000.0 -0.04873538349227984 -0.6416964715434569
2660000000.0 -0.3839579700059182 0.45960319146805284
2680000000.0 0.5405579211054532 0.10731963431848822
2700000000.0 -0.19487042769395177 -0.46463593760986593
2720000000.0 -0.24862618160840674 0.3830927915292559
2740000000.0 0.4142239162266612 -0.017257981695400368
2760000000.0 -0.3098720698531558 -0.2171497180552034
2780000000.0 0.3278411966071913 0.12572422051714177
2800000000.0 -0.32393810335169826 0.052119105115068724
2820000000.0 0.03345893159560164 -0.3096663220993201
2840000000.0 0.2953037854171601 0.05333144946540854
2860000000.0 -0.10628597202155465 0.27579116238263374
2880000000.0 -0.22920477247432183 -0.18169949020550288
2900000000.0 0.2652594983661512 0.12207247412901141
2920000000.0 -0.051693059892307346 -0.28931114147210585
2940000000.0 -0.2838023788833674 0.09105842299390453
2960000000.0 -0.18427395272008762 0.23669650971563644
2980000000.0 -0.278891133020806 0.12305281042970376
3000000000.0 -0.2804167236129874 -0.12973377878167744
3020000000.0 0.002251465509626031 -0.31097107346204333
3040000000.0 0.2663547996545599 0.1569061836740705
3060000000.0 -0.2855868791434037 0.11665763226099539
3080000000.0 0.1780842781353267 -0.24749444734071757
3100000000.0 -0.03709537570198406 0.29639265308593965
3120000000.0 -0.06910929826930044 -0.28155056595020017
3140000000.0 0.1811820719776218 0.21398732015724894
3160000000.0 -0.26660484858534667 0.009087339081359834
3180000000.0 0.20437999282105948 0.14469734288262626
3200000000.0 -0.11471292890970607 0.19730959220469396
3220000000.0 -0.19996156239264312 -0.018593726693396206
3240000000.0 0.014756679903835314 -0.16925038587795405
3260000000.0 -0.0375200095728183 0.1299573619160963
3280000000.0 0.10061761503420563 -0.02351111243707656
3300000000.0 0.0651381997906048 -0.04031126862098663
3320000000.0 0.047204289084715356 0.0203128135611699
3340000000.0 0.009153846179007743 0.029640432616091672
3360000000.0 -0.009691479785544285 -0.010999076378469476
3380000000.0 -0.00251425703346531 0.000849538631258912
3400000000.0 -0.016648483789720225 -0.0022681185697439646
3420000000.0 0.00252304557456568 0.03317383385962474
3440000000.0 0.018466804977614645 0.044155909731233234
3460000000.0 -0.05256265290187492 -0.021373844106774526
3480000000.0 -0.06391324393520573 0.018560035599211915
3500000000.0 -0.0047342144873764175 0.07696998522258432
3520000000.0 0.05018251559372218 0.07368444336656069
3540000000.0 0.0011831683937078641 -0.10312468946606143
3560000000.0 -0.10954786729187099 0.04010747815458161
3580000000.0 0.11228048526785499 0.07058305010734392
3600000000.0 -0.10218960810314903 0.11482553270440793
3620000000.0 -0.07174464696064681 0.15335475391001552
3640000000.0 -0.12774702855421982 0.12799349547682753
3660000000.0 -0.09711319051871935 0.16343732123002835
3680000000.0 -0.14729456411371025 0.12478352554902229
3700000000.0 -0.19046774479963927 0.01250259144392435
3720000000.0 -0.10277437444755845 -0.15844706371215933
3740000000.0 0.11331570268984012 -0.14577512672111062
3760000000.0 -0.1582811981491834 0.08094761308367306
3780000000.0 0.16937775781831765 -0.021196296439235967
3800000000.0 -0.04127878881384559 -0.15794923079311263
3820000000.0 -0.14768866033185032 -0.05199446992271986
3840000000.0 -0.1124615665508493 -0.09884781634083882
3860000000.0 0.14649007802156977 -0.032362871904228464
3880000000.0 0.1037266411006207 -0.11660120647609502
3900000000.0 -0.10549191724513902 -0.11897494811779359
3920000000.0 -0.06810465289709917 0.14894432226133583
3940000000.0 0.0019017927643617412 -0.16777627502536505
3960000000.0 0.16254860717291675 -0.0600823610912377
3980000000.0 0.042691765242239256 -0.16857032036837744
4000000000.0 0.018769046604982017 -0.16484604095811115
