! Created with skrf (http://scikit-rf.org).
# Hz S RI R 50.0 
!freq ReS11 ImS11
400000000.0 -0.07008140525531772 0.8676035716141396
420000000.0 0.3761788418589184 0.7746305641310001
440000000.0 0.8251287158275966 -0.09184282045213642
460000000.0 0.2961291377549395 -0.7346814560181302
480000000.0 0.6596874126518422 -0.2771378002165758
500000000.0 -0.02239494837243917 -0.5710005664673663
520000000.0 -0.1585810907228108 -0.46807341542455305
540000000.0 0.3150429373214736 -0.2985389867615935
560000000.0 -0.28578222837591216 0.2147655177926828
580000000.0 -0.07181444640319146 0.3315669474716596
600000000.0 0.3027599116330853 -0.14778639688047926
620000000.0 -0.2726751344727671 0.23130949535671236
640000000.0 0.1630866312992872 0.35089680328380063
660000000.0 0.400786739460917 -0.009060640101312753
680000000.0 -0.03457999702648043 0.4189600178104363
700000000.0 0.21889721090941272 -0.37255888212114446
720000000.0 -0.2956941659417515 -0.30732198000717376
740000000.0 0.4012407524180184 0.12271280798197425
760000000.0 0.15866829146473416 -0.3689090902091309
780000000.0 0.09981460110566046 0.35871108470674556
800000000.0 0.13533871239179038 -0.31693646659909636
820000000.0 0.2943519533800059 -0.022499768547893553
840000000.0 -0.04139705614141332 -0.2459149946955478
860000000.0 0.17644616538977767 -0.1206516185431009
880000000.0 -0.07926523084169299 0.13858430029488714
900000000.0 -0.0710561953309481 0.06258793520800371
920000000.0 -0.04591753480972089 0.04393507556932413
940000000.0 0.03994697858175403 0.027067272472136392
960000000.0 0.014312386327319532 -0.05228660833916776
980000000.0 0.038904696455857965 0.05947711317046399
1000000000.0 0.031476740385049114 -0.0745327851193902
1020000000.0 0.04726221040939529 0.08542828033307567
1040000000.0 0.09894610521738202 0.050847348985627226
1060000000.0 -0.03197257838220548 0.1433873076938669
1080000000.0 -0.13295615167278552 -0.08772751706692489
1100000000.0 -0.10243018274629917 0.1485008294867713
1120000000.0 0.17031557483048476 0.10692844971517884
1140000000.0 0.1888206595375769 -0.13734520565265643
1160000000.0 0.26908809773572234 -0.019841423655300228
1180000000.0 0.2398284888409139 0.19280023408527763
1200000000.0 0.001078261917163864 0.3387433071094945
1220000000.0 0.030617226355199506 -0.3644392259441007
1240000000.0 -0.1808539453226468 0.3490271836650901
1260000000.0 0.40394611359877053 -0.12171615224432636
1280000000.0 -0.4431144883302526 0.032491897665858756
1300000000.0 0.4205562957298993 0.17924757003978165
1320000000.0 -0.17914570053573764 -0.4167891546162575
1340000000.0 -0.38932041182688226 -0.2162281082310223
1360000000.0 -0.33769141888663345 -0.2726240308864584
1380000000.0 -0.38261649773536116 -0.19515096595319611
1400000000.0 -0.3843901835074121 0.15678532100958079
1420000000.0 0.06205439969885383 0.3919213932812053
1440000000.0 0.3466066220941617 0.1341931719896225
1460000000.0 0.20658639041574633 -0.2749557800644741
1480000000.0 -0.13105176667155405 -0.2846368706954557
1500000000.0 -0.2652843602668719 -0.09786101218333805
1520000000.0 -0.2544826655820117 0.0064134477559016165
1540000000.0 0.22139149048770246 -0.0499373018198303
1560000000.0 -0.06345354262213691 0.18527541158695524
1580000000.0 -0.11278700018673811 -0.13027932902395717
1600000000.0 -0.08151826624061931 0.12128764926005521
1620000000.0 0.09986608729577798 0.06278759124100954
1640000000.0 0.09440542343114339 -0.013020334160575426
1660000000.0 -0.0686691135463883 -0.01848010016771801
1680000000.0 -0.007554056544514832 0.04699122143227244
1700000000.0 -0.029220507516064895 -0.004700189338426546
1720000000.0 0.013179268235710391 -0.00023331144471817333
1740000000.0 0.01864028785055374 -0.005789987587146379
1760000000.0 0.036481677758235194 -0.018262482801806305
1780000000.0 -0.005649258603926587 0.07503145903122473
1800000000.0 0.02750498962562127 -0.11046642276654821
1820000000.0 0.07718024756520496 -0.12470578967471745
1840000000.0 0.13557705200977632 0.11834234114941099
1860000000.0 -0.21025300491320517 0.01909627273885638
1880000000.0 0.12799990595764502 0.20584852988209998
1900000000.0 0.2059461680293554 -0.18283838559190485
1920000000.0 -0.2122259511918098 -0.22031051552569245
1940000000.0 -0.3324489977402584 0.058681630398229205
1960000000.0 -0.03864649927923184 0.3654419893354571
1980000000.0 0.3913329537506554 -0.026963243594287766
2000000000.0 0.15757055801145167 -0.3839117172971049
2020000000.0 -0.4297404093164744 0.018589483549298097
2040000000.0 -0.1247495121869523 0.41906816648022094
2060000000.0 0.4286541891041226 0.08824787271568657
2080000000.0 0.2995030344982866 -0.31317708234031144
2100000000.0 0.08054593384971812 -0.41976052911242984
2120000000.0 -0.1801005267433727 -0.3769817366607583
2140000000.0 -0.4018651756967645 -0.06394386840191783
2160000000.0 -0.22512308390569633 -0.3209745413032343
2180000000.0 -0.3706197059533459 -0.055887148628053
2200000000.0 -0.2825425552535661 0.22236292652054504
2220000000.0 -0.1330957608722816 0.31893392542004795
2240000000.0 -0.01859185564870184 0.3400818404300028
2260000000.0 0.04707305887746453 0.33768630538227357
2280000000.0 0.13519615460660755 0.3194563061740887
2300000000.0 0.3627393357561401 0.0061967002610528
2320000000.0 -0.023976662701844065 -0.38803038055859723
2340000000.0 -0.3722415278690851 0.19901363261277377
2360000000.0 0.4642447308779957 -0.023016501621721103
2380000000.0 -0.5089163242651431 0.047151066091155366
2400000000.0 0.5545503611992486 -0.08091624012496032
2420000000.0 -0.5177795841723911 0.3242826172879532
2440000000.0 0.2537584952100201 -0.6077609613888497
2460000000.0 0.17545173048187948 0.6753600797989355
2480000000.0 -0.5064566092153467 -0.522420899885634
2500000000.0 0.5368403548983744 0.519849553662325
2520000000.0 -0.387425367814058 -0.6506252789646859
2540000000.0 0.027723391254771003 0.7579379754558204
2560000000.0 0.5030186695314182 -0.5591054123485396
2580000000.0 -0.7235765409943932 -0.13712031265023464
2600000000.0 0.32761272038479616 0.6316450978334357
2620000000.0 0.2642199331308756 -0.6277317784902208
2640000000.0 -0.04262449244507653 -0.6417561416933052
2660000000.0 -0.43880025510923937 0.4072697593437954
2680000000.0 0.5421020261620831 0.09842764160906677
2700000000.0 -0.19201193564653535 -0.46536417136130553
2720000000.0 -0.23155511404882279 0.3931949667447959
2740000000.0 0.4142248135289238 -0.016858650531276012
2760000000.0 -0.3118609005838557 -0.21421798578055135
2780000000.0 0.32674176981275577 0.12801243430495196
2800000000.0 -0.32376896728465954 0.05353925672776141
2820000000.0 0.014460360156301701 -0.31101952553247897
2840000000.0 0.29618144989706413 0.04906167806811082
2860000000.0 -0.10527605422011511 0.27614719178931585
2880000000.0 -0.2316767510976115 -0.17850028014632424
2900000000.0 0.263390093071792 0.12606072197129717
2920000000.0 -0.03607930626226562 -0.29200044769963174
2940000000.0 -0.29592140178002707 0.0399390788220469
2960000000.0 -0.19615582828801464 0.22681631368659327
2980000000.0 -0.28042588316650086 0.11893664699380745
3000000000.0 -0.2727390689383044 -0.145601664201941
3020000000.0 0.07060016501135367 -0.30333897300724905
3040000000.0 0.27527744265631715 0.14110817508742063
3060000000.0 -0.2973406339651365 0.08040138156355733
3080000000.0 0.18228497111679529 -0.24435124301036634
3100000000.0 -0.0557270950431411 0.2934699303002618
3120000000.0 -0.09860029932817653 -0.27225941016941085
3140000000.0 0.19573931186967633 0.200861416895285
3160000000.0 -0.2664064235755013 0.02270610468707807
3180000000.0 0.21949427365073546 0.12084135283968962
3200000000.0 -0.10586483389046027 0.2020676711240477
3220000000.0 -0.20034251930782382 -0.01754468177107416
3240000000.0 0.012433256235054499 -0.16981873503043626
3260000000.0 -0.0376922737755184 0.13021169379520442
3280000000.0 0.10253365715888028 -0.013415038541172703
3300000000.0 0.06846692373512576 -0.03461483579446027
3320000000.0 0.046206938549202714 0.023111402719128604
3340000000.0 0.0006770674989427784 0.031228717552283777
3360000000.0 0.00457784208422103 -0.01383087194334345
3380000000.0 0.001513427754692748 -0.001996814228883085
3400000000.0 -0.01183672719412128 0.01180474899942725
3420000000.0 0.00865785036990109 0.03217475098772159
3440000000.0 0.01030869111133298 0.04672466469379895
3460000000.0 -0.05461991575795331 -0.015823884581985307
3480000000.0 -0.041790641679030065 0.052496878763605606
3500000000.0 0.004054166898211872 0.07736764614018281
3520000000.0 0.08977404795080507 0.007300674011642119
3540000000.0 0.021361228280159836 -0.10029019977065565
3560000000.0 -0.10551121132557219 0.05018788268114004
3580000000.0 0.11821370650533478 0.06012892194219748
3600000000.0 -0.057062875886649746 0.14358607348740215
3620000000.0 -0.06575937173113817 0.15612948109812266
3640000000.0 -0.12520274343066773 0.13077066648900051
3660000000.0 -0.07290171682518418 0.17616910378693415
3680000000.0 -0.15199839745655802 0.11902291405914121
3700000000.0 -0.19111808727497648 0.00814870365656388
3720000000.0 -0.07905942895079694 -0.1713685262284085
3740000000.0 0.11980664065744782 -0.14054158042536063
3760000000.0 -0.15887918733617062 0.07957258007432702
3780000000.0 0.17031451752575136 -0.01482750871821112
3800000000.0 -0.03376464398049665 -0.1599431039675058
3820000000.0 -0.1521598352182974 -0.03655285340325965
3840000000.0 -0.103020895706701 -0.10897330829365111
3860000000.0 0.14736011297153043 -0.029023068708592694
3880000000.0 0.12398511729984348 -0.09544095108427413
3900000000.0 -0.10066182850566248 -0.12295031848154485
3920000000.0 -0.08227933259526798 0.14146164685714255
3940000000.0 0.053854822159059144 -0.1597663207172224
3960000000.0 0.17169272080464865 -0.021439106491953713
3980000000.0 0.09439205574944337 -0.1457899399475593
4000000000.0 0.08110314771366589 -0.14437216777297796
