! Created with skrf (http://scikit-rf.org).
# Hz S RI R 50.0 
!freq ReS11 ImS11
400000000.0 -0.0523688758896858 0.8679607600605939
420000000.0 0.388049123210426 0.7689860167270846
440000000.0 0.8151883274039895 -0.1528159620984049
460000000.0 0.3037543042678397 -0.7317838657761976
480000000.0 0.6538609646783015 -0.2903422290887667
500000000.0 -0.03314845564480581 -0.571993829819948
520000000.0 -0.17377741979699513 -0.4624023380682849
540000000.0 0.29706965225759635 -0.3162538057580212
560000000.0 -0.2825432520631473 0.21877753618534382
580000000.0 -0.020547228617886965 0.33848121961435224
600000000.0 0.256243114593628 -0.2168983731524398
620000000.0 -0.3152926416520594 0.16726659889423354
640000000.0 0.12460144111689907 0.36674393956634765
660000000.0 0.3931746278275585 -0.07637747659566063
680000000.0 0.027817508879663104 0.41888853971373075
700000000.0 0.2261243017600424 -0.3687266809251608
720000000.0 -0.3338962617970606 -0.2674461470131232
740000000.0 0.40077085574019705 0.12103876171905817
760000000.0 0.13805101349736398 -0.37802901003721434
780000000.0 0.09484285256671957 0.36087220601040587
800000000.0 0.17160389175794374 -0.2987323589018988
820000000.0 0.29477566187923215 -0.012728561887133906
840000000.0 -0.043925914552748156 -0.24547810854400487
860000000.0 0.17137030987955992 -0.12818138274059449
880000000.0 -0.09847241314081079 0.12455012300279951
900000000.0 -0.05612319537053042 0.07549643903478852
920000000.0 -0.04605931241213166 0.042768868235822426
940000000.0 0.044569776611141365 0.01851611032440678
960000000.0 0.03345166773941148 -0.04336608056490442
980000000.0 0.041212943931295216 0.058445155359966486
1000000000.0 0.027328535599205117 -0.0762982757856183
1020000000.0 -0.0016193550415697494 0.09908948059959617
1040000000.0 0.09795875109503355 0.052233813004879934
1060000000.0 -0.061522947691338065 0.1324856431230818
1080000000.0 -0.1542259406465344 -0.039355455527271675
1100000000.0 -0.06845012527187647 0.16689984190005527
1120000000.0 0.17281180956001777 0.10242090654677195
1140000000.0 0.17098589829220476 -0.15808666577312694
1160000000.0 0.2687058769889105 -0.017471086651270024
1180000000.0 0.26543633400499156 0.15480215118510945
1200000000.0 0.0013293248650350993 0.3387058448349668
1220000000.0 -0.018658867955859935 -0.3654335360561201
1240000000.0 -0.14032904832107793 0.3681014253549544
1260000000.0 0.3980032753547683 -0.14397665570609602
1280000000.0 -0.444446938045392 0.02288553185685997
1300000000.0 0.42994898908818396 0.15772353718041546
1320000000.0 -0.20983533054059703 -0.40319385223294596
1340000000.0 -0.38233854484830154 -0.22884335541027812
1360000000.0 -0.3243777093653116 -0.2883155889319541
1380000000.0 -0.36663863603611724 -0.22333623239973396
1400000000.0 -0.3926660643363491 0.13456909348465307
1420000000.0 0.0219304158646748 0.39623998841687497
1440000000.0 0.3378437133732426 0.15360872637465026
1460000000.0 0.20876949915986906 -0.2724708153564914
1480000000.0 -0.11902150323843928 -0.2893148047060416
1500000000.0 -0.2668007391476916 -0.0910196692058865
1520000000.0 -0.25361278970430484 -0.011130705241048824
1540000000.0 0.2144808425622512 -0.07361698704428513
1560000000.0 -0.05256962927176429 0.18783474740557904
1580000000.0 -0.13798653892781648 -0.10270969446397538
1600000000.0 -0.07422825127279586 0.1259524662788152
1620000000.0 0.10946010825751736 0.045444432536840204
1640000000.0 0.08809534892108056 -0.03680881682131716
1660000000.0 -0.07151940279206305 0.0018862662641226213
1680000000.0 -0.021725535847987285 0.0427505163762869
1700000000.0 0.008413816239600217 -0.028322935872068727
1720000000.0 0.0013567517015376537 0.013101629760332153
1740000000.0 -0.017676659821724255 0.007690772411900176
1760000000.0 0.04063605153221243 -0.007654344658034404
1780000000.0 -0.055564609229587655 0.05163868911051779
1800000000.0 0.08205807737889242 -0.0787583431429997
1820000000.0 0.10604963903676605 -0.10151500266738205
1840000000.0 0.10912447705124481 0.1434234773647977
1860000000.0 -0.21021736110714595 -0.022050712693707036
1880000000.0 0.12370297246288665 0.20794568214843284
1900000000.0 0.20759985278726417 -0.1802072712184506
1920000000.0 -0.2217890888722695 -0.21016442356298337
1940000000.0 -0.3235511040769944 0.09422840930574879
1960000000.0 0.016015547368072043 0.3670686423265552
1980000000.0 0.38919595195908996 -0.0507629618343056
2000000000.0 0.11896610973444852 -0.3972686541484304
2020000000.0 -0.43003035587647664 -0.008514756456356517
2040000000.0 -0.049343668077867386 0.43449696615481415
2060000000.0 0.4348287998250363 0.05088105527725359
2080000000.0 0.28489151746479385 -0.3269508644732477
2100000000.0 0.06406464732718473 -0.42291817475768495
2120000000.0 -0.22190885195568172 -0.354821810099959
2140000000.0 -0.3891915457413076 -0.12143338640921102
2160000000.0 -0.19664361823887758 -0.34014618431932064
2180000000.0 -0.3680461708585665 -0.0752088462686085
2200000000.0 -0.27006022505927324 0.238923175317167
2220000000.0 -0.11278810133995879 0.3277684827885976
2240000000.0 -0.013287080654039633 0.34170040233925625
2260000000.0 0.08893594022807166 0.3312349100360672
2280000000.0 0.15509927131656243 0.3114921948832859
2300000000.0 0.3641926411540772 -0.007529249119932163
2320000000.0 -0.06980888910541176 -0.38413304815226207
2340000000.0 -0.35720349515553323 0.22792335753716583
2360000000.0 0.4628230819694066 -0.05625465787022695
2380000000.0 -0.5069483237933429 0.07525420268884922
2400000000.0 0.5426813134119934 -0.14342650372430826
2420000000.0 -0.4815389266888115 0.37666153792805485
2440000000.0 0.14003319384856647 -0.6434507889920109
2460000000.0 0.29175331241248775 0.6334854027728224
2480000000.0 -0.5611334437362222 -0.46221988511112383
2500000000.0 0.6002591883600449 0.44285765221336143
2520000000.0 -0.4493382291186384 -0.6069312189985356
2540000000.0 0.15094565832045878 0.740756242785922
2560000000.0 0.3939283009070283 -0.6375284243930923
2580000000.0 -0.7343732506768114 0.010084874526514858
2600000000.0 0.4870909754897891 0.5168231493046069
2620000000.0 0.10619113313709166 -0.670880536288513
2640000000.0 -0.18662412455831684 -0.6143133399729793
2660000000.0 -0.34797524259724955 0.48617806082930953
2680000000.0 0.550553978359507 -0.0009494007035827871
2700000000.0 -0.2721346743854046 -0.4233876444043576
2720000000.0 -0.17919794430372438 0.4193068693667813
2740000000.0 0.41174777974919324 -0.05070324153910021
2760000000.0 -0.3136814582120934 -0.21215244781526454
2780000000.0 0.3227404868664174 0.13928471655877148
2800000000.0 -0.32836502498693404 0.008447168997932457
2820000000.0 0.08523620704231998 -0.29987842032043943
2840000000.0 0.2752318762202905 0.12067635125548126
2860000000.0 -0.16287255540953532 0.24617609156010484
2880000000.0 -0.18909747564213492 -0.22208312570213917
2900000000.0 0.2371001122453584 0.16807397359295698
2920000000.0 0.007678331835021585 -0.29192406858253195
2940000000.0 -0.28525146655921624 0.08068487777916133
2960000000.0 -0.1886580830868638 0.23147330197407284
2980000000.0 -0.28362325797858046 0.10846153257125694
3000000000.0 -0.2705302161117039 -0.14840704450590256
3020000000.0 0.01590350163007688 -0.30961229221770237
3040000000.0 0.3061693422199683 0.038245097061720454
3060000000.0 -0.2407682383410698 0.1925728375880184
3080000000.0 0.13730434087038887 -0.2724499601292846
3100000000.0 0.0882007309947315 0.28571205325806087
3120000000.0 -0.1307531749067566 -0.25893471703811893
3140000000.0 0.23021570339533962 0.1608248022214544
3160000000.0 -0.2529586938676587 0.0872480263431475
3180000000.0 0.22509598892702748 0.11045426354782473
3200000000.0 -0.09646102902672296 0.20673554499969746
3220000000.0 -0.1995084734199979 -0.026203307875773216
3240000000.0 0.03946723526299419 -0.16518372843945045
3260000000.0 -0.07716633899556936 0.11107138307768066
3280000000.0 0.0941125865653535 0.04183923233298218
3300000000.0 0.07199655641372317 -0.025527477977387285
3320000000.0 0.03982433992756433 0.03314832467222371
3340000000.0 -0.030345065636984546 0.008594985665308613
3360000000.0 -0.01086474989536014 -0.00934189959027892
3380000000.0 0.0026033280804592758 -3.9498357707781934e-05
3400000000.0 0.00774646232676763 0.015809358560394827
3420000000.0 0.027055558255188954 0.021226410524864653
3440000000.0 -0.014073809741530417 0.04726493029977388
3460000000.0 -0.05630820790698733 -0.014360004928631901
3480000000.0 -0.06761018544521356 0.0040714615390351665
3500000000.0 0.0010893864245527945 0.07854045850458752
3520000000.0 0.07387209967519415 0.05295800949999204
3540000000.0 -0.004240074490997921 -0.10358501902506935
3560000000.0 -0.07498989137821853 0.09064673099923201
3580000000.0 0.13274229887232764 0.020038607582204875
3600000000.0 -0.0894062387997442 0.12675115222486477
3620000000.0 -0.07156782802771171 0.15364571101468733
3640000000.0 -0.13710342861980576 0.11995693597101596
3660000000.0 -0.1066094592072749 0.15799344942712082
3680000000.0 -0.14859593440466104 0.12378508216511054
3700000000.0 -0.1919065201722008 -0.004464544494108508
3720000000.0 -0.0691617000602155 -0.17696923872734568
3740000000.0 0.1407587930240972 -0.12037995536321046
3760000000.0 -0.17713847287065515 0.024737485821924737
3780000000.0 0.160004476229965 0.06182395718475378
3800000000.0 0.02868940743989213 -0.16023964871830054
3820000000.0 -0.1312118976704066 -0.08483646918622641
3840000000.0 -0.07037107155523208 -0.1323250088041953
3860000000.0 0.14965150672236324 -0.005560768824410906
3880000000.0 0.13922267361294346 -0.0700260661890362
3900000000.0 -0.04756151752968328 -0.15061133444400612
3920000000.0 -0.1261665477416637 0.10304722369333434
3940000000.0 0.09364273220717777 -0.13901536382269236
3960000000.0 0.17184657064257938 0.008852415121149001
3980000000.0 0.09445738873557617 -0.14455071332910316
4000000000.0 0.03742409339087675 -0.16109907854633193
