! Created with skrf (http://scikit-rf.org).
# Hz S RI R 50.0 
!freq ReS11 ImS11
400000000.0 -0.10473996465162358 0.8639586823493869
420000000.0 0.3879822964302095 0.7681633563813204
440000000.0 0.8267591602966223 0.07672076388232936
460000000.0 0.028958582425085956 -0.7922739178265424
480000000.0 0.7133269397773369 -0.04306502304897816
500000000.0 -0.16486154265077407 -0.5502822124362189
520000000.0 -0.1402973123382882 -0.4725907241032013
540000000.0 0.026655552870446877 -0.4331116319738777
560000000.0 -0.36120068205177985 0.02995968518582835
580000000.0 0.2230959791776874 0.2478629038453758
600000000.0 0.3229186191872684 0.10297732731117783
620000000.0 -0.2728676858798011 0.23310036955911145
640000000.0 0.06689171001449715 0.3797057252507386
660000000.0 0.3462524347578122 -0.20100093586653725
680000000.0 -0.2626017508730285 0.33159914658190937
700000000.0 -0.0021250017287882754 -0.4310159021248532
720000000.0 0.005602667163621038 -0.424720016295121
740000000.0 0.3766008181149063 -0.19225941192138699
760000000.0 0.30691368140497705 -0.25657353358623886
780000000.0 0.18551605182885691 0.3246522504050863
800000000.0 0.22108596365816133 -0.2646529218111963
820000000.0 0.24721486429499367 -0.1580876895428035
840000000.0 0.1528183166186772 -0.2026505483005454
860000000.0 -0.04151704177467826 -0.20596665472833603
880000000.0 -0.12041188666305426 -0.10370216559847663
900000000.0 0.06692722818156951 0.0714955943713485
920000000.0 0.00594730284651519 0.059928595618812766
940000000.0 0.01937994861921057 -0.04248152449535917
960000000.0 0.04015389891093222 -0.04084370604818584
980000000.0 0.05661821944786893 0.041965858953176546
1000000000.0 -0.02741357503291186 -0.07562687452303815
1020000000.0 -0.09725939912025618 -0.0005148766085855039
1040000000.0 0.04493593485473507 -0.10497001796707547
1060000000.0 -0.1204075593636459 0.07704489610504074
1080000000.0 -0.12410959512065113 -0.10582472209902156
1100000000.0 -0.017648829841601443 0.17677104021464096
1120000000.0 0.13118520260879504 0.15483019814044163
1140000000.0 0.1830371633294109 -0.14434775274760114
1160000000.0 0.26745146393559216 0.03186130883247233
1180000000.0 0.24015483084065256 0.19068496713924474
1200000000.0 -0.035897672313933225 0.3378225941769747
1220000000.0 0.04453877542346834 -0.3619214532994815
1240000000.0 -0.22215212669888101 0.32629500294700764
1260000000.0 0.3769570064787411 -0.18856389861279993
1280000000.0 -0.44259583023253735 -0.046096346839723634
1300000000.0 0.44394550774064734 0.11006959422353259
1320000000.0 -0.16538301833544605 -0.42185237263838354
1340000000.0 -0.39729259930237815 -0.2003098312820189
1360000000.0 -0.3470545894034091 -0.2603852072508297
1380000000.0 -0.38856146668660385 -0.18209856654151166
1400000000.0 -0.3915473559977835 0.13869034758217338
1420000000.0 0.09283035760062702 0.386014243928357
1440000000.0 0.32824513943565 0.17484372218537636
1460000000.0 0.18142437586818116 -0.29212360578000585
1480000000.0 -0.12749483729502842 -0.2866009544151443
1500000000.0 -0.2621081101088431 -0.10778019233802398
1520000000.0 -0.25475794683979464 -0.011809485591502173
1540000000.0 0.2257942017629089 -0.016804714195479742
1560000000.0 -0.1075187271681153 0.16503343314291086
1580000000.0 -0.14974523593601352 -0.0860025834143403
1600000000.0 -0.14391389893418707 0.02252007393397438
1620000000.0 0.106925053878384 0.052402001227991706
1640000000.0 0.08349646466333605 -0.043441651224002634
1660000000.0 -0.041092580799127434 -0.057178875779784255
1680000000.0 -0.004453364058685972 0.04732194879573768
1700000000.0 -0.00022669398342190693 0.02945161369228119
1720000000.0 -0.00508202604513046 -0.011958037832882714
1740000000.0 0.01650910434901504 -0.009274423439201686
1760000000.0 0.014642145096825853 0.03884511309885535
1780000000.0 0.011128233924128149 0.07378300839173334
1800000000.0 0.08131348221932432 -0.07885195608217388
1820000000.0 0.03939181165952954 -0.14121691617609355
1840000000.0 0.10595639162087432 0.14392132751098505
1860000000.0 -0.2108448326641951 0.0038337758986423387
1880000000.0 0.1591120292706494 0.18249272440380548
1900000000.0 0.2026020048177479 -0.184581697510561
1920000000.0 -0.19727928104775644 -0.23445637304053427
1940000000.0 -0.3072142594127306 0.14027616014516392
1960000000.0 -0.05864625745785292 0.3618502499438387
1980000000.0 0.39337474430739505 -0.02074817406569473
2000000000.0 0.07877103899719608 -0.4067127914749046
2020000000.0 -0.424562704770755 -0.07423584763900305
2040000000.0 -0.06625137837702111 0.4323575454978544
2060000000.0 0.42194551238482303 0.11779984044912746
2080000000.0 0.3516256227885976 -0.25506071764564525
2100000000.0 0.1218509284443256 -0.40997889350739153
2120000000.0 -0.1554611178956495 -0.38871390145720985
2140000000.0 -0.38588443640675163 -0.13073567000895683
2160000000.0 -0.17060413300924682 -0.35332411276480113
2180000000.0 -0.3609088239164391 -0.10129436837892629
2200000000.0 -0.28878472791628373 0.21411857032498602
2220000000.0 -0.165053086379482 0.30349139249263807
2240000000.0 -0.06321598317504333 0.3353272885357397
2260000000.0 0.013570077252826182 0.3404912159678837
2280000000.0 0.09911529466701403 0.3322984404286413
2300000000.0 0.35948575677303957 0.047744361620727725
2320000000.0 0.002339681732496031 -0.3889142462651403
2340000000.0 -0.381573183849715 0.1811567138053678
2360000000.0 0.46458559675752875 0.024968027223771713
2380000000.0 -0.5111674867447725 0.007275658243505041
2400000000.0 0.5577193077282254 -0.05917320542599822
2420000000.0 -0.5350968668491313 0.2955303378158219
2440000000.0 0.26221691316222384 -0.6045889313411893
2460000000.0 0.1501132562685785 0.6818656570193126
2480000000.0 -0.47615114020971133 -0.5511713096693791
2500000000.0 0.4735840216474208 0.5789833094816245
2520000000.0 -0.36250547495329827 -0.6658410911733049
2540000000.0 -0.02066383879817902 0.7589244687793696
2560000000.0 0.5146440251809791 -0.5490934939355319
2580000000.0 -0.7260987469515089 -0.1276540121880029
2600000000.0 0.32382149789253084 0.6346825783936489
2620000000.0 0.26801355725466375 -0.627476191849656
2640000000.0 -0.06647284904975205 -0.6409157260562016
2660000000.0 -0.4558766617445562 0.38982815231720847
2680000000.0 0.5354364712299162 0.13331305052217146
2700000000.0 -0.15117441774528104 -0.4812240394852427
2720000000.0 -0.2688180631185677 0.37002568758516663
2740000000.0 0.4148304920411833 -0.023009180514583526
2760000000.0 -0.3109929519293394 -0.2170598098422458
2780000000.0 0.32349569518984517 0.1373888442975345
2800000000.0 -0.3267240682626097 0.037161977818630655
2820000000.0 0.04004302473339428 -0.3092409697810487
2840000000.0 0.29366657938780205 0.06148792099915244
2860000000.0 -0.08648445692574375 0.28215489328890725
2880000000.0 -0.2238905960587952 -0.1892723175447262
2900000000.0 0.27427396807035703 0.09974172767229271
2920000000.0 -0.016958729731847127 -0.29364487235413034
2940000000.0 -0.29072947358910955 0.0683738430183646
2960000000.0 -0.20847550369260942 0.21588216210553135
2980000000.0 -0.2880453085905684 0.10109678148128994
3000000000.0 -0.25250591011448353 -0.17864793560922268
3020000000.0 0.04446647549420873 -0.3078254342646899
3040000000.0 0.23468980886599156 0.20074242353033692
3060000000.0 -0.30076937087398375 0.06927611817236448
3080000000.0 0.17542455050409148 -0.24908262386889757
3100000000.0 -0.047788340618081605 0.29491090524061886
3120000000.0 -0.056791379897024256 -0.28427010809113934
3140000000.0 0.2155054709713929 0.17826821996732145
3160000000.0 -0.26584342511171594 0.023795918656101495
3180000000.0 0.21416035640249836 0.1292160327296427
3200000000.0 -0.07775414012090595 0.21406839855828202
3220000000.0 -0.2006670860653081 0.004301084871024148
3240000000.0 -0.021106649608344 -0.16900340378916157
3260000000.0 0.015794920827886604 0.1340983516776857
3280000000.0 0.1026926994414584 -0.013226999761937681
3300000000.0 -0.0008002000227997749 -0.0767868103507816
3320000000.0 0.04646413271896518 -0.022730265613099352
3340000000.0 0.031196038405620418 0.004294702803728509
3360000000.0 -0.0036212402025697556 0.014242491346813137
3380000000.0 0.0008888314805257868 0.0031239525460283525
3400000000.0 -0.004680577116182485 -0.015694941121444927
3420000000.0 -0.01929397873587251 0.027523978484499216
3440000000.0 -0.023387708261206605 0.04128267296642912
3460000000.0 -0.0351249065613961 -0.044416541953559985
3480000000.0 -0.06050829456829252 0.02786831017385239
3500000000.0 -0.01560697093909161 0.07533468463158192
3520000000.0 0.04271927022770228 0.07797294345903875
3540000000.0 0.06361501953242912 -0.07967539266890405
3560000000.0 -0.10989008953327427 0.038207647138301784
3580000000.0 0.09325100932033001 0.09373353993363652
3600000000.0 -0.08613355018670917 0.12766717710482844
3620000000.0 -0.06165787708243628 0.15723783685862466
3640000000.0 -0.12537091093651823 0.1303546571907888
3660000000.0 -0.10311510888642417 0.15919691868662725
3680000000.0 -0.13555913289783184 0.1368268069244062
3700000000.0 -0.19081233045184548 -0.0006551401149911095
3720000000.0 -0.08219788615636463 -0.1697781207965368
3740000000.0 0.11638247331650897 -0.14269738375757435
3760000000.0 -0.15944744477827683 0.07816731536636903
3780000000.0 0.16886241109824288 -0.021903331111593902
3800000000.0 -0.06322192422493325 -0.15030851657497335
3820000000.0 -0.14958438027488627 -0.04462004194868396
3840000000.0 -0.111638372241725 -0.10026431412646375
3860000000.0 0.1448472314226234 -0.03771583326338723
3880000000.0 0.11565119207366774 -0.10443866404737778
3900000000.0 -0.11892592878311965 -0.1048791710028324
3920000000.0 -0.05053836900737568 0.15517561854745396
3940000000.0 0.0028783373917946396 -0.16764649093216083
3960000000.0 0.16112247703005045 -0.06265129996829355
3980000000.0 0.05957853515161119 -0.16302022304555416
4000000000.0 0.0188817319956399 -0.16463730627235343
