! Created with skrf (http://scikit-rf.org).
# Hz S RI R 50.0 
!freq ReS11 ImS11
400000000.0 -0.08500676266090962 0.8653970276021599
420000000.0 0.35677127517865365 0.7838422653957535
440000000.0 0.8232837069377573 -0.09969302273616117
460000000.0 0.2845843362721433 -0.7402344981700675
480000000.0 0.664165381385565 -0.2673492208906014
500000000.0 -0.050299861464741955 -0.5682581185517951
520000000.0 -0.10148158284922515 -0.48271977312200426
540000000.0 0.27195272413514 -0.34016210815118475
560000000.0 -0.21934985569091095 0.2834382444735845
580000000.0 -0.008802359694132117 0.33753541760821537
600000000.0 0.33816401215997377 -0.007581400677560796
620000000.0 -0.31765006283937014 0.1624828981947724
640000000.0 0.17173890768644767 0.3477317983699458
660000000.0 0.40075697220556844 -0.006696268740639091
680000000.0 -0.10670800145698991 0.40583948400948294
700000000.0 0.22759470756957756 -0.36712370288131396
720000000.0 -0.2736656073450225 -0.32849867191455306
740000000.0 0.3859489814328273 0.1618587908582685
760000000.0 0.07423747492234244 -0.39574041815420113
780000000.0 0.07031351085393978 0.3661313512270428
800000000.0 0.17850439704597987 -0.2945434794630544
820000000.0 0.28864897615529117 -0.05854794365846957
840000000.0 -0.03876595110575669 -0.24701256864181217
860000000.0 0.17939974644052986 -0.11631504697732664
880000000.0 -0.06981084527192148 0.14335788522353432
900000000.0 -0.05688872527661905 0.07662265275476045
920000000.0 -0.061923244325586026 -0.012944268037846395
940000000.0 0.028075128670625372 0.03956977375275042
960000000.0 0.04776020853720937 -0.02471699300539137
980000000.0 0.04965524253040655 0.05013514789357442
1000000000.0 -0.022962578884813376 -0.07752187481594204
1020000000.0 0.02526215558936549 0.09507720922203716
1040000000.0 0.08605777179785787 0.07012485589726145
1060000000.0 -0.037433202843558055 0.14207713203698502
1080000000.0 -0.14932629034268888 -0.05658832885465909
1100000000.0 -0.11650547779821367 0.13833710546237082
1120000000.0 0.16103579102182503 0.12160450029824386
1140000000.0 0.21312190568919231 -0.09547112935121617
1160000000.0 0.2694624650212007 -0.003463556746519636
1180000000.0 0.22298144950572843 0.21170185304941444
1200000000.0 -0.0605710290460256 0.33347428415818225
1220000000.0 0.0778815958172557 -0.3566708657297483
1240000000.0 -0.18891431744240006 0.3446509918529783
1260000000.0 0.40925662963562714 -0.10430951949210544
1280000000.0 -0.4442414592527514 0.009821473338717503
1300000000.0 0.43227842308127484 0.1478997453349252
1320000000.0 -0.18604369958023387 -0.41346899310714313
1340000000.0 -0.3854038193466497 -0.22268090187059364
1360000000.0 -0.34643152113823544 -0.2606901861237278
1380000000.0 -0.38583858627554907 -0.1882711656470426
1400000000.0 -0.378947702243849 0.17066537892267772
1420000000.0 0.07474516003883484 0.38977158554932545
1440000000.0 0.34429915376754444 0.1409547266836126
1460000000.0 0.19473078913274358 -0.2839806910926076
1480000000.0 -0.12203109061168052 -0.289177869147259
1500000000.0 -0.25958625122503254 -0.11251444261974816
1520000000.0 -0.2519930486768564 -0.04342410213858131
1540000000.0 0.2230915089144597 -0.04533087510021402
1560000000.0 -0.08707980582184906 0.17580840799268527
1580000000.0 -0.07069357816045702 -0.15770134972041594
1600000000.0 -0.0895570275288095 0.11559134073465147
1620000000.0 0.08221419225864893 0.08449935928340216
1640000000.0 0.09397822064347394 0.011429855997454441
1660000000.0 -0.058571024798017284 -0.03928972207401476
1680000000.0 0.014403746298889708 0.044797400162353264
1700000000.0 -0.017097769508823777 0.023941464791398755
1720000000.0 -0.013340982730249099 0.0028275363933860055
1740000000.0 -0.003504784905784752 -0.019999715586744807
1760000000.0 0.030972834320730447 0.026929991640284374
1780000000.0 -0.04533037995935815 0.0596554855608394
1800000000.0 0.06413033891621575 -0.09334770024605135
1820000000.0 0.097273019699819 -0.10906568082010525
1840000000.0 0.1333195314247227 0.11961140390708773
1860000000.0 -0.21019134619701557 0.005979134756233096
1880000000.0 0.11565083101468716 0.21186113748222185
1900000000.0 0.19402000678439046 -0.1941169588287262
1920000000.0 -0.2290778017753443 -0.20190294728267433
1940000000.0 -0.3311500690976582 0.06468412841002612
1960000000.0 -0.02834615862291495 0.3664699502768627
1980000000.0 0.38837570889351747 -0.05747527397771104
2000000000.0 0.09516237896267936 -0.403984194280569
2020000000.0 -0.43089717303828673 -0.002532635015523427
2040000000.0 -0.09138761146608577 0.4281233263478912
2060000000.0 0.4216089373893764 0.12159119259901613
2080000000.0 0.34014075390968346 -0.2703314486641968
2100000000.0 0.1254600381841375 -0.40940344552377295
2120000000.0 -0.1701316107777722 -0.38269672264082805
2140000000.0 -0.37292085259266583 -0.16584022973015042
2160000000.0 -0.13868619199766774 -0.3674719006333395
2180000000.0 -0.3576256830826879 -0.11286348205659624
2200000000.0 -0.3162409566083406 0.17160048138097944
2220000000.0 -0.17591567203617467 0.29745998615694014
2240000000.0 -0.08094065730434548 0.33093081123999496
2260000000.0 -0.004190867475770984 0.34096551263463093
2280000000.0 0.08100617429936947 0.33716455303182147
2300000000.0 0.35920343898845103 0.04903169838566935
2320000000.0 0.011063615740035953 -0.38861891149050654
2340000000.0 -0.39314925552611985 0.1534595065752786
2360000000.0 0.4638343721235832 0.025574515650374312
2380000000.0 -0.5106058230833695 0.024079533141909172
2400000000.0 0.5559034709827957 -0.07357307503640176
2420000000.0 -0.5317689893560922 0.30190784154497435
2440000000.0 0.28483775633301744 -0.5943638528257092
2460000000.0 0.14660897704202244 0.6829444678492347
2480000000.0 -0.46816037819589384 -0.5585335703158938
2500000000.0 0.49310253077689153 0.562863033238313
2520000000.0 -0.37499640960375596 -0.6588571139549965
2540000000.0 -0.01613554165785001 0.7592237147376448
2560000000.0 0.513093148433587 -0.5508223052224559
2580000000.0 -0.7112786503228355 -0.195429822283671
2600000000.0 0.2958414496582914 0.6485575045094111
2620000000.0 0.2949776768396638 -0.6152592982939559
2640000000.0 0.00771359492178196 -0.6445566517919108
2660000000.0 -0.4680755701761464 0.37550084882312157
2680000000.0 0.5370606584667292 0.12868962290598362
2700000000.0 -0.17336934885812255 -0.4740313886937422
2720000000.0 -0.26007800359389244 0.37654556789981336
2740000000.0 0.41431600818522335 -0.03436278280074623
2760000000.0 -0.30967317684757334 -0.218938660171882
2780000000.0 0.33163610434213264 0.1170978191136083
2800000000.0 -0.3279731211865224 0.02909829114799602
2820000000.0 0.02848409558029153 -0.31097284614951853
2840000000.0 0.2948868790943114 0.060372685843553466
2860000000.0 -0.10157819187353373 0.27791796711375655
2880000000.0 -0.21101822869855227 -0.20424923338570364
2900000000.0 0.26243206024258225 0.13008191535293206
2920000000.0 -0.02762329560102328 -0.2928918904301356
2940000000.0 -0.2948170905817843 0.046485740178370656
2960000000.0 -0.21401224329341761 0.2111141907214188
2980000000.0 -0.2898048704713335 0.09807437335061048
3000000000.0 -0.25820145357471663 -0.16817700330663204
3020000000.0 0.09938753275079286 -0.29443633418652443
3040000000.0 0.25674162189672206 0.17280987614048718
3060000000.0 -0.29051674247181697 0.10279208298350802
3080000000.0 0.20283953248258588 -0.22762044540891993
3100000000.0 -0.03796448347917433 0.29651595940004777
3120000000.0 -0.10808474676684927 -0.2694072071191511
3140000000.0 0.19268893844404428 0.203203285533471
3160000000.0 -0.26642742667434255 0.0021619316090691005
3180000000.0 0.20116354656854643 0.14893847752765307
3200000000.0 -0.09268361020106805 0.20819044434547243
3220000000.0 -0.20041388540553448 0.008113062863510625
3240000000.0 -0.023903179147320836 -0.1676794677240426
3260000000.0 0.008095606007407871 0.13489657874018915
3280000000.0 0.09786079204663316 -0.033267486557492135
3300000000.0 0.018372335087753728 -0.07414304226886348
3320000000.0 0.025689859562282324 -0.044477666215025385
3340000000.0 0.009923415842375275 -0.029416121110822844
3360000000.0 -0.014393570328221044 0.001957036455234796
3380000000.0 0.0035206329959644378 0.0011327554801465022
3400000000.0 0.0038044241374817164 -0.016655868496780465
3420000000.0 -0.032551240350776604 0.008023494715330927
3440000000.0 -0.036676904457850025 0.030375699223313703
3460000000.0 -0.026328373346688583 -0.050173824086276374
3480000000.0 -0.06663425660810657 0.005978181951751038
3500000000.0 -0.045687100051413965 0.062038444230256645
3520000000.0 0.007172649616556502 0.08873870063421961
3540000000.0 0.06142944626250717 -0.08247159136477941
3560000000.0 -0.11010313140202094 -0.03694638142080451
3580000000.0 0.08167440209834377 0.10422232054015149
3600000000.0 -0.11687775859447883 0.09972940318925255
3620000000.0 -0.08832700018510321 0.14418445400936813
3640000000.0 -0.15527096671821644 0.09149319333152671
3660000000.0 -0.11395039320429023 0.1518413654125743
3680000000.0 -0.15658603531687115 0.11147078869012521
3700000000.0 -0.19046551348301363 -0.0067912756384556315
3720000000.0 -0.07143830834485007 -0.1735742307180999
3740000000.0 0.12547073190491498 -0.13431593792611352
3760000000.0 -0.161704889559364 0.0715449830510015
3780000000.0 0.1701187690531183 -0.002459468236917782
3800000000.0 -0.030791002946804466 -0.15969978382456007
3820000000.0 -0.15299390145883818 -0.02700340428432056
3840000000.0 -0.10753435677220075 -0.1030746442591651
3860000000.0 0.14257479717836335 -0.04415126791182132
3880000000.0 0.11040405355714293 -0.10930869653048556
3900000000.0 -0.10574269690379003 -0.11747558760929426
3920000000.0 -0.05400558621046006 0.1535504901527265
3940000000.0 0.005716409512621333 -0.16733149089924143
3960000000.0 0.16352341948136093 -0.054866308527270265
3980000000.0 0.03754317649436305 -0.16885401633153366
4000000000.0 0.019241144955865715 -0.16427931433598303
