! Created with skrf (http://scikit-rf.org).
# Hz S RI R 50.0 
!freq ReS11 ImS11
400000000.0 -0.04819660184107828 0.8683475104271128
420000000.0 0.3930514715388463 0.766397913937801
440000000.0 0.8246976378061635 -0.0946732000400594
460000000.0 0.3106988922430813 -0.7293332201208202
480000000.0 0.6495746856452891 -0.29957684801735884
500000000.0 -0.02098307716372233 -0.572662967197543
520000000.0 -0.1731627752777153 -0.4625798654228264
540000000.0 0.2909828085992895 -0.32199600050979965
560000000.0 -0.27637492685935156 0.22650243202793313
580000000.0 -0.016487546024500244 0.33865448025503514
600000000.0 0.2541559918992511 -0.2192975263962265
620000000.0 -0.3279968062137107 0.14094098376779035
640000000.0 0.12091201412366616 0.3682357194657341
660000000.0 0.39681198479131563 -0.05547043668346532
680000000.0 0.01489068688325443 0.41926209990622487
700000000.0 0.21928667599459342 -0.37288192122231223
720000000.0 -0.31627404908172063 -0.2878562680501733
740000000.0 0.4078316339389813 0.08962547208963652
760000000.0 0.14316620003377364 -0.37639602281225965
780000000.0 0.0910395671303982 0.3619344320790263
800000000.0 0.1729644725337146 -0.29807309480368294
820000000.0 0.29506041153887774 -0.005523191741729719
840000000.0 -0.04705535604647011 -0.24507010599341975
860000000.0 0.16369355869245233 -0.13808487446498302
880000000.0 -0.09361006035131661 0.12851457104737446
900000000.0 -0.05684570185639836 0.07542602846242398
920000000.0 -0.052441080511892495 0.034978454697866215
940000000.0 0.0349745168945014 0.03317821960191955
960000000.0 0.03413606699567917 -0.0426969647030035
980000000.0 0.0429658479722066 0.057369609909832996
1000000000.0 0.03049742907742933 -0.07530102838799908
1020000000.0 -0.005866865603863917 0.09906753398759814
1040000000.0 0.09623096108271637 0.055674504201347286
1060000000.0 -0.0637470858266815 0.13148941307707537
1080000000.0 -0.15106836352653 -0.0502725052148517
1100000000.0 -0.07294051283011861 0.16509186178756927
1120000000.0 0.16955555659497842 0.10796311511331846
1140000000.0 0.17390866744068859 -0.15491242117528148
1160000000.0 0.26898678254634184 -0.012063164022375939
1180000000.0 0.2662936818902876 0.15333678958983554
1200000000.0 -0.0034753227934860255 0.3386948050920653
1220000000.0 -0.023977172311472724 -0.3652961935900506
1240000000.0 -0.14273895172559328 0.36713455361168407
1260000000.0 0.40342529473064864 -0.1274793410940656
1280000000.0 -0.44436432971801293 0.023851849221680543
1300000000.0 0.43345137346784285 0.1479352067737381
1320000000.0 -0.19993296873397778 -0.4079600305318239
1340000000.0 -0.3858092814255353 -0.22283654541682937
1360000000.0 -0.3244801867826304 -0.28830027978819356
1380000000.0 -0.36511890583136786 -0.22601283641844044
1400000000.0 -0.39560354575817475 0.12624355649846875
1420000000.0 0.026113307870854873 0.3959583044768666
1440000000.0 0.3425199257017256 0.14241288169479357
1460000000.0 0.20100578033559058 -0.27799467933257704
1480000000.0 -0.13068170982841432 -0.28402209143442403
1500000000.0 -0.2668020559192727 -0.09050190268591726
1520000000.0 -0.2529326861179556 -0.02500661305858183
1540000000.0 0.21279762027082583 -0.0787690222144332
1560000000.0 -0.054399579938684856 0.18730065738332127
1580000000.0 -0.11334727245311348 -0.12967932478134636
1600000000.0 -0.05191942195953871 0.13667503874358974
1620000000.0 0.10414581002284506 0.05663104664918598
1640000000.0 0.09233585052652109 -0.025011904188848976
1660000000.0 -0.07039711816762997 -0.012724920987841762
1680000000.0 -0.019416692095636966 0.04412124859849548
1700000000.0 0.007176233217045288 -0.028582105130618513
1720000000.0 -0.00037848952887835563 0.013192477515095844
1740000000.0 -0.019206023861572667 0.0016326874959333747
1760000000.0 0.027861717490485577 -0.031023548762494406
1780000000.0 -0.0685029963011969 0.032669451406039524
1800000000.0 0.08976064309946756 -0.0701980650368373
1820000000.0 0.1080096387499426 -0.10043860623398702
1840000000.0 0.10427377673749749 0.14683729832727574
1860000000.0 -0.21065273664958387 -0.017431280378930613
1880000000.0 0.12665019063391503 0.20607254882940415
1900000000.0 0.20562858259742556 -0.1823489016880162
1920000000.0 -0.22675924740204864 -0.20462242809013187
1940000000.0 -0.3211449928303968 0.10185953046346441
1960000000.0 0.02515193014033951 0.3665158790723425
1980000000.0 0.38874290050414156 -0.054243092871905485
2000000000.0 0.08053003528048819 -0.40637390875093704
2020000000.0 -0.4301121289655618 0.00865069666482557
2040000000.0 -0.019958465093308207 0.43665959205011906
2060000000.0 0.43243277901207267 0.07109165236068944
2080000000.0 0.3083766513807048 -0.3052686841738546
2100000000.0 0.0774528229823575 -0.42081551453833355
2120000000.0 -0.19704127744655806 -0.369629485024322
2140000000.0 -0.4017258997568771 -0.06970230429428462
2160000000.0 -0.21264070315994857 -0.33021157670503964
2180000000.0 -0.3678797801953816 -0.07578029782517275
2200000000.0 -0.27568903622033125 0.2326467378478955
2220000000.0 -0.13532874859706187 0.31932910844845774
2240000000.0 -0.025728792015222355 0.34093113134722325
2260000000.0 0.07833717784068112 0.3339211701333067
2280000000.0 0.13283796537805123 0.32148651144980595
2300000000.0 0.36395257131319964 0.010124426577263208
2320000000.0 -0.04700323819841032 -0.3873382850244792
2340000000.0 -0.3549908231756915 0.23115239008759972
2360000000.0 0.4635538885320653 -0.046818169107218505
2380000000.0 -0.5076069054784845 0.0685853901437664
2400000000.0 0.5467307505358334 -0.126039063462418
2420000000.0 -0.4907895178407913 0.3646533927444716
2440000000.0 0.17043259520233478 -0.6361195902746419
2460000000.0 0.27666070672978665 0.6403551070848289
2480000000.0 -0.5578689636126727 -0.46621842621778525
2500000000.0 0.5381574334359908 0.5173788392931971
2520000000.0 -0.43480931045341153 -0.6177105036354683
2540000000.0 0.13426051921276774 0.7443051959591265
2560000000.0 0.4395766085702526 -0.6075330310749151
2580000000.0 -0.7331175871923725 0.04906739042791431
2600000000.0 0.4539249677398082 0.5470796949643905
2620000000.0 0.15063851184519902 -0.6630311813760839
2640000000.0 -0.1609185194475656 -0.6221908746807402
2660000000.0 -0.3717206781495688 0.4689324470962699
2680000000.0 0.5484233443753878 0.05337140005339588
2700000000.0 -0.26327344600072095 -0.42951702746851556
2720000000.0 -0.1867851327341427 0.41631959508509414
2740000000.0 0.41198445021470315 -0.0516564225794531
2760000000.0 -0.3072605831324102 -0.22173470225777495
2780000000.0 0.32170959272973504 0.14190788834936055
2800000000.0 -0.328178709509909 0.015821415428041517
2820000000.0 0.07953149267634108 -0.30165827135359463
2840000000.0 0.27682667817006784 0.1178430044912449
2860000000.0 -0.16451757141297926 0.24553406892060425
2880000000.0 -0.18345546908942018 -0.22712307223720532
2900000000.0 0.23220372654994875 0.17539670461055182
2920000000.0 0.018780966069204586 -0.29174105243285803
2940000000.0 -0.2847564437759646 0.08314904265632603
2960000000.0 -0.18107928820657251 0.23746380376781775
2980000000.0 -0.2771308592571341 0.12392570300615416
3000000000.0 -0.2684486258892485 -0.15222991945117698
3020000000.0 0.025521187172979083 -0.3091146176529453
3040000000.0 0.2898395029612567 0.105987650151183
3060000000.0 -0.26167733066054705 0.1629466370980833
3080000000.0 0.14018901662946526 -0.27110729973478875
3100000000.0 0.1006487166630673 0.2819457203878033
3120000000.0 -0.12645521361038572 -0.2612752856359293
3140000000.0 0.22368768119734334 0.1702237380564615
3160000000.0 -0.25867755360745104 0.06867620825830356
3180000000.0 0.21779405173246574 0.12446031780982633
3200000000.0 -0.10387250863994986 0.20332102875238825
3220000000.0 -0.19771678710564397 -0.03732552532736584
3240000000.0 0.051902309335998376 -0.16217613857595392
3260000000.0 -0.07890671797097233 0.10976091119128102
3280000000.0 0.09512939042880297 0.03887674028493719
3300000000.0 0.06862034735123947 -0.03310112497591649
3320000000.0 0.03616538659327724 0.03661854321922433
3340000000.0 -0.02979578349132836 0.009359923808111483
3360000000.0 0.005198761949765798 0.013003052385296697
3380000000.0 0.002703125949451063 0.000995797844662389
3400000000.0 -0.014960703782845943 0.009619666764457068
3420000000.0 0.010090545900309772 0.033084473140737744
3440000000.0 -0.031383830408319546 0.038498367026095014
3460000000.0 -0.0503551944429191 -0.02968653143538037
3480000000.0 -0.06803762014730193 -0.003935904628447053
3500000000.0 -0.012926402912195673 0.07775242258609565
3520000000.0 0.06487601466079874 0.06423783956280146
3540000000.0 0.009659114819768564 -0.1036215036778949
3560000000.0 -0.09762306280994602 0.06568335172117033
3580000000.0 0.12926315833723392 0.036918438561648
3600000000.0 -0.1051663211001229 0.11401203008565242
3620000000.0 -0.09027371636490676 0.14354617928038496
3640000000.0 -0.15337492131110866 0.09815965120149828
3660000000.0 -0.12280899902931079 0.14557984756611725
3680000000.0 -0.16224683212327606 0.10478140632282316
3700000000.0 -0.19069008277610972 -0.019567637832238645
3720000000.0 -0.04528176090490225 -0.1841541399216938
3740000000.0 0.148328384265382 -0.11031663943553524
3760000000.0 -0.17848069033291472 0.00676001689454788
3780000000.0 0.15914562409095984 0.06223851138949911
3800000000.0 0.025003600960442886 -0.16026904117418592
3820000000.0 -0.13373719049974675 -0.07968050232131033
3840000000.0 -0.07274338110574471 -0.13067746051445803
3860000000.0 0.14942900292314712 -0.000750622225034626
3880000000.0 0.13955422947827906 -0.06855873948130355
3900000000.0 -0.05346612935903903 -0.14838267984831832
3920000000.0 -0.12901642737601285 0.09917951087814292
3940000000.0 0.0779756457910601 -0.1476210030444672
3960000000.0 0.16773806489813833 0.038068278397445386
3980000000.0 0.1122003857226278 -0.13133954794962377
4000000000.0 0.05895945385724638 -0.15426837461643406
