! Created with skrf (http://scikit-rf.org).
# Hz S RI R 50.0 
!freq ReS11 ImS11
400000000.0 -0.10919692661342101 0.8633813989394911
420000000.0 0.35580364596196695 0.7842777430567086
440000000.0 0.8273846447317531 -0.06709761858138567
460000000.0 0.3193727972014631 -0.7258439016643089
480000000.0 0.6648846435013068 -0.26442042060252885
500000000.0 -0.07105786886510522 -0.5670768903805093
520000000.0 -0.18154623472639725 -0.4590781834945281
540000000.0 0.3243786590767714 -0.29224599421727476
560000000.0 -0.3314814947229514 0.13772791417086835
580000000.0 0.08608201890593499 0.32459184586514195
600000000.0 0.2637892807892602 -0.21153127674425118
620000000.0 -0.3526422410185335 0.062437798749981316
640000000.0 0.06654358953960532 0.3817164235790258
660000000.0 0.38948248492099324 -0.0950946401647582
680000000.0 -0.023082141479958483 0.41842669827575824
700000000.0 0.2263016598130254 -0.3675484806706494
720000000.0 -0.2705373578582648 -0.33192730261731856
740000000.0 0.3786694762018797 0.17737143932467336
760000000.0 0.07023372927364967 -0.39538916730578977
780000000.0 0.06539358960597438 0.36800281326654294
800000000.0 0.19351577491211203 -0.2851389851145503
820000000.0 0.28677313222908235 -0.06481890752425347
840000000.0 -0.09016285951661994 -0.2335982740822273
860000000.0 0.15722915768012047 -0.1453698323331419
880000000.0 -0.10433441856122415 0.12052870181102067
900000000.0 -0.05912401299357591 0.07439370312498557
920000000.0 -0.057613697392820476 0.02563580048416927
940000000.0 0.02787011285538878 0.039969201928294146
960000000.0 0.027928202038499335 -0.04568399299464759
980000000.0 0.05257196890191228 0.0477947574355899
1000000000.0 0.017322486063493462 -0.07924083811576678
1020000000.0 0.040809123291650505 0.08941046621387144
1040000000.0 0.09502659811229144 0.057471372050734604
1060000000.0 -0.04265332296004046 0.14037698579863592
1080000000.0 -0.15099602433040854 -0.05108255830534779
1100000000.0 -0.12101964745171961 0.13490477890116465
1120000000.0 0.14027315059770945 0.1446959334389341
1140000000.0 0.19116731134523146 -0.1333724418869284
1160000000.0 0.2694114856876536 0.0014324856952228579
1180000000.0 0.21615090687574712 0.21845409944907526
1200000000.0 -0.059851350555310774 0.3336723143841833
1220000000.0 0.050136325586620636 -0.36257225111131336
1240000000.0 -0.20580209319737705 0.33516182235433567
1260000000.0 0.41215293105004097 -0.09075348759143445
1280000000.0 -0.44341190112159273 0.023807596438465303
1300000000.0 0.42755460574493825 0.16092982576106996
1320000000.0 -0.19569502674162745 -0.4092864072914315
1340000000.0 -0.3865472994510695 -0.22141406233552458
1360000000.0 -0.33390590225656375 -0.2762241794554764
1380000000.0 -0.3781211160740769 -0.2024034801781201
1400000000.0 -0.3718401122246279 0.18493726678212422
1420000000.0 0.07665019686776461 0.38998135734480405
1440000000.0 0.33866113962599464 0.15367634275546108
1460000000.0 0.19650838042539778 -0.2827377702589188
1480000000.0 -0.14647415174384473 -0.27761095808315805
1500000000.0 -0.26301133084086603 -0.10578739165318263
1520000000.0 -0.25293904424679314 -0.03869115455066851
1540000000.0 0.22560465377191483 -0.03314924092317692
1560000000.0 -0.09539731784906752 0.1719123509736548
1580000000.0 -0.06416800151698612 -0.16035217841379248
1600000000.0 -0.09809204065384364 0.10861402968328261
1620000000.0 0.07945174901061912 0.0875695638348674
1640000000.0 0.09470189269409053 -0.003834369124179637
1660000000.0 -0.06557263042118078 -0.025834013373672686
1680000000.0 0.02188456294172279 0.041576873628678644
1700000000.0 0.0038138677522600957 0.029256738513697936
1720000000.0 -0.013619180470242024 0.0006028547822970112
1740000000.0 0.02026142230056368 0.0025843959048900502
1760000000.0 0.04121744660744875 0.004319321976129121
1780000000.0 -0.05389288104953264 0.05189982750443757
1800000000.0 0.06708243592706033 -0.09079694218428674
1820000000.0 0.10028339479830263 -0.10588850047901174
1840000000.0 0.1383573715891965 0.11368421723470037
1860000000.0 -0.2097003404141674 0.015801802864684213
1880000000.0 0.12611358986654833 0.20583687099854733
1900000000.0 0.19253531015704042 -0.19536778386895828
1920000000.0 -0.2337728851740457 -0.196716996903103
1940000000.0 -0.32971376549011944 0.07179059020999702
1960000000.0 -0.010682177800754662 0.36727577524892513
1980000000.0 0.38909024889342075 -0.055434299521509335
2000000000.0 0.10164813095372693 -0.4025022167889413
2020000000.0 -0.4306582707200218 -0.012616819833322208
2040000000.0 -0.05641129410676304 0.43427016891560655
2060000000.0 0.4221577570732684 0.12063960891399059
2080000000.0 0.34291802514772407 -0.26678481293423717
2100000000.0 0.11751860501597962 -0.41170686935931755
2120000000.0 -0.17341145221317575 -0.381153898310774
2140000000.0 -0.3771945060877367 -0.15483314413188193
2160000000.0 -0.17895082770658563 -0.34952801326095523
2180000000.0 -0.3476966785245936 -0.1410373940610776
2200000000.0 -0.3316566946940353 0.13922861815334556
2220000000.0 -0.16654691474937855 0.30290420429865106
2240000000.0 -0.09076354034478532 0.32855621992888717
2260000000.0 -0.020651664786939753 0.34029767062885896
2280000000.0 0.06998665730889228 0.33932122875333304
2300000000.0 0.35747773542674777 0.060875620819996805
2320000000.0 0.029530883609238095 -0.38732695614783963
2340000000.0 -0.38389802466608264 0.1755962484687697
2360000000.0 0.4650703668276442 0.009985542028926677
2380000000.0 -0.5110253925453838 -0.010728952340196975
2400000000.0 0.5580705054708773 -0.05217096983726517
2420000000.0 -0.5370512363964418 0.29203965010593824
2440000000.0 0.2992035425170967 -0.5871713301832956
2460000000.0 0.1385649657429874 0.6845641671797754
2480000000.0 -0.44682634159500556 -0.5758673934456989
2500000000.0 0.47980297295378843 0.5742663843527605
2520000000.0 -0.3436561387162634 -0.6762302436745846
2540000000.0 -0.014937927454998539 0.7594922273550689
2560000000.0 0.5240820774717198 -0.5410369289827871
2580000000.0 -0.709815013693316 -0.20151886243613568
2600000000.0 0.3019635893206741 0.6460514213459101
2620000000.0 0.3447463925873282 -0.5893939303049969
2640000000.0 -0.010722749128616814 -0.6449733861160621
2660000000.0 -0.4785393446290204 0.3624987323423774
2680000000.0 0.5177401810052472 0.1921906810988838
2700000000.0 -0.12143424008525461 -0.4899405659569664
2720000000.0 -0.2785863776507969 0.36305196736737116
2740000000.0 0.41469916373020077 -0.02837687541571841
2760000000.0 -0.294624313876274 -0.23893525010117783
2780000000.0 0.32179795850068416 0.14219002149744234
2800000000.0 -0.32392700848050887 0.05656947574189898
2820000000.0 0.01808724153029293 -0.3116074943007062
2840000000.0 0.29600616255225776 0.05285833239580076
2860000000.0 -0.07659502390112101 0.28561784500487775
2880000000.0 -0.2244649557245041 -0.18904882218923633
2900000000.0 0.2641705178915878 0.12586471905838914
2920000000.0 -0.05343823041948087 -0.28957783637763496
2940000000.0 -0.2970188674470203 0.03482705533807521
2960000000.0 -0.2127375048777845 0.2123867726270239
2980000000.0 -0.2948724482435318 0.0790609423812616
3000000000.0 -0.2705606469001672 -0.15076254345275258
3020000000.0 0.040350423479666025 -0.3090007193898074
3040000000.0 0.2516034675361202 0.1806583937430122
3060000000.0 -0.29731610944230896 0.08188846152783115
3080000000.0 0.21182838385580027 -0.21934231170694268
3100000000.0 -0.046955878682919436 0.29520866478729696
3120000000.0 -0.060092669378888096 -0.2833866579094099
3140000000.0 0.17096843697767972 0.22151561400328731
3160000000.0 -0.2663973193712242 0.003916261862533123
3180000000.0 0.2126408356657307 0.1316043756370106
3200000000.0 -0.08682778474602865 0.2103897417467305
3220000000.0 -0.20005320401773186 0.006987799630201107
3240000000.0 -0.017290502149992334 -0.1685168368808345
3260000000.0 0.01370309713209479 0.13416728575020256
3280000000.0 0.0737031695852695 -0.07203417766438619
3300000000.0 0.02721038743894415 -0.0714007515871875
3320000000.0 0.03558767695806559 -0.03712027160853783
3340000000.0 0.011377498231047105 -0.028834093781194198
3360000000.0 -0.012109504547881874 -0.0084640960253283
3380000000.0 -0.00034226602321800877 -0.0038760563120673413
3400000000.0 0.014464378485112131 -0.008976946859215492
3420000000.0 -0.03351642400553339 -0.0004305830684143605
3440000000.0 -0.047274365817891545 0.008178624325025585
3460000000.0 -0.011144531180510378 -0.055649812222788246
3480000000.0 -0.06676965131139605 -0.0011032065424852302
3500000000.0 -0.06257056452034995 0.045216230618986705
3520000000.0 0.05531086624194357 0.07054026560202642
3540000000.0 0.04015420710524281 -0.09525060311660438
3560000000.0 -0.11480333685500219 -0.020218615946401227
3580000000.0 0.06731551411398247 0.11410133481935346
3600000000.0 -0.11350016279496981 0.10392096513358927
3620000000.0 -0.11403984052184435 0.12436326950005548
3640000000.0 -0.1605107929393639 0.08240760435965916
3660000000.0 -0.12031668699672776 0.14690210619482924
3680000000.0 -0.17190571747797032 0.08602136026933166
3700000000.0 -0.1884893503173564 -0.027251159062622668
3720000000.0 -0.053724309101021016 -0.18009813983651238
3740000000.0 0.13489552596928348 -0.12460668429265526
3760000000.0 -0.16864752403972985 0.0534785618455356
3780000000.0 0.169963053563814 0.005944055468450799
3800000000.0 -0.024784840139011367 -0.16045525525034018
3820000000.0 -0.14994388742377368 -0.04042059433762881
3840000000.0 -0.08609579238067003 -0.1217178817033585
3860000000.0 0.1480285863257202 -0.016691478267108498
3880000000.0 0.13490622596410787 -0.07705879668967955
3900000000.0 -0.07920525047492702 -0.13662321405516278
3920000000.0 -0.09047204902339005 0.13522984088876375
3940000000.0 0.028213453487693062 -0.16451760616806363
3960000000.0 0.17007099470029766 -0.026612347095534155
3980000000.0 0.07490004787574893 -0.1557537857876423
4000000000.0 0.05954115913809201 -0.1538125829949228
