! Created with skrf (http://scikit-rf.org).
# Hz S RI R 50.0 
!freq ReS11 ImS11
400000000.0 -0.09603343136041811 0.8655582039976891
420000000.0 0.33580609089596375 0.7929973884331751
440000000.0 0.8271856879942565 -0.06716574480747706
460000000.0 0.27341681862974193 -0.7443763172181668
480000000.0 0.63860314873366 -0.322431099943345
500000000.0 0.0635045818988943 -0.5677888781162354
520000000.0 -0.17431736538224285 -0.4612607698935146
540000000.0 0.16608872242758232 -0.4002960543445258
560000000.0 -0.24285734484464355 0.26462826101592085
580000000.0 -0.08388969832289157 0.3273842909439673
600000000.0 0.2502505464290352 -0.22634949080665995
620000000.0 -0.34552065535681614 0.0856298313354773
640000000.0 0.04986530383115695 0.384205477180755
660000000.0 0.39506147629238464 0.06854694845574463
680000000.0 -0.09043192850028299 0.41021798671709503
700000000.0 0.19278878000682215 -0.38750341871091826
720000000.0 -0.22289439428117835 -0.3631529350170382
740000000.0 0.39923930579682165 0.12454945543701945
760000000.0 0.07707099898749209 -0.3949801174043057
780000000.0 0.05367813799091188 0.3680949880902584
800000000.0 0.09848444023093839 -0.3292957617542603
820000000.0 0.2905906390827352 -0.05583123679541554
840000000.0 -0.045772205351803395 -0.2443382837334814
860000000.0 0.14146654020938904 -0.1605274243718575
880000000.0 -0.1301097394354685 0.09417063117323853
900000000.0 -0.057045329203692596 0.07527518568708715
920000000.0 -0.06360503333574943 0.0034765804336391436
940000000.0 0.025477040124492433 0.03984660674899821
960000000.0 0.013111750650885967 -0.05284018190387531
980000000.0 0.04435176889482574 0.05423314456483384
1000000000.0 -0.02922414816913738 -0.0755418279797807
1020000000.0 0.04932512967577443 0.08541245885071645
1040000000.0 0.0930417060721365 0.06036809691945796
1060000000.0 -0.04767273458447073 0.1386143744314769
1080000000.0 -0.13920925822203387 -0.07765954399443954
1100000000.0 -0.09832722182857671 0.15262018785155168
1120000000.0 0.10012628851295734 0.17551102113020142
1140000000.0 0.21811847936680495 -0.08054049521257356
1160000000.0 0.2698305569360733 0.00833273576009965
1180000000.0 0.1907132071540197 0.24180418911717297
1200000000.0 -0.032105610832446105 0.3372708090376866
1220000000.0 0.02650775195211836 -0.3648304278246008
1240000000.0 -0.20236580164462792 0.3368276587522136
1260000000.0 0.40884666754935045 -0.10428626291489333
1280000000.0 -0.4440530410347432 -0.0005787127543676798
1300000000.0 0.4266393129130253 0.16270205827154222
1320000000.0 -0.21320046638325207 -0.4003370496661933
1340000000.0 -0.37859365588453475 -0.23430402328510688
1360000000.0 -0.34447986784162693 -0.26209872534606793
1380000000.0 -0.3788487505815256 -0.20149439328114893
1400000000.0 -0.38911360800711203 0.14596083649263428
1420000000.0 0.05413391289561728 0.39367765902915713
1440000000.0 0.3455624070239131 0.1380867655411647
1460000000.0 0.21504115578377667 -0.26896352257729067
1480000000.0 -0.13766194838094764 -0.2822698450866339
1500000000.0 -0.26293165673982744 -0.10643255256243189
1520000000.0 -0.25474671883745037 -0.02277991986708594
1540000000.0 0.22500456265415167 -0.037335768724081994
1560000000.0 -0.11135970896876908 0.16214249024505298
1580000000.0 -0.07186102753812887 -0.1572019529912253
1600000000.0 -0.11807876776919433 0.08709358238366986
1620000000.0 0.09850633645927617 0.06550840299805123
1640000000.0 0.09406837467773337 0.007820466953789795
1660000000.0 -0.0529442683008641 -0.04615793859674692
1680000000.0 -0.0018894222364957177 0.046538915631235786
1700000000.0 -0.009636623883234411 0.027288803036939285
1720000000.0 -0.0027863866481108984 0.012984838022985813
1740000000.0 0.017977248237624845 0.009632761269188708
1760000000.0 0.04073191459472343 0.006360846471016832
1780000000.0 -0.05440715999365595 0.051987054325023666
1800000000.0 0.07874926833431402 -0.08093796030657051
1820000000.0 0.09649810962244827 -0.10935792244835811
1840000000.0 0.1215644784670773 0.13155255361500956
1860000000.0 -0.21002874825716 -0.004663532358770468
1880000000.0 0.11962477591478683 0.20901621937732828
1900000000.0 0.20090419038364543 -0.18676227347406604
1920000000.0 -0.21717066077880615 -0.2143507645735745
1940000000.0 -0.32741401881688903 0.08015931493536123
1960000000.0 -0.012632338015042223 0.36718732561871265
1980000000.0 0.38718796718568166 -0.06480464448360229
2000000000.0 0.09375795634055015 -0.4044360864052246
2020000000.0 -0.4297850782480427 0.03339828061220863
2040000000.0 -0.10583274549645748 0.425294117401719
2060000000.0 0.429639024472762 0.09012297353240187
2080000000.0 0.36037563162284164 -0.2436343775357093
2100000000.0 0.12538585828066087 -0.4098522250656388
2120000000.0 -0.15106138297540905 -0.3909760785724635
2140000000.0 -0.3767564726306232 -0.1572290799799184
2160000000.0 -0.12200564053378286 -0.37385727288781384
2180000000.0 -0.34422060421611245 -0.1507752310890972
2200000000.0 -0.34126488391651666 0.11526186954804041
2220000000.0 -0.21653140629220785 0.2697374082914155
2240000000.0 -0.11100599520606025 0.3224078595968984
2260000000.0 -0.041989413598366554 0.3380712774550672
2280000000.0 0.045438766919403815 0.34330190679046846
2300000000.0 0.35451878806071707 0.07373337044492889
2320000000.0 0.01934618507248293 -0.38778346477635606
2340000000.0 -0.39290371864700857 0.15293612643333288
2360000000.0 0.46328824655720674 0.029957926152226116
2380000000.0 -0.5100384158064041 0.029792528466428925
2400000000.0 0.5534514269994649 -0.08969872718250127
2420000000.0 -0.5319261726513114 0.3014009056926089
2440000000.0 0.2739606071444271 -0.5995429146661324
2460000000.0 0.15782964119619422 0.6807572410944288
2480000000.0 -0.4774497128332964 -0.5509314014678484
2500000000.0 0.48630748428315945 0.5692068915356565
2520000000.0 -0.3462060430765929 -0.6751222941408274
2540000000.0 -0.04856698077958446 0.758212825045329
2560000000.0 0.5554940582046551 -0.508818590118603
2580000000.0 -0.6988011567721173 -0.23667609659463207
2600000000.0 0.23455528898815706 0.6733953163377268
2620000000.0 0.3684537538314315 -0.5744909984927398
2640000000.0 0.032515578693610894 -0.6436103820787534
2660000000.0 -0.4808835366975395 0.3584782406735282
2680000000.0 0.5223455550507776 0.17903770156980242
2700000000.0 -0.13560305784537327 -0.4861337557626358
2720000000.0 -0.27184761973310906 0.3678779354546052
2740000000.0 0.4156124475925758 -0.004661922642600326
2760000000.0 -0.2942670600760993 -0.23949073323138445
2780000000.0 0.32430056900846255 0.13658507298214043
2800000000.0 -0.3200306538889911 0.07510331542623515
2820000000.0 0.007204107078675732 -0.31256987763259875
2840000000.0 0.2947990471958756 0.05976528937961437
2860000000.0 -0.11813685605121765 0.27185173879423535
2880000000.0 -0.22921207115326184 -0.1836665459675096
2900000000.0 0.2468299956200258 0.15754429477841167
2920000000.0 0.012166108255101532 -0.2942700614382602
2940000000.0 -0.29612946307446913 0.043675446015065955
2960000000.0 -0.20820086830271237 0.2169405768078551
2980000000.0 -0.29761420931766286 0.07130476222610081
3000000000.0 -0.2194976715466113 -0.21867911286507247
3020000000.0 0.0839529369654902 -0.3001928284846816
3040000000.0 0.24541839763384157 0.1890078193196471
3060000000.0 -0.3032381055518004 0.05467385737349067
3080000000.0 0.2101117433774949 -0.22110443845958969
3100000000.0 -0.045753928302469805 0.2954648798043685
3120000000.0 -0.0476074115283529 -0.2859000829846727
3140000000.0 0.1658356107518797 0.22566203900304097
3160000000.0 -0.2665085369626932 -0.002095971125140076
3180000000.0 0.20981031477707543 0.13657371300356858
3200000000.0 -0.10933360615168211 0.19971506704098194
3220000000.0 -0.200288806988266 -0.009105618979542826
3240000000.0 -0.014561146418938612 -0.168816732244659
3260000000.0 -0.00029054377300214676 0.13474872680929975
3280000000.0 0.09680141898733896 -0.035414530506665376
3300000000.0 0.008568962738334277 -0.07569992735277116
3320000000.0 0.04459738713369946 -0.02536020616614123
3340000000.0 0.024407686258334813 -0.018860632191856665
3360000000.0 0.005754307786028703 -0.013280577075540341
3380000000.0 0.001082739071127375 0.004150202886443694
3400000000.0 0.01615015693110332 0.006703329522074974
3420000000.0 -0.03016544142899802 -0.014998173404895815
3440000000.0 -0.04730651045894642 0.009076289172717208
3460000000.0 0.006598022669558523 -0.056885442488146726
3480000000.0 -0.040934102066085255 -0.05300334939993326
3500000000.0 -0.05834766789423541 0.05138746727806055
3520000000.0 0.021057107955620633 0.08747632030665892
3540000000.0 0.08002354225641961 -0.06557228828091613
3560000000.0 -0.11116617883186676 -0.036902402835117504
3580000000.0 0.049473620798687154 0.12352172493309241
3600000000.0 -0.14195844787231326 0.059018277168999884
3620000000.0 -0.1328529213267032 0.1050046035333663
3640000000.0 -0.17558136406559283 0.03999932332529836
3660000000.0 -0.1545545082195167 0.10958551976409435
3680000000.0 -0.18299071529955588 0.057819519631315826
3700000000.0 -0.18448393358938026 -0.044889540089589536
3720000000.0 -0.032981815021682036 -0.18456177303331583
3740000000.0 0.1524395751418129 -0.10073740795225142
3760000000.0 -0.17025938084225162 0.04467855353332888
3780000000.0 0.1688291572065357 -0.010140783999390066
3800000000.0 -0.015629373500410458 -0.16101434143470203
3820000000.0 -0.14960526712597763 -0.03894410558560955
3840000000.0 -0.10105463004505323 -0.10793825071342263
3860000000.0 0.14668036995229386 -0.021130522673677488
3880000000.0 0.12069331806904175 -0.09595713745692627
3900000000.0 -0.10099945449458779 -0.12017313280205248
3920000000.0 -0.07673606678781746 0.14226386152699905
3940000000.0 -0.0008051681765853466 -0.16620089791154402
3960000000.0 0.16264696609884752 -0.054764411878212384
3980000000.0 0.06593121848170443 -0.15942872277234132
4000000000.0 0.028505346986669376 -0.16215730743435752
