! Created with skrf (http://scikit-rf.org).
# Hz S RI R 50.0 
!freq ReS11 ImS11
400000000.0 -0.062187258107819804 0.867850354530757
420000000.0 0.3833673617420674 0.7713834464659446
440000000.0 0.8118372452053697 -0.17354959476719023
460000000.0 0.30037903455368437 -0.733171794691757
480000000.0 0.6605446757769415 -0.2754251975816369
500000000.0 -0.04230586195916594 -0.5707672576101698
520000000.0 -0.15007334675824563 -0.47046665148895644
540000000.0 0.29153212187844435 -0.3208554965707379
560000000.0 -0.30105966591154576 0.1918565664029689
580000000.0 0.03361129038864631 0.3370630283138547
600000000.0 0.2557077218654417 -0.21833268957586818
620000000.0 -0.3194644604277087 0.16218964244348355
640000000.0 0.12569732294574046 0.36604335307562813
660000000.0 0.39342021988570314 -0.07349899563091815
680000000.0 0.012551462571535471 0.41920699000829514
700000000.0 0.240511167698355 -0.36011954841660215
720000000.0 -0.31134413430840474 -0.29339034144194226
740000000.0 0.3800712050086152 0.17580549512027993
760000000.0 0.1696561220407848 -0.364292343859567
780000000.0 0.10935349197700939 0.35544600761238054
800000000.0 0.13546770336894043 -0.3171028745992879
820000000.0 0.29497348203413337 -0.013665843040429447
840000000.0 -0.0008553115655603211 -0.2501063200932639
860000000.0 0.17670930718080669 -0.1188105542738512
880000000.0 -0.09391884420965574 0.1288613925847094
900000000.0 -0.006763287698713974 0.09429005174694978
920000000.0 -0.030168824539800444 0.056421747755965104
940000000.0 0.011445303368770868 0.0460788601613604
960000000.0 0.0013813460548183802 -0.05349608540339371
980000000.0 0.04886854927698716 0.05254689979723633
1000000000.0 0.025060064582253114 -0.07745268801837743
1020000000.0 0.001587302522119222 0.09851709867104914
1040000000.0 0.09200016868556772 0.06119097901295832
1060000000.0 -0.03205482855997113 0.1425890606252424
1080000000.0 -0.15244063930881036 -0.04879659848967276
1100000000.0 -0.10060035725822253 0.15112250893290688
1120000000.0 0.14486799845996431 0.1389865215185807
1140000000.0 0.1600167238532005 -0.16892332622693804
1160000000.0 0.26498855232255303 -0.04640503509090955
1180000000.0 0.25926107571237444 0.1660902741129519
1200000000.0 -0.027648260742556365 0.33829170860992464
1220000000.0 0.03272500322893587 -0.3650962505769207
1240000000.0 -0.16300336502180135 0.3578623947023237
1260000000.0 0.40325842795669314 -0.1260030373144115
1280000000.0 -0.44271677256529135 0.04249716338338865
1300000000.0 0.43396644461264283 0.1445539204859948
1320000000.0 -0.19556819548149482 -0.4101625982512897
1340000000.0 -0.37992511626033226 -0.23280756251418855
1360000000.0 -0.32570407634064275 -0.28661345403877075
1380000000.0 -0.377457029171608 -0.2041777322831341
1400000000.0 -0.3881779878286139 0.1476091145740358
1420000000.0 0.04889778038264121 0.3937234996228889
1440000000.0 0.3398509663292771 0.14951502974649244
1460000000.0 0.1937713845654225 -0.2834344754865673
1480000000.0 -0.15018932959853484 -0.27423178409966054
1500000000.0 -0.26829120764824826 -0.08721701698848885
1520000000.0 -0.254656386615871 -0.0028218285525931064
1540000000.0 0.21449954136225882 -0.07292185865902631
1560000000.0 -0.035060053833324084 0.19226392034187795
1580000000.0 -0.12103887884738576 -0.12231791472902179
1600000000.0 -0.038906338435720764 0.14083457471323052
1620000000.0 0.10837785474519296 0.047310773779380824
1640000000.0 0.09556428527466801 -0.0037469022981405165
1660000000.0 -0.061609723899091785 -0.03568110002814697
1680000000.0 -0.009533496020792754 0.04707636078037027
1700000000.0 -0.028092114184468754 -0.010272715554592768
1720000000.0 0.012654886209598103 0.0036342990691040286
1740000000.0 -0.0189530809036593 -0.005247465687342196
1760000000.0 0.030805599629762048 -0.02747685448322113
1780000000.0 -0.0072522378101469425 0.0752184998813908
1800000000.0 0.04813679759837821 -0.10343719378414636
1820000000.0 0.08288503658239899 -0.12159777957470291
1840000000.0 0.13433954174698964 0.12033755936500108
1860000000.0 -0.21116813062726764 -0.0016199944589842606
1880000000.0 0.11153494365663229 0.21516632369352653
1900000000.0 0.20782555460808144 -0.1805901443997601
1920000000.0 -0.21040640055778745 -0.22205172252174926
1940000000.0 -0.3310646938646605 0.06486203516027263
1960000000.0 -0.0270020082442202 0.3662605821094685
1980000000.0 0.39114113782328874 -0.03042049183678736
2000000000.0 0.1136444435621711 -0.3987779462734839
2020000000.0 -0.42974188000719793 0.01939607272343408
2040000000.0 -0.06916417584440428 0.43156771124775123
2060000000.0 0.430922358528468 0.07752331565836751
2080000000.0 0.3139925859906311 -0.29880250915021145
2100000000.0 0.0441753847348796 -0.42497614783884136
2120000000.0 -0.25594518245163983 -0.33056840527990455
2140000000.0 -0.40276607890286903 -0.06183820017808802
2160000000.0 -0.22512976667821397 -0.32164082052457615
2180000000.0 -0.3728193922608337 -0.0418529264373665
2200000000.0 -0.2835491720608673 0.22158090162825347
2220000000.0 -0.09732968403766554 0.3318851623301466
2240000000.0 0.008459892046207111 0.34123166790005066
2260000000.0 0.07776406049128938 0.3325236044870609
2280000000.0 0.15348063761807712 0.3115427755737261
2300000000.0 0.3628654702715918 -0.0027743483845851765
2320000000.0 -0.06068618167203406 -0.38454600649036036
2340000000.0 -0.35128371087108845 0.23491424059135316
2360000000.0 0.4603717006315984 -0.06899142992174288
2380000000.0 -0.4991748773424776 0.11292497178219348
2400000000.0 0.5403448920273038 -0.15075778435107876
2420000000.0 -0.4793330570806428 0.3795624512173362
2440000000.0 0.19123131218468498 -0.6302756582929557
2460000000.0 0.26701065485444764 0.6445054546133394
2480000000.0 -0.5597093030593486 -0.4647948944451899
2500000000.0 0.5751112935739023 0.47651921750857135
2520000000.0 -0.4671588296835215 -0.5951750544387726
2540000000.0 0.10551229216726125 0.7502269672166559
2560000000.0 0.4264846542834057 -0.6182897228839321
2580000000.0 -0.7338498003997502 -0.047331325554841014
2600000000.0 0.3958356185406886 0.5900745447974622
2620000000.0 0.20257736267201584 -0.6491010955721538
2640000000.0 -0.1185414844748921 -0.6310806534317464
2660000000.0 -0.3728128827400448 0.4670428557325621
2680000000.0 0.5485846975007965 0.038614520138871476
2700000000.0 -0.22387364727033948 -0.4498671902419335
2720000000.0 -0.23364042435795015 0.39085202340769537
2740000000.0 0.41167778242821984 -0.042714604061249814
2760000000.0 -0.30435588332781627 -0.22362375295216755
2780000000.0 0.32294547269430074 0.13523623983907987
2800000000.0 -0.324951003946388 0.03823373563319923
2820000000.0 0.036918943455030016 -0.3085426092950017
2840000000.0 0.29553205778571034 0.047147706465833605
2860000000.0 -0.10456592890239565 0.2753058971091385
2880000000.0 -0.235038284339881 -0.17284923527074944
2900000000.0 0.26545331704618813 0.12019484307918672
2920000000.0 -0.08894089725773227 -0.27944376221676204
2940000000.0 -0.2740835912463298 0.11557618822592808
2960000000.0 -0.1523660677260078 0.25804900284018584
2980000000.0 -0.2709789820432038 0.1396402839550156
3000000000.0 -0.2879127533962474 -0.11286619494856039
3020000000.0 0.0356427865543506 -0.30891493414887705
3040000000.0 0.27022369067151136 0.15067970211451207
3060000000.0 -0.2805924836610288 0.12873992636148104
3080000000.0 0.17116811902030754 -0.25269948750510257
3100000000.0 -0.02865293028148589 0.29773926027404213
3120000000.0 -0.04238606922900482 -0.2871591919676295
3140000000.0 0.18411056625482858 0.2120031494059511
3160000000.0 -0.26716656489856877 0.0011615585661149256
3180000000.0 0.18178469309988482 0.17234660289845985
3200000000.0 -0.1512895041156404 0.17098076314992214
3220000000.0 -0.19130571026964627 -0.061618100890971444
3240000000.0 0.06067014309529266 -0.15836657054218772
3260000000.0 -0.07476260407031146 0.11217450538900832
3280000000.0 0.10092103640197127 0.01967718941996846
3300000000.0 0.07554107223143472 -0.006657008945067699
3320000000.0 0.014003493563794328 0.04868451744712707
3340000000.0 -0.026169496377388617 0.015199494340998303
3360000000.0 0.013640704356361074 -0.0016174130698241834
3380000000.0 0.0005938734850360859 0.0026738216818246075
3400000000.0 0.01733622761724374 0.0015725091190421192
3420000000.0 0.032841348576049596 0.008726626769474898
3440000000.0 0.04380927299602063 0.021017743156929412
3460000000.0 -0.056855192069754285 -0.008788113712014985
3480000000.0 -0.05054738264801108 0.044697959294356805
3500000000.0 0.02350949565865575 0.07477953571598145
3520000000.0 0.08994599691543417 0.01072105913208694
3540000000.0 -0.00856330852766877 -0.10344459050306302
3560000000.0 -0.10289740141423646 0.056690972966009064
3580000000.0 0.12199862763018003 0.05449078252375157
3600000000.0 -0.07832335667621572 0.133524897301605
3620000000.0 -0.07604923355384809 0.1521316707963705
3640000000.0 -0.13788270260357094 0.11860174795665744
3660000000.0 -0.1102996822024534 0.15540385740417836
3680000000.0 -0.15717716063301124 0.11270130449105331
3700000000.0 -0.1905525109620129 -0.020989247963619236
3720000000.0 -0.05179845325507939 -0.18224651513707688
3740000000.0 0.14706351123180478 -0.11235108172202947
3760000000.0 -0.17523640928257542 0.030827399845812904
3780000000.0 0.1689465615710922 0.024369606098370883
3800000000.0 0.00844582636222528 -0.16340569983441303
3820000000.0 -0.13905015256662215 -0.0719326631342153
3840000000.0 -0.06085134048791175 -0.1369193473071416
3860000000.0 0.14927361797014166 0.016823137312678833
3880000000.0 0.1402446120474931 -0.06878415335439508
3900000000.0 -0.07424319736883096 -0.1402754486986899
3920000000.0 -0.09676804125329991 0.13166093102532697
3940000000.0 0.05071374326221163 -0.1601743758957965
3960000000.0 0.17300032829645176 -0.0076902053353717055
3980000000.0 0.12001704580795028 -0.12535698090098574
4000000000.0 0.12025878123889817 -0.11317506827218327
