!Created with skrf (http://scikit-rf.org).
# Hz S RI R 50.0 
!freq ReS11 ImS11
400000000.0 0.5389058943246279 0.6847307665820552
420000000.0 0.8276697369669216 -0.16786134321844845
440000000.0 0.750845001253921 -0.2639741885601649
460000000.0 0.6898007715097845 0.2722408345310994
480000000.0 0.03357273280011212 -0.6848460960923413
500000000.0 -0.024709803719161056 0.602521599377929
520000000.0 0.09110258566633267 0.501893264259739
540000000.0 -0.3248398423457697 -0.29111344304921866
560000000.0 0.05420316720129791 0.3931386286539369
580000000.0 -0.3416516706403213 -0.10911724024991755
600000000.0 0.34373657135044855 0.07066164872018554
620000000.0 0.20022947145732745 -0.29174231888863306
640000000.0 0.3665108047307495 0.19732062318111093
660000000.0 0.30704762179209805 0.28867173722406925
680000000.0 -0.44277513545650493 -0.0856767934832467
700000000.0 0.4469292674557419 0.10584186121643592
720000000.0 -0.252007406514265 0.38303206631686154
740000000.0 -0.3102820727699359 0.2839381120902089
760000000.0 -0.0970041545268209 -0.3930037474392692
780000000.0 -0.3579652382830722 -0.12399247756094545
800000000.0 -0.3141028316289244 -0.12006060790490251
820000000.0 -0.16839923730000775 0.22665307598655682
840000000.0 -0.13684008402795897 -0.1644409661115177
860000000.0 -0.17332770503279776 0.03812966858320167
880000000.0 0.00593942834050155 0.1471252600482533
900000000.0 -0.09554430531903718 0.0219127055821962
920000000.0 -0.03979148738399723 -0.03754225729314563
940000000.0 -0.029707616505781565 -0.017210410209229348
960000000.0 -0.028184607998150323 0.0262955924322624
980000000.0 -0.0009442208113463439 0.060038172986575024
1000000000.0 0.03803451742657818 -0.08901493078762135
1020000000.0 0.06276965348775033 -0.10121909741036828
1040000000.0 -0.12034873172600549 0.05599773604495014
1060000000.0 0.14564736912365506 0.0640180785954481
1080000000.0 -0.1305260717662378 0.12878311148254074
1100000000.0 0.06456302208476038 -0.1966223744190806
1120000000.0 0.22848873636079287 0.01654800924894635
1140000000.0 -0.23946745112784318 0.08321713137070356
1160000000.0 -0.24874115703108732 -0.12700739283035603
1180000000.0 -0.0044830552324536576 -0.311024919931778
1200000000.0 0.3064603240419739 0.16528653519351155
1220000000.0 -0.34066552372525366 -0.16278384337533727
1240000000.0 0.36497808979722485 -0.16038848867914202
1260000000.0 -0.40783324486717665 -0.028604841691110727
1280000000.0 -0.35795748394616295 0.22565868281508036
1300000000.0 0.3835682972977249 0.1933594918122583
1320000000.0 0.4140670085142014 0.11413372746992513
1340000000.0 0.03092249915468465 0.43549871396241063
1360000000.0 0.33979729929844854 0.2882304124393068
1380000000.0 0.05941228664365916 -0.43446208235104466
1400000000.0 -0.26350352085550616 -0.33771254069110546
1420000000.0 0.16849193407189386 0.37086775055574617
1440000000.0 0.22395005485945785 -0.3014476577939331
1460000000.0 0.1461432376325973 -0.30935343798876624
1480000000.0 -0.26205506349152347 -0.17199915220745404
1500000000.0 -0.06061552064422013 0.27653448081701826
1520000000.0 -0.15457826386513507 0.19890251761428657
1540000000.0 0.11791859538934234 0.19175041792351175
1560000000.0 -0.08958662984239558 0.17462831241167948
1580000000.0 -0.15294039786442454 0.08350604029739359
1600000000.0 0.08265745304418408 0.11193366488145245
1620000000.0 0.05021343796807052 -0.08747904303814687
1640000000.0 -0.07708426625334658 0.0034541133205036093
1660000000.0 -0.037029559713012826 0.051089084422895954
1680000000.0 0.018449495939496675 0.037888855326834725
1700000000.0 0.0025461842191104363 -0.021955664679627958
1720000000.0 -0.0051440752115053 -0.006517095271022835
1740000000.0 -0.0044233700449612156 0.011042159283994641
1760000000.0 0.018612908131294875 0.020427522799135758
1780000000.0 0.050722935104655496 0.014834556597435657
1800000000.0 0.029602722054302352 0.08968393898115871
1820000000.0 0.06306915024180716 -0.10805535277451817
1840000000.0 -0.06405871946883226 0.1476737013169128
1860000000.0 -0.09155103519832522 0.17747633350191208
1880000000.0 0.18839396751685578 0.14452252590038203
1900000000.0 0.02436948334042378 -0.2788929854477923
1920000000.0 0.2612052055274124 -0.1877572135251656
1940000000.0 -0.3314446293162111 -0.09373360792518699
1960000000.0 -0.31575990615438737 0.18992975792195355
1980000000.0 0.39500551996430294 -0.05222656988539303
2000000000.0 -0.07198063512125338 -0.41115445316612353
2020000000.0 -0.2806057333798049 -0.3208272312274345
2040000000.0 -0.10843086057443278 0.4197993568495315
2060000000.0 0.09511292846687229 0.4248062094866178
2080000000.0 0.30990279651873276 0.30383567040820114
2100000000.0 -0.015645539024520077 -0.42743332789331356
2120000000.0 -0.1388853678129748 -0.390660620220431
2140000000.0 0.014896009288075922 -0.396772098526464
2160000000.0 0.2967348555284842 -0.2409407394535815
2180000000.0 0.34832902017790723 -0.1268656374822146
2200000000.0 0.30972209745366514 -0.1843729783945211
2220000000.0 -0.30218106208750445 -0.1777603603213334
2240000000.0 -0.2523701958335218 -0.23693946493120177
2260000000.0 -0.33342579937623584 -0.09048412852131815
2280000000.0 0.1876692236854469 0.29243464713274286
2300000000.0 0.18215976778194953 0.30394280686702724
2320000000.0 0.16967228362926198 0.3354586617157651
2340000000.0 -0.022516234533977775 -0.40864973446130975
2360000000.0 -0.40734939638037265 -0.18766415777271803
2380000000.0 0.09385183099788527 0.4895599340935298
2400000000.0 -0.5119225673889038 0.22165579426952997
2420000000.0 0.5635422956471153 -0.23162990832922883
2440000000.0 -0.5851045820494261 0.2958205777613238
2460000000.0 -0.6475216913267752 -0.2646615839484884
2480000000.0 0.640994365222524 0.3523228804422959
2500000000.0 -0.39790871434630554 -0.6390041072552147
2520000000.0 0.7389008289908122 -0.20359167850291646
2540000000.0 -0.5548946509755388 -0.5344784020560402
2560000000.0 -0.4021103379484073 0.6539770953335415
2580000000.0 -0.04662715837389492 -0.7524051261820803
2600000000.0 -0.7317471512820715 0.04483491286211707
2620000000.0 0.10282719217032367 0.6998447294738744
2640000000.0 0.4514220129957022 -0.4955439286927363
2660000000.0 -0.5333784521923716 -0.33579461627253393
2680000000.0 -0.08673515676011578 0.5782598453441872
2700000000.0 -0.33036083227720037 -0.41681636740298406
2720000000.0 -0.12123878336451385 0.46834184731969414
2740000000.0 0.4345918286718097 -0.017954087234039996
2760000000.0 -0.37471254540522914 0.11712554207555491
2780000000.0 0.3281490910437603 0.15279675948210317
2800000000.0 -0.23583052811252206 -0.24130242995549642
2820000000.0 0.11614009545869347 -0.29433721716776085
2840000000.0 0.07938133859765018 0.29727558965775663
2860000000.0 -0.2759885637158746 -0.11444305650749204
2880000000.0 -0.02875049988347728 -0.29138896570426287
2900000000.0 -0.2879140434593024 0.04092907716616553
2920000000.0 -0.18973069223751768 0.2280617230082881
2940000000.0 0.14505984407010117 -0.2725616232160916
2960000000.0 -0.1353368094897742 -0.2868707664006177
2980000000.0 -0.2705701738393187 -0.16881184277920114
3000000000.0 -0.3173373602393508 -0.03097516181920517
3020000000.0 0.2644462911519814 0.1835002315512127
3040000000.0 0.30804974076033265 0.09160749692158734
3060000000.0 0.21712714574792488 0.22660844456021045
3080000000.0 0.2376353305210317 -0.1884493987125422
3100000000.0 -0.10813241596907343 0.27281634534079424
3120000000.0 -0.09506822263028578 -0.2692950833192663
3140000000.0 -0.2754759067745282 0.0022132949292790463
3160000000.0 0.1799532867474311 -0.19347437287542743
3180000000.0 -0.22749723091549334 0.10260171649258513
3200000000.0 0.23222350911402073 -0.0348533655255222
3220000000.0 0.07991022486602888 -0.19424087642232987
3240000000.0 -0.12799201553786874 -0.12219448099840405
3260000000.0 0.07124740161253847 -0.12693719686643085
3280000000.0 0.09963266670574117 0.012790645220367242
3300000000.0 0.002321784759739836 -0.06605459840982869
3320000000.0 0.017927150107999414 0.035467924398075244
3340000000.0 0.009642534527432994 -0.020253786746045572
3360000000.0 0.009472595657040776 0.0062136096939251605
3380000000.0 -0.0003096319008272645 0.0013228395331386091
3400000000.0 0.010597063392440317 0.011537241571914015
3420000000.0 0.03572941203719266 0.0034319539168688475
3440000000.0 -0.0038440061363305125 0.05103405807060598
3460000000.0 0.02995737965295335 -0.05782907040112582
3480000000.0 0.062124887529924976 0.04452831405031276
3500000000.0 0.08345927965495314 -0.02092024433095466
3520000000.0 0.045142960097142304 0.08843545076776037
3540000000.0 -0.05926548241335213 -0.09604139426612267
3560000000.0 -0.03656057383604183 0.11300232350822749
3580000000.0 0.13364819543280662 0.011073664588753612
3600000000.0 0.10726198484485329 0.11143796676315741
3620000000.0 -0.07441569311688165 -0.1465678163117744
3640000000.0 -0.16726699443250953 -0.0661946666470418
3660000000.0 -0.18157261794294977 -0.05150997874311625
3680000000.0 0.05372305194731992 -0.18262050637934513
3700000000.0 -0.046806234895905 -0.1853013563591567
3720000000.0 0.10954215256251174 -0.15556740712406442
3740000000.0 0.11343359181009996 0.14435839797287628
3760000000.0 0.008611169797235255 -0.17989595508308542
3780000000.0 0.12110278984328153 0.12600098601069268
3800000000.0 -0.10240499768276466 -0.1315498802944514
3820000000.0 -0.10608212883075899 0.11376496981104528
3840000000.0 -0.13788311091377237 -0.046171854830497815
3860000000.0 0.03571501783682286 -0.13801491611068384
3880000000.0 0.12311499636746956 0.07692211725756178
3900000000.0 0.012527537698984959 0.15034339060591786
3920000000.0 0.13904606971386496 0.06940350565069216
3940000000.0 -0.12946015323057786 0.10469057083237766
3960000000.0 -0.12380654491371067 0.12015346031392705
3980000000.0 -0.0247635506899083 0.16839953401925128
4000000000.0 0.16280693229561313 0.0033954105585511135
