!Created with skrf (http://scikit-rf.org).
# Hz S RI R 50.0 
!freq ReS11 ImS11
400000000.0 0.5580325891778819 0.6671308938274001
420000000.0 0.835463659213312 -0.11996528375986971
440000000.0 0.7626419887912528 -0.2272467284957468
460000000.0 0.7035178125744103 0.23532878775041366
480000000.0 0.02488885125933823 -0.6850684564448289
500000000.0 -0.06080220686986332 0.5997550905779533
520000000.0 0.06915142641832044 0.5053537695485776
540000000.0 -0.30842140028806475 -0.30869935268925935
560000000.0 0.01806662131410274 0.39669002208875936
580000000.0 -0.33765239786940165 -0.12149114128434695
600000000.0 0.34088369202764474 0.08262829513052994
620000000.0 0.18805464045440076 -0.29911753622069603
640000000.0 0.36053623989313216 0.20654099817703664
660000000.0 0.2901623397735973 0.30545526291237085
680000000.0 -0.43903934589808474 -0.10123075158869697
700000000.0 0.4539211698620332 0.06600223352011289
720000000.0 -0.2815918497789456 0.36173985283228516
740000000.0 -0.31371240949852097 0.27999045593209193
760000000.0 -0.1014286361100497 -0.39147683763485325
780000000.0 -0.36365550646721073 -0.10564312655885015
800000000.0 -0.31724778630412187 -0.1108319778983017
820000000.0 -0.16078319943399821 0.23178895168848854
840000000.0 -0.11288488144668331 -0.18175648969812008
860000000.0 -0.17725379471075733 -0.010464004661051175
880000000.0 -0.00701633192967893 0.14680454587857023
900000000.0 -0.0956133633280797 0.020488473604243232
920000000.0 -0.050481954260543124 -0.02165537771557411
940000000.0 -0.03092394704926033 -0.015458674932482814
960000000.0 -0.031895350401613815 0.021425193413291892
980000000.0 0.001038622690373182 0.05963263223904855
1000000000.0 0.019206611138079536 -0.09484442778224433
1020000000.0 0.05379265346518686 -0.10653008874167456
1040000000.0 -0.1258287785836548 0.04223772309799776
1060000000.0 0.12420319359941989 0.09898554662597167
1080000000.0 -0.12768123945480653 0.13129644451227726
1100000000.0 0.06200638983341922 -0.1974300939327695
1120000000.0 0.22845832603391614 0.011176408417830427
1140000000.0 -0.24177496673863683 0.07510552481128363
1160000000.0 -0.2421933160963894 -0.1380911467065573
1180000000.0 -0.018939700019018606 -0.31006484282636554
1200000000.0 0.3107835471922638 0.1571118008857252
1220000000.0 -0.34542282144806635 -0.15229694222661186
1240000000.0 0.3584211518774939 -0.17464204412243303
1260000000.0 -0.40885098919303015 -0.01559671678391928
1280000000.0 -0.33828675798139474 0.2546772089606766
1300000000.0 0.3980308002619733 0.16118653985815334
1320000000.0 0.41612361608883935 0.10637763862563561
1340000000.0 0.057974800283261595 0.43258313990052516
1360000000.0 0.34947943510106216 0.2766821676085529
1380000000.0 0.052963580763806084 -0.4355685123345212
1400000000.0 -0.2778044737211903 -0.32615780150777224
1420000000.0 0.16090273187303147 0.37387890408201535
1440000000.0 0.24034032251693055 -0.28822006850927334
1460000000.0 0.18303427939836056 -0.28889665389252833
1480000000.0 -0.22237608824204153 -0.22124576000976323
1500000000.0 -0.08581287796689475 0.26946974787771594
1520000000.0 -0.1713334963976979 0.18398375650146973
1540000000.0 0.1268795665367657 0.1851667312753102
1560000000.0 -0.07493931561136699 0.18068831861539214
1580000000.0 -0.15407144348204996 0.08090736211145001
1600000000.0 0.0731775274615715 0.11867112764984851
1620000000.0 0.03073021036375849 -0.09643080217280779
1640000000.0 -0.06901649402687746 0.03479608301141741
1660000000.0 0.027869747961042916 0.05741056652910097
1680000000.0 0.012353537369716913 0.0406037393500173
1700000000.0 0.022450850185904748 -0.001065075320161822
1720000000.0 0.004633452340856362 -0.007876731356523852
1740000000.0 0.009771823820362329 0.006774708637769525
1760000000.0 0.02695875643923529 -0.006546997283998942
1780000000.0 0.052867551200937904 -0.006233821120787694
1800000000.0 0.05788571056603766 0.07492421730902149
1820000000.0 0.051905027626929015 -0.11446639940935609
1840000000.0 -0.03858638480154591 0.15703377510573605
1860000000.0 -0.09895382416083827 0.174647121544261
1880000000.0 0.18461236474411485 0.1509067262501446
1900000000.0 0.03565560058841641 -0.278214636655027
1920000000.0 0.27331967191094053 -0.17010960639011927
1940000000.0 -0.3275675894801318 -0.10555829821620885
1960000000.0 -0.3277518814276244 0.1682223465333702
1980000000.0 0.3975668294139678 -0.02232698603009613
2000000000.0 -0.03879725633815984 -0.41525905590290674
2020000000.0 -0.26272120948255845 -0.33480601040167385
2040000000.0 -0.06993265490383377 0.4269339310967724
2060000000.0 0.08277483101500635 0.4271843592567927
2080000000.0 0.28489848121814726 0.32672139608119083
2100000000.0 -0.015721218968862284 -0.4268709146502452
2120000000.0 -0.1431426163741151 -0.38912454124577117
2140000000.0 0.02605392215740929 -0.3956480220036727
2160000000.0 0.281377657956059 -0.2583168931181269
2180000000.0 0.3313811292427533 -0.16661899053911275
2200000000.0 0.308811134723133 -0.18763188802740016
2220000000.0 -0.30713529691019337 -0.17137049706856053
2240000000.0 -0.24882672499600866 -0.24135855003948614
2260000000.0 -0.3371712239781357 -0.074336484811214
2280000000.0 0.1902543575472611 0.2907657185681081
2300000000.0 0.20046046150790495 0.29178098322758717
2320000000.0 0.1887601632380097 0.3248428184630343
2340000000.0 -0.032330471825394336 -0.4080683953587753
2360000000.0 -0.40690998750561963 -0.18828758758169428
2380000000.0 0.06538134769810472 0.4935107021216087
2400000000.0 -0.5107301567792629 0.22299686418069498
2420000000.0 0.5449841938483323 -0.2721513120346634
2440000000.0 -0.5546091870771757 0.349683711952455
2460000000.0 -0.6488544285019591 -0.2622958258986891
2480000000.0 0.6399353964446806 0.35457951473867433
2500000000.0 -0.3634838770970154 -0.6596882317122436
2520000000.0 0.734740730965338 -0.21954574963801526
2540000000.0 -0.5487479043996983 -0.541309793846227
2560000000.0 -0.4091372614692258 0.6503136577066707
2580000000.0 0.01821476490876108 -0.7541468050136835
2600000000.0 -0.7331716341668328 0.0019999061659784116
2620000000.0 0.033394269997796065 0.7068087614662533
2640000000.0 0.4741080464889512 -0.4735005685078292
2660000000.0 -0.535328682011042 -0.3315433459476605
2680000000.0 -0.08607517457377352 0.5769063240017641
2700000000.0 -0.3840948874946857 -0.3665314002994956
2720000000.0 -0.11232914026318447 0.469768536256571
2740000000.0 0.42707173478319577 -0.07853150252032971
2760000000.0 -0.3678972263646476 0.13518914074655033
2780000000.0 0.34693203543699946 0.10178520944296623
2800000000.0 -0.2564048672400195 -0.21956103508393104
2820000000.0 0.09270242487351497 -0.303043657071141
2840000000.0 0.0723830221743446 0.2994103860238983
2860000000.0 -0.2505159559672017 -0.163765915482926
2880000000.0 -0.012473703505740907 -0.29217618876054463
2900000000.0 -0.29009101177123153 0.013174710837543247
2920000000.0 -0.2102951144867506 0.2096368148978079
2940000000.0 0.18839163578362908 -0.2445948991642717
2960000000.0 -0.087829505269007 -0.30431654771216365
2980000000.0 -0.24900057212463161 -0.19739608844215606
3000000000.0 -0.31787713888398 0.016675665530684173
3020000000.0 0.2761630270291592 0.16471208003155016
3040000000.0 0.3109552333122827 0.07666934211752227
3060000000.0 0.22567712181316674 0.2167212626366188
3080000000.0 0.2149201316283415 -0.21209646873172053
3100000000.0 -0.07470352233866297 0.2825533957640434
3120000000.0 -0.153825494973596 -0.24015444264677363
3140000000.0 -0.26745789395262665 0.0653122955193785
3160000000.0 0.14185300822782457 -0.22276379701953444
3180000000.0 -0.22270419340365386 0.11328168334433139
3200000000.0 0.2298131352802709 -0.050833178433417524
3220000000.0 0.07632579685054047 -0.1959401695614684
3240000000.0 -0.11783772663136384 -0.13258055323998325
3260000000.0 0.0556346488995069 -0.13523432254124051
3280000000.0 0.1000205834181578 -0.014236622055821383
3300000000.0 -0.009078782013009181 -0.06631091881310126
3320000000.0 -0.015039032802855594 0.03707362936936458
3340000000.0 0.019001891328506777 -0.012478391102714603
3360000000.0 0.010932049594569814 -0.0035034769019500036
3380000000.0 -0.0002615894766541083 -0.0014683010905164092
3400000000.0 -0.008253071127233957 0.013250007394736502
3420000000.0 0.03187856846306048 0.015788738883377146
3440000000.0 0.04489568754076605 0.023910138095202906
3460000000.0 -0.004086464438708806 -0.0651609907615637
3480000000.0 0.06839048549329493 -0.033693024243410925
3500000000.0 0.015876695775731656 -0.08479541884521685
3520000000.0 0.06396312190080032 0.07655571791253385
3540000000.0 -0.07077556505112025 -0.08909983063105935
3560000000.0 -0.039005974309245385 0.11347988634608398
3580000000.0 0.13435805281527288 -0.012647646881651872
3600000000.0 0.09017306096955315 0.1262779986584799
3620000000.0 -0.08343384455874905 -0.1413845426064425
3640000000.0 -0.17872874032588157 -0.029186855252591622
3660000000.0 -0.1827915921108735 -0.04924806902885994
3680000000.0 0.04715919677509013 -0.18608169078214343
3700000000.0 -0.04114589347371228 -0.18851051145185754
3720000000.0 0.112994907136842 -0.154070396224828
3740000000.0 0.10957533485150787 0.14830854882470604
3760000000.0 0.032917786730275976 -0.17786260046722965
3780000000.0 0.07491259876839501 0.15850807953084484
3800000000.0 -0.04799665860847842 -0.16015951631913963
3820000000.0 -0.12919761556530782 0.08723591795755595
3840000000.0 -0.08334042911068558 -0.1199713221625827
3860000000.0 0.09813696679261316 -0.10370860031043388
3880000000.0 0.09125965802247708 0.11338415166359864
3900000000.0 -0.04882460633023574 0.14316677169587294
3920000000.0 0.1314709545209003 0.08366376590986506
3940000000.0 -0.1314694118616951 0.10236827595421619
3960000000.0 -0.09641985420702329 0.14315371504314295
3980000000.0 -0.04336948704014408 0.16484534601310752
4000000000.0 0.16200206335143946 0.021225090078159294
