!Created with skrf (http://scikit-rf.org).
# Hz S RI R 50.0 
!freq ReS11 ImS11
400000000.0 0.5957792255060578 0.6356408500979381
420000000.0 0.8322541264038237 -0.13996344168531022
440000000.0 0.7637137496336064 -0.22576679799828817
460000000.0 0.6906000779447201 0.2724778626286653
480000000.0 -0.0009566511262249746 -0.6850535724902485
500000000.0 -0.086625634347997 0.5965276789133813
520000000.0 0.07181230578128718 0.5053448580918318
540000000.0 -0.3063429457996646 -0.3113829535258366
560000000.0 0.044914299413482614 0.39481329471103177
580000000.0 -0.34510692460525094 -0.09712938596413816
600000000.0 0.3477132417380379 0.044048419824009484
620000000.0 0.17987411120412156 -0.30420999663038045
640000000.0 0.3550807724735045 0.21537214341506727
660000000.0 0.2664185584819222 0.32593671758974896
680000000.0 -0.44776760439945246 -0.04335613575591835
700000000.0 0.45601573482090685 0.04537434118317962
720000000.0 -0.27811577730100395 0.3640505456944967
740000000.0 -0.2958946931001632 0.2967195807437104
760000000.0 -0.12163713750146239 -0.38525891092974873
780000000.0 -0.36797118446482446 -0.0885621600772027
800000000.0 -0.3204586545901117 -0.10152170675713923
820000000.0 -0.15627897409061448 0.23469351833516935
840000000.0 -0.06334199231000476 -0.20361586439889587
860000000.0 -0.16920167659285115 -0.05158333546554864
880000000.0 -0.029915087633587405 0.1436927437684269
900000000.0 -0.09771616997067512 -0.0017601870365475327
920000000.0 -0.02790115562015707 -0.04690651385156424
940000000.0 -0.0052103728464911936 -0.03383418943177272
960000000.0 -0.013412788440731082 0.03522869330465411
980000000.0 0.04673905050100964 0.03678731543660222
1000000000.0 -0.0036232181410536172 -0.09622674031676218
1020000000.0 0.05958872932931372 -0.10258959521910051
1040000000.0 -0.12723351712686803 0.034933242362884476
1060000000.0 0.12724388100399361 0.09440591050944018
1080000000.0 -0.14004586047596645 0.11778158707107166
1100000000.0 0.08930194280171784 -0.18653052537365994
1120000000.0 0.2256001598364618 0.03705456383478341
1140000000.0 -0.2476566665473701 0.05209602906662787
1160000000.0 -0.24010834530765116 -0.14196730101653307
1180000000.0 0.0060232811519074555 -0.310751919934442
1200000000.0 0.29605783112949763 0.1833935739778451
1220000000.0 -0.33090736292566847 -0.18209394128462042
1240000000.0 0.37207452538221913 -0.1440210585928678
1260000000.0 -0.40792956651655077 -0.030610715234881698
1280000000.0 -0.34642310465552245 0.24199757314945997
1300000000.0 0.39773581117869833 0.16060103237718407
1320000000.0 0.4121321432573335 0.11909896788565763
1340000000.0 0.04368653303022414 0.43412074775425613
1360000000.0 0.3494071492192235 0.2769972008001668
1380000000.0 0.03736049314757312 -0.43747719000625335
1400000000.0 -0.27715820899876975 -0.32733352998121445
1420000000.0 0.14946616555338632 0.37929989912876827
1440000000.0 0.25214568031687323 -0.2784977150397945
1460000000.0 0.2081162946622023 -0.2721260016914112
1480000000.0 -0.17672255778622734 -0.25944357408479013
1500000000.0 -0.12287498661214026 0.25550935553247234
1520000000.0 -0.20747004599300312 0.14417856605903476
1540000000.0 0.10815252228441953 0.1972097029395357
1560000000.0 -0.11604139266617888 0.15757263261825283
1580000000.0 -0.17296258121357216 0.01500676389537505
1600000000.0 0.039668261202200586 0.1332133771358173
1620000000.0 0.0412810882122301 -0.09213332259503931
1640000000.0 -0.07282848290611597 0.02470323234667842
1660000000.0 0.028644650533490856 0.05558464294324326
1680000000.0 0.037437198487663026 0.018853826508288537
1700000000.0 -0.0027909524210024345 -0.021151640658913784
1720000000.0 -0.004535780008987212 0.006660317734526345
1740000000.0 -0.008635892333048508 -0.007287766417647809
1760000000.0 0.025936223513978618 0.007988669274900053
1780000000.0 0.046375077549896865 -0.024409034700001213
1800000000.0 0.07234687563267746 0.06011751804909883
1820000000.0 0.025066111059113848 -0.12228281417266755
1840000000.0 -0.04266353825401245 0.15549991409356514
1860000000.0 -0.07798913427995126 0.18444960126333498
1880000000.0 0.1888115788854189 0.14451942402213153
1900000000.0 0.013025782628343578 -0.2798098111344897
1920000000.0 0.2589778289711611 -0.1908786204207101
1940000000.0 -0.32524230520430886 -0.11243315470321569
1960000000.0 -0.32494574592221226 0.17326969204364082
1980000000.0 0.39788063953316455 -0.010686780952789944
2000000000.0 -0.04068843698971365 -0.4149143184977592
2020000000.0 -0.267133187246583 -0.3314235807012802
2040000000.0 -0.0874322909684694 0.4239491421172198
2060000000.0 0.11533612216681466 0.4198589044157727
2080000000.0 0.3091809367864196 0.30469671289289596
2100000000.0 0.004763430761470253 -0.4277377290912705
2120000000.0 -0.17073299231128602 -0.3782680608013597
2140000000.0 0.0015107622241283978 -0.3976644679895271
2160000000.0 0.28649387612048427 -0.25422233493987
2180000000.0 0.33845156854499303 -0.15392693063583227
2200000000.0 0.307591545865295 -0.19129088189852295
2220000000.0 -0.29159579794136214 -0.19822389497649343
2240000000.0 -0.23871069590538613 -0.25199653547686607
2260000000.0 -0.3324808071900145 -0.09639599575442212
2280000000.0 0.14460188455880715 0.3169131835575778
2300000000.0 0.1661888063276883 0.3139617833015524
2320000000.0 0.1323295680902865 0.3532185179646551
2340000000.0 0.058780993478144486 -0.4058398827961993
2360000000.0 -0.37473219919369327 -0.2470495322279238
2380000000.0 0.030015121262208323 0.49806757761413656
2400000000.0 -0.5268572996599862 0.1844369318216051
2420000000.0 0.5778211634468366 -0.19345185442348342
2440000000.0 -0.581085461119585 0.3034916303028319
2460000000.0 -0.6360507220482522 -0.2906654420360783
2480000000.0 0.6285997177930086 0.3729560093173475
2500000000.0 -0.37861618039401684 -0.6504256184860356
2520000000.0 0.7186434526411501 -0.26677900231114765
2540000000.0 -0.5836959294888997 -0.5028736844465773
2560000000.0 -0.3416825831940571 0.687217116547144
2580000000.0 -0.07149460696943566 -0.750498700134418
2600000000.0 -0.7273324128109032 0.09633128634630903
2620000000.0 0.1439801049905366 0.6934297829030311
2640000000.0 0.44258154039167297 -0.5048691730548401
2660000000.0 -0.5580604635967898 -0.2959971788463829
2680000000.0 -0.03825410818688954 0.584490923119731
2700000000.0 -0.32464630925908045 -0.42240269603355396
2720000000.0 -0.17915742937039597 0.450189618899909
2740000000.0 0.4359933823377858 0.0005157210748964493
2760000000.0 -0.3850492561401215 0.08220157793156922
2780000000.0 0.31232605188753354 0.18540361230865585
2800000000.0 -0.1939453618880702 -0.2777277036181703
2820000000.0 0.18405013306199644 -0.25867332502652624
2840000000.0 -0.016391712516660276 0.307464930557321
2860000000.0 -0.23438264530780412 -0.18527400435389
2880000000.0 0.027617070181216424 -0.29084380564104656
2900000000.0 -0.2889300492410712 -0.02734823840173563
2920000000.0 -0.22806879168990002 0.1897030275366927
2940000000.0 0.19597782406227732 -0.23764745911318355
2960000000.0 -0.1763592250711157 -0.2623296339138372
2980000000.0 -0.2781023507131825 -0.153419351497136
3000000000.0 -0.31670419284632384 -0.032498772326824334
3020000000.0 0.2777294270433084 0.16024058780072334
3040000000.0 0.30524244682296153 0.09462681979638274
3060000000.0 0.2579495057174314 0.1760612194451651
3080000000.0 0.22750644027159758 -0.1998025892367139
3100000000.0 -0.07691323490534324 0.2827981055016899
3120000000.0 -0.15879940571844825 -0.2373704843680264
3140000000.0 -0.2652138762875455 0.07620078166541507
3160000000.0 0.07656157416297059 -0.25292037937700595
3180000000.0 -0.16148440997838404 0.19095790339269783
3200000000.0 0.1899268881477145 -0.13969007488485397
3220000000.0 0.0013103934944050572 -0.21117685496069938
3240000000.0 -0.14850676306674324 -0.09947803688612618
3260000000.0 0.03348548783942292 -0.1434470328372457
3280000000.0 0.09898467559014504 0.02491270740302231
3300000000.0 -0.0009119476680521996 -0.06720098635336028
3320000000.0 0.02479295022365854 0.032047508247252755
3340000000.0 -0.014675796354921977 -0.01807693988022032
3360000000.0 -0.008272229598762762 -0.010011714260859141
3380000000.0 -0.001965815132304493 0.0017411302307946128
3400000000.0 -0.005602545160863312 0.013508704729617923
3420000000.0 0.03380684998184794 0.008881401356903913
3440000000.0 0.019296908189401822 0.045854189722075944
3460000000.0 -0.014747643387710186 -0.06325849570011635
3480000000.0 0.075536438512949 0.007147817078809424
3500000000.0 0.06524966525184468 -0.055729441179372896
3520000000.0 0.024516987995308524 0.09553595295885824
3540000000.0 -0.057385615882863096 -0.09711457434079439
3560000000.0 -0.016922718874366388 0.11754394452102385
3580000000.0 0.13242735821811574 -0.021432959763839035
3600000000.0 0.10075511514560684 0.11726086435192426
3620000000.0 -0.0938246663590987 -0.13458503497225893
3640000000.0 -0.17697098041494724 -0.035598964306797806
3660000000.0 -0.18091444574544102 -0.05170546304832869
3680000000.0 0.04687144557378201 -0.18477695490001944
3700000000.0 -0.05810149035124447 -0.18289618656296971
3720000000.0 0.11120954577092457 -0.1547855148298398
3740000000.0 0.13517406953249497 0.12467714864291711
3760000000.0 -0.006365706835315397 -0.1802516418287711
3780000000.0 0.08928359813879574 0.15062302219110407
3800000000.0 -0.05117040102736773 -0.1591121932697492
3820000000.0 -0.13464320103384164 0.07739828359333603
3840000000.0 -0.11156618630790517 -0.09274734788545792
3860000000.0 0.09750375783966472 -0.10359249797054156
3880000000.0 0.11093254881271496 0.09374421812053134
3900000000.0 -0.01940291114832795 0.14926113666294658
3920000000.0 0.14409836802830608 0.0579906847099232
3940000000.0 -0.12472830715046894 0.11044463688031605
3960000000.0 -0.11483241754489924 0.12970050691657214
3980000000.0 -0.07002730958320941 0.15555717549134374
4000000000.0 0.15965816143868994 0.036111209074779306
