!Created with skrf (http://scikit-rf.org).
# Hz S RI R 50.0 
!freq ReS11 ImS11
400000000.0 0.5512565133424233 0.6724344443956268
420000000.0 0.8367827212730913 -0.11299700335117394
440000000.0 0.7597817250606537 -0.23649815460387585
460000000.0 0.6989774934664766 0.2483869476931251
480000000.0 0.026655763733694837 -0.685091938686753
500000000.0 -0.05780075080930708 0.5998581600832086
520000000.0 0.07212945184501092 0.5049721802808443
540000000.0 -0.30769760840120713 -0.30937074936684006
560000000.0 0.018150638747457065 0.3966690399292894
580000000.0 -0.3387556057191361 -0.11846064491216887
600000000.0 0.34441838435943845 0.06600237278142765
620000000.0 0.1859788436126658 -0.3005341798088922
640000000.0 0.3653744626879603 0.1980848175770147
660000000.0 0.2839899027079331 0.31149573147052384
680000000.0 -0.4413996704957035 -0.09002195695634793
700000000.0 0.4527768378985725 0.07331352816372792
720000000.0 -0.2930192681522963 0.35261298312919503
740000000.0 -0.2952098918639796 0.298114568503377
760000000.0 -0.08916981217961444 -0.39452583178387385
780000000.0 -0.36730790958645365 -0.09163505130712254
800000000.0 -0.3200421831596998 -0.10247277549785355
820000000.0 -0.14461563003830485 0.24221963104744046
840000000.0 -0.11458311517638876 -0.18069843932093646
860000000.0 -0.1771947760462077 -0.010295008085100409
880000000.0 -0.0053527758531737935 0.14677213167805986
900000000.0 -0.09616918781854643 0.01799702433811015
920000000.0 -0.05215786569906136 -0.017491168334156176
940000000.0 -0.033086344487352454 -0.010308326427809747
960000000.0 -0.03158071424365841 0.021761532746611103
980000000.0 0.015767770776526534 0.05770495326157389
1000000000.0 0.015543936849233239 -0.09543520304798297
1020000000.0 0.04516645387066125 -0.11023440377332913
1040000000.0 -0.12330679597094883 0.04906418217444876
1060000000.0 0.12675704847505728 0.09584083942465199
1080000000.0 -0.1264986663575496 0.13266476196822696
1100000000.0 0.0655049779986485 -0.19644176514703837
1120000000.0 0.22818523355163123 0.017674361282256523
1140000000.0 -0.24444755067172177 0.06652107377707606
1160000000.0 -0.24465731155132373 -0.13453468534590282
1180000000.0 -0.005591441024914048 -0.3106603402503635
1200000000.0 0.3056366093469198 0.16694168789266023
1220000000.0 -0.34163353209065467 -0.16074193920836505
1240000000.0 0.365776192120065 -0.1582387454210928
1260000000.0 -0.40877530847765503 -0.017773848390043607
1280000000.0 -0.33919404298078176 0.25348534569912917
1300000000.0 0.40252812498140417 0.14972973850165808
1320000000.0 0.4188217192171462 0.09513056367329215
1340000000.0 0.05237603590029635 0.4333345643583629
1360000000.0 0.3568685197082784 0.2673609719038512
1380000000.0 0.038573629179142914 -0.43720690491930503
1400000000.0 -0.28247515635995485 -0.32242898177553975
1420000000.0 0.17019944566306863 0.3699443895572511
1440000000.0 0.24169609468232647 -0.28741168877599477
1460000000.0 0.1853934923017643 -0.28766556521700243
1480000000.0 -0.2423006563532199 -0.19971144764811158
1500000000.0 -0.08147467530204953 0.2710945301013318
1520000000.0 -0.1700476042084563 0.1855547957663864
1540000000.0 0.12493206711615201 0.1867573525686717
1560000000.0 -0.0877611577327309 0.17492492977892488
1580000000.0 -0.15974078297100713 0.0691767863685153
1600000000.0 0.0643116988375965 0.12362238408555684
1620000000.0 0.031128615369186523 -0.09642970145857527
1640000000.0 -0.07310066588728756 0.025019174731616446
1660000000.0 0.011962412413883959 0.06229739601672934
1680000000.0 0.011483188153565263 0.04072944492114854
1700000000.0 0.01292249776916449 -0.018298549278526473
1720000000.0 0.007825200565621833 -0.0040994320618662275
1740000000.0 0.0034002390983175743 0.011598657235639732
1760000000.0 0.028077612941224447 -9.926607247249748e-05
1780000000.0 0.05321313079439922 0.0016440611422918559
1800000000.0 0.04551012427564694 0.08284281431392691
1820000000.0 0.06311202446455837 -0.10877277350446155
1840000000.0 -0.06001332186528863 0.14990502393649077
1860000000.0 -0.10305624193041273 0.17235778003491262
1880000000.0 0.17808159859787862 0.15807636670054345
1900000000.0 0.043325017808384 -0.2770940418252445
1920000000.0 0.2740939364095787 -0.16826826231320327
1940000000.0 -0.32877907714223265 -0.1011621393314126
1960000000.0 -0.3231185717216399 0.17674271295060706
1980000000.0 0.39792527355251 -0.015715720569900192
2000000000.0 -0.04073890786416924 -0.41521989444115825
2020000000.0 -0.28582331155810964 -0.3152913829882888
2040000000.0 -0.07270783731372098 0.426770604281918
2060000000.0 0.10735870899023456 0.42185024880357636
2080000000.0 0.3075597919950338 0.30603207446830993
2100000000.0 0.008052565124818247 -0.42750645434483464
2120000000.0 -0.13456561870079115 -0.39252228925661115
2140000000.0 0.04294890387341866 -0.3947420537264949
2160000000.0 0.2910726339939849 -0.24811720684733926
2180000000.0 0.3399556392874114 -0.14952340367545258
2200000000.0 0.32017949536326906 -0.168102771754533
2220000000.0 -0.3083401022088909 -0.169172516511295
2240000000.0 -0.23919662138298828 -0.25086777355422235
2260000000.0 -0.3316690913371842 -0.09680039020431734
2280000000.0 0.169338022310653 0.3036658607506003
2300000000.0 0.18427759065444968 0.30224800907473204
2320000000.0 0.17217295386770876 0.3340936123385835
2340000000.0 -0.005293096799166095 -0.40914851730665247
2360000000.0 -0.3974210188462702 -0.20736748301587046
2380000000.0 0.06556645338728623 0.49367027191444823
2400000000.0 -0.5075350913111417 0.22944570892693145
2420000000.0 0.5567029926282584 -0.24702568920786472
2440000000.0 -0.5596580951563352 0.34154167594368606
2460000000.0 -0.6534425339968634 -0.24996379849970812
2480000000.0 0.6224040971153696 0.38530221917558977
2500000000.0 -0.35205885487317407 -0.6659499916558317
2520000000.0 0.7252496341498047 -0.24915593432463295
2540000000.0 -0.5438393639987754 -0.5465763769131973
2560000000.0 -0.3990507589776902 0.6568860414573457
2580000000.0 0.03339024258880832 -0.7540301732374125
2600000000.0 -0.7334289121003382 -0.012196560073761385
2620000000.0 0.01391900668589317 0.7079917654010507
2640000000.0 0.4625907542473908 -0.485439879506837
2660000000.0 -0.5212679866638235 -0.354036294128221
2680000000.0 -0.1051208606974993 0.5742095075321187
2700000000.0 -0.3598739159815797 -0.39077910033186253
2720000000.0 -0.12065311041663185 0.46791181392407794
2740000000.0 0.43340297961072366 -0.029413223751421545
2760000000.0 -0.3630864472422361 0.14882584215954742
2780000000.0 0.3426576629683798 0.11669377206563354
2800000000.0 -0.2520741683121682 -0.2249520841839652
2820000000.0 0.09442778586730743 -0.3026665888279873
2840000000.0 0.06807348731207942 0.3006140265088581
2860000000.0 -0.25693025627128474 -0.15336634404237
2880000000.0 0.0042273792921166 -0.29256996642484273
2900000000.0 -0.29034207547614416 0.006088156080240399
2920000000.0 -0.213576844254429 0.2063303564378363
2940000000.0 0.19224461871637033 -0.24155442760885645
2960000000.0 -0.08675879111792897 -0.304694747290398
2980000000.0 -0.27594798038290425 -0.15905350966393403
3000000000.0 -0.317843933079621 -0.003732817436937677
3020000000.0 0.28744938190170105 0.14423437562887617
3040000000.0 0.3019508752845088 0.10710556700139845
3060000000.0 0.2252756809635089 0.2172322585909269
3080000000.0 0.21317198403180565 -0.21393870493968786
3100000000.0 -0.06909531227110044 0.2841134131698992
3120000000.0 -0.14233152060420243 -0.24712228750587276
3140000000.0 -0.2632300180437113 0.08183223250964317
3160000000.0 0.1420664080326652 -0.22282126015845272
3180000000.0 -0.21742603855508572 0.12360899845681225
3200000000.0 0.22862164427760787 -0.056531303140011105
3220000000.0 0.06520138962804313 -0.20020517754964093
3240000000.0 -0.12186212630746034 -0.12945669221729478
3260000000.0 0.053766128407551565 -0.1362032522192022
3280000000.0 0.10035361397164698 0.013397491197991305
3300000000.0 -0.040600600094037334 -0.05343773519977197
3320000000.0 0.007209492394576397 0.039388985182727224
3340000000.0 0.014405282354087829 -0.01770757866757156
3360000000.0 0.009324376050275746 0.006814228561305399
3380000000.0 -0.0003698407617613186 0.0014022455151619817
3400000000.0 0.01346882642591435 -0.00809907592471242
3420000000.0 0.03573592799457923 -0.0008708828525447696
3440000000.0 0.03257716909447363 0.03922859352425502
3460000000.0 -0.00498653062575705 -0.0652641661908507
3480000000.0 0.06593185294889925 -0.03880994767239599
3500000000.0 0.025494413345799657 -0.0824353312108771
3520000000.0 0.05129012085326935 0.08563645320061251
3540000000.0 -0.06098941571166585 -0.09599250057568055
3560000000.0 -0.0551578749778634 0.10645712292043392
3580000000.0 0.1324348340725945 0.024663896055133243
3600000000.0 0.07789323177169417 0.13412075979079094
3620000000.0 -0.06692631912732994 -0.15000148444869657
3640000000.0 -0.17262472246346303 -0.0535728567272789
3660000000.0 -0.1792619604855218 -0.06001197107443054
3680000000.0 0.05659842474156337 -0.18333604256168992
3700000000.0 -0.02752928006734703 -0.1906356804002136
3720000000.0 0.12427833567263977 -0.14475027337242918
3740000000.0 0.09644155786073028 0.1567446360776978
3760000000.0 0.035347955893949824 -0.17695696660160043
3780000000.0 0.07669130453770337 0.15717219118417738
3800000000.0 -0.03408627323218193 -0.16332234258056283
3820000000.0 -0.13123023336065148 0.08362216725727656
3840000000.0 -0.09698367831468499 -0.10809748003639598
3860000000.0 0.10313885502665558 -0.09820588289897239
3880000000.0 0.08637563874008673 0.1165264229343928
3900000000.0 -0.05682141766775445 0.13954242577407447
3920000000.0 0.1218754869628904 0.09613245355786798
3940000000.0 -0.1335912445709526 0.09867170455733794
3960000000.0 -0.0984974688040431 0.14119409629286897
3980000000.0 -0.025741189162982736 0.16805633747934612
4000000000.0 0.16275748922873023 0.00902307443749204
