!Created with skrf (http://scikit-rf.org).
# Hz S RI R 50.0 
!freq ReS11 ImS11
400000000.0 0.5874977570889922 0.6436698449972492
420000000.0 0.8297823640564524 -0.1552652022154512
440000000.0 0.7533409113079088 -0.25795429265906544
460000000.0 0.6961632302166029 0.25718471942028387
480000000.0 0.02135482880132321 -0.6848884428764633
500000000.0 -0.05677588322629611 0.6000130313844355
520000000.0 0.08114853918839175 0.5038237992783635
540000000.0 -0.30092715438336687 -0.31632831440256903
560000000.0 0.03677555891808011 0.39578765711006847
580000000.0 -0.352499304802842 -0.06660755646535292
600000000.0 0.347524505708217 0.046404685087334675
620000000.0 0.15115368487158015 -0.3196761583228378
640000000.0 0.3719290835623115 0.1854010693242028
660000000.0 0.28012694802409976 0.3142254862017284
680000000.0 -0.4479073226229821 -0.042645168849538916
700000000.0 0.45396126126936487 0.06152224590492775
720000000.0 -0.2613845990801931 0.37664169740026776
740000000.0 -0.32150046867178267 0.2709828917756397
760000000.0 -0.1332281620439955 -0.3815204399402075
780000000.0 -0.3676688453236947 -0.08934215652213204
800000000.0 -0.32478189658550705 -0.08589908232286167
820000000.0 -0.1441568818625558 0.24195817846171724
840000000.0 -0.06416590858063502 -0.2034621024589578
860000000.0 -0.16566785207671292 -0.0627068669057227
880000000.0 -0.03930112237406812 0.14140255298501994
900000000.0 -0.09761635507012907 0.004060800607668223
920000000.0 -0.04002920383921132 -0.03700762533134101
940000000.0 -0.022405971808238244 -0.025765552353537002
960000000.0 0.009487619796194205 0.036483601283821235
980000000.0 0.05723864458364315 0.01692531253108011
1000000000.0 -0.009221814618554754 -0.0957522449600793
1020000000.0 0.056271859959654606 -0.10430353766098358
1040000000.0 -0.12916985011117466 0.025518007006424575
1060000000.0 0.1234182743079884 0.09920243177485985
1080000000.0 -0.14063206617409005 0.11734995536791075
1100000000.0 0.08678709350957768 -0.18779213254787602
1120000000.0 0.22500028516328624 0.040673327211285894
1140000000.0 -0.2454711887721748 0.0616256408783919
1160000000.0 -0.23969893822253124 -0.14294720127521698
1180000000.0 0.006782878598074978 -0.3108867474108623
1200000000.0 0.2949708923402753 0.18531010231306408
1220000000.0 -0.3297170003649492 -0.18426301214462576
1240000000.0 0.3697583244467517 -0.15039481144497976
1260000000.0 -0.4086271597404151 -0.02399225471796277
1280000000.0 -0.34046889163928257 0.25034764859620545
1300000000.0 0.38832517746702444 0.18172157747856046
1320000000.0 0.4085876502697853 0.1307244580588553
1340000000.0 0.018042818856563544 0.43620148838598094
1360000000.0 0.3415555459216328 0.28683791637785755
1380000000.0 0.031183507290573533 -0.4381768309466067
1400000000.0 -0.2882485161975149 -0.31765461316484256
1420000000.0 0.16317537382689148 0.3733276675424623
1440000000.0 0.2522885624608184 -0.2779198188025767
1460000000.0 0.22034711765931922 -0.2622173841272123
1480000000.0 -0.17213119836267138 -0.2627439859246978
1500000000.0 -0.10601505942132362 0.2632481890318668
1520000000.0 -0.1933527151823532 0.16306450063853298
1540000000.0 0.12203409187647396 0.1889930592926138
1560000000.0 -0.11580081050101346 0.1577511429993069
1580000000.0 -0.1730874151141644 0.012965027319800149
1600000000.0 0.01475507520113656 0.13859436853590407
1620000000.0 0.061827042289404215 -0.0802569004898688
1640000000.0 -0.0739879110514421 0.02245890012760259
1660000000.0 0.030910420836885333 0.054608409009536535
1680000000.0 0.039973384434967174 0.011927479275360397
1700000000.0 -0.02131761870408541 -0.0010839649140621309
1720000000.0 -0.0019733536073665956 -0.007538303725934198
1740000000.0 -0.009621003111469394 -0.006732600787586387
1760000000.0 0.014020316785026396 0.023628451957845405
1780000000.0 0.05185056953478006 -0.008475865740456815
1800000000.0 0.05617846089256289 0.07542344036814255
1820000000.0 0.041018241310122355 -0.11792647498160615
1840000000.0 -0.050345820482419264 0.15298632934744227
1860000000.0 -0.08578789411487976 0.1807118318419269
1880000000.0 0.18868990060502083 0.14475735002001583
1900000000.0 0.0017306319912523086 -0.27989987006025957
1920000000.0 0.25531949784178615 -0.19504545468241768
1940000000.0 -0.3307042126193189 -0.09464751326284812
1960000000.0 -0.3204203070365497 0.1811741001857273
1980000000.0 0.3976153588960307 -0.019614392953985992
2000000000.0 -0.05432852518397082 -0.4134887428406272
2020000000.0 -0.2723257279057002 -0.32762583619533764
2040000000.0 -0.07928701958734274 0.42598903396811066
2060000000.0 0.1021337921422584 0.42382450972594193
2080000000.0 0.3018608950854758 0.31241474636370914
2100000000.0 -0.011525529253752368 -0.4278238618016976
2120000000.0 -0.15197609110266244 -0.3865933053987061
2140000000.0 -0.003923177154763985 -0.3978393278978277
2160000000.0 0.2876833370138959 -0.25352408024466305
2180000000.0 0.3430848443407738 -0.14452587222597527
2200000000.0 0.3181470079106797 -0.17397318226661568
2220000000.0 -0.2754329414007108 -0.22026088144119518
2240000000.0 -0.23426755382319836 -0.2559724873558353
2260000000.0 -0.32308420653087405 -0.12320359822039288
2280000000.0 0.13615690901298225 0.3205225437615584
2300000000.0 0.15623290536934464 0.31888351653978425
2320000000.0 0.13390269176529412 0.35253746379997164
2340000000.0 0.050868276095614035 -0.40685341631897276
2360000000.0 -0.3800324792136446 -0.23884803963212836
2380000000.0 0.03682790106025497 0.49770105887816385
2400000000.0 -0.5224307942994769 0.19664018169244618
2420000000.0 0.5720393912737793 -0.21046629265565023
2440000000.0 -0.5709673856787604 0.32233196178726975
2460000000.0 -0.6427814498990435 -0.27645302047179954
2480000000.0 0.6407990198371882 0.35177481590027443
2500000000.0 -0.39180891698055387 -0.6427162002418111
2520000000.0 0.7082018750363096 -0.29308458277870336
2540000000.0 -0.5590623016599302 -0.530502984251702
2560000000.0 -0.3213275226482112 0.6969544076377692
2580000000.0 -0.06635520543971475 -0.7511203573216569
2600000000.0 -0.7223583556184856 0.12786115435772813
2620000000.0 0.12037556691344474 0.6979177882515692
2640000000.0 0.43299692658959027 -0.5131769971909752
2660000000.0 -0.553084150722786 -0.3054024595238338
2680000000.0 -0.09055675197588736 0.5786615239303621
2700000000.0 -0.32155301592318675 -0.42459771894230314
2720000000.0 -0.15669175595738077 0.4586000308082002
2740000000.0 0.4351660841239941 0.023711947589472065
2760000000.0 -0.38796576767228497 0.06668482490321158
2780000000.0 0.30301038258727825 0.2000926646510074
2800000000.0 -0.20057162727413352 -0.27288059734863934
2820000000.0 0.18106812205620515 -0.26090553306110914
2840000000.0 -0.009126116290036214 0.30793515716880465
2860000000.0 -0.22109452903884486 -0.20125645920941504
2880000000.0 0.013762363367406067 -0.291317868502231
2900000000.0 -0.28886567101512073 -0.02727227759933939
2920000000.0 -0.2271677082970802 0.1907054954772426
2940000000.0 0.18929619129759093 -0.24303859030071986
2960000000.0 -0.1890329731638797 -0.2537474794843804
2980000000.0 -0.2894738652247319 -0.13239307368323439
3000000000.0 -0.3179839236116625 0.01387112015168075
3020000000.0 0.29326321964797925 0.1306915314268293
3040000000.0 0.3193408052504478 0.021212593310424722
3060000000.0 0.2732214031626972 0.1524151771979602
3080000000.0 0.2245638358077182 -0.20377944797022257
3100000000.0 -0.10744363002624804 0.2729327158616166
3120000000.0 -0.13322058778450668 -0.25288847097537837
3140000000.0 -0.27081323378289374 0.05355217822070781
3160000000.0 0.10938775098504769 -0.24049343424143932
3180000000.0 -0.19278786982503207 0.15885094148796158
3200000000.0 0.19880882430296237 -0.12703084860750527
3220000000.0 0.038058169316911084 -0.20744872191403044
3240000000.0 -0.12779218763534503 -0.12469733261201617
3260000000.0 0.05994001056550716 -0.13434378856027968
3280000000.0 0.10134262579262812 0.009631930295606128
3300000000.0 0.004384675573419633 -0.06684794104975111
3320000000.0 0.004633822487102434 0.04004157764795013
3340000000.0 -0.020068147238333972 -0.011257761288272336
3360000000.0 0.008707997817704479 0.009414273653226873
3380000000.0 -0.0003380270352257307 -0.0025608388647100147
3400000000.0 -0.013135676911984 0.006591128323588055
3420000000.0 0.031762723883436296 -0.014503949934061759
3440000000.0 0.02648662699747758 0.042357802396660975
3460000000.0 0.015343801700209965 -0.06314615192561501
3480000000.0 0.07488522221760928 0.012442292191502636
3500000000.0 0.06253150374449476 -0.05874739236583675
3520000000.0 0.029259645916005248 0.09415761463541186
3540000000.0 -0.06718185578844454 -0.09059784314155728
3560000000.0 -0.011065156683134191 0.11837127783108226
3580000000.0 0.13385881346746129 0.0021105795584664723
3600000000.0 0.08565757117885156 0.1283032274776911
3620000000.0 -0.07854353160194896 -0.14406709513209476
3640000000.0 -0.17303313971276313 -0.05010854365355292
3660000000.0 -0.17969388252456328 -0.05527535245619907
3680000000.0 0.05184229202238057 -0.18347301916825628
3700000000.0 -0.051639462334741155 -0.18460197268899717
3720000000.0 0.11522277042466142 -0.15168579855009054
3740000000.0 0.13019939383840118 0.12964611725627123
3760000000.0 0.0165002883149245 -0.17957725621504858
3780000000.0 0.0735027743775353 0.15867820285417175
3800000000.0 -0.03971249735440902 -0.16238703092172763
3820000000.0 -0.13549357730040557 0.07567133077996072
3840000000.0 -0.11173452324036968 -0.09207123342802331
3860000000.0 0.10663747728747586 -0.09403192158865654
3880000000.0 0.10858129974850347 0.0961523538683621
3900000000.0 -0.01363785663557853 0.14962620182899464
3920000000.0 0.14622280190778303 0.05081536507390835
3940000000.0 -0.10370502904623627 0.12929051069986452
3960000000.0 -0.07824427085028125 0.15371005146752184
3980000000.0 -0.013438078152718521 0.1693761261375723
4000000000.0 0.16118127695339454 -0.027557145089702667
