!Created with skrf (http://scikit-rf.org).
# Hz S RI R 50.0 
!freq ReS11 ImS11
400000000.0 0.5175740799279652 0.6996475570892933
420000000.0 0.8366573290870744 -0.11748039083322472
440000000.0 0.7558711556666106 -0.24880306965545274
460000000.0 0.6968211937867376 0.25340987571572604
480000000.0 0.028269605777707277 -0.6850973878142214
500000000.0 -0.046565906018263784 0.6014826393431204
520000000.0 0.08095207169347554 0.5035292290000415
540000000.0 -0.32398636140694115 -0.2919417555916785
560000000.0 0.05410653694470502 0.3928854373634335
580000000.0 -0.3449282663210836 -0.0972511008449391
600000000.0 0.34195324407623795 0.07828560924097736
620000000.0 0.20783473610950065 -0.2864143707236008
640000000.0 0.363909167600621 0.2021124700535775
660000000.0 0.28881416264506055 0.3070007286622584
680000000.0 -0.4424851368964026 -0.08575211146097944
700000000.0 0.45137410134708555 0.08540982831232487
720000000.0 -0.27814034268838467 0.36456656065559656
740000000.0 -0.29778933729867757 0.29586638749149674
760000000.0 -0.09756179983014902 -0.3923873024383288
780000000.0 -0.3546528386913324 -0.1323328330001054
800000000.0 -0.3156245374410051 -0.11554420872002548
820000000.0 -0.15253342192013955 0.23729531869121445
840000000.0 -0.14906485580716594 -0.15362584605614352
860000000.0 -0.17433788453314758 0.032596567481151924
880000000.0 -0.004370734948321364 0.14684676520961612
900000000.0 -0.09697781204009534 0.012781158570118236
920000000.0 -0.039929692747899245 -0.03710277225556289
940000000.0 -0.02972041520284674 -0.01649800926946524
960000000.0 -0.030619418574063164 0.023362907342771997
980000000.0 -0.012304442084248142 0.05848887213671182
1000000000.0 0.04533556350322426 -0.08503191173164203
1020000000.0 0.056392022832613534 -0.10459379706535149
1040000000.0 -0.11632836652409109 0.0642046730430238
1060000000.0 0.14314350480462973 0.06997601386460232
1080000000.0 -0.12134327183971365 0.1377244331142626
1100000000.0 0.0698899473690125 -0.19508024991266437
1120000000.0 0.22648624041418577 0.0351759695586568
1140000000.0 -0.24611375088476983 0.06037991460578853
1160000000.0 -0.24153444958749515 -0.14025605409035227
1180000000.0 0.013682702480515946 -0.31079551641349135
1200000000.0 0.3023408582962531 0.17262396524542478
1220000000.0 -0.33741296165625667 -0.1693655961210237
1240000000.0 0.36463453304041055 -0.16109463284251974
1260000000.0 -0.40828082464150334 -0.020894741082092636
1280000000.0 -0.35998929370869126 0.22230578520569813
1300000000.0 0.3829753215225266 0.19486427885785618
1320000000.0 0.41535857610525645 0.11022025274190472
1340000000.0 0.047448300366021 0.43408545011451805
1360000000.0 0.3485926150852676 0.2775849473351405
1380000000.0 0.06628009086719207 -0.43349416088491666
1400000000.0 -0.26342313370135634 -0.3378547250944366
1420000000.0 0.1511206574020854 0.37870081510014597
1440000000.0 0.21949069569295204 -0.3049908346606801
1460000000.0 0.1429903317848119 -0.31114212198111824
1480000000.0 -0.2410191475957479 -0.20107511299754263
1500000000.0 -0.06960410438965685 0.2743033158715057
1520000000.0 -0.16481048324844913 0.19044337769811057
1540000000.0 0.12815842074619924 0.1853039198713303
1560000000.0 -0.08063276177057431 0.1790175995970974
1580000000.0 -0.15295405218371602 0.08372101231614311
1600000000.0 0.06505982416981376 0.12305969694953785
1620000000.0 0.05715209103324945 -0.08291693289298609
1640000000.0 -0.07688221883481963 -0.004348014003955008
1660000000.0 -0.03895560429062036 0.049783491720717374
1680000000.0 -0.012792724315762383 0.03996069324259243
1700000000.0 0.021512757209795622 0.0025514791883842
1720000000.0 -0.00808175871746382 -0.00030562417293826305
1740000000.0 -0.0034828023586698895 -0.011030582475431469
1760000000.0 0.012372023357133676 0.02460401278706685
1780000000.0 0.05118955299678064 0.013400110367568548
1800000000.0 0.03076355859477688 0.08921294668830071
1820000000.0 0.06374820046366543 -0.10733928855325083
1840000000.0 -0.07050023331121931 0.1446346626299352
1860000000.0 -0.09504214764834593 0.17553977880758026
1880000000.0 0.18793442834407764 0.14507136112518448
1900000000.0 0.0233088932278765 -0.2789712813481195
1920000000.0 0.26431783430485756 -0.183498610722489
1940000000.0 -0.33137435764922446 -0.09433034012167903
1960000000.0 -0.3141792538520747 0.19278445974289343
1980000000.0 0.39669045235344613 -0.03918868952843225
2000000000.0 -0.047482090850748206 -0.41487961560310294
2020000000.0 -0.29545311432489696 -0.30706778794395234
2040000000.0 -0.13579251966634623 0.41180568579675947
2060000000.0 0.07647064786352802 0.42863533469737247
2080000000.0 0.28309679373073166 0.32923906975814593
2100000000.0 -0.01358975269461936 -0.42770854476899234
2120000000.0 -0.123050554928368 -0.3963819677953736
2140000000.0 0.03654339436924874 -0.3956156341941714
2160000000.0 0.27957066326393964 -0.2610896293532306
2180000000.0 0.34702036410082265 -0.13057460201945487
2200000000.0 0.3153827743686744 -0.17465096760635984
2220000000.0 -0.3102243239019285 -0.16341271551222472
2240000000.0 -0.22757577135198725 -0.26114061933525917
2260000000.0 -0.3326816356670516 -0.09398479084115564
2280000000.0 0.1768504955556888 0.2991305656538277
2300000000.0 0.16278518174572176 0.31418818171585194
2320000000.0 0.16746656147936478 0.3364912653198047
2340000000.0 -0.0024156421666649414 -0.4089376677265724
2360000000.0 -0.399519852377438 -0.20295006257400397
2380000000.0 0.08816583176882219 0.4904597601466377
2400000000.0 -0.5097128186971225 0.22613275605620695
2420000000.0 0.5684744555653322 -0.2190786453801317
2440000000.0 -0.5752337257005062 0.3144387823535961
2460000000.0 -0.6468393833225874 -0.26674466487079707
2480000000.0 0.6345746828892275 0.364643996354897
2500000000.0 -0.36516186731215244 -0.6587428114060649
2520000000.0 0.7338247378692279 -0.22204264817427025
2540000000.0 -0.5500664139053993 -0.5396576664059114
2560000000.0 -0.40740597805735906 0.6508441926087063
2580000000.0 -0.026843764909068278 -0.7535688431388309
2600000000.0 -0.7330285424710863 0.02257131232697361
2620000000.0 0.10478436436540456 0.6998820998155363
2640000000.0 0.43324679535670885 -0.5118492711142252
2660000000.0 -0.5082101586592047 -0.3730353880246228
2680000000.0 -0.13732261912107627 0.568188344482636
2700000000.0 -0.3172590607658207 -0.4267967789236314
2720000000.0 -0.13320339597425346 0.46503105096152214
2740000000.0 0.43417613718021186 -0.02325948422631162
2760000000.0 -0.37353126817050536 0.12112585899672072
2780000000.0 0.3290263614908713 0.1511095121597507
2800000000.0 -0.2410058927402551 -0.2363640662842441
2820000000.0 0.11280659924337147 -0.29576699119921435
2840000000.0 0.08193096644654832 0.29668675005500955
2860000000.0 -0.27581821288267416 -0.11488302880072852
2880000000.0 -0.03760574312789552 -0.2903078277434956
2900000000.0 -0.28871255863450185 0.03745125837174059
2920000000.0 -0.172538601117951 0.24143465401157158
2940000000.0 0.1437826976293924 -0.2734015943167989
2960000000.0 -0.13816398452840495 -0.285429105862181
2980000000.0 -0.2410015865077427 -0.20818938659681027
3000000000.0 -0.31483025526748737 -0.04428917086565312
3020000000.0 0.27508244864176234 0.16637774657645085
3040000000.0 0.30602761070515483 0.09778684962834416
3060000000.0 0.22110064202155455 0.22282974542652864
3080000000.0 0.24225922201308897 -0.18239105372702258
3100000000.0 -0.12100726838691207 0.26700561450320465
3120000000.0 -0.13447325869280813 -0.2523137139108657
3140000000.0 -0.2751229197271907 0.004939740095080155
3160000000.0 0.18062253424682803 -0.19269035504088117
3180000000.0 -0.2321938234855571 0.09057099761279208
3200000000.0 0.23194867514683692 -0.03763747409319868
3220000000.0 0.07589902354189865 -0.19613097243879768
3240000000.0 -0.13154456000675083 -0.11820872533007534
3260000000.0 0.06470986016603934 -0.13026788894288574
3280000000.0 0.09817047840861819 0.02064811538882206
3300000000.0 -0.0025386268258062537 -0.06568808465805613
3320000000.0 0.027492573313425233 0.02855305108443572
3340000000.0 0.02160973233993355 -0.0061852250052470215
3360000000.0 -0.0056875849791431805 -0.00951299551297742
3380000000.0 -0.0006521041393947505 -0.0012949677972483942
3400000000.0 0.003666760520055529 0.015349824259615577
3420000000.0 0.035870309627885406 0.0038812830645363313
3440000000.0 0.001291548704576187 0.051219747510340086
3460000000.0 0.030428841734846807 -0.057684259568364635
3480000000.0 0.06208563369939831 0.044852538399308146
3500000000.0 0.08293244168366075 -0.02430369231578223
3520000000.0 0.045535010158966965 0.08866617044444118
3540000000.0 -0.03699637087301154 -0.10663593494803318
3560000000.0 -0.0455862901041584 0.10999403185909207
3580000000.0 0.1308867294989056 0.029164456096513323
3600000000.0 0.09233100845807901 0.12388640758334178
3620000000.0 -0.0631322571469963 -0.15197497139200264
3640000000.0 -0.1614919732839173 -0.07999699870839658
3660000000.0 -0.16891527141080764 -0.08356833973322926
3680000000.0 0.08021128612219314 -0.1726816119572507
3700000000.0 -0.024833490339336645 -0.18965249785871094
3720000000.0 0.12451744240751998 -0.14342235240918455
3740000000.0 0.08890883567485557 0.16061471740578287
3760000000.0 0.03710879496465187 -0.1761006059658735
3780000000.0 0.10006392407483228 0.1430409061123529
3800000000.0 -0.08021909830457886 -0.1459317471607716
3820000000.0 -0.12979436269887362 0.08534444849232624
3840000000.0 -0.13038543450047665 -0.06342730715828973
3860000000.0 0.06077521370969917 -0.1286034627987825
3880000000.0 0.12278698762827366 0.07620938755586135
3900000000.0 0.02129008391377321 0.14866881393819031
3920000000.0 0.14305609998212176 0.05928104237076249
3940000000.0 -0.10904964092357143 0.12422853911365422
3960000000.0 -0.10112572719224472 0.13844448604352427
3980000000.0 0.005089280125374024 0.16943531623078392
4000000000.0 0.15216348510629304 -0.056019673283856555
