!Created with skrf (http://scikit-rf.org).
# Hz S RI R 50.0 
!freq ReS11 ImS11
400000000.0 0.5390390096136461 0.6848634343653459
420000000.0 0.829919023549604 -0.15410874525750098
440000000.0 0.7538105062004651 -0.2547383058143184
460000000.0 0.6932969927039017 0.261762708886202
480000000.0 0.040913134761992084 -0.6839365498129774
500000000.0 -0.018049690422717833 0.6025131015364195
520000000.0 0.09283094119080666 0.5014196550654669
540000000.0 -0.3193179180602824 -0.2974094543434926
560000000.0 0.06892755180900281 0.39130552517642986
580000000.0 -0.3439747283761471 -0.1012385226691703
600000000.0 0.3423852885823617 0.07562931841974682
620000000.0 0.22165474094996446 -0.2756783477133612
640000000.0 0.3636329602759974 0.2024664994807358
660000000.0 0.30996988351908644 0.2851630119511431
680000000.0 -0.4447709913721461 -0.07107246026360005
700000000.0 0.44962760330063367 0.09100473401346787
720000000.0 -0.2285413087601161 0.397018620926737
740000000.0 -0.2970686442641468 0.29650269272655466
760000000.0 -0.10621898293275955 -0.38981682534166817
780000000.0 -0.3618364979228998 -0.111171206756148
800000000.0 -0.30930176740483567 -0.13201296709489962
820000000.0 -0.16503517853709457 0.2291259517847241
840000000.0 -0.13906450326668185 -0.16202714533201373
860000000.0 -0.17178387959593316 0.04227734365015952
880000000.0 -0.011863606465540275 0.14594327444598737
900000000.0 -0.0976403152185081 7.134500157189649e-05
920000000.0 -0.01733474683953165 -0.051288170703675126
940000000.0 -0.008247983335373885 -0.03272859191651903
960000000.0 -0.03290061401947898 0.019064949786288896
980000000.0 0.0013262631617692003 0.059624044750557804
1000000000.0 0.031902749946033544 -0.0909547205196091
1020000000.0 0.06759566571984021 -0.09759645584745669
1040000000.0 -0.11683200412299455 0.06284193336519248
1060000000.0 0.14851112721462773 0.05618082398067222
1080000000.0 -0.12032064631084079 0.13816099716853839
1100000000.0 0.05761353615345005 -0.19879336755869745
1120000000.0 0.22824415199996015 0.01952210510075817
1140000000.0 -0.24154383561633816 0.07638960284264046
1160000000.0 -0.24412602359122246 -0.13528985387896889
1180000000.0 0.011830745055235757 -0.310533381786456
1200000000.0 0.2997456236645794 0.17682508429275284
1220000000.0 -0.3379420817742721 -0.16816737302887788
1240000000.0 0.3646673461227534 -0.16080616351654983
1260000000.0 -0.40778421504397705 -0.02788514029246939
1280000000.0 -0.36213856368937797 0.21831852504808555
1300000000.0 0.380063888640941 0.20032435285783776
1320000000.0 0.4151373663622957 0.11050945747575953
1340000000.0 0.05811861807566331 0.43274642206579095
1360000000.0 0.35805497042104373 0.26538210468265
1380000000.0 0.06185515012968142 -0.4342302490292808
1400000000.0 -0.2585288633885861 -0.34166905327732655
1420000000.0 0.1533631505357242 0.3776840153905724
1440000000.0 0.22565360916278737 -0.30045187007458907
1460000000.0 0.14189712818271705 -0.311746290248906
1480000000.0 -0.2448286125094691 -0.19629254001907415
1500000000.0 -0.07919890455954418 0.2718719976437621
1520000000.0 -0.1822555923388854 0.17429143093114632
1540000000.0 0.11435115688042614 0.19427807273098396
1560000000.0 -0.08437412747110468 0.17722903804995366
1580000000.0 -0.15033364869800198 0.08828469707536164
1600000000.0 0.06327857937917887 0.12384874051486941
1620000000.0 0.05342958155838245 -0.08543264006133801
1640000000.0 -0.07320798085191776 -0.023399811265462415
1660000000.0 -0.045257361892204216 0.0437682917439557
1680000000.0 -0.01743042978678941 0.03825999113198745
1700000000.0 0.021531251579666292 0.001900461260660358
1720000000.0 0.0008428926528404937 0.008026347274502046
1740000000.0 -0.006803968436978887 -0.009106904679638879
1760000000.0 0.01617101518836472 0.022315114604096027
1780000000.0 0.050533657178875854 0.015134310041968631
1800000000.0 0.03438316116172517 0.08779708219778075
1820000000.0 0.05400726239268272 -0.11243655470563874
1840000000.0 -0.05298452825180239 0.1517676719058418
1860000000.0 -0.08700856583033123 0.17957398972409322
1880000000.0 0.19301770088694253 0.1382494851474252
1900000000.0 0.027465257357392872 -0.27851540327430424
1920000000.0 0.25859692169150583 -0.19147733153528243
1940000000.0 -0.3324871119930325 -0.09038689793967436
1960000000.0 -0.3102762134520554 0.1991478209871898
1980000000.0 0.3939759501600044 -0.059519163857685915
2000000000.0 -0.0719452695366929 -0.4112252722132478
2020000000.0 -0.2887708217751988 -0.31334110793603387
2040000000.0 -0.12600783606293092 0.4149083169247614
2060000000.0 0.0753879867552419 0.42889677421611505
2080000000.0 0.2891168913493948 0.3241376176311223
2100000000.0 0.00014853603267763079 -0.4279060578934186
2120000000.0 -0.11208139960063161 -0.3996390865894622
2140000000.0 0.06032857015591614 -0.3926711445478183
2160000000.0 0.3131510160884153 -0.2193731968301322
2180000000.0 0.35207697635819674 -0.11541692838764539
2200000000.0 0.3181735484958617 -0.16938688679667535
2220000000.0 -0.2862267397140786 -0.20297529187173546
2240000000.0 -0.2352561473856713 -0.25376858681039294
2260000000.0 -0.3305351257348782 -0.0999780869782848
2280000000.0 0.16406714161289707 0.3058089052869236
2300000000.0 0.16720463997042143 0.31155698801752474
2320000000.0 0.1631488242476498 0.3383940768569405
2340000000.0 -0.030970198894190438 -0.40801480125607503
2360000000.0 -0.4107696467724809 -0.1797226938497758
2380000000.0 0.09406572194328731 0.48944807760282744
2400000000.0 -0.5080836639723244 0.22986363910310423
2420000000.0 0.5627758109485852 -0.2335043848765994
2440000000.0 -0.5820513632986346 0.30206766302421934
2460000000.0 -0.6487088378559518 -0.2624028121172321
2480000000.0 0.6459136534764263 0.3439936953977005
2500000000.0 -0.31945617878486116 -0.6825047833109231
2520000000.0 0.7422962620185771 -0.1917755908170751
2540000000.0 -0.5005207150279309 -0.586528373032381
2560000000.0 -0.42031145813621856 0.6424134165055667
2580000000.0 -0.019370930898782054 -0.7535140527503629
2600000000.0 -0.7328515770980008 0.027796116752107757
2620000000.0 0.07863380239384109 0.7031821021498592
2640000000.0 0.4628023765840842 -0.4846582195791425
2660000000.0 -0.5085728724500664 -0.37182167649549497
2680000000.0 -0.11339611543705046 0.5731331333205156
2700000000.0 -0.34242315611795576 -0.4066822259384473
2720000000.0 -0.12336673070934863 0.46758928471341626
2740000000.0 0.43453405276772356 -0.004916408794716017
2760000000.0 -0.37297374054293236 0.12189317859320468
2780000000.0 0.3357160492497058 0.1349843341647859
2800000000.0 -0.24769496904456215 -0.22920752490234184
2820000000.0 0.10360805774195528 -0.29919854355955666
2840000000.0 0.06725083254724494 0.3010348028916779
2860000000.0 -0.26367817695912277 -0.1417247295294783
2880000000.0 -0.02283107168724337 -0.29222119434953747
2900000000.0 -0.29105184717286897 0.009924599077251026
2920000000.0 -0.17977214485444165 0.2360561759011633
2940000000.0 0.15838207015240066 -0.26508558697259527
2960000000.0 -0.12784483913170308 -0.2902559174910003
2980000000.0 -0.25580463846387747 -0.1904588423067212
3000000000.0 -0.31683484079668367 -0.036413937654120286
3020000000.0 0.27040046479143626 0.17426507986992104
3040000000.0 0.2828652250610795 0.15238467998635236
3060000000.0 0.2486483937926776 0.19176788286703036
3080000000.0 0.23029277815943483 -0.19722146688481057
3100000000.0 -0.179397908612457 0.23131914672291956
3120000000.0 -0.10776666519932293 -0.26409582354988387
3140000000.0 -0.27442552002950615 0.018319031642899202
3160000000.0 0.18013852753061468 -0.19257866212984276
3180000000.0 -0.2247348068671136 0.10836606855262701
3200000000.0 0.23124101695134627 -0.041177599442756625
3220000000.0 0.0686521430175482 -0.198644789339781
3240000000.0 -0.14202482892545903 -0.10543014962645954
3260000000.0 0.058619164414299235 -0.1330232622605606
3280000000.0 0.10003491535666856 0.008983796880673276
3300000000.0 0.011439766621259803 -0.06498691896712454
3320000000.0 0.026104738062262756 0.029956121861942502
3340000000.0 0.017664743469518174 -0.014162198059024494
3360000000.0 0.00914881633472788 0.006783940166685665
3380000000.0 0.001158548972507999 0.0009141875914349894
3400000000.0 -0.00984223747441523 0.01223180818062497
3420000000.0 0.0345329760898748 -0.010011895595485291
3440000000.0 9.174143688851178e-05 0.050961265645560985
3460000000.0 0.020095878358009765 -0.06198137266463802
3480000000.0 0.05837256428341451 0.049072231529893054
3500000000.0 0.08295203613408568 -0.02302626694335071
3520000000.0 0.04738282698900329 0.08702287219477202
3540000000.0 -0.058539785209758485 -0.09638282812042694
3560000000.0 -0.04835527242775319 0.10813041856461807
3580000000.0 0.13424127288653284 -0.00023117271414587614
3600000000.0 0.08887146193592864 0.12590975244286728
3620000000.0 -0.08601930638901037 -0.14027374668018605
3640000000.0 -0.16577592120285367 -0.06985444076547978
3660000000.0 -0.16783542191521333 -0.0846088837580401
3680000000.0 0.06892302009751636 -0.17739165950043045
3700000000.0 -0.028385256512375286 -0.18886404865296483
3720000000.0 0.12221400061630175 -0.14540928780551307
3740000000.0 0.10211042451208205 0.15223546949405256
3760000000.0 0.022648737710355873 -0.1783592005609893
3780000000.0 0.10289740121329527 0.14143062409393936
3800000000.0 -0.08086179564407842 -0.1458223331562707
3820000000.0 -0.12185289215013247 0.09654109581044212
3840000000.0 -0.13602588990988562 -0.05040009096205605
3860000000.0 0.03662745178020177 -0.13748020502883232
3880000000.0 0.12025629518708993 0.08118173801035826
3900000000.0 0.01713436936048454 0.14978507824617868
3920000000.0 0.1443981885724976 0.05628964480085023
3940000000.0 -0.11518626992334524 0.11991268017192187
3960000000.0 -0.07817086450203291 0.15289798823533987
3980000000.0 0.033068837393260705 0.16674153116751184
4000000000.0 0.14460562862352735 -0.07474442737589652
