!Created with skrf (http://scikit-rf.org).
# Hz S RI R 50.0 
!freq ReS11 ImS11
400000000.0 0.5585359742203742 0.6672334024706429
420000000.0 0.8229756087535284 -0.18290255076777084
440000000.0 0.7457324441318338 -0.27669520024009553
460000000.0 0.6939348425529845 0.26152998037142505
480000000.0 0.03868459082841774 -0.6839294618107525
500000000.0 -0.0673280967041593 0.5991310643426825
520000000.0 0.08419269082702865 0.5029315032623007
540000000.0 -0.2843891537588461 -0.33141132356750136
560000000.0 0.02681402862795455 0.39693079638678186
580000000.0 -0.34116454810503266 -0.1121241201459069
600000000.0 0.3463908699204021 0.05480449228136424
620000000.0 0.14696810223385626 -0.32140716583353823
640000000.0 0.36876177554755823 0.19057652632475772
660000000.0 0.28984982599252285 0.30537481720812526
680000000.0 -0.44588377867851287 -0.06301385771485288
700000000.0 0.45082910873188126 0.08035617313158601
720000000.0 -0.2712554909024941 0.3698086070498458
740000000.0 -0.31139372959398165 0.2821076516587952
760000000.0 -0.12246086715975799 -0.385577971962028
780000000.0 -0.36925197114443065 -0.08388537792002446
800000000.0 -0.32151108823085195 -0.09700680456336401
820000000.0 -0.15463354538838484 0.2352721186813954
840000000.0 -0.04660987919167713 -0.20812601318265694
860000000.0 -0.16066859605189304 -0.07477426707977664
880000000.0 -0.05593283773727238 0.13625696077205435
900000000.0 -0.09724907780711504 0.012256666674778932
920000000.0 -0.053908758359442456 -0.00970625061768211
940000000.0 -0.03360107331206875 0.005591702290278984
960000000.0 -0.014880296016093744 0.03484106691047391
980000000.0 0.055684445176500105 0.01939762315751881
1000000000.0 -0.039315720242626806 -0.08681685196647941
1020000000.0 0.040132797976062826 -0.11124943358438837
1040000000.0 -0.12647997499075617 0.03827223014177284
1060000000.0 0.10719866168532947 0.11695079141217958
1080000000.0 -0.1610204396501855 0.08848299119824535
1100000000.0 0.08736467226838736 -0.18755487125413206
1120000000.0 0.22273774923841327 0.050924068400062465
1140000000.0 -0.2517201232794193 0.021740306081510598
1160000000.0 -0.22830220597929538 -0.16009487149927848
1180000000.0 0.030428911426441278 -0.3086375963541867
1200000000.0 0.2839002300895285 0.20036970435023327
1220000000.0 -0.33188477733714733 -0.17881891232453853
1240000000.0 0.36694992263290055 -0.15576997736556375
1260000000.0 -0.40835224201164694 0.018805535647380127
1280000000.0 -0.32857534045394887 0.26539812898003845
1300000000.0 0.3992366963308506 0.15479960783345825
1320000000.0 0.40756428032497993 0.13182158591523366
1340000000.0 0.03821108866220052 0.4350403486602918
1360000000.0 0.35701473743296835 0.2684944449574392
1380000000.0 -0.0016882208009583552 -0.439840060937785
1400000000.0 -0.30851027774924816 -0.29805477897327887
1420000000.0 0.19174692046036454 0.3587035231340889
1440000000.0 0.26120679325846247 -0.2692112401753477
1460000000.0 0.2463029622022097 -0.23797450800217973
1480000000.0 -0.16786005005283958 -0.2663995846479848
1500000000.0 -0.1272366689684065 0.2541217756429056
1520000000.0 -0.18083484768561706 0.17609896280144038
1540000000.0 0.10612196405878008 0.19769169295986894
1560000000.0 -0.130048034650788 0.14465544038787137
1580000000.0 -0.1722968685413516 -0.014924748922456639
1600000000.0 -0.027306898186697254 0.13600383425227303
1620000000.0 0.07088691457717167 -0.07287942175600395
1640000000.0 -0.07378915455692743 0.02381201032228809
1660000000.0 0.050077677395003205 0.03840573725290281
1680000000.0 0.04077078131639084 0.007754814383486638
1700000000.0 -0.01016933042279637 0.01899437914697373
1720000000.0 -0.008000825694797544 -0.002306444318864534
1740000000.0 0.01100824328700393 0.0029614764444207704
1760000000.0 0.026867679264243015 0.0034542848996430976
1780000000.0 0.05241608843270258 -0.0011059065103861175
1800000000.0 0.05294392832253878 0.07786016561911045
1820000000.0 0.06609386572461559 -0.10578664765474215
1840000000.0 -0.04970676032690147 0.1537835544419327
1860000000.0 -0.0865486397083637 0.18093665843899848
1880000000.0 0.18950214101245016 0.14501964892773364
1900000000.0 0.0018857977747525705 -0.2807307657915416
1920000000.0 0.25724848534118794 -0.1932940009405154
1940000000.0 -0.32678674638504784 -0.1074342800388758
1960000000.0 -0.32732421141251605 0.16827321685376564
1980000000.0 0.39781827603232 -0.01741859972914154
2000000000.0 -0.0351807143713015 -0.41548338936718515
2020000000.0 -0.28108576334009255 -0.3199215526710834
2040000000.0 -0.07125830800897909 0.42747708272365825
2060000000.0 0.14104709324624984 0.4122255961293504
2080000000.0 0.3438968896367408 0.26480011249656826
2100000000.0 -0.03099148667821937 -0.4261567873769337
2120000000.0 -0.1421590562043298 -0.3897558384308257
2140000000.0 0.05149590120200033 -0.39425578170843684
2160000000.0 0.30540444294978775 -0.23188375427262456
2180000000.0 0.3420715086910698 -0.14730198191127303
2200000000.0 0.29465490073848605 -0.21106633745806933
2220000000.0 -0.30363363472587473 -0.1798175789874559
2240000000.0 -0.2506629403978433 -0.24061970573781008
2260000000.0 -0.3325268194692092 -0.09685353375566877
2280000000.0 0.14519428696773048 0.316549746624237
2300000000.0 0.15392306840178474 0.3197314046944124
2320000000.0 0.1417954706155311 0.34936800872373264
2340000000.0 0.005928540262732998 -0.4100120139725348
2360000000.0 -0.39403867600051856 -0.21559086370211247
2380000000.0 0.03425537077388667 0.4976335494525935
2400000000.0 -0.5128309990525839 0.21993503689265226
2420000000.0 0.5550140639761577 -0.251163564241511
2440000000.0 -0.556422794403925 0.3469055796096578
2460000000.0 -0.6586906588699808 -0.23556636593411726
2480000000.0 0.6544555929612025 0.3267398381696656
2500000000.0 -0.3715785249159583 -0.6543372800616465
2520000000.0 0.7107747597108782 -0.2857763860293086
2540000000.0 -0.5617586955071665 -0.5275307271909002
2560000000.0 -0.3347036923142266 0.6907820528537977
2580000000.0 -0.005925607290331457 -0.7545520463455536
2600000000.0 -0.7318716103272743 0.05111844658511888
2620000000.0 0.06974845135405458 0.7045147161315236
2640000000.0 0.4230810740308013 -0.5201590585675429
2660000000.0 -0.5401322541448736 -0.3253548359518606
2680000000.0 -0.07286833349147935 0.5800213024819539
2700000000.0 -0.3526802595761187 -0.3982265220821601
2720000000.0 -0.1120822040473941 0.4706865075729957
2740000000.0 0.434893697066054 -0.004085341890792182
2760000000.0 -0.3776781342964513 0.10850164129898301
2780000000.0 0.32659735939080325 0.15811577328602613
2800000000.0 -0.21361598764883669 -0.2624435276414066
2820000000.0 0.15983095205948059 -0.2743902571410521
2840000000.0 0.000518440289085229 0.30819570376532046
2860000000.0 -0.20741343700794748 -0.21523727529902248
2880000000.0 0.03291639413844169 -0.2896104609602933
2900000000.0 -0.2862103749593941 -0.04148912603736322
2920000000.0 -0.23893243345406992 0.17399010742872245
2940000000.0 0.18727360976381835 -0.2436862865636012
2960000000.0 -0.15439886814744258 -0.27571909074599066
2980000000.0 -0.29272650619573226 -0.12304453630909211
3000000000.0 -0.31100306920996634 0.0651883184393526
3020000000.0 0.31014814993814227 0.08184909512381659
3040000000.0 0.319853239687342 0.011388224830625989
3060000000.0 0.2654340308719606 0.165265732032813
3080000000.0 0.18529497913903653 -0.23849932043061017
3100000000.0 -0.058282954798223374 0.2865356614052056
3120000000.0 -0.14658370796785355 -0.2445922998763768
3140000000.0 -0.26170191434201845 0.08694782651631018
3160000000.0 0.10557488769377607 -0.24282796552690739
3180000000.0 -0.2022798879916386 0.14762628008942075
3200000000.0 0.21451851445881914 -0.09837343941986369
3220000000.0 0.05499836659878582 -0.20307953997839479
3240000000.0 -0.14621811287857875 -0.10164058117911816
3260000000.0 0.03899065184476155 -0.14179159113375495
3280000000.0 0.09770665307322138 -0.02961232881864005
3300000000.0 -0.018177616861013317 -0.06533284707339286
3320000000.0 0.03646984272043186 0.018960218597961202
3340000000.0 -0.021726194694555907 0.007470686767174709
3360000000.0 -0.005075810373753732 -0.0109771179373122
3380000000.0 -0.001349616611079685 0.0021145077680447136
3400000000.0 0.0056891992216408505 -0.013592315266540813
3420000000.0 0.02531039710768122 0.02246140618742271
3440000000.0 -0.03576239982750075 0.03334922289519656
3460000000.0 0.047914301182120644 -0.0416803454648552
3480000000.0 0.05610124213812679 0.048826638946014383
3500000000.0 0.07815510296685664 -0.031807860075571556
3520000000.0 0.03988916597970888 0.08911630039237796
3540000000.0 -0.03734604055297134 -0.10510190871548114
3560000000.0 -0.06938408606151074 0.09515863183403724
3580000000.0 0.1312510511371512 0.02505377667147516
3600000000.0 0.08310356305325498 0.1293668942767292
3620000000.0 -0.06267698935378374 -0.15051141242354388
3640000000.0 -0.17697059801759088 -0.02926730099936277
3660000000.0 -0.1870662315773456 -0.017074259318539065
3680000000.0 0.04820794014440994 -0.1842101328591817
3700000000.0 -0.06559058791090916 -0.17985991209638294
3720000000.0 0.10606596181041285 -0.15782802729581516
3740000000.0 0.08764596353555898 0.1613512957456833
3760000000.0 0.00987748415402956 -0.17987946616593226
3780000000.0 0.09420651488041758 0.1474687815390899
3800000000.0 -0.05484377860843322 -0.15778451095843968
3820000000.0 -0.1492064928001599 0.044358597912292866
3840000000.0 -0.08794810728489277 -0.11626859230443977
3860000000.0 0.11179555682936819 -0.08894999110996613
3880000000.0 0.10969560290296718 0.09484953877935703
3900000000.0 0.010822199791365762 0.15005608747627724
3920000000.0 0.1525159795770426 0.02999040373602419
3940000000.0 -0.09659847250894718 0.13521585905156308
3960000000.0 -0.017930530359675633 0.1712683096119559
3980000000.0 -0.00591453822897514 0.17055594860665196
4000000000.0 0.16234619802639147 -0.01881028364277697
