!Created with skrf (http://scikit-rf.org).
# Hz S RI R 50.0 
!freq ReS11 ImS11
400000000.0 0.549474343616724 0.6761290167165648
420000000.0 0.8269479868374162 -0.16710291948241088
440000000.0 0.7579396046173377 -0.2414053033932307
460000000.0 0.69210339999094 0.2661022317755033
480000000.0 0.02911747341914661 -0.6847243933368908
500000000.0 -0.049917313051978544 0.6006565960103061
520000000.0 0.08450290780528856 0.5030374810640751
540000000.0 -0.31909479102706906 -0.2978345622893819
560000000.0 0.01901348670591077 0.39636710611499637
580000000.0 -0.3375754224254023 -0.12096264809430086
600000000.0 0.3412817539005322 0.07978945666076967
620000000.0 0.1908062664230324 -0.2973803970107076
640000000.0 0.3677435241143711 0.1936690066872387
660000000.0 0.29421780419470317 0.301447138979441
680000000.0 -0.4429119039967567 -0.0801831769599728
700000000.0 0.45489338883352 0.05866014037215439
720000000.0 -0.26570342258850654 0.3733645823948355
740000000.0 -0.3026411667032009 0.2918151859259492
760000000.0 -0.11342049093158214 -0.3881368909361759
780000000.0 -0.36402364518703023 -0.10448746508717227
800000000.0 -0.3191257795296462 -0.10570857748982306
820000000.0 -0.1552790735422054 0.23591174872266427
840000000.0 -0.1356905185356011 -0.16587248833904666
860000000.0 -0.17765542587658423 0.003365367304558669
880000000.0 -0.00663627744516678 0.14681158387381327
900000000.0 -0.09786164720944442 0.0038346462468418787
920000000.0 -0.03891519021860639 -0.03854547861082929
940000000.0 -0.02590645797355857 -0.02232196956343323
960000000.0 -0.030229901217156567 0.023010180774925136
980000000.0 0.023767656213994185 0.054872722565265354
1000000000.0 0.007789868040742771 -0.09672758398432654
1020000000.0 0.05459851094480299 -0.10650855272024083
1040000000.0 -0.12736288088938139 0.038679289793162694
1060000000.0 0.11763828466391665 0.10711491235547445
1080000000.0 -0.1315789381174905 0.12743221154869472
1100000000.0 0.07292061351374685 -0.19364574928228295
1120000000.0 0.22870955980149155 0.0006599531873926048
1140000000.0 -0.24540908328194525 0.060893271389523954
1160000000.0 -0.25330914243941344 -0.11643072597230698
1180000000.0 -0.017702964532697946 -0.3100451871399284
1200000000.0 0.3146918190107878 0.1487104484159506
1220000000.0 -0.34977531215848817 -0.14195844885791614
1240000000.0 0.3590780853293838 -0.17297621120385484
1260000000.0 -0.4091377284285435 -0.008541268775480266
1280000000.0 -0.3373264049566839 0.25610778087849134
1300000000.0 0.40163953990372786 0.1526867888095481
1320000000.0 0.4191534892350943 0.09492099698536914
1340000000.0 0.04672648045528303 0.4341285687183368
1360000000.0 0.3510528710681407 0.27480201455210396
1380000000.0 0.053134660158917935 -0.4356209766305533
1400000000.0 -0.26181276895736094 -0.33919242415269096
1420000000.0 0.14640847871903817 0.37992965430211373
1440000000.0 0.24989608988726492 -0.2802064982896945
1460000000.0 0.17999175138547183 -0.29061565030802927
1480000000.0 -0.23539872412521387 -0.20689818963828754
1500000000.0 -0.08394432620421029 0.26964463976144304
1520000000.0 -0.18082814961901125 0.17473814173158495
1540000000.0 0.12198156344672949 0.18893295683138123
1560000000.0 -0.06506682172081692 0.18437255725764387
1580000000.0 -0.1469941535023167 0.09291572690413578
1600000000.0 0.10646505148264768 0.08955873334730252
1620000000.0 0.00933763641606421 -0.10060355472981196
1640000000.0 -0.07283624184264414 0.025213847036979625
1660000000.0 0.009458333852061539 0.06307257722853861
1680000000.0 0.02007891573346242 0.03768305292365527
1700000000.0 0.005233934938353126 -0.022222704392818666
1720000000.0 0.0005415764022988868 -0.009174890525228397
1740000000.0 0.010616805032577397 0.005378207687818747
1760000000.0 0.026603354816618983 -0.008658633642183541
1780000000.0 0.05279755173725826 -0.006300710131407825
1800000000.0 0.060513463585078045 0.07296294029602443
1820000000.0 0.046672598054367555 -0.11677519390290682
1840000000.0 -0.03435849889822145 0.1580137567029412
1860000000.0 -0.0980034485192535 0.17526675972154482
1880000000.0 0.1816459389024329 0.1544569514602068
1900000000.0 0.04632083351908975 -0.27660832866767043
1920000000.0 0.2816377870632429 -0.1559272335420826
1940000000.0 -0.3236159494736522 -0.11719565509852156
1960000000.0 -0.3279690926814082 0.16795419630987263
1980000000.0 0.3969447536354283 -0.028643374494835745
2000000000.0 -0.04049391434792628 -0.4149840746950641
2020000000.0 -0.2648708324169249 -0.33307085942895726
2040000000.0 -0.06340541038847224 0.4279025012911409
2060000000.0 0.0955434055335562 0.4241722215697261
2080000000.0 0.3126941776981078 0.3001096712708539
2100000000.0 0.0004911916335402893 -0.42711151132781133
2120000000.0 -0.15365131250492636 -0.384925532690039
2140000000.0 0.02521950083139347 -0.3958026082891349
2160000000.0 0.2796655895368665 -0.2600951212261003
2180000000.0 0.33555466151749613 -0.15798464811262147
2200000000.0 0.31056716716488264 -0.18446672357532376
2220000000.0 -0.30176434860102763 -0.17973260224469045
2240000000.0 -0.2668747922565435 -0.22070803475977777
2260000000.0 -0.33427007814009685 -0.08593389871406333
2280000000.0 0.18260914034796336 0.29546308645176106
2300000000.0 0.20221025945241414 0.2902370616118278
2320000000.0 0.1910698858410556 0.32368209990112956
2340000000.0 -0.024750521998841576 -0.4084974557138253
2360000000.0 -0.40489733897335867 -0.19230478155489153
2380000000.0 0.06859425940965098 0.4932835361003827
2400000000.0 -0.5025327153570511 0.24060002277444192
2420000000.0 0.553658713317556 -0.25385394619829316
2440000000.0 -0.5547647416722972 0.3495434670310851
2460000000.0 -0.6490937608432116 -0.2614093195822894
2480000000.0 0.6414954908753295 0.3513184629817352
2500000000.0 -0.29884488194034203 -0.6913648338104321
2520000000.0 0.7269887116987385 -0.24333809611182758
2540000000.0 -0.5554677771661546 -0.5341931412216847
2560000000.0 -0.4315418948515346 0.6355627536439471
2580000000.0 -0.05125500493042729 -0.7523357101315845
2600000000.0 -0.7331548423742853 -0.0026196425656465155
2620000000.0 0.045005136638147564 0.7061863580678153
2640000000.0 0.47936240242002304 -0.46785890224958704
2660000000.0 -0.5490205728659742 -0.30815983572594435
2680000000.0 -0.06305996302825341 0.5801409739325079
2700000000.0 -0.38846617440387243 -0.3622413423207598
2720000000.0 -0.08045060077210216 0.4766219428143318
2740000000.0 0.4318029929577837 -0.048576202745951376
2760000000.0 -0.36160654148597254 0.15259262465893875
2780000000.0 0.3490027870766491 0.09699903055458714
2800000000.0 -0.2552829067602504 -0.22169293479918042
2820000000.0 0.10645077389412938 -0.2989678246495483
2840000000.0 0.05684871814156943 0.3030860636906858
2860000000.0 -0.24469421481971068 -0.17257462362824907
2880000000.0 0.02739526994541952 -0.2913360022549161
2900000000.0 -0.28981899829316227 -0.013159536287676831
2920000000.0 -0.21473978452637096 0.204410138846987
2940000000.0 0.194497781830955 -0.23901794267379392
2960000000.0 -0.12371225152709497 -0.29094774752258734
2980000000.0 -0.2596611849021308 -0.1831425845519387
3000000000.0 -0.3178887549712972 0.009585015249268943
3020000000.0 0.2964128693211773 0.12306964955308788
3040000000.0 0.31924010158867755 0.02158629542990314
3060000000.0 0.2404010003748135 0.20009949762796583
3080000000.0 0.17073162242964696 -0.2491338014256927
3100000000.0 -0.045563736304360496 0.2885793116339317
3120000000.0 -0.16010653149990556 -0.23581927615804035
3140000000.0 -0.25553404438006055 0.10347060468604391
3160000000.0 0.1180214323488233 -0.23660731779609906
3180000000.0 -0.2147432103334365 0.12862665481548818
3200000000.0 0.22712074078683356 -0.0634682592624052
3220000000.0 0.05968705111696153 -0.20249702428854036
3240000000.0 -0.11916887251681119 -0.1321191683435637
3260000000.0 0.0539976839534122 -0.13626895354981342
3280000000.0 0.09974728248769749 0.01881541895699147
3300000000.0 0.02630659339429221 -0.06204858703985215
3320000000.0 -0.02457329505210098 0.032091871752922226
3340000000.0 0.0232650913989063 -0.00041092203938919013
3360000000.0 0.004089615330765854 0.011382442618970898
3380000000.0 -0.001579853260415982 0.0009210420980316701
3400000000.0 0.012149318011142085 0.009311013055004461
3420000000.0 0.026563870447988552 -0.023577018705080048
3440000000.0 0.040493676405454454 0.030375454320352283
3460000000.0 -0.03360850659636915 -0.05586578188573984
3480000000.0 0.05660624523109528 -0.05097532800393272
3500000000.0 0.013174899749049306 -0.08507354590018466
3520000000.0 0.07504961182417431 0.06569201237824895
3540000000.0 -0.08286397699109202 -0.0778044521036636
3560000000.0 -0.030110066966461006 0.11567500538353565
3580000000.0 0.13384680463981052 -0.013092685384800044
3600000000.0 0.09095921197602684 0.12500612876055756
3620000000.0 -0.09649384237335822 -0.13249627837840752
3640000000.0 -0.18019181569751785 -0.012607767977023997
3660000000.0 -0.18572230412741672 -0.034819992314412046
3680000000.0 0.03016236938275898 -0.18917726216656566
3700000000.0 -0.057341185601272916 -0.18373768298637952
3720000000.0 0.09944729110450852 -0.1633099296163118
3740000000.0 0.11959703021441528 0.1400515883280221
3760000000.0 0.002684579095182547 -0.18053494613817372
3780000000.0 0.10749320605886437 0.13822853981922162
3800000000.0 -0.07622024012128187 -0.14890470052978352
3820000000.0 -0.11782647194308048 0.10254805809961455
3840000000.0 -0.1117652035484691 -0.09392518264920038
3860000000.0 0.0926432733839089 -0.108851678324412
3880000000.0 0.10766075937565683 0.09779815790005382
3900000000.0 -0.03246647068537907 0.14767841516921293
3920000000.0 0.14135361583670897 0.06600549562603954
3940000000.0 -0.11543594591386601 0.12064755933941203
3960000000.0 -0.08564701960918587 0.15040114746538488
3980000000.0 -0.02632169196681251 0.1690736144464034
4000000000.0 0.16372262596482112 0.011298506978441203
