!Created with skrf (http://scikit-rf.org).
# Hz S RI R 50.0 
!freq ReS11 ImS11
400000000.0 0.5857669724282548 0.6447311167367894
420000000.0 0.8279485301491092 -0.16301147436017516
440000000.0 0.7538092475586842 -0.25597329664254087
460000000.0 0.7065278222660513 0.22673754262977908
480000000.0 0.02184650319820032 -0.6849396448218259
500000000.0 -0.04743219806698756 0.6008534456166122
520000000.0 0.07912500614271674 0.5042837033018822
540000000.0 -0.2986294975960683 -0.31869056411068464
560000000.0 0.04311842183706375 0.39518065597516444
580000000.0 -0.347496496633668 -0.08929054866439513
600000000.0 0.3468911341497077 0.05246001069903776
620000000.0 0.18650510658903918 -0.30044804393320373
640000000.0 0.3529234376088092 0.21925969666684836
660000000.0 0.27268526877123517 0.3210572524942399
680000000.0 -0.44629589095329264 -0.060666992871927665
700000000.0 0.45533320709541314 0.05335551838629451
720000000.0 -0.2792399184805322 0.3633987608782158
740000000.0 -0.3252550152940729 0.2659930912917229
760000000.0 -0.12259676255497462 -0.3849512732679665
780000000.0 -0.36749266951209547 -0.09104226604494516
800000000.0 -0.31789300884778454 -0.10973243446054712
820000000.0 -0.1619730666789719 0.23118214334770548
840000000.0 -0.059676440607574675 -0.20534426013517557
860000000.0 -0.1668684711021628 -0.0594651560148451
880000000.0 -0.0405269713167781 0.14097987218219998
900000000.0 -0.09784232672792692 0.005604704889941116
920000000.0 -0.030700159744815242 -0.04535443926291488
940000000.0 -0.013915264027879641 -0.031544399367026285
960000000.0 -0.02533556775568497 0.02781868591394036
980000000.0 0.0383023868926201 0.04557065768743708
1000000000.0 -0.0007265475024581077 -0.09640033480875398
1020000000.0 0.06168759635349508 -0.10123576814053327
1040000000.0 -0.12660127991608117 0.037369297906675314
1060000000.0 0.1273216671344495 0.09435110063129883
1080000000.0 -0.14349357412629418 0.11353858511301454
1100000000.0 0.08903681081925464 -0.18659320878747354
1120000000.0 0.2242320803826725 0.043566042604331306
1140000000.0 -0.24849330258999164 0.04813918839544908
1160000000.0 -0.24209532478091703 -0.13859151341660877
1180000000.0 0.008269557365420923 -0.3106386975491627
1200000000.0 0.29772615180824136 0.1804318916254593
1220000000.0 -0.33257352139834245 -0.17888112701758696
1240000000.0 0.37019168762240395 -0.14879885401613913
1260000000.0 -0.4078265482662776 -0.03381258907011708
1280000000.0 -0.34527290389280074 0.2439338300269325
1300000000.0 0.3950118757310378 0.16722793798693952
1320000000.0 0.41497179291792485 0.10871379895022393
1340000000.0 0.028149584248978673 0.43546418557410815
1360000000.0 0.34773864244413477 0.27890878497993266
1380000000.0 0.031195213967880223 -0.43796068270850913
1400000000.0 -0.2777398024388926 -0.32667599459244456
1420000000.0 0.16008593269693927 0.3748025849338448
1440000000.0 0.2540203217114617 -0.2768743956743427
1460000000.0 0.20815040771490378 -0.2720631233187556
1480000000.0 -0.17167866366448709 -0.2629593236313878
1500000000.0 -0.1181182513689474 0.257702392154417
1520000000.0 -0.19431376490415644 0.16081949357885514
1540000000.0 0.09348357228691945 0.20446603430004112
1560000000.0 -0.1253460897294511 0.15040598825880092
1580000000.0 -0.16927788931899104 0.037954046729562076
1600000000.0 0.012586673899521542 0.13859339579970975
1620000000.0 0.043780695992253225 -0.09091783587780952
1640000000.0 -0.06760186032563487 0.03642677276654666
1660000000.0 0.03130662528582445 0.054329509968868005
1680000000.0 0.03804032609156902 0.01774766913488417
1700000000.0 -0.02143624089767061 0.0042947480288113606
1720000000.0 -0.0037240956187516174 0.007588648368699324
1740000000.0 -0.008217591143957124 0.008122558714314514
1760000000.0 0.024119728439008236 0.012387681979669442
1780000000.0 0.0476912527894629 -0.022016723890404852
1800000000.0 0.0708605101481241 0.061726674096890165
1820000000.0 0.016992332945015304 -0.12384133570788278
1840000000.0 -0.03059175268398038 0.15843134511204954
1860000000.0 -0.07168092917077556 0.18715751275603762
1880000000.0 0.19274649646760436 0.1398476887395814
1900000000.0 0.014132389726590797 -0.279833544169582
1920000000.0 0.26192167238881164 -0.18680863183414947
1940000000.0 -0.32327171294464896 -0.11835598695410926
1960000000.0 -0.3278887926078506 0.16759854519403009
1980000000.0 0.39795516414689897 -0.0016839620398746058
2000000000.0 -0.029550897902859505 -0.4157391591584095
2020000000.0 -0.27340435483548864 -0.3259433624355433
2040000000.0 -0.08991081422611567 0.4232677835094936
2060000000.0 0.11085813189665339 0.4208866202247375
2080000000.0 0.3156262216387341 0.29756448933971635
2100000000.0 -0.017825234269931784 -0.42716769816305633
2120000000.0 -0.14831925686898925 -0.3877190958121919
2140000000.0 -0.0049581789913547055 -0.39744173057154664
2160000000.0 0.27736909824099515 -0.26392355664670447
2180000000.0 0.33811642382668333 -0.15469291130994894
2200000000.0 0.3008922807758267 -0.20159177208951456
2220000000.0 -0.29189496762615236 -0.1978097382128548
2240000000.0 -0.24081788233837845 -0.2501289967728218
2260000000.0 -0.32953681212314984 -0.10537036370606702
2280000000.0 0.13596143420539636 0.32060839068821223
2300000000.0 0.15573218290738136 0.3190729518081035
2320000000.0 0.11825888357133756 0.35826868847186305
2340000000.0 0.05127933700991703 -0.406955499917512
2360000000.0 -0.37634304884466513 -0.24502529113317276
2380000000.0 0.01584485976463306 0.4985710393882749
2400000000.0 -0.5276924544655087 0.18158029859301072
2420000000.0 0.5701268204584103 -0.21463482301422632
2440000000.0 -0.5793277631992092 0.3067151934730502
2460000000.0 -0.6373524901231945 -0.2878428787566781
2480000000.0 0.6275085294816868 0.37496418458269626
2500000000.0 -0.3365872479474554 -0.6732090956187594
2520000000.0 0.7216962955292332 -0.25845814854450583
2540000000.0 -0.5727832777739037 -0.5153828669641825
2560000000.0 -0.36796623877148565 0.6735087483997866
2580000000.0 -0.1207801408950298 -0.7440352483822609
2600000000.0 -0.7207650722343303 0.13596961137042485
2620000000.0 0.1858680950254878 0.6831905819063725
2640000000.0 0.432199343054767 -0.5136636193072813
2660000000.0 -0.5610264237093677 -0.29037403042333343
2680000000.0 -0.020505772861066168 0.5854561772579745
2700000000.0 -0.3393491073118194 -0.41071673466438396
2720000000.0 -0.14759692292938353 0.46160695406009217
2740000000.0 0.4350632571309418 0.028280443303080882
2760000000.0 -0.3856511280413083 0.07966012334371414
2780000000.0 0.3098865525857668 0.18934207362325553
2800000000.0 -0.2011165223738822 -0.272295088478789
2820000000.0 0.18036060480455524 -0.26126862581939064
2840000000.0 -0.014461960900880779 0.30772623229967583
2860000000.0 -0.23550339944960114 -0.18389743811719056
2880000000.0 0.02674687960212029 -0.2908788851247759
2900000000.0 -0.2893961869446649 -0.021935401408524256
2920000000.0 -0.2225895720769316 0.19605862964936666
2940000000.0 0.19800939787300773 -0.23589246944910836
2960000000.0 -0.16752749687021304 -0.26813620917028824
2980000000.0 -0.2941938282882783 -0.12060082804132605
3000000000.0 -0.31797993966181093 0.0013227254293266151
3020000000.0 0.29117016830160436 0.133682292321288
3040000000.0 0.3193756253480414 0.010844879823519902
3060000000.0 0.24993559461999898 0.18664260581211192
3080000000.0 0.21531465803758024 -0.21256677167803606
3100000000.0 -0.07016035354466904 0.2844617940249614
3120000000.0 -0.19464714826265014 -0.20946612766185155
3140000000.0 -0.262973189210425 0.08289459353148088
3160000000.0 0.06353881434013217 -0.2565717269927313
3180000000.0 -0.17213260494720856 0.181133407724172
3200000000.0 0.1858554204402316 -0.14538826739724922
3220000000.0 0.003440449154618347 -0.21143519306271244
3240000000.0 -0.15031167022369665 -0.09677958920714248
3260000000.0 0.032767141815711845 -0.14353457960196156
3280000000.0 0.09823461501720265 0.027733686978970374
3300000000.0 -0.03578727966507941 -0.05695020148640901
3320000000.0 0.02530948779733396 0.03190697143595447
3340000000.0 -0.022445980132132403 -0.006681865610504373
3360000000.0 -0.0121330855046825 -0.004972945899071561
3380000000.0 1.2789342041382884e-06 0.0029293025036569898
3400000000.0 -0.0074136529404474245 0.012401359366529842
3420000000.0 0.033745417487077 -0.008689636428142175
3440000000.0 0.0309206814954395 0.03888206583362562
3460000000.0 0.005619427848121117 -0.06438803144853607
3480000000.0 0.07310903531140156 0.019087077184951496
3500000000.0 0.06744640086381772 -0.052923554035305506
3520000000.0 0.030796895175048196 0.09357804129567805
3540000000.0 -0.07379735036677505 -0.08549731934257317
3560000000.0 -0.017575487438539594 0.11717591988905528
3580000000.0 0.13034234509359746 -0.0316517409610689
3600000000.0 0.09207316355447935 0.12375452390211733
3620000000.0 -0.08880707641427053 -0.1380559216255622
3640000000.0 -0.17608003626111543 -0.039401142254516124
3660000000.0 -0.1830785567922163 -0.04347324455957595
3680000000.0 0.03377221678003564 -0.18779495969732746
3700000000.0 -0.07342235226400785 -0.17733205314625247
3720000000.0 0.10099392511520662 -0.16173726397088029
3740000000.0 0.13836129290585866 0.12110960363337987
3760000000.0 -0.0159548319319421 -0.1798666664590575
3780000000.0 0.09989155944169281 0.14379338487076523
3800000000.0 -0.06680736091530887 -0.15327869442644854
3820000000.0 -0.12695850846627482 0.08941016564626185
3840000000.0 -0.12439389733602159 -0.07460721736673503
3860000000.0 0.08494944666468351 -0.11428095970150758
3880000000.0 0.11763711725235614 0.08514057042922707
3900000000.0 -0.013280723404765927 0.1499061031496773
3920000000.0 0.1492295917459283 0.04292488540394804
3940000000.0 -0.11282358740250172 0.12190212436437035
3960000000.0 -0.09405684786003717 0.14502703171469758
3980000000.0 -0.02758653375302958 0.16817623214313174
4000000000.0 0.1638321227369857 0.0024402628596470045
