!Created with skrf (http://scikit-rf.org).
# Hz S RI R 50.0 
!freq ReS11 ImS11
400000000.0 0.5831879360079207 0.6467140452389677
420000000.0 0.8246714346606904 -0.17908319903052122
440000000.0 0.7519634405541618 -0.26168077294636266
460000000.0 0.6967614149266372 0.2554624862950283
480000000.0 0.025098632107729592 -0.6847906150352046
500000000.0 -0.052266808944813975 0.6007013104875033
520000000.0 0.0804584403478766 0.5041443701794568
540000000.0 -0.2890952879441722 -0.32733812390018807
560000000.0 0.03800044848201711 0.39561707131417223
580000000.0 -0.3481060509118645 -0.08674689109391975
600000000.0 0.34782018175003854 0.04527962123090538
620000000.0 0.17173947379792653 -0.30922281891254244
640000000.0 0.36803147971927 0.19294983083599032
660000000.0 0.2740289889115245 0.31983285445164883
680000000.0 -0.44757205042868164 -0.047477658801648163
700000000.0 0.45603953729033553 0.04771455417569442
720000000.0 -0.2855288455787694 0.3586279181946624
740000000.0 -0.3222531393437793 0.2700891920240731
760000000.0 -0.1203442554556493 -0.38624401687653676
780000000.0 -0.3692162544929156 -0.08449770869793223
800000000.0 -0.3182614017564971 -0.108207685997263
820000000.0 -0.16223090963247871 0.230714002229758
840000000.0 -0.06343610581565151 -0.20368948923433425
860000000.0 -0.16840901791053509 -0.05475730441772822
880000000.0 -0.03893119498951968 0.14161280771532825
900000000.0 -0.09815155011417875 -0.0049528642388741145
920000000.0 -0.030024423610222437 -0.04579925186139467
940000000.0 -0.019135526566977732 -0.028364789949602946
960000000.0 0.004307775758795002 0.037565180342383014
980000000.0 0.048092666550774356 0.03543118954195113
1000000000.0 -0.00017434851353382506 -0.09632488748254198
1020000000.0 0.06501293399243908 -0.09893487226869717
1040000000.0 -0.12742393168615973 0.0334515338789671
1060000000.0 0.12817145176311245 0.09296250586716648
1080000000.0 -0.14085665855643262 0.1170224654184954
1100000000.0 0.07793934176119409 -0.19163491224845053
1120000000.0 0.22500078308482868 0.04057345614734186
1140000000.0 -0.24818338126774792 0.050115554621737626
1160000000.0 -0.23486812481773905 -0.15075334012512992
1180000000.0 0.014640105668189808 -0.310589171214094
1200000000.0 0.29740986886213466 0.18146553239608587
1220000000.0 -0.3301035011068407 -0.18346519408248807
1240000000.0 0.37341527939376823 -0.14047702559868344
1260000000.0 -0.4081277027996562 -0.02891750429416819
1280000000.0 -0.3434737944610286 0.24615098563806492
1300000000.0 0.3889204254834591 0.18029679149700034
1320000000.0 0.4115664119630971 0.12074282181009226
1340000000.0 0.0302251276295307 0.4354042853307268
1360000000.0 0.34833549512852613 0.27855906059670715
1380000000.0 0.028307123918753382 -0.4382311803560168
1400000000.0 -0.2867407684843497 -0.3189043058162569
1420000000.0 0.1646682859773949 0.3728860996004016
1440000000.0 0.2540947101849519 -0.27668224469455
1460000000.0 0.2168492182691089 -0.2653067653734719
1480000000.0 -0.20947949685967804 -0.23392458189467769
1500000000.0 -0.1173380793238031 0.2587832787445752
1520000000.0 -0.19369438971761185 0.1621182470090496
1540000000.0 0.10404865076015297 0.19945918434599688
1560000000.0 -0.1222895538433605 0.15283067613321588
1580000000.0 -0.1679494372601091 0.04311377087394958
1600000000.0 -0.002058398117436709 0.1392383817846805
1620000000.0 0.0517223221517214 -0.0869895409704273
1640000000.0 -0.06884366001274936 0.03465777161283531
1660000000.0 0.030526707381526456 0.05472079648695878
1680000000.0 0.036651739702460724 0.01998704551819418
1700000000.0 -0.013410534212252346 -0.016628804940217505
1720000000.0 -0.0030569084703389302 0.007340566770123725
1740000000.0 -0.00707856761907712 -0.008715969051506466
1760000000.0 0.017818051569289357 0.020411199869356522
1780000000.0 0.05179325129740853 -0.007382641332003143
1800000000.0 0.06930721492978027 0.06347700400205471
1820000000.0 0.022085957456791202 -0.12303678641030685
1840000000.0 -0.03687995449786321 0.15679161439218078
1860000000.0 -0.07752166706311717 0.18466805409229778
1880000000.0 0.19175460993446902 0.14103198686286403
1900000000.0 0.004726592611909992 -0.2800633439415339
1920000000.0 0.2557313752087561 -0.19488086783896763
1940000000.0 -0.3282118319580729 -0.10353689947652457
1960000000.0 -0.3239647293969602 0.1752242025823907
1980000000.0 0.39803123856058453 -0.00705087938945434
2000000000.0 -0.034370378658592986 -0.4154928384784533
2020000000.0 -0.264385292451892 -0.33389082471583786
2040000000.0 -0.07303232535639435 0.4267309400324364
2060000000.0 0.10146585669960038 0.42358502732605596
2080000000.0 0.313363813501095 0.30025416353381695
2100000000.0 -0.009266910920262881 -0.42759725698953077
2120000000.0 -0.15713000748772424 -0.38416191536484595
2140000000.0 0.023706485871257205 -0.39706290363012936
2160000000.0 0.29308790219704595 -0.24674853791561227
2180000000.0 0.3324558402026509 -0.16705245805406074
2200000000.0 0.3083512270408169 -0.19030871275553163
2220000000.0 -0.29323641845956805 -0.19531024503581795
2240000000.0 -0.23322984840265532 -0.25703285422118066
2260000000.0 -0.33200803284898595 -0.09775658823389893
2280000000.0 0.14147486918189645 0.3182592908096248
2300000000.0 0.1633037641943759 0.315404765016216
2320000000.0 0.11664435272397984 0.35855981382511715
2340000000.0 0.05066102728907061 -0.40721599600547015
2360000000.0 -0.37626866025363404 -0.2451383140290066
2380000000.0 0.01859213775560328 0.4984567600181497
2400000000.0 -0.5374160737434694 0.1507918542474681
2420000000.0 0.5792239391577138 -0.18872736052943295
2440000000.0 -0.5817643735614427 0.30230243952119557
2460000000.0 -0.6464043606504613 -0.26699808890783494
2480000000.0 0.6461277182647707 0.34160733910920243
2500000000.0 -0.3430610972759082 -0.6700660803464259
2520000000.0 0.7143544767886922 -0.277823575412735
2540000000.0 -0.56279510344511 -0.5265466133348541
2560000000.0 -0.33272858737712135 0.6916172950435359
2580000000.0 -0.06861788908966494 -0.7509589482059854
2600000000.0 -0.7251351525902207 0.11196072002591455
2620000000.0 0.12602032277169173 0.697055183560113
2640000000.0 0.424172157170596 -0.5208624508323301
2660000000.0 -0.5541888121137485 -0.30342120232484704
2680000000.0 -0.07680646129328407 0.5808352759544514
2700000000.0 -0.31458474592277064 -0.43007338550762003
2720000000.0 -0.17481665940292032 0.45205248456261005
2740000000.0 0.4349263031376301 0.026065220201534033
2760000000.0 -0.3882924773108256 0.06418515977784975
2780000000.0 0.2977977406277276 0.2075078421775788
2800000000.0 -0.1999997164115669 -0.27309655392013465
2820000000.0 0.17890342886854588 -0.262335358296012
2840000000.0 -0.02172758007825206 0.3078087560726737
2860000000.0 -0.223416792909448 -0.1988243669794225
2880000000.0 0.011064602410667613 -0.2918104793069787
2900000000.0 -0.28948568387316803 -0.01978474849954967
2920000000.0 -0.2282286455631103 0.18976606719338965
2940000000.0 0.19590580097053478 -0.23785461294909802
2960000000.0 -0.14621515005355068 -0.28100281717462305
2980000000.0 -0.2789045766488697 -0.15284514927406048
3000000000.0 -0.31660927447548276 -0.02830057841583347
3020000000.0 0.2847958811155195 0.14753082295707376
3040000000.0 0.3076588315981263 0.08691991380897451
3060000000.0 0.23643842254139233 0.2039842504882443
3080000000.0 0.23256890172807457 -0.19387770775631594
3100000000.0 -0.09911061806230723 0.2758644256909841
3120000000.0 -0.12160332555236358 -0.258284988878681
3140000000.0 -0.262002339580381 0.08709197103616359
3160000000.0 0.07997252805900397 -0.2516381787935429
3180000000.0 -0.17842123154173956 0.17445011348597822
3200000000.0 0.19240165255697372 -0.13612693521646915
3220000000.0 0.0063425100565593215 -0.21097531995489296
3240000000.0 -0.1489366591705991 -0.09823477031922236
3260000000.0 0.031049014727078515 -0.14381809987630045
3280000000.0 0.10132108081981503 0.011658673963131966
3300000000.0 -0.02420776019165618 -0.06265636241431695
3320000000.0 0.036695531345035795 0.017393383478333066
3340000000.0 -0.023128883548045907 -0.0024884274979762658
3360000000.0 -0.009438155945816089 -0.008998694049948094
3380000000.0 -0.0012358187786092544 -0.0024480961186401865
3400000000.0 -0.010492650564836396 0.010056869015829068
3420000000.0 0.03472127220068345 0.00199312624782383
3440000000.0 0.025699126332031825 0.042424986334285715
3460000000.0 0.004754109294085651 -0.06454663210307154
3480000000.0 0.07193762323948394 0.02300474628619067
3500000000.0 0.06537678614593444 -0.055171321507400894
3520000000.0 0.03212744885862522 0.09305661295642902
3540000000.0 -0.060298218325130395 -0.09525852826076626
3560000000.0 -0.019173771729644844 0.11714403225340567
3580000000.0 0.13273867331129605 -0.019825653288686684
3600000000.0 0.0998011970039478 0.11826494477599257
3620000000.0 -0.0893298657344313 -0.1375712420443298
3640000000.0 -0.17553721688880952 -0.040993615747701884
3660000000.0 -0.17876718718271117 -0.05794147905711649
3680000000.0 0.040462659965983465 -0.18643883390674185
3700000000.0 -0.05686482264241215 -0.1832633992890901
3720000000.0 0.11005879382159811 -0.1554582515648029
3740000000.0 0.1279005755503023 0.13207684164646116
3760000000.0 0.010396356455538413 -0.18021824969673803
3780000000.0 0.06344428157565912 0.1635670426853221
3800000000.0 -0.03458837437612376 -0.16359460241006582
3820000000.0 -0.1390788716607376 0.06884089041229341
3840000000.0 -0.11312180042092149 -0.09044581899956158
3860000000.0 0.11409744984085227 -0.08513499154681162
3880000000.0 0.09859799175588611 0.10660055177235471
3900000000.0 -0.030895998867414648 0.14716793280528906
3920000000.0 0.1435835876423188 0.058918451130563376
3940000000.0 -0.12926775491629675 0.10469040466520053
3960000000.0 -0.11041666686334263 0.1331511306011217
3980000000.0 -0.07640754356891628 0.15246326216409115
4000000000.0 0.15713456267801115 0.04555705651069769
