! Created with skrf (http://scikit-rf.org).
# Hz S RI R 50.0 
!freq ReS11 ImS11
400000000.0 -0.7796852775055998 0.34711274012265614
420000000.0 -0.12052128844098915 0.8529817139572078
440000000.0 0.7772199617483367 0.29280457385512326
460000000.0 0.5486401406596708 -0.5714184054539977
480000000.0 0.4682211685803055 0.5438902030162918
500000000.0 0.44364805960300474 -0.3871015732389794
520000000.0 -0.033695599417937136 -0.5054050667161752
540000000.0 0.3305009362662116 0.30173761547616434
560000000.0 -0.23484011851013817 -0.31019898520487743
580000000.0 0.25721258174712985 -0.2562465230163251
600000000.0 -0.35349887948011216 -0.057281489578477805
620000000.0 0.3606638742857457 -0.10186781694077265
640000000.0 -0.1339875483212877 -0.37293798293641306
660000000.0 -0.36764671827664425 -0.17376747191702607
680000000.0 -0.12944800489648417 -0.39837602546233813
700000000.0 -0.41346299274711945 -0.09103752180186804
720000000.0 -0.35174414133463366 0.22318048146556493
740000000.0 0.37941760922987067 -0.14308841028643632
760000000.0 -0.14902188909255912 -0.35993628651982645
780000000.0 0.15992736991944004 0.32072653864837414
800000000.0 0.2776221973323864 -0.16524029603214319
820000000.0 -0.277866309391816 -0.017704221921364952
840000000.0 -0.13158487581046102 0.19990312341787386
860000000.0 -0.14375232035042274 -0.14547952458517427
880000000.0 0.01473185934573953 -0.16189563410615163
900000000.0 0.1005395664255407 -0.032985575770123385
920000000.0 -0.07093347926244216 0.019882991704246553
940000000.0 -0.022770473496611113 -0.04136218187927948
960000000.0 0.015279705364829945 -0.048825144098839084
980000000.0 0.045543022609063795 -0.05442618122562644
1000000000.0 0.07215030560193021 0.04358101957547812
1020000000.0 -0.03395295417847006 -0.10137363115726167
1040000000.0 0.07922751064203294 0.09246490871226826
1060000000.0 0.15886970653370666 0.00533641923364698
1080000000.0 0.17367335691290353 0.016964668097419526
1100000000.0 -0.19883673981864994 -0.0074484551236688856
1120000000.0 0.21832969410693245 -0.008234507030573657
1140000000.0 -0.15542741552416103 -0.19591836724793166
1160000000.0 -0.2351183194509931 -0.15394493225548808
1180000000.0 -0.11944150403892606 -0.2893873627807236
1200000000.0 0.238706259376693 -0.24490335332145874
1220000000.0 -0.2516232455162475 0.2654524729802539
1240000000.0 0.38581388080280465 -0.04241223253496157
1260000000.0 -0.13395595574080182 -0.38798761254506836
1280000000.0 -0.3280942601386977 0.27441263257384146
1300000000.0 0.28917013752954474 0.33025480267309093
1320000000.0 0.40473726961225553 -0.1694679493586011
1340000000.0 0.43057768123111045 -0.09012385680017364
1360000000.0 0.4256378399297675 -0.10844668431697005
1380000000.0 0.19642415521626286 -0.392796470709085
1400000000.0 -0.4199711208072475 -0.07852514424184359
1420000000.0 0.04734696048015947 0.4057801629758893
1440000000.0 0.36636834026399345 -0.10536519614072654
1460000000.0 -0.023739257805403542 -0.3503666110516748
1480000000.0 -0.3121181961117792 0.0690037791202703
1500000000.0 -0.045677164506246606 0.2811863760545762
1520000000.0 0.14326535630979267 0.21148264582555612
1540000000.0 -0.21352374248720196 -0.0721612179859538
1560000000.0 0.13079706065452576 -0.1409958318151469
1580000000.0 0.12258424563012826 0.10710836646714925
1600000000.0 0.12324906943217191 -0.047227048109974766
1620000000.0 0.09380938602040306 0.037072911461991105
1640000000.0 -0.07681898886540924 0.0054300804088778
1660000000.0 0.033948108615327176 -0.04208004506801121
1680000000.0 0.007123824215590562 0.03447669179197663
1700000000.0 0.001593841159869354 0.02021423647141468
1720000000.0 -0.002773509713704567 -0.005185609842541843
1740000000.0 -0.0010382705115424388 -0.017722888980782586
1760000000.0 0.03458354004124222 0.003208805787315137
1780000000.0 0.050374676260010985 -0.039250428107361235
1800000000.0 -0.033282141321240216 0.09036709951589028
1820000000.0 0.057525421247625295 0.11361344103443186
1840000000.0 0.02113325185535492 -0.16368057374767458
1860000000.0 -0.1033979420970654 0.17542504381270785
1880000000.0 0.13819825580486464 -0.2012488851831074
1900000000.0 -0.16419177509750676 0.2338385323430958
1920000000.0 0.13894742661108458 -0.2901873987324523
1940000000.0 -0.30714392831795323 0.17403312153507025
1960000000.0 0.37187003049352846 0.0767480476851494
1980000000.0 -0.09160567024754221 -0.38761037026889406
2000000000.0 -0.39634559778532263 -0.12265672958791225
2020000000.0 -0.18865288740309075 0.3828227008445638
2040000000.0 0.19523061621125648 0.3869371320820999
2060000000.0 0.4256269920337542 -0.09040308516125845
2080000000.0 0.2126030067548702 -0.3741859778049508
2100000000.0 -0.03125975752902211 -0.4229409985092524
2120000000.0 -0.16871195256432525 -0.37958100163576813
2140000000.0 -0.3638701736131294 -0.17983631118714943
2160000000.0 -0.00034011758187031736 -0.3927253932254479
2180000000.0 -0.24036949693204185 -0.2929461545475405
2200000000.0 -0.36558555533134157 -0.033054101159860794
2220000000.0 -0.2607573917735449 0.24219503261183994
2240000000.0 -0.010685621306933435 0.35271407647468617
2260000000.0 0.19902668696174466 0.2909176706340844
2280000000.0 0.3513181202023838 0.05976823990757358
2300000000.0 0.11907270605397365 -0.3501354559499336
2320000000.0 -0.33999400973136723 -0.19769827935834836
2340000000.0 -0.059513802537669025 0.42189987756554864
2360000000.0 0.32172298455215975 -0.33864464086222607
2380000000.0 -0.3891253553575319 0.33413045786009593
2400000000.0 0.3472141476672641 -0.44285619432501844
2420000000.0 -0.015334796072683387 0.6119477000798126
2440000000.0 -0.43894010641281284 -0.48905024004320446
2460000000.0 0.6916414264243944 0.0602538418761588
2480000000.0 -0.6699575017647351 0.26873810977205503
2500000000.0 0.6748834131758945 -0.3026593821266749
2520000000.0 -0.7457755409018856 0.06163998009162626
2540000000.0 0.7095476404168062 0.23846192042867703
2560000000.0 -0.2762375191033913 -0.6889371122985041
2580000000.0 -0.46541229511588683 0.5581162324206711
2600000000.0 0.6986276586159407 0.07352625379821744
2620000000.0 -0.3005188713150302 -0.600882156962105
2640000000.0 -0.43796792189658 -0.4602791740541958
2660000000.0 -0.1681020252659387 0.5674079903972991
2680000000.0 0.5421923961467287 -0.07115837246909108
2700000000.0 -0.3437331146085027 -0.36493463092691736
2720000000.0 -0.01928196589269998 0.4545342787575702
2740000000.0 0.3508104919469904 -0.2157246038040341
2760000000.0 -0.3735831843703397 -0.01578800576818536
2780000000.0 0.3338456159962348 0.08087390261117908
2800000000.0 -0.31941180513542744 0.014695231756086242
2820000000.0 0.1754155197941499 -0.24653030361566092
2840000000.0 0.1054796871194388 0.272074209057267
2860000000.0 -0.2837535321035245 -0.05119597575840172
2880000000.0 0.16154151699243594 -0.23694391292852943
2900000000.0 -0.03984634121142089 0.28488689651260724
2920000000.0 0.21096181513540982 -0.20168598808152413
2940000000.0 -0.2939428698288922 -0.04392946303031898
2960000000.0 -0.18164110105891496 0.2386218558864181
2980000000.0 -0.17004174252250812 0.25156758240215193
3000000000.0 -0.2952642940337988 0.08558340102744096
3020000000.0 -0.17823343609673634 -0.2506137107091518
3040000000.0 0.2897741341363491 -0.09729658799361386
3060000000.0 -0.1969967305373606 0.230200941990443
3080000000.0 0.1357663012919397 -0.26692811870256405
3100000000.0 -0.0003417109785248453 0.29482573820385805
3120000000.0 -0.08032483879731453 -0.27428020097403094
3140000000.0 0.16566733340761222 0.22292018472413846
3160000000.0 -0.2635259616787534 -0.02299476890162934
3180000000.0 0.18011480166360408 0.17101134570073248
3200000000.0 -0.16802871970775463 0.15128409337489243
3220000000.0 -0.14782757523731752 -0.13462914333082357
3240000000.0 0.130156031279453 -0.10894394689403002
3260000000.0 -0.055618945785014286 0.12525831451884784
3280000000.0 0.06562553393552928 -0.08318694050855649
3300000000.0 -0.06728301226301349 0.039095527240953165
3320000000.0 0.026808351681630097 0.043047403177374856
3340000000.0 0.0023539461868824782 -0.027720661172389346
3360000000.0 0.009204539327883515 0.001003958033829137
3380000000.0 0.0029687247046172637 0.0069149300543424694
3400000000.0 0.020081106769418336 -0.002892052154386723
3420000000.0 -0.032440824657094164 -0.004698902035877206
3440000000.0 -0.04213875682592035 -0.008285799117455323
3460000000.0 -0.044315606218852686 -0.025964285254831874
3480000000.0 0.06129754791196893 -0.007605650289477714
3500000000.0 0.060746975711630465 -0.04565169049361183
3520000000.0 -0.06639547875629169 -0.06309299847127092
3540000000.0 0.09034832507424302 -0.05579567151213855
3560000000.0 -0.08783583564918446 0.08073801853476516
3580000000.0 0.10658119131499513 -0.07924873786162455
3600000000.0 0.00697657829878108 0.15138795638076952
3620000000.0 -0.03994019971425272 0.15854969581058914
3640000000.0 -0.1699514024334898 0.04417470754224795
3660000000.0 -0.18370393361576967 0.028568783881671465
3680000000.0 -0.1763807057224869 -0.07049167284883763
3700000000.0 -0.11797251154541352 -0.14895141361865114
3720000000.0 0.09139979993699567 -0.16546701390964244
3740000000.0 0.17419234783055074 -0.06061490150255971
3760000000.0 -0.1731275213035299 0.04123737980858074
3780000000.0 0.1682540790166857 0.0016120818654131693
3800000000.0 0.030627764744969956 -0.15546891318448464
3820000000.0 -0.02887851000916985 -0.14925432858156937
3840000000.0 0.10447479405279653 -0.10219629486218558
3860000000.0 0.09886716213129002 0.10918393515753605
3880000000.0 0.07101601121380556 0.13595626601814217
3900000000.0 0.14112628959305426 -0.0687393553218546
3920000000.0 -0.1583203419337581 -0.0410798333250434
3940000000.0 0.15919921116436758 -0.05291062833348448
3960000000.0 0.1446311586581693 0.0935937815313174
3980000000.0 0.13155600204432316 -0.11207350125569444
4000000000.0 0.028475062204316517 -0.1633193138676961
