! Created with skrf (http://scikit-rf.org).
# Hz S RI R 50.0 
!freq ReS11 ImS11
400000000.0 -0.7678604981380158 0.37793763381044093
420000000.0 -0.11300808717078524 0.8538794363954285
440000000.0 0.7586897363963442 0.33726413459903937
460000000.0 0.5569536808440382 -0.5640670967218536
480000000.0 0.4835615643882372 0.5303821711685314
500000000.0 0.4228352268322791 -0.4087283622083032
520000000.0 -0.019742508690228033 -0.505777217561726
540000000.0 0.2955705860478612 0.33664689764923067
560000000.0 -0.26617151079245777 -0.2847076233666636
580000000.0 0.2341135744132777 -0.276100267998365
600000000.0 -0.324162036203418 -0.1529488982361819
620000000.0 0.3673371948965943 -0.07965591852468995
640000000.0 -0.11098408189897807 -0.3806196714377831
660000000.0 -0.36160810544539196 -0.18488005501804353
680000000.0 -0.12107160970668449 -0.4009615927125296
700000000.0 -0.40612915116781295 -0.11750046083626141
720000000.0 -0.35188336884993054 0.22335813138425725
740000000.0 0.3839593989829331 -0.13203849392719894
760000000.0 -0.1542768938705773 -0.3586679077398799
780000000.0 0.15780720089651665 0.3211438855037453
800000000.0 0.2598746091995474 -0.19254998843556634
820000000.0 -0.27861887418355835 0.001708714959309515
840000000.0 -0.13555423031520752 0.19745134133584277
860000000.0 -0.1598075531493601 -0.1276820004106264
880000000.0 0.011525346334660572 -0.1624938452486093
900000000.0 0.09839606760461726 -0.03966074694788115
920000000.0 -0.07006725990055027 0.02468260595902237
940000000.0 -0.014651101888469027 -0.04491210543609462
960000000.0 0.01359705067121322 -0.048816336179177716
980000000.0 0.024475785454416053 -0.06692266748128559
1000000000.0 0.07737064575340377 0.034677563924306425
1020000000.0 -0.033778711800517294 -0.10143833931465894
1040000000.0 0.06520562049096253 0.1027332804568718
1060000000.0 0.15874393979486345 0.0015821001858388414
1080000000.0 0.17225897227108505 0.029675904608472567
1100000000.0 -0.19869855392168576 -0.010099882192645812
1120000000.0 0.21807944580015093 0.014921566073001921
1140000000.0 -0.1423397537155114 -0.20546916415183478
1160000000.0 -0.22923100619661774 -0.1627024326931057
1180000000.0 -0.1164900305358092 -0.29063382141948557
1200000000.0 0.24128710609964774 -0.2427246801949726
1220000000.0 -0.25126237946714475 0.265853817889718
1240000000.0 0.38671538730574373 -0.032274291995449025
1260000000.0 -0.12335286548700486 -0.3913115193129501
1280000000.0 -0.326536230524384 0.27578357397233644
1300000000.0 0.27911686463518565 0.3385554521846555
1320000000.0 0.4086500026707212 -0.16053470146654955
1340000000.0 0.4327867917172616 -0.07865571076222752
1360000000.0 0.4267848697434575 -0.10293397832960093
1380000000.0 0.20145406200505342 -0.3901010265172594
1400000000.0 -0.42164661994348784 -0.06919306533947595
1420000000.0 0.033136983810904706 0.407221304965713
1440000000.0 0.3661525577438468 -0.10606767359016729
1460000000.0 -0.04383878473523887 -0.34814059062667635
1480000000.0 -0.31879579362943916 0.024869905412388392
1500000000.0 -0.04682985267496592 0.28114459466840774
1520000000.0 0.12303299562788786 0.22398511235899596
1540000000.0 -0.19813362952549163 -0.10771635356752053
1560000000.0 0.1175858063253797 -0.15221365091183509
1580000000.0 0.10534928504855047 0.12422718834007523
1600000000.0 0.12796061296054576 -0.03426399612117987
1620000000.0 0.09227809995343945 0.042118783821961256
1640000000.0 -0.07528775664267749 -0.01748055747535773
1660000000.0 0.0443172172919015 -0.03053647559184028
1680000000.0 0.004881267216363285 0.03478441376847947
1700000000.0 -0.00391078596179914 0.019899953800474185
1720000000.0 -0.004610941914980447 0.0040519657279519386
1740000000.0 0.008836206637074392 -0.015804452884255943
1760000000.0 0.02693387745262702 0.0215965687196724
1780000000.0 0.049839407666723165 -0.04003980789234064
1800000000.0 -0.041290729446496505 0.0868976241164987
1820000000.0 0.03696690712635961 0.12172467438668141
1840000000.0 0.033291688837383725 -0.16154309790786806
1860000000.0 -0.10755336217324828 0.17248867315717067
1880000000.0 0.14794226998488716 -0.1938837777731685
1900000000.0 -0.1638614708172594 0.23373185661805998
1920000000.0 0.13523637294693325 -0.29167763568287264
1940000000.0 -0.306833231707688 0.17433601944168597
1960000000.0 0.37254556597355315 0.07258473803382433
1980000000.0 -0.10894843710291487 -0.38296885828513705
2000000000.0 -0.4028320241468227 -0.0988289237235681
2020000000.0 -0.13285741347055663 0.4056474704581095
2040000000.0 0.17937821937940351 0.39495028215841005
2060000000.0 0.4205844705328895 -0.1127202598564979
2080000000.0 0.20258156101565347 -0.38036822836979856
2100000000.0 -0.026058692321342284 -0.4237095325950433
2120000000.0 -0.13922747957981393 -0.3920044581842917
2140000000.0 -0.36485383676465905 -0.1784103227862354
2160000000.0 0.03546605935626177 -0.39153989826094887
2180000000.0 -0.22028809022496848 -0.30868453323283446
2200000000.0 -0.36217683968509023 -0.06226112136304313
2220000000.0 -0.28264467571267504 0.21651263157203743
2240000000.0 -0.04263684588273045 0.34999029333874054
2260000000.0 0.18044019347383528 0.30296352487948447
2280000000.0 0.3483696317751447 0.07467300501717145
2300000000.0 0.12317782334845266 -0.3482857351509127
2320000000.0 -0.3434648716597225 -0.19107806597087518
2340000000.0 -0.06456835353522984 0.4205819489548674
2360000000.0 0.3099035974346324 -0.34903532960239236
2380000000.0 -0.3564127207563935 0.3689920691628595
2400000000.0 0.32752301750741625 -0.4579481773825059
2420000000.0 0.014151760941077505 0.6123687059606353
2440000000.0 -0.47039577659562737 -0.4596326162853437
2460000000.0 0.6938509912470706 0.03352427064758029
2480000000.0 -0.6698134719253488 0.2708367082108891
2500000000.0 0.6752216292394568 -0.3030411716320477
2520000000.0 -0.7434944361697872 0.08812840163814087
2540000000.0 0.7041864014759873 0.2547005406717559
2560000000.0 -0.27890199324750514 -0.6879932553056183
2580000000.0 -0.4915742905154274 0.535036957120555
2600000000.0 0.6974930584620703 0.08377995874552414
2620000000.0 -0.25284338993430794 -0.6223736257940258
2640000000.0 -0.4146156020087373 -0.4807825461765466
2660000000.0 -0.18553709937908996 0.5613939528984854
2680000000.0 0.5453367575162786 -0.027236027599413036
2700000000.0 -0.33062667813522617 -0.3760518600234222
2720000000.0 -0.02982783699669753 0.453510801772802
2740000000.0 0.33163372932024926 -0.24421744444134502
2760000000.0 -0.3737095956320588 -0.003590611950693611
2780000000.0 0.33125325346411133 0.08964353949795456
2800000000.0 -0.31922221337012097 0.014257755291971692
2820000000.0 0.16791870347104007 -0.25197753779078097
2840000000.0 0.12373256553580657 0.2647637809700007
2860000000.0 -0.2878202695766635 -0.015036894729441922
2880000000.0 0.16752422855554647 -0.2329942800459537
2900000000.0 -0.051455966422112746 0.28347305482827506
2920000000.0 0.19227758876144274 -0.21937088997647175
2940000000.0 -0.29660968892907585 -0.010522082317646427
2960000000.0 -0.19998380228321475 0.22337944220759817
2980000000.0 -0.17758920563414748 0.24665282228455354
3000000000.0 -0.29046332012367987 0.09853313918517338
3020000000.0 -0.18988378407582715 -0.24168656912796943
3040000000.0 0.2873817088809395 -0.1040684733566525
3060000000.0 -0.18443804115199391 0.2410155146796268
3080000000.0 0.12071091172868592 -0.2740595889025265
3100000000.0 -0.04067000717009762 0.291590258597405
3120000000.0 -0.10503156474245089 -0.266448019739709
3140000000.0 0.18555484607736447 0.2072149915982196
3160000000.0 -0.26447346352863554 -0.014212925138977093
3180000000.0 0.17515913945480985 0.1765857578801932
3200000000.0 -0.17419860901771334 0.14430193539407687
3220000000.0 -0.14513189833254916 -0.1377590878109846
3240000000.0 0.13805605125115508 -0.09853652249418607
3260000000.0 -0.07200532802470096 0.11649412885439842
3280000000.0 0.06861232412310066 -0.0804760919271713
3300000000.0 -0.07692868267514377 0.01001640369177482
3320000000.0 0.00918205490675167 0.04994783738268356
3340000000.0 0.003915362742930397 -0.02729440528255577
3360000000.0 -0.005058349184886872 -0.006881331174743698
3380000000.0 0.001090154843778988 -0.007765564136447306
3400000000.0 0.018723590342898968 -0.008434250925806278
3420000000.0 -0.03338878245475383 0.000688418336555557
3440000000.0 -0.03777988145345409 -0.021094964710268345
3460000000.0 -0.03026024912389051 -0.04183901291314498
3480000000.0 0.057116612345809226 0.02414175696090962
3500000000.0 0.07405476988812114 -0.017874680072582756
3520000000.0 -0.0760644768804764 -0.05194063577161834
3540000000.0 0.10375181968475368 -0.022307309591309197
3560000000.0 -0.0936827430926842 0.07460706141788084
3580000000.0 0.11473316932459562 -0.06781769741881088
3600000000.0 -0.0033053689465410256 0.1516632586547004
3620000000.0 -0.062866247395193 0.15106871682471656
3640000000.0 -0.17532830399019345 0.004585419825012213
3660000000.0 -0.18510656166723893 -0.012450028438431125
3680000000.0 -0.1602306474492067 -0.10169410235729281
3700000000.0 -0.09440483866022986 -0.16421334108651162
3720000000.0 0.11970110839164969 -0.14611137731568635
3740000000.0 0.1771191021469734 -0.049061593918527366
3760000000.0 -0.1714403350110981 0.04471415572489329
3780000000.0 0.16708578340306707 -0.007600551904097026
3800000000.0 0.02811838792369058 -0.15554360753961038
3820000000.0 -0.02899972676096892 -0.1487979975890467
3840000000.0 0.11159198578618484 -0.0938645197641343
3860000000.0 0.08728388353636005 0.11855871175012833
3880000000.0 0.07048985591540256 0.13603524738066897
3900000000.0 0.1388615523699945 -0.07283557324857083
3920000000.0 -0.15855788377618155 -0.03885043604492734
3940000000.0 0.15545222391058336 -0.06161721253625066
3960000000.0 0.15300601848497608 0.07832673869374576
3980000000.0 0.1398918152675626 -0.10084954071957007
4000000000.0 0.05386824418120823 -0.15659690371073798
