! Created with skrf (http://scikit-rf.org).
# Hz S RI R 50.0 
!freq ReS11 ImS11
400000000.0 -0.7803192842196456 0.34624886209915995
420000000.0 -0.1253750812855425 0.8523994516806307
440000000.0 0.7751695702038394 0.29731703233472545
460000000.0 0.5428667035753159 -0.5768777902331645
480000000.0 0.4574941930723871 0.5535071429214862
500000000.0 0.4426979003817262 -0.38875805636412814
520000000.0 -0.01878925341262189 -0.5055723088303302
540000000.0 0.3042203854054439 0.3283996006997424
560000000.0 -0.25374123488297556 -0.29542759301744365
580000000.0 0.2499143586434425 -0.2638585251723441
600000000.0 -0.3566118229082248 -0.03269792697233526
620000000.0 0.3662686972058266 -0.07886948790199824
640000000.0 -0.039084665012064514 -0.39451847109870164
660000000.0 -0.37165586373233667 -0.16523193555644947
680000000.0 -0.16208794846091587 -0.38647392693536786
700000000.0 -0.4077297499964402 -0.10836686972278288
720000000.0 -0.36524075448895854 0.20180525887262032
740000000.0 0.38807014300096515 -0.11961639310014971
760000000.0 -0.16242099455720782 -0.3545645474481863
780000000.0 0.1695058102207331 0.3147964435136872
800000000.0 0.25138038459013723 -0.20360111659311472
820000000.0 -0.277989425527134 -0.01457772058984635
840000000.0 -0.12990198730900024 0.2011153379216402
860000000.0 -0.1532063963040627 -0.1351936379270541
880000000.0 0.010355579572613433 -0.16227316346021287
900000000.0 0.09688481197023593 -0.04175248905976421
920000000.0 -0.06912746214719599 0.026727394063650246
940000000.0 -0.0055951780524798505 -0.04708975264563481
960000000.0 0.010674861338946713 -0.04960200831163299
980000000.0 0.027232691628789853 -0.06545981345858462
1000000000.0 0.07264016619916425 0.04271076610334364
1020000000.0 -0.030584480512936912 -0.10238587156148818
1040000000.0 0.08088473909706119 0.0911937487978772
1060000000.0 0.15821579644914505 -0.014068836337621885
1080000000.0 0.17368891506277664 0.019322212277488027
1100000000.0 -0.19901363802857963 -0.007600767573436218
1120000000.0 0.21835619586601882 0.008444763603146655
1140000000.0 -0.15409320303741486 -0.19666404768194784
1160000000.0 -0.2275478040620672 -0.16497854626906855
1180000000.0 -0.118415048860972 -0.28991730450285047
1200000000.0 0.23956257333310424 -0.24382229594616145
1220000000.0 -0.25686113849961234 0.26012066830863834
1240000000.0 0.38637214207270076 -0.035559520246790974
1260000000.0 -0.11357072384272252 -0.3942607099906346
1280000000.0 -0.32156941818245643 0.28181546217402603
1300000000.0 0.3014205663314638 0.3188449883547229
1320000000.0 0.40131689008119403 -0.1781769122645058
1340000000.0 0.4283763982985223 -0.10054773628383741
1360000000.0 0.42781448598348226 -0.09846853060374332
1380000000.0 0.18418806627008197 -0.3981833775242103
1400000000.0 -0.42213652240615934 -0.06798214569316632
1420000000.0 0.020066306362024052 0.4086380544402588
1440000000.0 0.36116152939467333 -0.1224883401857317
1460000000.0 -0.04016358298865633 -0.34865981791101675
1480000000.0 -0.3191778546827941 0.017222419971182183
1500000000.0 -0.06517234758467023 0.2773510453017473
1520000000.0 0.1297236147596911 0.22012796126274425
1540000000.0 -0.19823986640226665 -0.10708111532596551
1560000000.0 0.12171643068986848 -0.14862742644919127
1580000000.0 0.10405759535536947 0.12536073807342993
1600000000.0 0.11689447820499711 -0.061213638420557506
1620000000.0 0.08691546303981175 0.05115514728966979
1640000000.0 -0.0771749453088576 -0.0041743070984298905
1660000000.0 0.03728297114743269 -0.03911755758137141
1680000000.0 0.0190322581317943 0.02937508603530553
1700000000.0 0.008355921144873022 0.0184839349508659
1720000000.0 0.0033838399730376865 -0.005154754094953982
1740000000.0 -0.007867702854610446 -0.015949036137018972
1760000000.0 0.030519297595872266 0.015222004710715931
1780000000.0 0.049487097823552484 -0.04058411265155155
1800000000.0 -0.01202500800070056 0.0956975648064079
1820000000.0 0.057639245718796736 0.1135436676586115
1840000000.0 0.032348024513570044 -0.16189132305877205
1860000000.0 -0.09967148575168477 0.17768882569223818
1880000000.0 0.1379610957910068 -0.2014963484713037
1900000000.0 -0.1613473731595088 0.23600729407627496
1920000000.0 0.1440625726404511 -0.28772105041368967
1940000000.0 -0.3131927291875919 0.16307592357614054
1960000000.0 0.37188368238947606 0.07714837678931126
1980000000.0 -0.08797681887111204 -0.38855385166834794
2000000000.0 -0.39702313990764887 -0.1204631538095332
2020000000.0 -0.15519125810620213 0.3975310708226931
2040000000.0 0.16315881317319125 0.40166353965592755
2060000000.0 0.4219889541822244 -0.10599975737242286
2080000000.0 0.20401190274688574 -0.3793354031649922
2100000000.0 -0.015335610188320584 -0.4240155627003736
2120000000.0 -0.15174026019170306 -0.3869977405500723
2140000000.0 -0.3706468976309569 -0.16534784618119538
2160000000.0 0.015039216841282248 -0.3928369245798833
2180000000.0 -0.2428848359840285 -0.291212007465315
2200000000.0 -0.36620077171924537 -0.029541750708570732
2220000000.0 -0.26665663548572965 0.23606426262122088
2240000000.0 -0.0209318457904196 0.3526666716679573
2260000000.0 0.18228526128984163 0.30173649746616893
2280000000.0 0.34889665451791485 0.0734802653970712
2300000000.0 0.12878585941090848 -0.3467930424861483
2320000000.0 -0.3415331590277585 -0.19548354674292992
2340000000.0 -0.04335493707252558 0.42424202092733865
2360000000.0 0.30302641783651846 -0.35595051524549665
2380000000.0 -0.37123119582987546 0.35457644510644243
2400000000.0 0.30688280662150935 -0.4723890060768807
2420000000.0 0.05975270158618082 0.6096666323527733
2440000000.0 -0.4927095405800679 -0.4356815675404467
2460000000.0 0.6944122001406837 -0.01698010875229905
2480000000.0 -0.6341501627116989 0.34558149817855316
2500000000.0 0.6888805778260021 -0.27116404170592795
2520000000.0 -0.7429679095263502 0.09084462597917396
2540000000.0 0.7251599588417292 0.18562426583084463
2560000000.0 -0.3199095718939308 -0.6696740814387624
2580000000.0 -0.3917201147771486 0.6114811804123387
2600000000.0 0.6998487140441105 0.05934450184719672
2620000000.0 -0.29351766267064056 -0.6035066941430213
2640000000.0 -0.47772705714026675 -0.4175049594244124
2660000000.0 -0.15850169312875104 0.5690616492621287
2680000000.0 0.5405366416637287 -0.07372058899502715
2700000000.0 -0.3543320764828393 -0.3531749471580051
2720000000.0 -0.0009889464646420482 0.4538591383417061
2740000000.0 0.3447531083538225 -0.2236776972836385
2760000000.0 -0.3730945314998379 -0.0012688157495195124
2780000000.0 0.33718243463107717 0.06098017089650666
2800000000.0 -0.31758598357159806 0.029025050374895826
2820000000.0 0.17258349782045973 -0.2482344711182532
2840000000.0 0.11790539020264057 0.26687277263157233
2860000000.0 -0.28768593082405747 -0.009957624675944745
2880000000.0 0.15739499274983823 -0.23940812286213956
2900000000.0 -0.0420737309356446 0.2843835854302276
2920000000.0 0.20209091880239724 -0.21033319920058144
2940000000.0 -0.296658219731496 0.00959457613170332
2960000000.0 -0.17440306066091066 0.24342365026442073
2980000000.0 -0.20766860820404928 0.22104317720217337
3000000000.0 -0.3011359263656455 0.05667731545779546
3020000000.0 -0.20863298461397167 -0.22465533075029204
3040000000.0 0.2804727656625358 -0.1192766653009727
3060000000.0 -0.2010927984377907 0.22616490110734822
3080000000.0 0.11070537542593108 -0.27806532319846267
3100000000.0 -0.008259389005237455 0.29382755218327894
3120000000.0 -0.12483841147078041 -0.25710722482435044
3140000000.0 0.184806934009047 0.20700229430129116
3160000000.0 -0.2640225852122755 -0.005879843708868634
3180000000.0 0.1862522082809327 0.16368780876515365
3200000000.0 -0.1575492993126548 0.1618044852692566
3220000000.0 -0.16526418270138465 -0.11315008884564606
3240000000.0 0.1193163701302152 -0.12041337833521124
3260000000.0 -0.05911113115628622 0.12389377943112931
3280000000.0 0.0823489405522374 -0.06723604200429335
3300000000.0 -0.07759660310440125 0.008133427250119762
3320000000.0 0.02642566001346582 0.043888279315173785
3340000000.0 0.022436648443516748 -0.016565385986048446
3360000000.0 -0.009359708794762705 6.409457390409786e-06
3380000000.0 -0.0015192242509964482 0.007086121413078554
3400000000.0 -0.002999664344319339 -0.019952349623187645
3420000000.0 -0.032426959899089294 -0.003097339363716819
3440000000.0 -0.04272230019377148 0.0016651825263553984
3460000000.0 -0.03998958716017447 -0.031730989797694176
3480000000.0 0.0613493112262431 0.000684050173915121
3500000000.0 0.06041039544584619 -0.045871099513970684
3520000000.0 -0.06921411985460456 -0.059707766300362376
3540000000.0 0.09712731036088557 -0.04223789199778335
3560000000.0 -0.07758645311213863 0.09063895089828895
3580000000.0 0.10548387145268388 -0.08039491095064077
3600000000.0 0.022020010243745843 0.1500416463911532
3620000000.0 -0.03436965027085997 0.1599014016844479
3640000000.0 -0.16972819007381326 0.045827983175193744
3660000000.0 -0.18426701559389616 0.023315851807578922
3680000000.0 -0.17173521285645393 -0.08137480030477956
3700000000.0 -0.11504658655393067 -0.15084906877927848
3720000000.0 0.09844747689848998 -0.161472702754166
3740000000.0 0.1724125699775979 -0.06496676189631172
3760000000.0 -0.17096497652940107 0.04854751108737438
3780000000.0 0.16783067289123604 -0.007968576547081347
3800000000.0 0.017289050202008452 -0.15743558406094393
3820000000.0 -0.02017166891066082 -0.1508207282606402
3840000000.0 0.09566189195353947 -0.11010841151893368
3860000000.0 0.11022448999017691 0.09812055889254229
3880000000.0 0.08722792072597399 0.12591846869631595
3900000000.0 0.12296555717047736 -0.09716675533306293
3920000000.0 -0.1615684386910805 -0.025645215946882453
3940000000.0 0.14233173647067354 -0.08851085426700785
3960000000.0 0.16514179611753083 0.04776609848547628
3980000000.0 0.11705529474944033 -0.12722945202649963
4000000000.0 0.019796014274906657 -0.16508030755548864
