! Created with skrf (http://scikit-rf.org).
# Hz S RI R 50.0 
!freq ReS11 ImS11
400000000.0 -0.7779767415564616 0.35154791548224196
420000000.0 -0.12323378928741918 0.8526802914268317
440000000.0 0.7687969645305862 0.31418831985698
460000000.0 0.5586765788463843 -0.5621892210086921
480000000.0 0.4632049107787778 0.5484019784830838
500000000.0 0.44221421737378974 -0.38901696359684607
520000000.0 -0.030141475486625283 -0.5055789090443106
540000000.0 0.32157254256334056 0.3107063305509376
560000000.0 -0.2509715888005313 -0.2981844673049496
580000000.0 0.21588089326175977 -0.2920098438515692
600000000.0 -0.3529379114631284 -0.06131198491755411
620000000.0 0.3670431283299015 -0.07356734075175221
640000000.0 -0.12370113809451785 -0.3770179183633946
660000000.0 -0.36708400147358616 -0.1754804874615897
680000000.0 -0.14091662866231267 -0.3945225247214783
700000000.0 -0.40023107027345883 -0.13567915877930517
720000000.0 -0.36994424214713206 0.19228835385282725
740000000.0 0.3804830682583644 -0.14106452763147023
760000000.0 -0.16912105078972703 -0.3512644003267566
780000000.0 0.15582187928700764 0.321960930322326
800000000.0 0.26715023736578714 -0.1818597223900801
820000000.0 -0.2780062441188441 0.010056066398536114
840000000.0 -0.13055877247616465 0.2007669495162256
860000000.0 -0.15164196184970863 -0.1371346537008434
880000000.0 0.016929675101059243 -0.16180540288548997
900000000.0 0.096440241967165 -0.043613190917381195
920000000.0 -0.07004497502259409 0.0245544673577161
940000000.0 -0.01709599229999667 -0.04405604873075086
960000000.0 0.0189114087928659 -0.04690715791302407
980000000.0 0.03812987006498898 -0.059850373912161206
1000000000.0 0.07022622592270515 0.04720931309710956
1020000000.0 -0.038093866443767714 -0.09980652842796829
1040000000.0 0.06624095513150902 0.10194599957180292
1060000000.0 0.15869956118207398 -0.006033980354951427
1080000000.0 0.1732295581499211 0.02263616010078171
1100000000.0 -0.19889445660033211 -0.008645375065510982
1120000000.0 0.21845166626763626 0.012852496704044793
1140000000.0 -0.14084308039490503 -0.20643860253865562
1160000000.0 -0.22489974636592283 -0.16816538474110856
1180000000.0 -0.10194651295824202 -0.2959914536405519
1200000000.0 0.24608922329668062 -0.2376349233187533
1220000000.0 -0.2585147034995621 0.25867807717250396
1240000000.0 0.3869891479579412 -0.03003343191385881
1260000000.0 -0.12716446925753688 -0.39009607097944066
1280000000.0 -0.32158199558375317 0.28153566142896613
1300000000.0 0.2894585082893746 0.3297129958801476
1320000000.0 0.4044195873181916 -0.1704524108940723
1340000000.0 0.43195984713616603 -0.0819429207333614
1360000000.0 0.42453121762797486 -0.11202774524746491
1380000000.0 0.1974543609553997 -0.39219228652878035
1400000000.0 -0.421966568360754 -0.06844207253252473
1420000000.0 0.04159834084748998 0.40655653946952286
1440000000.0 0.36112057489712723 -0.12215304995882674
1460000000.0 -0.040149415340736 -0.3488583099341555
1480000000.0 -0.3158724518562449 0.050007975163756734
1500000000.0 -0.049426041832069355 0.28079384411898506
1520000000.0 0.15790891290441947 0.20062704990744748
1540000000.0 -0.18921401426733367 -0.12302522412889563
1560000000.0 0.10842457539237822 -0.15883081759168183
1580000000.0 0.12005633304771039 0.10996384194404532
1600000000.0 0.12697464050452398 -0.03624931319932838
1620000000.0 0.09016106672128493 0.04555280142576309
1640000000.0 -0.07670307212597767 -0.007795772784059544
1660000000.0 0.027886787478844804 -0.04619510604408761
1680000000.0 -0.005817174733434614 0.034451225759209544
1700000000.0 -0.01719208562470661 0.010491071378422675
1720000000.0 0.0005682871298142972 0.005971139423468034
1740000000.0 0.01635738245584529 -0.0067551668466112064
1760000000.0 0.027217275209185224 0.021034831165907774
1780000000.0 0.0545234768795333 -0.03305333665527665
1800000000.0 -0.032790437035280104 0.09029733892128915
1820000000.0 0.042945400775278 0.11979682165656999
1840000000.0 0.03420126318935037 -0.16129812882447875
1860000000.0 -0.10604686374927706 0.17345352313346477
1880000000.0 0.14450570515612224 -0.19662260569292841
1900000000.0 -0.17081029982934326 0.22877858673059215
1920000000.0 0.1381611468545756 -0.29047082707244454
1940000000.0 -0.3101397428454832 0.16843793596382656
1960000000.0 0.3726105957367448 0.0724651898478685
1980000000.0 -0.10545572909593016 -0.38405704469874263
2000000000.0 -0.3873929433452091 -0.14976360868966537
2020000000.0 -0.1783002892303975 0.38774754521186067
2040000000.0 0.18057452986696423 0.3942729701435787
2060000000.0 0.4165849865345147 -0.1258029737535256
2080000000.0 0.23781181768494256 -0.35929380901881625
2100000000.0 0.007744986441342196 -0.42445772228355816
2120000000.0 -0.15202853753875498 -0.38725998565542985
2140000000.0 -0.34446280364841475 -0.21547051872882103
2160000000.0 0.0333007106444563 -0.3919177737019374
2180000000.0 -0.22072149423968945 -0.30830567494069355
2200000000.0 -0.36257259093845107 -0.059111586301182975
2220000000.0 -0.2957430940914005 0.19824136765521608
2240000000.0 -0.03802126531223627 0.35079845903892226
2260000000.0 0.1831930269593959 0.30112772365306395
2280000000.0 0.34566489297725184 0.08596050693184852
2300000000.0 0.14155901632339768 -0.34137334491559884
2320000000.0 -0.3339883793781224 -0.2069074610946621
2340000000.0 -0.08823434525826537 0.41602679068727716
2360000000.0 0.3289276021789011 -0.33080556269636213
2380000000.0 -0.38767199971911387 0.3351758319421564
2400000000.0 0.3574631403176321 -0.434247134735118
2420000000.0 -0.029704562313942456 0.611126213479909
2440000000.0 -0.4389595559631207 -0.48899339278014614
2460000000.0 0.688952283215665 0.08794919617408735
2480000000.0 -0.6832241233918277 0.234467448170551
2500000000.0 0.7137380885715281 -0.19755912725538274
2520000000.0 -0.7429294545723711 0.09294437544382297
2540000000.0 0.6971851117646218 0.2738597674033609
2560000000.0 -0.20889425241159607 -0.7129565673336906
2580000000.0 -0.45784432443889894 0.5647204047581753
2600000000.0 0.6884939159383546 0.14323209277127152
2620000000.0 -0.255324268770105 -0.6221095620914966
2640000000.0 -0.4030979163657035 -0.49153788981279145
2660000000.0 -0.21677207427677683 0.5508911739324952
2680000000.0 0.5466422423214192 -0.015739322365956415
2700000000.0 -0.32786395513746086 -0.3794118524249905
2720000000.0 -0.031192708487284237 0.45375625961216665
2740000000.0 0.340275356279262 -0.2322123136124496
2760000000.0 -0.373865140379643 0.00811415479868921
2780000000.0 0.3337918099303487 0.08071095667816688
2800000000.0 -0.3195779266238589 0.016001060349294032
2820000000.0 0.1626658389805152 -0.2556199504860318
2840000000.0 0.11747661928895685 0.2675642212056546
2860000000.0 -0.2872054992281183 -0.02590161412760555
2880000000.0 0.17217626864726815 -0.22993016084093285
2900000000.0 -0.03422725106492 0.28613216201354336
2920000000.0 0.20750691729798704 -0.20545425112197097
2940000000.0 -0.29663078399319665 -0.01708618595712992
2960000000.0 -0.20016440319815074 0.22365286688831976
2980000000.0 -0.18839396477829762 0.23858954283234987
3000000000.0 -0.2877169828975704 0.10845661739964078
3020000000.0 -0.16666510111027716 -0.2583224967203783
3040000000.0 0.29574365037149963 -0.07884980388185332
3060000000.0 -0.20814205299995536 0.22071123760167324
3080000000.0 0.13190845380871022 -0.26889145021835464
3100000000.0 -0.04796117665201325 0.2905935294996165
3120000000.0 -0.054844360344451955 -0.28092658553635674
3140000000.0 0.18250171415168506 0.20998739693053073
3160000000.0 -0.26159632327808613 -0.037911995592383486
3180000000.0 0.1595276931448995 0.19040933236969573
3200000000.0 -0.17598960641878109 0.14189434848708513
3220000000.0 -0.1525987795134956 -0.12957713276876026
3240000000.0 0.13257622522531018 -0.10596346007891812
3260000000.0 -0.07183604606423333 0.11675208604496867
3280000000.0 0.08939073586728478 -0.05743792317716104
3300000000.0 -0.07703159782723806 0.010764902962373929
3320000000.0 0.02752840881602411 0.042470657854039424
3340000000.0 0.01519881828133196 -0.022967816141213838
3360000000.0 0.00137988987124709 0.008799760032120628
3380000000.0 -0.007590416275027389 -0.002238212960210414
3400000000.0 0.015930721563165662 -0.013384699802859645
3420000000.0 -0.031765215315246675 -0.00938645871170215
3440000000.0 -0.03373026468510082 -0.027020146438361262
3460000000.0 -0.026031198193554015 -0.0446550623681638
3480000000.0 0.05694880120521946 0.02403705373612797
3500000000.0 0.07351628812086398 -0.0203499529416699
3520000000.0 -0.052487368693120956 -0.0755232120418955
3540000000.0 0.10183211665961331 -0.0317853612130091
3560000000.0 -0.09764053170930408 0.069106433092224
3580000000.0 0.1229840698308295 -0.051036029842150825
3600000000.0 -0.009887161953768916 0.15160846709116751
3620000000.0 -0.0672250961596207 0.1495661826237081
3640000000.0 -0.17568806809611023 0.007399007384654631
3660000000.0 -0.18481623071192757 -0.013175054498101814
3680000000.0 -0.15527529445315416 -0.10924957162267558
3700000000.0 -0.10225699410213218 -0.15968760013118255
3720000000.0 0.11701831411305338 -0.14829273092034
3740000000.0 0.1791292943237273 -0.04147660914370114
3760000000.0 -0.17515333069237787 0.028127672985290002
3780000000.0 0.16712271960424271 0.005728878434582489
3800000000.0 0.042828293582296485 -0.1518615668552017
3820000000.0 -0.01522970352167776 -0.15074607422932254
3840000000.0 0.12062841675874912 -0.08169658465284456
3860000000.0 0.0861675723702459 0.11892221169304897
3880000000.0 0.058672498355599366 0.14110300776100893
3900000000.0 0.14276565332062222 -0.06387227396694511
3920000000.0 -0.1543170173263898 -0.05240033272938722
3940000000.0 0.15477451598627687 -0.06257166462318683
3960000000.0 0.13940044437730553 0.10039649917664585
3980000000.0 0.15852692570701177 -0.06804962447653425
4000000000.0 0.09365029954744292 -0.13630523399447037
