! Created with skrf (http://scikit-rf.org).
# Hz S RI R 50.0 
!freq ReS11 ImS11
400000000.0 -0.7479548900700361 0.41084588804172606
420000000.0 -0.1630799022418801 0.8451239470281067
440000000.0 0.7641622147526886 0.32653234258743985
460000000.0 0.5256795086126128 -0.5940288956716643
480000000.0 0.5069189010090779 0.507051056368382
500000000.0 0.49733186862540996 -0.3126919700379433
520000000.0 -0.060689521385046526 -0.5044385344228375
540000000.0 0.3691637676346207 0.25314234060718244
560000000.0 -0.26976314845176097 -0.27840841303373454
580000000.0 0.33351812626559474 -0.14309365341155228
600000000.0 -0.3595881416966395 -0.010253731169509565
620000000.0 0.35617866781443686 -0.11571916815850594
640000000.0 -0.10508310328142942 -0.381731735201891
660000000.0 -0.35240059911587157 -0.20316916542815547
680000000.0 -0.13838331785561417 -0.39631073047375176
700000000.0 -0.41109206336674803 -0.09710298593069087
720000000.0 -0.371601192279909 0.1884199432389663
740000000.0 0.3874986866008599 -0.12090927017133736
760000000.0 -0.19330479392735156 -0.338573947837669
780000000.0 0.14143086189568022 0.32861597023346084
800000000.0 0.2500673870341867 -0.20520596785986475
820000000.0 -0.27816596807551386 0.007968505319287451
840000000.0 -0.14774831753385506 0.1881831676569823
860000000.0 -0.15293578462405688 -0.1361822382189157
880000000.0 -0.002407294240645598 -0.16247546282863065
900000000.0 0.09172063198694563 -0.05188480812632316
920000000.0 -0.07303954959026696 0.012344657703956005
940000000.0 0.007118633457862816 -0.046771168510197844
960000000.0 0.023123204382952706 -0.04602673707052762
980000000.0 0.018866411854643265 -0.06790855923537627
1000000000.0 0.07361424990531162 0.04078926583175441
1020000000.0 -0.03865262458966288 -0.09947367682309977
1040000000.0 0.06863113394080596 0.10095221830729746
1060000000.0 0.15901842218208406 0.005016844474438795
1080000000.0 0.17409243751270317 0.013683039537521178
1100000000.0 -0.1983348558346865 -0.0171308856376283
1120000000.0 0.21849871977606092 -0.011298215559250417
1140000000.0 -0.12378968717583208 -0.21705572459514375
1160000000.0 -0.23482687934797356 -0.15493884597532095
1180000000.0 -0.12032143265809817 -0.2894330119780046
1200000000.0 0.2382257628793881 -0.24549178968975552
1220000000.0 -0.2567108718608343 0.2605965743092862
1240000000.0 0.38725676070168674 -0.023631198998182997
1260000000.0 -0.12082707612006476 -0.39192786816838043
1280000000.0 -0.3198672114759301 0.2834752905375582
1300000000.0 0.2821436417014052 0.33588270745134075
1320000000.0 0.40108193485390187 -0.1783304795515603
1340000000.0 0.43007224912104763 -0.0925583428388975
1360000000.0 0.42649304494697593 -0.10395262006788866
1380000000.0 0.1788959715889213 -0.40081045392366826
1400000000.0 -0.4225426887678554 -0.06478930894853131
1420000000.0 0.025029096673565843 0.40816244183334577
1440000000.0 0.35987679969165864 -0.1255892504760803
1460000000.0 -0.0480507158955922 -0.3476482308701589
1480000000.0 -0.31605382162576334 0.04952356727363737
1500000000.0 -0.05873778404186721 0.27883469706356806
1520000000.0 0.1138856095469572 0.22891215402823595
1540000000.0 -0.19892012318158991 -0.10600983609339845
1560000000.0 0.12297891344865551 -0.14762725395648868
1580000000.0 0.09704285841096198 0.1306945597257791
1600000000.0 0.12411327662407544 -0.045686770441144095
1620000000.0 0.08379816006282001 0.05668267348184992
1640000000.0 -0.0759329713058954 -0.013855964846749294
1660000000.0 0.04020235289265334 -0.035596913613444754
1680000000.0 0.00807990516376961 0.03394886513371981
1700000000.0 -0.012390714303953755 0.01609239823102118
1720000000.0 0.00615052473900417 0.00010601480478480827
1740000000.0 0.0001442934986229178 -0.017918008136835487
1760000000.0 0.030549892810229514 0.016132940993961904
1780000000.0 0.05129001167021698 -0.03822184799617671
1800000000.0 -0.03464006968111084 0.08974857239317294
1820000000.0 0.051548033143409555 0.11690709366741849
1840000000.0 0.03448046868573469 -0.16136915805801558
1860000000.0 -0.10525270562752544 0.17428142596995194
1880000000.0 0.15225420936161832 -0.1905018030421882
1900000000.0 -0.16368290451465795 0.23405511957777436
1920000000.0 0.14399310543817093 -0.2874712244976104
1940000000.0 -0.30864209405069337 0.1712461493352671
1960000000.0 0.37374007301844675 0.06704279530158701
1980000000.0 -0.10159818379109896 -0.385055367797615
2000000000.0 -0.392132773060904 -0.1362150840322399
2020000000.0 -0.1591827472011554 0.39588697230698316
2040000000.0 0.21648319523707488 0.3756742034030028
2060000000.0 0.42186697645388416 -0.10787346450616368
2080000000.0 0.20644985470503519 -0.37825665077039966
2100000000.0 -0.027531690317223047 -0.42376536960367955
2120000000.0 -0.13169194915000562 -0.3946112089776911
2140000000.0 -0.3598401881294095 -0.1888979088796926
2160000000.0 0.01165422308157952 -0.3930096177180186
2180000000.0 -0.23826062026382908 -0.2949696544026261
2200000000.0 -0.36516826372506483 -0.039925083804534627
2220000000.0 -0.2751208102131797 0.2261103474980988
2240000000.0 -0.03386202915675043 0.3515389404892516
2260000000.0 0.17873824650947404 0.30394245415380783
2280000000.0 0.3467190386234187 0.08236539189395745
2300000000.0 0.14493794799674173 -0.34012103827768986
2320000000.0 -0.34035561181532353 -0.19680523795800564
2340000000.0 -0.04940119062068019 0.42304002416265635
2360000000.0 0.31161675464107313 -0.3477590311497508
2380000000.0 -0.372215217280016 0.35292053773742915
2400000000.0 0.31404829235742093 -0.4672989312216756
2420000000.0 0.043866820853338755 0.6107366631230972
2440000000.0 -0.47409507351175656 -0.4558360578398895
2460000000.0 0.6944988175605449 0.012517383416913505
2480000000.0 -0.6491355526520661 0.3164119583777932
2500000000.0 0.6922040753732036 -0.262361310067871
2520000000.0 -0.7434884785647519 0.08765206509560455
2540000000.0 0.7129761090742839 0.22926094240008763
2560000000.0 -0.28983722817130364 -0.683413305192813
2580000000.0 -0.44656814926254434 0.5730718880792759
2600000000.0 0.694515829602095 0.1060837682133071
2620000000.0 -0.24168731679306402 -0.6266484786251442
2640000000.0 -0.4259200282115408 -0.4709204476928255
2660000000.0 -0.13502396613751172 0.5756955915510574
2680000000.0 0.5411558146937785 -0.07225710664651222
2700000000.0 -0.34892249015445675 -0.35880891019328764
2720000000.0 -0.01438957564831386 0.45383018589824164
2740000000.0 0.34283872598364606 -0.22731584576458838
2760000000.0 -0.3730724326351953 0.01675699503979726
2780000000.0 0.3356518200610213 0.06922973073309602
2800000000.0 -0.3190418819709903 0.012596314224450393
2820000000.0 0.16316374619508742 -0.25480092682043703
2840000000.0 0.12575948162967715 0.263302963456494
2860000000.0 -0.2873654330630773 -0.020238763333629
2880000000.0 0.1535442469157496 -0.24202847118075527
2900000000.0 -0.03807947607200404 0.28512223910049356
2920000000.0 0.17471667130247046 -0.2335274348528685
2940000000.0 -0.2967761437006467 -0.0018435452813522083
2960000000.0 -0.2040726177540127 0.21935108531563224
2980000000.0 -0.18241631988440965 0.24230062767782015
3000000000.0 -0.29447301016316474 0.0878059616786049
3020000000.0 -0.16646377678482435 -0.25782436960457616
3040000000.0 0.27799596651215464 -0.12612075659430966
3060000000.0 -0.21055519546561297 0.2179089031233158
3080000000.0 0.12543625705068487 -0.27178052578757217
3100000000.0 -0.08287293175323444 0.28209699638883806
3120000000.0 -0.052612392183456404 -0.28051636828944043
3140000000.0 0.16377015143743995 0.22410422985703304
3160000000.0 -0.2641624010489552 -0.011457066767208398
3180000000.0 0.17278622289971785 0.17783668074778747
3200000000.0 -0.17041357684729283 0.14861242837059382
3220000000.0 -0.15657586811380605 -0.12442618844214262
3240000000.0 0.12494655517869006 -0.11454802322313286
3260000000.0 -0.06288376067359192 0.12154427399565283
3280000000.0 0.08420992533978294 -0.0642935941235255
3300000000.0 -0.07754755899448731 0.007315098469453895
3320000000.0 0.038471505744842614 0.03308668952095745
3340000000.0 0.021897399941570136 -0.016696156310598235
3360000000.0 0.0010098311366957835 0.008960590744989956
3380000000.0 -0.006889074111526642 0.0032319134364856353
3400000000.0 0.02004405898965758 -0.0032937880333935255
3420000000.0 -0.02025614808566372 -0.025911363328070144
3440000000.0 -0.038805841130431264 -0.01850997304174294
3460000000.0 -0.04220636861778609 -0.029574818091253122
3480000000.0 0.05999595409150051 0.015309239356740573
3500000000.0 0.06915894453083736 -0.03171733368832219
3520000000.0 -0.056433173868263374 -0.07202856056006696
3540000000.0 0.10266266113822582 -0.025385296347641684
3560000000.0 -0.09687036764314495 0.06978726558611385
3580000000.0 0.11590251917534951 -0.06549661084810403
3600000000.0 0.008071734522569688 0.15160047890411235
3620000000.0 -0.07026045541291831 0.14773900577999768
3640000000.0 -0.17498452438579157 0.002557965277172593
3660000000.0 -0.18541106981295805 -0.0012138851350141052
3680000000.0 -0.1672700642723132 -0.0903031630823814
3700000000.0 -0.10320019454944586 -0.15911332082745663
3720000000.0 0.11836739805638297 -0.1473633436592072
3740000000.0 0.17786296201758775 -0.04748978200516999
3760000000.0 -0.17411985208613864 0.03420026090155517
3780000000.0 0.16716255998719412 0.0060983885047181975
3800000000.0 0.05166943959956232 -0.14933942142599196
3820000000.0 -0.025937420135452596 -0.14900370306140445
3840000000.0 0.12355902869232456 -0.0776570131194032
3860000000.0 0.09516941583239238 0.11196995361876873
3880000000.0 0.0808160025865874 0.12960830251066138
3900000000.0 0.1303077198185421 -0.08667630530429477
3920000000.0 -0.15909840880573098 -0.03575165451846485
3940000000.0 0.14813852233539418 -0.07724299470863592
3960000000.0 0.15859613954408822 0.0653919158731481
3980000000.0 0.12486867969246293 -0.1187866772318817
4000000000.0 0.02726270477461225 -0.16328975200403562
