! Created with skrf (http://scikit-rf.org).
# Hz S RI R 50.0 
!freq ReS11 ImS11
400000000.0 -0.7686569561514595 0.3748062529297801
420000000.0 -0.14985611064554347 0.8482833901934844
440000000.0 0.7643492413940995 0.3258953353544884
460000000.0 0.5509675009336791 -0.5697532449311626
480000000.0 0.4752048993633769 0.5374821679841343
500000000.0 0.45247779507051966 -0.3775653905288474
520000000.0 -0.02461310907076545 -0.5060911202468868
540000000.0 0.3298906668898413 0.3015494307522655
560000000.0 -0.2428581237987105 0.30426412610902887
580000000.0 0.2506813772904388 -0.2620320972889749
600000000.0 -0.35100450427718927 -0.0735421403940228
620000000.0 0.3626248411449992 -0.09405499034492393
640000000.0 -0.12282696784775225 -0.37693538613831795
660000000.0 -0.3672567745438718 -0.17422518396232517
680000000.0 -0.1308177922213781 -0.39842014284197314
700000000.0 -0.4042778516862854 -0.12503015066102646
720000000.0 -0.3484088937626197 0.22814349386589483
740000000.0 0.37719767229570367 -0.1474903728530818
760000000.0 -0.1574861181102545 -0.3567974460633528
780000000.0 0.15762624060216798 0.3216884542459854
800000000.0 0.27406424237083926 -0.17214649010864533
820000000.0 -0.27800362742098444 -0.004242948953234542
840000000.0 -0.13787579309948653 0.19564493871131586
860000000.0 -0.15507123339180184 -0.1331691409325676
880000000.0 0.01533125257404176 -0.16184283126268884
900000000.0 0.09787514776974222 -0.03943123719066364
920000000.0 -0.055860222775301074 0.04830568638502036
940000000.0 -0.024740076535776312 -0.040335885317119166
960000000.0 0.03814145493927102 -0.0332608973453525
980000000.0 0.04003809784827553 -0.058669891134332845
1000000000.0 0.07472009811910624 0.039238349726938994
1020000000.0 -0.033916745183494065 -0.10113422561187836
1040000000.0 0.06190761494833755 0.10495888267154192
1060000000.0 0.1589601888104739 -0.0016590119310140987
1080000000.0 0.1746703998501795 0.00558191289694694
1100000000.0 -0.19593507816430009 -0.03474119787721818
1120000000.0 0.21873855032011535 -0.0043983346763814025
1140000000.0 -0.14572133509467647 -0.2032049732867384
1160000000.0 -0.23032402526148538 -0.16114038007959405
1180000000.0 -0.10033242355786441 -0.2966588657220255
1200000000.0 0.2579136474733168 -0.22455528492564233
1220000000.0 -0.28040165136575435 0.23458458079406258
1240000000.0 0.38765114715196086 -0.01650432107064856
1260000000.0 -0.13125539583646942 -0.38879552788201505
1280000000.0 -0.3267071765028039 0.2758611793527155
1300000000.0 0.28465670587519337 0.33382523457825547
1320000000.0 0.40551690398537016 -0.1682293330807406
1340000000.0 0.43103816231377545 -0.08711256429025956
1360000000.0 0.427056393749044 -0.10168569437232278
1380000000.0 0.19099915447430452 -0.3953102263387733
1400000000.0 -0.4241129274763448 -0.05109543132318452
1420000000.0 0.03588427587079141 0.40731079427913613
1440000000.0 0.35835653307325577 -0.12968637772405603
1460000000.0 -0.02308469494370942 -0.35043435752622776
1480000000.0 -0.31838955084804943 0.029257604467764535
1500000000.0 -0.04643202920297251 0.2809880750173232
1520000000.0 0.13457765202511382 0.2172849432824222
1540000000.0 -0.20632731404779325 -0.09079141763204758
1560000000.0 0.143109031940685 -0.12898170009978205
1580000000.0 0.10262759824168764 0.12629381231099734
1600000000.0 0.13237035344828077 -0.006914832964097975
1620000000.0 0.10103564865423192 0.007797225772553513
1640000000.0 -0.07726652686146554 0.001200239748992408
1660000000.0 0.035600928850612515 -0.0403030450502504
1680000000.0 -0.001522562700551485 0.03483928000146253
1700000000.0 -0.01716735787477582 -0.01006846861058751
1720000000.0 -0.006149910430327147 0.0015277649477147023
1740000000.0 0.013672187813995412 -0.011521917689161864
1760000000.0 0.02919728015780207 0.018379706678920704
1780000000.0 0.05806072162278771 -0.02649891130895291
1800000000.0 -0.030202345180690485 0.0914693382574572
1820000000.0 0.04859636402794864 0.11761296214929202
1840000000.0 0.0346968689312333 -0.16137150556494329
1860000000.0 -0.11287344596283178 0.1693375345126959
1880000000.0 0.15704186727865801 -0.18648225794020812
1900000000.0 -0.1684088175639783 0.23060408924575782
1920000000.0 0.13901000235293612 -0.28988352720307775
1940000000.0 -0.303725452872766 0.17966523739624282
1960000000.0 0.372782789179567 0.07136985444085941
1980000000.0 -0.11132521260110123 -0.3823036553198937
2000000000.0 -0.40161306475247965 -0.10429909643604239
2020000000.0 -0.13811345438376096 0.4038763898697567
2040000000.0 0.22724339172695382 0.36917053863830035
2060000000.0 0.425811137842253 -0.0915959627427615
2080000000.0 0.23144650462273966 -0.36358824478962504
2100000000.0 0.0027448143538829836 -0.424705682949115
2120000000.0 -0.15491710359405544 -0.38612309054228255
2140000000.0 -0.36645454260299465 -0.17522113805459805
2160000000.0 0.03213783448085894 -0.39192386307599647
2180000000.0 -0.2025487053891056 -0.32084525230223576
2200000000.0 -0.3624603069159369 -0.06025091685710344
2220000000.0 -0.2790007622251292 0.2211997777760187
2240000000.0 -0.03271142728702538 0.35139951024295774
2260000000.0 0.19125072992476827 0.29627780009088034
2280000000.0 0.3454075360778252 0.0867109370599711
2300000000.0 0.15062773858780287 -0.33719719585698027
2320000000.0 -0.33907243630734585 -0.1989501325510367
2340000000.0 -0.056268766692916666 0.4220322416067294
2360000000.0 0.3228423011183588 -0.33702493514315324
2380000000.0 -0.3845255700527823 0.33921082183621726
2400000000.0 0.32412207599224324 -0.45999494866289825
2420000000.0 0.015945348816149008 0.6117584625698962
2440000000.0 -0.45233410002309343 -0.4769561308173929
2460000000.0 0.6939177538870932 0.024827372700028112
2480000000.0 -0.6747210416865004 0.25809520621039894
2500000000.0 0.6885704876068738 -0.27145851895490186
2520000000.0 -0.7447491909319484 0.07727369297822446
2540000000.0 0.690873768092837 0.2902504331463036
2560000000.0 -0.25888444870156574 -0.6960514967651898
2580000000.0 -0.47460558137821063 0.550676912254614
2600000000.0 0.6979475492891655 0.084055614640086
2620000000.0 -0.24010224713211287 -0.6276753910760163
2640000000.0 -0.4282604253773021 -0.46947172014455446
2660000000.0 -0.2147475011099751 0.5514141567585178
2680000000.0 0.5444602444916378 -0.04691316863647742
2700000000.0 -0.3285868985238914 -0.37831063262570686
2720000000.0 -0.04246841525466119 0.4525642013849602
2740000000.0 0.35357878395128123 -0.21070098327779416
2760000000.0 -0.3731860551685734 -0.016125196632982716
2780000000.0 0.3335112741230398 0.08061948045197416
2800000000.0 -0.31877591499709373 0.020044283772770854
2820000000.0 0.16388642956778543 -0.25415871694682335
2840000000.0 0.11830521247896084 0.26678789876715103
2860000000.0 -0.2870933298888157 -0.026468564037021566
2880000000.0 0.14966758813288433 -0.24476377582331774
2900000000.0 -0.020747519233823408 0.28704596782916214
2920000000.0 0.20378455325609415 -0.2089489938055371
2940000000.0 -0.296929730387361 -0.014547337104651406
2960000000.0 -0.17843645225062493 0.24084562301959464
2980000000.0 -0.17437172544646554 0.24910664795350382
3000000000.0 -0.29547725330705404 0.08448906784127591
3020000000.0 -0.18485144321241115 -0.24571315183108505
3040000000.0 0.2615848305067717 -0.15810125599606092
3060000000.0 -0.23104838405984643 0.19629618177531954
3080000000.0 0.13967679601908725 -0.26526762918040836
3100000000.0 -0.021541863570441435 0.29383657458783985
3120000000.0 -0.07031097375342203 -0.2772069526540008
3140000000.0 0.16947921662201676 0.22065652295744242
3160000000.0 -0.26472546354772936 -0.010890181132363232
3180000000.0 0.17024651196990273 0.1807363901461289
3200000000.0 -0.182639257643592 0.1332468078001981
3220000000.0 -0.14067074411146815 -0.14256031236774216
3240000000.0 0.1452731878491814 -0.08718625978833226
3260000000.0 -0.0777693122689817 0.1126975277680907
3280000000.0 0.08146991173123277 -0.06717711530284137
3300000000.0 -0.07723682615312306 0.007580734127967252
3320000000.0 0.015183581111598279 0.048222017340552994
3340000000.0 0.021325592784895212 -0.017086711826211673
3360000000.0 0.005592700394464048 0.006648304263475295
3380000000.0 0.00791188771647255 0.0017002711058132188
3400000000.0 0.02047972378664325 -0.0038181348628437617
3420000000.0 -0.024330320479885953 -0.022555579017389284
3440000000.0 -0.04324509037718179 0.0019230290014094955
3460000000.0 -0.01380211475125 -0.04955040109522037
3480000000.0 0.04971962536938217 0.0369146056377432
3500000000.0 0.0659092729220461 -0.039059858026989726
3520000000.0 -0.08448723308066103 -0.03717545523859704
3540000000.0 0.08749257548607435 -0.06202815518669631
3560000000.0 -0.09098607856201237 0.07838339687894637
3580000000.0 0.11315501229091371 -0.07095587729499872
3600000000.0 -0.020201731740770938 0.1504425905718776
3620000000.0 -0.06827588408320791 0.14915554549433102
3640000000.0 -0.17566725610543887 0.009347651303310627
3660000000.0 -0.1843269527511028 -0.020639671860196652
3680000000.0 -0.15436656471208415 -0.11053156161422864
3700000000.0 -0.08723811408214867 -0.1680923919589103
3720000000.0 0.12214743247600149 -0.14394771654875052
3740000000.0 0.1779636186482684 -0.04535151522796818
3760000000.0 -0.17305248239665938 0.03736612174115813
3780000000.0 0.16708790307930044 -0.0003351927219080732
3800000000.0 0.04287328487803636 -0.1518047736770547
3820000000.0 -0.011643183518116617 -0.15106524885046288
3840000000.0 0.12085265466544826 -0.08215623404740023
3860000000.0 0.09187728991463229 0.11470811542291998
3880000000.0 0.06724726838871474 0.137487724151423
3900000000.0 0.13685333383631415 -0.07577008366029479
3920000000.0 -0.155032012214998 -0.05130535489759372
3940000000.0 0.1554377945139092 -0.061623307969928855
3960000000.0 0.14016299338097246 0.09977020550510195
3980000000.0 0.15422486609337457 -0.07755200905939008
4000000000.0 0.09811382346702958 -0.13363637263221018
