! Created with skrf (http://scikit-rf.org).
# Hz S RI R 50.0 
!freq ReS11 ImS11
400000000.0 -0.7806990917043642 0.3457202527989693
420000000.0 -0.1567182005936428 0.8465986011815348
440000000.0 0.7529031781402062 0.3510485079015643
460000000.0 0.5372189246244173 -0.5827199231531295
480000000.0 0.49758831474671295 0.5165668368532014
500000000.0 0.45912366906163027 -0.3665112606781988
520000000.0 -0.02384988706123426 -0.5062379443474022
540000000.0 0.3264205313511862 0.3075022454198272
560000000.0 -0.28991709471832966 -0.25901053774139354
580000000.0 0.29135293658160005 -0.2161113581073837
600000000.0 -0.35460642400318526 -0.05224591634960765
620000000.0 0.35757231145963936 -0.11264888301858063
640000000.0 -0.1043139908513568 -0.3823129794689243
660000000.0 -0.37292675249531154 -0.1614985330327966
680000000.0 -0.11740866458098684 -0.4025097060666127
700000000.0 -0.4080544822442172 -0.11255820268017458
720000000.0 -0.35119707014579676 0.22416121571243805
740000000.0 0.37489992501365116 -0.15412306856208635
760000000.0 -0.1727524864265672 -0.34922677253535206
780000000.0 0.16191322817829318 0.31947395857775374
800000000.0 0.2746100943929391 -0.17095430295855507
820000000.0 -0.277918222860132 -0.017489420021960956
840000000.0 -0.12952242693756602 0.20096878269304966
860000000.0 -0.1432335777719897 -0.14640357124836367
880000000.0 0.007152531604612484 -0.16249873678779883
900000000.0 0.10384742355239777 -0.021442889025351266
920000000.0 -0.07179619605500821 0.017562456211936528
940000000.0 -0.0242831851851006 -0.040415085575079696
960000000.0 0.013942675839714954 -0.049213365371532675
980000000.0 0.04677201873371835 -0.05310804650091821
1000000000.0 0.06664696687254429 0.05163165052143306
1020000000.0 -0.046509835466425536 -0.0961700585726611
1040000000.0 0.08449251138267051 0.08760170417375981
1060000000.0 0.15893037071879076 0.007579873032811427
1080000000.0 0.1732200144650357 0.02121420522475694
1100000000.0 -0.19890464808376504 -0.0050252549256383896
1120000000.0 0.2182937159200892 -0.006187500417338106
1140000000.0 -0.15979887789126787 -0.19225462935190693
1160000000.0 -0.23039835181291268 -0.16070295032175547
1180000000.0 -0.12125823896063542 -0.28865415739029887
1200000000.0 0.24018637122320888 -0.24347799104503073
1220000000.0 -0.24544111082676992 0.2714354914759623
1240000000.0 0.3859007353268987 -0.04190206047761912
1260000000.0 -0.14094821997329215 -0.38543211412571116
1280000000.0 -0.32243609860871847 0.28092795289637595
1300000000.0 0.2920928006907639 0.3275914364388899
1320000000.0 0.4034238830980143 -0.1731864503601265
1340000000.0 0.4273455010869705 -0.10409553111674402
1360000000.0 0.43002558284333475 -0.08873755253795416
1380000000.0 0.19678737211227165 -0.3923550449397189
1400000000.0 -0.42024003467130494 -0.07835929331929814
1420000000.0 0.02025220636780663 0.4081149692083578
1440000000.0 0.36372446497963434 -0.11311972807639764
1460000000.0 -0.03367087054022997 -0.34939383563376597
1480000000.0 -0.3187822829748283 0.020134310528679995
1500000000.0 -0.07078446227968425 0.2757281604042579
1520000000.0 0.13641756564718324 0.21613157077363881
1540000000.0 -0.2077468976595223 -0.08702498827281942
1560000000.0 0.10849488584364292 -0.15857867749240512
1580000000.0 0.10547207550967955 0.12401287499976175
1600000000.0 0.12219124709155824 -0.05009000072862607
1620000000.0 0.09818955591974399 0.024117832334892914
1640000000.0 -0.07700367665761618 0.0045390672672833265
1660000000.0 0.03409139793078494 -0.0417720376857854
1680000000.0 -0.013023750251598961 0.0325523641053472
1700000000.0 -0.01826877134468633 -0.008863209944149264
1720000000.0 0.00378247746736615 0.004814311532552659
1740000000.0 -0.009106480979266437 -0.015570337376843362
1760000000.0 0.03353860569711173 0.008808062826326906
1780000000.0 0.04296613448517194 -0.047463583627996186
1800000000.0 -0.04357991299331426 0.08540675282373153
1820000000.0 0.055080560500666995 0.1151903695816146
1840000000.0 0.021825546529477397 -0.16370509891574378
1860000000.0 -0.10441480449505836 0.17461074930642048
1880000000.0 0.1471505827546946 -0.19471769788816418
1900000000.0 -0.16788825898184795 0.2312095050859621
1920000000.0 0.13096043839623964 -0.29383287165313143
1940000000.0 -0.3101613245787906 0.16872664914125257
1960000000.0 0.3712689548509002 0.07995575153254897
1980000000.0 -0.09790082052751069 -0.3860001043972731
2000000000.0 -0.39807640603935246 -0.11678373001767756
2020000000.0 -0.1801041314548897 0.38694253902787623
2040000000.0 0.19968081507285898 0.3849597365682439
2060000000.0 0.4255411034849494 -0.0914452332576315
2080000000.0 0.20816788604397649 -0.37687438040968296
2100000000.0 -0.007594309061147046 -0.4242594124418065
2120000000.0 -0.18136319203751525 -0.3738443910556073
2140000000.0 -0.36157355648348855 -0.18457324822956572
2160000000.0 0.006458923348192657 -0.39285137611275067
2180000000.0 -0.24400737921043658 -0.28994263319377034
2200000000.0 -0.3662016196456952 -0.02739683535380097
2220000000.0 -0.25707403269805973 0.24614510801094872
2240000000.0 -0.008755824963398693 0.3526915863555539
2260000000.0 0.19193670575247357 0.29572202157417465
2280000000.0 0.35264474369950843 0.052667392932369446
2300000000.0 0.11195193998629319 -0.35264686524930455
2320000000.0 -0.3482751585527078 -0.18320154627595472
2340000000.0 -0.05400924725549197 0.42252206682123017
2360000000.0 0.30708771097652104 -0.35202746500120263
2380000000.0 -0.3672481555272807 0.3586079742762642
2400000000.0 0.3199676108304517 -0.4634383849551299
2420000000.0 0.019114363254180474 0.6121828482682095
2440000000.0 -0.4755744785669494 -0.4540485060918972
2460000000.0 0.6936291571591564 0.03536600117462956
2480000000.0 -0.6579793432435551 0.29741189739345153
2500000000.0 0.6646823864108349 -0.3245376849460817
2520000000.0 -0.7378616558974022 0.12365400286545138
2540000000.0 0.7110040631987201 0.23437487625938172
2560000000.0 -0.3406908782096899 -0.658703587748384
2580000000.0 -0.4387008924795803 0.5785978175224223
2600000000.0 0.7020105322964383 -0.0029895316498595574
2620000000.0 -0.3227662101760966 -0.5886414425112473
2640000000.0 -0.4844805482033697 -0.40991499224221856
2660000000.0 -0.12872846578229077 0.5767902289118478
2680000000.0 0.5414294695182811 -0.06768880373552998
2700000000.0 -0.3482717957005773 -0.3589450631670356
2720000000.0 0.01172735329805136 0.45379318537354607
2740000000.0 0.3201603102900535 -0.2578694687920303
2760000000.0 -0.37298138760538974 0.01708692556388422
2780000000.0 0.3352881877331268 0.07206060542815153
2800000000.0 -0.3183120054216154 0.02272694243850692
2820000000.0 0.17561757294970565 -0.24583388012194898
2840000000.0 0.1049025762082845 0.27191714711471293
2860000000.0 -0.2847173543164145 -0.04290229498996399
2880000000.0 0.15063593404579198 -0.24349269739774687
2900000000.0 -0.04492885703347987 0.28380455394354553
2920000000.0 0.2052694058456428 -0.20681355454043046
2940000000.0 -0.29488918801028663 -0.03389699189223669
2960000000.0 -0.16673713382943778 0.24852419479693397
2980000000.0 -0.1848358295679271 0.23962876905769387
3000000000.0 -0.28977460576490804 0.09791218578673135
3020000000.0 -0.19574514293869655 -0.2361928021230697
3040000000.0 0.28423801465172244 -0.1101763691144704
3060000000.0 -0.17767132907677624 0.2450323431514456
3080000000.0 0.11110314893633215 -0.2777425379449489
3100000000.0 0.013998595487055716 0.29380761812793926
3120000000.0 -0.12135210231892782 -0.25889426015319683
3140000000.0 0.16794176402339353 0.22074942711559137
3160000000.0 -0.2639984452657974 -0.012226770409459008
3180000000.0 0.17677499987843837 0.17382493052162276
3200000000.0 -0.16337435543349152 0.1558505178325353
3220000000.0 -0.15599582029003972 -0.12480822351430795
3240000000.0 0.12703470966519978 -0.11193164256757794
3260000000.0 -0.06283552520927273 0.12171827136622453
3280000000.0 0.08796279175625463 -0.059238850000843495
3300000000.0 -0.07784457641910224 -0.0009045481580369707
3320000000.0 0.02046550571379273 0.04640935923100669
3340000000.0 0.027624204484112763 -0.0009688587257169665
3360000000.0 -0.00874261460381486 -0.002602294693062709
3380000000.0 -0.0002885293122298971 0.007248089026869386
3400000000.0 -0.016935946432161855 -0.011473529166677888
3420000000.0 -0.032441577063566214 0.004097539350003043
3440000000.0 -0.04283932245832425 -0.0003852251950108002
3460000000.0 -0.03272718766876123 -0.0389762694243468
3480000000.0 0.061502666341562165 -0.0017571010632218735
3500000000.0 0.05115979454461516 -0.0558892331795199
3520000000.0 -0.0800725472657871 -0.044240378195982547
3540000000.0 0.06372088801268597 -0.08534614415962798
3560000000.0 -0.08291508770178109 0.08554690503765802
3580000000.0 0.10863466759486755 -0.07571036330625455
3600000000.0 0.002443565731674162 0.15117010051085739
3620000000.0 -0.0386493870974233 0.1588213503157387
3640000000.0 -0.1692031500217881 0.046488617287700054
3660000000.0 -0.18356912734926462 0.025699435517116443
3680000000.0 -0.17201670853854992 -0.0801244318518782
3700000000.0 -0.12361182704686467 -0.14404405734828193
3720000000.0 0.08710534043473316 -0.167899215147091
3740000000.0 0.17424781058182987 -0.05921740321513907
3760000000.0 -0.16850374800705503 0.0560344472188385
3780000000.0 0.1669821051344427 -0.016039652155116605
3800000000.0 0.03139012878277635 -0.15514865292190247
3820000000.0 -0.02150887727142868 -0.1504473141502294
3840000000.0 0.11410102650050416 -0.09215482485577087
3860000000.0 0.09687905380456197 0.11139708321542814
3880000000.0 0.06972389018183602 0.13691238873467398
3900000000.0 0.13583100696034467 -0.07956209186760335
3920000000.0 -0.15764390727231803 -0.04582150082035212
3940000000.0 0.16050214502893967 -0.050054696968701025
3960000000.0 0.13279221247406836 0.11085770279999034
3980000000.0 0.16099278140820059 -0.06491746251307395
4000000000.0 0.10506803901611278 -0.1288583384962646
