! Created with skrf (http://scikit-rf.org).
# Hz S RI R 50.0 
!freq ReS11 ImS11
400000000.0 -0.7656514553334289 0.3782083229109499
420000000.0 -0.12461729245225427 0.8524685701507226
440000000.0 0.7748277124018512 0.2978525324535379
460000000.0 0.5434728334424402 -0.5774531821073761
480000000.0 0.47874837750576177 0.5349845335210909
500000000.0 0.4383218437434832 -0.39290680344996215
520000000.0 -0.025641418390921364 -0.5053829299927287
540000000.0 0.30347210009347697 0.32937280792219836
560000000.0 -0.24919653053123456 -0.2986333201029422
580000000.0 0.27502140933052033 -0.2374773693506249
600000000.0 -0.354330831537375 -0.053534208303468424
620000000.0 0.36368757045276523 -0.09012145660380298
640000000.0 -0.04271402711079403 -0.3940145015787635
660000000.0 -0.3792370978894371 -0.1478322126403481
680000000.0 -0.16083963268254525 -0.38648377403427014
700000000.0 -0.40791790953967266 -0.10883452751554198
720000000.0 -0.35986770085583764 0.21122470852544845
740000000.0 0.38761279789796016 -0.12168878029045758
760000000.0 -0.1690405099321683 -0.35151816561892785
780000000.0 0.16308437666500403 0.3182821609760379
800000000.0 0.2616605313516694 -0.19006985342580687
820000000.0 -0.2782229266536771 -0.014247973110851778
840000000.0 -0.13090172423705979 0.20033945758948216
860000000.0 -0.1392463035182514 -0.1499136088562989
880000000.0 0.014656627858800121 -0.16183857177605487
900000000.0 0.0993733017664141 -0.036493151937303535
920000000.0 -0.0673780491432882 0.03103118838693118
940000000.0 -0.0066189041923245505 -0.04678332763405804
960000000.0 0.01851989384887021 -0.047493446653200266
980000000.0 0.033742416211223765 -0.062319828599356135
1000000000.0 0.07284097817305972 0.042395369913848575
1020000000.0 -0.037489625727248836 -0.10008634021053132
1040000000.0 0.07057703871877315 0.09943015900701956
1060000000.0 0.15862852911171563 0.009315001042521247
1080000000.0 0.17292859210992598 0.02350079984585497
1100000000.0 -0.19872964941660246 -0.011221902602917283
1120000000.0 0.21827202908924997 0.00377016139487023
1140000000.0 -0.15315359625207525 -0.1975255257839487
1160000000.0 -0.230298474985839 -0.16118109317935822
1180000000.0 -0.12236284312006594 -0.28839601988330715
1200000000.0 0.23680374068037077 -0.24687297104532688
1220000000.0 -0.24368699897018123 0.2726781067778287
1240000000.0 0.3866962616053281 -0.03319856799877752
1260000000.0 -0.12468750853232463 -0.39113811245814106
1280000000.0 -0.3189421197846958 0.2848734351708589
1300000000.0 0.27828465490583615 0.33911774562467567
1320000000.0 0.40982029111213736 -0.15752329420296945
1340000000.0 0.43059544927456644 -0.09008233135976046
1360000000.0 0.4289973166530876 -0.09270716138179778
1380000000.0 0.19455930996064882 -0.39323620895711703
1400000000.0 -0.422530962862505 -0.06362620678997208
1420000000.0 0.038042879964072074 0.40687239992187973
1440000000.0 0.3621213833590097 -0.11881962524888498
1460000000.0 -0.04126880398165305 -0.348507050297837
1480000000.0 -0.3194830059175959 0.012637158741196324
1500000000.0 -0.04625378107563872 0.28116842777460016
1520000000.0 0.15145621227887512 0.20553358645698752
1540000000.0 -0.18929211784504008 -0.12171212014133079
1560000000.0 0.12160888887141538 -0.14902138602486226
1580000000.0 0.11640144238004896 0.11397215169078237
1600000000.0 0.12930506523848384 -0.027548155596333793
1620000000.0 0.08585987240336203 0.05310496600377827
1640000000.0 -0.07560730478826883 -0.015532169176101628
1660000000.0 0.029722579259415408 -0.045105374558091244
1680000000.0 -0.008052092917834675 0.03371845737105629
1700000000.0 -0.0052062561130121745 -0.019150726173671435
1720000000.0 0.004308970310983555 0.004533305646489594
1740000000.0 0.008111147093691748 -0.015713155150000484
1760000000.0 0.030293290808060123 0.016184121100188516
1780000000.0 0.05443604555566318 -0.033646911432232765
1800000000.0 -0.02160042826928124 0.09415047982511478
1820000000.0 0.03794104740432208 0.1212402936255894
1840000000.0 0.03144378100983876 -0.1619102928209071
1860000000.0 -0.09646229836999978 0.17930390815955832
1880000000.0 0.13607807161356614 -0.2026009038659581
1900000000.0 -0.16097980679979051 0.23607019350819547
1920000000.0 0.1343534421453095 -0.29231780841812016
1940000000.0 -0.3094249941461439 0.17018081385094042
1960000000.0 0.37261359768563995 0.07356942493318908
1980000000.0 -0.10599902736242735 -0.3840089126940686
2000000000.0 -0.3978601804327579 -0.11776778326995488
2020000000.0 -0.18041535254068683 0.3867635924961411
2040000000.0 0.18676902520836675 0.39131135844642595
2060000000.0 0.42390490687550064 -0.09921694366471247
2080000000.0 0.21503062362645498 -0.3731608899248999
2100000000.0 -0.003227819008201586 -0.4242429454238359
2120000000.0 -0.17186563806847954 -0.3784296334659833
2140000000.0 -0.353225663908235 -0.20004140479135976
2160000000.0 0.016211936649134277 -0.39255508196308225
2180000000.0 -0.24195867117828826 -0.29152485126689853
2200000000.0 -0.36583241835218727 -0.030395796602815706
2220000000.0 -0.2645807484200003 0.2378020422498918
2240000000.0 -0.020297940267470543 0.35256486850603214
2260000000.0 0.19871013074038604 0.29134757325987826
2280000000.0 0.3516631726408559 0.058425655026413066
2300000000.0 0.1183528552937937 -0.35045174631875387
2320000000.0 -0.35110991205077213 -0.17822253426462684
2340000000.0 -0.03496301699282791 0.42486574155923945
2360000000.0 0.3083450141637438 -0.3512132609881026
2380000000.0 -0.3796627202106332 0.34545654570192197
2400000000.0 0.3100462369564995 -0.47038795585405896
2420000000.0 0.05973636722934597 0.6099129054482839
2440000000.0 -0.49196434257481136 -0.4365835559052703
2460000000.0 0.6947585569837319 0.01248677708193437
2480000000.0 -0.6460206362758775 0.3228074889212806
2500000000.0 0.6806751883507531 -0.29013721357767724
2520000000.0 -0.739972994574429 0.11135152017828956
2540000000.0 0.7216798016802458 0.1980363137556707
2560000000.0 -0.3062667299062654 -0.6758055708144454
2580000000.0 -0.38293174657968865 0.6170408244853963
2600000000.0 0.7000479240934382 0.05527693958393694
2620000000.0 -0.3581644515765603 -0.5678865974847687
2640000000.0 -0.4689253791572822 -0.4274088268530374
2660000000.0 -0.13557672863827944 0.5751472496784392
2680000000.0 0.5398382624813516 -0.08034456048997224
2700000000.0 -0.3586723600016637 -0.34909019346713466
2720000000.0 -0.0061803535051138505 0.45406720938598233
2740000000.0 0.34775943776717516 -0.21946208453530502
2760000000.0 -0.37338024673240533 0.0008132316305890934
2780000000.0 0.33504973845441033 0.07284196399298527
2800000000.0 -0.31854918507866237 0.01994655411030158
2820000000.0 0.1748668255685275 -0.24664701438288306
2840000000.0 0.12297294023617147 0.2644790151108064
2860000000.0 -0.2857609200445873 -0.03589522016456826
2880000000.0 0.15552834526245055 -0.24030608223263866
2900000000.0 -0.060555907375430804 0.2811790853886132
2920000000.0 0.20488255601079455 -0.20776983802549343
2940000000.0 -0.2956923077235662 -0.026118941578823104
2960000000.0 -0.1841975164620734 0.23576856506269261
2980000000.0 -0.18754352376134883 0.23776966284419548
3000000000.0 -0.29095614353102506 0.09778430932399111
3020000000.0 -0.19879096793696038 -0.23364754083313627
3040000000.0 0.2892780288839181 -0.09624857556100362
3060000000.0 -0.20111286678203158 0.22642581613646684
3080000000.0 0.11830576729626524 -0.2748080705244432
3100000000.0 0.004544130992742947 0.2941015644152885
3120000000.0 -0.06692790326751245 -0.2774934584208725
3140000000.0 0.17407517521488985 0.21617089693130404
3160000000.0 -0.26417683154084803 -0.0038063886855142074
3180000000.0 0.18437874827134323 0.16614299869788746
3200000000.0 -0.1615851379723149 0.15818224814274057
3220000000.0 -0.161434751927259 -0.11831989096300301
3240000000.0 0.12584727342936175 -0.11322877215703891
3260000000.0 -0.061839873078715926 0.12232519754922104
3280000000.0 0.0809824446642627 -0.06860360783061213
3300000000.0 -0.06410334990445671 0.0439195121067561
3320000000.0 0.02940285191805424 0.041426029894793284
3340000000.0 0.02298134204480626 -0.015422311470183978
3360000000.0 -0.0008776649084994948 0.009225339958619802
3380000000.0 -0.0026358037934848025 0.006934415817467703
3400000000.0 0.0012253132535018246 -0.020553912592244688
3420000000.0 -0.0326497902520339 -0.001457554911139524
3440000000.0 -0.034992853662523346 -0.024564781452226257
3460000000.0 -0.038485600998749626 -0.03438041660368826
3480000000.0 0.06144330716045837 0.004974606317907635
3500000000.0 0.06540319245774587 -0.0382093691660303
3520000000.0 -0.057020603904805574 -0.07135322810876411
3540000000.0 0.09225726550912028 -0.052688334629744885
3560000000.0 -0.0948684024519677 0.0719798723478995
3580000000.0 0.113470472716599 -0.06815514772987
3600000000.0 0.006647721426894874 0.1512649112721074
3620000000.0 -0.04330750893751425 0.15768173861650733
3640000000.0 -0.16948329850357788 0.04518428936467221
3660000000.0 -0.18431094222804667 0.01647025826386222
3680000000.0 -0.17075072305019992 -0.082686803967485
3700000000.0 -0.1186412029980995 -0.14788509267388608
3720000000.0 0.08998277367596533 -0.16597763205554647
3740000000.0 0.17146988558162726 -0.06665238510025726
3760000000.0 -0.16866330883164896 0.05524563306749008
3780000000.0 0.16684719170033016 -0.017382096383555316
3800000000.0 0.006791899989327337 -0.15784138241004309
3820000000.0 -0.037547309378224376 -0.14736272975962025
3840000000.0 0.10800352579994231 -0.09863872573489886
3860000000.0 0.11039712294009477 0.09777246084607184
3880000000.0 0.09486650127963839 0.12018985049640325
3900000000.0 0.11928416198657801 -0.10167253027377653
3920000000.0 -0.16239678161661636 -0.022960829723614424
3940000000.0 0.15520983687320478 -0.06479456597186505
3960000000.0 0.14874649593337833 0.08708237932744034
3980000000.0 0.15178535967733706 -0.08394391550953267
4000000000.0 0.08511016793294272 -0.1429169068144333
