! Created with skrf (http://scikit-rf.org).
# Hz S RI R 50.0 
!freq ReS11 ImS11
400000000.0 -0.7735293137295216 0.3597660400378881
420000000.0 -0.1384397309223513 0.8503369051654077
440000000.0 0.765653206093937 0.3226244777664316
460000000.0 0.5159144398740889 -0.6009810414778228
480000000.0 0.45694726345448655 0.5529891643777778
500000000.0 0.44399151524854874 -0.38733451448359557
520000000.0 -0.03378426753965221 -0.5053110272888152
540000000.0 0.32936981195227866 0.3023011673291672
560000000.0 -0.24116933480897254 0.3056743262445956
580000000.0 0.22621016410661515 -0.2836889068076269
600000000.0 -0.351348864147519 -0.07109499391528809
620000000.0 0.3547490222565869 -0.1212708860295296
640000000.0 -0.1356954419244391 -0.3723988224582591
660000000.0 -0.35796244360878926 -0.19282445017173047
680000000.0 -0.11583787105204235 -0.40335908746676463
700000000.0 -0.4010112231686256 -0.13530171526539225
720000000.0 -0.3486911559997807 0.2274550188054224
740000000.0 0.382482196680625 -0.13517435660679183
760000000.0 -0.15159605658546413 -0.35913751046486303
780000000.0 0.16222908044074885 0.3196916161721137
800000000.0 0.2774366480636229 -0.16643023240153582
820000000.0 -0.2780962366738585 0.0026176894124149514
840000000.0 -0.1294549995332592 0.2013599594350772
860000000.0 -0.1632049774487337 -0.12331194036256388
880000000.0 0.009473531985221804 -0.16242570386869282
900000000.0 0.09825106858510362 -0.03955929701695871
920000000.0 -0.06526500039822378 0.0345366515639221
940000000.0 -0.025299274351087864 -0.03984752878454195
960000000.0 0.014639580267335948 -0.04847446693894601
980000000.0 0.030682469968610945 -0.06419234009534547
1000000000.0 0.07662443909715023 0.03595878758964833
1020000000.0 -0.03720169213717473 -0.10016834309078818
1040000000.0 0.0652592405303587 0.10292950515872919
1060000000.0 0.15873401476528773 -0.0067427122923158994
1080000000.0 0.1741672192396989 0.01344402471127367
1100000000.0 -0.19851865448618072 -0.01559962163021616
1120000000.0 0.21887650040106305 -0.0006110308682303467
1140000000.0 -0.14580187890670646 -0.20329922240245857
1160000000.0 -0.23120116768865556 -0.15963045448624053
1180000000.0 -0.10538416214170349 -0.2948891371401304
1200000000.0 0.25375632215104205 -0.22911907175928942
1220000000.0 -0.2653338206705103 0.25137739486387817
1240000000.0 0.38705670970749056 -0.025649601020038205
1260000000.0 -0.13608294566830903 -0.38713134575971286
1280000000.0 -0.3281290055275509 0.2738286329759993
1300000000.0 0.27994568652826785 0.33773429998541427
1320000000.0 0.40435886541986615 -0.1708824944760911
1340000000.0 0.4295117140287459 -0.0948838673104199
1360000000.0 0.426598515873748 -0.10420383304451605
1380000000.0 0.2019876494369927 -0.3899774776259939
1400000000.0 -0.423555598773839 -0.05553086133061381
1420000000.0 0.04780401751683989 0.40588299959120017
1440000000.0 0.36610261823364115 -0.10661471934970862
1460000000.0 -0.02917326992929076 -0.3496995415714411
1480000000.0 -0.3191785068120688 0.02030044352710607
1500000000.0 -0.06813151724278407 0.2769006658748253
1520000000.0 0.12358564348202936 0.22396639880627037
1540000000.0 -0.19827878063129895 -0.1073510476691825
1560000000.0 0.11648390118179487 -0.15355765011651623
1580000000.0 0.09416279569474828 0.13305623377308265
1600000000.0 0.12663718541018776 -0.03740757167524822
1620000000.0 0.10078887188335783 0.008830463593132847
1640000000.0 -0.07730915208023283 0.0015555235058451113
1660000000.0 0.03617941934314219 -0.03979753971582928
1680000000.0 -0.013855650206259697 0.03208482537759754
1700000000.0 -0.020055679298448932 0.0010449145331033847
1720000000.0 0.00395507152689868 0.004730724142671214
1740000000.0 -0.0054386720517499735 -0.017253977781484357
1760000000.0 0.029900896011865723 0.017276649562199715
1780000000.0 0.05605766876360307 -0.03061759342882109
1800000000.0 -0.02921349558588009 0.09174457256915082
1820000000.0 0.05114089675065369 0.11644174993367604
1840000000.0 0.02904496875208116 -0.1624595758490411
1860000000.0 -0.1114253638767762 0.1703903314700933
1880000000.0 0.15115605042195396 -0.191545232006267
1900000000.0 -0.16911731880852596 0.23011909182777193
1920000000.0 0.13928328473138465 -0.2898639253219178
1940000000.0 -0.30856975339514775 0.17137255610479035
1960000000.0 0.3720624333572622 0.07587269993282508
1980000000.0 -0.1097286296758139 -0.38278490735146903
2000000000.0 -0.3995325490583514 -0.11153819493058933
2020000000.0 -0.17274854933719042 0.3903691844421835
2040000000.0 0.21255291900962306 0.3779125567548514
2060000000.0 0.4255464467756612 -0.0930067579941635
2080000000.0 0.22312988404870923 -0.36861601632846586
2100000000.0 -0.012440009439927137 -0.42436070770731316
2120000000.0 -0.15272741646164625 -0.3869639547899902
2140000000.0 -0.37008597508144553 -0.16778026592131262
2160000000.0 0.013508434469133536 -0.39315962844276814
2180000000.0 -0.2274905561522869 -0.30378959969553565
2200000000.0 -0.36327805899731314 -0.05586160712050915
2220000000.0 -0.279110334335577 0.2213947737090488
2240000000.0 -0.043240576861191524 0.3505291531377111
2260000000.0 0.18208545982050944 0.3022348010474536
2280000000.0 0.3480384628722576 0.0774869513871713
2300000000.0 0.15130824347134103 -0.3371916039138614
2320000000.0 -0.3373463520913349 -0.20240004402273662
2340000000.0 -0.06352203273584157 0.4212084635804281
2360000000.0 0.33094066799842703 -0.3292942690518885
2380000000.0 -0.3652291314416136 0.36083524424684305
2400000000.0 0.3030954902328186 -0.4748199172244623
2420000000.0 0.055893316246277934 0.6101389807438196
2440000000.0 -0.4905876573946361 -0.4383031836927172
2460000000.0 0.6949657168884263 -0.0109589809324336
2480000000.0 -0.6278510341006422 0.3570772619927829
2500000000.0 0.6881191740877601 -0.2738721979598285
2520000000.0 -0.7432138386553093 0.09060163970608928
2540000000.0 0.725863284095082 0.18459157542755095
2560000000.0 -0.32031819724102756 -0.6697875520832387
2580000000.0 -0.4169248388566368 0.5950684929610695
2600000000.0 0.6991286232745325 0.06936360526303219
2620000000.0 -0.2527630137897521 -0.6217734055831063
2640000000.0 -0.47855146990113134 -0.4167313478318441
2660000000.0 -0.13722571083415783 0.574941254600833
2680000000.0 0.5350300095586273 -0.10744875842060422
2700000000.0 -0.35811065038949835 -0.34935118071258353
2720000000.0 -0.0021661552441367845 0.45391058936815143
2740000000.0 0.3391267459031219 -0.2323450356898635
2760000000.0 -0.3730313949764606 0.003713482169496138
2780000000.0 0.3373046394498589 0.0604206654521654
2800000000.0 -0.31774845571181604 0.029746642559752116
2820000000.0 0.15412616580162194 -0.25993803315909936
2840000000.0 0.13076560906394175 0.2606155113243345
2860000000.0 -0.28655216678403655 -0.028179759965255343
2880000000.0 0.15809449358542957 -0.23908525639240558
2900000000.0 -0.033047451868555414 0.28601295785103636
2920000000.0 0.2025086519535627 -0.20973316230650021
2940000000.0 -0.2919950197519213 -0.05375014951630956
2960000000.0 -0.19301894993598498 0.22921129056194436
2980000000.0 -0.1623441239828135 0.2562750355603196
3000000000.0 -0.2897799798628897 0.10032179565954606
3020000000.0 -0.17486020938183405 -0.2525867523568331
3040000000.0 0.2798640767175188 -0.12268039151405583
3060000000.0 -0.17044124094996502 0.25061261354403963
3080000000.0 0.12375953335225133 -0.2725632495756275
3100000000.0 -0.016862166395276993 0.2940094085302193
3120000000.0 -0.07679101326057439 -0.2753141986680681
3140000000.0 0.18045011370781933 0.2110191029922824
3160000000.0 -0.26384895734944935 -0.01566523729904343
3180000000.0 0.18061804481677401 0.17081084166286745
3200000000.0 -0.17539062982626058 0.14229985400861758
3220000000.0 -0.14773312685710352 -0.13476997095406446
3240000000.0 0.1358355684669024 -0.10065846302613755
3260000000.0 -0.08019428133455755 0.11089206332435632
3280000000.0 0.08878654780680022 -0.05766885695291461
3300000000.0 -0.07364382843391118 0.023820545916074756
3320000000.0 0.02558457801758858 0.04357659672886049
3340000000.0 0.024047778609719735 -0.013136817369040354
3360000000.0 -0.004935946271369347 -0.006911790805150469
3380000000.0 0.0006839910844116647 0.00777674434175508
3400000000.0 0.011692550127071488 -0.017071291958555092
3420000000.0 -0.03207476126798799 0.008254595624347856
3440000000.0 -0.04315767659525534 -0.0026968872768497122
3460000000.0 -0.03915780431628097 -0.03359710364766375
3480000000.0 0.061575655440378546 0.008158835281561687
3500000000.0 0.06799709397245829 -0.03394078623373082
3520000000.0 -0.054362747954653755 -0.07383415865258021
3540000000.0 0.09506044964215557 -0.047385720867556436
3560000000.0 -0.09543802203140103 0.0721107582951595
3580000000.0 0.1248256192031513 -0.04471441255378686
3600000000.0 -0.02793311268746195 0.14886388633000872
3620000000.0 -0.061656383784365304 0.1516855752857905
3640000000.0 -0.17472797996001918 0.016335875186486087
3660000000.0 -0.18559546805524785 3.950622919920414e-05
3680000000.0 -0.15784148563932865 -0.10492427767942189
3700000000.0 -0.10190979000028176 -0.15979554068751783
3720000000.0 0.10749976567108672 -0.15478007055144571
3740000000.0 0.17640270991103182 -0.05207816224790983
3760000000.0 -0.1733622123218008 0.03614492135704405
3780000000.0 0.16725711812715205 -0.00332157141052968
3800000000.0 0.04222547677599712 -0.15208790356433774
3820000000.0 -0.013085249557373443 -0.15085374551425865
3840000000.0 0.12696496697052073 -0.07241636425502376
3860000000.0 0.08654852757096143 0.11893693079136562
3880000000.0 0.05100368595773022 0.14469332942377716
3900000000.0 0.14357994857306178 -0.062339589229216105
3920000000.0 -0.15393716032720486 -0.05456728308320875
3940000000.0 0.15584695707065124 -0.060283876408209564
3960000000.0 0.1449388349018473 0.09229896656863333
3980000000.0 0.12305399913460383 -0.12083090540177352
4000000000.0 0.018887740045673996 -0.164682520828423
