! Created with skrf (http://scikit-rf.org).
# Hz S RI R 50.0 
!freq ReS11 ImS11
400000000.0 -0.8257925997117923 0.250128035867843
420000000.0 0.1296210290798389 0.8557573412717782
440000000.0 0.8218237169406795 -0.16205669447875407
460000000.0 0.3601382668567748 -0.701612650256022
480000000.0 0.627674375377822 -0.36627153092084225
500000000.0 -0.5255676859620426 -0.20808979105820954
520000000.0 -0.457838731782029 -0.17430096426314826
540000000.0 -0.012992871124853773 -0.4115706340769837
560000000.0 -0.34220003726638165 -0.13257362477310417
580000000.0 0.19364354762430067 -0.25329988922168156
600000000.0 0.13862149306480068 -0.2971355865913441
620000000.0 0.33213970458158465 0.0006750964751899217
640000000.0 -0.34651249793352157 -0.05393337515078755
660000000.0 -0.34700207892079266 0.17208218622976873
680000000.0 0.12514025392331005 -0.38937918152604734
700000000.0 -0.36568144126090063 0.25074251011007087
720000000.0 0.33555961305471804 0.2920062664317007
740000000.0 -0.06709871143399156 0.45009855055585685
760000000.0 -0.41780282423385795 -0.11009217338986522
780000000.0 0.3478277687817203 -0.18327531712377215
800000000.0 0.16969733915065047 0.31094740303617274
820000000.0 -0.16707341762746805 0.23694243358558212
840000000.0 0.23981444536294863 -0.021984455236153336
860000000.0 -0.10719345387843104 0.1576665136420433
880000000.0 -0.08519991292617622 0.11886557336843245
900000000.0 -0.0681335333956409 -0.0024789438263859266
920000000.0 0.03244665778198256 0.016073751958745365
940000000.0 -0.03360392570846623 0.008673902284246054
960000000.0 -0.03143004650421463 0.02951149927072547
980000000.0 0.017249254800259024 0.05008555924669644
1000000000.0 0.02131120707744299 0.05984230209913402
1020000000.0 0.0748427934531833 0.011581818528136015
1040000000.0 0.06119736147438053 -0.07100044103879065
1060000000.0 0.1044189535037421 0.07375214215293843
1080000000.0 -0.03191938241562029 -0.14612168885041338
1100000000.0 -0.07775583110686866 0.1536803011826707
1120000000.0 0.05444591911239037 0.195616154538208
1140000000.0 -0.23724680015160404 -0.06102955836883726
1160000000.0 -0.2354324691102655 0.1555852023385397
1180000000.0 0.11240932277029388 0.30322018222834846
1200000000.0 -0.24367583091900477 0.2552840302978373
1220000000.0 -0.302875301726822 -0.2379889445638889
1240000000.0 0.35739423018003696 0.19018921815071627
1260000000.0 -0.3928115517248054 -0.17729540528243004
1280000000.0 0.32292525409842726 0.29561830656272603
1300000000.0 0.2267388266530705 -0.3822668457772429
1320000000.0 -0.3476468106434944 -0.26327848360015
1340000000.0 -0.045498284330642756 -0.42965305828711114
1360000000.0 0.09363253940279109 -0.4201688456154769
1380000000.0 -0.1026361506178863 -0.41716673979828767
1400000000.0 -0.36004880640381065 0.20411932793765525
1420000000.0 -0.0931383985499191 0.38415321616601855
1440000000.0 0.33806056009819385 0.14848881385033313
1460000000.0 0.30770536801162357 0.14418115481244542
1480000000.0 0.2937995903198443 -0.11932837788935727
1500000000.0 0.07867308242401183 -0.2805380228012401
1520000000.0 -0.18006731049690258 0.19674568498357203
1540000000.0 0.22211257837060064 -0.10250055079974368
1560000000.0 0.21160018334493197 0.016088600614696975
1580000000.0 0.17819711054717194 -0.03759005657964818
1600000000.0 -0.1339224238107049 0.06922887469402914
1620000000.0 0.10737848385712839 -0.04122885304397289
1640000000.0 0.0734182566894197 -0.04775700049959713
1660000000.0 -0.04392688416373244 -0.04417263141555383
1680000000.0 -0.03357133501430599 0.0003313216837321193
1700000000.0 0.014949612474061957 0.0024993792035552694
1720000000.0 0.0014171871904334744 -0.016134049734532085
1740000000.0 0.005098939725793712 -0.03414794018524532
1760000000.0 -0.02440571034382922 0.04699604500698599
1780000000.0 0.028948405166858978 -0.07411933489781744
1800000000.0 0.09947244265259908 -0.05501177810143996
1820000000.0 -0.057484987474818866 0.1287343518441056
1840000000.0 0.12402510135701122 -0.11933246348601885
1860000000.0 -0.12810818736344237 0.15611672908109953
1880000000.0 0.13523465678837387 0.1879588814624038
1900000000.0 0.2550432447208122 0.07706863719426685
1920000000.0 -0.0012927181641226777 -0.2989069884453779
1940000000.0 -0.230093253852016 -0.2389490193108454
1960000000.0 -0.2704955363130726 0.24594524808395843
1980000000.0 0.25561132118079355 0.2947674755640985
2000000000.0 0.4094972989296217 -0.0687708881937114
2020000000.0 -0.13342317598212286 -0.41509992148721464
2040000000.0 -0.36606807420765664 0.2583957103115418
2060000000.0 0.3497977475521116 0.28796131520361823
2080000000.0 0.0951086488010364 -0.44150815415460687
2100000000.0 -0.4364437061649432 0.055694199818061736
2120000000.0 -0.27660463319986683 0.3219049228149275
2140000000.0 -0.4045697610673809 0.017215672236533808
2160000000.0 -0.3602072325435834 0.12959094736223584
2180000000.0 -0.3664659386674791 -0.024397974748458662
2200000000.0 -0.3285854226671733 -0.12051516544786246
2220000000.0 -0.13088798537160476 -0.31999855300434593
2240000000.0 -0.2695618680113799 -0.21517099561259612
2260000000.0 -0.3198799561719275 -0.14954597913824771
2280000000.0 -0.20281988583106414 0.2992215398586756
2300000000.0 0.3255249420242416 0.19295723200381965
2320000000.0 -0.16685231124126826 -0.3666949192962389
2340000000.0 -0.18669636337963866 0.39215574176086704
2360000000.0 0.2686524713324025 -0.38442199378581526
2380000000.0 -0.4544901564563329 0.23991659819880506
2400000000.0 0.45928154679546457 -0.32382394539120996
2420000000.0 -0.35187123330532105 0.5000806424698487
2440000000.0 -0.10963684169323085 -0.648464155768906
2460000000.0 0.5080257508166081 0.4746881716946205
2480000000.0 -0.7093779759235358 -0.15050405087052365
2500000000.0 0.7198188008148887 0.18938111665678478
2520000000.0 -0.6774067631186756 -0.33116332578380486
2540000000.0 0.4735008764221884 0.587933681516777
2560000000.0 0.01804127583967499 -0.7477040620514052
2580000000.0 -0.6186230772345381 0.3914918868425682
2600000000.0 0.6733453734246385 0.21814996268616454
2620000000.0 -0.22199619665325365 -0.6402179627115202
2640000000.0 -0.41591385129000263 -0.48664225592165367
2660000000.0 -0.24009269738906347 0.5444720946960923
2680000000.0 0.5479315888450141 0.04857477934734171
2700000000.0 -0.1773458132388264 -0.47430508404957944
2720000000.0 -0.2178654474298861 0.4093566685156809
2740000000.0 0.38152665067718794 -0.1851802183695444
2760000000.0 -0.383562124634064 0.053807095153437685
2780000000.0 0.24911844543391481 -0.2556265421288228
2800000000.0 0.0463560634152477 0.32694856891168644
2820000000.0 -0.30553748135026326 -0.049732348716494915
2840000000.0 0.18123539987200538 -0.232205100777446
2860000000.0 0.00384750692250693 0.28403385167918527
2880000000.0 -0.07711526157446154 -0.26906533116355313
2900000000.0 0.025412889070185716 0.2764473874902627
2920000000.0 0.2594596164890577 0.10976411013751164
2940000000.0 0.17661171970079528 -0.22996786988694717
2960000000.0 -0.07838612431059291 -0.2879486758978153
2980000000.0 -0.20832275428215402 -0.22555666522405246
3000000000.0 -0.12617397378612424 -0.2861177524799979
3020000000.0 -0.057724467414081854 -0.3107514467095718
3040000000.0 0.2580045967885973 -0.17788796779827962
3060000000.0 0.14826527627873162 0.2731841867209864
3080000000.0 -0.2976698937710241 -0.059576270647088245
3100000000.0 0.27958859262510666 -0.09572742320357555
3120000000.0 -0.18662106668357833 0.21375183094613234
3140000000.0 0.09075100244467475 -0.25405649424038323
3160000000.0 -0.18610407108345586 0.17314645784277166
3180000000.0 0.08745158621510485 0.22211644506628392
3200000000.0 -0.10050238723517005 -0.19429948841110112
3220000000.0 0.13974008537391674 0.1405803541636756
3240000000.0 -0.1728141969968743 0.020716125871548897
3260000000.0 0.09629278674177956 -0.11130422225028341
3280000000.0 0.10410130989808362 0.05722469060078268
3300000000.0 0.08986114081837215 -0.001202088645119067
3320000000.0 0.003775710573015118 -0.0586609301627962
3340000000.0 -0.010433714306997703 0.030114528160986535
3360000000.0 0.0009601784251894153 0.012600515576347506
3380000000.0 0.019406788733176993 0.0056775790784241
3400000000.0 0.032405248784100935 0.003750021172924026
3420000000.0 -0.012995324173571316 0.03930255702335847
3440000000.0 0.009624614383872979 0.04441320878647804
3460000000.0 0.0378142522419952 0.02280746179563538
3480000000.0 0.04154337572086143 -0.031054463303184548
3500000000.0 0.06037164274092067 -0.032107913626843634
3520000000.0 -0.06161442942217707 -0.06717516689574504
3540000000.0 0.01641501350606038 -0.11057720975106768
3560000000.0 0.042698065788715725 -0.12215062963808133
3580000000.0 0.14006616434039157 -0.030504305962924746
3600000000.0 0.16068686151380301 -0.014872588211343633
3620000000.0 0.14603431137894282 -0.08381988739829835
3640000000.0 0.15108999452333552 0.09215683953590108
3660000000.0 0.017993304256926777 0.18059398025364926
3680000000.0 -0.17790567694252266 -0.050581622062729314
3700000000.0 0.052170874890637056 -0.17737649707172418
3720000000.0 0.13364768172536845 0.12853527531753586
3740000000.0 -0.057937701688502506 0.1739242758836657
3760000000.0 0.07077206717917595 -0.16518785003171013
3780000000.0 -0.04601446773166357 0.16742508009102308
3800000000.0 0.0942552178027209 -0.1366216303328524
3820000000.0 -0.12314439608355102 -0.09991302464384412
3840000000.0 -0.08069642751708782 -0.12570068524362926
3860000000.0 0.08620689220960978 -0.11842443551347122
3880000000.0 0.13228153818770952 0.06992882572114836
3900000000.0 0.14736961494001952 0.0404128709421957
3920000000.0 0.1320036172459907 -0.08747791241111956
3940000000.0 -0.09266507405981175 0.13918636580243707
3960000000.0 -0.13946217995144145 0.10635602880081184
3980000000.0 0.1759617877881655 0.03372123862739961
4000000000.0 0.0458238237828715 -0.16514492193047486
