! Created with skrf (http://scikit-rf.org).
# Hz S RI R 50.0 
!freq ReS11 ImS11
400000000.0 -0.8309867698048378 0.22948363871206387
420000000.0 0.1356446813798362 0.8547384347472806
440000000.0 0.8275253870678928 -0.13169637356042174
460000000.0 0.37161053359100726 -0.6958743195773706
480000000.0 0.6251405289090068 -0.36952488177153114
500000000.0 -0.5092559794915391 -0.2460371351025723
520000000.0 -0.47080813531172233 -0.1353295055722147
540000000.0 0.0023916051248691777 -0.41159070407590254
560000000.0 -0.3390812955695568 -0.1401038754999489
580000000.0 0.19240516740415928 -0.25537614107070034
600000000.0 0.08808255735420163 -0.3156463119898545
620000000.0 0.3265911188884431 0.055576966853125145
640000000.0 -0.34393895549118547 -0.07310802584428187
660000000.0 -0.3346868929729019 0.19487068939051258
680000000.0 0.13499198509401664 -0.38543596725892365
700000000.0 -0.3787825932748601 0.23017188436495614
720000000.0 0.32921516188629396 0.29950804374040224
740000000.0 -0.05803274211658028 0.451574025776007
760000000.0 -0.417439373639888 -0.10994934945469209
780000000.0 0.3457084877952063 -0.18735642638439587
800000000.0 0.17586700674403924 0.3072532815915922
820000000.0 -0.16090435219292598 0.24094872924835023
840000000.0 0.23869006607221932 -0.03395133966941707
860000000.0 -0.10071038449103595 0.1621738421848106
880000000.0 -0.08245481497897086 0.12147313926688291
900000000.0 -0.0634717307816854 -0.026242064375114903
920000000.0 0.02605872157827096 0.025505052660660988
940000000.0 -0.03381619922650189 0.005242999702766232
960000000.0 -0.026095931683721475 0.03439589975205323
980000000.0 0.008741374604065561 0.05232567966454966
1000000000.0 0.02707643161663446 0.05730433494306746
1020000000.0 0.07390704586691009 0.017358589906474167
1040000000.0 0.06461739218880659 -0.06806326196235803
1060000000.0 0.10347369557629832 0.07510298269692285
1080000000.0 -0.01982813538555946 -0.1481279257454669
1100000000.0 -0.08084544876804182 0.15214485950588572
1120000000.0 0.0508007872358121 0.1967352887560673
1140000000.0 -0.24071643774633641 -0.04471825461651726
1160000000.0 -0.2447540754677393 0.14010969709280258
1180000000.0 0.11585949958963185 0.3018180618613853
1200000000.0 -0.24218715391964957 0.25709154015591623
1220000000.0 -0.30789686666566085 -0.2316492956825022
1240000000.0 0.3447304940641593 0.21287171866673374
1260000000.0 -0.39213526812802574 -0.17948112609548145
1280000000.0 0.32075546581335107 0.29824348862889627
1300000000.0 0.2060020623287579 -0.39384306206657227
1320000000.0 -0.353769022577087 -0.25486433768363925
1340000000.0 -0.056855864165819704 -0.42799548485077904
1360000000.0 0.07963140530546921 -0.4228244930179387
1380000000.0 -0.1066948670923619 -0.4158050130070325
1400000000.0 -0.36813190688424624 0.18809223685791404
1420000000.0 -0.10128336718187352 0.3817163440937516
1440000000.0 0.33190186694486806 0.1616577479657135
1460000000.0 0.29807635511909 0.16351345665072875
1480000000.0 0.2930141582957663 -0.12289534565155948
1500000000.0 0.048263422603555574 -0.28803157961170917
1520000000.0 -0.1602923498715996 -0.21370414550118774
1540000000.0 0.20129077345101484 -0.13959161166219858
1560000000.0 0.21067971265579988 -0.024462634274588717
1580000000.0 0.16915802651197917 -0.06676465502714622
1600000000.0 -0.13342261836688754 0.06900458627008826
1620000000.0 0.10040615867925476 -0.05539681665507727
1640000000.0 0.07909779931474835 -0.03607922870779693
1660000000.0 -0.037356587298630825 -0.048900554102744305
1680000000.0 -0.029111826219586696 -0.015368587007134425
1700000000.0 0.005640576082100816 0.013770291115989052
1720000000.0 -0.011489967339831353 -0.01091947392861159
1740000000.0 -0.002389687944552676 -0.03400081242028661
1760000000.0 -0.01851701358255912 0.049218272317338094
1780000000.0 0.036759586805249 -0.06979059386673168
1800000000.0 0.09802646520619789 -0.05691041817357798
1820000000.0 -0.0807047338439534 0.11479263126101583
1840000000.0 0.13887264419338596 -0.10108055042144161
1860000000.0 -0.14316557109235895 0.14162740547896932
1880000000.0 0.1336830574608782 0.18945627112711305
1900000000.0 0.25237010155038153 0.0855241390360621
1920000000.0 0.003201824339380276 -0.29917566123333983
1940000000.0 -0.2438413992425688 -0.22532105150624626
1960000000.0 -0.25744184418281146 0.2597138824948979
1980000000.0 0.2686845313640719 0.28298174575693735
2000000000.0 0.39955878300033937 -0.11205606512765036
2020000000.0 -0.1581286927472982 -0.4063613014607353
2040000000.0 -0.38339770000005063 0.23215221792102475
2060000000.0 0.35746239569408406 0.2780377177035857
2080000000.0 0.11720915650906333 -0.43623025813201477
2100000000.0 -0.43989186050381823 0.011917950114383466
2120000000.0 -0.2847785694460615 0.31456547623885306
2140000000.0 -0.4048292355339002 0.0013878928306542782
2160000000.0 -0.3703114766409871 0.09660105511462228
2180000000.0 -0.36358982084964786 -0.04992242134785758
2200000000.0 -0.32435360946942293 -0.13091724517976863
2220000000.0 -0.11491389170913882 -0.3257017353354761
2240000000.0 -0.2443408701689872 -0.24279462547630773
2260000000.0 -0.32715926552426694 -0.13257426323326968
2280000000.0 -0.21026106032829525 0.2933974612596223
2300000000.0 0.32599890841855733 0.19168474946548364
2320000000.0 -0.15867075533100616 -0.36992071732320053
2340000000.0 -0.20344224536780386 0.3834090207424464
2360000000.0 0.27914273586304356 -0.37662589666517104
2380000000.0 -0.4531235180769401 0.24248020966719439
2400000000.0 0.49127232518838243 -0.27266971801862744
2420000000.0 -0.39778013864778866 0.46456548622448296
2440000000.0 -0.05890930862852085 -0.6552663998930836
2460000000.0 0.46730280356827447 0.5154525613015435
2480000000.0 -0.686372877212144 -0.23594208504043393
2500000000.0 0.7176268609309343 0.19863619819986872
2520000000.0 -0.6663117465057247 -0.35375139231535624
2540000000.0 0.4640604756476666 0.5961378407832311
2560000000.0 0.10778876477243181 -0.7409713830766027
2580000000.0 -0.6484198638943898 0.3412095353586846
2600000000.0 0.6532707802308493 0.27453468665630526
2620000000.0 -0.15740165389826724 -0.6595700421718728
2640000000.0 -0.4288995033862365 -0.47635259174235883
2660000000.0 -0.2672340448424502 0.5325573187931697
2680000000.0 0.5477695085432635 0.058940660013914556
2700000000.0 -0.16381860254752448 -0.4804093540357458
2720000000.0 -0.22298891666677056 0.40735311180349193
2740000000.0 0.3805674147273828 -0.1879487263322214
2760000000.0 -0.37805403814189037 0.0865991570994901
2780000000.0 0.2493921361002719 -0.2557678896761048
2800000000.0 0.03899076872093809 0.32775894209892714
2820000000.0 -0.3007276060754962 -0.07277310262907193
2840000000.0 0.1998727603042237 -0.21684920675504185
2860000000.0 -0.003494276301006846 0.28446762641740586
2880000000.0 -0.08723307619350233 -0.2665026601139408
2900000000.0 0.01576863845832945 0.27768915988899046
2920000000.0 0.2712770159074737 0.07928900170435746
2940000000.0 0.14784522821233403 -0.25010755790899974
2960000000.0 -0.10829086406098598 -0.27829328746325116
2980000000.0 -0.21967599587805803 -0.21540309318001682
3000000000.0 -0.14146759884028742 -0.2782717161800391
3020000000.0 -0.08452260877911928 -0.3042850259628043
3040000000.0 0.27119793055305635 -0.1567327418637046
3060000000.0 0.1317189356868258 0.28172019556078765
3080000000.0 -0.2945489848789085 -0.07570001005287717
3100000000.0 0.2676471624326625 -0.1258476664429187
3120000000.0 -0.23487636448226623 0.159156758992837
3140000000.0 0.10902798148472853 -0.24758416890363047
3160000000.0 -0.17196129229558663 0.18772617080034845
3180000000.0 0.07668968490122122 0.22563226180265733
3200000000.0 -0.1056471725430552 -0.1916304163123147
3220000000.0 0.16049144392026896 0.11636311499918234
3240000000.0 -0.1688003050621168 0.04052679073709146
3260000000.0 0.07341145601525728 -0.12661605061083292
3280000000.0 0.09242708576796684 0.07403715558738777
3300000000.0 0.08354333890942872 0.03218101222637907
3320000000.0 -0.0011488141071936098 -0.05880349885354857
3340000000.0 -0.03000934210346414 0.009952639340556919
3360000000.0 -0.0072315610816172755 0.009814780280778337
3380000000.0 -0.013918987910019245 0.013973524531632356
3400000000.0 0.009985140439948493 0.030742541151880458
3420000000.0 -0.03354157715784149 0.024484822933691114
3440000000.0 -0.03584154272999433 0.027281511937099236
3460000000.0 0.03249982679098801 0.03014325768382166
3480000000.0 0.04629183212840504 -0.023910187865975284
3500000000.0 0.06312537181280378 -0.02621388759843102
3520000000.0 -0.059268021402734024 -0.06882858357958913
3540000000.0 0.06836349441341558 -0.08729790301845596
3560000000.0 0.03384138887874761 -0.12476430553289408
3580000000.0 0.13464667815945797 -0.04872031689320433
3600000000.0 0.15938413989986341 0.017215134244358228
3620000000.0 0.15611235955691852 -0.0625863395737599
3640000000.0 0.14546636521266645 0.09924415099516594
3660000000.0 0.021745470763660606 0.18004828069580403
3680000000.0 -0.18183801031911667 -0.03240379313564375
3700000000.0 0.02112930161050408 -0.18373411246044247
3720000000.0 0.1601527835333398 0.09348847556152969
3740000000.0 -0.020208850807606257 0.1819652452536854
3760000000.0 0.024328650047933203 -0.17771279100578938
3780000000.0 -0.008059330793297629 0.1731097473969639
3800000000.0 0.087260388560984 -0.1408232860957358
3820000000.0 -0.13278492814936785 -0.0865424734331808
3840000000.0 -0.08666730936538343 -0.12180643273772579
3860000000.0 0.07677637398885102 -0.12488526915903633
3880000000.0 0.14203320256539467 0.046573666148090026
3900000000.0 0.15292445309280397 0.005989689931412301
3920000000.0 0.11847923112196161 -0.10554327273973459
3940000000.0 -0.07542221416324625 0.14910826298310223
3960000000.0 -0.11335180979305015 0.13396517923194182
3980000000.0 0.1746829684356693 0.040037480171433465
4000000000.0 0.08365868652898759 -0.14976073921828975
