! Created with skrf (http://scikit-rf.org).
# Hz S RI R 50.0 
!freq ReS11 ImS11
400000000.0 -0.822833011472938 0.2619232907906746
420000000.0 0.1718222370824113 0.8480834118618272
440000000.0 0.8209906447347882 -0.1677849489709535
460000000.0 0.36039212917443464 -0.7019972090851445
480000000.0 0.6252266689422655 -0.37049031851311665
500000000.0 -0.525891025700747 -0.20695032629316742
520000000.0 -0.46402873810938955 -0.15678202919712186
540000000.0 -0.03749859776399038 -0.40977335558345307
560000000.0 -0.3506233488368903 -0.1077947848682043
580000000.0 0.20851923949089374 -0.24142595339954656
600000000.0 0.12167613119114257 -0.30445670455972706
620000000.0 0.3318121712573396 0.006532442227646166
640000000.0 -0.34393361074627293 -0.0669667684277182
660000000.0 -0.35732195587866433 0.14938102503527392
680000000.0 0.14395283546802326 -0.38285263088714344
700000000.0 -0.359477518347941 0.25930732761656394
720000000.0 0.29928669338148794 0.32916232429570313
740000000.0 -0.09085313155545581 0.4465120521954959
760000000.0 -0.4170280805258443 -0.11314247188739014
780000000.0 0.3471814432268045 -0.18441978366088227
800000000.0 0.17753418423065268 0.30677554379824906
820000000.0 -0.16852485548349722 0.23613869794377457
840000000.0 0.24113422799851772 -0.010185682930386302
860000000.0 -0.11284273449695889 0.15365740879664125
880000000.0 -0.07944969796905064 0.12269737970055312
900000000.0 -0.06787130904028099 -0.00664427666176357
920000000.0 0.0354777233307328 0.008204237766936098
940000000.0 -0.03455459102897131 0.005238368709453304
960000000.0 -0.02274703612558553 0.03677610369521008
980000000.0 0.026813592000034057 0.045920468929192354
1000000000.0 0.04052639905382867 0.04906505076699036
1020000000.0 0.07566701280167042 -0.003894998734026591
1040000000.0 0.05126597413888996 -0.07853377153756161
1060000000.0 0.10017959071563505 0.07941413615967213
1080000000.0 -0.022526190422150354 -0.14780484988212483
1100000000.0 -0.0652133038756024 0.15919457098375656
1120000000.0 0.04175908642355847 0.1987073665719003
1140000000.0 -0.23628468547257178 -0.06384485004284898
1160000000.0 -0.2333446200067434 0.15880293297093973
1180000000.0 0.11710571807271951 0.30136612181828953
1200000000.0 -0.24761857096974588 0.2514909978543312
1220000000.0 -0.3151842363329024 -0.22177342314028275
1240000000.0 0.35452321756671706 0.19626971782970232
1260000000.0 -0.3944401823035243 -0.1738421223834147
1280000000.0 0.32067293665761837 0.2986038188937582
1300000000.0 0.2188822258226363 -0.387100624909367
1320000000.0 -0.34919630694667403 -0.26138502880137293
1340000000.0 -0.03997939868964712 -0.43037267755866637
1360000000.0 0.09250156241758704 -0.42041687104933023
1380000000.0 -0.10696934879414058 -0.416196091511062
1400000000.0 -0.3660510878148622 0.19336397209431533
1420000000.0 -0.09383515569107741 0.3839473452836163
1440000000.0 0.33972621358729127 0.14417633476456648
1460000000.0 0.3110581967325655 0.13644905291751303
1480000000.0 0.2861589869669405 -0.1357342801798115
1500000000.0 0.059620123586782044 -0.2845433430588192
1520000000.0 -0.18800055154675366 0.18907620699500582
1540000000.0 0.20788816359955198 -0.12824969228846747
1560000000.0 0.2118334793196354 0.005386111001677895
1580000000.0 0.18095571650699552 -0.017487476224927526
1600000000.0 -0.1305921184282451 0.07542417713763587
1620000000.0 0.1103219966023482 -0.033922845211649816
1640000000.0 0.08719852348226155 -0.011068848328506988
1660000000.0 -0.014350642325854758 -0.061014032803118644
1680000000.0 -0.032493195180333286 -0.011507412109728157
1700000000.0 -0.007251403908343002 0.01429588896517858
1720000000.0 0.01457901347211082 0.007213331087528469
1740000000.0 0.010465061533718888 -0.032846825691107355
1760000000.0 -0.05305360170727595 0.0024718643569266677
1780000000.0 0.06483811485556938 -0.04684421735622183
1800000000.0 0.11289948651701114 -0.019117799725453535
1820000000.0 -0.09537114148339972 0.10459861527971939
1840000000.0 0.15094231026019536 -0.08427444004301521
1860000000.0 -0.14237481253324658 0.14365721170990156
1880000000.0 0.14880737120923335 0.1781710312975068
1900000000.0 0.2613901357277673 0.05131914055891129
1920000000.0 -0.03693248996992038 -0.2964095656668065
1940000000.0 -0.25865797775322585 -0.2068148625183162
1960000000.0 -0.2468210372055102 0.26840886963187
1980000000.0 0.26497078860155865 0.28516785851094856
2000000000.0 0.4023795591972422 -0.09895630347841977
2020000000.0 -0.08272944382639823 -0.42800752666729663
2040000000.0 -0.3700640954732835 0.2528555303672208
2060000000.0 0.3299281077860556 0.3113588956499268
2080000000.0 0.12154749467505115 -0.4360107893535422
2100000000.0 -0.43976939011627464 0.03519697407358459
2120000000.0 -0.2253974376245752 0.36039244041968066
2140000000.0 -0.40383476011855385 0.04042918535132345
2160000000.0 -0.36054017474057287 0.13080245083397535
2180000000.0 -0.3669249256619261 -0.020637291712746614
2200000000.0 -0.33322400878814806 -0.10617256935012141
2220000000.0 -0.13197968987329012 -0.31881173071972935
2240000000.0 -0.2663831705676987 -0.21857513455801972
2260000000.0 -0.3095659305749146 -0.16924556217650913
2280000000.0 -0.21937674146760527 0.28747806638064727
2300000000.0 0.32738176703204097 0.19130885175453352
2320000000.0 -0.16901448219635487 -0.3661294982314124
2340000000.0 -0.22610863584611654 0.3708930267726479
2360000000.0 0.26934523832610396 -0.3841030566658426
2380000000.0 -0.4384082147969361 0.2689988140425651
2400000000.0 0.4433675588636113 -0.3455737034541787
2420000000.0 -0.33688382520085963 0.5105614500777045
2440000000.0 -0.11982335160687217 -0.646871202024805
2460000000.0 0.5161659104975892 0.4661827687278881
2480000000.0 -0.7101754833026311 -0.14878413143752064
2500000000.0 0.735889218231608 0.11099362643240702
2520000000.0 -0.6976620540925875 -0.2860081573191649
2540000000.0 0.4966387097364727 0.5683605994632775
2560000000.0 -0.004580809167451257 -0.7481652486791126
2580000000.0 -0.6315245297865539 0.3707638083494718
2600000000.0 0.6759474434849198 0.2097976325357616
2620000000.0 -0.2405502392364276 -0.6335678065095248
2640000000.0 -0.4330454001871909 -0.47177335973463835
2660000000.0 -0.23247398868969418 0.548056719216903
2680000000.0 0.5505755488289235 0.00813769699526756
2700000000.0 -0.18641576479329922 -0.471722656923269
2720000000.0 -0.2174885824337766 0.4101093612555641
2740000000.0 0.3939229873552182 -0.1581425752640385
2760000000.0 -0.380800211617676 0.07418285806066201
2780000000.0 0.2452430589041138 -0.2600948163343618
2800000000.0 0.032084199531221415 0.3288304565283532
2820000000.0 -0.30153093936631004 -0.07051206942394245
2840000000.0 0.19126134891511973 -0.2238231252692166
2860000000.0 -0.011195767255046974 0.2837864586734904
2880000000.0 -0.07874210289973294 -0.26843568051362166
2900000000.0 0.015646584660266975 0.2771613758381775
2920000000.0 0.2705666110782229 0.07820457039595795
2940000000.0 0.1397483667413959 -0.2539133559724611
2960000000.0 -0.11023636525012438 -0.27694173474583567
2980000000.0 -0.22907353566817257 -0.20428866333432244
3000000000.0 -0.18118432956843392 -0.2543817269489719
3020000000.0 -0.12490347472069624 -0.2897802811123711
3040000000.0 0.2498670363341319 -0.18872650520815523
3060000000.0 0.1866265382343452 0.24913448951587433
3080000000.0 -0.29835368504166937 -0.059222322273928686
3100000000.0 0.27862880233774867 -0.10031247965834737
3120000000.0 -0.1882856240506383 0.21316853627146315
3140000000.0 0.09402533817413615 -0.2537659555199646
3160000000.0 -0.1891564389684947 0.17019352749317881
3180000000.0 0.08096047684536753 0.22451529448872895
3200000000.0 -0.10362285557533582 -0.19266938761320657
3220000000.0 0.14091733458132047 0.13863043838824166
3240000000.0 -0.17279079261600816 0.013648407232462837
3260000000.0 0.11593368773059122 -0.08957345284007362
3280000000.0 0.08604438129776265 0.0811642427046148
3300000000.0 0.08644579534639583 0.02265789170174403
3320000000.0 0.016186585637826757 -0.05607576828191376
3340000000.0 -0.01623479825464092 0.027101708827020406
3360000000.0 0.012871347924962808 -0.0008683130667928377
3380000000.0 0.0012812867138390599 0.020807574199317187
3400000000.0 -0.01313296879117897 0.030475503941789987
3420000000.0 -0.041975429059071735 -0.005039740162692842
3440000000.0 -0.038144400240386976 0.026308471419054888
3460000000.0 0.005623264042039986 0.044710490626900426
3480000000.0 0.04182077147188228 -0.03227025165620714
3500000000.0 0.05645789992016528 -0.03934099871786942
3520000000.0 -0.03211262950814592 -0.08534091029189121
3540000000.0 0.06835761970021086 -0.08855036377974763
3560000000.0 0.08374260029389553 -0.09871897576705559
3580000000.0 0.1380231899149458 0.037784716371727346
3600000000.0 0.1545139574696321 0.04733458844200306
3620000000.0 0.1664470981670501 -0.026976647423044495
3640000000.0 0.1295767720224274 0.11988800070557964
3660000000.0 -0.0007633642809293658 0.1814962253211596
3680000000.0 -0.17692383192147726 -0.05357912418919496
3700000000.0 0.045670211840407926 -0.17878931398525233
3720000000.0 0.1278035469200855 0.1325111789161488
3740000000.0 -0.07473924571994205 0.16652307308265268
3760000000.0 0.08440031831887405 -0.15757386993533218
3780000000.0 -0.08446463105742402 0.1518009113010816
3800000000.0 0.11899459614029563 -0.11490476970830281
3820000000.0 -0.11672501078495572 -0.10709582658405702
3840000000.0 -0.08724643157367624 -0.12095385102305764
3860000000.0 0.07482972370510298 -0.12569782592974046
3880000000.0 0.1430221128553583 0.041119004352422224
3900000000.0 0.1517484665741991 0.008652325791357579
3920000000.0 0.12425261910034624 -0.0967246595744551
3940000000.0 -0.11213343154264283 0.1240272195000995
3960000000.0 -0.1511547250653721 0.08727242693797213
3980000000.0 0.1537892299631142 0.09155158927334454
4000000000.0 0.11905035431690936 -0.12289987912900062
