! Created with skrf (http://scikit-rf.org).
# Hz S RI R 50.0 
!freq ReS11 ImS11
400000000.0 -0.8287611920745724 0.23989012515767644
420000000.0 0.14435180494839062 0.8535490690102947
440000000.0 0.8169447234796512 -0.18643753154406043
460000000.0 0.35189861175917997 -0.7058446764762915
480000000.0 0.643975606285058 -0.33717199902536243
500000000.0 -0.523396600633632 -0.21443760736634818
520000000.0 -0.4753221517428462 -0.11730957071214013
540000000.0 -0.011657843555402928 -0.41094958357939904
560000000.0 -0.34496683570547054 -0.12493045071006859
580000000.0 0.19775882695408628 -0.25096612246914896
600000000.0 0.06501357516516058 -0.32089690773820884
620000000.0 0.32626933358681687 0.054851774823871616
640000000.0 -0.340597535014451 -0.08658341507016556
660000000.0 -0.33451934665480837 0.19550960349532487
680000000.0 0.11751355862622682 -0.39120731815417714
700000000.0 -0.3868783196221124 0.2158780022348615
720000000.0 0.3161095250905061 0.31357179740966634
740000000.0 -0.056262511826419406 0.4518000974911109
760000000.0 -0.41909554444253444 -0.10312681576647086
780000000.0 0.3489552891441524 -0.18092825423387165
800000000.0 0.16995242821668013 0.3107120083294735
820000000.0 -0.1524534145696115 0.24667004493411265
840000000.0 0.24013783497675964 -0.020762252855945008
860000000.0 -0.11532158828814927 0.15175990128129252
880000000.0 -0.08623931743425067 0.11804130081033255
900000000.0 -0.06699413316674725 -0.012022292953750534
920000000.0 0.03609467789181508 -0.003580535802101166
940000000.0 -0.02881285958035322 0.01921927159062194
960000000.0 -0.027542100330808107 0.0332390926459484
980000000.0 0.014702410121107045 0.05121642191833357
1000000000.0 0.027590276779861297 0.05715285354356263
1020000000.0 0.0757502078031069 0.0016150334426185105
1040000000.0 0.0564852203862811 -0.07483955140500903
1060000000.0 0.10719264429207928 0.06920838436032213
1080000000.0 -0.015384555166746508 -0.14844531980407805
1100000000.0 -0.08342008791880455 0.15058450188907366
1120000000.0 0.030641459832813047 0.20073436938548517
1140000000.0 -0.22603863191919263 -0.09387791208337631
1160000000.0 -0.23958807452618144 0.1489397538307866
1180000000.0 0.1222261610626347 0.29935558712781124
1200000000.0 -0.24333231705852165 0.25583759188940997
1220000000.0 -0.29678297682423893 -0.24563578702873445
1240000000.0 0.35933014847930733 0.18706162431402082
1260000000.0 -0.3916470340879782 -0.18027426631422683
1280000000.0 0.3198516847208933 0.2993175884741409
1300000000.0 0.21995198401639005 -0.38653258653576306
1320000000.0 -0.34300777884678924 -0.26934762601987755
1340000000.0 -0.03342376587847563 -0.4308656577318507
1360000000.0 0.08854719834806028 -0.42134080019160375
1380000000.0 -0.10632027254070113 -0.4162285583774986
1400000000.0 -0.36349541656662177 0.19790187048747462
1420000000.0 -0.0798147196431698 0.387045757016588
1440000000.0 0.34241393279870036 0.1374092917512143
1460000000.0 0.3099779265603328 0.13849142732360048
1480000000.0 0.28524770897327933 -0.13765840579838604
1500000000.0 0.05434649198046319 -0.28588888084195363
1520000000.0 -0.18910182347293866 0.18802422720597106
1540000000.0 0.21365069330888406 -0.11885367351957499
1560000000.0 0.21193707199780554 -0.005602358278533522
1580000000.0 0.18103567556063146 -0.01656744695262526
1600000000.0 -0.13541739276008705 0.06654057996536439
1620000000.0 0.09963266966210015 -0.058546936653013935
1640000000.0 0.07918675477840835 -0.037896777979428205
1660000000.0 -0.029001518759117804 -0.055234531839787056
1680000000.0 -0.025469157978482735 -0.022009946171145274
1700000000.0 -0.0007145351825453848 0.015566047021144204
1720000000.0 0.010401180802076457 -0.012383272908280028
1740000000.0 0.014294731889229877 -0.03129482413734988
1760000000.0 -0.04414764226666254 0.02967990209960275
1780000000.0 0.05534999240294149 -0.05742890967216593
1800000000.0 0.10828621542692446 -0.03614493706027041
1820000000.0 -0.08821597254595628 0.11051147569263066
1840000000.0 0.1454006639458138 -0.09295066951725892
1860000000.0 -0.137931759968287 0.14758820106181508
1880000000.0 0.14877572097834854 0.17795227535794253
1900000000.0 0.2576577798201905 0.06712454872395239
1920000000.0 -0.020327449133638275 -0.2980663148811305
1940000000.0 -0.2541093166840642 -0.21280816862950583
1960000000.0 -0.2547252380944931 0.2612822363957225
1980000000.0 0.26744013756643525 0.2833616191051317
2000000000.0 0.40199030869304647 -0.10186258374627667
2020000000.0 -0.10662856135795293 -0.42278811837828595
2040000000.0 -0.3615062034551316 0.26495573701624303
2060000000.0 0.35044455542092173 0.28773017456193695
2080000000.0 0.07345513396995115 -0.4462264504135258
2100000000.0 -0.44090913615964084 0.009527881195124406
2120000000.0 -0.20570337668362162 0.37165670213945734
2140000000.0 -0.40373110457901834 0.03982393457513963
2160000000.0 -0.3545538944915272 0.14578018961575195
2180000000.0 -0.3662722234577611 -0.029313105314237566
2200000000.0 -0.3322829633397849 -0.11011840698815169
2220000000.0 -0.11657528713985488 -0.32545750741988017
2240000000.0 -0.23785282539701602 -0.24992902182838878
2260000000.0 -0.31284087345553074 -0.16351672416228566
2280000000.0 -0.2036651268330428 0.2990705993702451
2300000000.0 0.338000891166781 0.17185854897255184
2320000000.0 -0.1708648086304245 -0.36532241756916584
2340000000.0 -0.19276144509785825 0.3897092366446575
2360000000.0 0.2652004098942101 -0.38744221036662657
2380000000.0 -0.4485297410928019 0.2510960382992084
2400000000.0 0.4532595303752512 -0.33250200799119045
2420000000.0 -0.3429840849421296 0.5066509151818467
2440000000.0 -0.09505058707090372 -0.6508511691574804
2460000000.0 0.49494060574588356 0.48904889103181914
2480000000.0 -0.712497640650279 -0.13709978328760075
2500000000.0 0.7341115059756255 0.12095562784746529
2520000000.0 -0.686652739631812 -0.3116646485094488
2540000000.0 0.5393709517408115 0.5275721259785328
2560000000.0 -0.030559350742461123 -0.7472325922931041
2580000000.0 -0.6267599611287451 0.3786887849589028
2600000000.0 0.6772148081969095 0.20599050439410202
2620000000.0 -0.21277715482237833 -0.6436611204117069
2640000000.0 -0.4610331209332221 -0.44481338702657985
2660000000.0 -0.24141747623404677 0.5441730292012114
2680000000.0 0.5466383474042475 0.06371296075513752
2700000000.0 -0.15209307507104938 -0.4835900146327942
2720000000.0 -0.2210145602933942 0.40810710607159584
2740000000.0 0.3949481351426751 -0.1551839793075872
2760000000.0 -0.3801349112121855 0.07728613072711672
2780000000.0 0.2560507060411378 -0.24922301459547583
2800000000.0 0.03579392416727586 0.32827226789164515
2820000000.0 -0.3010533704884579 -0.07148657035383413
2840000000.0 0.1936941992249079 -0.2217341174765934
2860000000.0 0.009002886977803996 0.28360082709156215
2880000000.0 -0.07478410919379692 -0.2692040110604385
2900000000.0 0.008728764090045778 0.2773607086649231
2920000000.0 0.2719060506976795 0.07394933816025709
2940000000.0 0.13110189782507872 -0.2583779639415858
2960000000.0 -0.08405322455017854 -0.2862633264480065
2980000000.0 -0.2310545259314107 -0.2023718893463533
3000000000.0 -0.1635291103752473 -0.26640249524710674
3020000000.0 -0.1193573019201316 -0.29228436083816345
3040000000.0 0.24223957578315727 -0.19878172537077632
3060000000.0 0.2175953136369649 0.22278267293182683
3080000000.0 -0.29968751218609596 -0.05141815641146844
3100000000.0 0.28028286578811723 -0.09521560307475654
3120000000.0 -0.19993635963351242 0.20202435878580446
3140000000.0 0.10007734833775879 -0.2513714690543258
3160000000.0 -0.19464935676547238 0.16378754960386535
3180000000.0 0.06278612852665168 0.23006342225228443
3200000000.0 -0.09669920782243276 -0.1963207916880104
3220000000.0 0.13029365032790977 0.14881080721461462
3240000000.0 -0.1734149293086309 0.0017539994117054909
3260000000.0 0.10805028085867156 -0.09966541930231633
3280000000.0 0.10166617803317288 0.06090650121287404
3300000000.0 0.08837335160761926 0.01316662796830836
3320000000.0 0.01331946773054281 -0.05678674745445731
3340000000.0 -0.027490094173907857 0.01609900059002889
3360000000.0 0.004411362634003214 0.011966320799690924
3380000000.0 0.01668431166467293 0.011660555303945691
3400000000.0 -0.001012431047457939 0.03251226382865969
3420000000.0 -0.03920292184815782 0.013698158392791298
3440000000.0 -0.025408505178344826 0.03826867762183693
3460000000.0 0.027033574599336505 0.03504805556235261
3480000000.0 0.05133587003058291 0.005571441417211055
3500000000.0 0.056837320515190255 -0.03886032254629598
3520000000.0 -0.03529530202581268 -0.08384637822353867
3540000000.0 0.08829913428704156 -0.06706328572425725
3560000000.0 0.07796726046712861 -0.10274998940101167
3580000000.0 0.14071094239947438 0.024833129425497053
3600000000.0 0.1616088653108347 -0.0009596802696409108
3620000000.0 0.163615263263666 -0.03913772445519054
3640000000.0 0.1450356389898403 0.10060814631353113
3660000000.0 0.015399481976562324 0.18094037365983032
3680000000.0 -0.1806396194601756 -0.03943740896377981
3700000000.0 0.03153981529354683 -0.18193269259083428
3720000000.0 0.14367905916904253 0.11664763567729196
3740000000.0 -0.04795790084814302 0.17676046985479477
3760000000.0 0.06055958000892267 -0.16884595929735374
3780000000.0 -0.046708211005469256 0.16685980579539236
3800000000.0 0.10212440357340587 -0.13048224902305883
3820000000.0 -0.12787331786322703 -0.09349915077115936
3840000000.0 -0.08405496757805896 -0.1236911679571785
3860000000.0 0.07616857717129354 -0.12522106584484138
3880000000.0 0.14402897400210818 0.03856208163223102
3900000000.0 0.1525223805388318 0.0021215527224501016
3920000000.0 0.11798087259366039 -0.10504515995342154
3940000000.0 -0.0740861443058341 0.15013247345953962
3960000000.0 -0.10260841920826083 0.14163781792590072
3980000000.0 0.1786428037089477 -0.0027937563404836357
4000000000.0 0.03718388108273296 -0.16716246386828218
