! Created with skrf (http://scikit-rf.org).
# Hz S RI R 50.0 
!freq ReS11 ImS11
400000000.0 -0.8108662789932918 0.2954554317907614
420000000.0 0.16538125223779673 0.84999084330304
440000000.0 0.8154867303050792 -0.19327625203059853
460000000.0 0.3693580003164761 -0.6967368966129919
480000000.0 0.6296862984796036 -0.36251778837623166
500000000.0 -0.5307986522016976 -0.19699467898262588
520000000.0 -0.47540232518215125 -0.11730776014598401
540000000.0 -0.009573973567011305 -0.4102783048980225
560000000.0 -0.32285901543418954 -0.174508950458022
580000000.0 0.184277599034827 -0.26093146015541485
600000000.0 0.07943593049125088 -0.31729036533322463
620000000.0 0.33095562133209955 0.018048491980282768
640000000.0 -0.34707570424555595 -0.05087873635576152
660000000.0 -0.3615451263087747 0.14081793742293947
680000000.0 0.10768596684060047 -0.3944776891831994
700000000.0 -0.36664467314354243 0.24951578654383372
720000000.0 0.2997419431695774 0.3282498934239665
740000000.0 -0.09563810756721923 0.44566810649186367
760000000.0 -0.41923971338211286 -0.10446561598567135
780000000.0 0.3420522426092185 -0.19408645953427234
800000000.0 0.1739865252635925 0.30812471585747664
820000000.0 -0.16354894704862918 0.23924469066117232
840000000.0 0.2411006932338279 -0.0004992214384427333
860000000.0 -0.1094290944156109 0.15592725148307585
880000000.0 -0.09104789673832342 0.1142056576428391
900000000.0 -0.06824374686870988 -0.0021049498352713816
920000000.0 0.036672511096980186 -0.00022221150224969723
940000000.0 -0.0345958833090043 -0.007320323194043706
960000000.0 -0.042118394663539276 0.011115939986383475
980000000.0 0.006321361571993946 0.053280962740623425
1000000000.0 0.039273454647318094 0.050550278429009075
1020000000.0 0.07493689814916338 -0.01193734503814747
1040000000.0 0.03170358727509054 -0.0879755092562758
1060000000.0 0.11786439165676685 0.04896584617495977
1080000000.0 -0.026654744326958645 -0.14696923142348664
1100000000.0 -0.056358272836009596 0.1627370859168728
1120000000.0 0.05194309338995591 0.19604107390016579
1140000000.0 -0.2386666974171604 -0.05474052799084323
1160000000.0 -0.23148354210335173 0.16110063103080616
1180000000.0 0.1146868906313449 0.3021608950717335
1200000000.0 -0.24636148524108065 0.2526638103168874
1220000000.0 -0.3049395176963067 -0.2354306490853797
1240000000.0 0.3480601162867469 0.20689596336625013
1260000000.0 -0.38397975064848344 -0.19666739924563595
1280000000.0 0.3243917182879773 0.29478909742095755
1300000000.0 0.20815611305423157 -0.3933459781365834
1320000000.0 -0.35064600501954934 -0.2599551475126347
1340000000.0 -0.03766340455844482 -0.43067710147360877
1360000000.0 0.09339186384495361 -0.4203906630038733
1380000000.0 -0.117701639599342 -0.41319883800584933
1400000000.0 -0.3617654949038898 0.2014429103829322
1420000000.0 -0.07195407593455659 0.3885280478792267
1440000000.0 0.3402688032141733 0.14373311182983728
1460000000.0 0.32137740802034936 0.1089486064607512
1480000000.0 0.25117728384935595 -0.1922831701482628
1500000000.0 0.07407111130191178 -0.2810115800918375
1520000000.0 -0.1641096277494696 0.20898712908320585
1540000000.0 0.22701455661629324 -0.08873871635837263
1560000000.0 0.2058267559755834 0.04764000169375799
1580000000.0 0.1814775988734885 -0.005686121177877662
1600000000.0 -0.1430173325064125 0.04717805864126256
1620000000.0 0.11479384552996424 -0.013843183203112975
1640000000.0 0.08842550380808302 -0.006177893772515307
1660000000.0 0.005023762012209553 -0.06332501799634048
1680000000.0 -0.0322204372509848 -0.015107425209410193
1700000000.0 -0.005557073344207214 0.015808151395834646
1720000000.0 -0.016056607440279924 -0.00034854095091830346
1740000000.0 0.033983989929033766 0.00480933570102821
1760000000.0 -0.05181608311413612 -0.012279895734362037
1780000000.0 0.0725851270444412 -0.034609764533507295
1800000000.0 0.1130886623642977 -0.02155863912230354
1820000000.0 -0.0954602059906385 0.10505837224312131
1840000000.0 0.14382398411329103 -0.09684748883029144
1860000000.0 -0.13660588721220768 0.15013010633211044
1880000000.0 0.16347648872473888 0.16592832262884624
1900000000.0 0.26607969233925627 0.01892163099231891
1920000000.0 -0.08055736471568152 -0.2879466165925992
1940000000.0 -0.27433918375378225 -0.18499240650431556
1960000000.0 -0.23431509377415963 0.2787275430542292
1980000000.0 0.26167190536873003 0.2870885660708268
2000000000.0 0.40947607834211397 -0.05922966226927354
2020000000.0 -0.06638542136026362 -0.4301530102015894
2040000000.0 -0.3990908000703266 0.20387894954115496
2060000000.0 0.3233783080078432 0.3176734784675454
2080000000.0 0.11529230775643753 -0.4378159284598497
2100000000.0 -0.44118582634405956 0.020408280589720048
2120000000.0 -0.22285897518669015 0.36241602210175883
2140000000.0 -0.3881178543053153 0.11960657011903432
2160000000.0 -0.3273315783040079 0.2000988598268727
2180000000.0 -0.3610688831472943 0.06759740443940125
2200000000.0 -0.34448947158127996 -0.05887499454415382
2220000000.0 -0.15778035580016997 -0.30679296976098447
2240000000.0 -0.25235634771836774 -0.23473321646326717
2260000000.0 -0.3016414607372165 -0.18299853061182078
2280000000.0 -0.22740545693750133 0.2818347844386093
2300000000.0 0.32320335856809856 0.1996822505181722
2320000000.0 -0.15257228771438364 -0.3742491077997506
2340000000.0 -0.21423109500627494 0.3789852468576889
2360000000.0 0.24588633185134157 -0.4007664790030031
2380000000.0 -0.426216527736163 0.2886361610628961
2400000000.0 0.43309803059733415 -0.35838348993741737
2420000000.0 -0.3163882141665839 0.5233354059854126
2440000000.0 -0.095784067155651 -0.6507304505142102
2460000000.0 0.5441858322259432 0.43280479890147383
2480000000.0 -0.7134656413121763 -0.12838905996531286
2500000000.0 0.7413998340621384 0.056428127922380035
2520000000.0 -0.7107520179687921 -0.24934286059290087
2540000000.0 0.5306334827568425 0.5362286300651522
2560000000.0 -0.056649028441314905 -0.7452328338004344
2580000000.0 -0.5919328624661282 0.4299783455667171
2600000000.0 0.6924397769223987 0.14539395897757962
2620000000.0 -0.24754114452611303 -0.630637412157421
2640000000.0 -0.4053085313531337 -0.4952094225411229
2660000000.0 -0.16782060191388837 0.5707089683056471
2680000000.0 0.5493540226534595 0.023751426825987954
2700000000.0 -0.1817815753700563 -0.47306363891875386
2720000000.0 -0.220462195917946 0.4083124081617809
2740000000.0 0.39171096457714666 -0.1633404895652181
2760000000.0 -0.38023322329253934 0.07511334346627617
2780000000.0 0.25540502727879294 -0.2493136842969312
2800000000.0 0.031537604416211104 0.32848709920383773
2820000000.0 -0.3001861309724761 -0.07420334529409173
2840000000.0 0.21464995162177744 -0.20168432625803714
2860000000.0 -0.009180359129336488 0.28349791201980373
2880000000.0 -0.08150439172139005 -0.2672937497760313
2900000000.0 0.04413200940641389 0.27335594567698673
2920000000.0 0.27008036919245537 0.07864097444132861
2940000000.0 0.12900501782907023 -0.25935442611008247
2960000000.0 -0.13715226934383992 -0.26411108464202787
2980000000.0 -0.2327622075945579 -0.19884534528984596
3000000000.0 -0.16466640119277673 -0.2650277287336321
3020000000.0 -0.09587983254223784 -0.3003319794290235
3040000000.0 0.26234948759050036 -0.17041264626160782
3060000000.0 0.18014084785200296 0.25379657549260914
3080000000.0 -0.2953340226891171 -0.07291697063994214
3100000000.0 0.25946678546469676 -0.14344024008907583
3120000000.0 -0.16728174740939006 0.23001569862128857
3140000000.0 0.09393695600785658 -0.253415243027851
3160000000.0 -0.17421939524895086 0.1855104801418015
3180000000.0 0.10756197723059926 0.2126397769579505
3200000000.0 -0.11312183772093186 -0.1866800367446433
3220000000.0 0.14269362833095414 0.1365856907251735
3240000000.0 -0.17274829981880258 0.00935272400567965
3260000000.0 0.11997695787453072 -0.08389378698941043
3280000000.0 0.056401441351081695 0.10406853425247638
3300000000.0 0.08525164566174957 0.02889866860278291
3320000000.0 0.02096256073831821 -0.0550809205064211
3340000000.0 -0.02066152254610726 0.0245797199590564
3360000000.0 -0.008041929298758214 0.010420429696678444
3380000000.0 -0.019857137054513876 0.005964975944586207
3400000000.0 -0.009132431392045972 0.03218387919873742
3420000000.0 -0.04081222230330103 -0.01173279035498814
3440000000.0 -0.02859505606070589 0.03678896761055746
3460000000.0 0.04541054443480513 -0.005096564983364343
3480000000.0 0.010387039509191525 -0.051402367685551856
3500000000.0 0.04067465538061955 -0.05465581674338712
3520000000.0 -0.047550991187173944 -0.07727853052374754
3540000000.0 0.04937632095338806 -0.100198826174934
3560000000.0 0.08985182521319099 -0.09294834752845525
3580000000.0 0.14139363400923435 0.025635511534197568
3600000000.0 0.16060600161205965 0.024968698608554392
3620000000.0 0.15593559179700495 -0.06521578401526018
3640000000.0 0.15355482953495111 0.08947499732681527
3660000000.0 0.047954290030885326 0.1753814937401301
3680000000.0 -0.1819289213671954 -0.03303817777764587
3700000000.0 0.025593322026461297 -0.1827445627067766
3720000000.0 0.1281588387280466 0.13263896902926364
3740000000.0 -0.08758345029898604 0.1602889379072803
3760000000.0 0.09896570833141917 -0.1489207016853982
3780000000.0 -0.11331043090613713 0.13166168926635358
3800000000.0 0.13910640659742599 -0.09127208580215845
3820000000.0 -0.0909653436513246 -0.13122435433388047
3840000000.0 -0.08394576528520038 -0.12419926562245612
3860000000.0 0.0638021818717293 -0.13229330204527293
3880000000.0 0.144386950769997 0.03871272118292497
3900000000.0 0.15137175214856655 0.016408585549211332
3920000000.0 0.14122747328140492 -0.06925969136350645
3940000000.0 -0.12159236622454027 0.11363234582856435
3960000000.0 -0.15933573879672056 0.07180853111182377
3980000000.0 0.16439080921666643 0.07137255912471008
4000000000.0 0.07561459166872031 -0.15387479931287662
