! Created with skrf (http://scikit-rf.org).
# Hz S RI R 50.0 
!freq ReS11 ImS11
400000000.0 -0.8267809860149502 0.2405423972162575
420000000.0 0.16783682110337192 0.8489234640046868
440000000.0 0.8281222316567692 -0.127242410605805
460000000.0 0.3723635946695793 -0.6956639790177227
480000000.0 0.6184489760010581 -0.3811239085116845
500000000.0 -0.5212661232177968 -0.21953779448328056
520000000.0 -0.45702135385266196 -0.17584566233549484
540000000.0 0.00805445632333995 -0.4119046018854071
560000000.0 -0.3457332881167252 -0.12333116185340165
580000000.0 0.18584101262166813 -0.2590980664908897
600000000.0 0.1347786664673517 -0.29888095848860824
620000000.0 0.33174082727367904 0.016867625999257344
640000000.0 -0.34575958130228923 -0.05908787307129882
660000000.0 -0.35830826454261183 0.14721163380638091
680000000.0 0.14598176342449823 -0.3819855827372572
700000000.0 -0.3629060807285787 0.25485829092317175
720000000.0 0.317437103448288 0.31166425517315066
740000000.0 -0.06230507561372297 0.4506822236544894
760000000.0 -0.417200110021413 -0.11176157892961655
780000000.0 0.3477661799440454 -0.18332036652613468
800000000.0 0.17361770631369103 0.3084993105498295
820000000.0 -0.15879010407671176 0.2423707881506505
840000000.0 0.23860346038608216 -0.03347284699218967
860000000.0 -0.10143216516727357 0.1614425285655593
880000000.0 -0.07181851615512652 0.127805077678137
900000000.0 -0.06766785741155408 -0.009996069573136543
920000000.0 0.027057042170925617 0.024348831398002264
940000000.0 -0.03445240931267692 0.0027575698421131185
960000000.0 -0.032352785344622194 0.02851136114252918
980000000.0 0.014770747326255718 0.050953266748774644
1000000000.0 0.021473650384617817 0.05967381091011084
1020000000.0 0.07488618989222437 0.011325330454502009
1040000000.0 0.05883760155658624 -0.07287637493264491
1060000000.0 0.10786922678754977 0.06859007606000844
1080000000.0 -0.03866977607719122 -0.14453303361796435
1100000000.0 -0.06986357309965378 0.1575404137002008
1120000000.0 0.04528043950728703 0.1980597189211849
1140000000.0 -0.23847607978735838 -0.0566012928542268
1160000000.0 -0.24035719008154563 0.1479920202451789
1180000000.0 0.10953998841333762 0.30431315121871066
1200000000.0 -0.24608017516919206 0.2530476886733752
1220000000.0 -0.3009034193698384 -0.24034659222540875
1240000000.0 0.35254577475059 0.19932431607059295
1260000000.0 -0.3940735812644356 -0.17419840784580246
1280000000.0 0.3180544057997979 0.30071610438153906
1300000000.0 0.2093563902553885 -0.3920688657165565
1320000000.0 -0.3522363948866881 -0.2568111656241701
1340000000.0 -0.04946186855156703 -0.42907473849861866
1360000000.0 0.08183726885349707 -0.42256542801691593
1380000000.0 -0.1079267880306935 -0.41572436151579095
1400000000.0 -0.36140913063527313 0.2015209995168171
1420000000.0 -0.09498637123106321 0.3836966972302932
1440000000.0 0.33381502462151075 0.15818654880354013
1460000000.0 0.30575140109914273 0.14871851833337293
1480000000.0 0.28730802247317716 -0.13480883679023115
1500000000.0 0.06399076723727036 -0.2842994684909168
1520000000.0 -0.17531471382077768 0.2011110989076187
1540000000.0 0.21800512907975655 -0.11117288138195988
1560000000.0 0.2117147098406094 0.011589844730529266
1580000000.0 0.17965527541400272 -0.02795199537189378
1600000000.0 -0.13235167172694756 0.07181547185207623
1620000000.0 0.0931058896823255 -0.0673284970986897
1640000000.0 0.07253202362015775 -0.048640119528941345
1660000000.0 -0.05027028091238631 -0.03676031440205577
1680000000.0 -0.03310441185390379 0.005177329478956409
1700000000.0 0.010639230453601012 0.011021513458630363
1720000000.0 0.015197626859105402 -0.005349500350100897
1740000000.0 -0.027759542385874886 -0.02020638437875745
1760000000.0 -0.025751919788403518 0.0459089691670429
1780000000.0 0.031876383633148694 -0.0726967552723923
1800000000.0 0.09156095975714126 -0.0673872762327617
1820000000.0 -0.06171613518442632 0.126534907534756
1840000000.0 0.12751284791124054 -0.11554537413644221
1860000000.0 -0.12841666613797673 0.15557378966491503
1880000000.0 0.14163316790596311 0.18338078219089018
1900000000.0 0.2555399131345142 0.07553874499269797
1920000000.0 0.0033869514021557055 -0.2991425022573079
1940000000.0 -0.22689829165617967 -0.24242216632759211
1960000000.0 -0.2697373584124214 0.2468319458341732
1980000000.0 0.2563229521394311 0.2939785184376613
2000000000.0 0.40501125701140894 -0.09106321722604818
2020000000.0 -0.10716600321353464 -0.422757014316211
2040000000.0 -0.3684845411347749 0.255114738053424
2060000000.0 0.33260777061026364 0.3077403251889593
2080000000.0 0.08992375183302778 -0.4424229463035676
2100000000.0 -0.4365841209948356 0.05388053568867961
2120000000.0 -0.24966196201542984 0.3428375349433878
2140000000.0 -0.4048630250936904 0.0016254446540410494
2160000000.0 -0.3621053521172062 0.12352958099690911
2180000000.0 -0.36614751039842947 -0.025706258351221284
2200000000.0 -0.32658169053035846 -0.12561211978767692
2220000000.0 -0.1034400694922588 -0.32942141023587224
2240000000.0 -0.2695501486488618 -0.21520490644301335
2260000000.0 -0.3196781538851561 -0.1501117709173055
2280000000.0 -0.21008798718541544 0.2940561197501697
2300000000.0 0.3239556995517478 0.19565629284295954
2320000000.0 -0.16063727061243632 -0.3694387958128642
2340000000.0 -0.21259555581696188 0.3786128551872063
2360000000.0 0.28674118756432204 -0.3709286703362037
2380000000.0 -0.4691279468978427 0.2094497500144992
2400000000.0 0.47921049225610424 -0.2932557789018126
2420000000.0 -0.36966136749152817 0.48704909954237596
2440000000.0 -0.053929009948799206 -0.6555285941617847
2460000000.0 0.4884979386840355 0.49494125010362827
2480000000.0 -0.7020878592830271 -0.18247109299412737
2500000000.0 0.7034774136701085 0.24426035175001895
2520000000.0 -0.6554453364135561 -0.3728330620597134
2540000000.0 0.5011392192358011 0.5646924507740247
2560000000.0 0.06249901409736996 -0.7457792079946964
2580000000.0 -0.6273062039186403 0.3783623780931649
2600000000.0 0.6684698097224246 0.23475368566002425
2620000000.0 -0.15813493266263157 -0.6595476537164287
2640000000.0 -0.40083930804383533 -0.4999567647322413
2660000000.0 -0.2405063461935077 0.5449484005370631
2680000000.0 0.5481322820184799 0.05350592709245542
2700000000.0 -0.17170815399826664 -0.47720387206818526
2720000000.0 -0.22298483392906276 0.4069682975952407
2740000000.0 0.3968389965656867 -0.14992409709486476
2760000000.0 -0.3814979383861268 0.0679790768628635
2780000000.0 0.24968700665977528 -0.25549194370017325
2800000000.0 0.042504986542613435 0.3275524193162446
2820000000.0 -0.30391258925405834 -0.060513900991165846
2840000000.0 0.1731712685123627 -0.2387774727221845
2860000000.0 0.008539800644071133 0.2843521475338333
2880000000.0 -0.0741059831679057 -0.2704399559391456
2900000000.0 0.009139650085917553 0.2781360877161789
2920000000.0 0.2655395148835312 0.09537264108859929
2940000000.0 0.15466387180471533 -0.24554666909849737
2960000000.0 -0.08259833524579029 -0.2869024560015073
2980000000.0 -0.2251071965653241 -0.20903121584532539
3000000000.0 -0.1331414627715322 -0.2829771103206145
3020000000.0 -0.07626319418460718 -0.30630487698107617
3040000000.0 0.24662372043521066 -0.1930365636438693
3060000000.0 0.16350117302413172 0.26454740271609783
3080000000.0 -0.30065299115028066 -0.04146749279440718
3100000000.0 0.2648491224264278 -0.13085999702058027
3120000000.0 -0.21259544997337035 0.18762636818997822
3140000000.0 0.10424362395790954 -0.24873189165923
3160000000.0 -0.1828553840512523 0.17628422410438346
3180000000.0 0.08308870282845546 0.22339275824252747
3200000000.0 -0.10849157247104683 -0.1900732933112306
3220000000.0 0.1557224505311114 0.12284136028553984
3240000000.0 -0.17001289872839262 0.03616082196776396
3260000000.0 0.08496396716159069 -0.12012936618516729
3280000000.0 0.10581668052657468 0.054357664797610915
3300000000.0 0.08996350547610402 -0.0036391116614173376
3320000000.0 0.014965780656162617 -0.05689969366206963
3340000000.0 -0.01839901683715865 0.02632331502992359
3360000000.0 -0.009608301232223969 0.00813943995757102
3380000000.0 0.01841953665988493 0.007575972671642396
3400000000.0 0.026962896821761572 0.017995276127293975
3420000000.0 -0.018509672422331657 0.03691406186545237
3440000000.0 -0.009740904081947492 0.04427245338040816
3460000000.0 0.03264798694375031 0.029922462229056923
3480000000.0 0.03941511073768667 -0.033805966039780665
3500000000.0 0.039885719622195295 -0.05591247027829018
3520000000.0 -0.0770917823305432 -0.048537624712091144
3540000000.0 0.00458713098023871 -0.11155474311229623
3560000000.0 0.03009117275118979 -0.12515771051149574
3580000000.0 0.13881745931031225 -0.03376835101767341
3600000000.0 0.15979514397636144 -0.021635192789847317
3620000000.0 0.1508261293017167 -0.07432547276721813
3640000000.0 0.14660793959167998 0.09838898211572848
3660000000.0 0.026101013965504523 0.1797670001551362
3680000000.0 -0.18000596662985727 -0.04344698998129568
3700000000.0 0.025996540301468713 -0.1832728276105615
3720000000.0 0.14500462848831092 0.11495913433267811
3740000000.0 -0.03113021269618206 0.18088968858818363
3760000000.0 0.045439721101961386 -0.17358394459945636
3780000000.0 -0.03833153185339826 0.16936124489272658
3800000000.0 0.10063035668248638 -0.13149137486280396
3820000000.0 -0.1263990060505067 -0.09520132993634282
3840000000.0 -0.08007379925279703 -0.1258489786881198
3860000000.0 0.09471575931601708 -0.11198587148651602
3880000000.0 0.13289464774373286 0.068887988890457
3900000000.0 0.150594798909316 0.025990036823283616
3920000000.0 0.12406619061826756 -0.09832023984455968
3940000000.0 -0.08441711509893297 0.14432118910296085
3960000000.0 -0.13345615201796834 0.11381357338425592
3980000000.0 0.16999709510610794 0.056456253982985045
4000000000.0 0.1057321187495607 -0.13455206648860593
