! Created with skrf (http://scikit-rf.org).
# Hz S RI R 50.0 
!freq ReS11 ImS11
400000000.0 -0.8199574604396397 0.2672416105361951
420000000.0 0.1288993231118917 0.8552541336123088
440000000.0 0.8247578741577931 -0.1515082554712021
460000000.0 0.3347491921086154 -0.7149061923030344
480000000.0 0.6105504814699365 -0.3919986925443979
500000000.0 -0.4582159176080116 -0.3307368126827369
520000000.0 -0.4820326856006317 -0.0957397778027835
540000000.0 -0.13709848697715443 -0.38655011121077165
560000000.0 -0.3075478321829641 -0.19733252941808954
580000000.0 0.242462242643935 -0.20998296424863053
600000000.0 0.002868129323826646 -0.32832217515871737
620000000.0 0.32650099861408555 -0.05227225105057593
640000000.0 -0.33003579862208554 -0.11822251629120313
660000000.0 -0.3518102687048197 0.16206173064604426
680000000.0 0.13895215223129884 -0.3858085719461798
700000000.0 -0.3437261188801306 0.2788928995337382
720000000.0 0.30080513827175986 0.3272038571026885
740000000.0 -0.1063151467115446 0.44337999537217515
760000000.0 -0.424882634409393 -0.07693883934049364
780000000.0 0.34065317482319707 -0.19642802093577194
800000000.0 0.1694379529077845 0.31065256471845326
820000000.0 -0.1641684540092239 0.2395189715033092
840000000.0 0.23506774125598218 -0.053220050174869866
860000000.0 -0.10519522587518018 0.15916661786187852
880000000.0 -0.07710797563646608 0.12478404618715144
900000000.0 -0.06735965299563641 -0.013161951485078682
920000000.0 0.02162956124209819 0.029530689520981108
940000000.0 -0.029047019287282372 0.019147013759629496
960000000.0 -0.017381184491171833 0.04031977204752596
980000000.0 0.027517451334536987 0.045331485859373175
1000000000.0 0.025614651570255432 0.05816896950127515
1020000000.0 0.07548833571130105 0.010949608613587158
1040000000.0 0.04233942265690169 -0.08344839499282701
1060000000.0 0.10364695143242092 0.07464903998390106
1080000000.0 -0.01947764384987325 -0.14811540016566196
1100000000.0 -0.07546199690824691 0.15492924344702802
1120000000.0 0.04946358363169142 0.19692927730950152
1140000000.0 -0.23501990180751395 -0.06876065455051884
1160000000.0 -0.23377193533956506 0.15805290929884006
1180000000.0 0.11730581378937747 0.3012654425689056
1200000000.0 -0.24880134702588236 0.24988984631249372
1220000000.0 -0.2988334468876929 -0.2428521366631497
1240000000.0 0.3524197522884174 0.1997621849763468
1260000000.0 -0.39313303573199954 -0.17649402879502707
1280000000.0 0.3179944087277586 0.30110485589936653
1300000000.0 0.2187571454103221 -0.38701683361546424
1320000000.0 -0.3540966463704138 -0.25484438306767093
1340000000.0 -0.047849182868713355 -0.42950622689254214
1360000000.0 0.08843802799862091 -0.4213259146037665
1380000000.0 -0.09720247300017995 -0.4185991043551104
1400000000.0 -0.36630586538238247 0.19295030507887928
1420000000.0 -0.08203231992505201 0.3867116529605745
1440000000.0 0.3393351032539252 0.14516879115433629
1460000000.0 0.3103052882788014 0.13802481855436585
1480000000.0 0.2884892367862846 -0.13136226891979788
1500000000.0 0.0670213643232422 -0.28318886289453743
1520000000.0 -0.18581997995059935 0.19108125957493247
1540000000.0 0.2185989667274762 -0.10967770238057219
1560000000.0 0.2116720032758433 -0.0076308651136951
1580000000.0 0.18173769620732544 0.004686131618605214
1600000000.0 -0.129398378663798 0.07719950602126133
1620000000.0 0.09275124569734049 -0.0692231848730024
1640000000.0 0.07982437396533239 -0.03623282315579451
1660000000.0 -0.00858450918205108 -0.06185213579558666
1680000000.0 -0.02869942678024384 -0.018407469546117917
1700000000.0 -0.0006922549764789672 0.015848961868860895
1720000000.0 0.015589039210096687 -0.003935720998970992
1740000000.0 -0.0010571584379451588 -0.03443717091651054
1760000000.0 -0.04258082164342325 0.03219978482706468
1780000000.0 0.052243008016320626 -0.06023136764434254
1800000000.0 0.11270803718620806 -0.016524140835477513
1820000000.0 -0.08909689539336065 0.11027240190938535
1840000000.0 0.14522865616835745 -0.09360909950829521
1860000000.0 -0.13854396679909994 0.14745249811684377
1880000000.0 0.1488619861236186 0.17821431840950833
1900000000.0 0.2584598870291048 0.0641497751067505
1920000000.0 -0.034361270901148766 -0.29688653303183693
1940000000.0 -0.24705553960086898 -0.2205360488876692
1960000000.0 -0.2507675142490389 0.2649225195156541
1980000000.0 0.2630579457795121 0.2871485444227022
2000000000.0 0.4033429744212426 -0.09514159923258261
2020000000.0 -0.11202147478510176 -0.421113677507391
2040000000.0 -0.37786676545140313 0.24105505510286504
2060000000.0 0.3414253288491712 0.2984586488422629
2080000000.0 0.09644398728675545 -0.4420733550176911
2100000000.0 -0.4362808557536878 0.06445415849465577
2120000000.0 -0.23407967334688204 0.35474273071603524
2140000000.0 -0.40468415000904623 0.030707421163631007
2160000000.0 -0.3559036176864047 0.14260638775214832
2180000000.0 -0.36744157038073244 -0.0024486202401945716
2200000000.0 -0.3308716887826953 -0.11415759249464572
2220000000.0 -0.11701422671526018 -0.32468036460555183
2240000000.0 -0.2517185153953868 -0.23541670496154005
2260000000.0 -0.3100216643183606 -0.16883074662888908
2280000000.0 -0.21991889729498307 0.2871927779528412
2300000000.0 0.327827775407168 0.1902173235731285
2320000000.0 -0.16554390390111223 -0.3676807178103199
2340000000.0 -0.21862324524732993 0.37519300588137877
2360000000.0 0.2709502301883579 -0.3832072104421783
2380000000.0 -0.43926516511917674 0.26721229169204463
2400000000.0 0.4536820843983992 -0.33164609998730854
2420000000.0 -0.3270683133704208 0.5169198575975292
2440000000.0 -0.1254347709078334 -0.6456747889374693
2460000000.0 0.5169590276236605 0.4652968276464549
2480000000.0 -0.7107894084999052 -0.145725279117341
2500000000.0 0.7366252651894365 0.1067207881261505
2520000000.0 -0.6960088976927168 -0.2904614773444336
2540000000.0 0.5112716485842531 0.5552452303384002
2560000000.0 -0.015017783961280328 -0.7478525325586554
2580000000.0 -0.6391223865655417 0.3575056990081525
2600000000.0 0.6774884298797222 0.20535631770411178
2620000000.0 -0.2067935370700736 -0.645376248137576
2640000000.0 -0.44127287507190827 -0.4639987275990224
2660000000.0 -0.23777864179376484 0.5457279175756578
2680000000.0 0.5439490318813814 0.08292063228927331
2700000000.0 -0.15881663787905886 -0.4813993944735538
2720000000.0 -0.21199902983763602 0.41305334423482054
2740000000.0 0.3896998842775921 -0.16801981481015843
2760000000.0 -0.3793262661573623 0.08047105437214984
2780000000.0 0.24967476362576266 -0.25541985305274234
2800000000.0 0.042547233727374414 0.327566604606228
2820000000.0 -0.30420201887718884 -0.05741436683252621
2840000000.0 0.20373372679978533 -0.21362674568641374
2860000000.0 0.012997467513762946 0.2836056378741388
2880000000.0 -0.07316789997204541 -0.27011795283379986
2900000000.0 0.003924236272373695 0.2774912085202169
2920000000.0 0.2705285901123001 0.07830098011312374
2940000000.0 0.14479410152920869 -0.2510614325597134
2960000000.0 -0.10631945012448188 -0.2785452405950911
2980000000.0 -0.2296277965123015 -0.20347905887380455
3000000000.0 -0.17392369406632927 -0.25996127470660213
3020000000.0 -0.13298044752504612 -0.2867850994786073
3040000000.0 0.25652258374182635 -0.1797647917042094
3060000000.0 0.16177278721960087 0.265723126303787
3080000000.0 -0.2971947941877091 -0.0653047895707693
3100000000.0 0.24610677304310913 -0.16493137787316958
3120000000.0 -0.16116539100485308 0.23427971637085276
3140000000.0 0.1294706933200143 -0.23741008897209254
3160000000.0 -0.18063036569071828 0.1797108694971284
3180000000.0 0.0950520532806736 0.21870299834090368
3200000000.0 -0.0912691794845289 -0.19876210960923335
3220000000.0 0.13800763694735535 0.14244207565742414
3240000000.0 -0.17367284126341603 0.008748771405775933
3260000000.0 0.09435390558409973 -0.11212225979857152
3280000000.0 0.07576561776130247 0.09089847762355485
3300000000.0 0.0896461139057006 -0.0016334188904086116
3320000000.0 0.0032967049683255826 -0.05864919169861159
3340000000.0 -0.02884737449065271 0.012201585818976329
3360000000.0 0.008006081176046736 0.009359664175849757
3380000000.0 -0.010074663625428158 0.018001580533786237
3400000000.0 0.02993915687313486 0.014727360081708267
3420000000.0 -0.03902574113840025 0.01630043460728611
3440000000.0 -0.0317298443548499 0.03353282881446162
3460000000.0 0.042918553179042314 0.014019755261374377
3480000000.0 0.03783454937795263 -0.0364772035197326
3500000000.0 0.05505912803086031 -0.041271583559827074
3520000000.0 -0.0439429667196232 -0.07996072435453043
3540000000.0 0.053235078595776524 -0.09854732691649576
3560000000.0 0.0757611466443353 -0.1052520201958083
3580000000.0 0.14170012835436674 0.0215905649868426
3600000000.0 0.15931322315646063 0.028134731806625724
3620000000.0 0.16191371141402397 -0.049444110464336284
3640000000.0 0.13716020259178027 0.11222357984719535
3660000000.0 -0.006989165734626163 0.18199301175631116
3680000000.0 -0.1714068138806875 -0.06963943412176755
3700000000.0 0.05695322967886216 -0.1756624982985965
3720000000.0 0.11670685213864633 0.14283990958090148
3740000000.0 -0.08679714151948774 0.16086314259553317
3760000000.0 0.08967801836108932 -0.154626862062243
3780000000.0 -0.07700611605619463 0.15536848320601315
3800000000.0 0.1310968503846283 -0.10110067057462474
3820000000.0 -0.10883787485469532 -0.11511994056520417
3840000000.0 -0.07117968889719678 -0.13109144962958222
3860000000.0 0.08992059949812486 -0.11525865326098403
3880000000.0 0.1321604055935695 0.06865585582518666
3900000000.0 0.15067478720664543 0.017622207368801067
3920000000.0 0.13742012187044486 -0.07656812771087282
3940000000.0 -0.10714870191714845 0.12772400697585912
3960000000.0 -0.1420828672899579 0.10084304567772655
3980000000.0 0.168305924303886 0.05924508829004194
4000000000.0 0.08681914084380779 -0.14701427247727997
