! Created with skrf (http://scikit-rf.org).
# Hz S RI R 50.0 
!freq ReS11 ImS11
400000000.0 -0.8245980240133131 0.25185787072238963
420000000.0 0.12582856374311027 0.8556021822537503
440000000.0 0.8215792961630681 -0.16977457439625893
460000000.0 0.32463159818862225 -0.7185434992073845
480000000.0 0.6257277329842867 -0.3685480642793042
500000000.0 -0.43434692689862353 -0.3624320099366068
520000000.0 -0.4895948150405711 -0.0013012466249517028
540000000.0 -0.02298195211980919 -0.40960178288786314
560000000.0 -0.33755580465604174 -0.14435010632635464
580000000.0 0.2706650662119077 -0.17173972481802435
600000000.0 -0.08193885791111169 -0.31669316721959323
620000000.0 0.3223329208937893 0.07492468384157562
640000000.0 -0.3408302696010729 -0.07946344117475611
660000000.0 -0.33960563434693564 0.18769804903650583
680000000.0 0.0900911614743102 -0.39833850458116826
700000000.0 -0.38097688160817067 0.22718334755848854
720000000.0 0.30554817987549987 0.3224983129499689
740000000.0 -0.0922070855120996 0.44662294893636517
760000000.0 -0.42357222846038256 -0.0861488356175617
780000000.0 0.34232473361491644 -0.19369096920242124
800000000.0 0.156392261831383 0.3178357310377876
820000000.0 -0.16277532853731772 0.24034789728729655
840000000.0 0.24061972456383865 -0.008882167080262524
860000000.0 -0.09268298151572567 0.16642380181144406
880000000.0 -0.08252227191016609 0.12036475929462724
900000000.0 -0.06405447599324385 -0.025031118652371183
920000000.0 0.03601035694133532 0.003616663276796513
940000000.0 -0.03385750807983121 -0.007557667338769061
960000000.0 -0.021480947861982833 0.036986540172475255
980000000.0 0.007614230907377175 0.05263809941665056
1000000000.0 0.04169747016089416 0.04821780834211899
1020000000.0 0.0639994029198889 0.04042037068641411
1040000000.0 0.047039764970178984 -0.0811319035237741
1060000000.0 0.10204309977317493 0.07595734266903706
1080000000.0 -0.010745881709748151 -0.14932074377874258
1100000000.0 -0.07335408456610536 0.15551999546099013
1120000000.0 0.02444764633364842 0.20157084224887772
1140000000.0 -0.23628002158409905 -0.06449806372729021
1160000000.0 -0.23961484815573775 0.14863407425633696
1180000000.0 0.13527902639247272 0.2941193139279245
1200000000.0 -0.22263789220567617 0.2739158479557122
1220000000.0 -0.31442027807264655 -0.22271629083425154
1240000000.0 0.3700994682437648 0.16438915418878988
1260000000.0 -0.39492702075190167 -0.1727298379029011
1280000000.0 0.32549030131654344 0.29309214577360415
1300000000.0 0.17187382245842245 -0.4102365464163357
1320000000.0 -0.3435123066423722 -0.26925462975765907
1340000000.0 -0.039044686774677484 -0.4304067417415729
1360000000.0 0.0942152615875809 -0.4202016640613846
1380000000.0 -0.11515882845065616 -0.41364128990824967
1400000000.0 -0.36392414865685935 0.19798731207915732
1420000000.0 -0.08420971908212221 0.3859831780499507
1440000000.0 0.33436126771892116 0.15595815104972358
1460000000.0 0.30324699803285315 0.15230650178352306
1480000000.0 0.2736218959879841 -0.159229357445328
1500000000.0 0.06540557395262687 -0.28349998397537596
1520000000.0 -0.16012000013600788 0.21271332377778193
1540000000.0 0.22169318861925344 -0.1027631699500473
1560000000.0 0.21197239018555541 -0.006006393878325715
1580000000.0 0.17049156782094857 -0.06336173110816819
1600000000.0 -0.11712647151800644 0.09488501227329653
1620000000.0 0.0859732664592065 -0.07686674601467801
1640000000.0 0.08485840888100556 -0.021905061523365296
1660000000.0 -0.03570305445665558 -0.05130226056548401
1680000000.0 -0.026793946466023382 -0.020727917906464496
1700000000.0 -0.0005369382018826668 0.015569287307948014
1720000000.0 -0.0038170886654630065 -0.015193944478756246
1740000000.0 -0.003227100678145158 -0.03448613551714907
1760000000.0 -0.027712272950349042 0.0454953776610778
1780000000.0 0.043127735362753196 -0.0672884072377962
1800000000.0 0.10252270617746927 -0.051089432451071316
1820000000.0 -0.09388429904292458 0.10521128387529195
1840000000.0 0.13906438582296587 -0.10226416106949394
1860000000.0 -0.14651802405768888 0.13913938730426473
1880000000.0 0.1437496558342021 0.18215961810370454
1900000000.0 0.25416370653537573 0.07897638997811994
1920000000.0 -0.016514380753576464 -0.2984275412963533
1940000000.0 -0.23455650545366732 -0.23434821126284505
1960000000.0 -0.2569700804454333 0.2592567478144206
1980000000.0 0.25710105215561957 0.292630576208327
2000000000.0 0.40144202303610793 -0.1035458136193183
2020000000.0 -0.12550134762060408 -0.4173787636666748
2040000000.0 -0.3665701900743629 0.2579755922654011
2060000000.0 0.3460327234047826 0.2925752473698619
2080000000.0 0.0689820872880563 -0.44690616098078173
2100000000.0 -0.4354215685525547 0.06733156225950494
2120000000.0 -0.23566884481652572 0.3532231732061418
2140000000.0 -0.40442712677843623 0.03150050007622831
2160000000.0 -0.36108302891060867 0.12884952682593157
2180000000.0 -0.36698540003841723 -0.020349267680468356
2200000000.0 -0.32939661795668307 -0.11816908443822421
2220000000.0 -0.12401707993460181 -0.3229152925238312
2240000000.0 -0.26062379520560797 -0.22576714155251593
2260000000.0 -0.3196010090471147 -0.15055522068219307
2280000000.0 -0.2035235966137977 0.2991561528453167
2300000000.0 0.33426944619799537 0.1787684086007498
2320000000.0 -0.17171993550784986 -0.3647678317687667
2340000000.0 -0.19989816723673892 0.3856254542196865
2360000000.0 0.2573530255489429 -0.392420048281338
2380000000.0 -0.43944220480135754 0.2669231110559178
2400000000.0 0.4545105856849514 -0.33084927123628993
2420000000.0 -0.3270258170244708 0.5167790464579591
2440000000.0 -0.09637524568986958 -0.6509647339747812
2460000000.0 0.5362321511960251 0.44297079856046667
2480000000.0 -0.7126887490913276 -0.13330908445882853
2500000000.0 0.732756978063343 0.13047121973916295
2520000000.0 -0.7142530732162171 -0.2406602039619347
2540000000.0 0.51103180297528 0.5550313718679507
2560000000.0 0.01100214786692459 -0.7476115816636106
2580000000.0 -0.6013315971363611 0.41704259152330836
2600000000.0 0.679442591416833 0.19694442733040315
2620000000.0 -0.1850464106834502 -0.6515856679034986
2640000000.0 -0.4220984221409597 -0.48081121263797644
2660000000.0 -0.21842298784043968 0.5531729930457828
2680000000.0 0.5496570348953072 0.014699803281176566
2700000000.0 -0.20067725912697068 -0.4651739169837596
2720000000.0 -0.21728461680458847 0.40994105328332237
2740000000.0 0.3906184010312037 -0.16529225458719862
2760000000.0 -0.3793025823107155 0.08001614405798564
2780000000.0 0.24894080446490538 -0.2561289945761202
2800000000.0 0.03907036688917114 0.3276880576977631
2820000000.0 -0.30004401448364226 -0.07557657187027617
2840000000.0 0.19909311400778731 -0.21668504140865222
2860000000.0 -0.009132826419840957 0.2837867785918595
2880000000.0 -0.07288080155767551 -0.2697277450004906
2900000000.0 0.008203761967076596 0.277015843452331
2920000000.0 0.2588250241006232 0.1113997782962458
2940000000.0 0.14837465211245066 -0.2488432926671833
2960000000.0 -0.0786331978563256 -0.28726394469744077
2980000000.0 -0.2173346224304069 -0.21642643956630114
3000000000.0 -0.17141442158608272 -0.2617631542298383
3020000000.0 -0.10464884527973674 -0.2980616668933415
3040000000.0 0.22978254015664307 -0.21312935773348282
3060000000.0 0.15485704705177653 0.26976355890936965
3080000000.0 -0.29905689521472734 -0.055618008282158134
3100000000.0 0.25143064916885044 -0.15635219758693916
3120000000.0 -0.22783316629295644 0.1690515539698118
3140000000.0 0.10848672265733073 -0.24757712344467214
3160000000.0 -0.19980573632461676 0.15760881623969894
3180000000.0 0.08993369907118427 0.22165307149356997
3200000000.0 -0.09245469623833207 -0.19865892370457058
3220000000.0 0.12753475666533803 0.15233974033181832
3240000000.0 -0.1738253996893313 0.0083157045249563
3260000000.0 0.10813554897690761 -0.09948287161159845
3280000000.0 0.0530037396213725 0.10627056053477214
3300000000.0 0.09000054781251635 -0.0029648293453838443
3320000000.0 0.011678002406409423 -0.05740996498709197
3340000000.0 -0.03067829919478428 0.007202467724587479
3360000000.0 -0.0025607447868933445 0.011529245362793612
3380000000.0 0.0008489458270335585 0.020363940267344616
3400000000.0 0.032362022787942736 0.005432718437432898
3420000000.0 -0.027223522668121638 0.03196042172718073
3440000000.0 -0.022848542867038014 0.03962608075225626
3460000000.0 0.04423220423865242 0.007624463713161251
3480000000.0 0.04930515616520515 -0.01752979305142279
3500000000.0 0.06198808928539952 -0.029167672209019283
3520000000.0 -0.05313181553787406 -0.07421660932728479
3540000000.0 0.04743096858649011 -0.1012758962851655
3560000000.0 0.05508718999910499 -0.11721037137257628
3580000000.0 0.1429723840175104 -0.006092278880663746
3600000000.0 0.16126041689040482 0.011462648467169568
3620000000.0 0.15611907232254532 -0.0629069526728604
3640000000.0 0.14168289374831888 0.10573610519758062
3660000000.0 0.013266775649687862 0.18095824574825375
3680000000.0 -0.17689579837737815 -0.05353300423214127
3700000000.0 0.04577247925302153 -0.1790335079887034
3720000000.0 0.12665786182388658 0.13502823736999184
3740000000.0 -0.060957321399276676 0.17242201813950603
3760000000.0 0.07524140097306833 -0.162816956577802
3780000000.0 -0.055607993878116636 0.16430464294250766
3800000000.0 0.10274774699718686 -0.13028567271059463
3820000000.0 -0.13136106468612463 -0.08850909365899051
3840000000.0 -0.10167828677866682 -0.10923133035259305
3860000000.0 0.07189161697032943 -0.12781849571761536
3880000000.0 0.14223265941681257 0.04568743887461241
3900000000.0 0.1524313656066137 0.010743173476436406
3920000000.0 0.12725993812756473 -0.09364090962678638
3940000000.0 -0.09863197860294551 0.1356110419360022
3960000000.0 -0.12690129237742848 0.1208294489461803
3980000000.0 0.17388407069614847 0.04288739371943105
4000000000.0 0.06522734392151112 -0.1584211267781835
