! Created with skrf (http://scikit-rf.org).
# Hz S RI R 50.0 
!freq ReS11 ImS11
400000000.0 -0.8246607208277361 0.24809832212480148
420000000.0 0.16437635367554773 0.8503666626426345
440000000.0 0.8138046466837198 -0.20091931275036004
460000000.0 0.3568583219163615 -0.7032735951647304
480000000.0 0.6461401921986404 -0.3323182577635117
500000000.0 -0.5198629136240566 -0.22488803859940992
520000000.0 -0.47762885481623746 -0.10588946987169554
540000000.0 -0.0023656341536484942 -0.4107232189266222
560000000.0 -0.3298833596460787 -0.1603808123397535
580000000.0 0.18424843019289247 -0.2613008267350376
600000000.0 0.07496557078051258 -0.3186302378931056
620000000.0 0.32998782212798355 0.03141437561175884
640000000.0 -0.34496003337518455 -0.06559756520894319
660000000.0 -0.360716081005349 0.14153006202695204
680000000.0 0.15433522328071544 -0.3790190513081374
700000000.0 -0.3665878971791715 0.2490741459064569
720000000.0 0.2878923267003223 0.3389039601620414
740000000.0 -0.07353882933002255 0.4494472362564152
760000000.0 -0.41738358993552827 -0.11177236916317534
780000000.0 0.33779812757843614 -0.20172935848629378
800000000.0 0.16442361582533582 0.3135293348345363
820000000.0 -0.17470613204564056 0.2314056349327992
840000000.0 0.23980610445719505 -0.02683235405400395
860000000.0 -0.10566357882771936 0.15889303291350051
880000000.0 -0.07011433193910548 0.12873304965487917
900000000.0 -0.06464680054973444 -0.023713843943098854
920000000.0 0.03087979565964193 0.019457082776720102
940000000.0 -0.03420997687415596 0.006580886204261049
960000000.0 -0.020515839243728577 0.038068132516122864
980000000.0 0.020035845840778072 0.04915606317637993
1000000000.0 0.04033719536006439 0.04908899796618929
1020000000.0 0.07593075558050139 -0.005204326484748597
1040000000.0 0.05119985011247827 -0.0785250483330644
1060000000.0 0.10162628008402745 0.07739438347947648
1080000000.0 -0.015816657064352643 -0.148428609462667
1100000000.0 -0.07481057006632572 0.15504519383389134
1120000000.0 0.04538572127452077 0.19775067948613875
1140000000.0 -0.2371544505683953 -0.060665256172974164
1160000000.0 -0.24244257513389844 0.14390029675331825
1180000000.0 0.1282057329233351 0.2968884210488769
1200000000.0 -0.2466014795770276 0.25254425562472693
1220000000.0 -0.3120485845202441 -0.22591681144606418
1240000000.0 0.3525330333001952 0.1999328016815454
1260000000.0 -0.39057112779899017 -0.1822246399777163
1280000000.0 0.32134187173310186 0.297926596611837
1300000000.0 0.19664515981847652 -0.39872701004190586
1320000000.0 -0.3466302583829466 -0.2646534053672465
1340000000.0 -0.03859694664015015 -0.4304939060294509
1360000000.0 0.08798003270025011 -0.4216147592601868
1380000000.0 -0.10601897883264275 -0.41641825770968954
1400000000.0 -0.3665981946674266 0.19201530145585943
1420000000.0 -0.08898249754337827 0.3850766457877642
1440000000.0 0.3409677019374083 0.1415080164495126
1460000000.0 0.31191091739606924 0.13454976629830082
1480000000.0 0.28264254736366573 -0.1429347145539961
1500000000.0 0.054321445143848575 -0.28579320891022086
1520000000.0 -0.16835708969837285 0.20610975955385352
1540000000.0 0.21428274828070346 -0.11686075320498261
1560000000.0 0.21149589029655458 -0.0001961002399518485
1580000000.0 0.17893899353493548 -0.030962110526558565
1600000000.0 -0.143321064449696 0.04694144736822119
1620000000.0 0.1084659750148189 -0.03969208761638143
1640000000.0 0.08380044704392481 -0.026894525914849216
1660000000.0 -0.013582245275294731 -0.06120212376499786
1680000000.0 -0.0235597798165271 -0.02521891613692693
1700000000.0 -0.00850204015776971 0.013623005289300235
1720000000.0 0.014076433751402311 0.007644293356652459
1740000000.0 0.007995058150842711 -0.03342936055149821
1760000000.0 -0.05253332701497693 0.00867713282255494
1780000000.0 0.06835173959007572 -0.04135686237130523
1800000000.0 0.11101167745012962 -0.029290169056869157
1820000000.0 -0.09818661015252288 0.10197796170783192
1840000000.0 0.1488665306455939 -0.08814222585875238
1860000000.0 -0.13628568878973693 0.14959851286529843
1880000000.0 0.15417638837224457 0.17398996923495458
1900000000.0 0.26237448980945616 0.047343034917300596
1920000000.0 -0.04155179996056474 -0.29587533616861117
1940000000.0 -0.2633395141490546 -0.2009079286942897
1960000000.0 -0.24934493697020865 0.26588235279442685
1980000000.0 0.26624505631810524 0.28375935117259365
2000000000.0 0.40522752619914604 -0.08567483862239184
2020000000.0 -0.09105575937435399 -0.42609200340417225
2040000000.0 -0.37267186210182246 0.2489467415314508
2060000000.0 0.32200898243709536 0.31961166855093986
2080000000.0 0.13098415172412564 -0.4335354243747631
2100000000.0 -0.4395832108906448 0.038610549348396354
2120000000.0 -0.22706979276447614 0.35970054892041864
2140000000.0 -0.39430388498404617 0.09588584402404046
2160000000.0 -0.3497031308388074 0.15757203482999319
2180000000.0 -0.36724213551246765 0.012006919301372213
2200000000.0 -0.3389955045212841 -0.08633835360174516
2220000000.0 -0.1499545361631013 -0.3109254942973417
2240000000.0 -0.2609020962924104 -0.22508712534196854
2260000000.0 -0.3055375169981604 -0.17668262939658455
2280000000.0 -0.2286530598522593 0.28017820811473937
2300000000.0 0.32281886518107883 0.1989253471646293
2320000000.0 -0.1580381930335462 -0.371101977214072
2340000000.0 -0.20376897561741583 0.3840897174801893
2360000000.0 0.2606706970675241 -0.39054656943336563
2380000000.0 -0.4406310571047309 0.2652563587505999
2400000000.0 0.449833270591503 -0.33700134337180315
2420000000.0 -0.3324790061141121 0.5134235069746097
2440000000.0 -0.12287195241395928 -0.6461947485086591
2460000000.0 0.5258844621048017 0.45512108561593195
2480000000.0 -0.7143068778236065 -0.1253047676410002
2500000000.0 0.7393415304645053 0.08364073962544763
2520000000.0 -0.6988482307488905 -0.28258507477604816
2540000000.0 0.5241832649022017 0.5428816221128593
2560000000.0 -0.025192905396426355 -0.7475240226256118
2580000000.0 -0.6316638831967608 0.3702579425467397
2600000000.0 0.6801133904685428 0.1956148830658364
2620000000.0 -0.19470393133201291 -0.6492574649262479
2640000000.0 -0.47393952348718144 -0.4307054025796467
2660000000.0 -0.2383056498747817 0.5454955826324088
2680000000.0 0.5473229909155068 0.056399049669318954
2700000000.0 -0.16482049626756587 -0.47939395610660646
2720000000.0 -0.22144644137860997 0.4079705328547461
2740000000.0 0.3891188644555878 -0.1698654239820162
2760000000.0 -0.3817609886287461 0.0697669846394755
2780000000.0 0.2531475018389952 -0.25203140223627946
2800000000.0 0.033248525250760316 0.3285651475990005
2820000000.0 -0.30148953561324254 -0.0695874354719987
2840000000.0 0.186938513043468 -0.22742708994370897
2860000000.0 -0.012509660875229952 0.28354450120287206
2880000000.0 -0.08001851427500964 -0.2680883464772909
2900000000.0 0.024506613073137774 0.27647318898117335
2920000000.0 0.27230993197663195 0.07212675813268155
2940000000.0 0.1455525558277251 -0.25055565278951797
2960000000.0 -0.09985476359425088 -0.2806665955260046
2980000000.0 -0.23033442929468625 -0.20199681828183322
3000000000.0 -0.18097800329971314 -0.2547160547189009
3020000000.0 -0.07494331663456681 -0.3067032503219619
3040000000.0 0.23793787639802724 -0.20393852598503254
3060000000.0 0.1731274539355655 0.25877336641702453
3080000000.0 -0.2951390750281981 -0.07241834110625299
3100000000.0 0.26021177198338913 -0.14149265008874018
3120000000.0 -0.22077710844044937 0.17904300282292235
3140000000.0 0.07333041779446668 -0.26047297421813476
3160000000.0 -0.17486441110757872 0.18495673235318313
3180000000.0 0.0875008810877603 0.22197068739663234
3200000000.0 -0.1153976397228607 -0.18562485290946318
3220000000.0 0.137884807874049 0.14223703855342057
3240000000.0 -0.17364453744933436 0.00334784972138086
3260000000.0 0.10754327714135173 -0.0992558788082248
3280000000.0 0.06798637605961722 0.09682046676153273
3300000000.0 0.08182829735566761 0.035649379184090786
3320000000.0 0.017070560828676227 -0.05585799161598872
3340000000.0 -0.015350671498412053 0.02783233893805072
3360000000.0 0.009460769730596574 0.008748057203863784
3380000000.0 0.007602344445849423 0.019195658588252753
3400000000.0 -0.022949357385409343 0.024007500118727033
3420000000.0 -0.03972909351598645 -0.014427767501979678
3440000000.0 -0.04161738079650107 0.019855385042855608
3460000000.0 0.03240224344749671 0.031223242254628282
3480000000.0 0.030510510974879185 -0.04285842362374676
3500000000.0 0.06532072640826343 -0.02084084653157821
3520000000.0 -0.04348109103609119 -0.08008224138102102
3540000000.0 0.08602798383291291 -0.07068658988300099
3560000000.0 0.08469645566747067 -0.09800467192461737
3580000000.0 0.1420502090013145 0.019849336895280897
3600000000.0 0.16107833489452486 0.0175284654210373
3620000000.0 0.1654262701963434 -0.035797340696154686
3640000000.0 0.13972098131923028 0.10881333090668246
3660000000.0 0.008610217485238632 0.18211466497556517
3680000000.0 -0.17387115750529528 -0.06252866539153869
3700000000.0 0.04207620355340525 -0.17984323411909328
3720000000.0 0.12871599864175745 0.13203604630114144
3740000000.0 -0.08241228668518231 0.16313267637577078
3760000000.0 0.09616024607787962 -0.15100530230643827
3780000000.0 -0.0917983413983109 0.14722218593439226
3800000000.0 0.1404801432504819 -0.0874568130627915
3820000000.0 -0.09625474342999793 -0.12608080559091359
3840000000.0 -0.08146387144050479 -0.1254407190179253
3860000000.0 0.09513686612074396 -0.1116351977681687
3880000000.0 0.1385364097260232 0.054917543548964595
3900000000.0 0.15042697471289587 0.023159898830020578
3920000000.0 0.1428459299586627 -0.06687810093500215
3940000000.0 -0.12129285606863995 0.11430821198380389
3960000000.0 -0.1578898051341596 0.07484246976496031
3980000000.0 0.15029752028296628 0.0968719540279312
4000000000.0 0.11612947288245605 -0.12545814021739157
