! Created with skrf (http://scikit-rf.org).
# Hz S RI R 50.0 
!freq ReS11 ImS11
400000000.0 -0.807223454136273 0.2981922229713748
420000000.0 0.0169579541721705 0.8606259298668912
440000000.0 0.8132949406785462 0.16702593984258135
460000000.0 0.7354830087994384 -0.257694951193086
480000000.0 -0.035590621602593596 0.7113096749336413
500000000.0 0.4438812034669541 0.38219390840882356
520000000.0 0.3780371883087729 -0.3559191345711166
540000000.0 0.4426484597084942 -0.07204356190873162
560000000.0 -0.34815792560648257 -0.200394669098256
580000000.0 -0.10083791739498425 -0.33743964568747353
600000000.0 -0.20104233634064755 -0.30825932517251586
620000000.0 -0.143543819761533 -0.34948777336436204
640000000.0 -0.028666109500983517 -0.3866753834404095
660000000.0 -0.40589353343306595 -0.05657919757230751
680000000.0 0.0924998069889035 -0.4055087460086179
700000000.0 -0.4231601007492612 -0.04456679253536935
720000000.0 -0.4024744252826308 0.09190685890374257
740000000.0 0.3477689303644923 0.22468271252366798
760000000.0 -0.3928755164803913 -0.029001085244936504
780000000.0 0.036919872906683894 0.35596180360253876
800000000.0 0.20699143162224715 -0.2423558789626771
820000000.0 0.007389299052550149 -0.27392576695436127
840000000.0 -0.21909975860948064 -0.11242491177938826
860000000.0 -0.19882501368228675 -0.041791018495310396
880000000.0 0.15196046886519787 -0.0561995136927393
900000000.0 0.06553089219471295 -0.08348502194502236
920000000.0 0.007409751833017186 -0.07451546695703215
940000000.0 -0.026654905705025118 -0.044534196418661895
960000000.0 0.0480903877713925 -0.01950160109547822
980000000.0 0.058232559610153736 0.03668360491032601
1000000000.0 -0.07118427165765545 -0.049824364937952566
1020000000.0 0.07399988394882788 -0.07131214580144754
1040000000.0 0.12406471449529194 -0.004873661604071079
1060000000.0 0.1523672940344407 0.011329139745082109
1080000000.0 0.04731928180965102 0.17062437928924434
1100000000.0 -0.19034025218035894 0.04367579110493984
1120000000.0 -0.03838282046910918 0.2158918241359999
1140000000.0 -0.18309550581134976 -0.1735581562974725
1160000000.0 0.012092378207521765 -0.28090457834127125
1180000000.0 -0.0847540769383474 -0.3057793407234292
1200000000.0 0.33815199114676336 0.026830953871768436
1220000000.0 -0.31090647881207284 0.197676756364958
1240000000.0 0.32516292639810734 0.20611011339351618
1260000000.0 -0.01078927623878077 -0.4128961319068648
1280000000.0 -0.3332009642030789 0.2629631197538177
1300000000.0 0.24926505770099933 0.3622822256210036
1320000000.0 0.37200341911912627 -0.22865392227551387
1340000000.0 0.43822309478337157 0.020125392340593403
1360000000.0 0.37811371868287436 -0.21944113263312628
1380000000.0 0.27691667437023565 -0.3403634716175597
1400000000.0 -0.42577992582460666 -0.021327146409555416
1420000000.0 -0.011412202989433566 0.4085000274263654
1440000000.0 0.35556174757221964 -0.14516872035834305
1460000000.0 0.03703528242149818 -0.35024067701871103
1480000000.0 -0.30055506945237326 0.11359779775450418
1500000000.0 -0.09083649920642423 0.27368219951437606
1520000000.0 0.10849708530357026 0.23361116737594512
1540000000.0 -0.1646501131311186 -0.15693533266832543
1560000000.0 0.18441533418978506 -0.062488867105384344
1580000000.0 -0.024305997456378205 0.16216002210825903
1600000000.0 0.09803440473207119 0.09273271133329132
1620000000.0 0.05951331246231832 0.08436489327163851
1640000000.0 -0.02257153007973286 -0.07585181028466215
1660000000.0 0.03508062114800928 -0.04066509746505233
1680000000.0 -0.01052754153192145 0.031898345002913546
1700000000.0 0.012929362484950243 -0.0138469376387093
1720000000.0 0.0005651205357162512 -0.004627331397190727
1740000000.0 0.004030317478591185 0.017273745054494215
1760000000.0 -0.02917363548185163 0.013696040817115989
1780000000.0 0.02917363114520761 0.052384238671682536
1800000000.0 0.000595437285066577 -0.09392084095536073
1820000000.0 -0.12654520066482963 0.002077939739297312
1840000000.0 0.16407760485481654 0.006282799052443783
1860000000.0 -0.15476612421433586 0.13082389451078974
1880000000.0 0.1839641012527279 -0.1540636620418569
1900000000.0 -0.2561735915754102 0.1177878589655203
1920000000.0 0.22039517468532055 -0.22858941850112482
1940000000.0 -0.34867298222873727 0.035271799586739566
1960000000.0 0.35387508216025837 0.13598249323932138
1980000000.0 -0.033804043761196806 -0.39675084364657653
2000000000.0 -0.4056242626582672 -0.0908228386896382
2020000000.0 -0.15609538083731014 0.3969434112779778
2040000000.0 0.17427566871996766 0.3970466004210926
2060000000.0 0.42847072583626694 0.08217051230806309
2080000000.0 0.37639667918075176 -0.21553118308344996
2100000000.0 0.14168161123577536 -0.4034642731208482
2120000000.0 -0.0056341740548848645 -0.4196364359204721
2140000000.0 -0.2904442807222736 -0.2864132084006843
2160000000.0 0.17084670331095353 -0.35593189721764157
2180000000.0 -0.07162649604176691 -0.3734369313592788
2200000000.0 -0.23000140424133886 -0.2863041960928655
2220000000.0 -0.34322544623525125 -0.10092742175264782
2240000000.0 -0.2586122393678197 0.23718135815783303
2260000000.0 -0.10724574753774672 0.3348054265327191
2280000000.0 0.17955320495529434 0.3051713159729465
2300000000.0 0.3674043234657612 -0.017078541393583037
2320000000.0 -0.0017053462041863158 -0.391036856643833
2340000000.0 -0.4129940371795587 0.08920671766391569
2360000000.0 0.42271619896752155 0.1841922817890674
2380000000.0 -0.38786647439370725 -0.33052707413019883
2400000000.0 0.4966036939009382 0.26064616330563506
2420000000.0 -0.6051021339570787 0.09747359934104544
2440000000.0 0.37269646855796845 -0.5447650680994102
2460000000.0 0.10074445524055024 0.6917363120642734
2480000000.0 -0.4691832467327128 -0.5579283762866508
2500000000.0 0.5440073515125434 0.5136575736190823
2520000000.0 -0.44752515120799796 -0.6131780052035666
2540000000.0 0.10136416119221607 0.7536075703157525
2560000000.0 0.4265228443106271 -0.6225475935196313
2580000000.0 -0.739216775576984 -0.0396030601938816
2600000000.0 0.41524073703309383 0.5836883956713314
2620000000.0 0.2062201390621036 -0.6547952349412288
2640000000.0 -0.14199386233111982 -0.634267624978922
2660000000.0 -0.41069017902350685 0.4439028310003005
2680000000.0 0.5542220185527609 0.07265252056339136
2700000000.0 -0.30163176653932766 -0.41463425550147015
2720000000.0 0.03434915560165142 0.46473901218574803
2740000000.0 0.25864170461707364 -0.33294502953951516
2760000000.0 -0.3632788668288018 0.12254621662269705
2780000000.0 0.3247869807785542 -0.1348760934788216
2800000000.0 -0.29302126842745 0.14399917623750438
2820000000.0 0.11368033941370263 -0.2876442200551692
2840000000.0 0.16108284214586596 0.25139936000341395
2860000000.0 -0.29120254877157487 -0.037673233587865666
2880000000.0 0.18814345728298398 -0.2243365838803099
2900000000.0 -0.06385037264357334 0.28513633513480596
2920000000.0 0.25510320107107937 -0.1495840506143103
2940000000.0 -0.2519466974410395 -0.1640520870425541
2960000000.0 -0.2561370768126291 0.16176745328802736
2980000000.0 -0.22430465297758223 0.20964949658937648
3000000000.0 -0.308439924248734 0.015792492319976155
3020000000.0 -0.12093576780016314 -0.2850778562340387
3040000000.0 0.3064552754929564 -0.01695046992283118
3060000000.0 -0.2070215306588962 0.22426090344093086
3080000000.0 0.10307947594334073 -0.2826579690405224
3100000000.0 -0.007336760512432977 0.29551987318513745
3120000000.0 -0.044475516526085036 -0.28438506714103506
3140000000.0 0.22210451781945656 0.16908817684304203
3160000000.0 -0.2642439358411981 0.01069806980881441
3180000000.0 0.19551935945632 0.15404837276003056
3200000000.0 -0.15653237677995838 0.16318999503837142
3220000000.0 -0.1575615001455918 -0.12381819339677934
3240000000.0 0.09549339045000142 -0.14071405467955891
3260000000.0 0.03237210424952378 0.13326642919689227
3280000000.0 -0.05980123599493961 -0.08624566325357905
3300000000.0 0.036298153205939265 0.06644931937788116
3320000000.0 0.01967928898611896 -0.04536672046915364
3340000000.0 -0.022253382634567297 0.012615768339311046
3360000000.0 0.007887582797948904 -0.0025655330171780624
3380000000.0 0.01002230127702605 0.0024858428216702117
3400000000.0 0.02171345033791636 0.006101105705703546
3420000000.0 -0.02169933236262245 0.027206847749396298
3440000000.0 0.04126095124270021 0.02017012220103057
3460000000.0 0.053291958151438154 0.0049009893235067116
3480000000.0 -0.022042827903468905 0.06056157598690308
3500000000.0 0.02587501490322504 0.0744001464829844
3520000000.0 0.06436133019268536 -0.06946916359284211
3540000000.0 -0.011401446922179127 0.1093975298038155
3560000000.0 -0.07685216107141583 -0.09607794131182272
3580000000.0 0.08739875325274452 0.10388034265039138
3600000000.0 -0.07674282337608622 0.13430413069184682
3620000000.0 -0.15225929419529105 0.06538460973804838
3640000000.0 -0.1745619280479312 -0.03061196088350296
3660000000.0 -0.15249770818012992 -0.10675898037606227
3680000000.0 -0.08987876561131813 -0.16840029877634968
3700000000.0 -0.00026626651675242533 -0.19018335964555166
3720000000.0 0.18232028384749224 -0.04957502220493474
3740000000.0 0.1834107966165022 0.006384236080683393
3760000000.0 -0.16193283757858593 -0.07146739941380377
3780000000.0 0.15081562817724625 0.07267408842785157
3800000000.0 0.112761187851808 -0.10934125679797918
3820000000.0 0.06087694807004606 -0.13809768977961198
3840000000.0 0.11840419012332784 0.08541717155441304
3860000000.0 -0.0569868332139059 0.13647257921872535
3880000000.0 -0.03354844804011437 0.15091987016522398
3900000000.0 0.1538360906593438 -0.03829414769548807
3920000000.0 -0.10843945074536107 -0.12069011559309435
3940000000.0 0.16674061338643195 -0.011132028731199147
3960000000.0 0.09275746925447029 0.14414195918183648
3980000000.0 0.17077106291984895 -0.016928828634641395
4000000000.0 0.16397786544748463 -0.009100020472818443
