! Created with skrf (http://scikit-rf.org).
# Hz S RI R 50.0 
!freq ReS11 ImS11
400000000.0 -0.8041082471602186 0.30749395982599054
420000000.0 0.003815151644148555 0.8614751788395185
440000000.0 0.8263032202700618 0.0807259733960124
460000000.0 0.7279332332365155 -0.27385747988276216
480000000.0 -0.11487459368226716 0.7029167146828859
500000000.0 0.44862201871790536 0.3801524526727808
520000000.0 0.30894432961387075 -0.416182131400304
540000000.0 0.4464642063094109 -0.015295583849728156
560000000.0 -0.27238659592919223 -0.2962748322143792
580000000.0 -0.1828083211503863 -0.3024624636025975
600000000.0 -0.25977801036386006 -0.25921567663050576
620000000.0 -0.08653636727360631 -0.3668288000801362
640000000.0 -0.017775749063925202 -0.3879034169894145
660000000.0 -0.4079327433195899 -0.049635094197366725
680000000.0 0.011473695481752639 -0.41512847817648907
700000000.0 -0.4174980909900893 -0.08312125332776549
720000000.0 -0.4007497690851552 0.10232475127958285
740000000.0 0.3688106979108178 0.18801801705373694
760000000.0 -0.3891613706301885 -0.05987620350607444
780000000.0 0.036486539781562265 0.3565500871379924
800000000.0 0.21453982534505697 -0.23512691225294668
820000000.0 0.01649101325896227 -0.273453355623873
840000000.0 -0.2238385798692629 -0.10287557701138764
860000000.0 -0.20224640721951703 -0.016350431659753247
880000000.0 0.1571928832407836 -0.038230806876619006
900000000.0 0.06458728388709396 -0.08393431854490471
920000000.0 -0.004384237741576091 -0.07486355984012669
940000000.0 -0.0364943475887321 -0.0368011870321623
960000000.0 0.05169990323248701 0.0031327358149879853
980000000.0 0.05316283470691952 0.044410746634921186
1000000000.0 -0.07033276763067157 -0.05071485674188893
1020000000.0 0.07438212934175756 -0.07066918996721273
1040000000.0 0.1234124467282763 0.014216130885379874
1060000000.0 0.15046365034473136 -0.024807784093514428
1080000000.0 0.041142961643356984 0.17191937744212984
1100000000.0 -0.19116353260938782 0.03998556513844008
1120000000.0 -0.04203053585610622 0.2152785020241921
1140000000.0 -0.1793629383411732 -0.17733199399068286
1160000000.0 0.006834166311092617 -0.28113881349051933
1180000000.0 -0.08209815447373224 -0.30667757758256875
1200000000.0 0.33912928459942093 0.01733139693097398
1220000000.0 -0.3062833718511661 0.20481755477530772
1240000000.0 0.32542526957839435 0.20574434437229572
1260000000.0 -0.0027498235158432225 -0.41303063530971496
1280000000.0 -0.3342789191571471 0.26167064718330185
1300000000.0 0.24733009621715968 0.36345854200848254
1320000000.0 0.37212555988172813 -0.22799565177562325
1340000000.0 0.4381301572734454 0.019720978382062944
1360000000.0 0.3722334082158458 -0.22944496236783135
1380000000.0 0.2707754646763754 -0.34500924464340527
1400000000.0 -0.4262123994349949 -0.009020671083820226
1420000000.0 -0.012352920810212348 0.40858443095689756
1440000000.0 0.349016714860775 -0.16018864560351764
1460000000.0 0.0284484361931366 -0.35085344701852733
1480000000.0 -0.3051085325462842 0.10222160027545402
1500000000.0 -0.08352186892055734 0.27650313346240807
1520000000.0 0.12548692452951485 0.22441354725159565
1540000000.0 -0.15394670317010106 -0.16774639134925198
1560000000.0 0.18808963603860412 -0.04967038137130788
1580000000.0 0.005242392665804855 0.16390328119476186
1600000000.0 0.08944061939721551 0.10080762055806798
1620000000.0 0.05160631514692546 0.08905595600909945
1640000000.0 -0.011662392507074583 -0.07821285522378554
1660000000.0 0.01758067703016269 -0.05092913728206358
1680000000.0 -0.014097467246056792 0.03010138511763674
1700000000.0 -0.008592438707014628 -0.016897463546377774
1720000000.0 -0.004654657306392031 -0.0011830957599385146
1740000000.0 0.004337218478359703 0.017129421212125802
1760000000.0 -0.030369938831409243 -0.009131685563803647
1780000000.0 0.0326882696784655 0.05013454283736314
1800000000.0 -0.007276693177382525 -0.09379340564697379
1820000000.0 -0.12626557503524943 0.00887762247641519
1840000000.0 0.1641344902036781 -0.003964303800948225
1860000000.0 -0.1512596770858116 0.13505852550982878
1880000000.0 0.1813518076417394 -0.15682713805403192
1900000000.0 -0.2534841149691457 0.12323836991931454
1920000000.0 0.2204557661867296 -0.22851377507503878
1940000000.0 -0.3490246060715897 0.031799704042749656
1960000000.0 0.35553370244801163 0.1321957916808751
1980000000.0 -0.03002142009021253 -0.3971262517431329
2000000000.0 -0.40549305267812435 -0.09169296849375962
2020000000.0 -0.13064551870756955 0.40599850267765974
2040000000.0 0.16315392767068315 0.4018244072434154
2060000000.0 0.4315803324450026 0.06246513998953508
2080000000.0 0.3766797547215931 -0.21492295467387687
2100000000.0 0.1538044114505973 -0.39909039288960013
2120000000.0 0.014757683719316883 -0.41944186687590507
2140000000.0 -0.3122719214071747 -0.26186991388502895
2160000000.0 0.16457454589250378 -0.35858664891427394
2180000000.0 -0.05962096429093139 -0.37555757160004133
2200000000.0 -0.23311843456652953 -0.2836772474293434
2220000000.0 -0.34228603345385855 -0.10373996166967553
2240000000.0 -0.24774564530714815 0.24845579929684627
2260000000.0 -0.10978167611249791 0.3337376839664042
2280000000.0 0.18633611112569193 0.30120733408268857
2300000000.0 0.3667429982505067 -0.032330662055967914
2320000000.0 0.006717855388310451 -0.3909561280105503
2340000000.0 -0.4079788466566794 0.11098046351515903
2360000000.0 0.42782994503414806 0.17271273496006376
2380000000.0 -0.3810947081228384 -0.33827541278589784
2400000000.0 0.4913604584432628 0.27082853907532645
2420000000.0 -0.6038002024735605 0.10540133740029792
2440000000.0 0.37951033382168436 -0.5402918261222251
2460000000.0 0.09875639844793181 0.6919279049073812
2480000000.0 -0.4844868768132559 -0.5442396862855028
2500000000.0 0.48743843597372716 0.5680309132254173
2520000000.0 -0.4526066790028274 -0.6091685233310502
2540000000.0 0.13220191654291913 0.7487143760085352
2560000000.0 0.4331109133948596 -0.6178843313284902
2580000000.0 -0.7401493053678975 0.013743035744297817
2600000000.0 0.430013962664346 0.5732096597736743
2620000000.0 0.20338685337259002 -0.6557388324701096
2640000000.0 -0.13545694354349155 -0.6359224581493289
2660000000.0 -0.3793268682474484 0.4712894358423431
2680000000.0 0.5577453970080276 0.04154310532091345
2700000000.0 -0.3034035508121567 -0.4135301247206344
2720000000.0 0.04602965553180976 0.4638842074894383
2740000000.0 0.2709088224168085 -0.3232567732916346
2760000000.0 -0.3654817856211101 0.11548253660924443
2780000000.0 0.32144401446195 -0.1426721323603621
2800000000.0 -0.29357373317822266 0.14272062784433562
2820000000.0 0.11684981852560256 -0.2865471330966656
2840000000.0 0.15713419923815153 0.25395485310099286
2860000000.0 -0.2904530342008138 -0.044253622968264975
2880000000.0 0.18765038208430257 -0.22468225291957053
2900000000.0 -0.054301896174867595 0.28728263160782197
2920000000.0 0.2620113498929904 -0.13704904567700446
2940000000.0 -0.2516526035731696 -0.16442046464758284
2960000000.0 -0.27372726542318104 0.13058246572760523
2980000000.0 -0.21872907444220507 0.21584428958714505
3000000000.0 -0.30812553037568635 0.01473512515749505
3020000000.0 -0.1674563373775975 -0.2602972435510838
3040000000.0 0.29746518960807644 -0.07476642740277699
3060000000.0 -0.18691926613298593 0.24137556444509628
3080000000.0 0.115554496858943 -0.27778729891425424
3100000000.0 -0.02630828647877731 0.294554259730365
3120000000.0 -0.09467010557046833 -0.2721074756955484
3140000000.0 0.2436363652544998 0.13686975097176288
3160000000.0 -0.2637857318689562 0.023258005307620823
3180000000.0 0.20266926027260398 0.14437047589989033
3200000000.0 -0.14266061299605326 0.17534768575084306
3220000000.0 -0.15977199410460646 -0.12026184367134507
3240000000.0 0.09655218352836126 -0.14075444781842855
3260000000.0 0.037320053521013016 0.13214969303765778
3280000000.0 -0.06031285531919004 -0.08589788022463536
3300000000.0 0.028163625426261767 0.07053105261763701
3320000000.0 0.028117085877094498 -0.04076036520609613
3340000000.0 -0.01892367545392242 0.017352530525731897
3360000000.0 0.006627034486092737 -0.005090654603988183
3380000000.0 -0.0008353253587595759 -0.01011818837451962
3400000000.0 0.010187599617502954 0.01985834760490395
3420000000.0 -0.013999934215361309 0.03202734975759454
3440000000.0 0.04066566080389224 0.020247275778762005
3460000000.0 0.04950267860231989 0.01884328742779601
3480000000.0 0.000777332550527896 0.06452137098438848
3500000000.0 0.00240115905254541 0.0782944977771241
3520000000.0 0.07805476345684777 -0.05286826674806976
3540000000.0 -0.02242150448068354 0.10708224593816304
3560000000.0 -0.08256255553829064 -0.09077304368938947
3580000000.0 0.09732022221008775 0.09481500985272925
3600000000.0 -0.06382600365112544 0.1413432240578254
3620000000.0 -0.1479970114920214 0.0741820116267569
3640000000.0 -0.17600481686876465 -0.020942026112677814
3660000000.0 -0.15669859610543968 -0.10027902778863862
3680000000.0 -0.10397614674292276 -0.16035820540573853
3700000000.0 -0.009613255196000578 -0.18984280326729544
3720000000.0 0.1838901934595178 -0.04555940020398373
3740000000.0 0.18345378979399368 0.01145700845730385
3760000000.0 -0.16297276960616103 -0.06968345687487108
3780000000.0 0.14652238538511317 0.08167100624542475
3800000000.0 0.11531805316346275 -0.1071809480085919
3820000000.0 0.07595555124497555 -0.13092155761705754
3840000000.0 0.11026267669843878 0.09614223671304377
3860000000.0 -0.06551172497368295 0.1328745321240808
3880000000.0 -0.02701211258239815 0.15260690946526106
3900000000.0 0.15697503328500786 -0.023728051240075283
3920000000.0 -0.10528336075014058 -0.12400432662961187
3940000000.0 0.1659689803910516 -0.019809364536750737
3960000000.0 0.08307592577591551 0.15006950803383992
3980000000.0 0.17164429093121458 -0.006292223357196516
4000000000.0 0.16443096036035032 -0.002334184340331504
