! Created with skrf (http://scikit-rf.org).
# Hz S RI R 50.0 
!freq ReS11 ImS11
400000000.0 -0.8026335729094706 0.3068705991942927
420000000.0 -0.0186787049919377 0.8612438170619607
440000000.0 0.8211228513041611 0.11987936304466272
460000000.0 0.7186731699283859 -0.2986205753065865
480000000.0 -0.09087431455847533 0.7064720574874256
500000000.0 0.444934355377142 0.38260362831461636
520000000.0 0.3483381607031584 -0.38506917034462224
540000000.0 0.44624249804557503 -0.027411511813243403
560000000.0 -0.31607521122536586 -0.24909633178016893
580000000.0 -0.14916695746066022 -0.31927227027631994
600000000.0 -0.22980706623975308 -0.2880710852129168
620000000.0 -0.12804059436268275 -0.3537585844388263
640000000.0 0.01822574665732683 -0.38796648460778216
660000000.0 -0.4041020812354376 -0.07490665099754361
680000000.0 -0.00021252493716883978 -0.4150141227603964
700000000.0 -0.41130102600800633 -0.1066022538223796
720000000.0 -0.4099266363372135 0.054374218007054574
740000000.0 0.3689256091120018 0.18822572889314554
760000000.0 -0.3929116370504923 -0.01808671804411979
780000000.0 0.019870306286627056 0.35754982104772537
800000000.0 0.21536908684418493 -0.23496829068719188
820000000.0 -0.016314092269232163 -0.2734790832437531
840000000.0 -0.22009307702899034 -0.1100298578297974
860000000.0 -0.20194876771918582 -0.023839129192058318
880000000.0 0.15763123394225398 -0.036817043125301416
900000000.0 0.07782330601428684 -0.07249155557049429
920000000.0 0.024192998673530537 -0.07112519974379898
940000000.0 -0.029449502670785263 -0.042733425767327984
960000000.0 0.05071772737130108 -0.009471099006711057
980000000.0 0.05395475320317819 0.043238792194162684
1000000000.0 -0.07123465357884898 -0.05002421865389153
1020000000.0 0.06798287716680128 -0.07712621880957529
1040000000.0 0.12375577862657745 0.012668201146817527
1060000000.0 0.15191908430679127 -0.01543995910644567
1080000000.0 0.03716559901290033 0.1729287255921347
1100000000.0 -0.19235276973149731 0.03206513425376576
1120000000.0 -0.07113209990275823 0.20741284828496165
1140000000.0 -0.18284619943715402 -0.1737729327609907
1160000000.0 0.007555442131006313 -0.28075192212101124
1180000000.0 -0.08146580019516912 -0.3062933827960542
1200000000.0 0.33802560841904844 0.03057263359898689
1220000000.0 -0.31188889688345056 0.1960753779340713
1240000000.0 0.3310552898937443 0.19649828410110248
1260000000.0 -0.013234546225182272 -0.4127059856985978
1280000000.0 -0.33393071280815384 0.2620469514966109
1300000000.0 0.2452147223519564 0.36506501129728697
1320000000.0 0.36824117965308173 -0.23471896908205261
1340000000.0 0.4372272667268804 0.03432727810370978
1360000000.0 0.3774266071559904 -0.22109958435111216
1380000000.0 0.27970745249159173 -0.3380871104089083
1400000000.0 -0.4256661551069911 -0.022175439430054962
1420000000.0 -0.02908014438052494 0.4076215425664521
1440000000.0 0.3529129899141237 -0.15106919165010638
1460000000.0 0.041170110183059654 -0.3493742465590348
1480000000.0 -0.3083487245555365 0.09112400055705139
1500000000.0 -0.08807088477903859 0.27473197136562105
1520000000.0 0.10911977939157405 0.23272754749218041
1540000000.0 -0.1532209793797734 -0.16884933920647113
1560000000.0 0.1779136960377822 -0.0780631107168467
1580000000.0 0.016808026895229245 0.16289491601283224
1600000000.0 0.09550144376001221 0.09527891898870573
1620000000.0 0.07175143732150166 0.07383132949246808
1640000000.0 -0.006279186593073576 -0.07857564295642257
1660000000.0 0.024683844201202537 -0.04797237149194344
1680000000.0 -0.0111767693735905 0.03155166393662097
1700000000.0 -0.008514970548300922 -0.016998616376223897
1720000000.0 -0.0037101656043559564 0.003427410000267271
1740000000.0 -0.00957804144320867 0.014430065065967166
1760000000.0 -0.024938189998960022 0.02021089887585547
1780000000.0 0.03931876395540374 0.04508625092692405
1800000000.0 -0.005247893469356031 -0.0938610234951851
1820000000.0 -0.1264822536469657 0.0014115539217085659
1840000000.0 0.16413449110353978 -0.004125274463314924
1860000000.0 -0.15282794634838204 0.13309851188726832
1880000000.0 0.18594429473056612 -0.15166781833982762
1900000000.0 -0.25849339119257503 0.11231486243066402
1920000000.0 0.2239357183266367 -0.22522460569952457
1940000000.0 -0.34952174424429155 0.024821899600847054
1960000000.0 0.3514594085281031 0.14231414303246886
1980000000.0 -0.02333993345193766 -0.3974341001543064
2000000000.0 -0.40400956406881416 -0.09791839766542411
2020000000.0 -0.1553614993074041 0.3970767229378956
2040000000.0 0.17520036433380384 0.3964144997437104
2060000000.0 0.4292515274114371 0.07809824275632403
2080000000.0 0.3858434556344347 -0.1979391545230729
2100000000.0 0.1564856520942337 -0.39788626112102926
2120000000.0 0.022532980731187417 -0.4189168964834683
2140000000.0 -0.30258901504316515 -0.2730867679383394
2160000000.0 0.16018567753059326 -0.360756937879259
2180000000.0 -0.06458076317908762 -0.37446809922436114
2200000000.0 -0.2281156369991342 -0.2875812209717974
2220000000.0 -0.3445624850730994 -0.09580106376110313
2240000000.0 -0.2501070030510945 0.2459461965896413
2260000000.0 -0.11943673307408682 0.33023203017430053
2280000000.0 0.17305316634070045 0.3088579660987789
2300000000.0 0.36735912984199215 -0.016157684285868237
2320000000.0 0.004027650985522475 -0.39079398490229883
2340000000.0 -0.4116259364155288 0.09558412070316455
2360000000.0 0.41948319841241866 0.19131713990555488
2380000000.0 -0.35941897548109547 -0.3605676516146241
2400000000.0 0.4895288846335392 0.27379534738851613
2420000000.0 -0.6092365373962491 0.06667154576609644
2440000000.0 0.38170796526523265 -0.5385515508625266
2460000000.0 0.07505456492576247 0.6948977442323792
2480000000.0 -0.4640086455003145 -0.56200631923277
2500000000.0 0.5378146414778568 0.5200692069340608
2520000000.0 -0.39951523330926386 -0.6454716938092915
2540000000.0 0.05010182193777557 0.7588072960955244
2560000000.0 0.4320971342024587 -0.6183890857470667
2580000000.0 -0.7343002479483859 -0.09425992685138194
2600000000.0 0.39992031377939236 0.5942612835941968
2620000000.0 0.2782418838725616 -0.6276767008652567
2640000000.0 -0.10659550871719684 -0.6413339508421677
2660000000.0 -0.4081817683014218 0.446491359647351
2680000000.0 0.5533119774474933 0.08134484993162147
2700000000.0 -0.29236820454057755 -0.42155223059598074
2720000000.0 0.04037732592341786 0.4646472158693539
2740000000.0 0.25838594422889694 -0.3336511950223858
2760000000.0 -0.3650728878994669 0.11821873092315087
2780000000.0 0.3256610345777377 -0.13389803253949792
2800000000.0 -0.28655259915186326 0.15700496866886302
2820000000.0 0.11845634309677285 -0.28576101003709226
2840000000.0 0.14428156138859685 0.26175362898299465
2860000000.0 -0.28643160486969294 -0.06807769800609917
2880000000.0 0.18790633638276613 -0.22462320112791484
2900000000.0 -0.08025121448439991 0.2810873064428128
2920000000.0 0.2788713605206171 -0.09962974641688059
2940000000.0 -0.22398681388521366 -0.20115431313923232
2960000000.0 -0.27223352133604045 0.13308750359774318
2980000000.0 -0.22775279785500566 0.20565553622375224
3000000000.0 -0.30819724001447296 -0.01273459754304119
3020000000.0 -0.13151983355719352 -0.28040617754240305
3040000000.0 0.3056411968680727 -0.023396170820291978
3060000000.0 -0.2061382872499279 0.22458867369181648
3080000000.0 0.1250920378758218 -0.2739332973393237
3100000000.0 0.04039686490911101 0.29316964159726194
3120000000.0 -0.055652962110681214 -0.28223605429609067
3140000000.0 0.21799135519392168 0.17462382266087967
3160000000.0 -0.26434215574807174 0.02037488369859247
3180000000.0 0.21133305690850385 0.13205330342358917
3200000000.0 -0.15578739740361586 0.16401561093654102
3220000000.0 -0.1571667320334992 -0.12495159915921134
3240000000.0 0.10219709155306989 -0.13658947288042952
3260000000.0 0.025734320671550452 0.13512996024373977
3280000000.0 -0.02300464739973246 -0.10278296625197
3300000000.0 0.024003304754497815 0.07231452777055289
3320000000.0 0.0351377750941332 -0.03541817427007812
3340000000.0 -0.025199429737364578 -0.004881092868122854
3360000000.0 -0.006754597882866781 0.0039535874586949914
3380000000.0 0.00715962386170022 -0.006683549339835996
3400000000.0 0.019174503237701666 -0.011703156007495509
3420000000.0 0.011901936693106158 0.03261301689035656
3440000000.0 0.04442940213251028 0.008550925440931294
3460000000.0 0.05279577285354052 -0.001158510685666998
3480000000.0 0.010645056823855166 0.06336315715013707
3500000000.0 0.03683627857573413 0.06914803442992815
3520000000.0 0.05142764167080146 -0.07900199162287536
3540000000.0 0.014009955585964465 0.10878913103091846
3560000000.0 -0.09500304046756505 -0.07760206771565269
3580000000.0 0.11897037214379151 0.06584606914155477
3600000000.0 -0.07063006493933302 0.13735186013476067
3620000000.0 -0.13868375454921195 0.09065750966886253
3640000000.0 -0.1772487490160654 0.0031717659920955494
3660000000.0 -0.16702100881579926 -0.08182436390995697
3680000000.0 -0.11275265314048301 -0.154189071980458
3700000000.0 -0.03731150704938882 -0.18668239689893865
3720000000.0 0.17435666206577854 -0.07351356748076474
3740000000.0 0.183396767538368 -0.010276770598112541
3760000000.0 -0.17192570650136896 -0.042818595129631196
3780000000.0 0.15692255159623136 0.05975393609502075
3800000000.0 0.09058926742034956 -0.12873877818767993
3820000000.0 0.05591625631831658 -0.1403595976747937
3840000000.0 0.13158662614908861 0.06396680381853856
3860000000.0 -0.02869255913896582 0.14519504120290272
3880000000.0 -0.004688271615404251 0.15500938026668218
3900000000.0 0.15299116722502867 -0.04290363137105206
3920000000.0 -0.11906127947840847 -0.11098424170044438
3940000000.0 0.16228162629272697 -0.04177672438474415
3960000000.0 0.10390132327931076 0.13671324090438153
3980000000.0 0.17060189329528624 -0.023582407307123212
4000000000.0 0.16239019808848568 -0.02994812357706338
