! Created with skrf (http://scikit-rf.org).
# Hz S RI R 50.0 
!freq ReS11 ImS11
400000000.0 -0.8033589616594249 0.3057786735737642
420000000.0 -0.012241761438667679 0.8609754532417959
440000000.0 0.8166411201938709 0.1470908393094445
460000000.0 0.7233975707675454 -0.2883856982306673
480000000.0 -0.07227179281337483 0.7087085043533292
500000000.0 0.4644265325601441 0.35799974543819024
520000000.0 0.3880035046666227 -0.3446549468252866
540000000.0 0.44686499588076795 -0.0319211597892118
560000000.0 -0.3206463296330521 -0.24338689288731188
580000000.0 -0.14709914402776794 -0.319418099415647
600000000.0 -0.17733720923570825 -0.3225635936294575
620000000.0 -0.13183670386401844 -0.35392043852638766
640000000.0 -0.055104584338416154 -0.3838216884186478
660000000.0 -0.39914435999676173 -0.09477097285826676
680000000.0 0.03761996500046201 -0.4139365856168403
700000000.0 -0.42080756245812523 -0.06603589377813521
720000000.0 -0.40394072516984636 0.08664077823023053
740000000.0 0.36471546078432043 0.19424295948753054
760000000.0 -0.39155981523855143 -0.0418547399047355
780000000.0 0.011328520196958005 0.35781322046308695
800000000.0 0.2007576475845532 -0.24740713444827916
820000000.0 -0.0051884096758778335 -0.27373158589858365
840000000.0 -0.2136877692673358 -0.12182239384447353
860000000.0 -0.20188200119574018 -0.023073934857167782
880000000.0 0.1579081177030429 -0.03516205104095309
900000000.0 0.06431818294229852 -0.08378559786965743
920000000.0 0.016024836942859413 -0.07311345601124734
940000000.0 -0.022838646780396484 -0.04687355804481437
960000000.0 0.05116381675021205 -0.008237046550288027
980000000.0 0.058655411806727405 0.036720057381552346
1000000000.0 -0.0686563122554542 -0.053297645021226414
1020000000.0 0.0684396596719999 -0.07646407927863746
1040000000.0 0.12430967052281061 -0.00020713200774742538
1060000000.0 0.15061085658236203 -0.024559609256399263
1080000000.0 0.04388344903397471 0.17155830681446385
1100000000.0 -0.19006411609466614 0.044927265658264416
1120000000.0 -0.06871612609586505 0.20818368468037285
1140000000.0 -0.1782171128734911 -0.17845707644879077
1160000000.0 0.011045550311294594 -0.2807955137480244
1180000000.0 -0.05904136059408471 -0.31160451449716164
1200000000.0 0.33588692778002066 0.0466165616456714
1220000000.0 -0.32030649257160876 0.1816610680988087
1240000000.0 0.3261556726509763 0.2041692377601878
1260000000.0 0.004337643355455596 -0.4130031038184336
1280000000.0 -0.32521787869549046 0.27270786665049485
1300000000.0 0.2584431231932674 0.35573080885339203
1320000000.0 0.37072554528486 -0.2306820653155705
1340000000.0 0.43756900378384717 0.030002268032725602
1360000000.0 0.36770692264803617 -0.23690333485386125
1380000000.0 0.2644965701828162 -0.34992482749762227
1400000000.0 -0.426140276371523 -0.014110221366645198
1420000000.0 -0.04324094851541309 0.40674904210745844
1440000000.0 0.3502118451524911 -0.15752661310452856
1460000000.0 0.038174317214590484 -0.349807009341278
1480000000.0 -0.31708783796715095 0.05469487570725026
1500000000.0 -0.09601830661347216 0.27213471070790957
1520000000.0 0.11592579552235546 0.22925178984106695
1540000000.0 -0.15336222273378208 -0.1679960568199204
1560000000.0 0.1890043928737442 -0.045509455670978756
1580000000.0 0.011821901451142954 0.1634935116269407
1600000000.0 0.07352086905232715 0.11310782723760943
1620000000.0 0.0504616030549387 0.08978426097488885
1640000000.0 -0.021022654728224458 -0.07634784816951867
1660000000.0 0.01623007608452259 -0.051607399758053514
1680000000.0 -0.017197452611353792 0.02865690379897109
1700000000.0 0.008486702648050673 -0.016783442584438694
1720000000.0 -0.0026658334771621603 0.003661505578433806
1740000000.0 -0.0022617656537379824 0.01748590410053937
1760000000.0 -0.02412350268066706 0.02105208814429443
1780000000.0 0.03802692372799973 0.04638405316595193
1800000000.0 -0.006951817761810538 -0.09364396944282556
1820000000.0 -0.12608189786758056 0.011248680246318815
1840000000.0 0.16418997795675336 0.001299677761055091
1860000000.0 -0.15406135359774847 0.13179551522775873
1880000000.0 0.19024279371618194 -0.14595247309393583
1900000000.0 -0.25935137562456057 0.11039805558181691
1920000000.0 0.2248033547944572 -0.22433994866577212
1940000000.0 -0.349469852280285 0.02549080399163218
1960000000.0 0.35226570959525727 0.14037945143254535
1980000000.0 -0.018489295107709282 -0.39773235910750954
2000000000.0 -0.40291058111997646 -0.10206514027686002
2020000000.0 -0.1358155115438505 0.4042726422853119
2040000000.0 0.1560147067551001 0.40444649958647205
2060000000.0 0.4297410248804902 0.07369249063230361
2080000000.0 0.37166151588856067 -0.2231089162814009
2100000000.0 0.14371025962947945 -0.4025349516195175
2120000000.0 0.011407650271902162 -0.4193778729915606
2140000000.0 -0.3099512693973264 -0.2646702573697526
2160000000.0 0.15076171193002683 -0.36467914479977154
2180000000.0 -0.0456395286232079 -0.3775094086220561
2200000000.0 -0.23470277975849074 -0.2825454424061556
2220000000.0 -0.34642077841338875 -0.08923337717110366
2240000000.0 -0.25593604966448036 0.23997833923939846
2260000000.0 -0.1178665335475417 0.3310643006368294
2280000000.0 0.16638353045793214 0.31238619204847384
2300000000.0 0.36752171179853044 -0.007192297630378403
2320000000.0 0.008965287898300915 -0.39066845036741354
2340000000.0 -0.4125792589216302 0.09190004260450849
2360000000.0 0.42209727542663983 0.18581550125773663
2380000000.0 -0.36693500837139803 -0.3530062858302245
2400000000.0 0.48465542639080506 0.28185151754441895
2420000000.0 -0.6093143053491002 0.063679833764018
2440000000.0 0.4013494999065216 -0.5241110288105798
2460000000.0 0.060539463197040164 0.6963921786902855
2480000000.0 -0.467734785099985 -0.5588557722601009
2500000000.0 0.4584571256718418 0.5919877541718115
2520000000.0 -0.39962610808937715 -0.6454360100613917
2540000000.0 0.09574091312253549 0.754576734314903
2560000000.0 0.45537698223983253 -0.6018417853108511
2580000000.0 -0.73904751558605 -0.04625264823941624
2600000000.0 0.37929672012259485 0.6082851672815448
2620000000.0 0.2824596715612334 -0.625729616957432
2640000000.0 -0.12385814938711417 -0.6383826161254883
2660000000.0 -0.4133689317382625 0.44199535617227725
2680000000.0 0.5586543247082977 0.028872764162196324
2700000000.0 -0.30164434595579676 -0.41503500966149537
2720000000.0 0.03065809005790049 0.46530093073945483
2740000000.0 0.24877238200100785 -0.34094589817611864
2760000000.0 -0.36887156058016135 0.10443310597579195
2780000000.0 0.3217314379893219 -0.1427813898743305
2800000000.0 -0.28970096403012424 0.15088550895101352
2820000000.0 0.11787264348075135 -0.28631226386632236
2840000000.0 0.15327100242035466 0.25671764202724495
2860000000.0 -0.2897237671558272 -0.05093252921737749
2880000000.0 0.18936557987919903 -0.22322273874050463
2900000000.0 -0.08072379600412617 0.28128651364158863
2920000000.0 0.2695965976381775 -0.12233968271000749
2940000000.0 -0.2472302295930608 -0.17105537978746824
2960000000.0 -0.2770212117877625 0.12296748499759344
2980000000.0 -0.23279426470739017 0.20060829498487334
3000000000.0 -0.3087212615075117 0.002422828631489222
3020000000.0 -0.15458991680346634 -0.2678493137306394
3040000000.0 0.2929009177654173 -0.09015549281621422
3060000000.0 -0.19372016620454324 0.23563388644352629
3080000000.0 0.12220506477740703 -0.2752386686379714
3100000000.0 0.009678586291863177 0.29559771111410393
3120000000.0 -0.07890511770229329 -0.2767803688378962
3140000000.0 0.23189275305959142 0.155860761463529
3160000000.0 -0.2644081696763859 0.018248834229530775
3180000000.0 0.20946467929159962 0.13497124340526764
3200000000.0 -0.15323257157608822 0.16651571745780394
3220000000.0 -0.15642440462142604 -0.12573258888103786
3240000000.0 0.10757910729179786 -0.13288523040572822
3260000000.0 0.03526846054144428 0.13307891013055165
3280000000.0 -0.05067608640723382 -0.09239920223510867
3300000000.0 0.016626909194255714 0.07453702366901195
3320000000.0 0.04614301995397491 -0.018556399462419267
3340000000.0 -0.02296572026438215 0.01219449204626971
3360000000.0 -0.005367396447263006 0.006461356861693328
3380000000.0 -0.004438109264254816 -0.008707520745227498
3400000000.0 0.021139443785658085 0.006368155834409483
3420000000.0 -0.001512272346123979 0.03446773019604372
3440000000.0 0.04377381627683695 0.010663476146860045
3460000000.0 0.051731464248556354 0.010913377107894615
3480000000.0 0.019019145046555386 0.0612295421824166
3500000000.0 0.00868468629416541 0.07744347873528795
3520000000.0 0.06736614359699315 -0.06558920994719165
3540000000.0 0.03131865443805991 0.10527087880687602
3560000000.0 -0.09337860454309159 -0.07918602137001295
3580000000.0 0.11597653289908898 0.07085364136225604
3600000000.0 -0.04045361502470271 0.14943828061095613
3620000000.0 -0.1351326002468986 0.09530414236451143
3640000000.0 -0.17736846120629196 -0.0025673783708736
3660000000.0 -0.16822820295749724 -0.0797041143979033
3680000000.0 -0.11488328905500045 -0.15249724821474628
3700000000.0 -0.03846434982203509 -0.1863665975113747
3720000000.0 0.17595887685283695 -0.06906081299375552
3740000000.0 0.1833427125478347 -0.015284329110689143
3760000000.0 -0.17021031493986918 -0.05068824329646371
3780000000.0 0.14985762115097828 0.07521908938044589
3800000000.0 0.08709890300370945 -0.1310977097098396
3820000000.0 0.06264966105652427 -0.13749333303102088
3840000000.0 0.12155627175798674 0.08192300902928745
3860000000.0 -0.04544078617632531 0.14105587201157074
3880000000.0 -0.010152689904831248 0.15503990311994068
3900000000.0 0.1532224171184658 -0.04291988764212004
3920000000.0 -0.12006368041496591 -0.11004289868990298
3940000000.0 0.1658208527951285 -0.024395311775089662
3960000000.0 0.07877889816003822 0.1529053046059477
3980000000.0 0.17219995468327606 -0.005455571960101816
4000000000.0 0.16454715153835023 -0.00821291261412861
