! Created with skrf (http://scikit-rf.org).
# Hz S RI R 50.0 
!freq ReS11 ImS11
400000000.0 -0.8056391598710458 0.3033166703769565
420000000.0 0.011771327991464985 0.8605908934805947
440000000.0 0.8194814529932198 0.13133108765234133
460000000.0 0.7329364203762642 -0.26338803253642395
480000000.0 -0.06635016604397122 0.7092070122328956
500000000.0 0.43871855931660314 0.3881890862070559
520000000.0 0.38411246247041947 -0.34988264616936904
540000000.0 0.4401586237872956 -0.0830175385305073
560000000.0 -0.3141753758954977 -0.25089573084247957
580000000.0 -0.08705255830583633 -0.3410298663698036
600000000.0 -0.19795109607509342 -0.3104618251738404
620000000.0 -0.16242140155062285 -0.34068503809756956
640000000.0 -0.08123410656543469 -0.37936558236682394
660000000.0 -0.40242554898222704 -0.07924318839769726
680000000.0 0.05850698272535943 -0.4117126180838487
700000000.0 -0.41996008118015743 -0.0708263767865881
720000000.0 -0.40155889473817735 0.09658557457012952
740000000.0 0.35342480870555976 0.21648377459344204
760000000.0 -0.39281933429343013 -0.026325800068355946
780000000.0 0.007101649285892128 0.3581284860168412
800000000.0 0.21240887866455388 -0.23769680474165372
820000000.0 0.0005235573318699405 -0.27391034835929373
840000000.0 -0.21056735141062696 -0.12707133967574227
860000000.0 -0.2002564123416755 -0.03476684046639383
880000000.0 0.15572176014610056 -0.044415599843016566
900000000.0 0.05672235106332378 -0.08923257287536529
920000000.0 0.02551286467922668 -0.07027390611640595
940000000.0 -0.03179634737798072 -0.041118551498360544
960000000.0 0.051748431759944216 -0.0030552579888626537
980000000.0 0.05970703138884363 0.034811860761447135
1000000000.0 -0.07375080632548062 -0.0459806610537824
1020000000.0 0.0737776044192454 -0.07155823560057185
1040000000.0 0.12373429437307377 0.010802199733882821
1060000000.0 0.15135892160995448 -0.019702276634373926
1080000000.0 0.03761231332833366 0.17286921000021704
1100000000.0 -0.19031598888027396 0.04317414349505889
1120000000.0 -0.052883522692583375 0.21275482112328456
1140000000.0 -0.17836513301732176 -0.17830026825576034
1160000000.0 0.0006534620747171107 -0.28113928566939594
1180000000.0 -0.07333523801840151 -0.3085949064963125
1200000000.0 0.33894381523686423 0.019736036721343875
1220000000.0 -0.31346986186124254 0.19333545226249532
1240000000.0 0.32632175564717153 0.20385153818523594
1260000000.0 0.004983367946219168 -0.4128816431095019
1280000000.0 -0.33403181592705017 0.2618472902961191
1300000000.0 0.24299456742630476 0.366240649340914
1320000000.0 0.36952025440185404 -0.23254079425159876
1340000000.0 0.4378025084377694 0.02456263440397922
1360000000.0 0.36955450618635066 -0.23364315754885315
1380000000.0 0.26167241438658606 -0.35203606033626433
1400000000.0 -0.42585672947027775 -0.01934722756528996
1420000000.0 -0.028978925787751023 0.40788130407698936
1440000000.0 0.3527798098931203 -0.1518843908461776
1460000000.0 0.027532798207874343 -0.35104512438204394
1480000000.0 -0.29287612909808575 0.13180744127472174
1500000000.0 -0.09645725856559997 0.27228001927392986
1520000000.0 0.10115100981530858 0.23703455641150176
1540000000.0 -0.16183841162310483 -0.16017698128694302
1560000000.0 0.19053672866830307 -0.038598609988483155
1580000000.0 -0.012859069889139157 0.1637044825225562
1600000000.0 0.09774221330007611 0.09307727256187405
1620000000.0 0.06103532648184523 0.08279424625722939
1640000000.0 0.001446591518255697 -0.07888275321579986
1660000000.0 0.03357751250010032 -0.042095740062883164
1680000000.0 -0.020291210990082263 0.02653981090894494
1700000000.0 -0.018850462764851934 -0.0012203972046401102
1720000000.0 0.0024391248835871388 -0.004082065980000015
1740000000.0 -0.013743303770990601 0.010758359577969513
1760000000.0 -0.029245032026048355 0.012978737272753659
1780000000.0 0.026763913076347207 0.05346966307408654
1800000000.0 0.014532876051873892 -0.09221947750074612
1820000000.0 -0.12552931777068344 0.01579799337291246
1840000000.0 0.1636745819132998 -0.009678835982737591
1860000000.0 -0.15214577574591814 0.1341202488511009
1880000000.0 0.18626837438718175 -0.1510012102950572
1900000000.0 -0.25610401739181465 0.11720292760243058
1920000000.0 0.21990271979035905 -0.22892673326555668
1940000000.0 -0.3493373605014517 0.027996517579809463
1960000000.0 0.3537465916690214 0.13694263768102752
1980000000.0 -0.025554397633591356 -0.3975199819095245
2000000000.0 -0.4036492375107852 -0.09990327468505272
2020000000.0 -0.13541718300742306 0.40423860521550714
2040000000.0 0.1742294974017773 0.3970331277309788
2060000000.0 0.43068105907035165 0.07033705890023696
2080000000.0 0.3869869073766467 -0.1959035096699118
2100000000.0 0.1629108932189579 -0.3954192690310716
2120000000.0 -0.01481457798861812 -0.41940717716063775
2140000000.0 -0.3216653803619789 -0.25037755472381096
2160000000.0 0.17941587544816298 -0.3514329346956724
2180000000.0 -0.06577410575087028 -0.37433666116750697
2200000000.0 -0.23350702351991723 -0.2832965930989115
2220000000.0 -0.35171506175832773 -0.062143731820612606
2240000000.0 -0.2708960261883606 0.2233112236953595
2260000000.0 -0.10899386428350212 0.3340665792699355
2280000000.0 0.17677996747688637 0.3067891853893891
2300000000.0 0.3674314675789562 -0.01602982065672599
2320000000.0 0.010354662330189151 -0.39081762709043744
2340000000.0 -0.41413893641437743 0.08441709072764209
2360000000.0 0.4225173092091808 0.18494411191237542
2380000000.0 -0.37486242128261915 -0.3448792300602074
2400000000.0 0.4881437228055575 0.2763061211796328
2420000000.0 -0.6072491569568187 0.08116616615358432
2440000000.0 0.3883714592997409 -0.5337769524945354
2460000000.0 0.07165283386945719 0.6952573841371266
2480000000.0 -0.4578051893735702 -0.5673362779303006
2500000000.0 0.5064555655523446 0.550780173023709
2520000000.0 -0.4354889492164804 -0.6215946595538294
2540000000.0 0.015317426436220555 0.7606656905863056
2560000000.0 0.42113948880577123 -0.6260312771479887
2580000000.0 -0.7358043066615794 -0.08338471753708517
2600000000.0 0.4095337584727502 0.5880790494972091
2620000000.0 0.19493500333403904 -0.65834864306292
2640000000.0 -0.18085021253575076 -0.6247739662664492
2660000000.0 -0.40987494998949314 0.44496679151132557
2680000000.0 0.5530392512122105 0.08233700661852002
2700000000.0 -0.305617099392283 -0.4121915363333782
2720000000.0 0.027006518880866706 0.46534779653138947
2740000000.0 0.2682163065560343 -0.32555713708944267
2760000000.0 -0.3664400903271427 0.11245563443856278
2780000000.0 0.3204291817404373 -0.14487320734864625
2800000000.0 -0.29411673084971474 0.1417945816657763
2820000000.0 0.1154328113794464 -0.28703954276518595
2840000000.0 0.1576400268430218 0.2535846468429961
2860000000.0 -0.2876498541225376 -0.06263230115033291
2880000000.0 0.1878521872155727 -0.2247964328086987
2900000000.0 -0.07367282710036671 0.28320346757259585
2920000000.0 0.26959193533409026 -0.1225707195361648
2940000000.0 -0.24379891158753045 -0.17615127027106017
2960000000.0 -0.281443511617844 0.11306975249585328
2980000000.0 -0.22350251974781085 0.2107181794635361
3000000000.0 -0.30859686972199835 0.0017768003348556268
3020000000.0 -0.1166412333530737 -0.2869445176157686
3040000000.0 0.3069636055211168 -0.004163650855511512
3060000000.0 -0.21427760463272857 0.2174158569761456
3080000000.0 0.11880464249299538 -0.27631329141245453
3100000000.0 -0.07651079339936483 0.28535195735888325
3120000000.0 -0.07390326503215207 -0.2783627184227788
3140000000.0 0.23820877366857093 0.1457568579495672
3160000000.0 -0.26439180660840744 0.011183319072122536
3180000000.0 0.19607442091693214 0.15320392832824806
3200000000.0 -0.15380444419358646 0.1658153896382934
3220000000.0 -0.16322242523025582 -0.11637747530214593
3240000000.0 0.09848150565624274 -0.13854542065621633
3260000000.0 0.042734421883356855 0.13054983517165433
3280000000.0 -0.048329243386794646 -0.09342817477735525
3300000000.0 0.05938950351552381 0.04754450773207263
3320000000.0 0.006598878403063844 -0.049080932809099205
3340000000.0 -0.024985947882899498 0.005472688144424499
3360000000.0 0.006987892991038831 -0.003401268256422017
3380000000.0 -0.006006173006420405 0.008325316332967188
3400000000.0 0.01665310868055889 0.015097198334566993
3420000000.0 -0.02410323996030202 0.025115256976291127
3440000000.0 0.027748393851560606 0.03606915811543815
3460000000.0 0.05027312272977713 0.017534331780511492
3480000000.0 -0.021639465291161657 0.06061920853787828
3500000000.0 0.02056022257987901 0.07575884325946063
3520000000.0 0.0827019022435951 -0.045225350098498866
3540000000.0 0.004140512326695982 0.10995596129732492
3560000000.0 -0.08771397643776735 -0.08612012667830451
3580000000.0 0.10010639030334373 0.09173745565222079
3600000000.0 -0.10092297856156217 0.11628553761093928
3620000000.0 -0.13742690680640943 0.09349071835127663
3640000000.0 -0.17645429988780806 -0.01983931812316602
3660000000.0 -0.1575528334132304 -0.09915850215436955
3680000000.0 -0.09381061164217006 -0.1664069374327544
3700000000.0 -0.007945883529196344 -0.19017038709614775
3720000000.0 0.1828369167974185 -0.04723785402714542
3740000000.0 0.18316734825280326 0.014201138753035117
3760000000.0 -0.16486503014116893 -0.06389564584607497
3780000000.0 0.1422534610348668 0.08904462619008899
3800000000.0 0.11885302649455924 -0.10329405352829525
3820000000.0 0.07313140010009152 -0.1320267352840716
3840000000.0 0.11892189258547613 0.08457422579166415
3860000000.0 -0.06432253306313761 0.13324018190035472
3880000000.0 -0.033508809077781476 0.15122008131309486
3900000000.0 0.15670668727306256 -0.02530649957285589
3920000000.0 -0.1010551730449768 -0.12715537299456178
3940000000.0 0.16726702068174248 0.005277469690845807
3960000000.0 0.06682819727644035 0.15806138505927672
3980000000.0 0.17103529181556282 -0.013738534632655761
4000000000.0 0.16349377206782942 -0.011226015149389115
