! Created with skrf (http://scikit-rf.org).
# Hz S RI R 50.0 
!freq ReS11 ImS11
400000000.0 -0.7964574448584787 0.32285618339282
420000000.0 -0.004070858406681252 0.860856838575694
440000000.0 0.8169971832206376 0.1466418816999183
460000000.0 0.7198372328745192 -0.2978844447329191
480000000.0 -0.040656750875965625 0.7110420368179604
500000000.0 0.41591816647612945 0.4122740015591
520000000.0 0.37428892887137777 -0.360559145760491
540000000.0 0.44207687105426685 -0.07235315105976012
560000000.0 -0.33454821114854116 -0.2210920900632357
580000000.0 -0.08919754163913586 -0.34062049823381824
600000000.0 -0.20816762035700254 -0.3045779365388569
620000000.0 -0.15657131326758325 -0.34334533124345545
640000000.0 -0.05114353071083821 -0.3846054710827265
660000000.0 -0.3988695242953452 -0.09512284946881788
680000000.0 0.06903646892355872 -0.41018606311854194
700000000.0 -0.42205150377844824 -0.05553757761509848
720000000.0 -0.40715941843613584 0.06990363788229066
740000000.0 0.3564788936916954 0.2102501350624731
760000000.0 -0.3918914895232377 -0.03795446867864426
780000000.0 0.01262617938763984 0.35797939122028094
800000000.0 0.2080062063892278 -0.24138264217874045
820000000.0 0.009910722947784799 -0.273673153140214
840000000.0 -0.21518540071882855 -0.11936772861945226
860000000.0 -0.2015479549005685 -0.026761125723878284
880000000.0 0.14916071985493023 -0.06301412696428052
900000000.0 0.06862504072970062 -0.08127390926889584
920000000.0 0.03296503770487406 -0.06735923524664167
940000000.0 -0.02858709131529785 -0.04338906493743921
960000000.0 0.05169558431487316 -0.0039316528038901115
980000000.0 0.051026873462458974 0.0464033138916402
1000000000.0 -0.07467925747650105 -0.0441325029042328
1020000000.0 0.07466394584064097 -0.07071198003498097
1040000000.0 0.12365047691324997 0.010488156966244331
1060000000.0 0.1523666881804824 -0.009984982386852059
1080000000.0 0.05570051164833816 0.16790821052800242
1100000000.0 -0.1921222442560841 0.03396940842531105
1120000000.0 -0.05683748418838146 0.21203307706784658
1140000000.0 -0.1778134934140805 -0.17899804314189158
1160000000.0 -0.001989907442213291 -0.28126853149505726
1180000000.0 -0.07538671898498125 -0.3080564770468147
1200000000.0 0.33864744307961925 0.026102048943449196
1220000000.0 -0.32794331737602117 0.16771308256245512
1240000000.0 0.3191111635514461 0.214966332512586
1260000000.0 -0.0019189676308237677 -0.4128328500646693
1280000000.0 -0.3346288209489334 0.26128521107918123
1300000000.0 0.25312780810023505 0.35928351932956426
1320000000.0 0.373652156289723 -0.22517255143322162
1340000000.0 0.4371327088691339 0.03562002225979053
1360000000.0 0.3694420454238252 -0.23378618879088758
1380000000.0 0.2606768778286997 -0.3529569909778771
1400000000.0 -0.42579247592573055 -0.021650931399116488
1420000000.0 -0.014110996561236981 0.40840689761909504
1440000000.0 0.3496489009430401 -0.1590933276714416
1460000000.0 0.03510172114049314 -0.3504340519808058
1480000000.0 -0.310021059461397 0.08437189694236293
1500000000.0 -0.0945675033242841 0.2729566030996813
1520000000.0 0.11628257858893057 0.22984221676642086
1540000000.0 -0.16327079488747837 -0.15850329302041535
1560000000.0 0.18826795725817988 -0.048621415544570175
1580000000.0 0.006390661982773664 0.16389114838785265
1600000000.0 0.07736211087341825 0.11071829504894518
1620000000.0 0.05470267076189722 0.08704791014659186
1640000000.0 -0.013123653074986608 -0.07782722588521805
1660000000.0 0.02972963916698808 -0.044917338720061775
1680000000.0 -0.019978750139576347 0.02657686047635066
1700000000.0 -0.002576648289035676 -0.018605081727464872
1720000000.0 0.0045876207229078175 -0.0008826468165345685
1740000000.0 0.0033287334206459933 0.017414667491251774
1760000000.0 -0.030653222524896107 0.009170115562247168
1780000000.0 0.020863057771097135 0.05594526305404199
1800000000.0 -0.009245354399745656 -0.09352532925954324
1820000000.0 -0.12511507392522622 0.01754293993350029
1840000000.0 0.16387410558483376 -0.010859840301319687
1860000000.0 -0.15024273705678193 0.13591148948020312
1880000000.0 0.17489385588199988 -0.16436617433402578
1900000000.0 -0.2568841216725077 0.11643452607113017
1920000000.0 0.22471363502940309 -0.22419936624295536
1940000000.0 -0.34866785632936265 0.03698434647080513
1960000000.0 0.34965390787532014 0.14686636104005224
1980000000.0 -0.02403501671910603 -0.39759232526221516
2000000000.0 -0.4033127581733548 -0.1009144594891534
2020000000.0 -0.16306920015655282 0.39410649628583316
2040000000.0 0.18302503763331565 0.39294702766878603
2060000000.0 0.4286852775526787 0.08112870852330828
2080000000.0 0.3818861522081006 -0.2054455871913654
2100000000.0 0.17141152552509525 -0.391619224472302
2120000000.0 -0.014465439420712618 -0.41925908429727526
2140000000.0 -0.3221960407287958 -0.24922706935915187
2160000000.0 0.17143170309939715 -0.3553164249339859
2180000000.0 -0.06326194969926682 -0.374786898132874
2200000000.0 -0.24429135063557905 -0.2739414352586185
2220000000.0 -0.3482059247850637 -0.08156401821994336
2240000000.0 -0.25208166196051923 0.24399045290165794
2260000000.0 -0.09464121540687874 0.33855076420413016
2280000000.0 0.17789436302063347 0.30591484090585597
2300000000.0 0.36748246014729224 -0.01153060194692716
2320000000.0 0.005008021285464448 -0.39101076044633515
2340000000.0 -0.4134961830853279 0.08778484784352956
2360000000.0 0.4208315561763625 0.1887706764666681
2380000000.0 -0.3732301796753331 -0.3467919693771961
2400000000.0 0.4872089208885177 0.2779892616648014
2420000000.0 -0.6093293596986393 0.06506632985505773
2440000000.0 0.38845035023275687 -0.5335082804630958
2460000000.0 0.07759786272409018 0.6947827595576316
2480000000.0 -0.4645435454753987 -0.5616296305112579
2500000000.0 0.5326419106197878 0.5256318174250121
2520000000.0 -0.4421194208625891 -0.6171091726066983
2540000000.0 0.05739128416405731 0.7584067564794721
2560000000.0 0.4325346028805739 -0.6184833581714247
2580000000.0 -0.7378787366921385 -0.062093510688651384
2600000000.0 0.4128564945659294 0.5855144321400794
2620000000.0 0.20440319921698782 -0.6552771907059602
2640000000.0 -0.15371617177681426 -0.631895424960947
2660000000.0 -0.42552979699638094 0.4300821496417406
2680000000.0 0.554581750440529 0.07251404825048284
2700000000.0 -0.30658183014174917 -0.411360895701027
2720000000.0 0.03201536486878907 0.4650223388741818
2740000000.0 0.28150337660391767 -0.31407826012489837
2760000000.0 -0.36631237365302144 0.11335207285053736
2780000000.0 0.3262894083839953 -0.1312079050456671
2800000000.0 -0.29251924591624273 0.14459992406769473
2820000000.0 0.11663693900703935 -0.2865032771925743
2840000000.0 0.15876405790467604 0.25294792329552024
2860000000.0 -0.28756742957532244 -0.06209551843804802
2880000000.0 0.1833747096232138 -0.22866221238832513
2900000000.0 -0.07864355262307178 0.28181038938021696
2920000000.0 0.26416765470645476 -0.13373063003487487
2940000000.0 -0.25225580665231584 -0.1639465163742223
2960000000.0 -0.2776688534500572 0.12223035019677446
2980000000.0 -0.2316021593112689 0.20179540082438052
3000000000.0 -0.3085281266849057 0.012880486050570171
3020000000.0 -0.17207224562942325 -0.2571463803345172
3040000000.0 0.2995623878297264 -0.06540319267371163
3060000000.0 -0.19728047287569053 0.23283007572895423
3080000000.0 0.12217876946925214 -0.2745514714317078
3100000000.0 -0.004421327220269572 0.2955104719625262
3120000000.0 -0.04818065214345119 -0.2836526410467282
3140000000.0 0.22358357392958633 0.16685569495605052
3160000000.0 -0.2640401651598875 0.014769515942942731
3180000000.0 0.20216245618629541 0.14515028084848053
3200000000.0 -0.1464105574250998 0.17225647504330266
3220000000.0 -0.1632166657571784 -0.11554349931106198
3240000000.0 0.10231621654810537 -0.13614494686372924
3260000000.0 0.033706832811103406 0.13331547755282594
3280000000.0 -0.07546831787330917 -0.07298142787334466
3300000000.0 0.036812598070786656 0.06627056716329845
3320000000.0 0.029628485497880597 -0.03958596486253875
3340000000.0 -0.024574675672547418 0.007818338353911361
3360000000.0 0.006611672874954664 0.005103405416900958
3380000000.0 0.009049591385717958 -0.004327382740457792
3400000000.0 0.01575053187498652 0.01583844315996735
3420000000.0 -0.016364839870319073 0.03049159920870941
3440000000.0 0.043331566306476436 0.014448061826180395
3460000000.0 0.04722270667718888 0.024224372813828336
3480000000.0 -0.021585467685270376 0.06030897023916689
3500000000.0 0.025468299320881498 0.07440563034751604
3520000000.0 0.07259440539101668 -0.05991791090664682
3540000000.0 -0.025288468366420194 0.10660438255021933
3560000000.0 -0.0908259464410237 -0.08282413389977943
3580000000.0 0.10345680590582369 0.0879908248614533
3600000000.0 -0.09141016365547573 0.12413398166995739
3620000000.0 -0.14681088364602488 0.07752536229142772
3640000000.0 -0.1771508061970428 -0.001511784783950945
3660000000.0 -0.1573879602663879 -0.09924847947437997
3680000000.0 -0.10371203724533659 -0.1603666176448394
3700000000.0 -0.016989659877165518 -0.18943528474735002
3720000000.0 0.17569613532202474 -0.07153829882461925
3740000000.0 0.18382835299663122 0.002650635656140852
3760000000.0 -0.16330368678478774 -0.06903353825242294
3780000000.0 0.15086469382942005 0.07287395261400904
3800000000.0 0.11722006374269055 -0.1050878882073281
3820000000.0 0.06885168223991464 -0.13456427482663655
3840000000.0 0.12224802616124579 0.08031163707959889
3860000000.0 -0.049210595499956274 0.1395368285410624
3880000000.0 -0.02487651556572314 0.15299524540314868
3900000000.0 0.15462294248957256 -0.0361657837719153
3920000000.0 -0.10035561016172621 -0.12777571018903613
3940000000.0 0.16669052644296548 -0.013133322000023357
3960000000.0 0.07113874823190647 0.15609597135484332
3980000000.0 0.17134869938283645 -0.006930078025970337
4000000000.0 0.16410200229322003 0.0008645921516505871
