! Created with skrf (http://scikit-rf.org).
# Hz S RI R 50.0 
!freq ReS11 ImS11
400000000.0 -0.8089782378731137 0.2896492438620439
420000000.0 -0.020304901306021115 0.8615510680129206
440000000.0 0.8235372332140893 0.10722773519299451
460000000.0 0.7302938581419534 -0.2687475794573026
480000000.0 -0.10528357654627507 0.7041533799568332
500000000.0 0.4340061556853008 0.39742157170367826
520000000.0 0.2808105942006641 -0.43543400986613817
540000000.0 0.44490758350120957 0.035603120456411716
560000000.0 -0.2753770220007443 -0.29432864429539285
580000000.0 -0.20938391500949524 -0.285371157774076
600000000.0 -0.2540613441003918 -0.26388139573612884
620000000.0 -0.06990450902517771 -0.37033144538017926
640000000.0 -0.021914125727327458 -0.3878140896217792
660000000.0 -0.4076881918669901 -0.04906864838751222
680000000.0 0.03413897477431816 -0.41373106572967794
700000000.0 -0.4179405944620936 -0.07980402727512147
720000000.0 -0.4058547440487629 0.07813477144843964
740000000.0 0.37055671144274605 0.1824125071409729
760000000.0 -0.3889062725752613 -0.06147006980628795
780000000.0 0.05592144006200878 0.35427997141468476
800000000.0 0.2071013492663453 -0.24172567515480348
820000000.0 0.02997414253049479 -0.272618780524466
840000000.0 -0.21448036471223098 -0.12137612902525707
860000000.0 -0.20078804811109502 -0.030110096114041595
880000000.0 0.15667118915826567 -0.03989262196345762
900000000.0 0.0767554608286155 -0.0731504589197503
920000000.0 0.014326691845666475 -0.07363254516585171
940000000.0 -0.03257211556697438 -0.04028512372251974
960000000.0 0.05143638421793801 0.005251832490187948
980000000.0 0.05574605143509529 0.040681085611564055
1000000000.0 -0.07431710082831514 -0.04440941078922329
1020000000.0 0.07747178402047064 -0.0675220505318918
1040000000.0 0.12384498096238655 0.012366122659046467
1060000000.0 0.1522388783548952 -0.010802152601308122
1080000000.0 0.025620719185352636 0.17482625034232416
1100000000.0 -0.1947295658002038 0.014038462980763894
1120000000.0 -0.05284388638646955 0.2128742363564599
1140000000.0 -0.18796465548018132 -0.16793936419921268
1160000000.0 0.014596452188475934 -0.28045932868458245
1180000000.0 -0.08993199121976217 -0.3043956751807401
1200000000.0 0.33935102465768124 0.013161359878751066
1220000000.0 -0.2927835246276103 0.22365678830754215
1240000000.0 0.3290347850795953 0.20021587655343093
1260000000.0 -0.010370136773486171 -0.41299379692477545
1280000000.0 -0.3250447857024855 0.2736405325909764
1300000000.0 0.26053260583111043 0.35423444566774986
1320000000.0 0.3720322061155569 -0.22842489648412934
1340000000.0 0.437788895200341 0.029490738038019958
1360000000.0 0.37383386211221065 -0.2271249514713448
1380000000.0 0.2757261299700301 -0.34119649404824903
1400000000.0 -0.42595701442152256 -0.016848606891544337
1420000000.0 -0.016713258258584468 0.40825449343412595
1440000000.0 0.3505732496444816 -0.15669208346183605
1460000000.0 0.026943662545945 -0.3510651683090804
1480000000.0 -0.3133554194640843 0.07193184145308208
1500000000.0 -0.09142415641211837 0.27380190470702204
1520000000.0 0.13167875582460736 0.22089827392598252
1540000000.0 -0.1706769512529918 -0.15044306465566262
1560000000.0 0.1841965658350753 -0.06246872350626115
1580000000.0 0.015899750089855374 0.16327497534604835
1600000000.0 0.08459815917637044 0.10522822614181371
1620000000.0 0.05387389786241048 0.08764800761646815
1640000000.0 -0.010408987476118218 -0.07834900530929371
1660000000.0 0.035368313351134086 -0.04072050153879433
1680000000.0 -0.01637527271775095 0.029209285006415217
1700000000.0 0.018495511583834726 -0.0030190954075203593
1720000000.0 0.003069478401124736 -0.003839386972224363
1740000000.0 -0.005379667472464393 0.016557452166040428
1760000000.0 -0.028766403325844903 0.014090537583708006
1780000000.0 0.029504598954482965 0.05206559288504778
1800000000.0 -0.002079381768641381 -0.09430938953864483
1820000000.0 -0.1263364278746399 0.008381842885323058
1840000000.0 0.1641499609766515 0.006806905861535957
1860000000.0 -0.1577948641341497 0.1271790915609809
1880000000.0 0.18306898605015073 -0.15460271754555244
1900000000.0 -0.2542935088620935 0.12144449428101776
1920000000.0 0.21510820572252035 -0.2334098434831212
1940000000.0 -0.3477748030119259 0.042296212304655925
1960000000.0 0.35574574262558956 0.13140467615841606
1980000000.0 -0.03426722951496029 -0.39673022016279713
2000000000.0 -0.4057781182228887 -0.09016190780793769
2020000000.0 -0.15538645325268202 0.39720075208762445
2040000000.0 0.182228141668086 0.39350006780198643
2060000000.0 0.43207721688623757 0.05951406076957242
2080000000.0 0.38430966173593506 -0.20090097826989148
2100000000.0 0.13681293048118104 -0.40524161084611393
2120000000.0 0.021373242579928276 -0.4192916817280821
2140000000.0 -0.30431702398897303 -0.27111962801418504
2160000000.0 0.1731529657980708 -0.35451928155309037
2180000000.0 -0.06507581118817897 -0.3744129955173563
2200000000.0 -0.24214636165225759 -0.27567553369124587
2220000000.0 -0.3478508453966338 -0.08172577640862312
2240000000.0 -0.2480389336550084 0.24788687891384262
2260000000.0 -0.09489688520874234 0.33834162514585914
2280000000.0 0.18519346901171044 0.30161393463318714
2300000000.0 0.36679097286106926 -0.026706497083306677
2320000000.0 -0.017123686160724644 -0.39075635778271517
2340000000.0 -0.4049416265186133 0.12222594585103524
2360000000.0 0.4301094538427914 0.16715247917578174
2380000000.0 -0.3891706019000001 -0.32900224748194
2400000000.0 0.49680947395658953 0.260881062587324
2420000000.0 -0.6051575205008105 0.09753892948835427
2440000000.0 0.3818434843065773 -0.5387001494843169
2460000000.0 0.09232783141764085 0.6930008896762329
2480000000.0 -0.47458898559807644 -0.5531332847190035
2500000000.0 0.4871196916763026 0.568219455914689
2520000000.0 -0.4357432573802849 -0.6213841924179195
2540000000.0 0.11319742254870309 0.7517938304676414
2560000000.0 0.42164290905319807 -0.625424094714267
2580000000.0 -0.7400106542056165 -0.006864890976825901
2600000000.0 0.43187659337640105 0.5715139154269363
2620000000.0 0.1739862181461653 -0.6639421218298706
2640000000.0 -0.15600659540107592 -0.6310241569221062
2660000000.0 -0.39266974957805967 0.46022316820497006
2680000000.0 0.5581409091078366 0.03444464463801322
2700000000.0 -0.3332031438561726 -0.3900933458877584
2720000000.0 0.0630424377158137 0.4620668230759116
2740000000.0 0.25252475813712416 -0.3379872817802872
2760000000.0 -0.364090572342741 0.12083961601912563
2780000000.0 0.32104094734543076 -0.1441337054916809
2800000000.0 -0.2946233047746884 0.14068677793675935
2820000000.0 0.1263727588573066 -0.28238577992499614
2840000000.0 0.151537721990378 0.25753021224633826
2860000000.0 -0.2891565717291752 -0.05287949947757598
2880000000.0 0.18518639164682005 -0.22637893936181305
2900000000.0 -0.08889041522591629 0.27848670063541114
2920000000.0 0.26186159612563054 -0.13766646110157657
2940000000.0 -0.25229310060671695 -0.16339649721929153
2960000000.0 -0.2728073304724536 0.1317434456303324
2980000000.0 -0.22411939273739143 0.20922603736254014
3000000000.0 -0.3084028590042965 0.006895319659406199
3020000000.0 -0.16015883674803774 -0.26445960780847866
3040000000.0 0.28722679543682605 -0.10679742293023074
3060000000.0 -0.1892383447798546 0.23959373395198078
3080000000.0 0.11588510006384886 -0.2777638738850253
3100000000.0 0.05261845422187551 0.29114047572528406
3120000000.0 -0.052013913664873714 -0.28308787232481547
3140000000.0 0.23344563580923958 0.15371041493868187
3160000000.0 -0.26360137015404894 0.024737902816447836
3180000000.0 0.18819927672879855 0.1624601304121812
3200000000.0 -0.1572017453313268 0.16299197291479967
3220000000.0 -0.15141715562435276 -0.1310854441135744
3240000000.0 0.09807972635532619 -0.13954769618938062
3260000000.0 0.03074540044541182 0.13387003920660545
3280000000.0 -0.05937044279302806 -0.08672151025211149
3300000000.0 0.027913872493940537 0.07063730593238329
3320000000.0 0.030520921687417747 -0.03908918181446459
3340000000.0 -0.023950157659875956 0.009324499256161693
3360000000.0 0.0022972803756492895 0.007840661497269176
3380000000.0 -0.0009452659681273115 -0.010090198231395212
3400000000.0 0.006663915343237248 0.021219442665100185
3420000000.0 -0.012593235046455677 0.03253681591728405
3440000000.0 0.044849680800076855 0.007824576282764976
3460000000.0 0.05044579250541273 0.016760409615897406
3480000000.0 -0.006913997744819156 0.06404930287169935
3500000000.0 0.014458702906140231 0.07709861265572204
3520000000.0 0.06530552187134658 -0.06816795443880247
3540000000.0 0.004887394237815673 0.1098791660584297
3560000000.0 -0.07797471696585777 -0.09475866943353224
3580000000.0 0.1176910109133025 0.06867311711820928
3600000000.0 -0.08096618865709183 0.13149689933678074
3620000000.0 -0.13531972768316783 0.09629458062327823
3640000000.0 -0.17745440249608693 0.0012423430905792263
3660000000.0 -0.16002114896042227 -0.09525383344435692
3680000000.0 -0.10944073248971901 -0.15635649317509615
3700000000.0 -0.027387430168707195 -0.18834272783867267
3720000000.0 0.17320000522571682 -0.07717259447582325
3740000000.0 0.18395199361354567 0.0018449247415592087
3760000000.0 -0.16748964812061842 -0.057740593512814256
3780000000.0 0.14811406449435738 0.0800096263312025
3800000000.0 0.11010182854284994 -0.11255315054798395
3820000000.0 0.05969893647638177 -0.138979504184827
3840000000.0 0.12925087476608643 0.06855999975566555
3860000000.0 -0.03665279449881807 0.1434955996617426
3880000000.0 -0.006134183037769175 0.15515876998837558
3900000000.0 0.14819934187936332 -0.05718738660632691
3920000000.0 -0.11310160942779302 -0.11662621305527358
3940000000.0 0.16646582685566516 -0.020203495384267408
3960000000.0 0.10096291417154754 0.1391476810563024
3980000000.0 0.1683715991231688 -0.03393631883173252
4000000000.0 0.16175821455451037 -0.030577294447466347
