! Created with skrf (http://scikit-rf.org).
# Hz S RI R 50.0 
!freq ReS11 ImS11
400000000.0 -0.797227903042663 0.32321575816653203
420000000.0 -0.01694995871122627 0.860028229981747
440000000.0 0.8155085833450365 0.15836854113073234
460000000.0 0.7182297163401763 -0.30340063281865576
480000000.0 -0.055104700506610385 0.7088223869395728
500000000.0 0.3669173256017916 0.4572844844285641
520000000.0 0.3185565006597743 -0.41258729000333716
540000000.0 0.42136185941779436 -0.1431057612831099
560000000.0 -0.27105876043711713 0.29620459625824913
580000000.0 -0.1328747382055135 -0.3277173797029417
600000000.0 -0.26772477761338037 -0.25312359619444114
620000000.0 -0.11867754136311962 -0.35737679032018854
640000000.0 -0.03272852847310521 -0.38559266160139627
660000000.0 -0.39621758378615335 -0.10731208082998711
680000000.0 0.02439130251420928 -0.41571104914799023
700000000.0 -0.4222020948042651 -0.04457352868378699
720000000.0 -0.4108077939222089 0.04170376311514258
740000000.0 0.3499932469815073 0.2213316299971482
760000000.0 -0.39244252380693684 0.024052589772527597
780000000.0 -0.012264645128895482 0.3577455079407459
800000000.0 0.2102270779859568 -0.23942773946074555
820000000.0 -0.011704203335459398 -0.2736425504361544
840000000.0 -0.20666444629054545 -0.133185783759632
860000000.0 -0.1992877120913939 -0.0414083758999698
880000000.0 0.1557802645495657 -0.04274097275886335
900000000.0 0.06831749663516147 -0.08070906436591294
920000000.0 0.030969952685841257 -0.06836383570079305
940000000.0 -0.021322517021142164 -0.04751598275138016
960000000.0 0.04914690380070574 0.015203608484716837
980000000.0 0.05163847353751674 0.04497128281987802
1000000000.0 -0.07155519394388384 -0.04973762577779333
1020000000.0 0.05038551831776637 -0.0891505276952238
1040000000.0 0.12386606886152189 -0.0055210010531087095
1060000000.0 0.15236175435783392 -0.014435911517915866
1080000000.0 0.045055574522653706 0.17133022296033482
1100000000.0 -0.1944404139736897 0.015034848281628843
1120000000.0 -0.06660274164484362 0.2089617095092202
1140000000.0 -0.17151672531355014 -0.18524852870933106
1160000000.0 0.011694289814768435 -0.28051022644950974
1180000000.0 -0.06285043646234063 -0.3107646864559005
1200000000.0 0.3387976417985354 0.020762626654839692
1220000000.0 -0.30939379847892073 0.19995999412418708
1240000000.0 0.33023179420664817 0.19737145662916084
1260000000.0 -0.0011560835688801125 -0.4131258625281818
1280000000.0 -0.3290882963448403 0.268085691524698
1300000000.0 0.26699081462769836 0.3494963263802959
1320000000.0 0.3722703178243287 -0.22799136578212925
1340000000.0 0.43749734426805775 0.02932158303247749
1360000000.0 0.36834340877775623 -0.23541096282969617
1380000000.0 0.2646884242957726 -0.34979065508998514
1400000000.0 -0.4259174009934618 -0.018232096511391443
1420000000.0 -0.024983296843231015 0.40801751237580874
1440000000.0 0.35552219645296934 -0.14552858496344498
1460000000.0 0.0332938741839668 -0.35039846936669006
1480000000.0 -0.3163627425371108 0.05759670475771414
1500000000.0 -0.10474229934180991 0.2688976143663139
1520000000.0 0.11685056088684403 0.22911605021223838
1540000000.0 -0.1714840386127123 -0.14909634985010942
1560000000.0 0.1926630693103043 -0.02614472863830225
1580000000.0 -0.002906765815769095 0.16395391344209273
1600000000.0 0.0864569831436565 0.10358880522170368
1620000000.0 0.07955430240727684 0.0652040706280857
1640000000.0 -0.019994718397004643 -0.0765311503870572
1660000000.0 0.02294926326340635 -0.04903001766812541
1680000000.0 0.008690299547286642 0.032284126108733734
1700000000.0 -0.002141237567689743 -0.01865135483146978
1720000000.0 -0.0020413958650870607 0.0044831244068405055
1740000000.0 0.0161687439836112 0.007306090634427072
1760000000.0 -0.025096907831016677 0.01979180579178147
1780000000.0 0.04171344506445062 0.04306668682160933
1800000000.0 -0.015499561023922009 -0.09275689536528697
1820000000.0 -0.12533140028826076 0.019872123318714286
1840000000.0 0.16415580792596535 -0.0035182415967769964
1860000000.0 -0.15784496214076724 0.1271078332336719
1880000000.0 0.19184575947599722 -0.14428817570892769
1900000000.0 -0.25892332360798115 0.11096782019848082
1920000000.0 0.22291224965952441 -0.2263014190482339
1940000000.0 -0.35002391253948384 0.01593151531824852
1960000000.0 0.34900764299080866 0.14854017550520363
1980000000.0 -0.022725552739100444 -0.39761028632278156
2000000000.0 -0.4006103797006383 -0.11127021910798153
2020000000.0 -0.15624739616501224 0.3967452149891675
2040000000.0 0.20285613773935143 0.3826506150284477
2060000000.0 0.4304380128395071 0.06974362243920648
2080000000.0 0.3891025425925025 -0.19121321918375603
2100000000.0 0.13798850120852027 -0.40467731849347455
2120000000.0 0.0007111635093816406 -0.4198184246841818
2140000000.0 -0.301689632550495 -0.2745541479101707
2160000000.0 0.15242519438745566 -0.3641627044068737
2180000000.0 -0.045303161992636495 -0.37748260122882327
2200000000.0 -0.2345207085306059 -0.28249470247865754
2220000000.0 -0.3521526052324222 -0.061076247721618196
2240000000.0 -0.2626510742408154 0.23279010175978349
2260000000.0 -0.10880890633162572 0.3343102671818139
2280000000.0 0.18218837628134452 0.3040850366847837
2300000000.0 0.36769682327713 -0.0026264942768192932
2320000000.0 0.020284217833149765 -0.3903642856741146
2340000000.0 -0.41700920980405104 0.06675659495597637
2360000000.0 0.4181603009014751 0.19385104289935987
2380000000.0 -0.37414284153396865 -0.3453439851331163
2400000000.0 0.4760127702694611 0.2963229036832906
2420000000.0 -0.6105185064304187 0.05329112120396168
2440000000.0 0.37712800101692395 -0.5416118551173582
2460000000.0 0.07056159147068226 0.6954384722055671
2480000000.0 -0.4524047390583026 -0.5718648158368941
2500000000.0 0.5328504073061958 0.5255189684049999
2520000000.0 -0.4092198580303137 -0.6395835257253472
2540000000.0 0.08787301972140014 0.7555400330218786
2560000000.0 0.43094395562246335 -0.6196911357717433
2580000000.0 -0.7331061562087127 -0.10585875575008828
2600000000.0 0.4103329889123865 0.5879362171257295
2620000000.0 0.26670137054373744 -0.6328975529013686
2640000000.0 -0.1070802305359835 -0.6415003727394969
2660000000.0 -0.42040393632469886 0.4350670301452477
2680000000.0 0.5566943018832731 0.053868934471553685
2700000000.0 -0.28597320077934324 -0.4257488006748319
2720000000.0 0.01188326040501142 0.4658198896057088
2740000000.0 0.25092052449610025 -0.3391799585633356
2760000000.0 -0.3608241617966723 0.12977751230825332
2780000000.0 0.31706367580647354 -0.15285402260949396
2800000000.0 -0.29117186791019817 0.14834704301606333
2820000000.0 0.11344264844886341 -0.2880192588354123
2840000000.0 0.15875912733814132 0.2532898390073585
2860000000.0 -0.2920766862214828 -0.03275526519647557
2880000000.0 0.19033498304964566 -0.22300787436122696
2900000000.0 -0.07067053222833612 0.28407257607747555
2920000000.0 0.2663275698882095 -0.12961255366660196
2940000000.0 -0.24618169934529976 -0.1729186467850907
2960000000.0 -0.28481549279236246 0.10388247798612531
2980000000.0 -0.2387326042854315 0.1942248022477081
3000000000.0 -0.3084672925197137 -0.005190313213505789
3020000000.0 -0.16637775344625572 -0.2603608665245538
3040000000.0 0.2990522774563472 -0.0668046506229671
3060000000.0 -0.19496658044295587 0.2343294420013282
3080000000.0 0.12519427025633992 -0.2735057814169477
3100000000.0 0.00017664135703562617 0.2957701127038055
3120000000.0 -0.05925681001344419 -0.2816513592819667
3140000000.0 0.23139136578262065 0.15628823346202492
3160000000.0 -0.2643485037323927 -0.009985831908367488
3180000000.0 0.19204228603763193 0.1586544170144997
3200000000.0 -0.13987812957108184 0.17809686200794445
3220000000.0 -0.153607792783009 -0.12871518250303746
3240000000.0 0.10405137831307916 -0.13575496514122118
3260000000.0 0.028634815431207192 0.1347459122631872
3280000000.0 -0.02584918953519644 -0.10202379369214103
3300000000.0 0.017586213108505444 0.07428882362439107
3320000000.0 0.04249002236921618 -0.026162232723927682
3340000000.0 -0.024999097455538737 0.00731427953562885
3360000000.0 -0.006831621941979657 0.005425838484437591
3380000000.0 -0.0032894519117081977 -0.009270830271159382
3400000000.0 0.02191541751922771 -0.0013964591283102212
3420000000.0 -0.005479815448633394 0.034077223451498134
3440000000.0 0.04039747671001545 -0.021531916393547984
3460000000.0 0.05283336113276012 -0.0004408497041904199
3480000000.0 -0.012231037248393061 0.06293484608329436
3500000000.0 0.04579756293956254 0.0637128620377063
3520000000.0 0.07010466932213046 -0.06272966852372519
3540000000.0 -0.012083297337813199 0.10882184975006647
3560000000.0 -0.09071410010560975 -0.08311722382114523
3580000000.0 0.11229690718809895 0.07671748310446361
3600000000.0 -0.09237258174463794 0.12354012528718385
3620000000.0 -0.14813251017739018 0.07379156404917292
3640000000.0 -0.1761365458159623 -0.020684930745123353
3660000000.0 -0.15711573001549345 -0.09946149573671514
3680000000.0 -0.10869058864712217 -0.15728342449676222
3700000000.0 -0.017400050789294453 -0.1894898035219332
3720000000.0 0.18191871311805846 -0.05359498268944864
3740000000.0 0.1838549529416609 0.0033911077421775403
3760000000.0 -0.16514091290878494 -0.06511102597060249
3780000000.0 0.14609809048770186 0.08210083576833516
3800000000.0 0.10183197847467293 -0.1197425192851
3820000000.0 0.06765303094218186 -0.13504747551872134
3840000000.0 0.11849815931738297 0.0853609580071854
3860000000.0 -0.050285772390296524 0.13920013323287506
3880000000.0 -0.008367482068907955 0.1547459212922548
3900000000.0 0.1469415504020674 -0.05950563938985205
3920000000.0 -0.12436218093049045 -0.10442891067773002
3940000000.0 0.16207399934006522 -0.04198247114858627
3960000000.0 0.11902829822062101 0.12351187127420453
3980000000.0 0.15942480239539095 -0.06328947216222233
4000000000.0 0.14616106836601347 -0.07563164280502348
