! Created with skrf (http://scikit-rf.org).
# Hz S RI R 50.0 
!freq ReS11 ImS11
400000000.0 -0.8056646253638299 0.30191664897268977
420000000.0 -0.012563195714494355 0.8606472060478907
440000000.0 0.8213831475250886 0.12179694465094344
460000000.0 0.7290329589162852 -0.2733343768540623
480000000.0 -0.0983366270047558 0.7053860532434637
500000000.0 0.43109910726444867 0.39750226840983904
520000000.0 0.3066973469164284 -0.41959656400114337
540000000.0 0.44600767076314596 -0.028108778806928483
560000000.0 -0.2675483306112413 -0.29977499409612735
580000000.0 -0.16912389427974583 -0.3103804814269179
600000000.0 -0.23362948006712256 -0.2849780428636211
620000000.0 -0.15965072493965599 -0.3409526223606457
640000000.0 -0.005422500685117361 -0.38690221812069614
660000000.0 -0.39474902058570793 -0.1154633284428729
680000000.0 0.011961246294925745 -0.4152131876047609
700000000.0 -0.42173602427363477 -0.0495510609222507
720000000.0 -0.41235294582093235 0.022757862328785197
740000000.0 0.36875063294450106 0.19000101580045925
760000000.0 -0.3933906703233036 -0.004899688382732187
780000000.0 0.02286802669873384 0.3573405930317293
800000000.0 0.2221468581438473 -0.22935354142989914
820000000.0 -0.010312474440441347 -0.2737956816727109
840000000.0 -0.22733350921395035 -0.09411588545022957
860000000.0 -0.19895659395480983 -0.041877576806908096
880000000.0 0.1517579292292058 -0.057339829247291384
900000000.0 0.08225750635127689 -0.0672861824638626
920000000.0 0.04459394690377905 -0.06004834241316992
940000000.0 -0.01814006423514852 -0.04894972892642915
960000000.0 0.04273036558199951 -0.02899804731873844
980000000.0 0.05409786226539808 0.04265574884252675
1000000000.0 -0.06529405093944246 -0.056907748946296716
1020000000.0 0.07574371080420049 -0.0699854939989907
1040000000.0 0.12418640792565677 -0.005937384371486538
1060000000.0 0.15142335961599937 -0.017305048278550558
1080000000.0 0.0022510514610866394 0.1766544003692367
1100000000.0 -0.19433288703485352 0.0190494142328859
1120000000.0 -0.04951211125968038 0.21362329849095849
1140000000.0 -0.17085625461933798 -0.18507914743146386
1160000000.0 0.015625643367905256 -0.2804391274680595
1180000000.0 -0.09354397841919401 -0.3033015934343024
1200000000.0 0.33883756414825167 0.014162962160055935
1220000000.0 -0.2992575524481406 0.21452140259200064
1240000000.0 0.32041219269853477 0.21343469742892265
1260000000.0 -0.017508306929695773 -0.4127648907490548
1280000000.0 -0.3278461805664723 0.2694196468809616
1300000000.0 0.24182632442351035 0.36705495739733895
1320000000.0 0.3752427740261669 -0.22325111466231157
1340000000.0 0.4380546247719852 0.022837325511684103
1360000000.0 0.3769725716992407 -0.2213980377709193
1380000000.0 0.2705898680413988 -0.3455601580350562
1400000000.0 -0.42564433907096705 -0.028449519829614325
1420000000.0 -0.03097740481432244 0.40760124354004124
1440000000.0 0.3518096111348004 -0.15398255853367904
1460000000.0 0.043242636464905865 -0.3496183577128534
1480000000.0 -0.3081957542425955 0.09012746328390506
1500000000.0 -0.09089619655259962 0.2736662171259578
1520000000.0 0.10245635675815182 0.23633457586320597
1540000000.0 -0.16964139279332355 -0.15172502014882708
1560000000.0 0.18332764147394306 -0.06480749479867241
1580000000.0 -0.014563899723683797 0.16331792997783787
1600000000.0 0.10123981161398204 0.08929555176593285
1620000000.0 0.05864701697722227 0.08455906939945947
1640000000.0 -0.026683245126302373 -0.0743712759612474
1660000000.0 0.03088579896458841 -0.04413122406819175
1680000000.0 -0.017846645181468758 0.028681498122499455
1700000000.0 -0.015581760265317247 0.01079337953260894
1720000000.0 0.003265631995354522 -0.0032926851221310163
1740000000.0 -0.0025855339283524237 0.017393517969740657
1760000000.0 -0.031817461449121426 0.0003484825463729535
1780000000.0 0.030381110040542964 0.05148736533071419
1800000000.0 -0.004365899497231879 -0.09384939175605161
1820000000.0 -0.12509877599655242 0.0201386075430052
1840000000.0 0.1641358798214945 0.0023068073951711876
1860000000.0 -0.15388753087252485 0.13169570469418773
1880000000.0 0.18065181930182375 -0.15801887876982387
1900000000.0 -0.25543535251252936 0.11938532860456201
1920000000.0 0.22425956966339156 -0.22454535052443433
1940000000.0 -0.3488958553806541 0.035304973529989465
1960000000.0 0.35199054526444 0.14060841236830696
1980000000.0 -0.029369542380793555 -0.39715859390439906
2000000000.0 -0.404844968033923 -0.09423025131901551
2020000000.0 -0.1646066044118349 0.39353986320246936
2040000000.0 0.19057843385451997 0.3892449949762057
2060000000.0 0.42630386508290896 0.09322584562534467
2080000000.0 0.3871873741130544 -0.19544069812820786
2100000000.0 0.1605200077999795 -0.39617006968826274
2120000000.0 -0.0026172550728588385 -0.4195903565445091
2140000000.0 -0.28432224973836323 -0.2921006537396763
2160000000.0 0.17792248413060371 -0.35228231540342764
2180000000.0 -0.04465041792912024 -0.37749458277577264
2200000000.0 -0.23339197979141663 -0.2834151001008722
2220000000.0 -0.35305341416640174 -0.05526476773441028
2240000000.0 -0.25692837384348133 0.23875550829822292
2260000000.0 -0.08976147287640329 0.3397179062011748
2280000000.0 0.1729679775019099 0.30868603052806753
2300000000.0 0.3673894729787743 -0.013697874405988714
2320000000.0 -0.008155091259915018 -0.3907757568509892
2340000000.0 -0.4127657905598996 0.08974781286590085
2360000000.0 0.4228513254820953 0.18422892747324415
2380000000.0 -0.37178717389979765 -0.34810107225514625
2400000000.0 0.4894581963757358 0.27378621266421366
2420000000.0 -0.6106311753482996 0.0529723580000608
2440000000.0 0.3885852421011124 -0.5334831514995745
2460000000.0 0.07336572580874962 0.6949908546271643
2480000000.0 -0.4281766311269143 -0.59012109068873
2500000000.0 0.5100129715937889 0.5474195285058472
2520000000.0 -0.4201207488044427 -0.6320689853896588
2540000000.0 0.06998925436808111 0.7571784405114448
2560000000.0 0.4395821466623496 -0.6129531594174075
2580000000.0 -0.7356943131113705 -0.08231343269429027
2600000000.0 0.4001740531127733 0.5941482206997043
2620000000.0 0.24198294422948544 -0.6422739110690818
2640000000.0 -0.13565132291860704 -0.6357844781029842
2660000000.0 -0.40760021613526953 0.4469874529772594
2680000000.0 0.5560325704480196 0.059913804415634375
2700000000.0 -0.31952493623309564 -0.40140806837535997
2720000000.0 0.05135565701820768 0.4635871383019653
2740000000.0 0.26233609883428705 -0.3304326175906968
2760000000.0 -0.36457337315759547 0.11954201931216255
2780000000.0 0.3209952018720706 -0.14428030446423876
2800000000.0 -0.2942516970979936 0.14204603025113574
2820000000.0 0.10954592326241273 -0.28946797867635027
2840000000.0 0.13139581116406654 0.2690314574200273
2860000000.0 -0.289374810285161 -0.05196136815303573
2880000000.0 0.18898086203476222 -0.22384780733236032
2900000000.0 -0.09998562605703902 0.2748893539151972
2920000000.0 0.260397898089879 -0.14059116739551472
2940000000.0 -0.2403155202805333 -0.1805616085229361
2960000000.0 -0.26955533763885503 0.13806746959476984
2980000000.0 -0.25781001650983376 0.16727705789955452
3000000000.0 -0.3073614901202567 -0.01977556213232694
3020000000.0 -0.16346817280724937 -0.26264628766880604
3040000000.0 0.30382377378307696 -0.038852034100297764
3060000000.0 -0.18297613047784558 0.2440806488584314
3080000000.0 0.12531308772540642 -0.2737157692655731
3100000000.0 0.047709263594283215 0.2922216121422342
3120000000.0 -0.07048945973386844 -0.2789385186108949
3140000000.0 0.22411546473510702 0.16668533937478824
3160000000.0 -0.26436431168265495 0.01559026221115068
3180000000.0 0.19748371579245783 0.15167842060499515
3200000000.0 -0.15057599456473775 0.1689376792027714
3220000000.0 -0.1620430924850935 -0.1187074632531066
3240000000.0 0.09328808354415359 -0.14268826745872476
3260000000.0 0.030972501083817865 0.13380382860317175
3280000000.0 -0.0284951090366941 -0.10157496790501984
3300000000.0 0.021047882954805728 0.07327869587585395
3320000000.0 0.021694311983574674 -0.044843998381192914
3340000000.0 -0.022213255997497672 -0.013042952446691377
3360000000.0 -0.007571026039426772 -0.0007336090856469614
3380000000.0 0.003702130090475406 0.008851915879577786
3400000000.0 0.02106154491500785 0.007206589106720372
3420000000.0 0.003401720083359994 0.034832780488833114
3440000000.0 0.044500082637721726 -0.009352618104848139
3460000000.0 0.049846957514172625 -0.01867930540046388
3480000000.0 0.009813067306050435 0.06354368224425563
3500000000.0 0.028102307525542186 0.07325102694735276
3520000000.0 0.0644234132808735 -0.06878057803594494
3540000000.0 0.013325054500817137 0.10925935169251628
3560000000.0 -0.08427640229806045 -0.0890160068889208
3580000000.0 0.11297088404255 0.07545322771318515
3600000000.0 -0.04936815715822718 0.1468770011678047
3620000000.0 -0.14063710039085786 0.08798007409030384
3640000000.0 -0.1771169780428503 -0.0009318073422214541
3660000000.0 -0.15683753047057974 -0.09994544180199465
3680000000.0 -0.10975714009280096 -0.15636764968595
3700000000.0 -0.032928738573400416 -0.1874253894444429
3720000000.0 0.16811656124661462 -0.08644939502742109
3740000000.0 0.1830530171877136 -0.014886348529685688
3760000000.0 -0.16969256816517186 -0.05139867800497756
3780000000.0 0.15918736847937187 0.05212224082906315
3800000000.0 0.09479567699966797 -0.12578227382441087
3820000000.0 0.05627222583514067 -0.1401389336036198
3840000000.0 0.11834750874597745 0.08652529416705514
3860000000.0 -0.049349491425684566 0.1395686057436092
3880000000.0 -0.026179287579271866 0.1529168981660699
3900000000.0 0.14905822921141468 -0.05570735773258349
3920000000.0 -0.11470336793194381 -0.11553019275532764
3940000000.0 0.16548505038574174 -0.02468614693185847
3960000000.0 0.09857513564307104 0.1407255474867333
3980000000.0 0.16625464637247725 -0.044533286805622886
4000000000.0 0.15448611218090075 -0.05692944730309564
