! Created with skrf (http://scikit-rf.org).
# Hz S RI R 50.0 
!freq ReS11 ImS11
400000000.0 -0.8081446573372173 0.2975843727034567
420000000.0 0.006250411781616561 0.8609762214952463
440000000.0 0.8226601831016265 0.10956903772858095
460000000.0 0.7321971836385169 -0.2646303757021025
480000000.0 -0.08999233826266533 0.7068146142507045
500000000.0 0.44206507571523085 0.38595507467063467
520000000.0 0.34119824599127974 -0.39035545270758215
540000000.0 0.44743988432533666 -0.019597550945047195
560000000.0 -0.3318008675827904 -0.22736734729703612
580000000.0 -0.14786837433721747 -0.3201088010401344
600000000.0 -0.22327403860552208 -0.2919242622574805
620000000.0 -0.0915621859931428 -0.3658999274156821
640000000.0 -0.03045231443525979 -0.3872956770275428
660000000.0 -0.4076584988416129 -0.04445565269294554
680000000.0 0.057010608072373375 -0.41131350897490343
700000000.0 -0.41877862772968066 -0.07534731212195264
720000000.0 -0.40580356449991617 0.07944181350076836
740000000.0 0.35351507473294286 0.21522665825538081
760000000.0 -0.3917189913357551 -0.039677442825875084
780000000.0 0.02457403519732853 0.3570308668827278
800000000.0 0.21124414852275222 -0.23850817509422734
820000000.0 0.008128311547771761 -0.27401209996935055
840000000.0 -0.20919588397002836 -0.12950579905672133
860000000.0 -0.19623601477021246 -0.052621264126126936
880000000.0 0.15684489641434962 -0.03889049095480654
900000000.0 0.07389310714116132 -0.07577178930716068
920000000.0 0.00830465422940148 -0.074150085591119
940000000.0 -0.028424808877759857 -0.043474108065636285
960000000.0 0.05093252146044333 -0.009050612960886826
980000000.0 0.04932409393329423 0.048178391471628584
1000000000.0 -0.07664728422289534 -0.04012664906091365
1020000000.0 0.0734904873369936 -0.07175729384279542
1040000000.0 0.12410565201641852 -0.0028131474934801853
1060000000.0 0.1524507078021776 -0.0060241210504985675
1080000000.0 0.03829686126188075 0.17264266062015055
1100000000.0 -0.19202480074082212 0.03565208138373835
1120000000.0 -0.05217623952985556 0.21292124817652877
1140000000.0 -0.1853818620712552 -0.1709335627458872
1160000000.0 0.029454625461998372 -0.2793864631470114
1180000000.0 -0.09736177085027146 -0.3020717859332468
1200000000.0 0.3393023588146045 0.014438162898118308
1220000000.0 -0.30502192078908047 0.20701828810492207
1240000000.0 0.3235013996549123 0.2088760233482265
1260000000.0 -0.004761926671000295 -0.41299248738566013
1280000000.0 -0.32978693623610184 0.2673644147828528
1300000000.0 0.24471479337758423 0.3653767770183904
1320000000.0 0.3718838875845039 -0.2286325577509798
1340000000.0 0.4372340693588639 0.03520721779732222
1360000000.0 0.37575186148022005 -0.2236179059998302
1380000000.0 0.2659808602433821 -0.34896411634040364
1400000000.0 -0.4256553420125959 -0.024547549792774973
1420000000.0 -0.019026372892539223 0.4083942831382131
1440000000.0 0.34798308005309425 -0.16221993362530823
1460000000.0 0.02890274307841302 -0.35103088355564005
1480000000.0 -0.3041507058643189 0.10331075624998115
1500000000.0 -0.07630426366777952 0.2782684152074545
1520000000.0 0.1074142333506103 0.23426329576747776
1540000000.0 -0.17139967391197283 -0.14982510106259003
1560000000.0 0.18129926452544048 -0.07049668928618522
1580000000.0 -0.007626407629718714 0.1637877556538719
1600000000.0 0.09418813190815854 0.09669165159325278
1620000000.0 0.06554231482623231 0.07962905416708553
1640000000.0 -0.03240311337251609 -0.07226365483882664
1660000000.0 0.029796108255021825 -0.04472826132111813
1680000000.0 -0.0018892459344630325 0.033402068645276006
1700000000.0 -0.01346183232457019 -0.013210603667017743
1720000000.0 0.0031915911015995744 -0.003250490527306567
1740000000.0 -0.006034334832027442 0.016598855548091297
1760000000.0 -0.031674838481800624 0.0052546510290870495
1780000000.0 0.030919817054252754 0.05099028530192829
1800000000.0 0.00439853739896177 -0.09385183786060765
1820000000.0 -0.1250457950819977 0.019724543138604472
1840000000.0 0.16418964839145744 -0.004481671642924178
1860000000.0 -0.15293481045305926 0.13275930691291507
1880000000.0 0.17439382649271254 -0.1646872427973532
1900000000.0 -0.2566780004644817 0.11666745188717145
1920000000.0 0.21846585926080375 -0.23031504197273
1940000000.0 -0.3475917209140217 0.045778934518577286
1960000000.0 0.35407086243331143 0.13579431964210012
1980000000.0 -0.03171356617190988 -0.3971244280491233
2000000000.0 -0.405455354011457 -0.09240504797417035
2020000000.0 -0.1640865902888423 0.3938664864560939
2040000000.0 0.18812033628724198 0.3906554003798231
2060000000.0 0.4262423978073689 0.09340455630587477
2080000000.0 0.38003930240471173 -0.20925816866122227
2100000000.0 0.15088723313683083 -0.40035432650135
2120000000.0 -0.017175460919703813 -0.41922357311140673
2140000000.0 -0.30243751931879215 -0.2735685392295491
2160000000.0 0.17742423848973662 -0.3527843694120089
2180000000.0 -0.050884852956088474 -0.37682711417014847
2200000000.0 -0.230024307131027 -0.2861272988779262
2220000000.0 -0.34587786254870273 -0.09095169405573317
2240000000.0 -0.2462992803187713 0.24968790531846424
2260000000.0 -0.0891782280195903 0.33986268816817045
2280000000.0 0.17288367735286064 0.30882602016947586
2300000000.0 0.3672195267212761 -0.0172640343125218
2320000000.0 0.0005581886251694994 -0.3911051090960235
2340000000.0 -0.41035327941316796 0.10241609113349771
2360000000.0 0.426276722540367 0.17651826610593885
2380000000.0 -0.39024162356584435 -0.32776611236287123
2400000000.0 0.47109896426858405 0.3047104429549025
2420000000.0 -0.6097318682228966 0.060733283914636185
2440000000.0 0.3787740570079383 -0.5407504735703422
2460000000.0 0.09972948608339935 0.6919342107851394
2480000000.0 -0.4763437440624798 -0.5516759086452703
2500000000.0 0.4950778343059524 0.5612843272508024
2520000000.0 -0.4454343147939803 -0.6147600335941429
2540000000.0 0.07868349870561595 0.7563903648170973
2560000000.0 0.4386832550941077 -0.6141478144838558
2580000000.0 -0.7401251302041846 0.019072526676932093
2600000000.0 0.4162280473093591 0.5833338300406234
2620000000.0 0.18981898695290014 -0.6599992106111301
2640000000.0 -0.12844586405713895 -0.6374039217067698
2660000000.0 -0.41437881007027794 0.44106274689917435
2680000000.0 0.5552121185808658 0.0662381031434519
2700000000.0 -0.29735764754127786 -0.41804618112106495
2720000000.0 0.028970849574030698 0.4652431719138846
2740000000.0 0.2830428233615455 -0.3125130861820897
2760000000.0 -0.3705701014480841 0.09847422755081335
2780000000.0 0.32313486741322983 -0.1388385753764518
2800000000.0 -0.29302208251508155 0.14371269077877216
2820000000.0 0.12017706128498037 -0.28482090842949065
2840000000.0 0.15423581278237206 0.25571274589485704
2860000000.0 -0.2881773312657436 -0.059554448497853116
2880000000.0 0.17556481270676091 -0.23421408986695133
2900000000.0 -0.06869161733827915 0.28425726650758953
2920000000.0 0.25926219127659345 -0.14311493834279748
2940000000.0 -0.26078468929404314 -0.15041328350749922
2960000000.0 -0.2688197157447703 0.14039422046738767
2980000000.0 -0.2399028194977645 0.19111945238808142
3000000000.0 -0.30821914830365577 -0.020339761285273667
3020000000.0 -0.13847259785326035 -0.2771004886240015
3040000000.0 0.30592527313367784 -0.018226574447704275
3060000000.0 -0.21412674868208478 0.21724255334815096
3080000000.0 0.12788464830151447 -0.27280282378698917
3100000000.0 -0.037342982558554984 0.29328533161651416
3120000000.0 -0.060711496254915835 -0.2813201073555053
3140000000.0 0.21044521538666106 0.18366362227227853
3160000000.0 -0.2641107825176277 0.019691413291224733
3180000000.0 0.20044026002332438 0.14753626024358477
3200000000.0 -0.1543150631272065 0.1648639218321965
3220000000.0 -0.14881062173064472 -0.13349774675037784
3240000000.0 0.09833717530455303 -0.13909426955835236
3260000000.0 0.0414496098407014 0.13068386140147284
3280000000.0 -0.0652180122205732 -0.08200520600723425
3300000000.0 0.02293215508257467 0.07215622149112914
3320000000.0 0.021210395950041244 -0.044761217160327396
3340000000.0 -0.018806144926495995 0.017281858448336625
3360000000.0 0.006323363872982146 0.005200083983400641
3380000000.0 0.007253149541728293 -0.007260820903413845
3400000000.0 -0.006743814893158344 0.021497984829447477
3420000000.0 -0.030559053212136002 0.01679498291706394
3440000000.0 0.041530202760727816 0.01893935281329399
3460000000.0 0.04083004548013049 0.034050495578464714
3480000000.0 -0.004732402025083384 0.06448304670817837
3500000000.0 0.03395269525417579 0.07111843442036128
3520000000.0 0.08327797898433278 -0.044032137987841606
3540000000.0 -0.04110871039827856 0.10164457612412073
3560000000.0 -0.07426915945464356 -0.09768403723114319
3580000000.0 0.09676580655645015 0.0953135092509007
3600000000.0 -0.07920257792252758 0.1326469695907776
3620000000.0 -0.15323094947406993 0.06322727486244255
3640000000.0 -0.17608724392935607 -0.020900296125653656
3660000000.0 -0.15726559839155405 -0.09959459678617609
3680000000.0 -0.09980364223623038 -0.16291931447237248
3700000000.0 -0.019415776524938717 -0.189292106146436
3720000000.0 0.17897011202958568 -0.06260670156069213
3740000000.0 0.18348900862995296 0.011863897748194366
3760000000.0 -0.16032581324787176 -0.0759477684569495
3780000000.0 0.14848401536541303 0.0778715523365416
3800000000.0 0.11630293671426464 -0.10584761436896804
3820000000.0 0.07154040614241788 -0.1327888845615252
3840000000.0 0.1174192955428263 0.08709112130675868
3860000000.0 -0.05521595270503887 0.136860158239351
3880000000.0 -0.02354224498785982 0.15304208299938876
3900000000.0 0.15169050330017428 -0.04691394185894279
3920000000.0 -0.1164873564397745 -0.1132707489221307
3940000000.0 0.1614341917083463 -0.04318776559276678
3960000000.0 0.11964442013600968 0.12264382215216192
3980000000.0 0.16330507488951734 -0.05188906185464801
4000000000.0 0.15196562838034972 -0.0626736077574435
