! Created with skrf (http://scikit-rf.org).
# Hz S RI R 50.0 
!freq ReS11 ImS11
400000000.0 -0.8081321124817286 0.29141663964703884
420000000.0 -0.03971176147949585 0.8604376613211459
440000000.0 0.8216867205969726 0.11620360358153467
460000000.0 0.7197669812519016 -0.2953736833492181
480000000.0 -0.1262961787559034 0.7005391893933207
500000000.0 0.4493934914956336 0.3789141106324671
520000000.0 0.2842081270375421 -0.4348654856841785
540000000.0 0.4451198593848999 -0.008863449271662811
560000000.0 -0.25888428960800897 0.3089271240544044
580000000.0 -0.237970082633883 -0.2610008884249902
600000000.0 -0.26954393887596373 -0.2499537868000228
620000000.0 -0.007223137262007243 -0.37657058771038304
640000000.0 -0.08769000887460443 -0.37865063018962486
660000000.0 -0.3997717869124083 -0.09266495942663062
680000000.0 0.033674148916831036 -0.4136727758189939
700000000.0 -0.42049788775208624 -0.06446013560244515
720000000.0 -0.4108267238971517 0.039429930364304575
740000000.0 0.36304046699742637 0.19887430978578002
760000000.0 -0.39225481892032654 -0.035747070071499396
780000000.0 0.03142055906723174 0.3566363297946312
800000000.0 0.18837427240689916 -0.25705380092156144
820000000.0 0.013616808065004085 -0.2735253923717074
840000000.0 -0.21758537048415016 -0.1152775288201783
860000000.0 -0.1994003062926516 -0.03819758625198572
880000000.0 0.15614890435136916 -0.04216238928851837
900000000.0 0.0883271217418278 -0.05897776207193459
920000000.0 0.024652485940008163 -0.0707986477640672
940000000.0 -0.02881558439859435 -0.04293734961597225
960000000.0 0.05173710164985816 0.0004762343473570108
980000000.0 0.054062569401834515 0.04282972261281434
1000000000.0 -0.069119186487151 -0.0526859359591188
1020000000.0 0.0636694674657033 -0.08042663098658318
1040000000.0 0.12409431125556686 0.010035646558867758
1060000000.0 0.14822252790920648 -0.03590685331621311
1080000000.0 0.027182953740384035 0.1747958368962306
1100000000.0 -0.1941079610786061 0.018043607499837456
1120000000.0 -0.06542596778098891 0.2093532225177311
1140000000.0 -0.16763947287934908 -0.18812942582157244
1160000000.0 0.01064386185685803 -0.2806373733228977
1180000000.0 -0.07052757127761919 -0.30922086684664823
1200000000.0 0.3380468356314385 0.030918214667775046
1220000000.0 -0.305595924192822 0.20572609543075657
1240000000.0 0.3182751734261733 0.2164669549374304
1260000000.0 0.0022206881827924498 -0.4131224546282613
1280000000.0 -0.33330461730539657 0.2632515671687459
1300000000.0 0.25220817569518683 0.3601657184085612
1320000000.0 0.3759546391848844 -0.2219680972762734
1340000000.0 0.4372467452720313 0.03674392629379569
1360000000.0 0.3767846941390183 -0.22237712566630824
1380000000.0 0.2797367085160527 -0.33766179597074636
1400000000.0 -0.42551024095845863 -0.029333352347921646
1420000000.0 -0.048022334407610764 0.40615288573616865
1440000000.0 0.34969906748414786 -0.1588074153544247
1460000000.0 0.03496664448021219 -0.3500748163053571
1480000000.0 -0.3108849395305922 0.08042880524023194
1500000000.0 -0.1041674187029446 0.26916018543215864
1520000000.0 0.118363830945129 0.22871187904646223
1540000000.0 -0.16597426884410013 -0.1552093922208494
1560000000.0 0.19025062626613476 -0.041022456320064196
1580000000.0 -5.585686652418573e-06 0.16408566027212357
1600000000.0 0.09991956105524698 0.09071987554235715
1620000000.0 0.06657714540837004 0.07857162759094609
1640000000.0 -0.010810959577885955 -0.07834895083112506
1660000000.0 0.025067297379205475 -0.04782279197424976
1680000000.0 -0.02133574091890433 0.025590822904540206
1700000000.0 -0.018204585232981702 -0.005470698721530144
1720000000.0 0.004815532407063512 -0.0005904121801058618
1740000000.0 -0.0041118371430320655 0.01704815692976031
1760000000.0 -0.03141116213840529 0.005902742739889445
1780000000.0 0.033446542545410025 0.04958572358526079
1800000000.0 -0.006778504718409819 -0.0937022244706416
1820000000.0 -0.12637913805449003 0.005605259806313027
1840000000.0 0.16414057830852882 -0.002679095379391133
1860000000.0 -0.15539855769456815 0.13005589451255867
1880000000.0 0.1909546043649183 -0.14518599777092173
1900000000.0 -0.2592424356197259 0.11004866873033081
1920000000.0 0.2245659202695796 -0.224326331724379
1940000000.0 -0.3487772930813119 0.03305614003524792
1960000000.0 0.35131364028421525 0.14283296095523126
1980000000.0 -0.03510823243498949 -0.39660352886165046
2000000000.0 -0.4041591747946019 -0.09761283920905163
2020000000.0 -0.14169848146705982 0.40231136028430237
2040000000.0 0.1541523153074926 0.40540126123003806
2060000000.0 0.4318367795610689 0.06148314635905489
2080000000.0 0.38874416925672095 -0.19270253379616847
2100000000.0 0.1518045469922284 -0.3996844711868982
2120000000.0 0.04861002077116642 -0.41700481470655326
2140000000.0 -0.30154148243086815 -0.2744411746478832
2160000000.0 0.18289146387258415 -0.34983745660754767
2180000000.0 -0.04700499272371191 -0.3773636098588874
2200000000.0 -0.22594610749372007 -0.2895042431509966
2220000000.0 -0.3389477525527516 -0.11383997079655207
2240000000.0 -0.26766781796471534 0.22639177242163916
2260000000.0 -0.11262230694532302 0.3328207758859849
2280000000.0 0.1796558485365977 0.3047873227628973
2300000000.0 0.3672428385776965 -0.014928149995153508
2320000000.0 0.013819284699333207 -0.39045169419013254
2340000000.0 -0.41074857985543917 0.0992969831389932
2360000000.0 0.41863644028707997 0.19319227124359367
2380000000.0 -0.36147226381280434 -0.3586098070758692
2400000000.0 0.4833458762855646 0.2846311998867096
2420000000.0 -0.6094124093469888 0.06571809133350931
2440000000.0 0.37396838457880527 -0.5441804959787941
2460000000.0 0.07226191641753983 0.6954460168779941
2480000000.0 -0.4437732564894042 -0.5785162451046053
2500000000.0 0.48105210403933857 0.5733157944860656
2520000000.0 -0.3909468829883912 -0.6508939354488297
2540000000.0 0.061838920982036465 0.7579726352382377
2560000000.0 0.4485622679523122 -0.606896875845267
2580000000.0 -0.7353008996660774 -0.08714847588172363
2600000000.0 0.4028992143254187 0.5924092520555391
2620000000.0 0.19911505861680728 -0.6570292915186268
2640000000.0 -0.13850085166472187 -0.6353768116052316
2660000000.0 -0.4108643846502564 0.44411155897823
2680000000.0 0.5573568896136457 0.047934392013387866
2700000000.0 -0.307401358613946 -0.4108515702274446
2720000000.0 0.03901027812255968 0.46499906244470507
2740000000.0 0.25487655202737725 -0.33656063255478447
2760000000.0 -0.36542314758578387 0.1168891872334672
2780000000.0 0.3215683845191864 -0.14349529545723602
2800000000.0 -0.2942952318945937 0.14234034561789274
2820000000.0 0.11894043350535505 -0.2858725806553184
2840000000.0 0.13854743731482866 0.26510014001411125
2860000000.0 -0.28739725998152027 -0.0649320489370372
2880000000.0 0.1933276988828697 -0.2196590524409007
2900000000.0 -0.09050521539557373 0.2781792562598996
2920000000.0 0.27486970804770733 -0.10996598715951378
2940000000.0 -0.24708893097700965 -0.17145928430757598
2960000000.0 -0.2770014579306361 0.12309191028083073
2980000000.0 -0.2314297617075461 0.20176034516230418
3000000000.0 -0.3079600551679107 0.022133730308793877
3020000000.0 -0.14898571870893615 -0.27120904951748454
3040000000.0 0.30149505069715127 -0.056302596945294214
3060000000.0 -0.221978408836889 0.20943454984649607
3080000000.0 0.13952944050662236 -0.26689204790585486
3100000000.0 0.013175094718544951 0.29557112097219607
3120000000.0 -0.0392255210090293 -0.2851016864621523
3140000000.0 0.21798825975766992 0.17503117659305953
3160000000.0 -0.2643326234328812 0.018087478858592156
3180000000.0 0.190151034835545 0.1604870697709577
3200000000.0 -0.16455386057783924 0.15551430941882982
3220000000.0 -0.14662975187005511 -0.13662234832121806
3240000000.0 0.09839589647826465 -0.13926878884370625
3260000000.0 0.016008459114103372 0.13626969364750294
3280000000.0 -0.037273548474364995 -0.09834624565819142
3300000000.0 0.03259195411546446 0.06879283345149287
3320000000.0 0.04299794719790335 -0.024434333706519075
3340000000.0 -0.025157859057673343 0.0057492170479233615
3360000000.0 -0.004221234075321985 0.007240024228625235
3380000000.0 -0.0039160516615685 -0.00913466078598825
3400000000.0 0.015361719426002304 0.016236009951912326
3420000000.0 0.0041979852489232835 0.03464828661450671
3440000000.0 0.04158143575750695 0.017944639467830863
3460000000.0 0.04063601963924743 0.033651392787361026
3480000000.0 0.011648141388543034 0.063534994009458
3500000000.0 -0.0025313046744391064 0.07800666149283529
3520000000.0 0.08544035113581008 -0.03909094713340103
3540000000.0 -0.013507249385158415 0.10884241554353737
3560000000.0 -0.08965228471061493 -0.08385959506606497
3580000000.0 0.1097259218486882 0.08006282398145712
3600000000.0 -0.08031885431503177 0.13178591029364617
3620000000.0 -0.14307034099372695 0.08361908489772915
3640000000.0 -0.17637477706208984 -0.01686877211590908
3660000000.0 -0.15781644178880544 -0.09790952884422081
3680000000.0 -0.09807676819743066 -0.16352467635016255
3700000000.0 -0.029890374972591914 -0.187673901075034
3720000000.0 0.17371039797123866 -0.07519626566051911
3740000000.0 0.1837212744289608 -0.0016037074363332445
3760000000.0 -0.17152921939405588 -0.0446673126850031
3780000000.0 0.15989811074079435 0.049496803740100154
3800000000.0 0.09197510955390775 -0.12773379874597587
3820000000.0 0.0414324728330709 -0.1449606184158345
3840000000.0 0.12344326758497853 0.07850989334757696
3860000000.0 -0.02263885009613953 0.14588321581796582
3880000000.0 0.004970515390427474 0.15508511111253073
3900000000.0 0.15036869962937968 -0.051339075598213754
3920000000.0 -0.12833760951756848 -0.09984322314840728
3940000000.0 0.16038799420684655 -0.04835268481368166
3960000000.0 0.11055348800690405 0.13163078678384443
3980000000.0 0.16908751742374079 -0.033681375236029314
4000000000.0 0.16352920572698224 -0.022992241568023642
