! Created with skrf (http://scikit-rf.org).
# Hz S RI R 50.0 
!freq ReS11 ImS11
400000000.0 -0.8009402357207183 0.31097641801631737
420000000.0 -0.0009090913893852678 0.8605734108096311
440000000.0 0.8198773111976776 0.12925379969584908
460000000.0 0.732879027664046 -0.26446272188699793
480000000.0 -0.05996988646481847 0.7098632995157336
500000000.0 0.4224272786721136 0.40572326363637407
520000000.0 0.3781787275282694 -0.3563402128153279
540000000.0 0.43956014114945396 -0.08686488172420956
560000000.0 -0.32049650952427117 -0.24147324840039242
580000000.0 -0.09363320420030997 -0.3395636775632465
600000000.0 -0.20659947293728742 -0.3052484410488435
620000000.0 -0.14681428448833686 -0.3471991115658789
640000000.0 -0.03490659403681953 -0.38637801585433074
660000000.0 -0.40457103839783426 -0.06777897544395446
680000000.0 0.05479677090506108 -0.4118327652132785
700000000.0 -0.4189934139101965 -0.07528351266279187
720000000.0 -0.4027411427318119 0.09215953940699652
740000000.0 0.3499420158359252 0.22129634228886474
760000000.0 -0.3916243427776451 -0.038656404900497494
780000000.0 0.008095393228382758 0.3580298696846723
800000000.0 0.20004605899206396 -0.24804622921464428
820000000.0 0.012810734486428246 -0.2735783360862879
840000000.0 -0.20348551663118924 -0.13822589979163113
860000000.0 -0.19656566402966194 -0.05179254947705788
880000000.0 0.15784917377197466 -0.034956761835641774
900000000.0 0.06467462033524037 -0.08363155357438423
920000000.0 0.029520179668449775 -0.0687859174240329
940000000.0 -0.017955544796935598 -0.04877133162249877
960000000.0 0.051559372315330525 0.004222674784284034
980000000.0 0.05260636092549578 0.044349762968248045
1000000000.0 -0.07830680702328799 -0.036974161831273424
1020000000.0 0.07232857789681577 -0.0728737518582092
1040000000.0 0.12386697251936309 0.00999599487814236
1060000000.0 0.152240526491478 -0.011957870148184153
1080000000.0 0.039688264758705086 0.1723228835318733
1100000000.0 -0.1936430803440493 0.023512704569497
1120000000.0 -0.060346123944777466 0.2107750294924956
1140000000.0 -0.18148684130713694 -0.1753246279494857
1160000000.0 0.005807188981644474 -0.28096416661360585
1180000000.0 -0.07579654194131365 -0.30793944418969715
1200000000.0 0.336794878228143 0.04149089500326614
1220000000.0 -0.3180207812711658 0.18584845566091654
1240000000.0 0.3207529990688554 0.21274503233114123
1260000000.0 -0.011257337459787993 -0.4127895041677943
1280000000.0 -0.3297636444684264 0.2674202426037062
1300000000.0 0.24823515988344896 0.36284075945905675
1320000000.0 0.3697250364676541 -0.23206238537527177
1340000000.0 0.43761143465518665 0.029326017644463038
1360000000.0 0.3710328461510343 -0.23131757926795862
1380000000.0 0.26321171770682494 -0.351039574352701
1400000000.0 -0.4256716852249755 -0.02407990941984486
1420000000.0 -0.032338224279775 0.4076737432873919
1440000000.0 0.3526060541348966 -0.15266227347275155
1460000000.0 0.02607341627707199 -0.3510747750046075
1480000000.0 -0.31297223771687926 0.07266034597330169
1500000000.0 -0.10253679377479469 0.26976401176449327
1520000000.0 0.10207149802491691 0.23655907633396553
1540000000.0 -0.16895890346933762 -0.15223001722419685
1560000000.0 0.18959092801196956 -0.042987422336515514
1580000000.0 -0.013695569034415598 0.1637518061023161
1600000000.0 0.10280257978882411 0.08729560719662595
1620000000.0 0.05272742890868667 0.08821462022278535
1640000000.0 -0.0056091715237785245 -0.0787570513357702
1660000000.0 0.030104697947250413 -0.044771726487661256
1680000000.0 0.007577808288007492 0.032659949670359054
1700000000.0 -0.015377518446834573 -0.010811885679041016
1720000000.0 0.00019860456083762646 -0.004555257425396567
1740000000.0 0.0028110537085497466 0.01729595886882745
1760000000.0 -0.02861773679603216 0.01441248829872607
1780000000.0 0.031788475476977364 0.050599096553024824
1800000000.0 -0.012120907795153901 -0.09330978189887308
1820000000.0 -0.12456059662370789 0.021718348849776088
1840000000.0 0.1638962382094577 -0.01076268855464558
1860000000.0 -0.1534543297471639 0.1322665278169221
1880000000.0 0.18266148901831267 -0.15566977271841845
1900000000.0 -0.2575883439487326 0.11469623730913867
1920000000.0 0.22152824568010165 -0.2274848502612702
1940000000.0 -0.34931034677521905 0.028694800352443477
1960000000.0 0.34806849875974466 0.15068192461266103
1980000000.0 -0.016325883728984445 -0.3979909517610605
2000000000.0 -0.40403486089446183 -0.09802588673368845
2020000000.0 -0.1613178028526467 0.39472309389668936
2040000000.0 0.18495738785994087 0.3919030491127706
2060000000.0 0.4328008413517023 0.0527818901146667
2080000000.0 0.40050552802601497 -0.1666271874147769
2100000000.0 0.15267202496938748 -0.3992577938534653
2120000000.0 0.04091510950721528 -0.41783600145561955
2140000000.0 -0.2939083427375172 -0.28247748179322
2160000000.0 0.16650603121671512 -0.3578039632265096
2180000000.0 -0.0652228616945041 -0.37443586922686295
2200000000.0 -0.23603667863104116 -0.28114872073122965
2220000000.0 -0.34535194546496173 -0.09256159633397015
2240000000.0 -0.25377476957886985 0.24219508656375383
2260000000.0 -0.10996487896327302 0.3336967376686827
2280000000.0 0.1767067832863521 0.30682642334949395
2300000000.0 0.36736141288019936 -0.02081890960413266
2320000000.0 -0.00042932184202536537 -0.3910243019660654
2340000000.0 -0.416473101026505 0.07123742009626693
2360000000.0 0.4189662829282121 0.1925702901083484
2380000000.0 -0.3709540980919502 -0.34907250011528923
2400000000.0 0.48806021731572313 0.2764816359384573
2420000000.0 -0.6079256106342902 0.0758799403059662
2440000000.0 0.38152926742469606 -0.5385012737946085
2460000000.0 0.06978097017712631 0.6956233333191045
2480000000.0 -0.4715408273703756 -0.5556388818448984
2500000000.0 0.48340538580124853 0.5712610250894143
2520000000.0 -0.43221883565964925 -0.6240230405206812
2540000000.0 0.053873059263342495 0.7588203837202853
2560000000.0 0.42946087396710414 -0.6202921496306455
2580000000.0 -0.7386486593158202 -0.049325950441123444
2600000000.0 0.42404581347124276 0.57791300724191
2620000000.0 0.1899719170376455 -0.659905494569738
2640000000.0 -0.07578819463033833 -0.6457969676549079
2660000000.0 -0.42942701444312126 0.42610204809818036
2680000000.0 0.5544556983708655 0.07332574335043017
2700000000.0 -0.3063833776261284 -0.41147031172151427
2720000000.0 0.028458061927704843 0.4653719276681854
2740000000.0 0.2677629008834709 -0.32610615250851926
2760000000.0 -0.3662980642617475 0.11395960768784061
2780000000.0 0.3208141168536266 -0.14418485805145162
2800000000.0 -0.2935516712126236 0.14313049867548383
2820000000.0 0.11934271127357816 -0.28557122152187053
2840000000.0 0.1492692114310977 0.2590591510298578
2860000000.0 -0.2896219379920766 -0.05078466503489401
2880000000.0 0.1909502246101971 -0.22221901645914685
2900000000.0 -0.06848446246356236 0.28455288072478846
2920000000.0 0.26459009389303084 -0.13286125054968942
2940000000.0 -0.24890602478376597 -0.1687840715002945
2960000000.0 -0.27723588784059466 0.1224160035131796
2980000000.0 -0.2293047615825157 0.20386039728959848
3000000000.0 -0.3083287954565771 0.01165185085763949
3020000000.0 -0.18334382287260795 -0.24896463317407752
3040000000.0 0.2997486168042097 -0.06459849396891705
3060000000.0 -0.17757743226366382 0.24821049425239325
3080000000.0 0.12176770434200217 -0.27492811617344604
3100000000.0 -0.002036953084557124 0.29571600251268904
3120000000.0 -0.04509858363594878 -0.2842679002493275
3140000000.0 0.22524802058712542 0.1649407189659197
3160000000.0 -0.26410898747655354 0.013918731422606747
3180000000.0 0.1883259206888837 0.1623420337593243
3200000000.0 -0.14923852445817543 0.17018601037168088
3220000000.0 -0.16429528037501454 -0.11448109110964674
3240000000.0 0.09973775190397945 -0.1383277857283808
3260000000.0 0.03710619913055402 0.13244157152930272
3280000000.0 -0.06771946144203927 -0.08064769608849678
3300000000.0 0.040501902074533136 0.06458387966106982
3320000000.0 0.018554293502613096 -0.0461582453364098
3340000000.0 -0.025030778482296793 0.006679953197101331
3360000000.0 0.0033698146386179277 0.007820806294588064
3380000000.0 0.00995673084882054 0.0016384805178920653
3400000000.0 0.021296193878107994 0.007003588090650177
3420000000.0 -0.0121279339493153 0.03260961434854335
3440000000.0 0.0416867818457528 0.01832465969818623
3460000000.0 0.05217458919128984 0.01000155293998596
3480000000.0 -0.0015741208142392132 0.06433073786479933
3500000000.0 0.033253864771285516 0.07117735021390906
3520000000.0 0.07366480719118863 -0.058758234863566454
3540000000.0 0.008560364383714502 0.10963712111813947
3560000000.0 -0.08399498280385219 -0.08946715179547936
3580000000.0 0.10239591261591846 0.08919728315232643
3600000000.0 -0.06207933510361185 0.14184109606794387
3620000000.0 -0.1431009032690704 0.08374218183264592
3640000000.0 -0.17619291125245998 -0.018467367398957015
3660000000.0 -0.15709194803078583 -0.0996906633101687
3680000000.0 -0.10368343183459286 -0.16056703079592008
3700000000.0 -0.01598725658495759 -0.18970807555358749
3720000000.0 0.18180648239439004 -0.052755503995773174
3740000000.0 0.1832224627153578 0.013929744870175113
3760000000.0 -0.16466465228787366 -0.06477994109377008
3780000000.0 0.15075480030672958 0.07293220135428671
3800000000.0 0.10558277028691603 -0.11641968551083479
3820000000.0 0.06408155351587286 -0.13656075099550102
3840000000.0 0.11351960136855584 0.09227564563769622
3860000000.0 -0.03444744258339367 0.14371151225421444
3880000000.0 -0.00983220373758487 0.1545275824228526
3900000000.0 0.15279787884513857 -0.0431432511178815
3920000000.0 -0.11464080320639061 -0.11508678226130288
3940000000.0 0.16404773889396412 -0.033077413867429885
3960000000.0 0.10191266455576503 0.13782190744047149
3980000000.0 0.16682224848476362 -0.040366666272447796
4000000000.0 0.1581570686810081 -0.04488331898789459
