! Created with skrf (http://scikit-rf.org).
# Hz S RI R 50.0 
!freq ReS11 ImS11
400000000.0 -0.08082736993589633 0.866365651817198
420000000.0 0.38149431941462686 0.7728124455304411
440000000.0 0.816956762208726 -0.14742395762819077
460000000.0 0.2976837590320784 -0.73473657489839
480000000.0 0.6494770466071834 -0.3005741626705201
500000000.0 -0.05877292567937669 -0.569549523075888
520000000.0 -0.16261445803082197 -0.465288937022278
540000000.0 0.32427972822245 -0.28729206947156855
560000000.0 -0.3165893848735744 0.1681920176749085
580000000.0 0.021170425062471358 0.33863614492690625
600000000.0 0.2814215897823495 -0.1848222546386085
620000000.0 -0.3354160134035632 0.12235213403306926
640000000.0 0.17822382131505174 0.34481914301546973
660000000.0 0.39192241373923076 -0.08130921109162738
680000000.0 -0.04120661621504699 0.41832116307951134
700000000.0 0.2652463426939381 -0.3419618772353264
720000000.0 -0.28274206213380604 -0.3204409370224763
740000000.0 0.3873517011190697 0.15903878868036506
760000000.0 0.08262874056437175 -0.3945383351403407
780000000.0 0.07578302825321634 0.36445294412491414
800000000.0 0.13359896084693992 -0.3179423006966437
820000000.0 0.28534933505353677 -0.07150232194434512
840000000.0 -0.0030587657524965657 -0.2482039703635077
860000000.0 0.15612170048328577 -0.1471043096639493
880000000.0 -0.05598134659240894 0.1492730100285957
900000000.0 -0.05097960762681299 0.07969079379245161
920000000.0 -0.05840145397737609 0.023908538775615277
940000000.0 0.011501542015204785 0.04691046962877233
960000000.0 0.021185235971170162 -0.04927869941524238
980000000.0 0.046870546110815495 0.05264198424932937
1000000000.0 0.01924318836829502 -0.07771147909531789
1020000000.0 0.011642968371365596 0.09789578462195024
1040000000.0 0.1056231807363893 0.03174804606555055
1060000000.0 -0.03246470900726408 0.14202407449355742
1080000000.0 -0.12254529357194159 -0.10165177062255597
1100000000.0 -0.10414765705180123 0.14799874624118134
1120000000.0 0.15541234785194752 0.12903768083754044
1140000000.0 0.20614245209423154 -0.11196257096133291
1160000000.0 0.26963587730127103 -0.02065572033751624
1180000000.0 0.2532966369350389 0.17619439570673537
1200000000.0 -0.05520686620513526 0.3345344347487677
1220000000.0 0.022293975563200983 -0.3656154638775411
1240000000.0 -0.17966475606772445 0.35095663037496444
1260000000.0 0.41138964291075303 -0.09861028128750036
1280000000.0 -0.44225393300658333 0.036653382427273305
1300000000.0 0.42652956626620075 0.16575560639518308
1320000000.0 -0.1539091311731118 -0.42593701208990276
1340000000.0 -0.3738438192155632 -0.24035003817713138
1360000000.0 -0.3367304736993112 -0.2736152720938607
1380000000.0 -0.3720653471950469 -0.21273309718342756
1400000000.0 -0.3838364824285235 0.15613097565318315
1420000000.0 0.051496257287947114 0.39392314830732156
1440000000.0 0.32978686668240664 0.17068806884480792
1460000000.0 0.20061523711013393 -0.28001650677472406
1480000000.0 -0.1465191491777555 -0.27735989812807527
1500000000.0 -0.2733203337885751 -0.0749301209990018
1520000000.0 -0.2544321996691087 -0.032169895976088166
1540000000.0 0.2244198353882913 -0.04384877729857188
1560000000.0 -0.04300492024902598 0.1922975622996165
1580000000.0 -0.1266731618338995 -0.11734757245246434
1600000000.0 -0.10780940078424392 0.09879446030805746
1620000000.0 0.10175365738677276 0.059748762261312434
1640000000.0 0.09265796549510029 -0.019183423149003058
1660000000.0 -0.06972960505230368 -0.005026400168403603
1680000000.0 0.011846433745068292 0.04520197555710484
1700000000.0 -0.02024244269846303 0.01922060672373923
1720000000.0 0.005974817073680243 0.012183695076577674
1740000000.0 0.020906248477577962 0.0017581618714533316
1760000000.0 0.033506397597285534 0.02579952266420489
1780000000.0 -0.060086090235444464 0.04578452898981357
1800000000.0 0.04087473231628813 -0.1056096764576827
1820000000.0 0.11581134419908883 -0.08931214992688997
1840000000.0 0.12230832033602501 0.130088389984642
1860000000.0 -0.20560693125050794 -0.041803179677880824
1880000000.0 0.10342653495297185 0.2167616869731493
1900000000.0 0.21795838798015052 -0.16578597084206664
1920000000.0 -0.22504975104198552 -0.20568986627058836
1940000000.0 -0.3280489621429415 0.07774332627054026
1960000000.0 -0.004386261581467372 0.3677752829802367
1980000000.0 0.3917028485922661 -0.029736310683333027
2000000000.0 0.07602518217708046 -0.40808288002530235
2020000000.0 -0.4306052464335033 -0.012287679318753254
2040000000.0 -0.10313378068817643 0.42582113787508935
2060000000.0 0.40916163353975155 0.15917713706953573
2080000000.0 0.3457676951857179 -0.2629511241271591
2100000000.0 0.124366789840241 -0.40955080794217247
2120000000.0 -0.15593651984853335 -0.38842589983918946
2140000000.0 -0.36077914868435135 -0.18990099402715946
2160000000.0 -0.1382950640317651 -0.36789982063464166
2180000000.0 -0.33673665481605686 -0.16529337792903576
2200000000.0 -0.33080447351943504 0.14247223643012477
2220000000.0 -0.23657726657972833 0.2528029828651442
2240000000.0 -0.12108115701493936 0.31778206935924497
2260000000.0 -0.05096258271677112 0.33645422283390075
2280000000.0 0.037155865472970104 0.34384525179038367
2300000000.0 0.3543218468084827 0.07839353188518394
2320000000.0 0.07105451137862548 -0.3824537435545861
2340000000.0 -0.4037018054902733 0.12319389769537989
2360000000.0 0.46108143145830743 0.05431911982986187
2380000000.0 -0.5102279275982474 -0.01634375915394045
2400000000.0 0.5589579504399785 0.03463373030220431
2420000000.0 -0.5699244778886348 0.21902235046849614
2440000000.0 0.34995954984871486 -0.5576392295728728
2460000000.0 0.07577867220895472 0.6940167131203209
2480000000.0 -0.39518818688109986 -0.6113016774054338
2500000000.0 0.42265202260951257 0.6168508398579353
2520000000.0 -0.3018368740703002 -0.6948510574468436
2540000000.0 -0.07511197093567783 0.7555882598462095
2560000000.0 0.5559548401980294 -0.5082907448094053
2580000000.0 -0.7204146174197539 -0.16121185683387648
2600000000.0 0.2922881829446702 0.6520532824030831
2620000000.0 0.32777801860633793 -0.6001123089053885
2640000000.0 -0.013033776515389055 -0.6461836834305581
2660000000.0 -0.47674921602349873 0.3667762283978632
2680000000.0 0.5277543056989314 0.16736420617621536
2700000000.0 -0.15377635203271406 -0.4821236498704451
2720000000.0 -0.27543134439377975 0.3659831463423798
2740000000.0 0.41654718502118077 0.0024499211893049275
2760000000.0 -0.31195746675201746 -0.21786089386284976
2780000000.0 0.3303298000086046 0.12363777429692131
2800000000.0 -0.3241117298457775 0.05925676971199223
2820000000.0 0.04271413931268801 -0.309821801627453
2840000000.0 0.29354561894408543 0.06744618067351096
2860000000.0 -0.16102126916940543 0.24938609735470693
2880000000.0 -0.21806163312679133 -0.19647484546911897
2900000000.0 0.2404470615351845 0.16639941670862718
2920000000.0 0.010013913602711299 -0.29424102668752844
2940000000.0 -0.2963842632007225 0.04029689161115741
2960000000.0 -0.19489027058934968 0.2287981491641654
2980000000.0 -0.29496409932539225 0.07803764623422484
3000000000.0 -0.2689902956356475 -0.1546029441618192
3020000000.0 0.020526271029319747 -0.3117621630305639
3040000000.0 0.29581672325558117 0.09475735485992182
3060000000.0 -0.2884431664344461 0.1120733403461845
3080000000.0 0.20572944918245317 -0.22693369573542244
3100000000.0 -0.07034876557370492 0.2918972917826451
3120000000.0 -0.018231947975831407 -0.2900601611706753
3140000000.0 0.16982155514027952 0.22548989948315043
3160000000.0 -0.2650684282127087 -0.04045479054464793
3180000000.0 0.17743005615453228 0.1776981739514975
3200000000.0 -0.14348556412410957 0.1766166164172948
3220000000.0 -0.1938961205703949 -0.050862111506479374
3240000000.0 0.05894848385241748 -0.15822611472280337
3260000000.0 -0.034531946794296366 0.1301920384870442
3280000000.0 0.10069665854700673 -0.02250002287187631
3300000000.0 0.037163375467830426 -0.06606787468713066
3320000000.0 0.046144054500164025 -0.020809967237581654
3340000000.0 0.012121995532068395 -0.02762334851276195
3360000000.0 -0.007676225883875945 -0.011113863197385838
3380000000.0 -0.005229495462442205 -0.0011202409676213793
3400000000.0 0.011127754055545057 0.015364453297822779
3420000000.0 -0.03531885635884291 -0.0002344130705260553
3440000000.0 -0.02681804207972264 0.04101215362002038
3460000000.0 -0.02804935875949848 -0.05017692669529776
3480000000.0 -0.060974019162599105 -0.027891517920559026
3500000000.0 -0.05201059415138476 0.05884486539726759
3520000000.0 0.02465225550079141 0.08770364083024415
3540000000.0 0.09199350825291319 -0.048741737178578846
3560000000.0 -0.11188645249606494 -0.03659151312511418
3580000000.0 0.0904398680777807 0.09919915942527006
3600000000.0 -0.12652298443745094 0.089497025439668
3620000000.0 -0.14037813662957457 0.09591690141856862
3640000000.0 -0.17288125342271227 0.055691666897238735
3660000000.0 -0.16306234384837992 0.09767257968814559
3680000000.0 -0.18829664421145684 0.03826324969290441
3700000000.0 -0.18537331080255415 -0.045337458416968505
3720000000.0 -0.025550677770999664 -0.18598629551017853
3740000000.0 0.16074161569948722 -0.08873518203236266
3760000000.0 -0.17699173038552346 0.0004589771260935752
3780000000.0 0.1588923516647225 0.06020188767854733
3800000000.0 0.047364647019806236 -0.15443516405619545
3820000000.0 -0.12073672442318018 -0.09605377576552558
3840000000.0 0.025183160912028844 -0.14529184796949626
3860000000.0 0.12841836287785285 0.07332077814952169
3880000000.0 0.15150026651091417 0.02609756667565649
3900000000.0 0.005255376725190825 -0.1560939524271596
3920000000.0 -0.14510228167896722 0.07117206960294707
3940000000.0 0.11826768733808017 -0.11709133172382152
3960000000.0 0.14964916872921413 0.08371788624970862
3980000000.0 0.14499327512575833 -0.09386885695604036
4000000000.0 0.1575372564139265 -0.053737218357554545
