! Created with skrf (http://scikit-rf.org).
# Hz S RI R 50.0 
!freq ReS11 ImS11
400000000.0 0.004617477889165753 0.8717600014321821
420000000.0 0.49015491802384725 0.7081604235748965
440000000.0 0.8053732353237031 -0.19273535048869583
460000000.0 0.06813038312026731 -0.7879409775220494
480000000.0 0.4585400447260474 -0.533120879940419
500000000.0 0.5024288179944121 -0.2342974622026241
520000000.0 0.47927242213032883 0.09367619683708993
540000000.0 -0.0009474683583147874 0.4334175140008379
560000000.0 0.24376149610752543 -0.27681528368444663
580000000.0 -0.31974552220645763 -0.15249978608075165
600000000.0 0.1982241347218523 0.2981033739774693
620000000.0 -0.37858074804356745 -0.0008910534220865633
640000000.0 0.39469571506699297 0.11460328493617206
660000000.0 -0.16128368522680808 -0.385088432371156
680000000.0 -0.1661835028677474 -0.3908548304652955
700000000.0 -0.36508041654681783 0.19809109577035935
720000000.0 -0.2690891541438041 -0.3012159697758097
740000000.0 -0.32154738707382224 0.24556122748206505
760000000.0 0.2237989929372135 0.33079740676667013
780000000.0 -0.3629984003311445 -0.11300085296869283
800000000.0 0.35103000814028956 -0.0800681502767831
820000000.0 -0.06924349173596296 -0.30368587029311167
840000000.0 0.25038625401050707 0.040878472019384146
860000000.0 -0.0341117491686065 0.2067939894701119
880000000.0 -0.14955633685903813 0.010386621778334123
900000000.0 -0.07398965712186538 0.028628577093971874
920000000.0 -0.023627729094448647 0.03888659990581344
940000000.0 0.0263594538835438 0.013997626607685183
960000000.0 0.022726319704084424 0.027667158051869197
980000000.0 0.012641749280869898 0.04520041438674794
1000000000.0 -0.04921380194586472 -0.027561672684098284
1020000000.0 0.061804292206651096 0.0524556608422993
1040000000.0 0.07837737346312243 0.07262413112347414
1060000000.0 0.0674984943950369 -0.13802882036362762
1080000000.0 -0.08203153050938129 -0.1567600026878409
1100000000.0 -0.027326980880297128 -0.20526177112146898
1120000000.0 0.21696352384654516 0.06664365269009546
1140000000.0 -0.2086565533962783 0.14836680604542218
1160000000.0 0.0006474203306150814 0.27717032466884306
1180000000.0 -0.27249876186989436 -0.12974327701131985
1200000000.0 0.32237574006762776 0.02915811525829187
1220000000.0 0.10248282359951272 -0.3335567345582431
1240000000.0 -0.350870553411427 -0.14771839756677202
1260000000.0 0.0662450991183102 0.41222270593193555
1280000000.0 -0.01776679479102414 -0.44280724473007005
1300000000.0 -0.0706358760809989 0.4568052124542024
1320000000.0 0.06630738106713827 -0.45734572410058577
1340000000.0 -0.43154004171375326 -0.1388112382564345
1360000000.0 -0.41811777499363406 0.1330142987821156
1380000000.0 -0.2823042415042629 0.3226325983293249
1400000000.0 -0.06807081056276414 0.40298788826370735
1420000000.0 0.1874089991429444 0.33906755007540085
1440000000.0 0.11587333553922295 0.34578266835711413
1460000000.0 0.2988497375114769 0.16756869366751195
1480000000.0 0.20183931729593574 -0.2483133688531949
1500000000.0 -0.20180482396085503 -0.2143828658295009
1520000000.0 -0.21325548920657725 0.16051751478296392
1540000000.0 -0.10174929760803726 -0.2122144170431148
1560000000.0 0.19246164220784182 -0.04399808622565031
1580000000.0 -0.04802135362483427 0.1611618438852176
1600000000.0 -0.01763217827053833 0.13645090089048545
1620000000.0 -0.09738791493577974 0.04767433672060272
1640000000.0 0.05485578835487863 -0.0676815835557345
1660000000.0 -0.012201709621950095 -0.06382328880486567
1680000000.0 0.03260096397627449 -0.029942454049101827
1700000000.0 0.027442043860568505 0.009999563137641571
1720000000.0 -0.01187928666105244 -0.005942176782734445
1740000000.0 0.0174502926388994 0.0042845485340275965
1760000000.0 -0.0399394521006321 0.005997435369550532
1780000000.0 0.0015748585615676753 0.07477886736576078
1800000000.0 -0.004177903143957635 0.11298461440503453
1820000000.0 0.14468088834737017 -0.021515316645057184
1840000000.0 0.16380797998837487 0.06999868546859148
1860000000.0 -0.18131600108622495 0.09798535192000743
1880000000.0 0.11875368429393211 0.20281800856870888
1900000000.0 0.2692278605275599 -0.00689715473661104
1920000000.0 0.01090178097516656 -0.3036286835867281
1940000000.0 -0.31207734767241685 -0.13253607186816146
1960000000.0 -0.04075719781161433 0.3693642162519559
1980000000.0 0.3616929534118945 -0.1628144987193429
2000000000.0 -0.07885404390198528 -0.41004192363377273
2020000000.0 -0.40052143511722 0.15993456403981582
2040000000.0 -0.04318188253244516 0.43533250960453534
2060000000.0 0.40035500348588443 0.18009447697120617
2080000000.0 0.39625873913242565 -0.18069750510557858
2100000000.0 0.27110934730529446 -0.3328612087125525
2120000000.0 -0.013098005229648154 -0.41995134016632696
2140000000.0 -0.330849534463504 -0.23989566324544975
2160000000.0 0.021467355544813195 -0.3920221981571275
2180000000.0 -0.1772632724212628 -0.32893670364663447
2200000000.0 -0.29462097744240134 -0.20359078704576467
2220000000.0 -0.30339206075340275 -0.1662221325517927
2240000000.0 -0.33768111277138885 0.05214165479174014
2260000000.0 -0.2740343761020488 0.20510026640759557
2280000000.0 -0.16266978401143656 0.30715172075512504
2300000000.0 0.3367471720358525 0.13598952616235893
2320000000.0 0.06681314209729096 -0.3802975253528615
2340000000.0 -0.3979830742441397 0.12210677247681574
2360000000.0 0.4124941807195266 0.1962369487695371
2380000000.0 -0.360304529160853 -0.35251969523574306
2400000000.0 0.3586117523261562 0.42575235914141674
2420000000.0 -0.5725394881419726 -0.2114001453425693
2440000000.0 0.609277318133968 -0.25349415388103813
2460000000.0 -0.317144490892164 0.6248637428717136
2480000000.0 0.024150968245685127 -0.7316205373481545
2500000000.0 -0.06620465102685112 0.7500737917842057
2520000000.0 0.2565465606040138 -0.719291682794503
2540000000.0 -0.5688070140339349 0.5121840138317023
2560000000.0 0.7594831843037553 0.003029283092059874
2580000000.0 -0.44284755931987924 -0.5992027328347705
2600000000.0 -0.2676206965231291 0.6692203171973933
2620000000.0 0.6428262725585352 -0.25090026684075795
2640000000.0 0.45059108032184675 -0.4715952039464446
2660000000.0 -0.6069611813685029 -0.023777773469968514
2680000000.0 0.28999892777997494 0.47787328469873325
2700000000.0 0.09695615489734725 -0.5027754445734738
2720000000.0 -0.388522879801652 0.2549941368306224
2740000000.0 0.42209128181827016 -0.015184047885603787
2760000000.0 -0.36171890566773185 -0.13126569608391736
2780000000.0 0.35527193989726946 -0.020471991610739586
2800000000.0 -0.2540856027470773 0.21340840478838385
2820000000.0 -0.14624347584261146 -0.27815183236645674
2840000000.0 0.29136223463175503 -0.08123326848103608
2860000000.0 -0.07474127028095506 0.2881479445424926
2880000000.0 -0.13294160188675558 -0.2635301450654231
2900000000.0 0.10416827962539361 0.2772606322338194
2920000000.0 0.22601317889988787 -0.19681910704214536
2940000000.0 -0.27446579760225714 -0.13350016500700745
2960000000.0 -0.28786761527247107 0.11061160312686596
2980000000.0 -0.31068277446331183 0.035758291217469984
3000000000.0 -0.22828214329879087 -0.21724544616854352
3020000000.0 0.13570254210917118 -0.2839950250167321
3040000000.0 0.2596600842802167 0.17219519912425002
3060000000.0 -0.3093301079930613 -0.008165379249891028
3080000000.0 0.28363805691025673 -0.11518492707611117
3100000000.0 -0.2032690589089902 0.2209955657575702
3120000000.0 0.06054802048409916 -0.28588451039198703
3140000000.0 0.06836828548942515 0.2739139065761147
3160000000.0 -0.2408444798353431 -0.11461125349253916
3180000000.0 0.09600427613887984 0.2306182711766165
3200000000.0 -0.20635947840583227 0.09519100452143107
3220000000.0 -0.16151299311756478 -0.11818018537307931
3240000000.0 0.09591477997019686 -0.13820113277230614
3260000000.0 -0.02956086002624014 0.13019489605331885
3280000000.0 0.0549904234647842 -0.08481232112692669
3300000000.0 -0.0512533416189702 -0.050985515990487264
3320000000.0 -0.038154446465445226 -0.028191791993018595
3340000000.0 0.00944694637000748 -0.024521309938589763
3360000000.0 -0.006765413284928073 -0.007664936515072913
3380000000.0 0.005237299736061898 0.0032925418698890015
3400000000.0 0.00023559134681786281 0.020602006116534972
3420000000.0 0.03495574661577638 -0.012703817919095585
3440000000.0 -0.0054241222284906535 -0.051301471653014616
3460000000.0 0.06084994373811725 0.00110957260184056
3480000000.0 0.045166660337444764 -0.05472660038078559
3500000000.0 -0.07367802833524634 -0.033492220610197
3520000000.0 -0.06831689443798461 0.06269900471569406
3540000000.0 0.10252725220937609 0.02533812934266939
3560000000.0 -0.03858627443360346 -0.11175304979461508
3580000000.0 -0.06112729068407218 0.11922665105195414
3600000000.0 -0.13946331117791097 -0.0689840023976851
3620000000.0 -0.15385518258673564 -0.07185532596392893
3640000000.0 -0.1074849568306347 -0.1458876754406093
3660000000.0 -0.18330914570716766 -0.05327492325894587
3680000000.0 -0.18589720243001603 -0.052348006562232534
3700000000.0 -0.1826018750481529 -0.05319843683161105
3720000000.0 0.001918880531108295 -0.18673566112687362
3740000000.0 0.1766423714770369 -0.04067980701731061
3760000000.0 -0.17152546668170748 -0.02876090311364562
3780000000.0 0.11574059829555416 0.11845454666515727
3800000000.0 0.14817335175396462 -0.05513814956175394
3820000000.0 0.0263418183332837 -0.1505267573807638
3840000000.0 0.048374620492911496 -0.13964770797593615
3860000000.0 0.1459737746495085 0.020290691167236252
3880000000.0 0.14577509336166236 -0.041854512603240024
3900000000.0 -0.04463806175732337 -0.14640536899893855
3920000000.0 -0.14038438829760327 0.07104568245364735
3940000000.0 0.16000694269400234 -0.02848078351755079
3960000000.0 0.035367283882055116 0.1649632771575549
3980000000.0 0.17066720428268634 -0.013130875798178473
4000000000.0 0.11080285590879971 -0.12469887088951884
