! Created with skrf (http://scikit-rf.org).
# Hz S RI R 50.0 
!freq ReS11 ImS11
400000000.0 -0.7497174426637689 0.4025242872686428
420000000.0 -0.36430899896013547 0.7797698583838217
440000000.0 0.6133305012105166 0.5630489250227464
460000000.0 0.7763243484525727 -0.16984963914553702
480000000.0 -0.13172804660486573 0.7229211948896949
500000000.0 -0.41270607707988377 -0.45334763241254616
520000000.0 -0.15272716055703167 0.4889203484639147
540000000.0 -0.25974824332162155 -0.36340356847796423
560000000.0 0.33218466483132103 -0.1840692202224932
580000000.0 -0.0660696582068996 0.34076476044423176
600000000.0 0.3061373535524002 -0.1480181698912487
620000000.0 -0.2696140922418085 0.22259828967510473
640000000.0 -0.28865563072368233 0.2204819524872517
660000000.0 -0.3615060669176333 -0.08191530465059618
680000000.0 0.27466977575544255 0.2652566643026244
700000000.0 0.053576975780442064 0.3978246124209143
720000000.0 0.10128000601432498 0.39698234016839806
740000000.0 -0.2630004768338465 -0.32183686162819386
760000000.0 -0.12701950029516387 0.38465177230566544
780000000.0 -0.1638659723164515 -0.3486703758954669
800000000.0 0.21079612406496678 0.29299755473691513
820000000.0 0.1178194866691818 0.29668720756020617
840000000.0 -0.2488335377501769 0.11113114083080841
860000000.0 -0.1764152617294462 0.13950519243183993
880000000.0 0.06422084764663956 -0.16533652592586148
900000000.0 0.11393313438077678 0.018397510709615112
920000000.0 0.06268941742257325 0.034625798979779514
940000000.0 -0.0541583907635815 0.0273216654050658
960000000.0 0.026459098966184733 0.0642324720708728
980000000.0 -0.05941730948550898 0.061332567416313634
1000000000.0 0.07075617892678639 -0.05164070711782412
1020000000.0 -0.09730799178440527 0.021226514185748925
1040000000.0 -0.007990462659795958 -0.10221519711154708
1060000000.0 0.023340264759717715 -0.13148636896995372
1080000000.0 -0.14101395009130394 0.041195944014842514
1100000000.0 -0.14505357554113849 -0.09036943770245431
1120000000.0 -0.19232863871301867 0.009526443629017384
1140000000.0 -0.18776069219357655 0.1349728297347671
1160000000.0 -0.21736585333507577 0.16458916869797635
1180000000.0 -0.19532238297448304 0.2472848128384199
1200000000.0 -0.23947376015463648 0.2560778867459101
1220000000.0 -0.10310473123053947 -0.3657140831791162
1240000000.0 0.28848028674342135 0.28379687623950967
1260000000.0 -0.2633915003407971 -0.3354757673571426
1280000000.0 0.1407293629759681 0.41707213658725445
1300000000.0 0.2551725782010272 -0.36431014588576743
1320000000.0 -0.3103384868097013 -0.30872207548236175
1340000000.0 -0.041231643056930306 -0.42953082197943204
1360000000.0 0.3198098977471714 -0.2840315496782612
1380000000.0 0.272145377409795 -0.3328833143463913
1400000000.0 -0.30100653747881523 -0.29455161277232844
1420000000.0 -0.32906924282819 0.23990138296126934
1440000000.0 0.3424633074490462 0.17335275722574492
1460000000.0 0.10636800402843029 -0.33911998503474133
1480000000.0 -0.31402121201100275 0.08416583686590878
1500000000.0 0.1495236403252788 0.2474607852768535
1520000000.0 0.2557545970665523 0.01901020398497596
1540000000.0 -0.19454793163388553 0.11159348169243213
1560000000.0 0.041653307779186306 -0.18253590467141448
1580000000.0 -0.013496388688291151 0.15624198535600997
1600000000.0 -0.12202524408707598 0.03906727573583736
1620000000.0 0.0429251070996563 -0.08983748992277185
1640000000.0 -0.07889290099232442 0.011620183392689406
1660000000.0 0.04246205472136636 -0.0398042291683106
1680000000.0 -0.03426399730398547 -0.020472732272732257
1700000000.0 -0.022763720489987732 0.01753170728942285
1720000000.0 -0.01438370599242404 0.0021055868383704456
1740000000.0 0.0044750599736065365 -0.006657645414160266
1760000000.0 -0.00793913215302201 -0.02082298245580369
1780000000.0 0.040526274499251294 0.035883330749725974
1800000000.0 -0.08218146951381665 0.04078955544240141
1820000000.0 0.08959046388193186 0.09340072428361429
1840000000.0 -0.13247683233297464 0.11133961873868216
1860000000.0 -0.15362212028312824 -0.15282472586829585
1880000000.0 0.14915889893182707 -0.21256159026875499
1900000000.0 0.23479192436986815 0.18857898789084188
1920000000.0 -0.29868048622178245 0.15082434055887187
1940000000.0 0.3352903855367944 -0.12809338427736014
1960000000.0 -0.3225030882255179 -0.1962948272124216
1980000000.0 -0.267911678904681 0.282995732150884
2000000000.0 -0.2634676599164192 0.303919052097582
2020000000.0 -0.12669506146964615 0.39416277477874156
2040000000.0 -0.21373671499087943 0.3669647087509906
2060000000.0 0.14552517275982288 0.40737599220426096
2080000000.0 0.35447432804065854 0.25208952618796576
2100000000.0 0.42191689782847797 -0.10487860730327989
2120000000.0 0.13828013849466653 -0.40761946854987013
2140000000.0 -0.38220868990524465 -0.1772625971866693
2160000000.0 -0.28407592932450176 -0.289914039423316
2180000000.0 -0.3363469759845819 0.19510571642009017
2200000000.0 -0.005759730552729623 0.3715786248422704
2220000000.0 0.22241105941186098 0.27875796770747874
2240000000.0 0.3252068937773365 0.13073748072104127
2260000000.0 0.3487809874257641 -0.007944887322083689
2280000000.0 0.32295187399547487 -0.14414652918506604
2300000000.0 0.044845337280980835 -0.36688979830058727
2320000000.0 -0.3940112112688141 -0.0488663830766409
2340000000.0 0.24735647954678883 0.35537660239179064
2360000000.0 -0.2259613478421508 -0.41922480687096014
2380000000.0 0.38351610877600445 0.35474341601995146
2400000000.0 -0.5498245193370013 -0.15401413833523586
2420000000.0 0.5546202268310643 -0.27374077222162796
2440000000.0 -0.2722652857253613 0.6029578718886244
2460000000.0 -0.170183348230649 -0.6750171237171195
2480000000.0 0.404441926059733 0.5972296343811685
2500000000.0 -0.275197450270433 -0.6837889461829653
2520000000.0 0.00023554007303655473 0.7433978475123647
2540000000.0 0.3923033039310339 -0.6289305420075445
2560000000.0 -0.7321219161851128 0.02857249518227778
2580000000.0 0.32655502433973177 0.6356052948664714
2600000000.0 0.42104743603840716 -0.544791654879124
2620000000.0 -0.6321204142213974 -0.17332153753938073
2640000000.0 -0.6167768469295088 -0.03561965765316986
2660000000.0 0.17596487804019842 0.5455398075914754
2680000000.0 0.43026020099929146 -0.3045402130465698
2700000000.0 -0.44207785266932653 -0.19176730043040185
2720000000.0 0.1350893097260409 0.4144895054888274
2740000000.0 0.2575065043488561 -0.2976600895258139
2760000000.0 -0.35384039368054954 0.04456443642637486
2780000000.0 0.3142826439146394 0.09334229939984867
2800000000.0 -0.2752431308483494 -0.1338042950171487
2820000000.0 0.28657147335521566 -0.05738400455581229
2840000000.0 -0.11933737044403385 0.26020131901058074
2860000000.0 -0.2034921513624545 -0.20010778348464411
2880000000.0 0.18592948511578325 -0.21834740478364603
2900000000.0 0.09438942483285538 0.2734322821878995
2920000000.0 -0.06216002333560493 -0.28669485088298674
2940000000.0 -0.11127071910592529 0.2745523053722213
2960000000.0 0.15414006898060384 0.2511646972157066
2980000000.0 -0.008531467619230645 0.2968040324132991
3000000000.0 -0.25411970256083144 0.15322234546410501
3020000000.0 -0.07983038259129813 -0.2853868376999499
3040000000.0 0.20449919542219228 0.21401083657179615
3060000000.0 -0.24172296867255394 -0.17154112836034757
3080000000.0 0.24087042367678266 0.17276703009256428
3100000000.0 -0.2932307304456081 0.018391319354330585
3120000000.0 0.2187826267601053 -0.1860970782939299
3140000000.0 0.017958007160099043 0.27880774327604796
3160000000.0 -0.26463663117978 -0.0002747785059138596
3180000000.0 0.23810065692871968 0.0627756364882893
3200000000.0 -0.002221347831414813 0.22133508038322047
3220000000.0 -0.18154652264940063 0.0641429070872915
3240000000.0 0.04471481656958049 -0.15429218919416893
3260000000.0 -0.08775772093962053 0.09253828421481061
3280000000.0 0.058917091408356534 0.07846076133848143
3300000000.0 0.06501528484124408 -0.0324234680817663
3320000000.0 0.04140276791570943 -0.024051576234316543
3340000000.0 0.022664690765257144 0.015825141233885807
3360000000.0 0.005229257088480225 -0.009166294729316602
3380000000.0 -0.000695938127842539 0.005588475548094321
3400000000.0 -0.01849867360401338 -0.0039928616211059925
3420000000.0 -0.020130989286770304 -0.025847144805238816
3440000000.0 0.03362595125838844 0.029451309771761757
3460000000.0 0.03745197747950875 -0.038269087924325824
3480000000.0 0.055121629878417865 0.032261439073126286
3500000000.0 0.0064957312376454695 -0.07636294386471551
3520000000.0 -0.08440951278534227 -0.029860615331282987
3540000000.0 0.09965141517901917 0.02592348237441191
3560000000.0 -0.08993046309737383 -0.0723417192549229
3580000000.0 0.027307727164867953 0.12709842945068342
3600000000.0 -0.14466867060109984 -0.03501643605592446
3620000000.0 -0.15467601542270312 -0.046602167650365116
3640000000.0 -0.05081120556962245 -0.16702211576634204
3660000000.0 -0.07176611322038756 -0.1706054900776459
3680000000.0 -0.01518731529376974 -0.18957539162921969
3700000000.0 0.03621990075899634 -0.18642501310694548
3720000000.0 0.16432218957129385 -0.09173195015685373
3740000000.0 0.17454700396153058 -0.053203941705091164
3760000000.0 -0.17122943574971491 0.035241700044370786
3780000000.0 0.16002780620205395 -0.03773193778334533
3800000000.0 0.010057924398254337 -0.15540996412684202
3820000000.0 -0.04165690636876356 -0.14234167390987204
3840000000.0 0.12392190900506746 -0.07040195851169706
3860000000.0 -0.027463310060055 0.1422753768206385
3880000000.0 -0.013922172161115725 0.15194880176134434
3900000000.0 0.15662692596709352 0.013157825001877324
3920000000.0 -0.1636595625337915 0.006832308984724608
3940000000.0 -0.01781866850795426 -0.16619580094533729
3960000000.0 0.03584310802486847 -0.1662994470311911
3980000000.0 -0.12627989613729082 -0.11351706789174172
4000000000.0 -0.15242118330396434 -0.05434618889455143
