! Created with skrf (http://scikit-rf.org).
# Hz S RI R 50.0 
!freq ReS11 ImS11
400000000.0 -0.7512504858977699 0.39997107806977783
420000000.0 -0.32876989025731856 0.7956931009463354
440000000.0 0.6100904731935856 0.5659269141095518
460000000.0 0.7752880926011171 -0.17554471840391428
480000000.0 -0.13985996645876642 0.7217798417949438
500000000.0 -0.43911571871991867 -0.4269277846910075
520000000.0 -0.16723391986392155 0.4838264473772874
540000000.0 -0.21611884118456492 -0.39119039281896656
560000000.0 0.31021934276371643 -0.22022775574411615
580000000.0 -0.02266408063293364 0.345638530187679
600000000.0 0.3116731577240018 -0.13525881064787104
620000000.0 -0.2701638791925888 0.22295811313726613
640000000.0 -0.28839536314709346 0.220047369827897
660000000.0 -0.36974617271677285 -0.03170578265606761
680000000.0 0.2914389596183883 0.24598846939161634
700000000.0 0.05424880320555413 0.3974696560295799
720000000.0 0.09560730289576307 0.3980870538313695
740000000.0 -0.2436580535307627 -0.3374667272076541
760000000.0 -0.1400779566418471 0.3805178986190698
780000000.0 -0.15327452711720205 -0.35346666039822294
800000000.0 0.1812504023843295 0.31242754995541167
820000000.0 0.10922785930840043 0.29999855751627313
840000000.0 -0.2520734146232417 0.10284710364341923
860000000.0 -0.1746454171050633 0.14241546104314254
880000000.0 0.03863731114253421 -0.17357568058320935
900000000.0 0.11462642081976863 0.016964794936153348
920000000.0 0.06932075726044831 0.01967399550532496
940000000.0 -0.05796132044653428 0.018396470216649183
960000000.0 0.0018742253462938896 0.06973253863456047
980000000.0 -0.057156211251588714 0.06392195003074269
1000000000.0 0.07180118120340497 -0.05121039386291031
1020000000.0 -0.09466243495072404 0.03108939576153157
1040000000.0 -0.0022211286254157775 -0.10278390295760662
1060000000.0 -0.0013945824960224548 -0.1337483032892394
1080000000.0 -0.1321812374870188 0.06454044254968118
1100000000.0 -0.1429385306090551 -0.09303411466953782
1120000000.0 -0.19038951762589065 0.027164244538097116
1140000000.0 -0.1635270208468348 0.16320463840290725
1160000000.0 -0.20085024088360645 0.1840759589366013
1180000000.0 -0.20315344884778522 0.24096987682876014
1200000000.0 -0.25764238686164204 0.23752297728365251
1220000000.0 -0.07542926074872726 -0.3719700312085626
1240000000.0 0.28098995478869143 0.2913817118974806
1260000000.0 -0.2501605232330806 -0.3458581050281494
1280000000.0 0.12337473424515707 0.4227507641155245
1300000000.0 0.2515674475280149 -0.3673040197284387
1320000000.0 -0.30654685462684755 -0.31308200452940055
1340000000.0 -0.057261866454372305 -0.42774623468368317
1360000000.0 0.3222226101934911 -0.28127046429132324
1380000000.0 0.27328364985825704 -0.3320173795036011
1400000000.0 -0.3095970502860108 -0.28567743338248774
1420000000.0 -0.3351462207767302 0.23116736948322547
1440000000.0 0.3363088341287916 0.18448995661065273
1460000000.0 0.11676346901220687 -0.3354002631443033
1480000000.0 -0.2859972129394683 0.15399835338942
1500000000.0 0.1555091593053402 0.2437891932552057
1520000000.0 0.25639792400162736 0.006350813957196214
1540000000.0 -0.19010750740370913 0.11927993760093596
1560000000.0 0.04369896830998762 -0.18223720814270183
1580000000.0 -0.03619548644003304 0.15273357018408015
1600000000.0 -0.10541447780206455 0.07240443753564002
1620000000.0 0.02107806030773867 -0.09737032675255075
1640000000.0 -0.0775124735552734 0.01914423726654029
1660000000.0 0.05089311974271073 -0.02862713644384101
1680000000.0 -0.029347506578903722 -0.027445304705536244
1700000000.0 -0.02846089037792723 0.004688040939994523
1720000000.0 0.00604146048171502 -0.013351828084235382
1740000000.0 -0.008472321661342642 0.001517785127992994
1760000000.0 -0.016791121564283033 -0.014703902654713026
1780000000.0 0.03884925063051744 0.03768694734601077
1800000000.0 -0.0786640529534082 0.04763935277640399
1820000000.0 0.07490686946258733 0.1051402918913548
1840000000.0 -0.1464089185727078 0.09186284014853392
1860000000.0 -0.13906339886438598 -0.16588690951151666
1880000000.0 0.16745526315910433 -0.19835542049840227
1900000000.0 0.2160491180238924 0.20994841766638125
1920000000.0 -0.3063406424536694 0.1347601635529544
1940000000.0 0.3373576635437844 -0.12258574426783599
1960000000.0 -0.3243519219837473 -0.19360951282953262
1980000000.0 -0.2563815437780425 0.2935213389338091
2000000000.0 -0.25012003274201816 0.31490164794877135
2020000000.0 -0.11769200682843207 0.3969377154182154
2040000000.0 -0.1591529920614054 0.39329789923671665
2060000000.0 0.1454416735301688 0.40733986353660534
2080000000.0 0.3408393145645117 0.26980969309548525
2100000000.0 0.4209060998963471 -0.10820501302055549
2120000000.0 0.1257355922509096 -0.4112855746814169
2140000000.0 -0.3869959150089257 -0.16611521049795072
2160000000.0 -0.2714075265490425 -0.30217065383514635
2180000000.0 -0.33842933677372367 0.19191309723909777
2200000000.0 0.007098866737837462 0.37178131264123754
2220000000.0 0.23194091618482998 0.2713875495892194
2240000000.0 0.3197611516707664 0.1431967728074833
2260000000.0 0.3483932778842909 0.008004922322439507
2280000000.0 0.3125068906815817 -0.16590228551470151
2300000000.0 0.029907818017669247 -0.36851152957749733
2320000000.0 -0.39353360166734225 -0.049160032099932034
2340000000.0 0.265343752816422 0.34236191149985673
2360000000.0 -0.25433698250983017 -0.4031603775993634
2380000000.0 0.39586494312529763 0.34133798171408125
2400000000.0 -0.5537559050870966 -0.14005947016057826
2420000000.0 0.5523831738573405 -0.2790370386614178
2440000000.0 -0.2488916747389101 0.6131519816038982
2460000000.0 -0.21976697365031744 -0.6606514326794014
2480000000.0 0.4237924109378702 0.583662218899316
2500000000.0 -0.3618865051035868 -0.6416806912776805
2520000000.0 0.09160108167165827 0.7374229443259543
2540000000.0 0.34550626730488854 -0.6555984216024794
2560000000.0 -0.7274480764123422 0.08367469694516076
2580000000.0 0.3127789844835091 0.6422524006376664
2600000000.0 0.4066193814139234 -0.5550253325999452
2620000000.0 -0.6404952441666675 -0.13797382043021877
2640000000.0 -0.6168588095415279 -0.030045192523365162
2660000000.0 0.1669440292379048 0.5483473888368849
2680000000.0 0.4080499269878057 -0.3337570703977012
2700000000.0 -0.4377086058807106 -0.20175096101127543
2720000000.0 0.13111662375590924 0.41596267022994765
2740000000.0 0.257173510784218 -0.2981625039934254
2760000000.0 -0.3520541626825712 0.05781921596849028
2780000000.0 0.3126929854066243 0.09801957677146447
2800000000.0 -0.27744701172920383 -0.12901727120138212
2820000000.0 0.28766760721986556 -0.04914298697186705
2840000000.0 -0.11713272829493465 0.25994529492633967
2860000000.0 -0.2060779533187566 -0.1967606624989911
2880000000.0 0.1885229867563656 -0.21571912098302057
2900000000.0 0.07202593774819163 0.28033646010083396
2920000000.0 -0.02999884985768076 -0.291959397656467
2940000000.0 -0.1578735971187264 0.2508983186148491
2960000000.0 0.17151742872650608 0.2397225932208658
2980000000.0 0.05708808592379336 0.29093544919097497
3000000000.0 -0.23548721509956558 0.1816359699609677
3020000000.0 -0.08214763289406041 -0.285265637283098
3040000000.0 0.24821021758340941 0.16159795511906935
3060000000.0 -0.2464773400344997 -0.16414692223837019
3080000000.0 0.23597609172683925 0.17900107262418932
3100000000.0 -0.2937701164413769 0.016483375779312998
3120000000.0 0.2028256564408829 -0.20374808294583
3140000000.0 0.005463278758102854 0.27968067905044464
3160000000.0 -0.2634254168116322 -0.030587945674034576
3180000000.0 0.23979515008475505 0.05973520811934344
3200000000.0 -0.017907766232804392 0.22100028183507103
3220000000.0 -0.18764602466816926 0.04430702352090482
3240000000.0 0.07058278212426954 -0.1446551752864996
3260000000.0 -0.08875364206006733 0.09190080964454143
3280000000.0 0.0572998120009107 0.07957524911910085
3300000000.0 0.06966024947605498 -0.01930067049087535
3320000000.0 0.04594934023873562 0.013402913147094736
3340000000.0 0.023357962915226013 0.014616872799081715
3360000000.0 -0.009372208285840554 -0.004227572830845019
3380000000.0 0.005138190091750064 -0.0018176167808006158
3400000000.0 -0.018571931089584312 0.003401953933029313
3420000000.0 -0.032310858521723856 -0.006475518194721482
3440000000.0 0.03935166211198037 0.021562143012057187
3460000000.0 0.03869087373387128 -0.03692544014625391
3480000000.0 0.061972936412533756 0.016684260640504725
3500000000.0 0.004663760411838982 -0.07665923963475829
3520000000.0 -0.07232646697092422 -0.052527957480498814
3540000000.0 0.09702278108687312 0.033641623566979056
3560000000.0 -0.09356570757093333 -0.06775611124140866
3580000000.0 0.025934841453063687 0.12709804442715772
3600000000.0 -0.14563549579357618 -0.03129994366523198
3620000000.0 -0.155368281031549 -0.044289447786798025
3640000000.0 -0.054644683907722154 -0.1660659628519141
3660000000.0 -0.07000848381695242 -0.17168118712986835
3680000000.0 -0.009952358286667814 -0.19016448576493544
3700000000.0 0.05357833672615524 -0.18229207650553034
3720000000.0 0.16564278357391882 -0.08854853407498976
3740000000.0 0.17841024017202942 -0.038609829622701895
3760000000.0 -0.17394343426963746 0.01669321958210985
3780000000.0 0.16454574268714994 -0.007005574120954659
3800000000.0 0.02089465411837636 -0.15432881436743218
3820000000.0 -0.037886702079707776 -0.14340125737982554
3840000000.0 0.13128009931843113 -0.056092571206293414
3860000000.0 -0.039479113533551304 0.13942537787305007
3880000000.0 -0.01941653381112757 0.15124112238650325
3900000000.0 0.15521066502023736 0.022408472958387684
3920000000.0 -0.16343711958958018 -0.0076790529977444535
3940000000.0 -0.00031295078664050533 -0.16714559204848653
3960000000.0 0.05695191965346295 -0.16011791896530833
3980000000.0 -0.11089863018377215 -0.1281432842482966
4000000000.0 -0.14166536076796837 -0.07714797768980983
