! Created with skrf (http://scikit-rf.org).
# Hz S RI R 50.0 
!freq ReS11 ImS11
400000000.0 -0.04406098469018138 0.8674858962637088
420000000.0 0.41877701163759146 0.7512271747078159
440000000.0 0.8049632269292532 -0.1941694403086445
460000000.0 0.24672501209114078 -0.7520854707442698
480000000.0 0.652282294871345 -0.2941426941259747
500000000.0 -0.06395267733137504 -0.5686248497717492
520000000.0 -0.17433837369576416 -0.46102961547205806
540000000.0 0.2945669578144701 -0.31991477253412526
560000000.0 -0.3128078274564568 0.17799090181067834
580000000.0 0.030388711061557574 0.33526693325320156
600000000.0 0.19300601412143 -0.2771667499258085
620000000.0 -0.3513622079102467 0.07022119078245967
640000000.0 0.11972268168839391 0.36804450370899144
660000000.0 0.40153530075373906 -0.024802751724511136
680000000.0 -0.13529013262864428 0.39874556400912475
700000000.0 0.2898066463795228 -0.32190438342592875
720000000.0 -0.2882167714272156 -0.3146256836151379
740000000.0 0.3800864545333207 0.17562715141023513
760000000.0 0.19426965308814848 -0.351567132457137
780000000.0 0.11400303538399142 0.35349671991059833
800000000.0 0.1548183559342051 -0.30779854286300196
820000000.0 0.2918936577258325 -0.033277320730232485
840000000.0 -0.16926744616243333 -0.1822185171394721
860000000.0 0.11614663632111327 -0.1800186133309536
880000000.0 -0.014547270987421257 0.16049650560428802
900000000.0 -0.022713680383603586 0.09404758486499086
920000000.0 -0.05595588458799175 0.031671817418807285
940000000.0 -0.04617854814082902 0.01687889100173211
960000000.0 0.050275627063990844 0.014413313387415704
980000000.0 0.02311512916928386 0.06575367172892427
1000000000.0 -0.023395868413417873 -0.07506109035620154
1020000000.0 0.09608517366953369 0.011517568399437655
1040000000.0 0.10855795612228969 0.020063528603749586
1060000000.0 0.07311267356550816 0.12611488062807294
1080000000.0 -0.15077660213228106 0.05502269301993665
1100000000.0 -0.08073536518174664 0.16390991164935562
1120000000.0 0.18169092506035767 0.09260302430586073
1140000000.0 0.20717297422951778 -0.11331464416583843
1160000000.0 0.26632599468696155 0.05566091253281503
1180000000.0 0.16771250330966947 0.26069912115133403
1200000000.0 -0.1668049845625244 0.29783056211882764
1220000000.0 0.165536943840277 -0.3275782966467128
1240000000.0 -0.2940408280758454 0.262946754156562
1260000000.0 0.42303105061952373 0.005837002913760232
1280000000.0 -0.43395265682837914 -0.09458922037143501
1300000000.0 0.385076482686182 0.24564433236422184
1320000000.0 -0.11240937254012041 -0.4385181964619236
1340000000.0 -0.37611985435681916 -0.236398490089744
1360000000.0 -0.3217131296832874 -0.28949667302200954
1380000000.0 -0.369770053424162 -0.2151377833581034
1400000000.0 -0.3720951825296806 0.1820238455505022
1420000000.0 0.11520116082593951 0.3795308930901238
1440000000.0 0.34957942640247064 0.12672306304540384
1460000000.0 0.15551573681792968 -0.3072579851107992
1480000000.0 -0.21848792485529983 -0.22576403559910785
1500000000.0 -0.2825919391745869 -0.030036741199890995
1520000000.0 -0.2564118147273296 0.022227319198685893
1540000000.0 0.22481435005212416 -0.04825107184859581
1560000000.0 -0.09523474529740798 0.17403536119180635
1580000000.0 -0.0985327792046714 -0.143711244736011
1600000000.0 -0.12130982376691583 0.08355390107157984
1620000000.0 0.061212962107076746 0.10187459417036557
1640000000.0 0.06417050356963169 0.06952243727878255
1660000000.0 -0.034716755371809606 -0.060396684167432525
1680000000.0 -0.032771982313234825 0.031905970554039945
1700000000.0 -0.0018429015247470066 0.027611958958319954
1720000000.0 -0.011737941280172552 0.006003323236692099
1740000000.0 0.02116876309805549 -0.005696431968331213
1760000000.0 0.015951257511244737 0.03988665275364755
1780000000.0 -0.07530043015051077 -0.009241102161750971
1800000000.0 0.10515642911174762 -0.041608956456065854
1820000000.0 0.12959929913856844 -0.06780013727438297
1840000000.0 0.07228720356584827 0.163262594861613
1860000000.0 -0.20869749865988962 -0.014688899378385304
1880000000.0 0.10142966532089115 0.21721984129264535
1900000000.0 0.20881467704484852 -0.17635378869615662
1920000000.0 -0.23199382962190745 -0.19753260962492064
1940000000.0 -0.320434529032461 0.10305752524864797
1960000000.0 0.032630570994272835 0.36604594772242643
1980000000.0 0.3854874902104744 -0.07804601158992111
2000000000.0 0.06515168320468478 -0.41011037743975404
2020000000.0 -0.43084362348232963 0.023029756455191695
2040000000.0 -0.05062444469171514 0.4357607771457287
2060000000.0 0.4177929525905629 0.13537368810919595
2080000000.0 0.34323007058216776 -0.267824953980227
2100000000.0 0.14851848473521886 -0.40238518688406605
2120000000.0 -0.1542883065692323 -0.3896947855375114
2140000000.0 -0.36883608289855474 -0.17542789446324128
2160000000.0 -0.14795608851161574 -0.3643186695110244
2180000000.0 -0.3466934746968264 -0.14471399840871899
2200000000.0 -0.33880528689784284 0.12161169019476237
2220000000.0 -0.21331758951717583 0.2720599241375049
2240000000.0 -0.11431366152931048 0.32057998763974044
2260000000.0 -0.01623412287607312 0.34003191892754664
2280000000.0 0.08487683846731203 0.3354935894653892
2300000000.0 0.3610358221585887 0.03743986836091861
2320000000.0 0.015689633555065922 -0.38888108698432633
2340000000.0 -0.38611533209388643 0.17146782769759294
2360000000.0 0.4651274210106022 -0.0008514468229002407
2380000000.0 -0.5107239512830941 0.03044995308263866
2400000000.0 0.5566327862802374 -0.06955254233500685
2420000000.0 -0.531331825570084 0.30228297849800784
2440000000.0 0.28564654460640304 -0.5938043350570152
2460000000.0 0.16704492884992378 0.6780251474074213
2480000000.0 -0.4504103601107193 -0.5718358928920431
2500000000.0 0.48932104665622284 0.5650800451001973
2520000000.0 -0.36046271891363124 -0.6659609308421942
2540000000.0 -0.01868293917897619 0.7580355357814699
2560000000.0 0.5029008991768102 -0.5590997207516101
2580000000.0 -0.7263503683584169 -0.1248020152874831
2600000000.0 0.337684158522111 0.6277855704620955
2620000000.0 0.27402452071351374 -0.6246028853032606
2640000000.0 -0.04520341929844285 -0.6427526731521298
2660000000.0 -0.44177722267657304 0.40564704004517715
2680000000.0 0.5413571475495657 0.10784941663459685
2700000000.0 -0.18821208797726555 -0.46797225924645514
2720000000.0 -0.2625344595183175 0.3740509082170597
2740000000.0 0.41427716375087636 -0.030997864116401725
2760000000.0 -0.3195006650914005 -0.20460748254725103
2780000000.0 0.333595582494946 0.11189115821852816
2800000000.0 -0.32359618749531016 0.060052263608427206
2820000000.0 0.03280625872340206 -0.31089268600361236
2840000000.0 0.2967578093402941 0.05110840235423375
2860000000.0 -0.10752174609787166 0.27595374043006804
2880000000.0 -0.19057172616198073 -0.2228400832453362
2900000000.0 0.24316540053215158 0.16160649815573858
2920000000.0 0.036341375500231414 -0.29255360561683863
2940000000.0 -0.2986836284552321 0.010256028781336742
2960000000.0 -0.224304754921268 0.1989488221017855
2980000000.0 -0.30245013122523084 0.037547283833800564
3000000000.0 -0.2659893704213023 -0.16026646288318755
3020000000.0 0.024727456475696186 -0.3109806719872662
3040000000.0 0.2695589650986464 0.15392913309554934
3060000000.0 -0.2969516400074357 0.0855492372990459
3080000000.0 0.2203576758473995 -0.21185580940642074
3100000000.0 -0.030463791345317567 0.2979474402322103
3120000000.0 0.012256836325532556 -0.28968689219968147
3140000000.0 0.17304427069079817 0.22212211800508014
3160000000.0 -0.26371368937607614 -0.04370479397487942
3180000000.0 0.1648414729343307 0.1879883966500052
3200000000.0 -0.14379499269509996 0.17620073033195394
3220000000.0 -0.19567331886933043 -0.04248225721263319
3240000000.0 0.007839883446478528 -0.16822139474471032
3260000000.0 -0.016721680656560076 0.13327488697197468
3280000000.0 0.10153432803915464 -0.015511598002832147
3300000000.0 0.018935557265407736 -0.0733973588526823
3320000000.0 0.029946262293032922 -0.04129538462275812
3340000000.0 0.022884764089122465 -0.020036169281400777
3360000000.0 -0.013771827117366141 0.0010363095629988242
3380000000.0 -0.0030207237872934534 0.003973155404647526
3400000000.0 -0.003805741611215148 0.018100025829364697
3420000000.0 -0.03416573491573769 -0.005863759249617367
3440000000.0 -0.039274548170426145 -0.028250479420016954
3460000000.0 -0.04189870663819092 -0.038903851229874505
3480000000.0 -0.04939378800946103 -0.04496505534396921
3500000000.0 -0.07390443914601158 0.02298607983711921
3520000000.0 -0.06060181193709201 0.06620071461780386
3540000000.0 0.10162273928875011 -0.0144754778180229
3560000000.0 -0.10650246815169949 -0.047260377028725056
3580000000.0 0.0424178164832898 0.12562153357482042
3600000000.0 -0.1261777775675137 0.0883494645362067
3620000000.0 -0.14379080314324108 0.08819414760350236
3640000000.0 -0.1751006218588282 0.03924256320685201
3660000000.0 -0.1529015102915677 0.11146409121112998
3680000000.0 -0.17876335704820717 0.06813752457475952
3700000000.0 -0.18767672730673948 -0.024758170964391233
3720000000.0 -0.04546879245616095 -0.18152372848035347
3740000000.0 0.14313601466911577 -0.11357615909862286
3760000000.0 -0.1671910335842869 0.0565673232801794
3780000000.0 0.1692081809809806 -0.00461543614768701
3800000000.0 -0.014989170009970448 -0.16045123848919993
3820000000.0 -0.14621424107201603 -0.04907515038994771
3840000000.0 -0.062496040680481715 -0.1332403084230478
3860000000.0 0.14755474251066095 0.009375774755854941
3880000000.0 0.13464622645312055 -0.07385644699212142
3900000000.0 -0.06413873220917653 -0.14249048137215387
3920000000.0 -0.09962088659677507 0.12735093220675933
3940000000.0 0.05359701149433737 -0.15766037988504908
3960000000.0 0.1717143522712245 -0.004292959062217395
3980000000.0 0.10419939460063438 -0.138764100586975
4000000000.0 0.09721537192123265 -0.13586365194978373
