! Created with skrf (http://scikit-rf.org).
# Hz S RI R 50.0 
!freq ReS11 ImS11
400000000.0 -0.7637560512089971 0.3709325329178013
420000000.0 -0.36578694090182245 0.7786449771435188
440000000.0 0.6184520594280104 0.5576086066207941
460000000.0 0.7628072385468544 -0.22005826119235603
480000000.0 -0.10771914795820327 0.7263300729670931
500000000.0 -0.3938350778257185 -0.46874106475568006
520000000.0 -0.1727587262496365 0.48259987565433743
540000000.0 -0.27832557065952157 -0.34918862714928467
560000000.0 0.34103397349209197 -0.16473026466497148
580000000.0 -0.13551375807931276 0.31998862211957074
600000000.0 0.30493272604666394 -0.14974559248749103
620000000.0 -0.26959098736216536 0.22265476945338988
640000000.0 -0.28796716099013886 0.21995888980157838
660000000.0 -0.3584955206168965 -0.09499090956596702
680000000.0 0.27689840125155035 0.26304238471047237
700000000.0 0.09833479820664508 0.3899153176029108
720000000.0 0.11055855347608735 0.39432371317313025
740000000.0 -0.27801643286756134 -0.3095099070547971
760000000.0 -0.11917326033306434 0.3873096233916051
780000000.0 -0.18915897348825558 -0.33647545837471976
800000000.0 0.21344646031001244 0.29078091257928323
820000000.0 0.1410992517944321 0.2861012954146244
840000000.0 -0.23562691863462867 0.1363758356643205
860000000.0 -0.15103913181060605 0.1665508074452842
880000000.0 0.059088768068687784 -0.16670439952400973
900000000.0 0.11463332410684723 -0.004577723799878292
920000000.0 0.0690034494395947 0.01645369741975049
940000000.0 -0.024285539900842444 0.05499045323622654
960000000.0 0.012354823499080708 0.06830850406899523
980000000.0 -0.05073416927343764 0.06832249727581217
1000000000.0 0.05157296372473637 -0.07035689414271824
1020000000.0 -0.0970618624618428 0.017177261936163694
1040000000.0 0.010433710224983508 -0.10144726323745575
1060000000.0 0.008779142065311458 -0.13300139595948854
1080000000.0 -0.14050067354079912 0.04250499758771109
1100000000.0 -0.12959361449569756 -0.11100962777838158
1120000000.0 -0.19237079848648855 -0.002285716611056323
1140000000.0 -0.16996710974649828 0.15693255928006553
1160000000.0 -0.19712157191809088 0.18893609784835574
1180000000.0 -0.18152942410010178 0.25783949786096416
1200000000.0 -0.223883799577667 0.27033979968708494
1220000000.0 -0.13070555629069908 -0.35704119145495294
1240000000.0 0.3127019630700602 0.25718284260328156
1260000000.0 -0.2882466683018358 -0.3148184628238863
1280000000.0 0.15850663614233862 0.4107768649866003
1300000000.0 0.25284053062036355 -0.3657678414552929
1320000000.0 -0.30750365832702453 -0.3116204388302492
1340000000.0 -0.04370265533378288 -0.4291186135270892
1360000000.0 0.3329242131884286 -0.26895646886794344
1380000000.0 0.2856727384253726 -0.321376986053416
1400000000.0 -0.29338155217333906 -0.30229565993537527
1420000000.0 -0.3281398641731889 0.2408339524939488
1440000000.0 0.3348737376349119 0.18739143096342012
1460000000.0 0.10978029475206146 -0.3376194540315431
1480000000.0 -0.3125508319784035 0.08679913318462079
1500000000.0 0.16402764201681078 0.2373075583022932
1520000000.0 0.25608011281572046 -0.0025537359230527372
1540000000.0 -0.1841658517030816 0.12781660379590498
1560000000.0 0.02887813392042513 -0.18434689422540101
1580000000.0 0.01348957643199556 0.15596555351046995
1600000000.0 -0.07534868082442889 0.1033268073391533
1620000000.0 -0.0018531169878039482 -0.09949750303588605
1640000000.0 -0.05855453762895591 0.054942629548021184
1660000000.0 0.02189494015187891 -0.05460747025665709
1680000000.0 -0.03683397392393389 0.01729236489864386
1700000000.0 -0.0016910407906267082 0.02923037798823209
1720000000.0 -0.013194873927968549 0.006868021671233492
1740000000.0 0.007483197187803073 0.0034866487634667323
1760000000.0 -0.021880777954826357 -0.0013974210415747105
1780000000.0 0.05450213038189251 0.0032207351793471107
1800000000.0 -0.04806692930875591 0.07914374123092151
1820000000.0 0.11649674079247561 0.0573189324543685
1840000000.0 -0.09908174268524932 0.14280042846132399
1860000000.0 -0.18220193608587512 -0.11883991087119904
1880000000.0 0.11827535206967128 -0.23219868810535077
1900000000.0 0.24247365364239737 0.17958097844522522
1920000000.0 -0.30188604946284214 0.14440599345744984
1940000000.0 0.341653828967044 -0.10942613160502873
1960000000.0 -0.30361901225615334 -0.22393631191848434
1980000000.0 -0.29530370731990374 0.25353668113457656
2000000000.0 -0.30027198142887845 0.2669236017138952
2020000000.0 -0.1833621151639805 0.37057280744480164
2040000000.0 -0.22991047661625338 0.3566521568706151
2060000000.0 0.09190800830291573 0.4223624629313699
2080000000.0 0.33960396081660144 0.2705425606448885
2100000000.0 0.4123219647647334 -0.13527755180218531
2120000000.0 0.08053916233524996 -0.42162842379874865
2140000000.0 -0.3863107346253896 -0.1650721713699046
2160000000.0 -0.31288614361701517 -0.2568263200371253
2180000000.0 -0.3016391670363381 0.24323586287851687
2200000000.0 0.03865304396402701 0.3683139775395503
2220000000.0 0.24823366379316095 0.25472779053759637
2240000000.0 0.3371150462975603 0.0911459937302774
2260000000.0 0.34630598616695996 -0.033865483787973896
2280000000.0 0.2932599957993449 -0.196968120855469
2300000000.0 -0.003132868292040208 -0.36947176156690725
2320000000.0 -0.39701149646303413 0.010128886776289158
2340000000.0 0.2912079124353964 0.3204297625674155
2360000000.0 -0.28218821686750994 -0.38394837026574435
2380000000.0 0.4279012573394991 0.3006452683715097
2400000000.0 -0.55812701059165 -0.12203447215327602
2420000000.0 0.550267597458591 -0.2838782505262482
2440000000.0 -0.22287510006918898 0.6232090142331508
2460000000.0 -0.205582175482831 -0.6652459601378534
2480000000.0 0.39826020256789696 0.6018489523243742
2500000000.0 -0.3489123959525708 -0.6488342032905929
2520000000.0 0.08735314249525444 0.737671407318321
2540000000.0 0.41037633462951995 -0.6169994953879644
2560000000.0 -0.7238668818315631 0.10420127148055966
2580000000.0 0.31937601121274994 0.6378570823822419
2600000000.0 0.3718918218719013 -0.5773234596340681
2620000000.0 -0.6484477159537614 -0.08151080352681511
2640000000.0 -0.6156634655993837 -0.014712793541395661
2660000000.0 0.19779276678286614 0.5359282658142671
2680000000.0 0.38128194845592467 -0.36127941923104395
2700000000.0 -0.4515269131456694 -0.16243833015420917
2720000000.0 0.14458292056822342 0.4090157795198475
2740000000.0 0.25858451033120433 -0.29431036561665824
2760000000.0 -0.352047150836215 0.0452677427890361
2780000000.0 0.31347184593397376 0.09047829156651749
2800000000.0 -0.28181317141412293 -0.11630623221950656
2820000000.0 0.2804183786485912 -0.0796794182083394
2840000000.0 -0.07970059383623396 0.2739194078996819
2860000000.0 -0.2280657962871895 -0.1698425079530368
2880000000.0 0.15180792332249543 -0.2424676247179573
2900000000.0 0.13967790724741597 0.25245072705366406
2920000000.0 -0.11826913007684045 -0.2672846682244988
2940000000.0 -0.09186203350582553 0.28075738373298614
2960000000.0 0.18499466344946472 0.2287085544027277
2980000000.0 0.061704160616023955 0.2890551447198011
3000000000.0 -0.23699674789334899 0.17900408730054154
3020000000.0 -0.054648178150652926 -0.29174210539736234
3040000000.0 0.2255587890272712 0.19252885014604204
3060000000.0 -0.24181060417385308 -0.17136771920398003
3080000000.0 0.24251602424057528 0.17034374984177333
3100000000.0 -0.2930996213904379 0.02797185691539136
3120000000.0 0.20376032294352733 -0.20305078850627545
3140000000.0 0.035865386767955 0.27724033835971973
3160000000.0 -0.26292904998493166 -0.028463021024150277
3180000000.0 0.22999406118878013 0.08869830320669296
3200000000.0 -0.0373818633983208 0.21807664319687511
3220000000.0 -0.19158324713550415 0.017116225569095173
3240000000.0 0.10654080162491998 -0.12000740344809399
3260000000.0 -0.12710687001118048 0.011477048769676415
3280000000.0 -0.032832992912160366 0.09274859452423635
3300000000.0 0.059088156044420324 0.04213162038134351
3320000000.0 0.005052215487184387 0.04772854817074965
3340000000.0 -0.02206236045133315 -0.016900076363090835
3360000000.0 -0.009582487089900135 -0.004752675740857442
3380000000.0 0.004679962750261068 -0.0028343488042069137
3400000000.0 -0.01460177428329788 -0.012941127925013594
3420000000.0 0.03124362444276928 0.011730978301517621
3440000000.0 0.0055099674194643315 -0.04448589556620717
3460000000.0 -0.03630735360625311 -0.03917064982395765
3480000000.0 0.009245172928493165 -0.06305732117686327
3500000000.0 -0.07183885765616217 -0.025101636195520943
3520000000.0 -0.08561736927472338 0.024389801324436015
3540000000.0 0.08610293702407633 -0.05617150379610331
3560000000.0 -0.11526007611957569 0.006051921748793362
3580000000.0 0.0936996213225547 0.09020744521571422
3600000000.0 -0.13291703331734858 0.06906926817698136
3620000000.0 -0.15239866572775604 0.05645085599421506
3640000000.0 -0.13418111496469148 -0.11298755799104498
3660000000.0 -0.13256991805835547 -0.1302599405707756
3680000000.0 -0.07890588068137035 -0.17395608985422484
3700000000.0 -0.021478384363582254 -0.18949191668366175
3720000000.0 0.13176961216815347 -0.1355935817516699
3740000000.0 0.15990776758098896 -0.08992898262668152
3760000000.0 -0.16264150074434505 0.0665912349465213
3780000000.0 0.16111103796488682 -0.039384679606787314
3800000000.0 0.0063756137220204265 -0.15687206995083733
3820000000.0 -0.04658659282050971 -0.14257981623824192
3840000000.0 0.13693292773006693 -0.04643057573336276
3860000000.0 -0.02523009795699902 0.14442220855393578
3880000000.0 -0.011700370806311294 0.1539232270997502
3900000000.0 0.1575563732306412 0.021121910773853666
3920000000.0 -0.16529133314105257 0.009565809369545111
3940000000.0 -0.005091079017251266 -0.1686722237157628
3960000000.0 0.06830569946886894 -0.1575830553439129
3980000000.0 -0.07962201869083912 -0.15159749938197692
4000000000.0 -0.09977413274303208 -0.12878751236737035
