! Created with skrf (http://scikit-rf.org).
# Hz S RI R 50.0 
!freq ReS11 ImS11
400000000.0 -0.7718904548134866 0.3531250943946191
420000000.0 -0.35458979912301297 0.7844201960489625
440000000.0 0.6025594872946227 0.574315251341207
460000000.0 0.7700978938829071 -0.19570861131858772
480000000.0 -0.15184179116932423 0.7191087587339032
500000000.0 -0.4359540610231125 -0.4312332165267444
520000000.0 -0.14319984861573026 0.4913183669121015
540000000.0 -0.2511439114288282 -0.3692317884630412
560000000.0 0.32385833672429765 -0.20050477768087635
580000000.0 0.004052661980884553 0.34714654413309487
600000000.0 0.29358804403570676 -0.17054359590220625
620000000.0 -0.2927454349981904 0.19116505147272284
640000000.0 -0.28023193295208504 0.23100477482330967
660000000.0 -0.3700765408859684 -0.020484935194467153
680000000.0 0.2821786410077101 0.2567302626760779
700000000.0 0.02654677890878342 0.40042142858169305
720000000.0 0.10823233161572211 0.395307720435757
740000000.0 -0.2791962431987938 -0.3074591740827882
760000000.0 -0.10694638513493705 0.3907836092513529
780000000.0 -0.15752930464370254 -0.35181330617514733
800000000.0 0.18495811557137845 0.30997230240327683
820000000.0 0.10911287556427085 0.2998702473411322
840000000.0 -0.2500242297864541 0.10860471129898847
860000000.0 -0.17297085498004602 0.14453160549063093
880000000.0 0.06875345666883435 -0.16388274502841177
900000000.0 0.11071982699112376 0.03353362927102847
920000000.0 0.05856568848115443 0.040821445146424384
940000000.0 -0.04418623362803038 0.041937741416732094
960000000.0 0.012747005196109839 0.06831172752377444
980000000.0 -0.062213658200085266 0.05848254850207455
1000000000.0 0.0668654932046026 -0.05721383265669422
1020000000.0 -0.09439296423557546 0.03259646760762905
1040000000.0 -0.013952555093423595 -0.10190961175485554
1060000000.0 0.019067702654285475 -0.13246492969755608
1080000000.0 -0.13919745434279768 0.047355019833766686
1100000000.0 -0.14469839998356127 -0.09081987872054964
1120000000.0 -0.19154186073040527 0.020443298336330802
1140000000.0 -0.20110476269493666 0.11372089157168132
1160000000.0 -0.19488821245965177 0.19084550136847453
1180000000.0 -0.2048506149325689 0.23954411604582138
1200000000.0 -0.25902985760839004 0.2358405013663524
1220000000.0 -0.08429315822815607 -0.3703225240524806
1240000000.0 0.28096163151299974 0.29134468152860643
1260000000.0 -0.26843885601400064 -0.3318284073947598
1280000000.0 0.13221974565789205 0.41993672865913617
1300000000.0 0.26793952769626117 -0.35518157347043133
1320000000.0 -0.3053820165800936 -0.31379794328759486
1340000000.0 -0.053814950235193275 -0.4280547548330275
1360000000.0 0.31172453435385544 -0.29297477236062786
1380000000.0 0.2767792933987998 -0.3291360011860762
1400000000.0 -0.29549625309294186 -0.30059756145640737
1420000000.0 -0.3294178711752521 0.2394700256917268
1440000000.0 0.3418395702416397 0.17419689537555239
1460000000.0 0.11590526048927866 -0.33580359847175867
1480000000.0 -0.3191781216561764 0.06180783857562351
1500000000.0 0.1441383199236022 0.2506721313475923
1520000000.0 0.2556280260887505 0.02324620886686545
1540000000.0 -0.18609808620014315 0.1250412991376979
1560000000.0 0.039626204128780734 -0.18330407338612106
1580000000.0 -0.019127836988936917 0.15573840883850354
1600000000.0 -0.11160093929426829 0.06232949478380493
1620000000.0 0.03915633907731732 -0.09143016006500729
1640000000.0 -0.07809145346206219 0.015890697743041908
1660000000.0 0.04537202276707327 -0.03649287460073175
1680000000.0 -0.034766610992474814 -0.02004536806474845
1700000000.0 -0.028724409264923624 0.0025098340816683937
1720000000.0 -0.013445169282831928 -0.00492049465510646
1740000000.0 0.005849637288947052 -0.0055729921417754244
1760000000.0 -0.015108347751591988 -0.016234181583713248
1780000000.0 0.037700591888601746 0.03877331043211642
1800000000.0 -0.08155819941861657 0.04234195026369424
1820000000.0 0.07537132318393554 0.10458357336787256
1840000000.0 -0.14023644451238074 0.1010103677336107
1860000000.0 -0.14237443480207046 -0.1631202114902021
1880000000.0 0.16094041345545287 -0.20364013369681144
1900000000.0 0.22286813095251584 0.20251086205145843
1920000000.0 -0.30024636641800395 0.14717144623330086
1940000000.0 0.3345272535492012 -0.1299814838230618
1960000000.0 -0.3275697692217739 -0.1878026463027522
1980000000.0 -0.25878344001092934 0.2913041934390865
2000000000.0 -0.25902112985828746 0.3076341993896216
2020000000.0 -0.11046225063140681 0.399059527064887
2040000000.0 -0.20190150342648402 0.3737062095999464
2060000000.0 0.1723817100010331 0.3964414987075063
2080000000.0 0.375588571465007 0.2188330793931064
2100000000.0 0.41830997688906985 -0.11802068437519786
2120000000.0 0.14365236554439964 -0.4056758000456777
2140000000.0 -0.381397816986891 -0.1790423955928885
2160000000.0 -0.2840055340128167 -0.29050286951340104
2180000000.0 -0.34159295561840575 0.18595781418433055
2200000000.0 -0.00653433634397618 0.3718699238732691
2220000000.0 0.2155346485337932 0.2843865367459325
2240000000.0 0.32305325885806147 0.13515999161449269
2260000000.0 0.3486147317395306 0.0030467718883206703
2280000000.0 0.31432737213286255 -0.162095100210491
2300000000.0 0.0256915746900345 -0.36886959795032453
2320000000.0 -0.39585259254446264 -0.0313403507087597
2340000000.0 0.23450054881430968 0.36365636313439564
2360000000.0 -0.22905851353135673 -0.41723409248823984
2380000000.0 0.39812582988409395 0.33880321881248016
2400000000.0 -0.5543349232517955 -0.13716084568277984
2420000000.0 0.5528777199903617 -0.27797890249311574
2440000000.0 -0.2461410996965366 0.6142718890406018
2460000000.0 -0.19303566117603788 -0.66884021664075
2480000000.0 0.402842608137568 0.598505184683963
2500000000.0 -0.2922470581047652 -0.6766173323209107
2520000000.0 0.017553742174403322 0.7430898015230242
2540000000.0 0.3753933443546391 -0.6391997439327447
2560000000.0 -0.7313328091602853 0.039648552175597054
2580000000.0 0.3321610678062603 0.6325337765279235
2600000000.0 0.4243014323351726 -0.5419316229422235
2620000000.0 -0.63783254246295 -0.15061341717889662
2640000000.0 -0.6167789271127517 -0.03283096104257369
2660000000.0 0.17915384527032926 0.5445591254576516
2680000000.0 0.4284922182894438 -0.30713011449666505
2700000000.0 -0.4440332893057324 -0.18740935473576315
2720000000.0 0.1323451327921449 0.41546679390722324
2740000000.0 0.24977898476061147 -0.30438309169604566
2760000000.0 -0.3518689390607052 0.05814605999946025
2780000000.0 0.31505267832700334 0.09045861347335854
2800000000.0 -0.2780825681064163 -0.12867960868611528
2820000000.0 0.2864920082254419 -0.05693489139915533
2840000000.0 -0.1198343226309066 0.2594547277798035
2860000000.0 -0.20482584661804945 -0.1981272006635003
2880000000.0 0.21081257032279582 -0.19484536255995508
2900000000.0 0.045866243595364294 0.2859778438871794
2920000000.0 -0.05436741993311884 -0.2880603766323472
2940000000.0 -0.12471742356667752 0.2686900252076512
2960000000.0 0.1689584105147787 0.24199413612955567
2980000000.0 0.035224261807635264 0.29429604046027485
3000000000.0 -0.25033712985682327 0.15946585091787807
3020000000.0 -0.07344301459937363 -0.2874191983567538
3040000000.0 0.23157896615916443 0.18456440980891922
3060000000.0 -0.2513236905629484 -0.1567810265979766
3080000000.0 0.24216788898812247 0.17007191295829283
3100000000.0 -0.2940100639574263 0.002341551764881612
3120000000.0 0.21741006008444558 -0.18790641253093732
3140000000.0 0.02783300199711702 0.27823892986259907
3160000000.0 -0.2631842670882939 -0.026112609413083063
3180000000.0 0.23742287781566188 0.06730553353815732
3200000000.0 -0.009748800883886239 0.22157187655232188
3220000000.0 -0.18111451339360335 0.06576285369718166
3240000000.0 0.05803747099551108 -0.14979167019035602
3260000000.0 -0.10365182789030136 0.07457833783987106
3280000000.0 0.06904088512474442 0.0696355709168094
3300000000.0 0.0670041100977759 -0.0273013445550361
3320000000.0 0.04697852374755276 0.007598919961084818
3340000000.0 0.016694605949348428 0.02179476352144274
3360000000.0 -0.009619076183087823 0.004231952560235494
3380000000.0 0.004951837930163486 -0.00305068094316698
3400000000.0 -0.010537721086188433 0.016130968971805278
3420000000.0 -0.0292611604023567 -0.015329138790546233
3440000000.0 0.02532900579774404 0.036966729632262635
3460000000.0 0.0528641301996212 -0.007076947881654749
3480000000.0 0.05869561179989065 0.025832556203133242
3500000000.0 0.019463071562456295 -0.07384872462286682
3520000000.0 -0.06262563755394465 -0.06355394178104018
3540000000.0 0.09659095683330308 0.035274000398533505
3560000000.0 -0.07938510705543178 -0.08378113162332017
3580000000.0 0.016272489962392667 0.12889815164376683
3600000000.0 -0.14657888419284645 -0.028495789571065595
3620000000.0 -0.15499684588444654 -0.04643326519070698
3640000000.0 -0.041895835004836325 -0.16949600143793808
3660000000.0 -0.06224837145809279 -0.17418803231766986
3680000000.0 -0.005575863312738338 -0.1898678070147075
3700000000.0 0.04864159897788172 -0.18321388156504803
3720000000.0 0.16934746403163262 -0.08128004096675041
3740000000.0 0.1771918354358165 -0.04275165892177547
3760000000.0 -0.17256634620168293 0.02568673690317185
3780000000.0 0.16426524379353585 -0.01048337911911813
3800000000.0 0.013341988357579678 -0.15512992216996668
3820000000.0 -0.04467418727206569 -0.14130602619403482
3840000000.0 0.1284690070155544 -0.06215915397960608
3860000000.0 -0.02710514797902792 0.14212209414064914
3880000000.0 -0.031901508882091915 0.14905027001349233
3900000000.0 0.1527842737347157 0.03704735624143264
3920000000.0 -0.1640331981527488 -0.0035748812053607347
3940000000.0 0.004205707241189531 -0.16711905128578686
3960000000.0 0.08967231074888168 -0.14521880651762487
3980000000.0 -0.07152690538146424 -0.15432650513791937
4000000000.0 -0.11164051608043198 -0.11729854471577657
