! Created with skrf (http://scikit-rf.org).
# Hz S RI R 50.0 
!freq ReS11 ImS11
400000000.0 -0.8538964485855463 -0.07187789659604012
420000000.0 -0.10386309643261411 0.8555667041165216
440000000.0 0.7797331104060357 0.2898165273805577
460000000.0 0.7805702058598868 -0.05049087363150544
480000000.0 -0.22165209023822177 0.69018368286318
500000000.0 0.5673535416803882 -0.19522119677337949
520000000.0 -0.41079285394126464 -0.3274457067569699
540000000.0 -0.19649515100725018 -0.4045647097519506
560000000.0 -0.02792793096011745 0.39847440216035174
580000000.0 -0.14462365361475502 0.31870383612759207
600000000.0 0.10176871112165549 0.346753419492254
620000000.0 0.1371229140340969 0.33708534224436004
640000000.0 -0.2752914936391498 0.24570771638104813
660000000.0 -0.005303918535348495 0.3859272328134748
680000000.0 0.18560091952022909 -0.3418878951672381
700000000.0 0.26764162499949345 -0.3076313620188726
720000000.0 0.37901599514446277 -0.1409073988114892
740000000.0 -0.4068202128750001 0.09216717123640669
760000000.0 0.3937304614431161 -0.05125390222446406
780000000.0 -0.18560392165350684 -0.3242220113473073
800000000.0 0.11432504152136151 0.32350865985227417
820000000.0 -0.1258465442108667 -0.2725018602147456
840000000.0 0.1364725797376008 0.22819352407433335
860000000.0 0.03358334249512467 0.21503089114150895
880000000.0 0.1777147717524825 0.007227541499908882
900000000.0 -0.07641058741111843 -0.08880726544932578
920000000.0 -0.07439447384142096 -0.008630069719764497
940000000.0 -0.06204247554671345 0.010213238605530951
960000000.0 -0.06584381204942623 0.016842501353600717
980000000.0 0.0549033639686249 -0.062282706538997576
1000000000.0 -0.012080701792304926 -0.09431615412165387
1020000000.0 -0.0656067282550332 0.0824435796548467
1040000000.0 0.033326127394547496 -0.11601067922052953
1060000000.0 0.11095844522049976 0.09587176264174495
1080000000.0 -0.16710747291251407 0.010060131153851676
1100000000.0 0.17695387462796702 0.04134605942063318
1120000000.0 0.20410111795936728 -0.005524229544723664
1140000000.0 -0.22922891928921504 -0.0523436865579322
1160000000.0 0.12675811131940887 -0.23577721868704202
1180000000.0 0.19737781070095944 -0.2332208713700329
1200000000.0 0.051704313745810096 0.3286042220852872
1220000000.0 -0.21565754599187664 -0.29490213883568517
1240000000.0 -0.1225567492570173 0.36781493138679916
1260000000.0 0.3697859394550886 -0.19924750947522574
1280000000.0 -0.43363283066362823 0.029391474625055872
1300000000.0 0.23471453095148637 0.3838174288878437
1320000000.0 0.2946825409825537 -0.3369525504699314
1340000000.0 0.32296957027408835 -0.30951470606113674
1360000000.0 0.1173014236581586 -0.42704214803357576
1380000000.0 -0.1738606433617331 -0.4069501672079618
1400000000.0 -0.15662885904710938 0.3977128005940211
1420000000.0 0.3830421360428697 0.13645445303894277
1440000000.0 -0.1507367735195264 -0.34729523271669416
1460000000.0 -0.33785343811220403 -0.0498966097610923
1480000000.0 -0.19905955953135548 0.23370586811853036
1500000000.0 -0.208684096121176 0.17605142191248122
1520000000.0 -0.2431394616794847 0.006808137866880192
1540000000.0 0.08013699309800663 0.20372434978970863
1560000000.0 -0.020307000799411057 -0.1911544175575943
1580000000.0 0.12453938552518755 0.11651917180270206
1600000000.0 0.0786779019397804 -0.12412603561201928
1620000000.0 -0.03287754344613964 -0.1152433782034538
1640000000.0 0.05005259986562747 -0.08404383043880084
1660000000.0 -0.07520667250268807 -0.0060958831603340055
1680000000.0 -0.038354391567245835 0.03736867310742988
1700000000.0 0.03107302361817759 0.016966487871017573
1720000000.0 -0.01618130232137919 0.007423825258613687
1740000000.0 0.005692960752896219 0.012085984776361351
1760000000.0 -0.03443391835612708 0.009662119084299276
1780000000.0 0.032241813117513944 0.06236315584605549
1800000000.0 -0.08444731587869772 -0.0709125923873616
1820000000.0 -0.03367571817791179 -0.14370408657016476
1840000000.0 0.0738829531914537 -0.1702746072434331
1860000000.0 0.19093602407018564 -0.11359080696279003
1880000000.0 -0.10489745239006032 0.23089552705919314
1900000000.0 0.14729811977854187 -0.24798284093489692
1920000000.0 -0.12229923920341389 0.2907550090731327
1940000000.0 0.29394555106008474 0.17038956179544767
1960000000.0 0.24654768641666794 -0.2669302143377967
1980000000.0 0.01867745650796327 -0.38066070207337716
2000000000.0 -0.07362567940711412 -0.39451900255265515
2020000000.0 -0.35293653134949704 -0.22312097890019622
2040000000.0 -0.4277917603595148 0.05734956367249376
2060000000.0 -0.06216354715462465 0.43469227822204065
2080000000.0 0.387961907481106 0.21333230899663064
2100000000.0 0.22668788752714267 -0.37562302919563256
2120000000.0 -0.29375054954327684 -0.31556975996775727
2140000000.0 -0.27745053629318883 0.31164928593329927
2160000000.0 -0.3932471908633228 0.06932328590441428
2180000000.0 -0.16887912723378162 0.3394713148737428
2200000000.0 -0.02690210665991988 0.36008263884129965
2220000000.0 -0.03844242873890609 0.34564387698704735
2240000000.0 -0.06440911360183406 0.3375547328921994
2260000000.0 -0.051859999222280295 0.34380877155049405
2280000000.0 0.1495881646929911 0.32156558660556583
2300000000.0 0.36642361706517 -0.06888803364373801
2320000000.0 -0.16379072186870994 -0.3630490319733956
2340000000.0 -0.22336423214163273 0.37016825522724045
2360000000.0 0.341844772066367 -0.3236863916585962
2380000000.0 -0.41459848434782587 0.30774688048069343
2400000000.0 0.3788348921773247 -0.4191116680886898
2420000000.0 -0.08230708256230108 0.6090809405704923
2440000000.0 -0.41424199912161247 -0.5138944923167741
2460000000.0 0.6836402046890787 0.1349308916375497
2480000000.0 -0.6835067687149254 0.24024384983950176
2500000000.0 0.7072555085213699 -0.22526607399727253
2520000000.0 -0.742175026289934 0.11420765947542773
2540000000.0 0.7086372381762448 0.2507828146404252
2560000000.0 -0.3271550842981741 -0.6693939210794732
2580000000.0 -0.3565177803305225 0.6361547545200301
2600000000.0 0.6978221670237966 -0.10084717289189575
2620000000.0 -0.45542859948454134 -0.497145427598782
2640000000.0 -0.5904721709310512 -0.23967720982742952
2660000000.0 0.07143795818234767 0.5877696288561391
2680000000.0 0.45111088693748636 -0.30887498786491724
2700000000.0 -0.43813846625529485 -0.24179866722704477
2720000000.0 0.09392637274159676 0.44552371697785853
2740000000.0 0.29598118002817936 -0.2881180604681469
2760000000.0 -0.3737937596505175 0.04420296449515481
2780000000.0 0.33355296151735 -0.0925109657353593
2800000000.0 -0.29930233276196444 0.11709668828419303
2820000000.0 0.12059610889057433 -0.2793418846106408
2840000000.0 0.16064254909138995 0.24590539049057036
2860000000.0 -0.2882026865920018 -0.012082725733268192
2880000000.0 0.1422128014455954 -0.2490992763304771
2900000000.0 -0.0020784247570510084 0.28677170754329767
2920000000.0 0.2270015548983943 -0.1815211170686483
2940000000.0 -0.26904523788694734 -0.1232043689040026
2960000000.0 -0.19357441584509671 0.22784569160570128
2980000000.0 -0.0771610199118456 0.29223767438682746
3000000000.0 -0.25326888895921323 0.17129783065714058
3020000000.0 -0.2585001032729923 -0.16330656231231377
3040000000.0 0.21803414372001143 -0.21070877536159774
3060000000.0 -0.07740373092168305 0.2911694319417656
3080000000.0 0.030344634503359662 -0.29549425539805974
3100000000.0 0.11374500319521381 0.26986184843242417
3120000000.0 -0.1010141778430174 -0.26597087431375876
3140000000.0 0.21921683604444975 0.1686355730964622
3160000000.0 -0.2626379493505803 0.020209103876438973
3180000000.0 0.17287061281654736 0.17774588207014846
3200000000.0 -0.17694915183629156 0.14228069579595534
3220000000.0 -0.15022361283605346 -0.13474441107195664
3240000000.0 0.058331814336524714 -0.16287416181410938
3260000000.0 0.1136672265806435 0.08115905218025887
3280000000.0 -0.0889142623163639 0.05891688895646072
3300000000.0 0.028833350190918535 -0.06913715770380077
3320000000.0 -0.045899539363486556 -7.61496123999693e-05
3340000000.0 0.021730122639451656 0.0013289358734084537
3360000000.0 -0.0031668044953060055 0.0025593239166874413
3380000000.0 -0.002933024900978955 0.010420715003032044
3400000000.0 0.012727342348783574 0.01451652331474146
3420000000.0 0.016673394139510016 -0.02245773397097678
3440000000.0 0.03854990530448456 -0.0005544451066275525
3460000000.0 -0.029016010607969267 -0.03924208541467817
3480000000.0 0.0005961165245684207 -0.06485752377634883
3500000000.0 -0.07866383244686764 0.02336830840083606
3520000000.0 -0.04683997471725935 -0.08733673062616347
3540000000.0 0.027158624725079024 -0.10892871554371154
3560000000.0 0.12299650418783686 -0.003813869926090825
3580000000.0 -0.1307317965276876 -0.022144736361114317
3600000000.0 0.14151060045353192 -0.04668232380665702
3620000000.0 0.02037479191246841 0.15659955059694475
3640000000.0 -0.16222727965759426 -0.05387674774087208
3660000000.0 0.08230105176519711 -0.16206587882390155
3680000000.0 0.18878543283057925 -0.02755838212534986
3700000000.0 0.1915586789461331 0.030250136053570957
3720000000.0 0.17523920571143836 0.08923315375382207
3740000000.0 0.17515416592891658 -0.07868712277318052
3760000000.0 -0.03040473988967892 0.1805279116995511
3780000000.0 -0.11356429757523552 -0.12681949218116398
3800000000.0 -0.14577975716753497 0.054536156623477355
3820000000.0 -0.13215016207894908 -0.05913877064983196
3840000000.0 0.05174364851521952 0.12833329623374498
3860000000.0 0.010218049111088319 -0.14423063725306687
3880000000.0 0.026830547719868675 -0.15490427127992767
3900000000.0 -0.015344698168929255 0.16505765927384156
3920000000.0 -0.139813623348179 -0.10243552722361435
3940000000.0 -0.08288496487844312 -0.15675826142309923
3960000000.0 -0.08366077675220583 -0.15691943506394243
3980000000.0 -0.16165511114861625 0.06198386922828359
4000000000.0 -0.1509294733745616 -0.05267215254994575
