! Created with skrf (http://scikit-rf.org).
# Hz S RI R 50.0 
!freq ReS11 ImS11
400000000.0 -0.8558251906386182 -0.06652539392165867
420000000.0 -0.08710825108684951 0.8569851708396361
440000000.0 0.7754431439675668 0.2996502303810268
460000000.0 0.7814347434148363 -0.03130419953549088
480000000.0 -0.22464512924658325 0.6891093038421113
500000000.0 0.5446605299822719 -0.25062188729764423
520000000.0 -0.41748723836244117 -0.31739533443966544
540000000.0 -0.14884955475026776 -0.4249024118281754
560000000.0 0.002317490237881029 0.40000164189555737
580000000.0 -0.1412127605878194 0.3194553398788707
600000000.0 0.060287775421691406 0.35497337059107203
620000000.0 0.06453929662158016 0.35760234610095404
640000000.0 -0.2925050986757384 0.226287814273946
660000000.0 -0.028224528652605052 0.3843952513045151
680000000.0 0.22042630909285593 -0.31925803439087647
700000000.0 0.2800756550221179 -0.2954466694862045
720000000.0 0.37865678412676723 -0.14170293072337795
740000000.0 -0.3972086319070141 0.12265934879875402
760000000.0 0.3897511388519517 -0.07818194698900144
780000000.0 -0.2009233072332805 -0.31471909912364315
800000000.0 0.1122613428616171 0.3248991713730916
820000000.0 -0.14465761429664303 -0.26318983653237715
840000000.0 0.16963906333344933 0.2048064334836063
860000000.0 0.07317005460390098 0.20532997109725884
880000000.0 0.17824358503312643 -0.010528954595213472
900000000.0 -0.07165824219442796 -0.09325749823297232
920000000.0 -0.07334136879376947 -0.013007982801745557
940000000.0 -0.06175492121658724 0.010421822867933092
960000000.0 -0.035995887123153165 0.05750398220174219
980000000.0 0.049480270202505165 -0.06687662034296242
1000000000.0 -0.00043337278356499355 -0.09539403010916565
1020000000.0 -0.07603603993591007 0.07382857097120789
1040000000.0 0.054571424191929556 -0.10782806928095169
1060000000.0 0.07909593551234771 0.1230939946316944
1080000000.0 -0.16555363117848937 -0.02072179981783703
1100000000.0 0.1788875696356645 0.029969800992010652
1120000000.0 0.20330251431841007 -0.01092904095185292
1140000000.0 -0.2342629564837064 -0.007807057463204491
1160000000.0 0.1068101610429781 -0.24475396193741378
1180000000.0 0.16299899267571746 -0.25843943449815254
1200000000.0 0.10582167091332217 0.3159365372653904
1220000000.0 -0.26456666301335446 -0.2525671216626259
1240000000.0 -0.11615982976345911 0.37015998369370073
1260000000.0 0.34259424499214763 -0.2433241836232147
1280000000.0 -0.4295735614468619 0.06497531417150723
1300000000.0 0.2501023686402729 0.37404379740463833
1320000000.0 0.2807742274195263 -0.3486140426829877
1340000000.0 0.32361094519758243 -0.30889225329593495
1360000000.0 0.123980603498541 -0.42494692350345054
1380000000.0 -0.15997843822586763 -0.4123677602572752
1400000000.0 -0.18033181578037644 0.387190106106579
1420000000.0 0.3634779851430743 0.1815964272557484
1440000000.0 -0.11704287946743445 -0.35918955681181375
1460000000.0 -0.3305270471782788 -0.08299077865512387
1480000000.0 -0.2120152175575731 0.22132756428802197
1500000000.0 -0.21148486805825453 0.17160732619824104
1520000000.0 -0.24233747785182258 0.004713454241154596
1540000000.0 0.08083441740106563 0.20296032842617967
1560000000.0 -0.04501124614098845 -0.18672236859359947
1580000000.0 0.16020681533203646 0.056257168842271194
1600000000.0 0.05988222042229814 -0.13444727918247654
1620000000.0 -0.06881476326521589 -0.09864685956442235
1640000000.0 -0.02139458618939335 -0.09630066712148878
1660000000.0 -0.05455050996417084 0.05213408618438213
1680000000.0 -0.001375407865279737 0.054158458933821256
1700000000.0 0.022152882482753735 0.028167984880650754
1720000000.0 -0.0028685145475395575 -0.01741598403388689
1740000000.0 0.005750857674268369 0.011967936410760306
1760000000.0 0.014469275019810806 0.032418263571133935
1780000000.0 0.06723288656233194 0.020487227919074476
1800000000.0 -0.1101289147577643 -0.00959468202164037
1820000000.0 -0.10097591786880157 -0.10844634761652618
1840000000.0 0.02697333301889608 -0.18379924900682226
1860000000.0 0.1620338132366308 -0.15189339683490014
1880000000.0 -0.0675629332700372 0.24427139613000834
1900000000.0 0.1543802183125011 -0.24364494616650573
1920000000.0 -0.16017926426955137 0.27155998138306864
1940000000.0 0.2615097794243281 0.21617722085834085
1960000000.0 0.28953026029093154 -0.21856816033538504
1980000000.0 0.07493913779033932 -0.37312012454800675
2000000000.0 -0.05070018790977879 -0.39795713347684875
2020000000.0 -0.3465185111518846 -0.23325055402639214
2040000000.0 -0.41908229842903244 0.10281500493529261
2060000000.0 -0.0051609231919041345 0.4389683083395137
2080000000.0 0.41943370458319035 0.1407100148973232
2100000000.0 0.1729174529952188 -0.4029569184458452
2120000000.0 -0.3185878662185802 -0.28971880472982475
2140000000.0 -0.26431097853451313 -0.3218579921957016
2160000000.0 -0.3660824256334151 0.1589039817497682
2180000000.0 -0.1456664296659719 0.35027469334167616
2200000000.0 -0.02984007610507351 0.35925667419407975
2220000000.0 -0.05461697689837625 0.34392515750134856
2240000000.0 -0.0775359106103443 0.33505627174582747
2260000000.0 -0.08439948147748776 0.33772687625187153
2280000000.0 0.11760938523365524 0.3352091458406557
2300000000.0 0.3714005086357283 -0.035320965180054925
2320000000.0 -0.1262591959368111 -0.3773839387684573
2340000000.0 -0.26790361934814083 0.33799224234764935
2360000000.0 0.3690106298162806 -0.2907882522540852
2380000000.0 -0.43871824314353364 0.27105449519304736
2400000000.0 0.4121884386300883 -0.38562138349459035
2420000000.0 -0.15049503434675338 0.5958191651205151
2440000000.0 -0.3511172100296817 -0.5588985088567303
2460000000.0 0.6683454024882713 0.19733842440367705
2480000000.0 -0.7078599066284722 0.1599349146923846
2500000000.0 0.7098541152016581 -0.22060550686189198
2520000000.0 -0.7521329462871169 0.017244645616328918
2540000000.0 0.6649466065447712 0.354171089980834
2560000000.0 -0.25195091019715204 -0.7025270442462066
2580000000.0 -0.4992635633429451 0.5327030207991283
2600000000.0 0.7049481043642537 0.015957085415348068
2620000000.0 -0.39647504774907866 -0.5455542724742289
2640000000.0 -0.5847754463865367 -0.25295693807597547
2660000000.0 0.04208384832054802 0.5908111219038183
2680000000.0 0.4892285895446594 -0.24351271447905462
2700000000.0 -0.39820427785688334 -0.3031111665454321
2720000000.0 0.05735413775583803 0.45154877393917653
2740000000.0 0.2912500041580015 -0.29283818846464726
2760000000.0 -0.36842219230541756 0.07844953169641852
2780000000.0 0.3249697012562956 -0.11955897814703131
2800000000.0 -0.2863582806119467 0.14598018973776963
2820000000.0 0.08629340589259163 -0.29205258090075487
2840000000.0 0.18915672156336513 0.22549505409247442
2860000000.0 -0.2879664824713277 0.027392827747577654
2880000000.0 0.13559694343765047 -0.25371636595586006
2900000000.0 -0.03741802475321261 0.2848078207701716
2920000000.0 0.23604527754579424 -0.1703241469863837
2940000000.0 -0.26910924698762595 -0.12431555541553142
2960000000.0 -0.21615525305746913 0.20606544541136124
2980000000.0 -0.1068625601874611 0.28254228488103444
3000000000.0 -0.27183256942242406 0.1380386810298706
3020000000.0 -0.26555523563278544 -0.15115476261452304
3040000000.0 0.26499686227756164 -0.14416694951818224
3060000000.0 -0.11188486795221496 0.27878027531226723
3080000000.0 0.0237631373715476 -0.29548182474723417
3100000000.0 0.06960747115696063 0.2832553531094726
3120000000.0 -0.1269358621715322 -0.2541556938368658
3140000000.0 0.22583146043899247 0.1599807240809646
3160000000.0 -0.25840679572848807 0.049164819272113254
3180000000.0 0.1880867868364521 0.16085924037826407
3200000000.0 -0.14820966113755746 0.17076897550768882
3220000000.0 -0.16514536395948518 -0.11497237467663812
3240000000.0 0.039950835695294416 -0.16777103775234312
3260000000.0 0.12718990953104878 0.05619623870360149
3280000000.0 -0.07681142659322296 0.07366075309845228
3300000000.0 0.02401190118798981 -0.07133593603142381
3320000000.0 -0.04624714077109153 -0.003906154954295922
3340000000.0 0.017205604087980816 -0.012978745698991063
3360000000.0 0.0032692902639527483 -0.0023460294881432614
3380000000.0 -0.006736739866461698 -0.00750437506623164
3400000000.0 0.018860620555267812 0.00286859167173193
3420000000.0 0.01971834202170954 -0.020038322083109985
3440000000.0 0.03536103687812148 -0.015836369620034995
3460000000.0 -0.044270601403131826 -0.023837779528069
3480000000.0 -0.01198645143265796 -0.06503699625980726
3500000000.0 -0.039953296730960146 0.07299462732715492
3520000000.0 -0.09745321714185438 -0.021270636962304038
3540000000.0 -0.023503332773687123 -0.11138327478668167
3560000000.0 0.12177567177143979 -0.02270628270374042
3580000000.0 -0.11220013467773247 -0.0722139066712296
3600000000.0 0.14610753794697073 0.0318052695754422
3620000000.0 -0.041241128308327143 0.15342281961436
3640000000.0 -0.1435281078379021 -0.09355917579519385
3660000000.0 0.07288191899236698 -0.16843119380191296
3680000000.0 0.19003786992377442 -0.03574987992944801
3700000000.0 0.19583172856454234 0.0025875201109308845
3720000000.0 0.17808628805385562 0.08733082841992691
3740000000.0 0.17898079839100145 -0.071893427620972
3760000000.0 -0.0374040487808648 0.18028932746890738
3780000000.0 -0.12725348352910168 -0.11411746716982864
3800000000.0 -0.14455312920582308 0.05921808840701764
3820000000.0 -0.1066514900310501 -0.09911282724246585
3840000000.0 -0.004818495343674885 0.139575324076193
3860000000.0 0.014404740368717571 -0.14451657665673004
3880000000.0 -0.019336378360389005 -0.15659916100578433
3900000000.0 -0.053741638216120526 0.15785363839038924
3920000000.0 -0.11937868485851215 -0.12555356371330537
3940000000.0 -0.10845724684037668 -0.13916385036760862
3960000000.0 -0.12060835361270016 -0.12871736329663955
3980000000.0 -0.10410436496978887 0.13581025922432227
4000000000.0 -0.13539547290759943 0.08132584740305429
