! Created with skrf (http://scikit-rf.org).
# Hz S RI R 50.0 
!freq ReS11 ImS11
400000000.0 -0.7604701081142591 0.37812871466579473
420000000.0 -0.365446374036602 0.7792235766157181
440000000.0 0.5959528501679286 0.5810184689705545
460000000.0 0.7771403915852068 -0.1663896227488664
480000000.0 -0.12941500853747082 0.7233594104197921
500000000.0 -0.40967887197343217 -0.4549719900835242
520000000.0 -0.1838481659913841 0.4788075378035117
540000000.0 -0.2670915002212324 -0.3589247030123017
560000000.0 0.32283989076422676 -0.19982770904007296
580000000.0 -0.0816288699709751 0.3374566941557177
600000000.0 0.2976749474468255 -0.16492218508315418
620000000.0 -0.28315012303489806 0.20527178614730596
640000000.0 -0.29949151857837125 0.20551696748583703
660000000.0 -0.3563868622451682 -0.1012363626978927
680000000.0 0.2788865414540639 0.26082282021302344
700000000.0 0.06388235000118347 0.3964968769234023
720000000.0 0.11438773834208393 0.39360202282360884
740000000.0 -0.25633820020225706 -0.3269970926654577
760000000.0 -0.11504044173295527 0.38842598662756006
780000000.0 -0.17701761990793577 -0.34250665055082913
800000000.0 0.2261836758373399 0.2813127045622237
820000000.0 0.12413048138548409 0.2938172297120591
840000000.0 -0.2384355684153839 0.13140807387901982
860000000.0 -0.14841699188968888 0.16914370298618378
880000000.0 0.05035955620956167 -0.17051691052891307
900000000.0 0.1150441065610481 -0.004091833394301779
920000000.0 0.06344004037754447 0.03306556517008731
940000000.0 -0.04770450377700961 0.036511428050634356
960000000.0 0.03715111038858477 0.05873458926788773
980000000.0 -0.048098651131569574 0.07041451150398378
1000000000.0 0.061059327549119045 -0.06284966170434508
1020000000.0 -0.09869035491875602 0.012353783934241202
1040000000.0 -0.00011188177116548297 -0.10228802803087927
1060000000.0 0.023981749528052074 -0.13126345725682825
1080000000.0 -0.1409662753498014 0.0415716715556974
1100000000.0 -0.13718508931687254 -0.1019690913190841
1120000000.0 -0.1925969287972882 -0.002475407992184731
1140000000.0 -0.17762678061142217 0.14857256190325643
1160000000.0 -0.21353772383584183 0.16977555347573056
1180000000.0 -0.1951746498710611 0.247381714723477
1200000000.0 -0.24908581039985758 0.24662622855202587
1220000000.0 -0.1103024034743987 -0.36352101511506096
1240000000.0 0.2924077706321378 0.2795021884214259
1260000000.0 -0.2567442693477435 -0.340571437831442
1280000000.0 0.13153791738088558 0.41994418301044717
1300000000.0 0.2556180574505013 -0.363925635560391
1320000000.0 -0.30979648459348574 -0.3091087132408407
1340000000.0 -0.04135562539260283 -0.4293165909270263
1360000000.0 0.32737178120782046 -0.275190528294575
1380000000.0 0.2701993127486572 -0.3345010099945413
1400000000.0 -0.2980751281684671 -0.2978372506899463
1420000000.0 -0.32355721960268286 0.2471492214538299
1440000000.0 0.33781357361579517 0.18286725122621275
1460000000.0 0.10888716183678779 -0.33826135097335713
1480000000.0 -0.3185321574061619 0.06446997425075215
1500000000.0 0.1482029571156068 0.24832177809862704
1520000000.0 0.2556071441120906 0.02411393332679164
1540000000.0 -0.19650418043763862 0.10906040171992082
1560000000.0 0.046864785634641797 -0.18132482007775372
1580000000.0 -0.03557515436768748 0.15303484301494266
1600000000.0 -0.11027541194377655 0.06498401304822307
1620000000.0 0.036629181042281085 -0.09241155323380994
1640000000.0 -0.07789877689971181 -0.016886215042540047
1660000000.0 0.049482315029790266 -0.03062027194478135
1680000000.0 -0.039198746730712504 -0.009100283959940437
1700000000.0 0.0014330329918478151 0.028875476772206872
1720000000.0 -0.012045990937379165 0.008065784714944443
1740000000.0 0.007843235702082132 0.0007881558728391378
1760000000.0 0.0037304519470581065 -0.021784541395076577
1780000000.0 0.022365969755775494 0.04935950128787027
1800000000.0 -0.08450993288241967 0.03680703609081701
1820000000.0 0.09230911015861391 0.09060946058937042
1840000000.0 -0.12680375902843263 0.11779949526339566
1860000000.0 -0.16143815911841833 -0.14441833968786313
1880000000.0 0.1434747111075344 -0.21653106059823612
1900000000.0 0.23417139516016477 0.1891229451269597
1920000000.0 -0.2962387580690197 0.15483368146635135
1940000000.0 0.3355600795403608 -0.12559614952521755
1960000000.0 -0.320690787500968 -0.19855195045227772
1980000000.0 -0.2741096810996044 0.2765365626529909
2000000000.0 -0.27380016655584183 0.29433323138000145
2020000000.0 -0.15455334560151177 0.3840458140413616
2040000000.0 -0.2001037045225698 0.37456908317840587
2060000000.0 0.1424119656947092 0.4084055109479125
2080000000.0 0.34680070848608613 0.2623802164429353
2100000000.0 0.41634119594173835 -0.12510509845981557
2120000000.0 0.1216186180799001 -0.41253618485991567
2140000000.0 -0.3872471597409084 -0.16489364348150545
2160000000.0 -0.2798266305146367 -0.29389711882238334
2180000000.0 -0.34584519110660383 0.17708238084368805
2200000000.0 -0.0059521373386603234 0.37121742213007564
2220000000.0 0.20477018662345858 0.2919023442576083
2240000000.0 0.32748181345771116 0.12298046675724165
2260000000.0 0.3470547751977875 0.02816065781855515
2280000000.0 0.3321863383194224 -0.11970409117450527
2300000000.0 0.07025841408589655 -0.3619931221301643
2320000000.0 -0.38983310182584646 -0.07219001813370003
2340000000.0 0.242492844096135 0.35828456995401436
2360000000.0 -0.22577385640094422 -0.4187620188563224
2380000000.0 0.37908945560498974 0.35913292265255314
2400000000.0 -0.5340702347304842 -0.20077791281366897
2420000000.0 0.5721849396829369 -0.23441641747662476
2440000000.0 -0.3234457916334749 0.5768505234449989
2460000000.0 -0.10407224595897042 -0.6882081806790539
2480000000.0 0.3593388481534942 0.6250559228555929
2500000000.0 -0.19162707075176494 -0.7117316028972914
2520000000.0 -0.1235833254214621 0.7331544545233237
2540000000.0 0.4636856150433195 -0.5785306554656884
2560000000.0 -0.7316337959391417 -0.03950010912080929
2580000000.0 0.25669259347591594 0.6671192151623421
2600000000.0 0.46748002672298306 -0.5058813016196987
2620000000.0 -0.6224108491122543 -0.2071067796848181
2640000000.0 -0.6116942917735603 -0.09047002120089845
2660000000.0 0.1428963609337891 0.5557506006085396
2680000000.0 0.4375880406859374 -0.2952488220662352
2700000000.0 -0.43889908318661464 -0.20104450446961658
2720000000.0 0.11112999852405098 0.42240862058725986
2740000000.0 0.2651450463936332 -0.2922128567540136
2760000000.0 -0.35547029640290523 0.038103642723979994
2780000000.0 0.31437067719485384 0.09522488757233226
2800000000.0 -0.2729396643790778 -0.1402525447556657
2820000000.0 0.29072281162378244 -0.03898507548472015
2840000000.0 -0.10052424780042091 0.2680836696320857
2860000000.0 -0.20717512425598897 -0.19644895811723798
2880000000.0 0.1941802300810139 -0.21179174237937007
2900000000.0 0.06650507101585748 0.2823667787088988
2920000000.0 -0.03205183271005773 -0.2920655938228001
2940000000.0 -0.17282049510147135 0.24043910587592454
2960000000.0 0.15065038568535125 0.25316784688921423
2980000000.0 0.03431450997085388 0.2952458359792818
3000000000.0 -0.2607167623589148 0.14354908631625382
3020000000.0 -0.036524379577386315 -0.2945702248197943
3040000000.0 0.21609225312337535 0.2035259389464913
3060000000.0 -0.25392258495211034 -0.15360496078025382
3080000000.0 0.24651274582029548 0.16414564045603544
3100000000.0 -0.29358349336925416 0.018357470422295304
3120000000.0 0.1974165582038449 -0.20957749633885334
3140000000.0 0.07166574208955147 0.27048762962081674
3160000000.0 -0.26468186704753677 -0.00401698312861143
3180000000.0 0.2386691412658124 0.06228748956623624
3200000000.0 -0.005223142161309087 0.22161453771137138
3220000000.0 -0.17965738778355952 0.069966269950266
3240000000.0 0.05252547831176133 -0.15185323186211974
3260000000.0 -0.10080481886486167 0.07854598361574998
3280000000.0 0.04811597081568066 0.08596479377012081
3300000000.0 0.06091811271966003 -0.039980002819648065
3320000000.0 0.03964602576033193 -0.02711053437624401
3340000000.0 0.024474508222803882 0.013020495360855217
3360000000.0 -0.005486860978184358 -0.009125790636344076
3380000000.0 -0.0033119948429346283 -0.004777246688954044
3400000000.0 -0.013890031117252108 0.013174788372154576
3420000000.0 -0.03177384962828074 -0.009542219526337476
3440000000.0 0.03081453568796262 0.03233645335746199
3460000000.0 0.05155360465870012 -0.01330577249416509
3480000000.0 0.057201902911169666 0.02869885273113198
3500000000.0 0.012466785087020694 -0.07532567209092873
3520000000.0 -0.06124538127179068 -0.06463320405524105
3540000000.0 0.09112345142114817 0.047197809294826296
3560000000.0 -0.08708819614092185 -0.07582588950666357
3580000000.0 0.011923369892812232 0.12917008494018092
3600000000.0 -0.14539286290215941 -0.03189998082594427
3620000000.0 -0.16144436779947266 -0.013479323648278915
3640000000.0 -0.04559242901528776 -0.16807234070763793
3660000000.0 -0.07652400061147462 -0.16863849387925714
3680000000.0 -0.026099183827578733 -0.18843829618682964
3700000000.0 0.030195539084967908 -0.18728788489547213
3720000000.0 0.15623397058177144 -0.10421811249500477
3740000000.0 0.16646922304772788 -0.07506177725027742
3760000000.0 -0.16672557948733358 0.05353324342188178
3780000000.0 0.16051266630913008 -0.03700218564887075
3800000000.0 -0.00874648273118189 -0.15581535654569556
3820000000.0 -0.07058696465059856 -0.1304970174144762
3840000000.0 0.11971773825673926 -0.077752163690575
3860000000.0 -0.005114638635491442 0.1447591880878992
3880000000.0 -0.008440136631346318 0.1526223276321286
3900000000.0 0.15734241726726125 0.0029872363820650266
3920000000.0 -0.16336590448527916 0.013096058098617762
3940000000.0 -0.02421794756023341 -0.16553526516532827
3960000000.0 0.0542906922314175 -0.16142575971125386
3980000000.0 -0.09581993789857507 -0.1402578007160389
4000000000.0 -0.13123939753096797 -0.0945530894596042
