! Created with skrf (http://scikit-rf.org).
# Hz S RI R 50.0 
!freq ReS11 ImS11
400000000.0 -0.8559398946554266 -0.06521940269615349
420000000.0 -0.07743989103849896 0.858086355958747
440000000.0 0.7853265378039317 0.27244245376456155
460000000.0 0.7806061474387529 -0.0434403219407687
480000000.0 -0.2529895135293511 0.679475595225052
500000000.0 0.554579846761585 -0.22809659109942956
520000000.0 -0.42240798393559087 -0.31076515996049336
540000000.0 -0.15482885257675916 -0.42280764901622786
560000000.0 0.013741402635831871 0.3995354244800035
580000000.0 -0.1313495870560685 0.3240304464282938
600000000.0 0.06221560655000915 0.35513947584790156
620000000.0 0.0676802239128567 0.3569402033468332
640000000.0 -0.29891917862532164 0.2178526059033221
660000000.0 -0.03658134953283582 0.38379264521077844
680000000.0 0.22308271393932766 -0.31727559619575646
700000000.0 0.29250637308503563 -0.28299504621298033
720000000.0 0.38249650120616724 -0.13112361479904538
740000000.0 -0.40083170620561465 0.11216991418134382
760000000.0 0.3891958956299193 -0.07967528190524512
780000000.0 -0.20259485490183615 -0.3135720599507909
800000000.0 0.11211127454285605 0.32498511370312794
820000000.0 -0.14431682567552134 -0.26342178846680814
840000000.0 0.16425512007923215 0.20913731800031943
860000000.0 0.051253558758726114 0.21188369520311848
880000000.0 0.17821446423422724 -0.011023307930915147
900000000.0 -0.06829804143548937 -0.09571785111822925
920000000.0 -0.07247874388258826 -0.016937408891614446
940000000.0 -0.062213665137129746 0.005917091986152442
960000000.0 -0.040998967369694744 0.053788866901735205
980000000.0 0.04731092457118101 -0.06828385944743347
1000000000.0 -0.00830216105857399 -0.09494351734828455
1020000000.0 -0.06808298214968178 0.08116966358438078
1040000000.0 0.055553111849687795 -0.10736234217498625
1060000000.0 0.07777921819136137 0.12407379732532768
1080000000.0 -0.16555855867182598 -0.021288933584304896
1100000000.0 0.1786725204449192 0.0308528255827138
1120000000.0 0.20344113834413105 -0.011535234717221404
1140000000.0 -0.23442612061363038 -0.004803747257554574
1160000000.0 0.10941136159083846 -0.24364462703936757
1180000000.0 0.16374875651768897 -0.25807181925467115
1200000000.0 0.09749314935108132 0.3186781872555807
1220000000.0 -0.25474597465908266 -0.2627358907460573
1240000000.0 -0.11190279970798764 0.3716247575764758
1260000000.0 0.3553602455595013 -0.224201549598941
1280000000.0 -0.43143645324641244 0.05246635014370919
1300000000.0 0.2630455310711601 0.36526715511690105
1320000000.0 0.2821576378700386 -0.3473861635497842
1340000000.0 0.32585681947176176 -0.30662257633175016
1360000000.0 0.12015101044624348 -0.4260404557104816
1380000000.0 -0.16341448915935752 -0.4110804873351315
1400000000.0 -0.182233371076947 0.3863707718658177
1420000000.0 0.36649230185111126 0.1753040645615982
1440000000.0 -0.12557717957758754 -0.356317936136631
1460000000.0 -0.3343958988263072 -0.06615869357816193
1480000000.0 -0.16761610375423192 0.25619174214165136
1500000000.0 -0.20237422338774447 0.1822895753663072
1520000000.0 -0.24213030419090648 0.015489478576166543
1540000000.0 0.11048652902865568 0.188519234500993
1560000000.0 -0.0629881972543411 -0.18128348930217045
1580000000.0 0.15979734117027838 0.057745922779135546
1600000000.0 0.046173514923384076 -0.1400202147480696
1620000000.0 -0.08040948086289941 -0.08957266579648863
1640000000.0 0.026424465579890522 -0.09460790178990254
1660000000.0 -0.06707658812792981 0.03438444356651454
1680000000.0 -0.006771080239017378 0.05352139819683563
1700000000.0 0.009332748507292862 0.03395606958012592
1720000000.0 -0.016594378307321207 -0.0057232892519324145
1740000000.0 0.001311670884443478 -0.013068553394803633
1760000000.0 -0.002581235061766771 0.035454225390117056
1780000000.0 0.061816537151817744 0.033586411266988254
1800000000.0 -0.10893870131554238 -0.020252495508562514
1820000000.0 -0.09156451767647947 -0.11635165983751677
1840000000.0 0.04035587174924926 -0.1812175306620039
1860000000.0 0.16843575017345735 -0.14448253304809652
1880000000.0 -0.07115357793128155 0.2431027647522554
1900000000.0 0.15652129105510798 -0.24217171901739562
1920000000.0 -0.15359531036503882 0.27523558653096336
1940000000.0 0.26731494122345945 0.20902967648946888
1960000000.0 0.28056260505497754 -0.2300866834761469
1980000000.0 0.07401710722152147 -0.373458203768781
2000000000.0 -0.05558550175550452 -0.39734779083638766
2020000000.0 -0.35630029138525315 -0.2182416221206007
2040000000.0 -0.42686947980201334 0.06538952015174582
2060000000.0 0.006314361075045312 0.4390015342933995
2080000000.0 0.4261067299927851 0.12036118373394544
2100000000.0 0.16108264615914306 -0.40801088273511305
2120000000.0 -0.3335910137066619 -0.27239157788171214
2140000000.0 -0.27498395233633466 -0.3129281510979827
2160000000.0 -0.37101211154328956 0.1477310346096735
2180000000.0 -0.1579502547549249 0.34511510378324217
2200000000.0 -0.044969016150335175 0.35783845961273214
2220000000.0 -0.047968956587405194 0.34472455609911273
2240000000.0 -0.08245781348451997 0.3339860722080285
2260000000.0 -0.08685009383174257 0.33712808099824965
2280000000.0 0.11304677653301977 0.3365209896440992
2300000000.0 0.3716757910942844 -0.025307460731060365
2320000000.0 -0.133136805774001 -0.37494019990647226
2340000000.0 -0.23986098185448196 0.3588784450427696
2360000000.0 0.36294211983640834 -0.2982928071964655
2380000000.0 -0.42944226995470325 0.2854674424205469
2400000000.0 0.409822449323956 -0.3883993408893177
2420000000.0 -0.1424079371276279 0.5977900946838857
2440000000.0 -0.3630571898291218 -0.5513787870411174
2460000000.0 0.6714936089973885 0.18731196312918294
2480000000.0 -0.7004198785766482 0.1897730256111189
2500000000.0 0.7071945079648695 -0.22975913131280606
2520000000.0 -0.7526841989437546 -0.0020838564427104467
2540000000.0 0.6731266451783975 0.33844057772133057
2560000000.0 -0.23106878989261503 -0.7098717125040234
2580000000.0 -0.48926149520626905 0.5420716662964202
2600000000.0 0.7040111401025263 0.03882212955171919
2620000000.0 -0.3898406846690981 -0.5501078692304194
2640000000.0 -0.5638357341953378 -0.2960406348380066
2660000000.0 0.024088250677028494 0.591872806461031
2680000000.0 0.46991906848437676 -0.278892738291762
2700000000.0 -0.41537601456742396 -0.278936449152084
2720000000.0 0.04567433183665637 0.45256788694777056
2740000000.0 0.27755481967165335 -0.30583934457443446
2760000000.0 -0.3677518212012117 0.08090306631329988
2780000000.0 0.32046357761291416 -0.13095032156734945
2800000000.0 -0.2822301277935383 0.15369264200633717
2820000000.0 0.08162611632343135 -0.2934308315534561
2840000000.0 0.192540863850698 0.22271138464854323
2860000000.0 -0.2872628394111946 0.03470501171189438
2880000000.0 0.13205969466206446 -0.2556068262586191
2900000000.0 -0.033356611995138216 0.2854846191743363
2920000000.0 0.2251325197415069 -0.1848634364904002
2940000000.0 -0.26695418627191636 -0.12946258328508595
2960000000.0 -0.23109731520579951 0.18931314521548565
2980000000.0 -0.1182566206566334 0.2783696180780385
3000000000.0 -0.27383733393684023 0.13509280920517378
3020000000.0 -0.2370822182215386 -0.19302864202369105
3040000000.0 0.2564046999627993 -0.15917660295030386
3060000000.0 -0.1278044438260116 0.2722334127089849
3080000000.0 0.047515872074712744 -0.29276643603610664
3100000000.0 0.083103175728394 0.2798741744417837
3120000000.0 -0.06800845114158738 -0.2756287472579857
3140000000.0 0.20946368565896223 0.1805385013883384
3160000000.0 -0.2620180040215601 0.02010470462268645
3180000000.0 0.15666291057312576 0.19127025814409687
3200000000.0 -0.15552109010166162 0.1638519722676801
3220000000.0 -0.16062810918598527 -0.12050768719446192
3240000000.0 0.05748040124466322 -0.16224873379580335
3260000000.0 0.12874030733226152 0.05145982758207542
3280000000.0 -0.0724451672962662 0.07744882057393822
3300000000.0 0.03577377282077691 -0.0654659418443821
3320000000.0 -0.04587077600108257 0.0047934295788420195
3340000000.0 -0.004253935184378392 -0.02095513957481419
3360000000.0 -0.0013233340754329722 0.003247976439491182
3380000000.0 0.0014157206729897953 0.010133203749021191
3400000000.0 0.013767408201390875 0.013891592873089683
3420000000.0 0.02830345393941115 0.004213882010547246
3440000000.0 0.032650396806982174 0.021364780356032037
3460000000.0 -0.031829514423517766 -0.03900072259423853
3480000000.0 0.030906293393881207 -0.058457832641663356
3500000000.0 -0.06305475976059581 0.05433987278996632
3520000000.0 -0.09259537473966677 -0.037859117158746416
3540000000.0 0.030010234072124588 -0.10953507748048379
3560000000.0 0.12372289091186844 0.006618777990451561
3580000000.0 -0.10291191405578064 -0.08506657255960709
3600000000.0 0.1497637090308888 0.01168766194613307
3620000000.0 -0.051290122402241414 0.15083627704303149
3640000000.0 -0.1406979426574826 -0.0982458207609124
3660000000.0 0.0864050984776706 -0.16223439813948387
3680000000.0 0.19241507601711783 -0.01577758067410436
3700000000.0 0.19486306939361495 0.02116438641533153
3720000000.0 0.16155680741975795 0.11521724880309449
3740000000.0 0.18405845618115338 -0.05637120097083458
3760000000.0 -0.053131342318612135 0.1760819252948547
3780000000.0 -0.10870085789598678 -0.13205698236969335
3800000000.0 -0.15121384378800742 0.0391397939439509
3820000000.0 -0.10751372942939712 -0.09775830212031035
3840000000.0 -0.006794003166009625 0.13905612385455618
3860000000.0 0.013317001947574422 -0.14423447317548643
3880000000.0 -0.014841047421106835 -0.1569186929567309
3900000000.0 -0.05028941770352467 0.15895405705149304
3920000000.0 -0.11921155550896492 -0.12535744363683424
3940000000.0 -0.11776036445339551 -0.13117699182575457
3960000000.0 -0.1319877601497094 -0.11664518405767786
3980000000.0 -0.12697368304998563 -0.11397822252593044
4000000000.0 -0.1041861886523432 0.1183798181816829
