! Created with skrf (http://scikit-rf.org).
# Hz S RI R 50.0 
!freq ReS11 ImS11
400000000.0 -0.11697967421816224 0.8616929421683189
420000000.0 0.3613981854793388 0.7816275027941436
440000000.0 0.8238791701603474 -0.09815836767084872
460000000.0 0.31627551772835205 -0.7270427310289235
480000000.0 0.6692361283442758 -0.25450365398252467
500000000.0 -0.06075875564775733 -0.5681907895736412
520000000.0 -0.12959179451730415 -0.47605603843140504
540000000.0 0.3272512606068435 -0.2859986525368844
560000000.0 -0.25711757678293823 0.24866113587022967
580000000.0 0.12073506088076498 0.31572577168693844
600000000.0 0.3323827853131535 -0.06278789688907742
620000000.0 -0.34689262675394367 0.08220713622967112
640000000.0 0.1547407328633381 0.3560119926993441
660000000.0 0.40056242802213393 -0.018185572174678078
680000000.0 -0.041714848944516374 0.41714280071252413
700000000.0 0.26310655414547685 -0.3429838395144812
720000000.0 -0.24917057280753194 -0.34597716798914996
740000000.0 0.40283341585695026 0.11312688075745392
760000000.0 0.12361921356358922 -0.3833362861704597
780000000.0 5.604819432773273e-05 0.37177611863006904
800000000.0 0.09230173169034399 -0.33173108951804225
820000000.0 0.28908086929412413 -0.06044733867154796
840000000.0 0.020642087367910886 -0.24824245588970315
860000000.0 0.13939177961266935 -0.16189646323393228
880000000.0 -0.10745038808549234 0.11857443797451662
900000000.0 -0.06628633488884728 0.06661295170699877
920000000.0 -0.056156229929735686 0.029671068423926684
940000000.0 -0.033753184952529235 0.03453812110321592
960000000.0 0.008655166085461302 -0.05294238833726741
980000000.0 -0.010295544489655854 0.07012774247954634
1000000000.0 -0.02391908695029868 -0.07652166373736309
1020000000.0 0.0723839852051674 0.06663325947447396
1040000000.0 0.08172339965037431 0.07565881967803903
1060000000.0 -0.03003308142820836 0.14338970653885383
1080000000.0 -0.14532374952276092 -0.06682612771417942
1100000000.0 -0.14350209380440002 0.11012933811899069
1120000000.0 0.1483875405766085 0.13644816957521777
1140000000.0 0.1993004934688367 -0.12176508551815163
1160000000.0 0.2691559121423269 0.015104946442318521
1180000000.0 0.22743604222109795 0.2066306492918368
1200000000.0 -0.05602956971031258 0.33459182213535626
1220000000.0 0.05532726711820556 -0.36136233848045257
1240000000.0 -0.1896641722789722 0.34423152290901304
1260000000.0 0.4102715628396003 -0.09991083233805094
1280000000.0 -0.44377821775187176 0.014131544330588289
1300000000.0 0.4284871366153323 0.15890773618147916
1320000000.0 -0.196706880808307 -0.4090354512562018
1340000000.0 -0.3897563682470206 -0.2147836341172746
1360000000.0 -0.3502590612667119 -0.2551019704866844
1380000000.0 -0.38076170176146995 -0.19817855062310316
1400000000.0 -0.3812084865136637 0.16540629265659412
1420000000.0 0.07910611985089944 0.3894811751560064
1440000000.0 0.3388077983274588 0.15353921292472736
1460000000.0 0.19100933445478874 -0.28643190637795
1480000000.0 -0.1436840452893349 -0.27897184038564565
1500000000.0 -0.26035228412324746 -0.11228376403680602
1520000000.0 -0.2507317554638208 -0.0497630798339049
1540000000.0 0.22541534904215874 -0.03375571135201183
1560000000.0 -0.08715530558866308 0.17602462091569826
1580000000.0 -0.058823679163594135 -0.1622733384259734
1600000000.0 -0.08915837952486244 0.11612667185654157
1620000000.0 0.09564778871863053 0.06987885949753306
1640000000.0 0.09395650046810854 0.009886555457987525
1660000000.0 -0.06366235927456407 -0.029517468813396237
1680000000.0 -0.009617193496537264 0.045665469579483066
1700000000.0 -0.0011286540745427134 0.029153503190305137
1720000000.0 -0.013654101073994722 0.0005306753679554922
1740000000.0 0.0079063526905634 -0.018654285676152724
1760000000.0 0.03695896942093077 0.01827389595481593
1780000000.0 -0.05361392108780777 0.05203803580612954
1800000000.0 0.07746149830397386 -0.08141738499758688
1820000000.0 0.09063195331452623 -0.1148404784833875
1840000000.0 0.12460759642190149 0.12870642730230522
1860000000.0 -0.20942566682402666 0.017870623611991102
1880000000.0 0.11875634845932109 0.20985677250037835
1900000000.0 0.19760635258350384 -0.19036812893342744
1920000000.0 -0.22610658764716648 -0.20555973061828656
1940000000.0 -0.33006150922805827 0.06985608111676979
1960000000.0 -0.020107718171778498 0.3667923075303307
1980000000.0 0.38891090881424306 -0.05545008248670882
2000000000.0 0.14171420735902013 -0.3907559924658788
2020000000.0 -0.4306085021227999 -0.02036103322940431
2040000000.0 -0.10004656516134405 0.4266680713987408
2060000000.0 0.42737350189460094 0.09881563563405674
2080000000.0 0.32133194488032313 -0.29267456966973715
2100000000.0 0.11479770163905843 -0.4128777946837933
2120000000.0 -0.15647009406875576 -0.38848000797045046
2140000000.0 -0.39069207619814195 -0.11654225603938986
2160000000.0 -0.1441350298785854 -0.36563241234472016
2180000000.0 -0.3500747867623526 -0.13565019855668903
2200000000.0 -0.32991191470520487 0.14434663925581698
2220000000.0 -0.1939549577773081 0.28617699108565586
2240000000.0 -0.1056220455686917 0.32385854539788383
2260000000.0 -0.02904668961804983 0.33959442242165755
2280000000.0 0.07541004818167352 0.33823828329233063
2300000000.0 0.35722247118722583 0.06244969081548099
2320000000.0 0.02960520903259497 -0.38725313992472427
2340000000.0 -0.3893394419671932 0.16233287117884077
2360000000.0 0.46431911770609696 0.01956805888933532
2380000000.0 -0.5108460339993341 0.01489540240919299
2400000000.0 0.5566970933799053 -0.06625685697436101
2420000000.0 -0.540811090591972 0.2853265645728337
2440000000.0 0.2868903720352766 -0.5933628948268359
2460000000.0 0.16044109853846955 0.6800887387499389
2480000000.0 -0.4738949687512525 -0.5538151650956118
2500000000.0 0.44684080750305144 0.6006779543736616
2520000000.0 -0.36327674601271065 -0.6658745870600518
2540000000.0 -0.013638390534874116 0.7594803783190962
2560000000.0 0.5410949277893524 -0.5240951946490453
2580000000.0 -0.7137575692723048 -0.18784453646310556
2600000000.0 0.23065517657215268 0.6748698966929552
2620000000.0 0.29826431739810655 -0.6142783535206489
2640000000.0 0.006727608933310334 -0.6449544914277581
2660000000.0 -0.4799445485053154 0.36072702995874695
2680000000.0 0.5264064663567538 0.16738895643584656
2700000000.0 -0.16506348272546936 -0.47721546175898505
2720000000.0 -0.26745946062553294 0.371325337990269
2740000000.0 0.41536262485727893 0.013353599851862673
2760000000.0 -0.2909782891320474 -0.24311989590662664
2780000000.0 0.32831627484407355 0.12517417997808225
2800000000.0 -0.3228522759774854 0.06118275261257062
2820000000.0 0.02435370328016468 -0.3113296648223922
2840000000.0 0.29814473563518956 0.040227214544558965
2860000000.0 -0.07275367679188975 0.28665670073300753
2880000000.0 -0.22752696744856532 -0.18490276165135253
2900000000.0 0.2655056445316045 0.12309295185011715
2920000000.0 -0.03552058717473363 -0.29281252166127275
2940000000.0 -0.29537133015097955 0.047269235512340274
2960000000.0 -0.21365907733095307 0.21118166289551266
2980000000.0 -0.2921126046588073 0.0912580003456522
3000000000.0 -0.267397119226056 -0.15655681223749468
3020000000.0 0.05883773182426084 -0.3057250697453346
3040000000.0 0.2615974330192776 0.16499225659362218
3060000000.0 -0.29249898821884995 0.09819539323529966
3080000000.0 0.19791009199232149 -0.23254694750710117
3100000000.0 -0.03910596275691177 0.29614275076128643
3120000000.0 -0.006772825375057713 -0.28924840430282567
3140000000.0 0.15475944296395153 0.23334248428104723
3160000000.0 -0.266036429990926 0.01420671700023858
3180000000.0 0.20642961026604686 0.14034247013189474
3200000000.0 -0.10518344696160462 0.20169207941558012
3220000000.0 -0.20019752960846643 -0.0035620301183051186
3240000000.0 -0.031098069834567175 -0.16655974108674815
3260000000.0 0.01033202638325168 0.13460529048022013
3280000000.0 0.08011026014385274 -0.06464738914154615
3300000000.0 0.02283763861492402 -0.07283769700250177
3320000000.0 0.020522442740235524 -0.04712081365534345
3340000000.0 0.013687587173962583 -0.027637588275992393
3360000000.0 0.00671883357082178 -0.012779544439985564
3380000000.0 0.0032943630993829747 0.0017481137905612156
3400000000.0 0.0044988307987287755 0.016418220158737614
3420000000.0 -0.03209373212163303 -0.01001312441200698
3440000000.0 -0.032735975688001274 0.034882871322492646
3460000000.0 0.0013784702901297023 -0.05656997159794971
3480000000.0 -0.061124747913229985 -0.026314591240264126
3500000000.0 -0.05389259258335906 0.05529117694552535
3520000000.0 -0.017704718305500022 0.08701847966146241
3540000000.0 0.08308950666122918 -0.06012278164754574
3560000000.0 -0.11638473807232948 -0.010648063235655078
3580000000.0 0.06840952818557315 0.11335260025511022
3600000000.0 -0.14238097933971028 0.05682841926812692
3620000000.0 -0.1227790117631462 0.11600346692742937
3640000000.0 -0.15968672985721208 0.08359177808477447
3660000000.0 -0.13193037334692398 0.13601363925187634
3680000000.0 -0.16520986256789044 0.09825046897352675
3700000000.0 -0.18879584961490406 -0.023386251129388858
3720000000.0 -0.05848883820322605 -0.17853651033533366
3740000000.0 0.13759252158085375 -0.12178645152966962
3760000000.0 -0.16840040499596748 0.05437267254984708
3780000000.0 0.16947558742286495 0.0064188640132675995
3800000000.0 -0.018586685830483635 -0.16120126449463126
3820000000.0 -0.145606974750977 -0.054466964234828955
3840000000.0 -0.08838306062457084 -0.11959226306393099
3860000000.0 0.1477606747811074 -0.018064379718693378
3880000000.0 0.12116551584150437 -0.09626565182587876
3900000000.0 -0.09452057398781845 -0.12621209876899853
3920000000.0 -0.07939636258062174 0.14188001599766417
3940000000.0 0.00117168417619556 -0.16670632610446837
3960000000.0 0.15772178743635162 -0.06839895401321294
3980000000.0 0.034115502661025664 -0.1690414357841634
4000000000.0 -0.011303503174974515 -0.16459338574197127
