! Created with skrf (http://scikit-rf.org).
# Hz S RI R 50.0 
!freq ReS11 ImS11
400000000.0 -0.8531925363335284 -0.07818556781787228
420000000.0 -0.10407663268871917 0.8552305255013666
440000000.0 0.7805426198320359 0.28650934646254755
460000000.0 0.778397351697078 -0.07574036746151837
480000000.0 -0.2164521888240099 0.6918720234452069
500000000.0 0.5380562051771045 -0.2654956472473796
520000000.0 -0.41432694480146065 -0.32193381237573515
540000000.0 -0.1336087842449854 -0.42999350882024695
560000000.0 -0.03695156934951354 0.3984276639905632
580000000.0 -0.10668940360155106 0.3327074823067693
600000000.0 0.08090718285492886 0.3510460398901369
620000000.0 0.10233449778968563 0.3483763330451414
640000000.0 -0.286028511058261 0.234228318505151
660000000.0 0.0035305874524323654 0.38566503540361713
680000000.0 0.1869833919256182 -0.3403816128050583
700000000.0 0.2826723782033189 -0.2936094492614215
720000000.0 0.3657760641127739 -0.17420594471610584
740000000.0 -0.40479328833425543 0.10167283720216955
760000000.0 0.3905118778922617 -0.07368272097338138
780000000.0 -0.17963398447726095 -0.3275764035459922
800000000.0 0.10605110944019992 0.32701184319604054
820000000.0 -0.1326604017404124 -0.26957598253222737
840000000.0 0.14260096177042655 0.22421477444933546
860000000.0 0.03876842751776409 0.21387813822907287
880000000.0 0.17773810583815486 -0.008688664235093542
900000000.0 -0.08216145217685264 -0.08374995412391481
920000000.0 -0.07379641835159505 -0.011865498459106175
940000000.0 -0.06287587720392086 -0.0014433376045583427
960000000.0 -0.051674576982649253 0.04429970268679462
980000000.0 0.06031987916177927 -0.05747896926948057
1000000000.0 0.006412731226954457 -0.09487520792751847
1020000000.0 -0.08712957340101293 0.05969889774650605
1040000000.0 0.058534360332096316 -0.10547002558603313
1060000000.0 0.09309675156453794 0.11288767244021283
1080000000.0 -0.1669200113188076 -0.003166532211028453
1100000000.0 0.1755884061307741 0.04586471561744567
1120000000.0 0.2037870925161019 -0.002139558943784672
1140000000.0 -0.23064669687278 -0.044173084009287836
1160000000.0 0.10428603769621504 -0.2467017210191964
1180000000.0 0.16880976495812494 -0.2547258020104587
1200000000.0 0.08506607909733602 0.32178465722797633
1220000000.0 -0.24627909227719202 -0.2700588914524293
1240000000.0 -0.11431325558330183 0.37073491826389776
1260000000.0 0.35576740209867763 -0.22350202015458268
1280000000.0 -0.4329542778608205 0.03716003900392787
1300000000.0 0.2407965036492601 0.38011773830183804
1320000000.0 0.2963854976858757 -0.3354332655371402
1340000000.0 0.32780859918379446 -0.30438547051365383
1360000000.0 0.12163439040697685 -0.42580542589902765
1380000000.0 -0.1615599214483791 -0.4118052779691821
1400000000.0 -0.16757768529142233 0.39310887427476915
1420000000.0 0.37008847064596334 0.16836526811779845
1440000000.0 -0.14334336776242068 -0.3500431267788361
1460000000.0 -0.33478351072395446 -0.06614018048706297
1480000000.0 -0.15437574996895997 0.26531389687147605
1500000000.0 -0.21062082766373835 0.17372775606279314
1520000000.0 -0.24278103767516354 -0.00773234829865682
1540000000.0 0.07169647025183415 0.20683444695608272
1560000000.0 -0.015711561719610228 -0.19186173308659935
1580000000.0 0.14779300063690565 0.08466424851206052
1600000000.0 0.10129202456929612 -0.1067918688434795
1620000000.0 -0.025566325759964335 -0.11722954647690462
1640000000.0 0.021376888161418008 -0.09537075087121304
1660000000.0 -0.06809040849383792 0.03225599260592121
1680000000.0 -0.018341225817323014 0.0501101727059722
1700000000.0 0.03263851358034085 0.014047223614340631
1720000000.0 -0.018082745730826313 -0.0006402248757717749
1740000000.0 0.006956389856838575 0.011341241548754351
1760000000.0 -0.034667521152160236 0.00751067806474475
1780000000.0 0.048875784137357846 0.04997747978006286
1800000000.0 -0.10143121281870557 -0.043130799192834336
1820000000.0 -0.06724927765727137 -0.1315417281852583
1840000000.0 0.03604548086003918 -0.1821688335286012
1860000000.0 0.16765255917528527 -0.14597148795635126
1880000000.0 -0.07565296474935616 0.2419132598744643
1900000000.0 0.1338245385116031 -0.2556903980639263
1920000000.0 -0.12890686686596664 0.28799448201662686
1940000000.0 0.2814726185812771 0.19020142527096173
1960000000.0 0.2643101493567204 -0.24923115507458848
1980000000.0 0.06035197558612731 -0.3762705129517396
2000000000.0 -0.035712055544877525 -0.39985030541857336
2020000000.0 -0.3343265717939088 -0.2501484412021162
2040000000.0 -0.4313616116153002 0.012126293969954807
2060000000.0 -0.06702069406453086 0.4334743618150271
2080000000.0 0.3705350628207665 0.24127410207263497
2100000000.0 0.22873419385353957 -0.37356874210110896
2120000000.0 -0.2892283191771195 -0.31844591475733686
2140000000.0 -0.25098447286953884 -0.33169525558863894
2160000000.0 -0.3800491339375205 0.11870948697577816
2180000000.0 -0.14123016824001727 0.3508134085076546
2200000000.0 -0.0036697096660294214 0.3605402627588841
2220000000.0 -0.017237851177504253 0.3469769692688449
2240000000.0 -0.04087478154122961 0.3413352796366089
2260000000.0 -0.0691748313919645 0.3406194772677993
2280000000.0 0.16680627415009075 0.31342494127276255
2300000000.0 0.3673281741291782 -0.0646521731679191
2320000000.0 -0.15676973672117225 -0.3662574733221947
2340000000.0 -0.23451166457339823 0.36362204994889236
2360000000.0 0.3613467751400447 -0.3020678418965515
2380000000.0 -0.4328380803605263 0.2818223268955267
2400000000.0 0.411016701743528 -0.38746882987739795
2420000000.0 -0.12317882542534928 0.6020271454105919
2440000000.0 -0.36052633934172246 -0.552688477700917
2460000000.0 0.6695578611874224 0.19237195277461613
2480000000.0 -0.7020902806407524 0.17822317840837112
2500000000.0 0.7160216935277346 -0.19446060979436938
2520000000.0 -0.7479509463563508 0.06410696061355439
2540000000.0 0.7052492871887154 0.2596142184889957
2560000000.0 -0.3215379478437311 -0.6721904903995479
2580000000.0 -0.33652730709237344 0.6471874253934781
2600000000.0 0.6942184255636795 -0.12471875602851239
2620000000.0 -0.4871634729416088 -0.46714033995458437
2640000000.0 -0.5948774960054364 -0.23056264862058726
2660000000.0 0.09788020246605698 0.5848814851488927
2680000000.0 0.43981420785695624 -0.32628736814886367
2700000000.0 -0.4414721755227044 -0.23805968932289373
2720000000.0 0.09862476743968901 0.44559752732564045
2740000000.0 0.30156801831384916 -0.2833505745497915
2760000000.0 -0.37329551141957595 0.05460347284652965
2780000000.0 0.33889851568713103 -0.07333920951151782
2800000000.0 -0.3037363022637779 0.10582547526073537
2820000000.0 0.13263375488961945 -0.2740559361652878
2840000000.0 0.15567574224868924 0.2492144505405235
2860000000.0 -0.2875122651106126 0.0210525432998908
2880000000.0 0.14135397044005835 -0.2493578212860561
2900000000.0 0.007003197067832778 0.2865042572722015
2920000000.0 0.20371679356780004 -0.20664244614504063
2940000000.0 -0.28643956048694624 -0.07350156938038875
2960000000.0 -0.16666178221442882 0.24778634522739962
2980000000.0 -0.06216839275754895 0.29565586567890617
3000000000.0 -0.23849366183875373 0.1912264243677013
3020000000.0 -0.28136655571114605 -0.12001020449269878
3040000000.0 0.1736786879255 -0.24869014580796653
3060000000.0 -0.059211322531556 0.2956006520902197
3080000000.0 0.004938072059804349 -0.29728546542265266
3100000000.0 0.1511793468877474 0.2509774409660684
3120000000.0 -0.1408798800254479 -0.24765097915317386
3140000000.0 0.2443573463473117 0.13126734836097215
3160000000.0 -0.25715333589142486 0.05995340934613383
3180000000.0 0.1949652119419377 0.15451583263039612
3200000000.0 -0.16008840636592495 0.16181465210129803
3220000000.0 -0.1594767387905126 -0.12467447820043687
3240000000.0 0.06719908412212848 -0.1602348512437809
3260000000.0 0.10903292283559499 0.08857054709298268
3280000000.0 -0.10379969832249167 0.02760694097768056
3300000000.0 0.06710063773728103 -0.03441543169553391
3320000000.0 -7.688933169167657e-05 -0.0465481443596097
3340000000.0 -0.022289526214259416 -0.001389709842752387
3360000000.0 0.00450447957521397 0.0022881294261222914
3380000000.0 0.00964482651784139 -0.00366513242111683
3400000000.0 -0.011435291891593055 0.014919611932062203
3420000000.0 -0.02713100788075238 0.0011811326920132274
3440000000.0 0.0007665778601527398 -0.037642206757813955
3460000000.0 -0.02252075418576652 0.04244063590731014
3480000000.0 -0.05580873323114951 -0.030922688035363705
3500000000.0 0.0011233474212398618 0.0811511715762354
3520000000.0 -0.09733148890521545 0.010353502920687395
3540000000.0 -0.07288076995206474 -0.08374606403130082
3560000000.0 0.04983010363213325 -0.11183324574223814
3580000000.0 -0.10826754127492921 0.07438829669164093
3600000000.0 0.09045757186615497 -0.11705170411735545
3620000000.0 0.10789838147368395 0.11443967791248315
3640000000.0 -0.16874448496015065 0.021958173934155716
3660000000.0 -0.017748110352096405 -0.18148085578120665
3680000000.0 0.1540257140524438 -0.11347224578747941
3700000000.0 0.18708767394985099 -0.05387696141176659
3720000000.0 0.19756922843826943 0.006831425423731929
3740000000.0 0.1326261413938352 -0.14007650012006503
3760000000.0 0.02743817206746074 0.18197967619250538
3780000000.0 -0.14889094017751717 -0.08382919507891683
3800000000.0 -0.12494308656578812 0.0940365774709029
3820000000.0 -0.14119746097314448 -0.03622329818946374
3840000000.0 0.06077757526634437 0.12602022441137703
3860000000.0 -0.002581488839805343 -0.14605437712031427
3880000000.0 0.010983413966765323 -0.15804674227381532
3900000000.0 -0.006822075119418405 0.16708517621733168
3920000000.0 -0.14024418535707636 -0.10338962890187782
3940000000.0 -0.07387561818811668 -0.16191949033206468
3960000000.0 -0.07509797116894287 -0.16170559981301633
3980000000.0 -0.16813058503609857 0.04152071279166204
4000000000.0 -0.12759335275651706 -0.0966122707698864
