! Created with skrf (http://scikit-rf.org).
# Hz S RI R 50.0 
!freq ReS11 ImS11
400000000.0 -0.10299218654087768 0.8644191246426474
420000000.0 0.3507444498345 0.787039091310719
440000000.0 0.8206637465531202 -0.1233404012447312
460000000.0 0.335737292086291 -0.7177507319474563
480000000.0 0.6658609789022718 -0.2635101596142338
500000000.0 -0.02689394133629255 -0.5709460341907932
520000000.0 -0.18336405330770378 -0.45731018806257734
540000000.0 0.2713464649871995 -0.3409606294673595
560000000.0 -0.3039511815532931 0.1906528831487845
580000000.0 0.05817359811863024 0.33161098389026034
600000000.0 0.27267496182942574 -0.19919050959860526
620000000.0 -0.3521733038139793 0.06391850517137192
640000000.0 0.09125775189531499 0.37574866807499885
660000000.0 0.4016635243363432 0.006100052015441885
680000000.0 -0.08790052317268976 0.41104189513609973
700000000.0 0.25515774997172175 -0.3493588188559182
720000000.0 -0.3096267770702822 -0.29267291581653593
740000000.0 0.3995946207547275 0.12462010508933856
760000000.0 0.14224980757536593 -0.37675767176672387
780000000.0 0.07794294720172613 0.36346712000764625
800000000.0 0.10918618037811749 -0.32616026324530983
820000000.0 0.2929175273879436 -0.038231528170132145
840000000.0 -0.05424519201730409 -0.24292350629895385
860000000.0 0.13625951617722656 -0.16508656451709872
880000000.0 -0.12289673882115772 0.10346375210583397
900000000.0 -0.0637489637777133 0.06971807016025647
920000000.0 -0.05845274399532729 0.024764068885096423
940000000.0 -0.005689481303782434 0.04737950345919293
960000000.0 0.03802680623429241 -0.03766232860495321
980000000.0 0.04706744939164343 0.05257235057301487
1000000000.0 -0.02361825610589247 -0.07670201919280832
1020000000.0 0.06262814333805786 0.07533375747936485
1040000000.0 0.0921348850125445 0.0625017358575864
1060000000.0 -0.04916774493773638 0.13850379817205288
1080000000.0 -0.15486085208233308 -0.03935953270879226
1100000000.0 -0.1121220870408677 0.14277043532388323
1120000000.0 0.14947273864036864 0.13648994550367483
1140000000.0 0.20722497359948733 -0.10762572653171346
1160000000.0 0.27003952296646744 0.0066392194079035695
1180000000.0 0.20829738431903658 0.22625678304906133
1200000000.0 -0.0638652453017759 0.3330917308567341
1220000000.0 0.0820110332472294 -0.35624680472926523
1240000000.0 -0.21327740993521493 0.3295866454853952
1260000000.0 0.4131983459042277 -0.08765125927816003
1280000000.0 -0.4433071393865703 -0.02821901847232991
1300000000.0 0.4193768105757045 0.18077990940718341
1320000000.0 -0.19199461753104136 -0.4107075295118473
1340000000.0 -0.3955092067842959 -0.20369994624282908
1360000000.0 -0.3465735045438495 -0.2597304346727403
1380000000.0 -0.37437266737217495 -0.20949608164059944
1400000000.0 -0.37906169550144003 0.16870489362048202
1420000000.0 0.0836781219571554 0.3882924023929829
1440000000.0 0.336009743572162 0.1600104382477382
1460000000.0 0.2001634387900514 -0.28014194628489164
1480000000.0 -0.15701238428875858 -0.2723750156971672
1500000000.0 -0.25990358435351496 -0.11311086257929935
1520000000.0 -0.25143677457917435 -0.04809558166654883
1540000000.0 0.22699143059700444 -0.023485561012654012
1560000000.0 -0.11450559204039747 0.15995043848708457
1580000000.0 -0.055196929323952065 -0.1637274448083405
1600000000.0 -0.09429627946483705 0.11196205214462249
1620000000.0 0.08884462210840699 0.07808695384449695
1640000000.0 0.09142548215963107 0.024027646290831147
1660000000.0 -0.060503501161854795 -0.034920782798228404
1680000000.0 0.013702162720491424 0.04434497075105937
1700000000.0 -0.017842367895902794 0.022358104399463733
1720000000.0 0.013202660228950742 0.003058770857472993
1740000000.0 0.02079283301190684 -0.0006287441306775885
1760000000.0 0.040001392038244675 0.01116678587992012
1780000000.0 -0.05135156780490391 0.05482429642766894
1800000000.0 0.08118453558853964 -0.0783092907451183
1820000000.0 0.10362116417545679 -0.10235404381772333
1840000000.0 0.13473542571295766 0.1175505397070319
1860000000.0 -0.20965631147850744 0.009631259219051547
1880000000.0 0.11669921890728367 0.21068552836726148
1900000000.0 0.190460927060391 -0.19701641384052743
1920000000.0 -0.228692258367383 -0.20251670301680175
1940000000.0 -0.3279574850298085 0.07866963111871285
1960000000.0 0.0007004631860016616 0.3673404455679599
1980000000.0 0.38854390625377966 -0.05857919306300706
2000000000.0 0.09435604455559646 -0.4041770069698925
2020000000.0 -0.4286770155418454 0.04377543894307215
2040000000.0 -0.10142418703272486 0.4267179603930193
2060000000.0 0.42301318798394183 0.11811112600853271
2080000000.0 0.3481403028038101 -0.26085376083484413
2100000000.0 0.13167703915980963 -0.40808261240807503
2120000000.0 -0.16487766701574944 -0.3851586026618149
2140000000.0 -0.37549365742799706 -0.16009155658553859
2160000000.0 -0.13421293263121029 -0.36945347554918556
2180000000.0 -0.34498088331364646 -0.1488569099572395
2200000000.0 -0.34033778903820033 0.11789283712473383
2220000000.0 -0.22516746688072445 0.262404563950136
2240000000.0 -0.10647220599785583 0.3236515149908539
2260000000.0 -0.03706437034530325 0.33896267884841186
2280000000.0 0.058779224329800116 0.3416325548349894
2300000000.0 0.35669854215423025 0.06506675047716656
2320000000.0 0.02648181928481135 -0.3874756858796482
2340000000.0 -0.3884884161007356 0.16442513426578484
2360000000.0 0.46475181323124454 0.009887533208943814
2380000000.0 -0.5103044107360045 0.02664807956182541
2400000000.0 0.554014049110061 -0.08597038934724677
2420000000.0 -0.5315053649779558 0.30257364569950557
2440000000.0 0.2694319458328752 -0.6015790768046473
2460000000.0 0.17531228188183617 0.6763653081614317
2480000000.0 -0.5038649047968963 -0.5265062072074717
2500000000.0 0.513408689962816 0.544762982183321
2520000000.0 -0.3720526186017513 -0.6611148167231121
2540000000.0 -0.036025740674381065 0.7588640738476209
2560000000.0 0.5440480510100641 -0.5210291718286301
2580000000.0 -0.7106204721367285 -0.19870669108998285
2600000000.0 0.2696827359155772 0.6601845953262164
2620000000.0 0.3490871583497755 -0.5864473378409908
2640000000.0 0.02219353144897407 -0.6441107221917982
2660000000.0 -0.48094195800929807 0.358495577549289
2680000000.0 0.5125599981447558 0.2047288489281653
2700000000.0 -0.10758087703165126 -0.49273988202130853
2720000000.0 -0.28760093370287515 0.35543649953412837
2740000000.0 0.41542283098695815 -0.010553759967278897
2760000000.0 -0.288947284656976 -0.2454688155574097
2780000000.0 0.3245013058843678 0.13415718869553966
2800000000.0 -0.3199844357848754 0.07470424842805708
2820000000.0 0.019188722537092546 -0.31164842983505786
2840000000.0 0.2983538183246577 0.03670674166333957
2860000000.0 -0.08650282340841789 0.28343037274061766
2880000000.0 -0.21861951991839768 -0.19608471560374763
2900000000.0 0.2538782713257671 0.1461818218329886
2920000000.0 -0.004149819936765845 -0.29482635790517847
2940000000.0 -0.2991545341256851 0.012662946168274965
2960000000.0 -0.2282852116688019 0.195961104801247
2980000000.0 -0.29811260484188334 0.06656992208514902
3000000000.0 -0.24951071166301442 -0.18402123123466305
3020000000.0 0.10608374198914806 -0.2935488080101627
3040000000.0 0.20869100165725 0.22921408479709032
3060000000.0 -0.3070148216615081 0.02758283553127193
3080000000.0 0.21397278118417573 -0.21758312907189298
3100000000.0 -0.03713320873596483 0.29658815639923136
3120000000.0 0.018707778221034373 -0.2885117605907959
3140000000.0 0.18141681696162396 0.21367983056455098
3160000000.0 -0.26662979198695547 -0.00036321251569275013
3180000000.0 0.19934918558100959 0.15073913059849894
3200000000.0 -0.11653671452217029 0.19499235785689667
3220000000.0 -0.2004762659149489 0.008399270772084659
3240000000.0 -0.02682560775327087 -0.16690196176785313
3260000000.0 0.010465997128033425 0.1340745902974279
3280000000.0 0.08908236834284664 -0.05163597284223144
3300000000.0 0.008161593999773615 -0.07584954677553978
3320000000.0 0.02164175934464003 -0.04648030714717394
3340000000.0 0.018213989086955495 -0.02464051127919565
3360000000.0 0.013696914948968013 0.003363006751039022
3380000000.0 0.004018578894057341 0.0004738547529120033
3400000000.0 0.015257971077749047 0.008347700436003037
3420000000.0 -0.03374594392603703 -0.0007862028708021127
3440000000.0 -0.04797358144117107 -0.0007359420992379334
3460000000.0 0.0010802869831107367 -0.056784753946593214
3480000000.0 -0.06107562364000345 -0.027494175585996896
3500000000.0 -0.06464105331300007 0.04283087703386212
3520000000.0 -0.022466814662257042 0.08630351952408793
3540000000.0 0.08407938267534482 -0.05862777938266504
3560000000.0 -0.11284935055871756 -0.02965084870032987
3580000000.0 0.05936227451321438 0.11868399780458501
3600000000.0 -0.13744976286282246 0.06909411356122648
3620000000.0 -0.1288707410172846 0.10963143300081907
3640000000.0 -0.1618128548582642 0.08014080841526255
3660000000.0 -0.1345737844588659 0.1337572162179769
3680000000.0 -0.17891423981283683 0.06986601748291564
3700000000.0 -0.18357273520460685 -0.049089766221239416
3720000000.0 -0.03573783584453999 -0.18429177468500987
3740000000.0 0.14436862950580387 -0.11310034355438338
3760000000.0 -0.17014786890002875 0.047132983966441895
3780000000.0 0.16958444384716562 -0.00028485730667018866
3800000000.0 -0.020938316021965723 -0.16061196066781713
3820000000.0 -0.14607446059561513 -0.0519120111558437
3840000000.0 -0.0768249044203156 -0.12710526153543567
3860000000.0 0.14871443615876484 0.005765575903744133
3880000000.0 0.1384514344937379 -0.0693984360458912
3900000000.0 -0.06211967216629801 -0.14465597092944596
3920000000.0 -0.10239863521282938 0.1257262001892016
3940000000.0 0.03345335447418353 -0.16311234063754687
3960000000.0 0.1713472787868412 -0.012059398591181637
3980000000.0 0.08459766050208516 -0.15009722252459048
4000000000.0 0.04466594889863627 -0.1582128436783298
