! Created with skrf (http://scikit-rf.org).
# Hz S RI R 50.0 
!freq ReS11 ImS11
400000000.0 -0.06923226670641623 0.8658564447427866
420000000.0 0.37409849887944946 0.7762857767497877
440000000.0 0.8205693338904658 -0.12397337776067363
460000000.0 0.28360439047588487 -0.739992689451644
480000000.0 0.6557341028430571 -0.28620858638666996
500000000.0 -0.024838226747808986 -0.5722982503125263
520000000.0 -0.17442500752271242 -0.46209201546436973
540000000.0 0.28876435940783457 -0.3239669391525465
560000000.0 -0.27644242069363806 0.2263935478134358
580000000.0 -0.011087540837225598 0.3388602456510606
600000000.0 0.242353149250004 -0.23252125838404153
620000000.0 -0.3257160941448488 0.1464612634519902
640000000.0 0.11124126088106431 0.37134157620948327
660000000.0 0.3982199709461574 -0.04696682403893171
680000000.0 0.015157976865386669 0.4195317875669767
700000000.0 0.23353131843050937 -0.36408360002805634
720000000.0 -0.31758067180542976 -0.2861785869786015
740000000.0 0.40320243534015815 0.1103635628939076
760000000.0 0.14607667920241812 -0.37499043895042183
780000000.0 0.08720011007767342 0.362526353456704
800000000.0 0.17383818428306302 -0.2974780157317208
820000000.0 0.29454410754577226 -0.01371826246233452
840000000.0 -0.05348691144587404 -0.24381425468732076
860000000.0 0.15879288494553484 -0.1437968347717257
880000000.0 -0.09258811395592953 0.12949630723556954
900000000.0 -0.05298873362659881 0.0783274665930119
920000000.0 -0.04758170943394021 0.0414570273097237
940000000.0 0.03589372141799133 0.032114623237799435
960000000.0 0.03480723129077991 -0.0421488570200422
980000000.0 0.04370681835626904 0.05655452736007855
1000000000.0 0.024269014867697163 -0.07748923579828902
1020000000.0 0.004502516960336929 0.09905403825396195
1040000000.0 0.10133409096027692 0.04540764324563892
1060000000.0 -0.04913325147362361 0.13766126073226778
1080000000.0 -0.152839976839845 -0.04535037247853304
1100000000.0 -0.07368237545573655 0.16501174139840352
1120000000.0 0.17623433648222628 0.09697717178301232
1140000000.0 0.17674093008714523 -0.15174768214987563
1160000000.0 0.26936162468604885 -0.007783374310810771
1180000000.0 0.26472630853054796 0.15608133881646893
1200000000.0 -0.008401748351614275 0.3385993554911363
1220000000.0 -0.012927360290667161 -0.3657245093298539
1240000000.0 -0.1571977515642269 0.361137777515081
1260000000.0 0.4011383456112673 -0.13452936813028932
1280000000.0 -0.44427336404255735 0.020925679440382792
1300000000.0 0.4257555585029431 0.16824679719088245
1320000000.0 -0.196672026658841 -0.40952620458285444
1340000000.0 -0.3853717571062962 -0.2236406075857232
1360000000.0 -0.3245041948095443 -0.28818561380923036
1380000000.0 -0.36851647735478227 -0.22029717092311482
1400000000.0 -0.392945390045422 0.13446321288728147
1420000000.0 0.027189187870708273 0.39595255205084423
1440000000.0 0.34266191860415574 0.14239663126637994
1460000000.0 0.1967667431511359 -0.2812429626941236
1480000000.0 -0.13686810074556777 -0.2811032669724623
1500000000.0 -0.2686745618917884 -0.08583407350475575
1520000000.0 -0.25359866186738483 -0.019971521738931568
1540000000.0 0.21407803750992674 -0.07578917190057344
1560000000.0 -0.06461587892326759 0.18425672634355006
1580000000.0 -0.11204136290553907 -0.13090080261702972
1600000000.0 -0.05858286411738851 0.13401130611956186
1620000000.0 0.09339946350417792 0.07295681030438494
1640000000.0 0.0949007368925465 -0.011503210830911268
1660000000.0 -0.06727717196920198 -0.02408444278543321
1680000000.0 -0.01962139738155094 0.043940035313661495
1700000000.0 -0.01399523158782583 -0.02654789369016723
1720000000.0 0.009137265648362567 0.009584836550897226
1740000000.0 -0.019384356982252392 0.001759778269779275
1760000000.0 0.04097060313503801 0.006660870896342834
1780000000.0 -0.06653140768922312 0.0368502665621971
1800000000.0 0.09774653613187922 -0.05768443587294896
1820000000.0 0.1199031765027834 -0.08459944194988402
1840000000.0 0.09771180923072471 0.15132908178990806
1860000000.0 -0.210149171519426 -0.020916681820736707
1880000000.0 0.12440331454774664 0.20734679278826776
1900000000.0 0.20533376511709409 -0.18254912070680646
1920000000.0 -0.2338591217154678 -0.19645309038244824
1940000000.0 -0.3164529905201345 0.11534877357737118
1960000000.0 0.027250018820176775 0.3662472863017555
1980000000.0 0.3850294711422022 -0.07574263341868046
2000000000.0 0.0734484877046534 -0.4077729209061253
2020000000.0 -0.42992518733585405 0.014908352187222227
2040000000.0 -0.040935302731473854 0.43549867344283577
2060000000.0 0.433099700841545 0.06789702921401167
2080000000.0 0.3016946763791729 -0.31213627542092176
2100000000.0 0.07864080552338518 -0.42067564292364523
2120000000.0 -0.22057467538432018 -0.3561173951169024
2140000000.0 -0.39686935702548015 -0.09493434650825602
2160000000.0 -0.18850015777699924 -0.3449631838641476
2180000000.0 -0.36551417460826646 -0.0873392565803624
2200000000.0 -0.28686119651652303 0.21892876828215851
2220000000.0 -0.12692554293992378 0.3226748579647246
2240000000.0 -0.0371102811026146 0.33983441152244237
2260000000.0 0.05873330482744165 0.33761670296628316
2280000000.0 0.12286522693053344 0.3252458212670324
2300000000.0 0.36378145546386487 0.01230705212078904
2320000000.0 -0.04730574885486485 -0.38705383143598954
2340000000.0 -0.3468932552279873 0.24333343012647243
2360000000.0 0.464406440225691 -0.03382118195062543
2380000000.0 -0.504456118311811 0.08899262480811783
2400000000.0 0.5494321788691012 -0.11333603217475517
2420000000.0 -0.49122498863100605 0.36390269513186296
2440000000.0 0.15932178510829648 -0.6390598292734251
2460000000.0 0.2696259442560046 0.6435910067661182
2480000000.0 -0.5365204046400288 -0.4912668136516113
2500000000.0 0.5679469177120239 0.4844732018547319
2520000000.0 -0.44546613582296823 -0.6104110631675638
2540000000.0 0.07261228884477923 0.7532969271341258
2560000000.0 0.44195362102030933 -0.6061887528912776
2580000000.0 -0.7342672702604692 -0.036198407833441845
2600000000.0 0.430640886319492 0.5656908153962336
2620000000.0 0.17434992446050582 -0.6570596825291919
2640000000.0 -0.18626101837244788 -0.615374293525521
2660000000.0 -0.3780647643814592 0.4638209453385551
2680000000.0 0.5481381211751213 0.05700764609260528
2700000000.0 -0.25045205333230053 -0.4370221679870888
2720000000.0 -0.19132002035559184 0.4144179807688735
2740000000.0 0.4060659114094571 -0.08718250509790089
2760000000.0 -0.32078463306368865 -0.20187467836812661
2780000000.0 0.32475807012196856 0.13460368458990446
2800000000.0 -0.3273551802996875 0.028408097468823543
2820000000.0 0.07353135411914878 -0.30337120331974193
2840000000.0 0.2805322680334616 0.10899316443374486
2860000000.0 -0.15263626618464343 0.2530766989866253
2880000000.0 -0.19098828658620978 -0.22099731233383194
2900000000.0 0.23853262688468377 0.16710201133565314
2920000000.0 0.004797861146663965 -0.2924586584749892
2940000000.0 -0.2863500757891806 0.0780166054793896
2960000000.0 -0.18584345415769513 0.23398723695468895
2980000000.0 -0.2835951124278851 0.10905960596697224
3000000000.0 -0.27505911260958904 -0.13974793905300062
3020000000.0 0.005247229183171134 -0.3101688420429591
3040000000.0 0.2933301480536225 0.09641119048419065
3060000000.0 -0.2701524140487819 0.14906258245631276
3080000000.0 0.1388672054384826 -0.2718570464048712
3100000000.0 0.06779129175916834 0.2912770138444797
3120000000.0 -0.12475425988882717 -0.26218870804778316
3140000000.0 0.21740487396160982 0.17790406007556145
3160000000.0 -0.26250907754596065 0.05133934014613977
3180000000.0 0.22230526026371955 0.11620919931069074
3200000000.0 -0.10865137445562917 0.20042470125041587
3220000000.0 -0.19856995121104454 -0.03312543866590343
3240000000.0 0.03882742725803189 -0.16515407017171124
3260000000.0 -0.07277709449839817 0.11375949080944771
3280000000.0 0.09658167077857274 0.03489340661832304
3300000000.0 0.06200614014475932 -0.04414275467780004
3320000000.0 0.043298747561860855 0.02781170416421004
3340000000.0 -0.02324000748022193 0.020512888871968497
3360000000.0 -0.013797018770769557 -0.0018147795361998494
3380000000.0 -0.0023626919601557692 -0.0021072885897760935
3400000000.0 -0.017760707139205006 -0.0011293251420115996
3420000000.0 -0.01833366527046364 0.029350249373121164
3440000000.0 -0.04187140455115071 0.026517433414360084
3460000000.0 -0.034075443937752026 -0.047159435902373974
3480000000.0 -0.0601884434876732 -0.031519805452207277
3500000000.0 -0.021134526492563758 0.07596912472967111
3520000000.0 0.08843193788935877 0.0243379711389781
3540000000.0 0.04814176523903311 -0.0915301348431969
3560000000.0 -0.10545801037304559 0.05172210156529142
3580000000.0 0.11646441173124567 0.06603402618345983
3600000000.0 -0.09343256769182529 0.12385889061776205
3620000000.0 -0.11321763602567295 0.12519916192800437
3640000000.0 -0.15790504535099262 0.09012187232566937
3660000000.0 -0.1276067481127898 0.14122338577030055
3680000000.0 -0.1598778635907223 0.10854676688540424
3700000000.0 -0.1903316160468193 -0.019526624743587295
3720000000.0 -0.053305371973475756 -0.18149254454791527
3740000000.0 0.14286616031005575 -0.11730101235578075
3760000000.0 -0.1764671170103895 0.024529876413680495
3780000000.0 0.1612566462283429 0.057442686400367544
3800000000.0 0.02956201736138689 -0.15959072706188823
3820000000.0 -0.1262225603492293 -0.09110672444790123
3840000000.0 -0.07510429194635787 -0.12930957517634745
3860000000.0 0.14873470631479843 -0.010192894315985945
3880000000.0 0.12591299090150282 -0.09078306318804076
3900000000.0 -0.07219742282097402 -0.1399048203018612
3920000000.0 -0.12164981849242214 0.10765469594775473
3940000000.0 0.059716171031933545 -0.1557726665789768
3960000000.0 0.17174137712590748 0.0054068411830588475
3980000000.0 0.10200423747078383 -0.13925814722360538
4000000000.0 0.06072617012466737 -0.15381848888110614
