! Created with skrf (http://scikit-rf.org).
# Hz S RI R 50.0 
!freq ReS11 ImS11
400000000.0 -0.8512020585912909 -0.07592111355852937
420000000.0 -0.05754407932446418 0.8572763534171528
440000000.0 0.8030218770582545 0.2076561236073231
460000000.0 0.7748478380535582 -0.09922810608437815
480000000.0 -0.24716572595641847 0.6816496150524589
500000000.0 0.5560442151564545 -0.22380279175437093
520000000.0 -0.4229821181655889 -0.31087776254431454
540000000.0 -0.13627247808798562 -0.4280184655545952
560000000.0 0.004006893644203494 0.40056736248957886
580000000.0 -0.07554090596083371 0.34212206303522674
600000000.0 0.10435940728885319 0.3446532341373025
620000000.0 0.05405115213150183 0.36042985440943914
640000000.0 -0.33551116828986055 0.16134937411194636
660000000.0 -0.05452051090055111 0.3830818912449872
680000000.0 0.30505348266960636 -0.24135982007145132
700000000.0 0.34229186607865286 -0.22115651906337322
720000000.0 0.3822749069840944 -0.13376274312549216
740000000.0 -0.4147981940352437 0.03982754214614427
760000000.0 0.3966947466464583 -0.017401227538394265
780000000.0 -0.17285880185620725 -0.3301941566570987
800000000.0 0.14418637673655732 0.3105462838559014
820000000.0 -0.19029644074037644 -0.2307664226165879
840000000.0 0.22048399817857878 0.14751522105843537
860000000.0 0.1310377417092473 0.17411515293148558
880000000.0 0.1486064184828377 -0.09910227183559224
900000000.0 -0.10443704940016672 -0.05711568582632861
920000000.0 -0.07605250827502844 -0.006589471333582879
940000000.0 0.0016759785355371282 -0.063821955783139
960000000.0 -0.048107340910159085 -0.046246728559161406
980000000.0 0.0764035730366346 -0.02706921887941247
1000000000.0 -0.05521075745194717 -0.07524016318899272
1020000000.0 -0.006104144788083021 0.10401737392402559
1040000000.0 -0.055486290959558704 -0.10661819252235177
1060000000.0 0.14623036796837557 0.0078757073115848
1080000000.0 -0.1512248235254861 0.07294231271747138
1100000000.0 0.17994086702583503 -0.033748115700093034
1120000000.0 0.20113447944229856 -0.04579066378012397
1140000000.0 -0.2352235960839519 -0.031394962772521386
1160000000.0 0.15523144886480075 -0.22040020971334942
1180000000.0 0.2523550690850912 -0.17514620069355852
1200000000.0 0.004774609837940405 0.3343252008882537
1220000000.0 -0.1640796045951424 -0.3281335212270867
1240000000.0 -0.21789710934972314 0.32136309822970704
1260000000.0 0.40433119826801 -0.11582303540351131
1280000000.0 -0.4323964665362044 -0.04382310548150297
1300000000.0 0.20587182508816834 0.4000091098435121
1320000000.0 0.2904131896790919 -0.33981769362477837
1340000000.0 0.3251327641022871 -0.3067153250113577
1360000000.0 0.10434396133092298 -0.4299026074880293
1380000000.0 -0.1914910801682704 -0.3985142261980428
1400000000.0 -0.1464243561565717 0.4012531130218971
1420000000.0 0.38347417654469174 0.13462256428627709
1440000000.0 -0.1923085498778924 -0.32575046020069515
1460000000.0 -0.341015510161327 0.013035351268371463
1480000000.0 -0.18341465336086502 0.24606404588913589
1500000000.0 -0.20029927528105365 0.18570073500344028
1520000000.0 -0.24414836912084825 -0.009007703374982044
1540000000.0 0.10227603181342214 0.1945945479860073
1560000000.0 -0.00875283150808093 -0.19342605578246
1580000000.0 0.12460854785892687 0.11757568220712591
1600000000.0 0.12741003102231954 -0.0757238381431047
1620000000.0 0.022357352381420545 -0.11822851957234125
1640000000.0 0.07820476254374584 -0.05936631919382306
1660000000.0 -0.07239871354384471 -0.019550645782063107
1680000000.0 -0.016713467171482838 0.05050881908747216
1700000000.0 0.031119229944282144 0.016635673869974683
1720000000.0 -0.01071712896588807 0.01397266733834084
1740000000.0 0.012606105378512032 0.006045682417494672
1760000000.0 -0.019144085401472763 -0.030356987213345274
1780000000.0 0.011892604185812877 0.06922986752709083
1800000000.0 -0.045876711731698466 -0.09933645020258047
1820000000.0 -0.03219197177821819 -0.1435300907994142
1840000000.0 0.06489949419691231 -0.1730870179436073
1860000000.0 0.1871478501522456 -0.11805147617648214
1880000000.0 -0.07220893454526764 0.24237158199389155
1900000000.0 0.12529978604579556 -0.2594976285247836
1920000000.0 -0.13073307667691134 0.286516568123245
1940000000.0 0.29760779906380064 0.1631938286274227
1960000000.0 0.24301999076227715 -0.27022801445281636
1980000000.0 0.02972799400617894 -0.3803563840859184
2000000000.0 -0.06466118262537916 -0.3970926179221565
2020000000.0 -0.36587721756017016 -0.2034471186695646
2040000000.0 -0.42187881955516526 0.09365257817304146
2060000000.0 -0.042812131105467194 0.43784099676900456
2080000000.0 0.4096447346167592 0.16929422428697335
2100000000.0 0.20160934618690696 -0.39010063766909375
2120000000.0 -0.30113771588516164 -0.30928747578022914
2140000000.0 -0.3215595827958607 0.26577219224040105
2160000000.0 -0.39431779106795856 0.061023896742308376
2180000000.0 -0.23291074436189302 0.29826284266769776
2200000000.0 -0.0737940427370564 0.3528501158577333
2220000000.0 -0.10091177572289198 0.3324442894255528
2240000000.0 -0.08390027796409792 0.33243908929953003
2260000000.0 -0.10928119491841157 0.3294936400729128
2280000000.0 0.14726171978619382 0.32233455076530415
2300000000.0 0.3644845088296847 -0.07540704115456902
2320000000.0 -0.17731578531961115 -0.355818156852236
2340000000.0 -0.20300038829679848 0.3807252391887151
2360000000.0 0.3225491603906913 -0.3426611000576959
2380000000.0 -0.42119687933151856 0.2991957848481715
2400000000.0 0.4125724883737953 -0.3864156227344565
2420000000.0 -0.13856764962507753 0.599221353642196
2440000000.0 -0.3550853783292856 -0.5565807257489529
2460000000.0 0.669633826154646 0.19339007010894732
2480000000.0 -0.7063694076561173 0.16150289897250336
2500000000.0 0.7163654202822236 -0.1952040185940861
2520000000.0 -0.7508337670602725 0.020972652523690283
2540000000.0 0.6763713085181824 0.32649890088188027
2560000000.0 -0.27268718974630834 -0.6928553169037677
2580000000.0 -0.4604197057029499 0.5650904428308293
2600000000.0 0.7043086604235902 -0.0026163358842612974
2620000000.0 -0.4004230906511446 -0.5418933000807767
2640000000.0 -0.5701979395330266 -0.2841465845468719
2660000000.0 0.05521753694569486 0.5893124427090599
2680000000.0 0.47445606723264067 -0.26984495781638507
2700000000.0 -0.44542426218910675 -0.22806059584476523
2720000000.0 0.09829955212647583 0.4444723702917708
2740000000.0 0.24782999082045007 -0.3311266071757572
2760000000.0 -0.3678820587038666 0.08168980791868112
2780000000.0 0.3179548532493076 -0.13814546952806595
2800000000.0 -0.2766305013902453 0.16422044697063742
2820000000.0 0.06662088751921595 -0.2979197923229797
2840000000.0 0.20344183038819044 0.2136619998835913
2860000000.0 -0.28696008450367344 0.037307672266215695
2880000000.0 0.15291008176074258 -0.24426415147107003
2900000000.0 -0.033395897717572724 0.28570057845931696
2920000000.0 0.2273744053980333 -0.18173760968732255
2940000000.0 -0.25512708988320726 -0.15089530654224212
2960000000.0 -0.24500751312996577 0.1713096714456492
2980000000.0 -0.16705299416633232 0.25264666517899537
3000000000.0 -0.2832053954816366 0.11371205012307307
3020000000.0 -0.253645431108815 -0.16989494540972283
3040000000.0 0.27677888841551884 -0.12129575758260211
3060000000.0 -0.1054717612988262 0.28225818713950285
3080000000.0 0.07567914379802872 -0.2868372541997113
3100000000.0 0.07168713694760363 0.28273632683474736
3120000000.0 -0.07410015974433719 -0.2740178588744104
3140000000.0 0.22993119247040442 0.15262165336859043
3160000000.0 -0.2620794781569842 0.012242951105891322
3180000000.0 0.17501492640912805 0.17468787958908205
3200000000.0 -0.15330274582738146 0.1663912195360935
3220000000.0 -0.17534436128287745 -0.09943029111360115
3240000000.0 0.05301940733961614 -0.16357754632761584
3260000000.0 0.11410384647187621 0.07908720907860525
3280000000.0 -0.08914850309954704 0.057265492989495105
3300000000.0 0.03710762002971248 -0.06550646363385014
3320000000.0 -0.045553579847638775 -0.006752352130945895
3340000000.0 0.014202625015069257 -0.01647082266811166
3360000000.0 -0.0021548790572803313 0.003963031136063011
3380000000.0 -0.008818278328305902 0.004655383561951524
3400000000.0 -0.006594344217229484 0.018281627051623315
3420000000.0 0.028070666715673435 -0.0027858422550605787
3440000000.0 0.022745777543247175 0.031213297803801523
3460000000.0 -0.011225823137051096 -0.0483975730095363
3480000000.0 0.062251941147895964 -0.019440381032589726
3500000000.0 -0.08134241321841135 0.012159222958482088
3520000000.0 -0.01808272530659212 -0.09753674408589001
3540000000.0 0.030744057510997864 -0.10792527142346914
3560000000.0 0.1186842308905692 0.02926742754596691
3580000000.0 -0.10430286652709175 -0.08167648732066846
3600000000.0 0.14791285447873173 0.015970874600640405
3620000000.0 -0.05954668456585556 0.1462818852556653
3640000000.0 -0.08692795376602411 -0.1462897583090646
3660000000.0 0.12695304202179025 -0.1309998516565015
3680000000.0 0.19036021528476316 0.016963324189531122
3700000000.0 0.192137934873445 0.028069987679105055
3720000000.0 0.18284726594667608 0.07177300688436891
3740000000.0 0.1699217849866877 -0.08830629694790429
3760000000.0 0.035866205769384034 0.178746507456298
3780000000.0 -0.15050891728180107 -0.07750712580176099
3800000000.0 -0.10703191615903253 0.11114710863177349
3820000000.0 -0.14259968124648115 0.011492430946933554
3840000000.0 0.07922169111803574 0.11256083165401319
3860000000.0 -0.06033012827692395 -0.1299742913076364
3880000000.0 -0.037482831437989445 -0.15166201855527778
3900000000.0 -0.009082333882123537 0.1656954621905645
3920000000.0 -0.14767743119709845 -0.08877583143080738
3940000000.0 -0.11829772289806542 -0.13057153257769505
3960000000.0 -0.14948918334727315 -0.09301272825754381
3980000000.0 -0.12055726241793074 -0.12159738506141576
4000000000.0 -0.14297263502726193 0.06737666717346058
