! Created with skrf (http://scikit-rf.org).
# Hz S RI R 50.0 
!freq ReS11 ImS11
400000000.0 -0.8556477200285955 -0.06649694654475274
420000000.0 -0.10790969786407434 0.854720770099493
440000000.0 0.7916096005584805 0.2531706777646429
460000000.0 0.7802091573283522 -0.04073226806158257
480000000.0 -0.2407157446197645 0.6837648711540801
500000000.0 0.5497948746727508 -0.2397300271716653
520000000.0 -0.4212722519996536 -0.3126614743052755
540000000.0 -0.17735106547407437 -0.4135208815603089
560000000.0 -0.021285712619724877 0.39901663376727486
580000000.0 -0.1490630951300353 0.31632791496507695
600000000.0 0.04884114210612751 0.3572813746510632
620000000.0 0.1078567705037343 0.3472697452402943
640000000.0 -0.278660592980403 0.24191869667663823
660000000.0 -0.053184035674033986 0.38183395423148464
680000000.0 0.22077131952351647 -0.3198359531508739
700000000.0 0.26669419317324594 -0.3077912936502328
720000000.0 0.381717695508864 -0.132330749041302
740000000.0 -0.4024179116715968 0.10814762955528714
760000000.0 0.3939120419416825 -0.05370489789454197
780000000.0 -0.21455334877371532 -0.3059735805775113
800000000.0 0.10817088398418405 0.326060490734633
820000000.0 -0.12776895966848303 -0.27182026508897267
840000000.0 0.1765673666519603 0.19881771984516228
860000000.0 0.07033844975367919 0.20620245037282298
880000000.0 0.17804451526612258 -0.0125203233678387
900000000.0 -0.058145823217124123 -0.10250068288976787
920000000.0 -0.07347769596244469 -0.012447882356399162
940000000.0 -0.05550919239049537 0.028587662066655983
960000000.0 -0.05277961359158071 0.04233760983514648
980000000.0 0.05247086599784609 -0.06469084301905292
1000000000.0 -0.0023267246921735195 -0.09545192033347534
1020000000.0 -0.07092868569586772 0.07853339108550778
1040000000.0 0.06324232592540024 -0.10282468958366651
1060000000.0 0.08216042752101527 0.12102302580301982
1080000000.0 -0.16587310729771462 -0.01749921172826268
1100000000.0 0.17788284499558216 0.03475133037250782
1120000000.0 0.20251128328180162 -0.02048693207648457
1140000000.0 -0.23419614831820879 -0.00911543860822289
1160000000.0 0.09566716099813549 -0.24929565957984676
1180000000.0 0.15747891878995837 -0.261932015050484
1200000000.0 0.1163974737065075 0.31239966282799586
1220000000.0 -0.27018052382105584 -0.2467149772850833
1240000000.0 -0.11332870429170874 0.37118328653432253
1260000000.0 0.348739971350436 -0.2344519192283623
1280000000.0 -0.4307461837248895 0.058185350998069645
1300000000.0 0.24354862171707956 0.3784550386289936
1320000000.0 0.2768173197805841 -0.35190737472082695
1340000000.0 0.32405027806147196 -0.3083798554891167
1360000000.0 0.12924850579107805 -0.42336518617273095
1380000000.0 -0.1650793148056911 -0.4102657999454235
1400000000.0 -0.18074328338925733 0.38689684266324365
1420000000.0 0.3674716395497117 0.17286525729321706
1440000000.0 -0.1162714468447177 -0.35924979990395844
1460000000.0 -0.3325445460761952 -0.07365839837479626
1480000000.0 -0.1892793147588852 0.24043385071554677
1500000000.0 -0.21050844623655235 0.17258439823900157
1520000000.0 -0.24233382696212472 0.007835790906508504
1540000000.0 0.09503930504423952 0.1966757553324783
1560000000.0 -0.05553816319008201 -0.18369108658171987
1580000000.0 0.16136785419651845 0.05302653928571833
1600000000.0 0.050511448857976746 -0.13848267160123567
1620000000.0 -0.08062842201325575 -0.08907928049962316
1640000000.0 -0.02080082865916037 -0.09638193528810447
1660000000.0 -0.057139626414882703 0.049410292976989144
1680000000.0 -0.0153766725912417 0.05177336542835872
1700000000.0 0.027798460577868646 0.022831625033385653
1720000000.0 -0.006326989447551195 -0.01647248219746814
1740000000.0 0.012537201285282759 -0.003599777970659384
1760000000.0 0.023943715308162843 0.02627652433598874
1780000000.0 0.06816513180955433 0.01754358797037713
1800000000.0 -0.11012177922222426 -0.010731395554577338
1820000000.0 -0.1110881179356838 -0.098562887005205
1840000000.0 0.024312105708676257 -0.18416990728749746
1860000000.0 0.16388620051366695 -0.14997661718900746
1880000000.0 -0.06049395364998385 0.24638157279215855
1900000000.0 0.1542989621870309 -0.24367469672280126
1920000000.0 -0.15864419769026006 0.27241212877795545
1940000000.0 0.258451455853758 0.2198061656521985
1960000000.0 0.29264632645615984 -0.2145310854931813
1980000000.0 0.0797643127255554 -0.37212263497982484
2000000000.0 -0.0450541335035518 -0.3985578813000629
2020000000.0 -0.33467080189495746 -0.2500791582973759
2040000000.0 -0.4177970729714105 0.1078596316481255
2060000000.0 -0.007060069645934698 0.4389218620653792
2080000000.0 0.42030117494263247 0.13792879699458155
2100000000.0 0.17939161084016747 -0.3999289322832485
2120000000.0 -0.34454539660749023 -0.2577709628614239
2140000000.0 -0.260741282116647 -0.324589621453384
2160000000.0 -0.3654871856275864 0.159911007153588
2180000000.0 -0.14245464466451982 0.35145102183746324
2200000000.0 -0.026076419497369274 0.35937929227248716
2220000000.0 -0.035624889373350725 0.34598012538576645
2240000000.0 -0.07868522811006662 0.334955759536027
2260000000.0 -0.07471703111695459 0.34012667130155416
2280000000.0 0.12421496519454107 0.33271345308172784
2300000000.0 0.3700456016408122 -0.04767233563387135
2320000000.0 -0.13376238366340804 -0.37492993824883314
2340000000.0 -0.26025136505894003 0.3440974252118005
2360000000.0 0.36027635375295697 -0.30190016780318496
2380000000.0 -0.44115542913656985 0.2667943778692747
2400000000.0 0.4057470097756744 -0.3926729268632822
2420000000.0 -0.13943993188471487 0.5983090836127765
2440000000.0 -0.3420798146873438 -0.5645379127843574
2460000000.0 0.6635293159573423 0.21334471998219492
2480000000.0 -0.7027555278274589 0.1792412883531834
2500000000.0 0.7273134267175644 -0.1539358341892647
2520000000.0 -0.752167147137984 0.006331282525469085
2540000000.0 0.6716171489760189 0.3405777104625687
2560000000.0 -0.25679892559398837 -0.7006467606274351
2580000000.0 -0.4976864642038619 0.534161736173786
2600000000.0 0.7051006858590233 -0.00255365868056329
2620000000.0 -0.35906200760856116 -0.5708998629421366
2640000000.0 -0.5918709624369236 -0.23602556500180133
2660000000.0 0.02668076785201246 0.5917591549629805
2680000000.0 0.4867762220725891 -0.2484921559515535
2700000000.0 -0.4105711148484494 -0.28619134668205337
2720000000.0 0.0616481193854136 0.45110372999197235
2740000000.0 0.28033174535600525 -0.3037347956771852
2760000000.0 -0.3682419986611046 0.07973931698624437
2780000000.0 0.3275268485461346 -0.11306420910463759
2800000000.0 -0.28846519810246046 0.1421476583617682
2820000000.0 0.09720389155514242 -0.2888485084867824
2840000000.0 0.1973377188743838 0.21808882449465183
2860000000.0 -0.28631029625617377 0.0385501311358856
2880000000.0 0.14850156853056837 -0.24626078302776475
2900000000.0 -0.03703313158466794 0.28470543558019473
2920000000.0 0.22690196340464674 -0.18187388607995475
2940000000.0 -0.2682035124721549 -0.12544714003386093
2960000000.0 -0.21391547946844766 0.20822569942596159
2980000000.0 -0.08304324897676423 0.2907672820980858
3000000000.0 -0.251590204426037 0.1718983027152334
3020000000.0 -0.27120400566720754 -0.14024028043964684
3040000000.0 0.2549701494782818 -0.16137399054956464
3060000000.0 -0.08689792067952114 0.28785643241996445
3080000000.0 -0.002536706984778033 -0.2964697946863202
3100000000.0 0.038900496724894644 0.2891398847594362
3120000000.0 -0.09580285190715628 -0.2678409004714815
3140000000.0 0.23251993370375837 0.1501538871017985
3160000000.0 -0.2582782091527826 0.049458258326349765
3180000000.0 0.1796955578431856 0.1707326144365291
3200000000.0 -0.1532509070338179 0.16679618983419908
3220000000.0 -0.16159714091840366 -0.12014703485469419
3240000000.0 0.0556757649756243 -0.16325123039789172
3260000000.0 0.1179647612649535 0.07374844506923069
3280000000.0 -0.08842868790632434 0.05927364285355159
3300000000.0 0.04427808141595775 -0.06093216165323605
3320000000.0 -0.04366518007340697 -0.015643943638629067
3340000000.0 0.018333443737335746 -0.011407552311561004
3360000000.0 0.0016897963202512102 0.0036635460842365636
3380000000.0 0.0016608989088393584 -0.009824629321086622
3400000000.0 0.017281654545871168 -0.008202264861777858
3420000000.0 0.012603841473081322 -0.02515133457043722
3440000000.0 0.03263900611974708 -0.02088116458496088
3460000000.0 -0.036343677992015114 -0.0340347910694688
3480000000.0 0.010911487366130434 -0.06482413429999445
3500000000.0 -0.024915922953284722 0.07925673854180802
3520000000.0 -0.09690795964670734 -0.022074245543064457
3540000000.0 -0.02152586687682794 -0.11137893960248561
3560000000.0 0.1208849879001454 -0.025305546884606518
3580000000.0 -0.1266309401811341 -0.04162077313519354
3600000000.0 0.14867564656968826 -0.017830308280154514
3620000000.0 -0.01903645766547743 0.15778845434361546
3640000000.0 -0.15741693441977592 -0.06793014040548169
3660000000.0 0.059113710446882364 -0.17358894327766472
3680000000.0 0.18699630556762362 -0.04924607142700514
3700000000.0 0.19521584197413447 -0.017100631143747366
3720000000.0 0.18067711944456868 0.08215234348231261
3740000000.0 0.17444964193709528 -0.08268344602001085
3760000000.0 -0.02595910200496421 0.18240816044697222
3780000000.0 -0.13907899981657845 -0.09977837723559661
3800000000.0 -0.14708640620485344 0.05419495910306622
3820000000.0 -0.11488666301474887 -0.08980594354898885
3840000000.0 0.004371735336571585 0.14017716845853412
3860000000.0 0.009646435656251638 -0.1457116287573709
3880000000.0 -0.019725909855504407 -0.15727329993526093
3900000000.0 -0.04754682288726652 0.16085106259196108
3920000000.0 -0.11392271816816321 -0.1314513525542259
3940000000.0 -0.1061909524137852 -0.1417009390146262
3960000000.0 -0.10910947079184517 -0.13928657139713024
3980000000.0 -0.12544876707499647 0.11679628904518924
4000000000.0 -0.1490391533892279 0.05354729625374591
