! Created with skrf (http://scikit-rf.org).
# Hz S RI R 50.0 
!freq ReS11 ImS11
400000000.0 -0.8546858051659391 -0.06302376973496016
420000000.0 -0.07891603483137405 0.8585039595103492
440000000.0 0.785716628079039 0.2733762467712399
460000000.0 0.7794738966466818 -0.061890992822472284
480000000.0 -0.22643898002037172 0.6886491465115687
500000000.0 0.5644927401654191 -0.20469170505272127
520000000.0 -0.4213466867927849 -0.3124997201867039
540000000.0 -0.15991327342587508 -0.42062774433697075
560000000.0 -0.01744899878759217 0.399127343853066
580000000.0 -0.1209096078266349 0.3284163714859556
600000000.0 0.1041742553182307 0.34554392551233637
620000000.0 0.11729424128575733 0.34417217774764125
640000000.0 -0.29267230796936244 0.22572944436291556
660000000.0 0.009833411055500023 0.3856058144089827
680000000.0 0.18514123552551912 -0.3415651799125958
700000000.0 0.27176402647799164 -0.3038669063336516
720000000.0 0.36943889900830895 -0.16497231673956445
740000000.0 -0.4055897359781035 0.09770463056127666
760000000.0 0.3947644147488311 -0.0439021385258527
780000000.0 -0.20741241153314444 -0.31098845933629454
800000000.0 0.10406432821988951 0.3272003719588319
820000000.0 -0.12028884763308109 -0.2752634674924674
840000000.0 0.14942814563209494 0.21993522741117544
860000000.0 0.03180744509775587 0.21514052272278333
880000000.0 0.17784431117958005 -0.005712351789431105
900000000.0 -0.07407572220639037 -0.09114200386245351
920000000.0 -0.07490510570646249 -0.0008896843015858859
940000000.0 -0.06202084199493829 0.008368537910030545
960000000.0 -0.0613931591070864 0.02886407434733014
980000000.0 0.059830514122608966 -0.0576002988196361
1000000000.0 -0.0063257346030740885 -0.09482622358336804
1020000000.0 -0.07865243759019566 0.07043786883151408
1040000000.0 0.04562994037175468 -0.11165995286518036
1060000000.0 0.09440685017940743 0.11202700991068633
1080000000.0 -0.1666251506531636 0.011402133339997463
1100000000.0 0.17615235149543057 0.04401557267958912
1120000000.0 0.20198496390794837 0.0270959313932065
1140000000.0 -0.2271801546002119 -0.059723969099964996
1160000000.0 0.10647793117082659 -0.24576046359732925
1180000000.0 0.17250884770525077 -0.2522674355187996
1200000000.0 0.08865602039536993 0.3208982252229196
1220000000.0 -0.23915537432932765 -0.2765125683454407
1240000000.0 -0.11954606591323108 0.3690926997934003
1260000000.0 0.365768971390895 -0.20648305446404136
1280000000.0 -0.4332137736413631 0.0355183191123208
1300000000.0 0.25242272917725284 0.37258929988992895
1320000000.0 0.29568740895134277 -0.3358346132899271
1340000000.0 0.3299781668907422 -0.3020409420183347
1360000000.0 0.13069965554756985 -0.42318968936714
1380000000.0 -0.16759533564540421 -0.4094976161341922
1400000000.0 -0.16886386528266534 0.39250327295572834
1420000000.0 0.37643140752658355 0.1530246381883312
1440000000.0 -0.12893165562100112 -0.35583046114528943
1460000000.0 -0.33636511041668693 -0.05799825111584114
1480000000.0 -0.18888124036180587 0.24188637953647732
1500000000.0 -0.21671761119581234 0.16555960789818874
1520000000.0 -0.24285516310200875 -0.015784912196579064
1540000000.0 0.09486476319223253 0.19729273748629278
1560000000.0 -0.035994302049337415 -0.1889000060550221
1580000000.0 0.12722678902056217 0.11350289626614939
1600000000.0 0.07728488703919704 -0.12508801037662062
1620000000.0 -0.03804334449170717 -0.11387187490644908
1640000000.0 0.02577087800731177 -0.0944706812420571
1660000000.0 -0.07442437115877046 0.011265509820645137
1680000000.0 -0.032118213991097794 0.0427207166349601
1700000000.0 0.027145867655301165 0.022997966666190466
1720000000.0 -0.0178181275727658 -0.0017390200869695299
1740000000.0 0.0012444356069703268 0.013211003842030099
1760000000.0 -0.03162957823744526 0.016551120826937736
1780000000.0 0.044553975136414764 0.05393176172550292
1800000000.0 -0.08969617911023578 -0.06427182098064327
1820000000.0 -0.05779276616646278 -0.1362090282125066
1840000000.0 0.05785669752631022 -0.17654740615024206
1860000000.0 0.18376422650316024 -0.12491000312267742
1880000000.0 -0.08613461760554426 0.2384170023156042
1900000000.0 0.14445419008511248 -0.24994947433077666
1920000000.0 -0.12969251119195402 0.2876575857032374
1940000000.0 0.2882777962763167 0.1798531605842575
1960000000.0 0.2616749180992989 -0.2519482754395505
1980000000.0 0.032025849116336075 -0.3796645913573226
2000000000.0 -0.060576334361875324 -0.3967267946351439
2020000000.0 -0.3420593723802592 -0.23925895561845673
2040000000.0 -0.4268279396103408 0.06255811246839649
2060000000.0 -0.07866028363311509 0.4320221970724645
2080000000.0 0.41313989727415656 0.1578828958206677
2100000000.0 0.22074410360393135 -0.37888098637841233
2120000000.0 -0.29926485969577676 -0.30991747073203796
2140000000.0 -0.26427659613603854 -0.3218920549213132
2160000000.0 -0.38576149800774456 0.10116642853056812
2180000000.0 -0.1576331273284781 0.3444738407808963
2200000000.0 -0.010995913898378437 0.3607009362267485
2220000000.0 -0.027546043004025737 0.3465801773787373
2240000000.0 -0.048756712679942554 0.34001162555767567
2260000000.0 -0.05961427490694465 0.34268420000377453
2280000000.0 0.15430834271438676 0.3197768163852427
2300000000.0 0.3670154436288398 -0.06677670601883012
2320000000.0 -0.1499642414015101 -0.36890549411767104
2340000000.0 -0.24036583984831805 0.35944280182969807
2360000000.0 0.35564225685686857 -0.3083879463901673
2380000000.0 -0.4229941692050254 0.29611415119685947
2400000000.0 0.3912081184521942 -0.4072155746581208
2420000000.0 -0.10149934560307967 0.6059977311356025
2440000000.0 -0.3778460235556489 -0.5411408071008872
2460000000.0 0.6763302652890238 0.16816885733417444
2480000000.0 -0.6907162476929576 0.21848507751317386
2500000000.0 0.6883879406894708 -0.27690031617112687
2520000000.0 -0.7469056555860724 0.07706625591170477
2540000000.0 0.7136136320929319 0.23617515348254672
2560000000.0 -0.3235480806727991 -0.671353587244199
2580000000.0 -0.38042316614559923 0.6224842732665836
2600000000.0 0.7002319191637684 -0.08243228263606575
2620000000.0 -0.4730288985564937 -0.48114335883465637
2640000000.0 -0.5837886315438423 -0.2562617449066287
2660000000.0 0.0603440489475824 0.5893308221797441
2680000000.0 0.4433625304549436 -0.3204150346541757
2700000000.0 -0.43491473581268075 -0.2486115418544902
2720000000.0 0.08311126889205324 0.4480324745097655
2740000000.0 0.27412130227851234 -0.30940972957335006
2760000000.0 -0.37304969412795197 0.053064002157859586
2780000000.0 0.3334589839680521 -0.09436794047778808
2800000000.0 -0.30467768668520007 0.10314332550327379
2820000000.0 0.1201133001325417 -0.279644651483187
2840000000.0 0.1676493622416574 0.2414790508434458
2860000000.0 -0.2886684526519933 -0.008111884089091997
2880000000.0 0.1314925552547996 -0.2548150334345384
2900000000.0 -0.03264047522538141 0.2851482178308456
2920000000.0 0.22416182351983593 -0.1852559746636623
2940000000.0 -0.2766681159877946 -0.10468887300634681
2960000000.0 -0.18711868805263085 0.23254696364203642
2980000000.0 -0.0696787860179816 0.29399801126193875
3000000000.0 -0.2322892011875489 0.19842582694891056
3020000000.0 -0.26346860027758273 -0.15497949480602272
3040000000.0 0.2006042980046772 -0.22683044293445934
3060000000.0 -0.07151022735532132 0.2927750312702413
3080000000.0 0.0006885216586738638 -0.297216364275088
3100000000.0 0.13460204461479927 0.259429703052007
3120000000.0 -0.10551749255700593 -0.2642038596340393
3140000000.0 0.24863856008967664 0.12317770439276457
3160000000.0 -0.25556961383825527 0.06509696084286967
3180000000.0 0.19087122154929603 0.1590028910612967
3200000000.0 -0.1754577733852224 0.14433355060150385
3220000000.0 -0.16131763403442956 -0.12221243634917736
3240000000.0 0.05752632767683392 -0.16321509755050834
3260000000.0 0.11602108594547647 0.0777631201420905
3280000000.0 -0.10288407361690419 0.02862116311355945
3300000000.0 0.04000682228149612 -0.06328989408156496
3320000000.0 -0.039009369232817656 -0.024638150710242293
3340000000.0 -0.004995193156409185 0.021008692112912564
3360000000.0 -0.0031440782273075055 -0.002359817935176424
3380000000.0 0.00783708446962731 0.007053820371969963
3400000000.0 0.01734588703438831 -0.009035137801000423
3420000000.0 0.01850725365690551 -0.020967721773898093
3440000000.0 0.03668548564702062 0.011745881503896676
3460000000.0 -0.046405966584402374 -0.015123863067656567
3480000000.0 -0.010757425743463894 -0.06379697356450302
3500000000.0 -0.05665719845619944 0.05954293825100151
3520000000.0 -0.07581467196590173 -0.06369187292578984
3540000000.0 0.0070145965323545265 -0.11181383631299585
3560000000.0 0.11545521944961819 -0.04227719317447626
3580000000.0 -0.1321450448377312 -0.008012021447384233
3600000000.0 0.13054219333464193 -0.07152515360747666
3620000000.0 0.04800408818214956 0.1506506945739628
3640000000.0 -0.164931477954221 -0.042487827650333085
3660000000.0 0.0535437675349894 -0.1743163060417172
3680000000.0 0.1823143888429999 -0.05684242297909573
3700000000.0 0.19430700757359748 -0.007127637486744798
3720000000.0 0.1900249455741065 0.052519885567313844
3740000000.0 0.1650748472550648 -0.09854288269533211
3760000000.0 -0.015541677220937775 0.18283485880309092
3780000000.0 -0.13421988012458216 -0.10494781504001208
3800000000.0 -0.1319246736216568 0.0825582218280645
3820000000.0 -0.13493492631670656 -0.05305928264758318
3840000000.0 0.05084648151404289 0.12936021746270104
3860000000.0 0.018373067755499916 -0.14405605498576513
3880000000.0 0.022986591564863858 -0.1557566368706675
3900000000.0 -0.012056363348783185 0.16595612861940554
3920000000.0 -0.1314012313953872 -0.11380335096172274
3940000000.0 -0.06977267074741553 -0.16333753394610373
3960000000.0 -0.0604047361689443 -0.1676030515957348
3980000000.0 -0.17031638258888254 0.031294398896410884
4000000000.0 -0.12970916324814946 -0.09337861966000827
