! Created with skrf (http://scikit-rf.org).
# Hz S RI R 50.0 
!freq ReS11 ImS11
400000000.0 -0.8524803777654895 -0.07900189419958767
420000000.0 -0.08705466139810704 0.8561197127079484
440000000.0 0.7950032929760575 0.24180382472099549
460000000.0 0.7761255207250566 -0.09459721416484834
480000000.0 -0.26011502707001993 0.6770790562836331
500000000.0 0.5589686564368412 -0.21737412290155053
520000000.0 -0.40350481733456467 -0.3349200302239991
540000000.0 -0.1586267773581277 -0.42126904543681304
560000000.0 -0.01568302939977118 0.39958198715642057
580000000.0 -0.16929722219113266 0.3054128394279723
600000000.0 0.05825911102530466 0.3552943700684583
620000000.0 0.11159421504436073 0.3458436585347858
640000000.0 -0.2921595533403252 0.227308802656839
660000000.0 -0.008599173040102437 0.38581504955258683
680000000.0 0.20586618847797447 -0.32888140044821573
700000000.0 0.2812202586387127 -0.29490582410256133
720000000.0 0.3560477789979214 -0.19289757492678325
740000000.0 -0.40164407475307545 0.11341849766759089
760000000.0 0.39061281794301783 -0.07307204877857566
780000000.0 -0.1839990081741861 -0.3247550182802887
800000000.0 0.1178693939793128 0.322541617419539
820000000.0 -0.15832724859393849 -0.2548828398274012
840000000.0 0.15048731911673888 0.21909969055129316
860000000.0 0.028589797523554533 0.2156337630050979
880000000.0 0.17687449374735872 0.013222372159676558
900000000.0 -0.080559441532088 -0.08410281280594925
920000000.0 -0.06741856970163804 0.030437540386969074
940000000.0 -0.05639256094191645 0.028773797829789463
960000000.0 -0.06453865080149074 0.02033859807942089
980000000.0 0.06101497949159291 -0.05594914397791781
1000000000.0 -0.028089808724834235 -0.0906002077363489
1020000000.0 -0.06378787186763661 0.08382654070319567
1040000000.0 0.04022832221636678 -0.11358594948566793
1060000000.0 0.1022465267173391 0.10450359240667713
1080000000.0 -0.16676207983048993 0.003845210597855009
1100000000.0 0.1805122167159396 0.015114932541932202
1120000000.0 0.2023281218373821 -0.02507027047142444
1140000000.0 -0.2340376704722621 -0.02144782470400469
1160000000.0 0.09784453189807496 -0.24922545683705377
1180000000.0 0.18742123645569544 -0.2414839056130857
1200000000.0 0.09448866706277988 0.31925458790648226
1220000000.0 -0.23891343316753114 -0.27735407286429836
1240000000.0 -0.1350852145349264 0.3637532203517852
1260000000.0 0.37721306973868673 -0.18597230073001933
1280000000.0 -0.434312468076433 0.02239895837677049
1300000000.0 0.24306452996131422 0.3791254962152798
1320000000.0 0.27700551178546484 -0.35176288893403423
1340000000.0 0.3203813321737517 -0.3124443357106951
1360000000.0 0.10629807855851581 -0.4299061216785326
1380000000.0 -0.17517439965250536 -0.4063236500912461
1400000000.0 -0.16293513514184882 0.3950724475068414
1420000000.0 0.3776889675603126 0.14940671154876511
1440000000.0 -0.15565957811918352 -0.3446001797667027
1460000000.0 -0.3403616138617215 -0.01664026886993015
1480000000.0 -0.20089691554131078 0.231421077442306
1500000000.0 -0.2219816614212343 0.15815341028362076
1520000000.0 -0.242796568067077 -0.006469018141590765
1540000000.0 0.07917540145310957 0.20410109614772656
1560000000.0 -0.016453236038583223 -0.19205305807184386
1580000000.0 0.14939022331391802 0.08211785746353031
1600000000.0 0.08879175489845038 -0.1178454969388322
1620000000.0 -0.0329971029960943 -0.11555546752664227
1640000000.0 0.02984035829022846 -0.09359195882003409
1660000000.0 -0.07419725670364258 0.012553219800580639
1680000000.0 0.006567950382829328 0.053714763834323775
1700000000.0 0.005209825235706792 0.034805987085922196
1720000000.0 -0.016359782577788938 -0.0068876801305705095
1740000000.0 0.007175016111370715 0.011326168617504706
1760000000.0 -0.025980552702989643 0.024555578866114758
1780000000.0 0.04034053835719253 0.05747695782561397
1800000000.0 -0.07180611622223744 -0.08318357305900569
1820000000.0 -0.051664422829436146 -0.13806306877986943
1840000000.0 0.05695461400070969 -0.17647831861010738
1860000000.0 0.1857804255322848 -0.1209748588941481
1880000000.0 -0.07895429357242993 0.24050247204289688
1900000000.0 0.14871519186596582 -0.24706168502800052
1920000000.0 -0.14452538257291062 0.27993015027462537
1940000000.0 0.28612257840560196 0.18233295246725847
1960000000.0 0.2545328186720589 -0.25904690106559713
1980000000.0 0.041303475309145084 -0.37900206083504606
2000000000.0 -0.05744877447715247 -0.39784947720331115
2020000000.0 -0.3644601765356759 -0.20520746687582933
2040000000.0 -0.4223399781117346 0.08964732926086812
2060000000.0 -0.02698320631023815 0.43865025685784303
2080000000.0 0.4116353887867312 0.1639927182377077
2100000000.0 0.16113075758413153 -0.40839683912776803
2120000000.0 -0.28607859811724295 -0.3231524382610649
2140000000.0 -0.27987881329829023 0.3093058179025903
2160000000.0 -0.39482131884772775 0.05900334516715823
2180000000.0 -0.2324771079823615 0.299250986949603
2200000000.0 -0.05461014864483244 0.3567485221290423
2220000000.0 -0.13645604747469917 0.3199783802453711
2240000000.0 -0.10531112849166951 0.3272487212233308
2260000000.0 -0.11238411317417894 0.329245837535568
2280000000.0 0.10679769763399609 0.3381126754593873
2300000000.0 0.3706105826443986 -0.03533966048290117
2320000000.0 -0.14598121739545517 -0.36974798139658055
2340000000.0 -0.21831148189700486 0.3724706430968799
2360000000.0 0.34904149009493074 -0.3154323269592456
2380000000.0 -0.4253009400554929 0.2932097044443236
2400000000.0 0.4335591811581917 -0.36248234065639506
2420000000.0 -0.1275296683907472 0.6015295868154079
2440000000.0 -0.3488193179214994 -0.5600813811980897
2460000000.0 0.6709635519878746 0.1878368397291656
2480000000.0 -0.7031448017817119 0.17461023905081788
2500000000.0 0.7173628334180733 -0.19076186200450537
2520000000.0 -0.7482984347307248 0.06793480601274536
2540000000.0 0.692891069410402 0.2906482374814882
2560000000.0 -0.33322537399913843 -0.6662063456985383
2580000000.0 -0.4250125480130482 0.5929087368846742
2600000000.0 0.6999136750605863 -0.08507873778578569
2620000000.0 -0.40618195939204554 -0.5387772628102699
2640000000.0 -0.6018933581524942 -0.21166069308280688
2660000000.0 0.07515846887266237 0.5881510692068783
2680000000.0 0.46721236156578194 -0.2844787052984876
2700000000.0 -0.4438653293512034 -0.2332585730241509
2720000000.0 0.08176049208296234 0.44859518098709367
2740000000.0 0.27943534585397833 -0.3059250248331834
2760000000.0 -0.3739489622432598 0.05158950996684546
2780000000.0 0.3327476568241848 -0.09884325282448726
2800000000.0 -0.29513667542780625 0.12804567144077644
2820000000.0 0.10741647878123674 -0.28539733888889823
2840000000.0 0.17312224922389646 0.23842526596252722
2860000000.0 -0.2891040431066341 -0.005246387758034023
2880000000.0 0.1465813970827516 -0.2470419629314549
2900000000.0 -0.03370541624946293 0.28478566308056297
2920000000.0 0.22691144469787092 -0.18159366522199702
2940000000.0 -0.28537930081515744 -0.07702743141540223
2960000000.0 -0.2000970337554474 0.22123326603284865
2980000000.0 -0.12304372411681126 0.27604970914605476
3000000000.0 -0.2663294831971395 0.14878224428497486
3020000000.0 -0.26669585832479026 -0.14813588899653815
3040000000.0 0.20730819067479808 -0.21912593583473414
3060000000.0 -0.05323867136224837 0.296804793841875
3080000000.0 0.018754531349879568 -0.296812828857085
3100000000.0 0.09023600722105068 0.2779281341473481
3120000000.0 -0.13747470213368715 -0.24944022358456708
3140000000.0 0.22870368023272875 0.15581928562400624
3160000000.0 -0.2599515523127682 0.043882493305011885
3180000000.0 0.18067976122234947 0.17001160302981122
3200000000.0 -0.1716535940578967 0.14846231120614606
3220000000.0 -0.1503786748245373 -0.1349563955245641
3240000000.0 0.08695894330339417 -0.14934889186285707
3260000000.0 0.09561397802126874 0.10125375221851456
3280000000.0 -0.1048977904915397 0.016076425390580854
3300000000.0 0.06763398890385049 -0.03258714040586503
3320000000.0 -0.00915547477739436 -0.04516335305818455
3340000000.0 0.014407141082790563 0.015896634224867832
3360000000.0 0.0037702649793936935 -0.002251463310246816
3380000000.0 0.008107871776398209 0.006361981528201586
3400000000.0 0.019553638774764914 -0.003353367808932833
3420000000.0 0.02083308699176216 -0.01984278962027815
3440000000.0 0.03495974445616194 -0.01847539708081753
3460000000.0 -0.04986241158771354 -0.005409778653000034
3480000000.0 0.03474786327688001 -0.05575308284872658
3500000000.0 -0.0523673674305022 0.06439815139786585
3520000000.0 -0.04724320542106662 -0.08763831599992979
3540000000.0 -0.01237697815976628 -0.11224063665656953
3560000000.0 0.12310278760955977 -0.005223151234974901
3580000000.0 -0.121602707505197 -0.05464686355903581
3600000000.0 0.14801869464196138 0.01839013120522552
3620000000.0 -0.049993707715017585 0.15062768188689296
3640000000.0 -0.10649246065557512 -0.13438243800409416
3660000000.0 0.12142516802802918 -0.13649522863834804
3680000000.0 0.19105517942950076 0.019533417796211185
3700000000.0 0.1925015120424314 0.03167588613823249
3720000000.0 0.1791840118267948 0.08259280377132666
3740000000.0 0.17645120735677708 -0.07638258555989413
3760000000.0 -0.006674610755644367 0.1830435335137817
3780000000.0 -0.1122856245821696 -0.12854038522601827
3800000000.0 -0.12684401272660142 0.08877837088354683
3820000000.0 -0.1348818764065609 -0.0500955983142189
3840000000.0 0.04865716469231724 0.12920431488256048
3860000000.0 -0.0014601826657813402 -0.14448340367711443
3880000000.0 -0.001361244572168579 -0.15725638471558392
3900000000.0 -0.03782932773442009 0.16171090466628557
3920000000.0 -0.1274973308088814 -0.11665225669848006
3940000000.0 -0.09635941354374403 -0.1478820237572146
3960000000.0 -0.14153571187830957 -0.10505641263309931
3980000000.0 -0.12412197354824801 -0.11805403395046749
4000000000.0 -0.13975449669979984 0.07466279065126064
