! Created with skrf (http://scikit-rf.org).
# Hz S RI R 50.0 
!freq ReS11 ImS11
400000000.0 -0.8511554699216071 -0.09474334743802755
420000000.0 -0.09124976910256753 0.8549007862895771
440000000.0 0.7946818556416063 0.2390381087483167
460000000.0 0.7772509193767935 -0.07739128575013869
480000000.0 -0.22277039416625358 0.6896679041992768
500000000.0 0.5506447421677897 -0.23676412160425933
520000000.0 -0.4210166484450188 -0.31242072354597133
540000000.0 -0.15400192190371176 -0.4231208817587635
560000000.0 0.04449343974416024 0.3971986430777016
580000000.0 -0.0996828163760324 0.3355439138680137
600000000.0 0.0998680175351147 0.34756518094780975
620000000.0 0.06911274783917072 0.35818554540020026
640000000.0 -0.32263038148398593 0.184124398391581
660000000.0 -0.08214188747549256 0.37780094275593507
680000000.0 0.2888715341640229 -0.25980474646098645
700000000.0 0.351708129946849 -0.20544708765468528
720000000.0 0.3979000790718827 -0.07153833137201955
740000000.0 -0.41556336582419745 0.020120510099733636
760000000.0 0.39521346691789483 -0.029882600847510488
780000000.0 -0.18825685041837872 -0.32105018892932713
800000000.0 0.1392477541179017 0.31292100692941965
820000000.0 -0.18996661116652355 -0.23148395342231692
840000000.0 0.21944462486481495 0.14945828510444534
860000000.0 0.1372111541594327 0.16961989782320794
880000000.0 0.15646051033801175 -0.08850767009226262
900000000.0 -0.08915318114107532 -0.07990396287236838
920000000.0 -0.06076231890028681 -0.04625425826210301
940000000.0 -0.010240876583821593 -0.062368164843644804
960000000.0 -0.06125149993135224 -0.025854338667521987
980000000.0 0.06512708140890029 -0.0486235345098134
1000000000.0 -0.04659228841218627 -0.0810308612874412
1020000000.0 0.004134403945675616 0.10453817630113785
1040000000.0 -0.05299913413254133 -0.10803274022676551
1060000000.0 0.1425490751706382 0.035312413514458435
1080000000.0 -0.15268150166549543 0.07062266275933703
1100000000.0 0.1815237505056396 -0.02466165220777604
1120000000.0 0.20562188050184096 -0.009953476482822202
1140000000.0 -0.2324099314386525 -0.0444574235814385
1160000000.0 0.16019724611095515 -0.2162383505063198
1180000000.0 0.23495026979642922 -0.19774767973006868
1200000000.0 -0.0028004101787554763 0.33433496292485176
1220000000.0 -0.16816827135443943 -0.3258076289454288
1240000000.0 -0.21021422030549544 0.3264856761598393
1260000000.0 0.3874169258102512 -0.16264720266882604
1280000000.0 -0.43418989077140424 -0.00972135235930367
1300000000.0 0.20542013410405388 0.39997500871771335
1320000000.0 0.2906325685720569 -0.3397450417284213
1340000000.0 0.3311628945021693 -0.29996824752703366
1360000000.0 0.12189988017207352 -0.42494593727181623
1380000000.0 -0.18222196820258343 -0.4028122802475627
1400000000.0 -0.14883206407960137 0.4002180061422468
1420000000.0 0.38507193752895663 0.12917431945827224
1440000000.0 -0.15604233015736862 -0.34453337822885294
1460000000.0 -0.33993955249038343 -0.03242677583890462
1480000000.0 -0.1988476706759946 0.23387396757055506
1500000000.0 -0.18856613035536332 0.19778815081737702
1520000000.0 -0.2414523670983855 0.03256372666010389
1540000000.0 0.10376812538399048 0.193504258788153
1560000000.0 -0.03629903505434199 -0.189422725421225
1580000000.0 0.15102481802067097 0.07964654390630907
1600000000.0 0.09262277164571582 -0.11545508591779545
1620000000.0 -0.0305796712371674 -0.11657666523249173
1640000000.0 0.04071382855186124 -0.08961776328427452
1660000000.0 -0.07460747063516597 0.006628039464117536
1680000000.0 -0.021650164271549713 0.048711492122883546
1700000000.0 0.030190320332983567 0.01780644944426096
1720000000.0 -0.003245083329823929 0.016938836490910207
1740000000.0 0.011290191694152482 0.008058829167113871
1760000000.0 -0.02902198709468884 0.020821387472315652
1780000000.0 0.03542677570869724 0.06049539650300674
1800000000.0 -0.10100935012168392 -0.04452050962098346
1820000000.0 -0.07790640121982696 -0.12536123614633324
1840000000.0 0.047899154550879106 -0.17896928319113845
1860000000.0 0.1732450833243418 -0.13802581789080143
1880000000.0 -0.06413427852486188 0.24494107777259014
1900000000.0 0.14409872862764578 -0.24952088235336264
1920000000.0 -0.14737561075512015 0.2784598813043308
1940000000.0 0.2790399625303143 0.19301421212419104
1960000000.0 0.2698843638345413 -0.24270524600716137
1980000000.0 0.0465234923490665 -0.378032876135673
2000000000.0 -0.06556912119178918 -0.3962968703149417
2020000000.0 -0.35434041043035946 -0.22212243554001496
2040000000.0 -0.4206236302400178 0.09886079632419237
2060000000.0 -0.023987914570557614 0.4389355229728154
2080000000.0 0.4152940858852631 0.15413223508568177
2100000000.0 0.19366871652897974 -0.39386098512949197
2120000000.0 -0.31706061998022184 -0.2916935565053558
2140000000.0 -0.2752476642778085 0.31321010653244363
2160000000.0 -0.38995551876649887 0.08652104384660474
2180000000.0 -0.18515093758345588 0.33116566196620284
2200000000.0 -0.06831429076094307 0.35380922038769347
2220000000.0 -0.09020388300247442 0.33574570276276494
2240000000.0 -0.09432165751984503 0.33016654121845296
2260000000.0 -0.06944416395608258 0.34071057375243957
2280000000.0 0.11989071471351334 0.33357849892813396
2300000000.0 0.3697616736782264 -0.0431949357073731
2320000000.0 -0.13984531202426997 -0.37219822719930995
2340000000.0 -0.23278107849428747 0.3632855844220926
2360000000.0 0.35030682080748393 -0.3133287665747514
2380000000.0 -0.4304767505186393 0.28414663228977194
2400000000.0 0.41735619946406166 -0.3806762925650983
2420000000.0 -0.14162380265449293 0.5982283882225858
2440000000.0 -0.33914093012355107 -0.5669084671863793
2460000000.0 0.6637004167544595 0.21472822000145683
2480000000.0 -0.7064716893920728 0.1666425055829155
2500000000.0 0.732976660366488 -0.12733761423909554
2520000000.0 -0.7519971321712202 -0.028366032486318832
2540000000.0 0.6407347966298276 0.39632595272137966
2560000000.0 -0.21561771163551902 -0.7143588748492463
2580000000.0 -0.5399684448226538 0.4911555152244102
2600000000.0 0.7019732076072677 0.0620843231505478
2620000000.0 -0.3172409806652258 -0.59443020252811
2640000000.0 -0.5562906259476125 -0.30917685692435776
2660000000.0 -0.008743836095153933 0.5915574680654316
2680000000.0 0.49459603096140686 -0.23125507204105336
2700000000.0 -0.40217315567551926 -0.2969297805484212
2720000000.0 0.050769235632239215 0.4517136289104571
2740000000.0 0.28657981698533197 -0.29682256388088096
2760000000.0 -0.364236840681205 0.09428016647536819
2780000000.0 0.3187086988582006 -0.13503717370898102
2800000000.0 -0.2763825474273296 0.16442981634729573
2820000000.0 0.06796389225257884 -0.29711256040498846
2840000000.0 0.19306597133334974 0.22339893954606718
2860000000.0 -0.2869642883475389 0.04137144741179523
2880000000.0 0.1490303577927731 -0.24732413983363383
2900000000.0 -0.026737760063860534 0.28654821595995894
2920000000.0 0.24287260756037365 -0.16217545411565945
2940000000.0 -0.251435927088013 -0.15895590762023237
2960000000.0 -0.2388239805488577 0.18068249500681166
2980000000.0 -0.14794876890504136 0.2643123060368948
3000000000.0 -0.2956915810932492 0.07831650934251431
3020000000.0 -0.22553800732597154 -0.2071406702820232
3040000000.0 0.2871566456631233 -0.0933522434751687
3060000000.0 -0.15749547234586908 0.2560131181091394
3080000000.0 0.09405113584943356 -0.28134460132073513
3100000000.0 0.053541412565105126 0.28694883240755115
3120000000.0 -0.023216554322028998 -0.2824856119137599
3140000000.0 0.20840926157485523 0.18163432832738577
3160000000.0 -0.2623826434603109 0.0005740559740517384
3180000000.0 0.15350761893132106 0.19332113586354083
3200000000.0 -0.16121885176521328 0.157643028278315
3220000000.0 -0.1608513834246615 -0.12026363384105761
3240000000.0 0.0388631389200251 -0.16694591526311137
3260000000.0 0.13268793394703426 0.03976151023276389
3280000000.0 -0.08236528342050356 0.06664574971847943
3300000000.0 -0.010817891650177778 -0.07396824925828004
3320000000.0 -0.03622218624127826 0.029085236966504217
3340000000.0 -0.00035699992803871184 -0.02144192950681064
3360000000.0 0.0029412364720721607 -0.0024302041716433927
3380000000.0 -0.0018803385592656308 0.009373784398826883
3400000000.0 0.010185696566711679 0.015931678132729644
3420000000.0 0.025730917214547587 0.0102765201132985
3440000000.0 0.034532151117550855 0.016670462672637408
3460000000.0 -0.0368222959127682 -0.03338456761404022
3480000000.0 0.03909321191199752 -0.05210292870215483
3500000000.0 -0.08184445791295242 0.004435873084160875
3520000000.0 -0.08275508947482353 -0.05355422228498725
3540000000.0 0.01604255846301535 -0.1114759740849631
3560000000.0 0.12075759260267452 -0.022558265670723214
3580000000.0 -0.1019219965569725 -0.08364645193194045
3600000000.0 0.14847340723878766 -0.015372185926059512
3620000000.0 -0.04546405602831776 0.1510559790163286
3640000000.0 -0.13675113131545982 -0.10042220129017351
3660000000.0 0.07076368107355008 -0.1679174794127713
3680000000.0 0.18945649606687445 -0.03088543618797147
3700000000.0 0.19445086297516054 -0.0044690945414640896
3720000000.0 0.18045263465270256 0.07939793926639117
3740000000.0 0.16393036634096284 -0.09942074719550271
3760000000.0 -0.015719082786441657 0.1824878152000781
3780000000.0 -0.1326439766101223 -0.10722041636571232
3800000000.0 -0.1329173850157375 0.08060032570229143
3820000000.0 -0.12455440944368537 -0.07392262676626966
3840000000.0 0.029681931279050302 0.1351464241857362
3860000000.0 0.0012260643998564357 -0.14436721981308895
3880000000.0 -0.029566914293537114 -0.1540843550030904
3900000000.0 -0.028271554691386234 0.16351740007890941
3920000000.0 -0.12980609198488877 -0.11391634632345704
3940000000.0 -0.12179179920098837 -0.1273889433712255
3960000000.0 -0.15310894753187404 -0.08543876975715316
3980000000.0 -0.14644129963235056 -0.08714101358452724
4000000000.0 -0.08139979034104068 0.13476424618369054
