! Created with skrf (http://scikit-rf.org).
# Hz S RI R 50.0 
!freq ReS11 ImS11
400000000.0 -0.8542072297081107 -0.07664883431107379
420000000.0 -0.092109759882571 0.8564181423195147
440000000.0 0.7916370483039259 0.25276745901406655
460000000.0 0.7799019992366973 -0.04250136376473569
480000000.0 -0.24802079334263982 0.6809212296509137
500000000.0 0.5478529334611025 -0.24460611562914186
520000000.0 -0.4258413131702729 -0.30615284919113506
540000000.0 -0.17443508554865134 -0.41444904916016323
560000000.0 -0.035115600406272846 0.39817016941182853
580000000.0 -0.14743751677741243 0.31732807302304494
600000000.0 0.054803423618917727 0.3562422007930993
620000000.0 0.09705842607228163 0.3501854047811786
640000000.0 -0.2904310331307442 0.22769107372963387
660000000.0 -0.04843707964653635 0.38248824003542803
680000000.0 0.21453351592403108 -0.32357243011529147
700000000.0 0.270954953370764 -0.30394905479217466
720000000.0 0.3777761096832518 -0.14323736458164468
740000000.0 -0.39704738557409053 0.12459267308999218
760000000.0 0.39290916075694116 -0.05912257849334115
780000000.0 -0.2239210365369004 -0.29919998248237933
800000000.0 0.11548582554603909 0.3236126730143793
820000000.0 -0.14072305526353637 -0.2652947352026298
840000000.0 0.18009534849665426 0.1959764528629115
860000000.0 0.07361896984821135 0.20511542102984162
880000000.0 0.1784605690199965 -0.0017743054841990991
900000000.0 -0.0681272013339422 -0.095648510473018
920000000.0 -0.07180616219942805 -0.019679548370298828
940000000.0 -0.05596576951289097 0.027273575195548606
960000000.0 -0.041812788480206683 0.053174460764231865
980000000.0 0.044390404337153494 -0.07050426644200379
1000000000.0 -0.0020334094492406537 -0.09556305412076704
1020000000.0 -0.0706215802990542 0.0788694860370799
1040000000.0 0.06692756829341305 -0.10062814810805977
1060000000.0 0.08027274559609242 0.1223247836131921
1080000000.0 -0.16484847955859142 -0.025615969041616667
1100000000.0 0.17716495920886877 0.037498416737885454
1120000000.0 0.20331675794997392 -0.004480800095670081
1140000000.0 -0.23422215849080785 -0.006523345087848501
1160000000.0 0.09468179835039066 -0.24937995386794928
1180000000.0 0.15313591114575814 -0.2641739750395865
1200000000.0 0.12355347726655787 0.30928544391924145
1220000000.0 -0.27362190965499983 -0.24260401482925448
1240000000.0 -0.10200618778138469 0.3742866892392137
1260000000.0 0.34210705485546233 -0.24402498243284634
1280000000.0 -0.43101202752909035 0.05650126166705007
1300000000.0 0.2529047379056148 0.3723658816292846
1320000000.0 0.2779254932347315 -0.3510654232397986
1340000000.0 0.3218651563982376 -0.31092671391411625
1360000000.0 0.12949725002575957 -0.42340984541151905
1380000000.0 -0.1641053980658516 -0.41083263361824196
1400000000.0 -0.18073014970907447 0.38696651282745775
1420000000.0 0.370235342435757 0.16637415365601887
1440000000.0 -0.10739022625421293 -0.362109624752776
1460000000.0 -0.33055687315200677 -0.08271205603178267
1480000000.0 -0.17233588357008423 0.25284668358110873
1500000000.0 -0.21088716499269916 0.1719889248829272
1520000000.0 -0.2422497974624315 0.00473580183249024
1540000000.0 0.09135030254112537 0.19838939453760904
1560000000.0 -0.06017105387264558 -0.18196362604009947
1580000000.0 0.16467232871621465 0.04114800721029663
1600000000.0 0.037233388217252646 -0.14253000949442715
1620000000.0 -0.09481848051052344 -0.0738570231987864
1640000000.0 -0.025064992263341697 -0.09550996795511257
1660000000.0 -0.05242610875842022 0.054610719938373964
1680000000.0 -0.013790004297082412 0.05236825093971473
1700000000.0 0.02282314331507106 0.028004963968178996
1720000000.0 0.0021944723426740452 -0.017557607954279728
1740000000.0 0.008654634901405747 -0.009602916446887948
1760000000.0 0.023848488817184932 0.026102588443377667
1780000000.0 0.07044168710014584 0.0006769525173845266
1800000000.0 -0.10981725189619214 0.015074944248400838
1820000000.0 -0.1127846523299509 -0.0963329577562572
1840000000.0 0.013284602364681462 -0.18553891529285932
1860000000.0 0.15456035594484027 -0.15987295879441024
1880000000.0 -0.06096009559673419 0.2464329073027203
1900000000.0 0.15813746551237493 -0.24130051919918866
1920000000.0 -0.16782789038556603 0.26691493241196457
1940000000.0 0.2528047559930666 0.22633823123754496
1960000000.0 0.29788336724715775 -0.20717238308981392
1980000000.0 0.09132646577012732 -0.3694382024966069
2000000000.0 -0.03626245559284696 -0.3995035680879541
2020000000.0 -0.33795187438600194 -0.24551602256487298
2040000000.0 -0.42123308257276765 0.09335620287883854
2060000000.0 0.019774361753356253 0.43829433278179425
2080000000.0 0.41604860942450933 0.1500921527498625
2100000000.0 0.1646007970281089 -0.4058847663208408
2120000000.0 -0.3678621106319303 -0.22275428793903637
2140000000.0 -0.2752595966015902 -0.31201532028825424
2160000000.0 -0.3525443156045562 0.18613637528656446
2180000000.0 -0.13550106485811714 0.35387226110687325
2200000000.0 -0.028872224361296016 0.3590160905955736
2220000000.0 -0.036545860745237184 0.34582432897581455
2240000000.0 -0.08530410891919403 0.33322188532684843
2260000000.0 -0.072052097429916 0.34079813327431363
2280000000.0 0.11372515309120837 0.3363175390047875
2300000000.0 0.3705470976229322 -0.04179721137251906
2320000000.0 -0.13069613501721897 -0.37593341683901443
2340000000.0 -0.24286501576547817 0.356783149038794
2360000000.0 0.35840149276894173 -0.30407827923316166
2380000000.0 -0.430113859644972 0.2847036478317279
2400000000.0 0.4113515541017785 -0.3866114974632202
2420000000.0 -0.13108062018611524 0.6001815721850344
2440000000.0 -0.35072967781493847 -0.5590222845860174
2460000000.0 0.6660486379687899 0.2046307558160602
2480000000.0 -0.7053589666766157 0.1686771897210558
2500000000.0 0.7204391165530829 -0.18236386592084255
2520000000.0 -0.7520429759708984 0.004952693500204198
2540000000.0 0.6785142022822883 0.3264497967916573
2560000000.0 -0.25052010797081103 -0.7027291782021066
2580000000.0 -0.48261106738420795 0.5474012014813671
2600000000.0 0.7046612347241245 -0.0009870824538918627
2620000000.0 -0.3868286557773663 -0.5519816503971502
2640000000.0 -0.5894229820314838 -0.24084800786939364
2660000000.0 0.04354367706437916 0.5904344703167457
2680000000.0 0.47851161910335394 -0.2638780584381225
2700000000.0 -0.4275789815010182 -0.259973735259104
2720000000.0 0.06783499622523755 0.4499545854327669
2740000000.0 0.2773526407679823 -0.30623307451967524
2760000000.0 -0.3665987849312939 0.08642406529674072
2780000000.0 0.32397731164900273 -0.12261151027940444
2800000000.0 -0.29001588230314795 0.13906486009810695
2820000000.0 0.08883895216636073 -0.29136503494679883
2840000000.0 0.16991213330159533 0.24100019772918338
2860000000.0 -0.2884327882995659 0.021228626272708013
2880000000.0 0.15965952663187757 -0.23935130026824208
2900000000.0 -0.06324250806350094 0.27993574134658883
2920000000.0 0.24709372294706392 -0.1539795412076229
2940000000.0 -0.2585809611226014 -0.14432574983150892
2960000000.0 -0.22456281787848995 0.19637360958274155
2980000000.0 -0.10661625945943067 0.28261001430806393
3000000000.0 -0.25804812439015296 0.16174085153456952
3020000000.0 -0.26771970395201605 -0.14670525676221802
3040000000.0 0.2484942260310451 -0.17060088471681667
3060000000.0 -0.08159014788218881 0.28902387775336374
3080000000.0 0.004224267502061203 -0.29624582369685504
3100000000.0 0.1319428057119245 0.26018276118634026
3120000000.0 -0.08881381225751457 -0.269426452469591
3140000000.0 0.24452380169698446 0.12974100484967277
3160000000.0 -0.25767282367821936 0.05267101084848608
3180000000.0 0.1891468673420712 0.16002093150164712
3200000000.0 -0.14074402009488174 0.17726655199628424
3220000000.0 -0.17490765776821335 -0.100668853409509
3240000000.0 0.02781385976564424 -0.17045397579101024
3260000000.0 0.12953111165311132 0.0514572032618927
3280000000.0 -0.09434092071692282 0.05048225790228904
3300000000.0 0.013522753379574445 -0.07457764564188667
3320000000.0 -0.046425308267876934 -0.00592701537930611
3340000000.0 0.020996597506840464 0.006536556839158531
3360000000.0 0.00092921925179599 -0.004688338899104842
3380000000.0 -0.008810572683379168 0.0036259294354413804
3400000000.0 0.004859009550368729 -0.01799714904146245
3420000000.0 0.010921939787279521 -0.025266703357861128
3440000000.0 0.0376492278292022 0.005293709700846684
3460000000.0 -0.049749090733573455 -0.0038957916467318356
3480000000.0 0.004516307954486624 -0.06532007587438413
3500000000.0 -0.03178759276425858 0.07626646608410251
3520000000.0 -0.09818368794891633 -0.013960867185074163
3540000000.0 -0.028966900061019867 -0.10933892796246425
3560000000.0 0.11596286139932885 -0.041885548563223664
3580000000.0 -0.13165832121185095 -0.022108465647895193
3600000000.0 0.14684799737532245 -0.030332525123209716
3620000000.0 0.006907943628927883 0.15863397911321045
3640000000.0 -0.1639276270961914 -0.05158701990056747
3660000000.0 0.03463762904332861 -0.18016031118324624
3680000000.0 0.18000177243549892 -0.07036927928910175
3700000000.0 0.19202210061308228 -0.04068481783437621
3720000000.0 0.18873486421126384 0.061969647243544236
3740000000.0 0.15905802453333753 -0.10917102424226512
3760000000.0 -0.012612650232220293 0.1842650055778654
3780000000.0 -0.1425631401908658 -0.09526216800954761
3800000000.0 -0.13436081882733145 0.08099789958686558
3820000000.0 -0.12887471848685023 -0.0683231643248656
3840000000.0 0.024049643154931945 0.13826622600013908
3860000000.0 -0.01770819873664364 -0.1450066334054129
3880000000.0 -0.039437885063200784 -0.15358664955435122
3900000000.0 -0.0377942220120808 0.1637895251249787
3920000000.0 -0.13706248595869863 -0.10729148029476865
3940000000.0 -0.11670138145760348 -0.13433491841066886
3960000000.0 -0.1330501579966791 -0.11715228907287162
3980000000.0 -0.1066852035699702 -0.13473146593175167
4000000000.0 -0.1400976819994108 0.07481503865843073
