! Created with skrf (http://scikit-rf.org).
# Hz S RI R 50.0 
!freq ReS11 ImS11
400000000.0 -0.10380052597661117 0.8636211868067403
420000000.0 0.3642353262869576 0.7807694440319312
440000000.0 0.8276616726366663 -0.060353285321350106
460000000.0 0.3129086376329104 -0.7287430962467617
480000000.0 0.6440195064985831 -0.31210559479420247
500000000.0 -0.05455066409977179 -0.5694763347578556
520000000.0 -0.09303299493279946 -0.4829142319328247
540000000.0 0.2708172613481167 -0.33819180609377614
560000000.0 -0.21877124841964873 -0.28648431182548983
580000000.0 -0.037842937122498053 0.3359351068711446
600000000.0 0.30795037078912846 -0.13172237941968482
620000000.0 -0.32692803866267073 0.1453586341749583
640000000.0 0.04181501119391248 0.38562913570502
660000000.0 0.4001718617757485 -0.012685834571978683
680000000.0 -0.07045494716210236 0.41428643358007505
700000000.0 0.28316441536725834 -0.3261321001729771
720000000.0 -0.28113422739097826 -0.32059592107072726
740000000.0 0.39034387015661803 0.1505479699083058
760000000.0 0.07859672723402762 -0.39312108818585223
780000000.0 0.10156732978810824 0.3582185474685094
800000000.0 0.16242231513242839 -0.3041199233645822
820000000.0 0.2916082926693152 -0.041434659131428526
840000000.0 -0.08341543400937865 -0.23503275526455375
860000000.0 0.19345779141730954 -0.09296113407476762
880000000.0 -0.1140519266996413 0.11124787446762148
900000000.0 -0.016021122713803605 0.0935109663158533
920000000.0 -0.06213475235265488 -0.014527272728432565
940000000.0 -0.027612363173474933 0.03886689571810479
960000000.0 0.026717343915755355 -0.04656269607332696
980000000.0 0.03133452167539754 0.06357539261927429
1000000000.0 -0.03748715717880691 -0.07112895132658492
1020000000.0 0.06648326075810339 0.0716469437731763
1040000000.0 0.07466992953947447 0.08262778608378345
1060000000.0 -0.04751431661067928 0.13841627186756392
1080000000.0 -0.1548900102702561 -0.039187312761611186
1100000000.0 -0.12150646385188975 0.13525429427997526
1120000000.0 0.1240991195355872 0.15947301481991188
1140000000.0 0.19697116224914332 -0.12486862748628877
1160000000.0 0.26934778296715006 0.01400153405329527
1180000000.0 0.20915968397139087 0.22575213528498952
1200000000.0 -0.06832598744986232 0.3317929458950656
1220000000.0 0.056978095715903024 -0.3609326184188456
1240000000.0 -0.18606829466064503 0.3460966278164058
1260000000.0 0.410569560506419 -0.09739388547746036
1280000000.0 -0.4437901918136201 -0.008231670371866647
1300000000.0 0.42462045974060186 0.16787770490355744
1320000000.0 -0.20763889528554835 -0.4032484131200216
1340000000.0 -0.3939829037863532 -0.20724329427084898
1360000000.0 -0.3429648949825674 -0.2641415924478987
1380000000.0 -0.3846203642457938 -0.19014293509740476
1400000000.0 -0.3745812113385928 0.1798266860250442
1420000000.0 0.0633468820385534 0.39243601798260164
1440000000.0 0.3426116949929704 0.14529443352279559
1460000000.0 0.20539276354220468 -0.27672712450178
1480000000.0 -0.12660093103263606 -0.28757894188079597
1500000000.0 -0.2605530548011758 -0.11140074938500524
1520000000.0 -0.253969219346895 -0.028881945212809245
1540000000.0 0.22770063601126983 -0.013327116992086123
1560000000.0 -0.09799570435363257 0.17033849896637332
1580000000.0 -0.054755377658565044 -0.16417863033033944
1600000000.0 -0.09533534832684841 0.11120320382814124
1620000000.0 0.09985954232907338 0.06324324903977442
1640000000.0 0.09396493875777068 0.010657933698607453
1660000000.0 -0.060323300643098245 -0.035711738070775725
1680000000.0 0.004018673405243727 0.046368787116079925
1700000000.0 -0.010986610562021108 0.027111486874883708
1720000000.0 -0.007972767582670539 0.011217002067575057
1740000000.0 0.018307034727235886 -0.008768154937468554
1760000000.0 0.04070117587006857 -0.005272832278614568
1780000000.0 -0.05234914665199385 0.05352867346788617
1800000000.0 0.06647699706195802 -0.09152406367935784
1820000000.0 0.09892980045709064 -0.10705551070379941
1840000000.0 0.13209599317085885 0.12093069876690359
1860000000.0 -0.2097715070117009 0.00388135903561189
1880000000.0 0.12418234258033155 0.20650658812309178
1900000000.0 0.19249265807201205 -0.19559559142777025
1920000000.0 -0.22942666933708078 -0.20140529119793582
1940000000.0 -0.32863830877276534 0.07661218960271542
1960000000.0 -0.017368832904975536 0.3668078721927684
1980000000.0 0.38776576455945305 -0.06248317112101857
2000000000.0 0.09781496655664965 -0.40359097816299294
2020000000.0 -0.4310512760627612 -0.0010014028692821488
2040000000.0 -0.07503026312459407 0.43164040243081314
2060000000.0 0.4309118678882956 0.08370887259401519
2080000000.0 0.36552912377294494 -0.23567336718893708
2100000000.0 0.11053522166107155 -0.4139676009531274
2120000000.0 -0.13109120402155222 -0.3981006135260383
2140000000.0 -0.37840784831873936 -0.15296900099494146
2160000000.0 -0.13085798472787494 -0.3707671725713772
2180000000.0 -0.3315006581268828 -0.17684513273468686
2200000000.0 -0.3315678674904014 0.14024961883288117
2220000000.0 -0.21919486170614225 0.26751612632205146
2240000000.0 -0.0982338995390647 0.326442281470338
2260000000.0 -0.033086301639678656 0.33922689689428126
2280000000.0 0.04351098310289488 0.343861411827478
2300000000.0 0.35315220225412397 0.0796199746487497
2320000000.0 0.0325708476475069 -0.38684499465494643
2340000000.0 -0.38264618834142966 0.1784537075277624
2360000000.0 0.46432240489853605 0.015480315423222736
2380000000.0 -0.5099903471425832 0.0292807569507786
2400000000.0 0.5541719497156566 -0.08548831139751521
2420000000.0 -0.528199664168565 0.3083027118873379
2440000000.0 0.2656214212117027 -0.6035849002441777
2460000000.0 0.17359799084373795 0.6768741035895588
2480000000.0 -0.4871247355169248 -0.5421880226655333
2500000000.0 0.4241680612857557 0.617467503823257
2520000000.0 -0.30579370174669485 -0.6944374890288666
2540000000.0 -0.006112895794996292 0.7597712334099065
2560000000.0 0.5511595986606304 -0.5134571920927912
2580000000.0 -0.712220663409836 -0.19214298393801607
2600000000.0 0.26839424857223804 0.6610015036647576
2620000000.0 0.36588561876002507 -0.5763430994902208
2640000000.0 0.013825643668289552 -0.6444606571028653
2660000000.0 -0.47033857020172753 0.37275307984081835
2680000000.0 0.5295930131501076 0.15648016597315606
2700000000.0 -0.12961926858904008 -0.48770357046733864
2720000000.0 -0.28137444572630793 0.3605181337253565
2740000000.0 0.4149367203674145 -0.0233599295516125
2760000000.0 -0.3013665874590857 -0.23037701863420923
2780000000.0 0.3283166120232497 0.12559922597054493
2800000000.0 -0.32109798336686607 0.06995637845186757
2820000000.0 0.014883211613227676 -0.3121113904985892
2840000000.0 0.2973338542930258 0.04558582935593936
2860000000.0 -0.08061620758035883 0.28464297941946193
2880000000.0 -0.21648013063554417 -0.1984593926187262
2900000000.0 0.2580181908716887 0.13880483003212554
2920000000.0 0.004602511429499996 -0.2950912381688128
2940000000.0 -0.29776058387014437 0.030369684872320876
2960000000.0 -0.21574651901732192 0.209220151652092
2980000000.0 -0.29700932431059934 0.07159238846967843
3000000000.0 -0.2400981818640846 -0.19528819587373805
3020000000.0 0.08541868336536262 -0.29940009869416245
3040000000.0 0.21303988712079078 0.22481805825878282
3060000000.0 -0.30780857509258297 0.020145079650033607
3080000000.0 0.21393566596373917 -0.21739234526647153
3100000000.0 -0.031954664205801064 0.2969798333798071
3120000000.0 -0.020696606245141323 -0.28880944952393267
3140000000.0 0.1721670182303169 0.22122192018627881
3160000000.0 -0.26613473043306624 0.01502586809697654
3180000000.0 0.20778229853639504 0.1390497275331385
3200000000.0 -0.11210651130100738 0.19784141633169125
3220000000.0 -0.20020495602013835 -0.013082671934822335
3240000000.0 -0.03300487074637339 -0.16591938261847688
3260000000.0 0.017999046277043927 0.1334383637661543
3280000000.0 0.09612574512516713 -0.03688022774560073
3300000000.0 0.01763925990599778 -0.07403087019926766
3320000000.0 0.013852766995061334 -0.049502460920977334
3340000000.0 0.013445224009037627 -0.027594920081039948
3360000000.0 0.005391417180354024 -0.01315902478820172
3380000000.0 0.0022934578110961226 -0.003341102404451729
3400000000.0 0.009862551876692313 0.014235547209192612
3420000000.0 -0.03373705369974384 0.000943954890913218
3440000000.0 -0.04799580376604795 0.000860808859382471
3460000000.0 -0.002060436277012589 -0.0567816873765458
3480000000.0 -0.060471046052027626 -0.029130182903910274
3500000000.0 -0.06687751284958847 0.039047402502299135
3520000000.0 -0.013870458330109015 0.08795209455060464
3540000000.0 0.07846195026682402 -0.06646784283919398
3560000000.0 -0.10774072655396523 -0.04475294155062574
3580000000.0 0.04549482894973454 0.12430051052365283
3600000000.0 -0.1328224094751489 0.07738226462771725
3620000000.0 -0.11761391002852654 0.1218935957966022
3640000000.0 -0.168264786244619 0.0638792650343349
3660000000.0 -0.13464277354828827 0.13384270274767088
3680000000.0 -0.16998753242273984 0.08929480503246538
3700000000.0 -0.1879011832818106 -0.03056456969862549
3720000000.0 -0.053029113437956354 -0.1801648286123404
3740000000.0 0.142559002591847 -0.11496002538016048
3760000000.0 -0.168782878515511 0.05243898085883668
3780000000.0 0.16935029033745172 -0.0040523086209238906
3800000000.0 -0.034900708442361913 -0.15835123504460338
3820000000.0 -0.1436626549526846 -0.05904037522507866
3840000000.0 -0.08868773045086976 -0.11910963307228241
3860000000.0 0.1462166859899886 -0.025529376186184158
3880000000.0 0.11660083984304363 -0.10137467289453193
3900000000.0 -0.0988595007764987 -0.12233887596530091
3920000000.0 -0.06371576756763446 0.14915147438844384
3940000000.0 0.00011309894475728931 -0.16622000700361247
3960000000.0 0.15443562755108994 -0.07477464369669226
3980000000.0 0.03055543233302239 -0.16978748785647527
4000000000.0 0.00045875576858093043 -0.16468382740909154
