! Created with skrf (http://scikit-rf.org).
# Hz S RI R 50.0 
!freq ReS11 ImS11
400000000.0 -0.7057418318849933 0.5018178332975364
420000000.0 0.2325280121935177 0.8337322632259258
440000000.0 0.7919140721568868 -0.27543357385867673
460000000.0 0.16499040204433804 -0.770408807676435
480000000.0 0.5563040077869525 -0.4571503097807053
500000000.0 -0.3204024443770152 -0.4626412869875453
520000000.0 -0.46272707378781486 -0.16562325381255705
540000000.0 -0.09193282343638981 -0.3989020373938892
560000000.0 -0.3251231137876628 -0.16663222047613901
580000000.0 0.2248690582801911 -0.23072856744625608
600000000.0 -0.15978176841863637 -0.2869881824592986
620000000.0 0.3196529286393462 -0.0870612113102757
640000000.0 -0.3473324932439869 0.026902125918475035
660000000.0 -0.2454190219820883 0.2942096745630794
680000000.0 0.1584130844737175 -0.37047588012496396
700000000.0 -0.43366208610935275 0.060269057931787336
720000000.0 -0.018043933687780858 0.4394664660611612
740000000.0 -0.4385702354565098 0.11558054414802947
760000000.0 0.0033731299670987118 -0.43339807869446817
780000000.0 0.3525149951073954 0.19200510614955316
800000000.0 0.06310731879815258 0.35788958444678304
820000000.0 -0.08348708366654714 0.2891057748450135
840000000.0 0.14918659176535864 -0.20303545904810064
860000000.0 -0.02247689370726017 -0.2002376923484139
880000000.0 -0.07855720946321228 -0.12820280176399304
900000000.0 0.05090268085254395 0.05453119826515356
920000000.0 0.022662366630486153 -0.03551910818025983
940000000.0 -0.04079566904002618 -0.025744872950729376
960000000.0 -0.028744176321433144 -0.050836440646985004
980000000.0 0.0016398854874582725 -0.06315359212954068
1000000000.0 0.023977201416042215 -0.06438579926132972
1020000000.0 0.06257463362186956 -0.03596025623931245
1040000000.0 -0.07796608382643792 0.0003884487303034857
1060000000.0 0.100399642118999 -0.0488707998671909
1080000000.0 0.12078278203091221 -0.05908711212411758
1100000000.0 0.09123196365269742 -0.13142122487011643
1120000000.0 0.03285081825502829 -0.19345632309237146
1140000000.0 0.16807808301294544 0.1742876038228359
1160000000.0 0.18024257499815494 -0.22333153798042873
1180000000.0 -0.3197198063539615 0.08648863391043435
1200000000.0 -0.3613535311931116 -0.015059060985714546
1220000000.0 -0.229803709692837 -0.32055927906922577
1240000000.0 0.38719800453589687 0.14368126878986076
1260000000.0 -0.43598266586804396 -0.02796437626406935
1280000000.0 0.43347802995377926 0.09085845639242716
1300000000.0 -0.17705436398774518 -0.41193127117796546
1320000000.0 -0.36842799320075337 0.23387485152992102
1340000000.0 -0.39803538041193365 -0.15493325092408966
1360000000.0 -0.13417828456552197 -0.40025401403071753
1380000000.0 -0.16291113492432177 -0.38832956528350554
1400000000.0 -0.3948256754413789 0.0878340196768785
1420000000.0 -0.3688875296612114 0.12305455274278566
1440000000.0 -0.051716538514801035 0.36406800653523524
1460000000.0 -0.04052649743245813 0.3390762816306572
1480000000.0 0.1866864973345921 0.26288522452554086
1500000000.0 0.2564711419837138 -0.15494263666700916
1520000000.0 -0.21754761338352432 0.1688423343964938
1540000000.0 0.2455837194431894 -0.060433210480269
1560000000.0 0.1768275239953283 -0.13234803860229624
1580000000.0 -0.018058391089713667 -0.1874667791807233
1600000000.0 0.15435396245098584 -0.005702958666289855
1620000000.0 0.023612671295399464 0.11506081520105853
1640000000.0 0.06802610002762861 -0.05357161276455282
1660000000.0 -0.0416250775112482 0.04412035361718863
1680000000.0 0.0013525442584679094 0.03194981248516937
1700000000.0 -0.0007027150932478347 -0.012799301636734447
1720000000.0 -0.02227009141755915 -0.00035196725995220534
1740000000.0 -0.02991526489121435 0.029695941642048244
1760000000.0 0.013441099469713107 -0.0611889798048896
1780000000.0 0.08406549414243632 0.007345448323139659
1800000000.0 -0.10873770935536388 0.040569136877541795
1820000000.0 0.12433346314440151 -0.07097520625373473
1840000000.0 -0.16620424395432373 -0.036289031760577115
1860000000.0 0.14541427559757875 0.1337714709486661
1880000000.0 0.21395589639304735 0.06803657236865443
1900000000.0 0.2569713387085332 0.027776258980037133
1920000000.0 0.12350438853765955 -0.26424024380939326
1940000000.0 0.09259296624865097 -0.31252807040353964
1960000000.0 -0.31711510285518013 -0.17358523326319533
1980000000.0 -0.179427228167951 0.34729690180457445
2000000000.0 0.31403818186544397 0.2775167939005205
2020000000.0 0.2057653688383036 -0.39182094130611583
2040000000.0 -0.4184926112981054 0.18519550130994658
2060000000.0 0.4408720206532913 0.13377862269905355
2080000000.0 -0.19474807343264078 -0.41409950221200265
2100000000.0 -0.2692236599917841 0.3524336492420147
2120000000.0 0.23041475752022794 0.3532753417349251
2140000000.0 -0.27865843331166534 0.28296311430011084
2160000000.0 -0.3140546480132065 0.2074413617808899
2180000000.0 -0.29298209662162694 -0.20420831337526862
2200000000.0 0.006483210163898894 -0.3450528478142877
2220000000.0 0.3209717577368702 -0.11702577000111945
2240000000.0 0.2437334906913066 -0.24627069155593276
2260000000.0 -0.051893455018024774 -0.3519337272017733
2280000000.0 -0.3559324732122641 0.08574266478398647
2300000000.0 0.3343610134464182 0.18568647420397913
2320000000.0 -0.19250606306929452 -0.3568058165571505
2340000000.0 -0.16729421728374652 0.3989865298916576
2360000000.0 0.27592669614873544 -0.3782116535315033
2380000000.0 -0.4731250719505419 0.19234645200815237
2400000000.0 0.5245752116113908 -0.1948321884745189
2420000000.0 -0.469055315491873 0.389319077774255
2440000000.0 0.19173396249198926 -0.6282189544320719
2460000000.0 0.24810289639121866 0.6498614649690893
2480000000.0 -0.555334909541467 -0.4674738413058142
2500000000.0 0.5458476812972047 0.5088334789586014
2520000000.0 -0.46947751119064207 -0.5928624063110632
2540000000.0 0.23506019777021825 0.720293802494237
2560000000.0 0.3741441259851401 -0.6524439286905613
2580000000.0 -0.7287755676543153 0.10817215486702754
2600000000.0 0.5160101454296689 0.4910611414015473
2620000000.0 0.06639504675068214 -0.6779198604155493
2640000000.0 -0.1495483601489156 -0.6261020119780911
2660000000.0 -0.4702376057056822 0.37075014458264494
2680000000.0 0.44883593172183106 0.327405195766145
2700000000.0 0.06950745768445027 -0.5089853189901814
2720000000.0 -0.2793516731006158 0.3787313377325745
2740000000.0 0.3889196473790908 -0.18429928626143818
2760000000.0 -0.29010211875306074 0.2657479290772847
2780000000.0 -0.059248447349813195 -0.35446768119108013
2800000000.0 0.27347808002491825 0.18569225959193417
2820000000.0 -0.26326310117002644 0.16069173556891297
2840000000.0 0.10945699928938091 -0.27082295870257744
2860000000.0 -0.07284875749650783 0.27340703577700864
2880000000.0 0.0037628393885917487 -0.2796104237251611
2900000000.0 -0.1801159325501857 0.21211977530984125
2920000000.0 0.14386040908925404 0.246491204011619
2940000000.0 0.21490515876376348 -0.20023138950890337
2960000000.0 0.09904922231513526 -0.28455719761774273
2980000000.0 -0.14796297132785635 -0.27460002427218344
3000000000.0 -0.11466592661115907 -0.2948298714415218
3020000000.0 0.032728453153576864 -0.3184896193615489
3040000000.0 0.27239291079985195 -0.16126233476742322
3060000000.0 0.11226634718061737 0.29217106527626524
3080000000.0 -0.2960903963626967 -0.07602665547181109
3100000000.0 0.2518212497302312 -0.15587271444833803
3120000000.0 -0.1459657402810973 0.2421919348916686
3140000000.0 -0.010343378414230234 -0.26787686234126684
3160000000.0 -0.15728196681902945 -0.1936972417673532
3180000000.0 0.0758641243422663 0.22012886263781203
3200000000.0 0.05302586227918471 -0.206546625901844
3220000000.0 -0.1143619674069356 0.15749711340914746
3240000000.0 0.023124645957238815 -0.17235361551120945
3260000000.0 0.1106249224812422 0.1033013258321669
3280000000.0 0.07264812536166625 0.10133666821594181
3300000000.0 0.057115594976200286 -0.07820714971915366
3320000000.0 0.04870347477645645 -0.04553319573177601
3340000000.0 -0.033041434328650726 0.014506062475159238
3360000000.0 0.003723739594230891 0.020376311292752303
3380000000.0 -0.01827475811561016 0.022032272707742606
3400000000.0 -0.03099559845217412 -0.026793273258346368
3420000000.0 0.041991225012845024 -0.02659034987444957
3440000000.0 0.021249550893664964 -0.042876801556697874
3460000000.0 -0.015859654151739223 0.03911666603419538
3480000000.0 -0.041183721463431334 0.011985777334488672
3500000000.0 0.05715885135294871 -0.019181569585576735
3520000000.0 0.0009117276200326998 -0.08980940582215247
3540000000.0 -0.08726574021991294 -0.07674705855373384
3560000000.0 -0.04132259878946148 0.13154547835598077
3580000000.0 0.1449501344971616 0.0499525064775714
3600000000.0 -0.013992361699640226 -0.1686530866877269
3620000000.0 -0.172320896009041 -0.016131419888337523
3640000000.0 -0.16568246683396218 -0.06098139055075425
3660000000.0 0.07372816944690976 -0.15970001603334716
3680000000.0 -0.05404683701420116 0.16757534883440242
3700000000.0 0.08276515370191036 -0.15277860774056284
3720000000.0 -0.1741605995631609 0.03846578798643474
3740000000.0 0.08151447179546013 -0.1619939317704616
3760000000.0 -0.026649712513325624 0.18231017911861772
3780000000.0 -0.1824441766370899 -0.017162617394776987
3800000000.0 0.02283717731498692 -0.17519919445568122
3820000000.0 0.09434643125531594 0.13646192610272168
3840000000.0 0.1379870395779679 -0.05922984180473313
3860000000.0 -0.009054552947723218 0.13810871091123694
3880000000.0 0.13376320864023764 -0.030997577235273126
3900000000.0 -0.14172505210863506 -0.0038378279693612907
3920000000.0 -0.07550809377388588 -0.13508494944200888
3940000000.0 0.16798109615914442 0.04102305717283956
3960000000.0 0.1385528064362717 -0.12616812847541672
3980000000.0 0.08817518551583003 0.1708959729882016
4000000000.0 -0.07852334031509964 -0.16690564039298988
