! Created with skrf (http://scikit-rf.org).
# Hz S RI R 50.0 
!freq ReS11 ImS11
400000000.0 -0.7162528525670884 0.4871788891035833
420000000.0 0.2704245139184435 0.8227226561998721
440000000.0 0.8003596142373732 -0.24705704329122824
460000000.0 0.21862884188064902 -0.7572242964482175
480000000.0 0.5350430446650296 -0.4841174577971081
500000000.0 -0.3712948391069586 -0.42058940107578285
520000000.0 -0.432179415639201 -0.22937016604253693
540000000.0 -0.046364235747852305 -0.4110342431561066
560000000.0 -0.3580100091513358 -0.0721462066416311
580000000.0 0.1789538406067373 -0.26473622978438444
600000000.0 0.02163959431076385 -0.3288833382813236
620000000.0 0.29812628348081865 -0.14849689857931214
640000000.0 -0.33859530231360246 0.08057282439117378
660000000.0 -0.2721151356306716 0.26841778588610604
680000000.0 0.171924955244537 -0.3648774153861536
700000000.0 -0.4309511132360079 0.07800736942598106
720000000.0 0.0003143849639667657 0.43973803377383447
740000000.0 -0.4349908268654675 0.12573016403771226
760000000.0 -0.012792531850405868 -0.4334929696591421
780000000.0 0.3547700061509349 0.1873123248349466
800000000.0 0.05088345115803465 0.36005166011601203
820000000.0 -0.09813318193131673 0.2844570340698732
840000000.0 0.13985570021571975 -0.20971818968539688
860000000.0 -0.013859657398541298 -0.2012185009658528
880000000.0 -0.08295306846723872 -0.12550225802347387
900000000.0 0.04963197646080445 0.055828177011361314
920000000.0 0.032957289888747895 -0.026687228961860363
940000000.0 -0.04363235328628233 -0.02009181211334504
960000000.0 -0.015211999525044382 -0.05647206476288005
980000000.0 -0.025070270343454673 -0.057700216340312686
1000000000.0 0.023059132914202432 -0.06450653421245635
1020000000.0 0.06698242809860074 -0.02683862965055786
1040000000.0 -0.07763521038432301 -0.007620341869158885
1060000000.0 0.10328348547676501 -0.04272909317542676
1080000000.0 0.1201859673517456 -0.05992829628781639
1100000000.0 0.08790399535798687 -0.1336585704439409
1120000000.0 0.028518349248803754 -0.19418699789005317
1140000000.0 0.1606482356847409 0.181290558677766
1160000000.0 0.18083738346718628 -0.223206818877028
1180000000.0 -0.31694306099499114 0.09509808223377354
1200000000.0 -0.3618994255572189 -0.004178593244315498
1220000000.0 -0.2386764259091778 -0.3145742161767624
1240000000.0 0.3819693340805264 0.15761106943675288
1260000000.0 -0.4366424415474712 -0.0018663298634840671
1280000000.0 0.4305410351471849 0.10357044086790596
1300000000.0 -0.19389833333260667 -0.40421341135631755
1320000000.0 -0.3658707300527726 0.23708123561473893
1340000000.0 -0.3950791282856414 -0.16216410959568883
1360000000.0 -0.13059685633669438 -0.4011764849996458
1380000000.0 -0.16492943468330634 -0.3876325843009566
1400000000.0 -0.3955510865259039 0.08544768482275931
1420000000.0 -0.36562116644255777 0.131474305001911
1440000000.0 -0.058040992566926075 0.3635192151896271
1460000000.0 -0.033484045723080606 0.3400076476398887
1480000000.0 0.23081349052307856 0.22477867885260375
1500000000.0 0.25668509316789684 -0.15515831094023083
1520000000.0 -0.2124260589539154 0.17577642080851041
1540000000.0 0.24963292904225315 -0.04296513668184093
1560000000.0 0.15562131704868493 -0.1563500471767955
1580000000.0 -0.03635385162280904 -0.1846936192248742
1600000000.0 0.14946716992920467 -0.038900475361367134
1620000000.0 -0.004690357537858268 0.11698831628645892
1640000000.0 0.07980651902727116 -0.03260821686384701
1660000000.0 -0.03698117752332863 0.048014710278785226
1680000000.0 0.012532432522992418 0.028702436096274823
1700000000.0 0.013014796623404563 -0.001563229529634323
1720000000.0 -0.018534678696529142 -0.013125263155968386
1740000000.0 -0.04201876080389512 0.0019211310037021217
1760000000.0 0.01704657902053329 -0.06031280112797463
1780000000.0 0.08326732798319524 0.010450086861493645
1800000000.0 -0.11200076936264777 0.028597403994072755
1820000000.0 0.11074565389242835 -0.09049392347987859
1840000000.0 -0.165309145748886 -0.03866136879964358
1860000000.0 0.1543927565914179 0.12263487981711198
1880000000.0 0.21651402198612185 0.05878790848307549
1900000000.0 0.2576449880682849 0.02276698300274757
1920000000.0 0.11825021791327676 -0.26679703305019403
1940000000.0 0.0739313890331073 -0.3178782189684119
1960000000.0 -0.3071556226125986 -0.19090875348167144
1980000000.0 -0.1757892524363341 0.34938299711084037
2000000000.0 0.30289709610727017 0.29004121145635975
2020000000.0 0.18924998122661046 -0.4002276761007021
2040000000.0 -0.42457936283079334 0.1716015922736076
2060000000.0 0.44082819952587643 0.135048351822327
2080000000.0 -0.20770348802118677 -0.4076974671517247
2100000000.0 -0.3042417590689608 0.3228394636935617
2120000000.0 0.2276764374587536 0.35521804610385627
2140000000.0 -0.28683008024868417 0.274285161546855
2160000000.0 -0.3254169428049763 0.18892242314395966
2180000000.0 -0.29788663154585127 -0.1969005142420689
2200000000.0 0.020635521521336832 -0.34433656612955904
2220000000.0 0.3299060852371455 -0.0875589462789559
2240000000.0 0.23563239183740345 -0.25439728884560076
2260000000.0 -0.04307289241573418 -0.3532409311674529
2280000000.0 -0.3511301115286226 0.1035183325069374
2300000000.0 0.34158644743219774 0.17216824000931313
2320000000.0 -0.19436240885999204 -0.3557506602771526
2340000000.0 -0.16593349309510166 0.39957792947533705
2360000000.0 0.277479655393633 -0.3770045523732328
2380000000.0 -0.47865266698071973 0.17833366146009721
2400000000.0 0.536883428186802 -0.15765169165301038
2420000000.0 -0.46697543801464303 0.3919568381624721
2440000000.0 0.17939866366759522 -0.631709309737346
2460000000.0 0.2555761963567542 0.6468490933283461
2480000000.0 -0.5405668305442529 -0.4848743922020789
2500000000.0 0.6014136859501488 0.44108799496646794
2520000000.0 -0.4695811933332517 -0.5927646715000379
2540000000.0 0.21497097316545327 0.7264521958999266
2560000000.0 0.3502781194816986 -0.6655390848005834
2580000000.0 -0.7351960588812047 0.04875216327091086
2600000000.0 0.48207301096669264 0.5241987996960529
2620000000.0 0.08933458602092367 -0.675432295095958
2640000000.0 -0.15548729697987185 -0.6246697627492295
2660000000.0 -0.49050119147436544 0.3432999137522945
2680000000.0 0.4452314985123261 0.3319699229258561
2700000000.0 0.0888888723059005 -0.5057993549086146
2720000000.0 -0.29138930392065854 0.36923663223639863
2740000000.0 0.3792819670360844 -0.20300685562153006
2760000000.0 -0.28633006701313385 0.2698140704437182
2780000000.0 -0.049304128491268286 -0.35578291258323086
2800000000.0 0.27709079463406006 0.1796384204050277
2820000000.0 -0.25731500319236944 0.1694155337319956
2840000000.0 0.09485235389364223 -0.27609756949096376
2860000000.0 -0.06350527680366616 0.27559406281745286
2880000000.0 0.002903862042328998 -0.2798844246264985
2900000000.0 -0.16806060399640108 0.22196685954956782
2920000000.0 0.16234749277286867 0.23466229438566655
2940000000.0 0.2404096498378349 -0.16913998393860327
2960000000.0 0.09730094202345294 -0.28549223690609615
2980000000.0 -0.1358726789782652 -0.28092911310140883
3000000000.0 -0.12581101696759672 -0.29107415968864686
3020000000.0 -0.0013280931156440018 -0.32062862898218575
3040000000.0 0.2740389921529445 -0.15962673951187362
3060000000.0 0.14988864700999563 0.27525503110560007
3080000000.0 -0.29239218975242226 -0.08692721372919508
3100000000.0 0.2793550802990785 -0.09677839305884722
3120000000.0 -0.14249411760326952 0.24481617413752732
3140000000.0 -0.010779873595902894 -0.2677425410073187
3160000000.0 -0.16539324120120505 -0.18650030810166693
3180000000.0 0.03782766932844592 0.22936994463296675
3200000000.0 0.0651972765460788 -0.20331567006441495
3220000000.0 -0.10873342146288775 0.16070698873250674
3240000000.0 0.029349482482695644 -0.17101923340864233
3260000000.0 0.1047813180297245 0.10931557039777312
3280000000.0 0.10270035884438776 0.07071228669711759
3300000000.0 0.05359512978121322 -0.0800162160851047
3320000000.0 0.05191278949791467 -0.040963786850004055
3340000000.0 -0.034386213264682 0.011964975735238371
3360000000.0 -0.017651621028076703 0.012372573702947275
3380000000.0 -0.009630397321491315 0.026691855220505364
3400000000.0 -0.002805613526263923 -0.040782230947855956
3420000000.0 0.023739723568808883 -0.04347642869510825
3440000000.0 0.031516681772248395 -0.035370046694854954
3460000000.0 -0.03720269847067732 0.019514220012763463
3480000000.0 -0.04240239221562925 0.003797587643594653
3500000000.0 0.055001236286541674 0.024538376691835624
3520000000.0 0.021856211045460216 -0.0869531866260362
3540000000.0 -0.07098586210301071 -0.09178458111939057
3560000000.0 -0.04417079812094154 0.13025907983173457
3580000000.0 0.14731414302237664 0.041922323916839276
3600000000.0 -0.06403911991511739 -0.15691292044507762
3620000000.0 -0.17164253647436506 -0.020946902054640153
3640000000.0 -0.17168368057365357 -0.03826542028112332
3660000000.0 0.0671448510580308 -0.1625205011916486
3680000000.0 -0.05307480716165953 0.1678697968988722
3700000000.0 0.06627193084877998 -0.16113933635684702
3720000000.0 -0.17103657933849448 0.05075813333897133
3740000000.0 0.07528070709603753 -0.1651409439346357
3760000000.0 -0.010474250264206649 0.1838124718451812
3780000000.0 -0.18346975601991733 -0.0015321882429257853
3800000000.0 0.01803997514895715 -0.1758183969962723
3820000000.0 0.09404931226316812 0.13668973893560402
3840000000.0 0.12963690641952078 -0.07584197919741839
3860000000.0 -0.0357112476223499 0.13376761780281235
3880000000.0 0.13375239102287212 -0.031161877335910398
3900000000.0 -0.14153349823430578 -0.009209665385002636
3920000000.0 -0.06743799372516147 -0.1397374378569739
3940000000.0 0.16889157924066242 0.040090273537302726
3960000000.0 0.136394703750277 -0.12864933501505252
3980000000.0 0.0769727194031675 0.1762167104265548
4000000000.0 -0.0743520465817452 -0.16892714706385895
