! Created with skrf (http://scikit-rf.org).
# Hz S RI R 50.0 
!freq ReS11 ImS11
400000000.0 0.19274352048281465 0.8529211332392618
420000000.0 0.6025334838600379 0.6131412483924974
440000000.0 0.8081035503990932 -0.17790209393465362
460000000.0 0.14585997507378481 -0.7764905446100149
480000000.0 0.5090163796272594 -0.49061071376042426
500000000.0 0.36639903210014735 -0.4240168647722222
520000000.0 0.1792913687979817 -0.45462293042739593
540000000.0 0.41958458664217974 -0.07385249473771141
560000000.0 -0.29350024893745036 -0.19315932557195534
580000000.0 -0.3119998415396809 0.11726560425304088
600000000.0 0.3155135431257091 0.10203998770542377
620000000.0 -0.19445451673468617 -0.2891615824049239
640000000.0 -0.3049810524607438 -0.22808629947432002
660000000.0 -0.3981905771508129 0.028305021854682574
680000000.0 0.1429384383611597 -0.40408640497636655
700000000.0 0.12916502711245065 0.43076627338109463
720000000.0 0.1679097301293511 -0.4189029883335796
740000000.0 0.41062139677334275 -0.16588765061463023
760000000.0 -0.41877812455478586 -0.024804191255753148
780000000.0 0.10090311109527245 -0.37046156429478255
800000000.0 0.09260929405172015 0.3368672935615144
820000000.0 0.09696777974288112 0.27216659430943585
840000000.0 0.21624921499163577 0.08898181327590353
860000000.0 -0.018082243430604005 0.19894366462937446
880000000.0 -0.12538623114381542 0.058897454231037316
900000000.0 0.007430287906832755 0.07153246457667323
920000000.0 -0.03641197541110819 0.017409867330623593
940000000.0 0.024745738015322025 0.021795801778799032
960000000.0 0.03213131412609128 -0.032589611793305606
980000000.0 0.053918056847957044 0.007022006340366552
1000000000.0 0.06040793814756541 -0.0005275093046453936
1020000000.0 0.07187268587748535 0.002570259581022045
1040000000.0 -0.052303054427331165 0.06244991223482258
1060000000.0 0.11850683277991667 -0.024330792092770132
1080000000.0 -0.1092803580853259 -0.08481057788089917
1100000000.0 -0.07235026352189797 -0.14790949055937377
1120000000.0 -0.19545999778790116 -0.003436567120361086
1140000000.0 0.20345571123115672 0.1298814988773112
1160000000.0 0.2150415180751729 -0.18897579960439043
1180000000.0 -0.12822612852883777 -0.3052342747347422
1200000000.0 -0.3265427687757406 -0.1708958654769144
1220000000.0 -0.017241221444478916 -0.39739334462141596
1240000000.0 0.4083972271258385 0.09304417353394631
1260000000.0 -0.4395840475849488 -0.0018887555561892056
1280000000.0 0.44577273605656315 -0.05078184465465375
1300000000.0 -0.4115749129539609 -0.1759997401071762
1320000000.0 -0.1399196689420867 0.4113671053023785
1340000000.0 -0.3610186699330119 0.21299768051707588
1360000000.0 -0.1414835356986134 -0.38257259641507424
1380000000.0 0.21671744587832098 -0.3454737964519631
1400000000.0 0.14802542220719064 -0.3684718841511312
1420000000.0 0.094855182630668 -0.3753928797850103
1440000000.0 -0.17791335138885606 -0.32695500851774073
1460000000.0 -0.35230583130491455 0.023625783446240677
1480000000.0 0.11386982013203199 0.31379280089982675
1500000000.0 -0.09591218802396491 -0.2937723079803245
1520000000.0 -0.1472659457881231 0.24217971223745624
1540000000.0 -0.177358722699195 0.18114335808473603
1560000000.0 0.06207706759273225 0.20653690343169215
1580000000.0 0.17230375223379343 0.05479738140614025
1600000000.0 -0.13691090735002043 0.055444960288574506
1620000000.0 -0.026352825032013343 -0.10267447780154165
1640000000.0 -0.07537141061748354 0.021266756949655442
1660000000.0 -0.04187635367306908 0.03305087440176723
1680000000.0 0.00293122088136874 -0.023237133556161506
1700000000.0 -0.0062495746170476004 0.011280775794532258
1720000000.0 -0.016212042164887207 -0.025797946887556884
1740000000.0 0.05284693515286218 0.004720312140377243
1760000000.0 0.00931131339209757 -0.06869147118765336
1780000000.0 -0.008908332082390715 -0.087776237824505
1800000000.0 0.1134327085470532 0.010425874308353998
1820000000.0 0.0734539198442261 -0.10322456499033633
1840000000.0 0.12547482374266067 0.08421791910568675
1860000000.0 -0.03511806656543514 0.1702497160712352
1880000000.0 -0.10923805530455066 -0.17781257033928466
1900000000.0 0.09029825914363852 -0.23377052736305234
1920000000.0 -0.2860934078856122 -0.07698935872841622
1940000000.0 0.020027677861853697 0.3425493495242154
1960000000.0 0.10991334484641525 -0.3675924452634054
1980000000.0 -0.06802749215006725 0.40683203518027855
2000000000.0 0.31742718486065924 -0.29974197492329296
2020000000.0 -0.3835460689142226 0.2389303629361912
2040000000.0 0.428402548842521 0.15210448519002456
2060000000.0 -0.1596118765614789 -0.4217924542558214
2080000000.0 -0.38586437482501723 0.2053811296497454
2100000000.0 -0.22945783749262594 0.35189454419058586
2120000000.0 -0.2706088100423079 0.2947880534295871
2140000000.0 -0.3651064427842255 0.11333305376149308
2160000000.0 0.2581907826302336 -0.2600632084644611
2180000000.0 0.3521315997379383 0.0483100922705934
2200000000.0 0.23808231625211893 0.2545101412161638
2220000000.0 0.33452003674201286 0.10934586654360146
2240000000.0 -0.008464642326696655 -0.3519514336785567
2260000000.0 -0.3548590742227409 0.02286364196745968
2280000000.0 0.15968267238665176 0.321455427176149
2300000000.0 0.2675271918761124 -0.25521229733204037
2320000000.0 -0.3740434929611712 -0.10317763271512602
2340000000.0 -0.15477334838492668 0.3841034894810986
2360000000.0 0.4497281209822914 0.01990561712883096
2380000000.0 -0.33194193318476506 -0.3700669451120186
2400000000.0 0.1670917798221732 0.5226292165249223
2420000000.0 -0.27037423328439725 -0.5391113918844233
2440000000.0 0.574490050473143 0.31432366656973604
2460000000.0 -0.6886189239510067 0.11068831507868604
2480000000.0 0.555273706004148 -0.47497206469387393
2500000000.0 -0.571219757702166 0.49115499292490417
2520000000.0 0.6296584643601923 -0.43387083997642995
2540000000.0 -0.745390053281143 0.1802182167625418
2560000000.0 0.6896996425821456 0.3233586743066839
2580000000.0 -0.12279255071094664 -0.7371273456462523
2600000000.0 -0.44722002457871274 0.5675230572203596
2620000000.0 0.6916443561483253 0.013489610500584951
2640000000.0 0.6076628050072848 -0.24348740153139772
2660000000.0 -0.4874665733771128 -0.3688497252865523
2680000000.0 -0.0032544042052796364 0.5671374169731499
2700000000.0 0.24172668599392422 -0.4642352167475158
2720000000.0 -0.2653160697550399 0.39632464131915673
2740000000.0 0.237457733811613 -0.36163298369412944
2760000000.0 -0.06846355294882073 0.38448954891849313
2780000000.0 -0.232936477323168 -0.268785458233938
2800000000.0 0.3234937650462415 0.027028261298371627
2820000000.0 -0.2606813144439786 0.15236160801086857
2840000000.0 0.24135662377228428 -0.15712939999195438
2860000000.0 -0.2261828116416143 0.17147943864468118
2880000000.0 0.25423206597174053 -0.1283534817142562
2900000000.0 -0.285191570640339 -0.05278507017257831
2920000000.0 0.1202483061463048 0.2772459292910826
2940000000.0 0.12264408977955901 -0.28793208839365747
2960000000.0 -0.301851832252297 -0.10486998319715397
2980000000.0 -0.3139779080771112 0.0868655688938172
3000000000.0 -0.30344974792931345 0.12620556332885127
3020000000.0 -0.3257326736032847 -0.025111455956728826
3040000000.0 0.04918965989973499 -0.31671459096794485
3060000000.0 0.1468105515686524 0.2777533363042365
3080000000.0 -0.17701514587594125 -0.24744971083691897
3100000000.0 0.0969381593614362 0.2788560934566474
3120000000.0 0.0814700653755841 -0.27289895578796053
3140000000.0 -0.187271541754822 0.20111452268976457
3160000000.0 0.25839982479851464 -0.04534650237950953
3180000000.0 -0.017617327604679732 -0.24915476092248764
3200000000.0 0.19880185467334957 0.12074435279354473
3220000000.0 -0.060785093015537736 0.19990844317993256
3240000000.0 -0.15897762201586066 0.09036789960177122
3260000000.0 -0.13977171560327387 -0.05666619784895634
3280000000.0 -0.11546992542731947 0.0109022431810352
3300000000.0 -0.07813604094392539 0.02290887433596536
3320000000.0 0.03730623043996553 0.02817120246868939
3340000000.0 0.01508560713305115 -0.007923771824482792
3360000000.0 -0.00017611235348025868 -0.009164122965016498
3380000000.0 0.019421996117800707 -0.012301389409378352
3400000000.0 -0.02998564258425048 -0.009522014721214212
3420000000.0 -0.024903917386445068 -0.026089809291927536
3440000000.0 0.035822779540003104 0.013893876120262076
3460000000.0 0.037192654083087646 0.0238768080494479
3480000000.0 0.0077445635051226714 0.060015104759006184
3500000000.0 0.024718256038852266 0.07907891692269124
3520000000.0 -0.006435681266624844 0.10612138414458794
3540000000.0 0.08447512986333233 0.09003361113600676
3560000000.0 0.10286144180437364 0.08683289541373447
3580000000.0 -0.07003017325832606 0.12699058703224
3600000000.0 -0.13250146101968385 -0.08331529520047908
3620000000.0 0.0828422224332496 -0.1418146397734111
3640000000.0 0.04725420868496954 0.16424244215173048
3660000000.0 -0.17122895186334736 -0.05741035716465608
3680000000.0 0.1415019884723177 -0.12160454445101278
3700000000.0 0.17542578431915554 0.07385131492246158
3720000000.0 0.033608280827739756 0.19129227978272317
3740000000.0 0.07320421048260568 0.17896399886913
3760000000.0 -0.172889728310647 0.07449303598221493
3780000000.0 -0.008429652834715444 -0.17786021062405086
3800000000.0 0.042910958752968 0.15915074767341417
3820000000.0 0.08981508755473669 0.12332419590584812
3840000000.0 -0.12306256079825816 0.06886938996963182
3860000000.0 0.13286907726907154 0.04025830257356633
3880000000.0 -0.14032605156937653 0.04261536978381676
3900000000.0 -0.09901319809176132 0.1204608875353444
3920000000.0 0.16125484400392778 -0.043234065728341715
3940000000.0 0.06297215245906015 0.16558201471234538
3960000000.0 0.1749299270524712 0.05673043478334897
3980000000.0 -0.15965469050154033 -0.08818574287815438
4000000000.0 -0.11455650198148629 0.1281959068535784
