! Created with skrf (http://scikit-rf.org).
# Hz S RI R 50.0 
!freq ReS11 ImS11
400000000.0 0.18731928607696294 0.8522355225377563
420000000.0 0.6281331820867346 0.5859387042170814
440000000.0 0.7867227288881131 -0.2500772725715529
460000000.0 0.16700264443749607 -0.7709764831926842
480000000.0 0.4612136937174184 -0.5381569490097126
500000000.0 0.18796307281120708 -0.5295560015579515
520000000.0 0.2729282636628602 -0.4030234753896245
540000000.0 0.42867144422648623 -0.0019889278836485126
560000000.0 -0.324998960305368 -0.1366593296028756
580000000.0 -0.28197638730116364 0.17567616459895807
600000000.0 0.2241064372758193 0.2395732635597914
620000000.0 -0.1817595940633043 -0.2974505603660899
640000000.0 -0.35978380018043393 -0.12449470307624834
660000000.0 -0.370311043849303 0.14278867443717624
680000000.0 0.034359648340738326 -0.42610966058214106
700000000.0 0.1620769957593614 0.4190033663709225
720000000.0 0.11190578151602121 -0.43837781895700023
740000000.0 0.41905211303956763 -0.14475667757007957
760000000.0 -0.4195843821277346 -0.010191840239776673
780000000.0 0.13690303710251528 -0.35877887545994597
800000000.0 0.03003866557629189 0.3486198679028738
820000000.0 0.04451250458126655 0.28593586396472087
840000000.0 0.1959042380452414 0.12686390530560473
860000000.0 0.014965574809857708 0.19924762675397603
880000000.0 -0.10974314781451443 0.08343436678153393
900000000.0 0.036410660591568896 0.06162199032078623
920000000.0 -0.01961318565321197 0.03527907836467028
940000000.0 0.03405128523981393 -0.0003971989626173499
960000000.0 0.031366081919176426 -0.03485618268371483
980000000.0 0.02222606528073271 0.05013588836898556
1000000000.0 0.0431049378429236 0.04276813621381084
1020000000.0 0.07152966755437555 0.01004733942231328
1040000000.0 -0.04436184352102112 0.06817355992085847
1060000000.0 0.10669935454531256 -0.05655344169682239
1080000000.0 -0.12464415152683345 -0.05943797931818382
1100000000.0 -0.08602779019477988 -0.13989968446044493
1120000000.0 -0.1928506683933739 0.027481262717996745
1140000000.0 0.22911676033302647 0.07317547484074706
1160000000.0 0.18457047500671817 -0.21863464351970086
1180000000.0 -0.1491544006391984 -0.29551698203145726
1200000000.0 -0.3348579597665914 -0.15375214341262733
1220000000.0 -0.021217899329194528 -0.39695226570676273
1240000000.0 0.4099301880046465 0.08436953828656124
1260000000.0 -0.43930279797337213 0.022526246823995833
1280000000.0 0.4430003801466265 -0.07279427170685934
1300000000.0 -0.40750188380023156 -0.1866163508336099
1320000000.0 -0.14665411541558593 0.40946201519902364
1340000000.0 -0.3634451235250625 0.20970939314924772
1360000000.0 -0.1493962504566028 -0.3802420584602121
1380000000.0 0.20577438415451585 -0.3525303012335518
1400000000.0 0.1566126748464403 -0.36517216864394897
1420000000.0 0.0915202981739253 -0.3759438455716249
1440000000.0 -0.1840605240085705 -0.32339812146112457
1460000000.0 -0.3516085789810897 0.016787093958009307
1480000000.0 0.09023068048985677 0.32042109452869927
1500000000.0 -0.10367437727722019 -0.2902606865127934
1520000000.0 -0.16662387631260062 0.22806444490795283
1540000000.0 -0.19853070742529164 0.15678784017039468
1560000000.0 0.08109924625635731 0.19841862954807768
1580000000.0 0.1745711439271541 0.04427944896405391
1600000000.0 -0.09047000264548197 0.11524345588523338
1620000000.0 -0.07059006143688287 -0.07828969111403891
1640000000.0 -0.029736323932659188 0.0727068911226803
1660000000.0 -0.03514591833380682 0.04080302427565643
1680000000.0 0.02457603583866039 0.00017446841099749753
1700000000.0 -0.011776416109410893 0.0038025145914352514
1720000000.0 -0.01141874227411522 -0.02687173929583355
1740000000.0 0.03901308746764073 -0.033882183341487994
1760000000.0 -0.04402447798433959 -0.052627228124954926
1780000000.0 -0.07511357602937548 -0.04718901732759055
1800000000.0 0.11020471083234 -0.031252138149321866
1820000000.0 0.0590576090445745 -0.11314341204707717
1840000000.0 0.13330430521054523 0.07381181450593291
1860000000.0 -0.016407335447566933 0.17462125023957314
1880000000.0 -0.12017564694444254 -0.17248827236410377
1900000000.0 0.06600515022630943 -0.2434642074577842
1920000000.0 -0.28863496490377044 -0.07296967287669236
1940000000.0 0.0026954199450756086 0.3436902056016007
1960000000.0 0.13008350162421323 -0.3606617879783155
1980000000.0 -0.08875111330541428 0.40199060716162216
2000000000.0 0.35913798947561354 -0.24611464179435633
2020000000.0 -0.4066878657789796 0.19344922885211097
2040000000.0 0.40451893470976824 0.20451418054796633
2060000000.0 -0.1255969817483391 -0.43123476045789183
2080000000.0 -0.42438550793597285 0.09701071522760919
2100000000.0 -0.22488267946567667 0.35344146161149237
2120000000.0 -0.2275487655864352 0.3283321132443431
2140000000.0 -0.3470961568994974 0.1590716170281404
2160000000.0 0.15645843833552783 -0.33084652735923026
2180000000.0 0.33659464496130537 -0.11285782298183038
2200000000.0 0.32161167015796555 0.1325169690837804
2220000000.0 0.34910120048908855 -0.03384456765498258
2240000000.0 -0.11480685607439074 -0.3321446340254763
2260000000.0 -0.3475690909740996 0.07535458035715749
2280000000.0 0.1885496881427605 0.3066786686496952
2300000000.0 0.26877111056754893 -0.2563433140048014
2320000000.0 -0.36030595994172254 -0.1492789260522414
2340000000.0 -0.1851982347772219 0.3728602046468567
2360000000.0 0.4494172483474457 0.04906502718538356
2380000000.0 -0.32393445756705047 -0.37869020727820923
2400000000.0 0.16811209083470924 0.523292544640202
2420000000.0 -0.2848169138491272 -0.5315771176496553
2440000000.0 0.5830796406758231 0.29677722392672934
2460000000.0 -0.6825399401530426 0.13722474637512375
2480000000.0 0.5234147557267868 -0.5076804903932391
2500000000.0 -0.4483959294145735 0.6031688099028791
2520000000.0 0.5582997998730899 -0.520663441825396
2540000000.0 -0.7172516359915139 0.26927830411529957
2560000000.0 0.7218583956744821 0.2395595054541727
2580000000.0 -0.19623482611079496 -0.7201764350549626
2600000000.0 -0.3845430388183051 0.611247896200931
2620000000.0 0.6900898417565791 -0.045292163834326195
2640000000.0 0.5808156903013979 -0.301022451415836
2660000000.0 -0.5197775791051606 -0.32198927648443804
2680000000.0 0.03019630296873085 0.5666678227202978
2700000000.0 0.2642710418581857 -0.4521479772359698
2720000000.0 -0.29178721067388297 0.37752037861388654
2740000000.0 0.2437189340590111 -0.35738975702239417
2760000000.0 -0.07468427860076596 0.3834684555902084
2780000000.0 -0.21551260556179186 -0.28299755511390895
2800000000.0 0.31600932009798915 0.07270780352559973
2820000000.0 -0.27639418826996415 0.12002046883882778
2840000000.0 0.2601176027321224 -0.12155294084682922
2860000000.0 -0.2445389859316245 0.14291777172881012
2880000000.0 0.2546876802485888 -0.12480920563633202
2900000000.0 -0.2835001713139783 -0.05645158354222537
2920000000.0 0.08375524520075725 0.2893547679431646
2940000000.0 0.14751666606381908 -0.2747412978553786
2960000000.0 -0.31519589386063146 -0.048367411016182534
2980000000.0 -0.2841533516446994 0.1585546428843412
3000000000.0 -0.2896267377730177 0.1537420216036942
3020000000.0 -0.3260232753278071 0.014759509513891175
3040000000.0 0.04790751829016336 -0.3166243707769457
3060000000.0 0.229104187063173 0.2122031234877172
3080000000.0 -0.23491463939325155 -0.1924263377742515
3100000000.0 0.18693198187083934 0.22836120982980648
3120000000.0 -0.0242482385636951 -0.28308467625897665
3140000000.0 -0.1017192736976411 0.25496008122792024
3160000000.0 0.24254268382067926 -0.10164627187182901
3180000000.0 -0.13948232779528022 -0.20869177256268043
3200000000.0 0.23297397911200055 0.01264012420453265
3220000000.0 0.021349546525882036 0.20910065165509126
3240000000.0 -0.16766385455794408 0.07610246126902451
3260000000.0 -0.13468404533386566 -0.07147286530107111
3280000000.0 -0.08927211945726182 -0.07598834879889349
3300000000.0 -0.04849218899884234 -0.06665083269870166
3320000000.0 -0.0465631765231595 0.012559230671181192
3340000000.0 -0.018109482302799514 -0.0014228153779437497
3360000000.0 -0.0008376858216196271 0.007362824316208286
3380000000.0 0.021560301569807806 -0.0016176327833490698
3400000000.0 0.02687101861464926 -0.015892209654455716
3420000000.0 0.03577114769532827 0.006977501773487266
3440000000.0 -0.03593164673906438 0.013302265043689318
3460000000.0 -0.0415849715519711 0.01551116872616752
3480000000.0 0.05337249934228972 -0.02575062573102874
3500000000.0 0.07839781530142938 0.019797993649144675
3520000000.0 0.06929522512550054 0.07801940225283685
3540000000.0 0.12180946358771817 -0.007777851881022223
3560000000.0 0.13161509493424334 0.028574254988435164
3580000000.0 -0.009366964379478555 0.14474733968054965
3600000000.0 -0.14769399684266357 0.052476818939804354
3620000000.0 -0.026667221331839453 -0.16237383899679333
3640000000.0 0.1495596907001098 0.0856636855363299
3660000000.0 -0.17269652519452539 0.05583449504265599
3680000000.0 0.009473393634988224 -0.18654620982209072
3700000000.0 0.1847414893234179 -0.04707335584568227
3720000000.0 0.14818984698940554 0.12677417497528778
3740000000.0 0.10729055422108136 0.16232819377108593
3760000000.0 -0.17640275131944697 0.07163246771089077
3780000000.0 0.041314490325811457 -0.17567927941325687
3800000000.0 -0.03543047527075642 0.16441468944595902
3820000000.0 0.0743070331898539 0.13607824507003344
3840000000.0 -0.12454664428608396 0.07187574107694872
3860000000.0 0.13428985490484555 0.04456787791294029
3880000000.0 -0.13354401363724136 0.06543963576576145
3900000000.0 -0.0834595056608566 0.13426936849629204
3920000000.0 0.16546178145509624 -0.03136133443544315
3940000000.0 0.017287563177967178 0.17763388023122165
3960000000.0 0.14478901683321044 0.11508822770430673
3980000000.0 -0.0954199712520608 -0.15629181694283656
4000000000.0 -0.15678599241389715 0.06982844958360417
