! Created with skrf (http://scikit-rf.org).
# Hz S RI R 50.0 
!freq ReS11 ImS11
400000000.0 0.16969047576941074 0.855812939051499
420000000.0 0.6495000425013111 0.5638745514980082
440000000.0 0.7787730393431701 -0.27641916640689207
460000000.0 0.10691375345652844 -0.780030677923185
480000000.0 0.5109218673199588 -0.4910054690583253
500000000.0 0.16448138374922353 -0.5386404406701222
520000000.0 0.21606668572039586 -0.4346242767853116
540000000.0 0.41874587541266856 0.09277064177557003
560000000.0 -0.3295817482441748 -0.12142235951959655
580000000.0 -0.31435910461804606 0.11310103867570234
600000000.0 0.3094478859035884 0.10804497588443882
620000000.0 -0.14090362257062045 -0.3184938319659797
640000000.0 -0.32733662423217336 -0.19416363848572651
660000000.0 -0.38118448746882494 0.11392930148767916
680000000.0 0.03914769863280675 -0.4252477074470172
700000000.0 0.15447932114445087 0.422103017486364
720000000.0 0.1059267546807117 -0.439452854384054
740000000.0 0.40799384055810006 -0.17438436756556802
760000000.0 -0.41213735206720714 -0.07628382811656567
780000000.0 0.12624674264301392 -0.36373870982084516
800000000.0 0.052566661371345025 0.3453342956465081
820000000.0 0.049263506898185865 0.2854749514447637
840000000.0 0.19035644295203225 0.13530145954349815
860000000.0 0.05751434706578414 0.19182332143238287
880000000.0 -0.09999525578180217 0.0955138693350487
900000000.0 0.00752513893734464 0.07151645117549546
920000000.0 -0.02365844644456272 0.03272206463282761
940000000.0 0.03285146541825159 -0.010148994498777104
960000000.0 0.03348892443434951 -0.03270337687537316
980000000.0 0.011498528837021403 0.05431391221587356
1000000000.0 0.053018247996795026 0.02958956270624236
1020000000.0 0.058151237320731346 0.04356216735989553
1040000000.0 0.0007280294731841009 0.08164986027926023
1060000000.0 0.10732135117719463 -0.05508096940879571
1080000000.0 -0.11472298373442459 -0.07729125611936248
1100000000.0 -0.10479515963147089 -0.12654640407539122
1120000000.0 -0.19424334103691585 0.012577770994598805
1140000000.0 0.23380076187790014 0.05754877576890166
1160000000.0 0.20075115324553233 -0.2037030670095497
1180000000.0 -0.16109052963977413 -0.28941784581377605
1200000000.0 -0.3452925530350171 -0.12830193921765481
1220000000.0 -0.015473414159702697 -0.39721095500063675
1240000000.0 0.4102060164794327 0.08293201334030656
1260000000.0 -0.4379406870012933 0.03990212043088732
1280000000.0 0.44354242051618137 -0.06851366249435402
1300000000.0 -0.4136238437918333 -0.1727772764753581
1320000000.0 -0.1432414575190233 0.4105406719005287
1340000000.0 -0.363496916753094 0.21015811937640677
1360000000.0 -0.14560858191197915 -0.38151114506798134
1380000000.0 0.19861207744249115 -0.3569461810253656
1400000000.0 0.14418980511622972 -0.3703715837481255
1420000000.0 0.0966523469529013 -0.3746308472920675
1440000000.0 -0.17675056714271742 -0.3272340438901232
1460000000.0 -0.3524153702521072 0.006283929405600054
1480000000.0 0.09254293891797731 0.31965666022067724
1500000000.0 -0.0902312772186395 -0.29443845927145473
1520000000.0 -0.19023650608850867 0.2085993903899695
1540000000.0 -0.1975350971532949 0.15754855237803794
1560000000.0 0.06879956218895249 0.20332151950679186
1580000000.0 0.17574559869926776 0.039584713165303737
1600000000.0 -0.09677546671565791 0.10987217651080144
1620000000.0 -0.044605506813612715 -0.09564399944463996
1640000000.0 -0.05300634478124573 0.05844957138263538
1660000000.0 -0.038282869179150435 0.0380609181519888
1680000000.0 0.02468291308094233 -0.003965654787383332
1700000000.0 -0.012017103548829223 0.002810781358699225
1720000000.0 -0.02577679143655195 -0.013920265790311786
1740000000.0 0.014479818124173274 -0.049722879818069554
1760000000.0 -0.03112037760169949 -0.06099410824800245
1780000000.0 -0.04621378261400258 -0.07604624243907421
1800000000.0 0.11112157060819676 -0.02969154823002802
1820000000.0 0.059927008583364055 -0.11286894402733735
1840000000.0 0.13292301215075322 0.07424867419546771
1860000000.0 -0.03297845848393383 0.1724327373905595
1880000000.0 -0.12025159890583423 -0.17274761564872018
1900000000.0 0.058388035730023116 -0.24531400239136578
1920000000.0 -0.2870243978816635 -0.07860637667470716
1940000000.0 0.006918867045190681 0.34364995051697883
1960000000.0 0.12327388169275295 -0.3628795717026762
1980000000.0 -0.060207058427654926 0.407096961825889
2000000000.0 0.3280881132531505 -0.2854925731986476
2020000000.0 -0.3920518241051603 0.22155078468727926
2040000000.0 0.4078361374973122 0.1977456147352922
2060000000.0 -0.10602244610773964 -0.4369274201122903
2080000000.0 -0.4132599999320502 0.13775066535808825
2100000000.0 -0.23884383583195098 0.344871568662609
2120000000.0 -0.20392110086291976 0.34377522549711675
2140000000.0 -0.33341492611224166 0.18659844622453825
2160000000.0 0.12666020560819544 -0.3439099139885047
2180000000.0 0.33616260248532853 -0.11549601401495319
2200000000.0 0.3218129050457494 0.13265702532642795
2220000000.0 0.3484781849695157 -0.040974701981768995
2240000000.0 -0.10390589943357283 -0.3359269124639365
2260000000.0 -0.3483125670283431 0.07191687885632775
2280000000.0 0.174775640790548 0.3145462823773955
2300000000.0 0.28463951900906614 -0.23841595902440121
2320000000.0 -0.365703505351581 -0.13595018428001956
2340000000.0 -0.1706698386590136 0.3799582306738641
2360000000.0 0.4522517995208833 0.01664160240354693
2380000000.0 -0.3586115764063223 -0.34682159847415706
2400000000.0 0.19978580357089165 0.5124916914557959
2420000000.0 -0.32296310620115254 -0.5101801008831758
2440000000.0 0.60078733120434 0.26004957438982185
2460000000.0 -0.6674893023482369 0.1987972516119003
2480000000.0 0.484483373010416 -0.5452122964993507
2500000000.0 -0.4047960624689384 0.6330327393830694
2520000000.0 0.5295540539843109 -0.5499822266031805
2540000000.0 -0.703455899620827 0.3027131658419357
2560000000.0 0.7335867847342392 0.19930719556980772
2580000000.0 -0.24937056607240604 -0.7028948415999504
2600000000.0 -0.329167543876355 0.6418518318694878
2620000000.0 0.6839464731502288 -0.09674265983547388
2640000000.0 0.5519065199106568 -0.34974498532678655
2660000000.0 -0.5468383900543466 -0.27130773173590056
2680000000.0 0.020974553731707393 0.5659315515948665
2700000000.0 0.25094084932402283 -0.45841576828425284
2720000000.0 -0.28204653836157956 0.3836397528427926
2740000000.0 0.22471872063448908 -0.36911804839031037
2760000000.0 -0.05836818459919182 0.38569286334558855
2780000000.0 -0.21689362006793148 -0.2810811323577216
2800000000.0 0.3128859148678473 0.08376822937766663
2820000000.0 -0.27700331304587555 0.11838491702318295
2840000000.0 0.25020376714140863 -0.14020769010269687
2860000000.0 -0.23089002978730888 0.1628078858142083
2880000000.0 0.2578902119489388 -0.1174633372166672
2900000000.0 -0.2861823704475473 -0.03870664332149287
2920000000.0 0.11598777083570065 0.2773603850490522
2940000000.0 0.13916370185722096 -0.27827018068534476
2960000000.0 -0.30970727211859195 -0.0747034549547223
2980000000.0 -0.2731910748767162 0.17661396166731014
3000000000.0 -0.2675933639453971 0.18862562076006853
3020000000.0 -0.32595857229393344 -0.008306144489148697
3040000000.0 0.02301020180581708 -0.31945860515384794
3060000000.0 0.23612268357710495 0.2052915505844085
3080000000.0 -0.2529778468949494 -0.16770361066950007
3100000000.0 0.12513340297656264 0.26661528590743616
3120000000.0 -0.02660930278261781 -0.2832748913380232
3140000000.0 -0.08858975878205587 0.26031728193410447
3160000000.0 0.2235635436664568 -0.13854985262174438
3180000000.0 -0.11849938763745727 -0.2204782068350306
3200000000.0 0.23129221888359366 0.030937478781152574
3220000000.0 -0.011190993274698368 0.2092516187648984
3240000000.0 -0.16869153650738014 0.07307797314720806
3260000000.0 -0.12712705880729844 -0.08267758000447199
3280000000.0 -0.08168070604943244 -0.08363126349092967
3300000000.0 -0.019053516218546115 -0.08032748988710847
3320000000.0 -0.046395884051160026 0.012537015040808978
3340000000.0 -0.016809124838802425 0.007208346883915859
3360000000.0 -0.007069772064267111 0.00011392670225609202
3380000000.0 0.020933221639939197 0.005840225586297607
3400000000.0 0.028718058646112717 0.013307286321056284
3420000000.0 0.03697718815743339 -0.002156447320847356
3440000000.0 -0.03210537705853289 0.02141304702590259
3460000000.0 -0.043527596305082086 0.0102038223557352
3480000000.0 0.04248422690799886 -0.041965393924480204
3500000000.0 0.08010556030593316 -0.012619493818438417
3520000000.0 0.053979568997021075 0.08880721901067215
3540000000.0 0.11986494631559691 0.024457944349925233
3560000000.0 0.12936553019615432 0.038886202480748235
3580000000.0 -0.009459173044403697 0.1448065024077539
3600000000.0 -0.1536767270617162 0.031641542031148766
3620000000.0 -0.02884137715337654 -0.16255869147216503
3640000000.0 0.1465791226123495 0.09099527973400603
3660000000.0 -0.17261440641026843 0.056624311400906555
3680000000.0 0.031326259689213085 -0.1842258016785918
3700000000.0 0.18861088560086312 -0.02646657122579074
3720000000.0 0.14246658521743694 0.13378616218799827
3740000000.0 0.07580845896667612 0.17899058474556367
3760000000.0 -0.18537301915586846 0.04294922522247766
3780000000.0 0.06902862937973397 -0.16625274329520118
3800000000.0 -0.05301054751260271 0.1593234108345886
3820000000.0 0.04209250579109048 0.14891063037413999
3840000000.0 -0.1351195659377663 0.048963736049268035
3860000000.0 0.132878537022703 0.04741399699890008
3880000000.0 -0.1345378742626689 0.06137290744287709
3900000000.0 -0.09580876739355576 0.12487363754923372
3920000000.0 0.16554225224501137 -0.028613655437650702
3940000000.0 0.031024397430480518 0.17455436395587962
3960000000.0 0.13999553692550193 0.11984637338816802
3980000000.0 -0.10472985133105873 -0.14981755434637187
4000000000.0 -0.12258751422757835 0.11996607237834991
