! Created with skrf (http://scikit-rf.org).
# Hz S RI R 50.0 
!freq ReS11 ImS11
400000000.0 0.18057352249455327 0.8545500877335053
420000000.0 0.6514936130453471 0.561297312912246
440000000.0 0.7806237650498936 -0.27157420492607204
460000000.0 0.14327098371542119 -0.7742751231577056
480000000.0 0.5122420466325129 -0.4895656335946836
500000000.0 0.1782140646208089 -0.5344420598931019
520000000.0 0.2242908697811716 -0.43090598914588935
540000000.0 0.42645675671925365 0.030655983040269244
560000000.0 -0.3176845504195866 -0.15092494658639366
580000000.0 -0.29210111619001955 0.16244597337089242
600000000.0 0.31809112825970504 0.07962821247957183
620000000.0 -0.10588888020883994 -0.3313651300359957
640000000.0 -0.33732611101242327 -0.17750263222551912
660000000.0 -0.3847073148297966 0.10297430899448666
680000000.0 0.04564889422298971 -0.42405896029919743
700000000.0 0.17357114173432675 0.4145161956541836
720000000.0 0.1363585684881294 -0.43075788775074786
740000000.0 0.40920109757393053 -0.17148937775444978
760000000.0 -0.40675268319033353 -0.10061489129408377
780000000.0 0.10750288894168174 -0.36933232080688666
800000000.0 0.05854479915047279 0.34453698682304995
820000000.0 0.05535300749814448 0.2841273282400639
840000000.0 0.19255030368269185 0.13273096513146718
860000000.0 0.031347262030306425 0.19756674340330513
880000000.0 -0.10298801286002554 0.09259100342263735
900000000.0 0.009949601928040135 0.0712880709511166
920000000.0 -0.01818106521852719 0.035712890367776695
940000000.0 0.024518030484749133 -0.023740371563200212
960000000.0 0.041215979228566985 -0.021933102970620805
980000000.0 0.033128410328869304 0.044888375066384115
1000000000.0 0.056754950331272355 0.021109101176713278
1020000000.0 0.06882731980080518 0.023203837886997217
1040000000.0 -0.00875336498540951 0.0812962367284741
1060000000.0 0.09925573416780757 -0.06855270788764356
1080000000.0 -0.11668281236157094 -0.07464326672471534
1100000000.0 -0.09996696132270658 -0.13038118249455777
1120000000.0 -0.19456792698338293 0.0069850030742152425
1140000000.0 0.22328628983697557 0.09047824098890016
1160000000.0 0.1916716977506656 -0.21264033510538655
1180000000.0 -0.15110869542541153 -0.29450614166249817
1200000000.0 -0.33430480881008096 -0.1547583811222875
1220000000.0 -0.008195081125051677 -0.39761053834228816
1240000000.0 0.4092668382108587 0.08733139355056577
1260000000.0 -0.43852900937333134 0.029723808326349944
1280000000.0 0.4452443849070206 -0.056611729889539594
1300000000.0 -0.41271638459192517 -0.17514767584683202
1320000000.0 -0.1370600379971741 0.41272331810105345
1340000000.0 -0.3674232440368969 0.20283992649210741
1360000000.0 -0.14209282721681085 -0.3826762358444199
1380000000.0 0.20489538055143278 -0.35361072874373933
1400000000.0 0.12977651069390833 -0.3756183480283898
1420000000.0 0.0862631610633814 -0.3769277969187072
1440000000.0 -0.17347792915210536 -0.32920299003350145
1460000000.0 -0.3515563049343944 0.026785627300084897
1480000000.0 0.1116754651500729 0.31356589017802083
1500000000.0 -0.096163754848212 -0.2928305440234773
1520000000.0 -0.19357954713584022 0.20554587989895448
1540000000.0 -0.19393886682166514 0.16259654682321373
1560000000.0 0.06621481292113306 0.20422228765926387
1580000000.0 0.17732057510739613 0.03138683925701027
1600000000.0 -0.12020201275466214 0.08422798738716504
1620000000.0 -0.05358714627193384 -0.09114064747340249
1640000000.0 -0.05533883705415477 0.056012485641526034
1660000000.0 -0.044779899897765256 0.03017575378540373
1680000000.0 0.024253722297226155 0.003638047692946586
1700000000.0 -0.009626602254444502 0.007862228573025454
1720000000.0 -0.016836499318465748 -0.0240936249571921
1740000000.0 0.019469713110193444 -0.04821284783282914
1760000000.0 -0.012049981710465027 -0.06733858460981183
1780000000.0 -0.03294529360026519 -0.08235408429780153
1800000000.0 0.1143201519620759 0.008822748817439326
1820000000.0 0.0814746244760081 -0.09866660412000736
1840000000.0 0.12700467282472386 0.08337847358678499
1860000000.0 -0.046516704141204505 0.16893006716113
1880000000.0 -0.10594704820136339 -0.18153616761532776
1900000000.0 0.0451937831489114 -0.2478662705595806
1920000000.0 -0.2892514926712875 -0.0688535924544013
1940000000.0 0.02685837516025546 0.3424392402585466
1960000000.0 0.11591555266372977 -0.36512363085302674
1980000000.0 -0.036596229044757525 0.4096430947142277
2000000000.0 0.3189710531473559 -0.29566233286142163
2020000000.0 -0.39319658816711495 0.21965186929449076
2040000000.0 0.40687361706302533 0.19998679630630944
2060000000.0 -0.09847546527479387 -0.4387646732361839
2080000000.0 -0.4138680075904508 0.1370305165659199
2100000000.0 -0.23608418264761188 0.3472001672626166
2120000000.0 -0.2215240521076237 0.33333988606248627
2140000000.0 -0.3463417546300931 0.1623510560585232
2160000000.0 0.1312350813178261 -0.34244602813217007
2180000000.0 0.3433655733838986 -0.09256707729102917
2200000000.0 0.30532191304534384 0.16739348488156583
2220000000.0 0.3504170456738495 -0.014842182643087301
2240000000.0 -0.0728666641608497 -0.34369066190372843
2260000000.0 -0.35260700207735723 0.042445489173790256
2280000000.0 0.15208091566546109 0.3254028061926231
2300000000.0 0.29179217683778497 -0.22881918114906405
2320000000.0 -0.35585645960124357 -0.1586346195957376
2340000000.0 -0.19154836394797525 0.36913236194483506
2360000000.0 0.4499648974991488 0.04148506963654645
2380000000.0 -0.33560203906645725 -0.3681752617553395
2400000000.0 0.1992715786053415 0.5125348472057072
2420000000.0 -0.3291818159693162 -0.50568917980856
2440000000.0 0.5895720538384295 0.2848999619929211
2460000000.0 -0.6769293888514722 0.16531152577155758
2480000000.0 0.5143501376929034 -0.5180074627733622
2500000000.0 -0.5153199705473078 0.5484108116322469
2520000000.0 0.5583602426083784 -0.5217408712116248
2540000000.0 -0.7167174151368005 0.27202470891002356
2560000000.0 0.7165060687386764 0.2563007588138634
2580000000.0 -0.2225695323119734 -0.7125465468943193
2600000000.0 -0.41631374957053074 0.5899898478584567
2620000000.0 0.6869248923917427 -0.07933949101336077
2640000000.0 0.5892146382464262 -0.28324198257949523
2660000000.0 -0.5320479807621715 -0.299996660727617
2680000000.0 0.0429954344628712 0.5651133470847532
2700000000.0 0.2452840467645645 -0.4620918483962226
2720000000.0 -0.28054916559739373 0.385223181910535
2740000000.0 0.2140762654732897 -0.37582681021582975
2760000000.0 -0.05552887304204552 0.38629099882500195
2780000000.0 -0.21836545753676637 -0.28049676151635716
2800000000.0 0.3165143681654351 0.07092894466703382
2820000000.0 -0.26731660956011954 0.13935033646977238
2840000000.0 0.24663720410564738 -0.14740337357106847
2860000000.0 -0.2318913941646408 0.16263822468305936
2880000000.0 0.252828540890544 -0.128773383266598
2900000000.0 -0.28766892412095596 -0.030333751083793013
2920000000.0 0.12622751796060588 0.2731351641357443
2940000000.0 0.1490808135784797 -0.2736685558885193
2960000000.0 -0.3140530027849119 -0.05493281215284621
2980000000.0 -0.27410607336517484 0.17467954884831624
3000000000.0 -0.28234750314910684 0.16608948126194026
3020000000.0 -0.326332507381066 -0.006258955383383243
3040000000.0 0.04669859881395028 -0.3176180690197896
3060000000.0 0.22573131148641484 0.2173691836204023
3080000000.0 -0.23071622730183441 -0.19816436304446092
3100000000.0 0.1412824299497988 0.2594945140919785
3120000000.0 0.012795689998815644 -0.28443648176578545
3140000000.0 -0.13119963086963266 0.24184548424629226
3160000000.0 0.24527591677195568 -0.09449741883668376
3180000000.0 -0.09717406748258371 -0.23068986314824885
3200000000.0 0.22503904591716056 0.06090013369677084
3220000000.0 -0.02591219402359135 0.2082172340070845
3240000000.0 -0.17860380687269706 0.041485380673816165
3260000000.0 -0.10765076527783991 -0.10620513316608536
3280000000.0 -0.04840323491737726 -0.10596110312131164
3300000000.0 -0.02381145704030224 -0.07832487116174745
3320000000.0 -0.043022982031923215 0.019940519326787174
3340000000.0 -0.007063163727185276 0.01595126702737064
3360000000.0 0.006890674203766112 -0.0041601946036542645
3380000000.0 0.004414120453185281 0.02194321511591736
3400000000.0 0.006823879046458669 0.03139412298223407
3420000000.0 0.021048420956759573 0.030894559920010504
3440000000.0 -0.037740682643911096 -0.0094130973267559
3460000000.0 -0.04224979993585811 -0.0156419634014118
3480000000.0 0.05748687063272582 -0.017199290751902147
3500000000.0 0.07904899782331402 0.020004231240337653
3520000000.0 0.03209561392693665 0.0994431047844125
3540000000.0 0.10753541492843949 0.05883441957907149
3560000000.0 0.10734631928477774 0.08221850907533243
3580000000.0 -0.013717996482826624 0.14535594073262012
3600000000.0 -0.1565240961960488 -0.009555176522353397
3620000000.0 0.006454254141615404 -0.16503571329544497
3640000000.0 0.1317496024948752 0.11204570140125843
3660000000.0 -0.17972921811800519 0.0234464129643126
3680000000.0 0.05249129553910607 -0.17894333255780287
3700000000.0 0.19012879323806167 -0.004650909525394671
3720000000.0 0.1251049590459903 0.14925249483510056
3740000000.0 0.06596376642837455 0.18247212065653307
3760000000.0 -0.18741942144465154 0.02839304127172875
3780000000.0 0.07591672021315633 -0.16278307875394538
3800000000.0 -0.0650145040879153 0.1542744331680874
3820000000.0 0.05014228665660159 0.14552295245397345
3840000000.0 -0.13145872125561342 0.056589781905911934
3860000000.0 0.13123306443765265 0.05007983185069306
3880000000.0 -0.13196323950861694 0.06606499019977592
3900000000.0 -0.09938264615518251 0.1215765445103941
3920000000.0 0.16332608359523457 -0.03678234515358383
3940000000.0 0.03402050526208785 0.1736682323577227
3960000000.0 0.15740232537652404 0.09532939274126581
3980000000.0 -0.14052948166784623 -0.11605820169432053
4000000000.0 -0.06231084261820749 0.1594300302496554
