! Created with skrf (http://scikit-rf.org).
# Hz S RI R 50.0 
!freq ReS11 ImS11
400000000.0 0.1812822443320165 0.8546819593330259
420000000.0 0.6070779647873197 0.6104545059014003
440000000.0 0.7943407043699398 -0.23048576274634902
460000000.0 0.13064485437423567 -0.7795806566408909
480000000.0 0.5388574762360264 -0.4579673230379092
500000000.0 0.27289570328797996 -0.48935497349445184
520000000.0 0.22726132517801265 -0.4335639833137754
540000000.0 0.40737498028946456 -0.12068473996552169
560000000.0 -0.2957891741828406 -0.1905486211960769
580000000.0 -0.3274727055576327 0.06346800096969238
600000000.0 0.31291937941465126 0.10631044743018007
620000000.0 -0.12431883558944978 -0.32613800761891804
640000000.0 -0.3125001661684274 -0.21907860667269566
660000000.0 -0.3978735212255736 0.028689214435070734
680000000.0 0.10289068173839133 -0.4164344434584592
700000000.0 0.04879212042774848 0.44525041097745155
720000000.0 0.2343987281971898 -0.3879551821686536
740000000.0 0.39309178491956015 -0.2060304827975721
760000000.0 -0.4068225141943351 0.09454696057329434
780000000.0 0.16006096852306875 -0.34752537253925625
800000000.0 0.018620493428249785 0.34847807929826213
820000000.0 0.06514120162993735 0.28401294157331963
840000000.0 0.23205503628109525 -0.02541118256165518
860000000.0 0.00303420011476103 0.1982533121081075
880000000.0 -0.12649171669210765 -0.053483989128609404
900000000.0 -0.04739938537852891 0.05526150745467305
920000000.0 -0.040500585728235824 0.009145545717891557
940000000.0 0.025865729752620182 0.023649517746633552
960000000.0 -0.04703608888185641 0.0033735292684211713
980000000.0 0.026691355839831506 -0.0449875897666807
1000000000.0 0.04090357476854648 0.04386243805609231
1020000000.0 0.07184792419504303 -0.013393511249576448
1040000000.0 -0.023285177694808826 0.078072196754868
1060000000.0 0.11400668786959846 -0.040398352939478056
1080000000.0 -0.092292477853518 -0.10321490029356964
1100000000.0 -0.0436127499264373 -0.1587394435723342
1120000000.0 -0.1934390129371392 -0.030331435114065042
1140000000.0 0.20824796472408616 0.12118951838993473
1160000000.0 0.2416603519932361 -0.15337636653664524
1180000000.0 -0.1365772164264638 -0.3016114729440631
1200000000.0 -0.332528452058779 -0.1587262907748709
1220000000.0 -0.00896245599390188 -0.3975652856197219
1240000000.0 0.4083725789695153 0.09416110720721761
1260000000.0 -0.4394145292766989 0.02006586787863697
1280000000.0 0.44502810299156453 -0.0557204932071641
1300000000.0 -0.4207978019774101 -0.1532480696580056
1320000000.0 -0.13394602125399319 0.41346123030446236
1340000000.0 -0.3551726445917416 0.2221962925974148
1360000000.0 -0.1278839352789665 -0.3876217180073601
1380000000.0 0.20207394450248475 -0.35414689036483016
1400000000.0 0.1431942725276388 -0.3701236133359554
1420000000.0 0.11410297211513722 -0.3699542213231726
1440000000.0 -0.16234607528328057 -0.3350483402444406
1460000000.0 -0.35354386428479634 0.01476176080588493
1480000000.0 0.1128665635342347 0.3144151299189289
1500000000.0 -0.09540456325543396 -0.2936375426152713
1520000000.0 -0.1732110931231181 0.22429404636091524
1540000000.0 -0.18619574849348816 0.17253118970404083
1560000000.0 0.059935265035952034 0.20740347754101043
1580000000.0 0.1761009325191728 0.041683007447227804
1600000000.0 -0.13654643974957298 0.054736836997737105
1620000000.0 0.005916249551810636 -0.10540422132750041
1640000000.0 -0.07505475177735099 0.022493332984289953
1660000000.0 -0.04094175979075754 0.034182109445828564
1680000000.0 -0.0236316909896623 -0.001775507794061639
1700000000.0 0.007157339445695494 0.01126167745904302
1720000000.0 -0.02419897874476938 -0.020021185414951598
1740000000.0 0.030052161480958624 -0.044016954439245144
1760000000.0 0.012632494260139154 -0.06818208989981092
1780000000.0 -0.009796286312463244 -0.08743749158577212
1800000000.0 0.1136119545500556 0.011568194470547428
1820000000.0 0.07670148830709872 -0.10122497760360898
1840000000.0 0.1372797527584859 0.06257373679389211
1860000000.0 -0.034291765013011524 0.17007701088829302
1880000000.0 -0.11061456007243863 -0.17677250860844507
1900000000.0 0.10068034586615002 -0.22959844057511747
1920000000.0 -0.28898028983152124 -0.06606610386407213
1940000000.0 0.024983238082588125 0.34213656732065756
1960000000.0 0.09616941278016179 -0.37142728745266085
1980000000.0 -0.05174984634539104 0.4091067087614732
2000000000.0 0.29476850666895793 -0.322093840180464
2020000000.0 -0.37652498788631605 0.2507750809149515
2040000000.0 0.43587907241402307 0.1300318279994781
2060000000.0 -0.16361120936444218 -0.42091824903020164
2080000000.0 -0.39848527832525793 0.1802980903422785
2100000000.0 -0.2080097553437959 0.3653104832847066
2120000000.0 -0.26189940017608326 0.3030222580396877
2140000000.0 -0.3624137050198503 0.12166590776634863
2160000000.0 0.2745641002678895 -0.24317158335675812
2180000000.0 0.34749357027709804 0.07454361008344247
2200000000.0 0.20279714501185453 0.28357405617816756
2220000000.0 0.3167853617351521 0.15337556411930617
2240000000.0 0.018277425216568076 -0.3519649191646897
2260000000.0 -0.3559789128368473 -0.007220530007485494
2280000000.0 0.1523401556968376 0.3255674479903531
2300000000.0 0.2673794391265355 -0.25597602334160446
2320000000.0 -0.3795235429799527 -0.0825495541931131
2340000000.0 -0.14059688984999943 0.38958081748102286
2360000000.0 0.450045134673581 0.0020325370567109728
2380000000.0 -0.3476454806930852 -0.3551443906479703
2400000000.0 0.18971381560195202 0.5149965401798532
2420000000.0 -0.32536604354666915 -0.5079610089640939
2440000000.0 0.5981446049491377 0.2677407686043236
2460000000.0 -0.6794170187665948 0.1593927425049176
2480000000.0 0.49698605933733964 -0.5355696599582002
2500000000.0 -0.44892388271544714 0.6043801472675466
2520000000.0 0.5723798337929461 -0.5065420409670445
2540000000.0 -0.7363327609942835 0.2135089535646775
2560000000.0 0.7028839635342254 0.2926566761406981
2580000000.0 -0.1391822762997812 -0.7338545000931247
2600000000.0 -0.4633872200244358 0.5535686734530529
2620000000.0 0.6882614645243789 0.06399235570977972
2640000000.0 0.6029646057522672 -0.2538490993880858
2660000000.0 -0.4964666939637121 -0.35592479545666794
2680000000.0 0.008928643136259221 0.5667392445273581
2700000000.0 0.23223406458304394 -0.46855045290846187
2720000000.0 -0.26095976052931996 0.3984058714194351
2740000000.0 0.21592055487712217 -0.37413771394662315
2760000000.0 -0.044272960064919764 0.3876625893826937
2780000000.0 -0.2336093537899745 -0.26759441302918613
2800000000.0 0.3206984456970251 0.04663287619149512
2820000000.0 -0.26951300873845146 0.13527616833610767
2840000000.0 0.25325374579718707 -0.13663609059605045
2860000000.0 -0.24717402098812646 0.13948852064973857
2880000000.0 0.2602145073843859 -0.11587131777030704
2900000000.0 -0.283976994995724 -0.06037669900361545
2920000000.0 0.09118687394396853 0.28836785666043235
2940000000.0 0.14199440938377722 -0.2792259904024975
2960000000.0 -0.29038741438735527 -0.13396509732185446
2980000000.0 -0.29797200317261546 0.13230201411845302
3000000000.0 -0.3115263666900433 0.10435776181076481
3020000000.0 -0.3220873037768772 -0.05301824883236326
3040000000.0 0.120620304176343 -0.29657440980871497
3060000000.0 0.13681060026954223 0.28223019240055436
3080000000.0 -0.15039021386813073 -0.26403581046405233
3100000000.0 0.09631494658627086 0.27884646208894637
3120000000.0 0.12876335842635844 -0.25368692502767703
3140000000.0 -0.18051128964507418 0.20695051268412104
3160000000.0 0.2562034697690606 -0.05636786574983729
3180000000.0 -0.01644924543285702 -0.2489379442999777
3200000000.0 0.19991373693284412 0.11796732063177201
3220000000.0 -0.06961843462863225 0.19675118556213309
3240000000.0 -0.15784953338712263 0.09232713464482435
3260000000.0 -0.1498918609015577 -0.013235729924517601
3280000000.0 -0.11526446596775519 0.0055724391609728455
3300000000.0 -0.07124415574493144 0.038927694937083146
3320000000.0 0.04649335668801093 0.0027182410361247236
3340000000.0 -0.010114252095988815 -0.013854783337385174
3360000000.0 -0.00682845638477617 0.0063734002142463615
3380000000.0 0.02129212267985439 0.009510666733220234
3400000000.0 -0.026571008512152116 -0.016701644757783612
3420000000.0 0.006071650669479887 -0.03479325659648236
3440000000.0 -0.014256460787820726 0.03514471981956252
3460000000.0 0.019474714051783616 0.03985193580420013
3480000000.0 -0.022348024201965765 0.056288982935932555
3500000000.0 -0.04885628796635518 0.06616205546524648
3520000000.0 -0.04406257166679708 0.09727023528201431
3540000000.0 0.05128440681050209 0.11253616252688883
3560000000.0 0.10223361093322354 0.08826597557282188
3580000000.0 -0.04369277981974919 0.13820769721610893
3600000000.0 -0.09749638381024389 -0.12181168124464616
3620000000.0 0.09741222487390096 -0.13209069822237707
3640000000.0 0.052424513720322176 0.16223118430205868
3660000000.0 -0.16843268652918403 -0.06392876057173294
3680000000.0 0.1571738967591905 -0.09973163311921159
3700000000.0 0.1612125133817935 0.10044678823554147
3720000000.0 0.01909791583486673 0.19358894138086
3740000000.0 0.061614082914913 0.18277967686933996
3760000000.0 -0.1671861883286164 0.08574720741366977
3780000000.0 -0.005310872036523884 -0.17785248990723274
3800000000.0 0.05014792157101435 0.15689959452422977
3820000000.0 0.10969590181430594 0.10518613041367612
3840000000.0 -0.09925985055085375 0.09880974619349032
3860000000.0 0.1269367014408833 0.054907852572347635
3880000000.0 -0.14376940210219558 0.028607256049020244
3900000000.0 -0.10611954681806537 0.11419422986387955
3920000000.0 0.16374402380832728 -0.03426580271692308
3940000000.0 0.06384044022159656 0.16518173450041584
3960000000.0 0.18001174666672728 0.03714371999160574
3980000000.0 -0.1567620604307671 -0.0930750978007806
4000000000.0 -0.12998811953417921 0.11221702248693027
