! Created with skrf (http://scikit-rf.org).
# Hz S RI R 50.0 
!freq ReS11 ImS11
400000000.0 0.16921154403167324 0.8561336599467717
420000000.0 0.6454645357319589 0.5685688663960371
440000000.0 0.7958245112877843 -0.22357475178982067
460000000.0 0.12040400113753116 -0.7790021621717258
480000000.0 0.5095343513580776 -0.4926376125655915
500000000.0 0.18587209980999453 -0.5311417711129278
520000000.0 0.24258506743454927 -0.42098066409945495
540000000.0 0.42871128882684817 0.012508234211728635
560000000.0 -0.33271717747011553 -0.11280070091423945
580000000.0 -0.31903865824315536 0.09866838313993216
600000000.0 0.301773879073742 0.1298217548782166
620000000.0 -0.1848630018504335 -0.29523241064879197
640000000.0 -0.3359948702264151 -0.17888861227003192
660000000.0 -0.3758470079810418 0.13058896433031789
680000000.0 0.032202643969727794 -0.4258664197169968
700000000.0 0.1353768784887701 0.42872282832560615
720000000.0 0.0948685839532923 -0.441888097528717
740000000.0 0.4205822083214851 -0.14141579888476893
760000000.0 -0.4131202907473843 -0.06994345083239939
780000000.0 0.12647128121552678 -0.36327655867625397
800000000.0 0.06062703389152184 0.3439967962677227
820000000.0 0.05027583862763864 0.28534955968732073
840000000.0 0.17768656100701588 0.1511545820862695
860000000.0 0.03629949981491078 0.1967974697251529
880000000.0 -0.10303626708135255 0.0920536255409286
900000000.0 0.019005061523370538 0.06937724302062473
920000000.0 -0.012109706379612385 0.03858374064744704
940000000.0 0.031374902833947366 -0.014156891715089777
960000000.0 0.0370665674635906 -0.027860820120858516
980000000.0 0.019737963037570198 0.05160617708376648
1000000000.0 0.05865130767636725 0.014664443608992966
1020000000.0 0.06860381374816531 0.023515952871511894
1040000000.0 0.007958482283967146 0.081092838486222
1060000000.0 0.10591123757024735 -0.05777966052658339
1080000000.0 -0.12171563571458824 -0.06620002237860817
1100000000.0 -0.11372266806954988 -0.11856107937393127
1120000000.0 -0.19388472788410946 0.01701629712792399
1140000000.0 0.2256253486183643 0.08399478134438923
1160000000.0 0.19976199396580474 -0.20531112670759383
1180000000.0 -0.14353783493194652 -0.29876635397201345
1200000000.0 -0.3392277177477451 -0.14426924173807243
1220000000.0 0.018188803698873615 -0.3972439742775931
1240000000.0 0.4073814399580343 0.09610882428004627
1260000000.0 -0.4386312141694127 0.03022353230309133
1280000000.0 0.4456876916496003 -0.05376203379903766
1300000000.0 -0.40855471445461916 -0.18414954606765324
1320000000.0 -0.14285932940495444 0.41057284479109074
1340000000.0 -0.3674308447378702 0.20292350704407522
1360000000.0 -0.15173644534429695 -0.37898654786239017
1380000000.0 0.19106213577816927 -0.36103649571077717
1400000000.0 0.12419546754268276 -0.3773593228623963
1420000000.0 0.06704460114521127 -0.38081188221549744
1440000000.0 -0.1857220730568086 -0.3223594088971121
1460000000.0 -0.3506412262458861 0.0345605936857954
1480000000.0 0.11921115945008028 0.31087810593226783
1500000000.0 -0.1149048922846887 -0.2858489171370963
1520000000.0 -0.18774809309469698 0.21092253960848667
1540000000.0 -0.2112399701408926 0.14048336576700113
1560000000.0 0.08968284084840907 0.19521208603163095
1580000000.0 0.17464582802971915 0.04432841910851338
1600000000.0 -0.11891276135686416 0.08561158759271978
1620000000.0 -0.03356347376998355 -0.10022217984660842
1640000000.0 -0.06703615448558518 0.04098605792181499
1660000000.0 -0.04489362676237088 0.029799296044517865
1680000000.0 0.022279680241750387 -0.009800456801523716
1700000000.0 0.011831980892454061 -0.004082884375697187
1720000000.0 -0.010697994641409884 -0.027463333568470336
1740000000.0 0.05025241586219449 -0.011809786452203028
1760000000.0 -0.013207158245203313 -0.06745462104241248
1780000000.0 -0.03469843814037463 -0.08165428580898061
1800000000.0 0.11461586210940303 0.0009612995139701324
1820000000.0 0.07869424278013168 -0.10055864887142156
1840000000.0 0.13215296365948465 0.07520720981073596
1860000000.0 -0.03728968294998891 0.17108189286518083
1880000000.0 -0.11709550086522842 -0.17441532778677046
1900000000.0 0.04854037084284698 -0.247142968909198
1920000000.0 -0.2908013839302782 -0.06221486951604029
1940000000.0 0.032049125965468765 0.34202556759111064
1960000000.0 0.10694268348489708 -0.36803647736019934
1980000000.0 -0.045458000112010996 0.40897827494760913
2000000000.0 0.323003318974981 -0.2914618906823938
2020000000.0 -0.3895309027739582 0.2261901454496074
2040000000.0 0.404428202911765 0.20515034868915047
2060000000.0 -0.08018526276038117 -0.4426656760599766
2080000000.0 -0.41901768504214937 0.12040498049778005
2100000000.0 -0.2294430623654415 0.35163713348436554
2120000000.0 -0.2416793067907346 0.31913201628031496
2140000000.0 -0.3547857961998519 0.14324493652635611
2160000000.0 0.1573407678873836 -0.3313887575232538
2180000000.0 0.3422254096655712 -0.0967210452171906
2200000000.0 0.30871210473306937 0.1603993595788297
2220000000.0 0.35029503974370624 -0.012882349705446088
2240000000.0 -0.09541732205939181 -0.33769493884392005
2260000000.0 -0.3515741753581012 0.04989010894622789
2280000000.0 0.16808322814441018 0.31766664183327736
2300000000.0 0.2906910583833103 -0.23018500781716605
2320000000.0 -0.3539705402629036 -0.16254430312801887
2340000000.0 -0.1896703803041434 0.37013099363405716
2360000000.0 0.449751589218196 0.043247793263786395
2380000000.0 -0.3460377442265133 -0.3585160366452837
2400000000.0 0.18667977815038123 0.516968815150887
2420000000.0 -0.29594249721001137 -0.5259924851294022
2440000000.0 0.5894804467697494 0.2848007253386028
2460000000.0 -0.6786868862593023 0.15849013544072751
2480000000.0 0.5132441792140593 -0.5189237525489072
2500000000.0 -0.5114409346482746 0.55177672359012
2520000000.0 0.5443821922892245 -0.5362488971982525
2540000000.0 -0.7194158114861812 0.2653557972961935
2560000000.0 0.715336886727387 0.25978237755605493
2580000000.0 -0.20215022251468723 -0.7187617781756162
2600000000.0 -0.4096842431390942 0.5951701414053702
2620000000.0 0.6901309853909557 0.04369009395781398
2640000000.0 0.607384875933491 -0.242860668575233
2660000000.0 -0.5247065386447842 -0.3131853250293022
2680000000.0 -0.004283387297325156 0.5668838713764147
2700000000.0 0.2699413736946601 -0.448033392606943
2720000000.0 -0.2953756459518461 0.3737808575754283
2740000000.0 0.2583089700150321 -0.346439295277048
2760000000.0 -0.07315940774720814 0.3832469467830979
2780000000.0 -0.21643549621931282 -0.2818058152641396
2800000000.0 0.3174026664528037 0.06547124519613001
2820000000.0 -0.26767072780837087 0.13873948417197426
2840000000.0 0.23989261798389977 -0.15792013591942694
2860000000.0 -0.22130728098076854 0.17685798945635595
2880000000.0 0.23987212687259657 -0.1519796701877249
2900000000.0 -0.28937956938580994 -0.00777623428796606
2920000000.0 0.12875928393233202 0.2725992244455507
2940000000.0 0.14038729014632684 -0.2786947699804411
2960000000.0 -0.31239008891226266 -0.06623143064044441
2980000000.0 -0.29110005142005246 0.14564904957929511
3000000000.0 -0.304134118620216 0.12445352588377916
3020000000.0 -0.3247749106058689 -0.0372161378833831
3040000000.0 0.030737542970239555 -0.31943666995045195
3060000000.0 0.16226374059963072 0.26806259747409483
3080000000.0 -0.2119529244584275 -0.21831581915890946
3100000000.0 0.10447696558445883 0.27627982065200657
3120000000.0 -0.0017092073049744488 -0.2848713901315498
3140000000.0 -0.1299998360878061 0.24244557256624483
3160000000.0 0.24165201577574646 -0.10414331333957019
3180000000.0 -0.09114893616210483 -0.23283151654368225
3200000000.0 0.22484992311257318 0.06047471522753704
3220000000.0 -0.03760624137238889 0.20566479035528515
3240000000.0 -0.17849037158671513 0.04137313732582668
3260000000.0 -0.11245652841784054 -0.10114740744365623
3280000000.0 -0.08149101937899512 -0.08307218693710346
3300000000.0 -0.03345185375697212 -0.07463295479903659
3320000000.0 -0.044121084158225486 0.017550167069606694
3340000000.0 0.0004840674985373967 0.017892469790034816
3360000000.0 0.003239405337641926 -0.007155483442845411
3380000000.0 -0.00865153516188804 0.020449849686804016
3400000000.0 -0.009028166426915566 0.030510295243776672
3420000000.0 -0.0027338103189417104 0.03700727909713806
3440000000.0 -0.034642567432286414 -0.018153028136847896
3460000000.0 -0.04209450559488345 -0.016199103197222155
3480000000.0 0.059136286702347135 -0.009020620039491906
3500000000.0 0.07657573234892148 0.027572043786608484
3520000000.0 0.018930340554398684 0.10283192568959805
3540000000.0 0.09409523704643492 0.07820921001325863
3560000000.0 0.1124256324768948 0.07526211931139455
3580000000.0 -0.06430163754390986 0.13034355860531283
3600000000.0 -0.15711972659474902 0.0053323948926608505
3620000000.0 0.014927358283888864 -0.1642184211493713
3640000000.0 0.126923252996451 0.11676809096398907
3660000000.0 -0.17958852557009194 0.02773192227405252
3680000000.0 0.0539341971128237 -0.17844446197915098
3700000000.0 0.19040107045287097 -0.0031199395598268615
3720000000.0 0.1230888356069136 0.15053857192449566
3740000000.0 0.06146853594622369 0.18421711350107012
3760000000.0 -0.1878116875572245 0.026314201158014642
3780000000.0 0.0877944356728382 -0.1567261357399053
3800000000.0 -0.0646830967728026 0.15424244746264812
3820000000.0 0.0346285097683522 0.15001458208010487
3840000000.0 -0.13216802450884257 0.0543496245751155
3860000000.0 0.1303991695408043 0.0517418279835348
3880000000.0 -0.13710711910780862 0.05443932616781088
3900000000.0 -0.09819444182616942 0.12226146918549247
3920000000.0 0.16383312991570972 -0.032022959339361085
3940000000.0 0.014332908432128654 0.17639771731664414
3960000000.0 0.15343947078837922 0.10021706463884116
3980000000.0 -0.13626333683221734 -0.12052802104723284
4000000000.0 -0.08511253743007519 0.14780592093485712
