! Created with skrf (http://scikit-rf.org).
# Hz S RI R 50.0 
!freq ReS11 ImS11
400000000.0 -0.7172246461991232 0.48585549548745266
420000000.0 0.26374172961030595 0.825069412924554
440000000.0 0.8096486882524514 -0.2155279094265003
460000000.0 0.2306967863356701 -0.7537913174139673
480000000.0 0.5623853121287117 -0.4523968500773134
500000000.0 -0.42321050421588263 -0.3689622940579628
520000000.0 -0.40715134601988595 -0.27225143814612685
540000000.0 0.04068642239868253 -0.41032788097827644
560000000.0 -0.3601944695526664 -0.06681845575477494
580000000.0 0.14340899259467507 -0.28502365599136303
600000000.0 0.062083888758333323 -0.3232702092794967
620000000.0 0.30208720555137913 -0.1409852461628153
640000000.0 -0.3364868101796189 0.08927394407763216
660000000.0 -0.2912700983683555 0.2480739997601519
680000000.0 0.16465940369338408 -0.367801447839953
700000000.0 -0.43403281974968666 0.06016684301748034
720000000.0 -0.0004409769937620504 0.4397205119548266
740000000.0 -0.43776243901038364 0.11577565536464954
760000000.0 0.0011376516039195512 -0.43348208959181983
780000000.0 0.358445058134003 0.18016151272002767
800000000.0 0.04506724424096115 0.3608725866950369
820000000.0 -0.08976020351730644 0.2871868112659993
840000000.0 0.141054820575468 -0.20839733177176198
860000000.0 -0.018400882936284092 -0.200825228775445
880000000.0 -0.07117395056692005 -0.13229410485044762
900000000.0 0.05339861051078991 0.05206140257259867
920000000.0 0.029052116943616365 -0.03056598228471174
940000000.0 -0.04430533342962979 -0.018714261930942326
960000000.0 -0.01952126576533036 -0.05490270174301198
980000000.0 -0.028732338486349634 -0.05583389643097656
1000000000.0 0.024530006668190513 -0.06412388069320027
1020000000.0 0.06566903974024926 -0.02947994784515019
1040000000.0 -0.07680195214686018 -0.013851441346270697
1060000000.0 0.1050357319351604 -0.03848857245339466
1080000000.0 0.12191785743555798 -0.05661187546160398
1100000000.0 0.0807004119741384 -0.13816868877570684
1120000000.0 0.01382648477237464 -0.19572809551460404
1140000000.0 0.16436425312997693 0.17795327491383225
1160000000.0 0.19364049052555835 -0.21213258051106457
1180000000.0 -0.31765828679999913 0.09297508072707233
1200000000.0 -0.361914166353552 -0.0035256884522662153
1220000000.0 -0.22924315802341952 -0.321450987018797
1240000000.0 0.3858803266152983 0.1476357069102536
1260000000.0 -0.43596853368955735 -0.02339814166896272
1280000000.0 0.42895096732440574 0.10900517432053966
1300000000.0 -0.1767083777383049 -0.41166127236166217
1320000000.0 -0.3679029803941874 0.233817033506086
1340000000.0 -0.3972692499079141 -0.15650370064543914
1360000000.0 -0.13957929525569768 -0.3981069030335888
1380000000.0 -0.16710815867520745 -0.38643227656497015
1400000000.0 -0.3932978470180531 0.09552033757836614
1420000000.0 -0.36093752907436455 0.14417505866619298
1440000000.0 -0.0563244636048603 0.3637020373525927
1460000000.0 -0.03553899706605693 0.34001356240479336
1480000000.0 0.2195813735542086 0.23621029473088115
1500000000.0 0.25700810506618443 -0.1548530336309793
1520000000.0 -0.218993469868522 0.1674879448221025
1540000000.0 0.24767870781148377 -0.05293196835895102
1560000000.0 0.18433455507447316 -0.12157342649202496
1580000000.0 -0.023487789723346513 -0.18680711286288643
1600000000.0 0.15408550041110272 -0.010025102422797827
1620000000.0 -0.0046176899857675435 0.11693695271938208
1640000000.0 0.07834591494272941 -0.035902449732191255
1660000000.0 -0.03437910103955466 0.049724991302309174
1680000000.0 0.018238457801518636 0.02516069491057765
1700000000.0 -0.012544292565489985 0.0011243242763783153
1720000000.0 -0.01936347109413335 -0.011998839937418461
1740000000.0 -0.04168451692131423 -0.006807257101531305
1760000000.0 0.025968409424958556 -0.056901629171128905
1780000000.0 0.08325051039976715 0.00967389524714385
1800000000.0 -0.10841721162677949 0.04069233669317707
1820000000.0 0.11346026606100064 -0.08627025479016713
1840000000.0 -0.16681317561355513 -0.031040402133488517
1860000000.0 0.15476395604543344 0.12224344637728632
1880000000.0 0.21518200859748393 0.06412306074300533
1900000000.0 0.25743251614439755 0.02044840611532936
1920000000.0 0.12144233422372905 -0.2652763871365228
1940000000.0 0.08184961263493333 -0.31585094071078224
1960000000.0 -0.31688394051679974 -0.17470739581193928
1980000000.0 -0.16906095336676458 0.3526887046865765
2000000000.0 0.3200818544190518 0.27085540444094736
2020000000.0 0.2239459835081065 -0.38221424487626987
2040000000.0 -0.41096990467823763 0.2016024381356303
2060000000.0 0.44883177546440456 0.10384653252174293
2080000000.0 -0.1827953351459847 -0.4195155787673471
2100000000.0 -0.27906903558912777 0.34455219813156207
2120000000.0 0.18590807272735058 0.37880574327105604
2140000000.0 -0.29807373732635917 0.2621840642680451
2160000000.0 -0.32569449764990305 0.1884068555583069
2180000000.0 -0.291941911804702 -0.2058157088717178
2200000000.0 0.0369480311814661 -0.34315323921074425
2220000000.0 0.33421501339415377 -0.07178675437134596
2240000000.0 0.23952920897404464 -0.25056473581583455
2260000000.0 -0.03159160563827688 -0.35434314355200436
2280000000.0 -0.35644677447520406 0.08278690341176158
2300000000.0 0.3344206178431665 0.18507642329936316
2320000000.0 -0.19086280653037846 -0.35733067321585815
2340000000.0 -0.15089201646475264 0.40541643175922276
2360000000.0 0.2692534271514211 -0.3827509247014999
2380000000.0 -0.4728569282870727 0.19326389437063846
2400000000.0 0.531760354367941 -0.17358522626845305
2420000000.0 -0.46484901429497943 0.3941084187810245
2440000000.0 0.16313972515018635 -0.6362734650487164
2460000000.0 0.2498493282836478 0.6492583540626546
2480000000.0 -0.5343891155876506 -0.49179528713743953
2500000000.0 0.5551053643731877 0.49854892015913693
2520000000.0 -0.4778812851004005 -0.5863091820408453
2540000000.0 0.19451140666955727 0.7324713440951286
2560000000.0 0.37829641210128295 -0.6501522423468113
2580000000.0 -0.7334490703201206 0.070067980194785
2600000000.0 0.46916343409598216 0.5357543416659609
2620000000.0 0.13225761803388977 -0.6683502753446148
2640000000.0 -0.119759410210699 -0.6323314570999589
2660000000.0 -0.5067956067110646 0.3192211614071497
2680000000.0 0.4401779135138445 0.33885489310608585
2700000000.0 0.10122939483525038 -0.5033919812408093
2720000000.0 -0.3013002339423578 0.36126500284191704
2740000000.0 0.37951977057222136 -0.2026386781752618
2760000000.0 -0.2864803861933591 0.2692183071502995
2780000000.0 -0.0530584489879364 -0.3551179225286501
2800000000.0 0.2775995974555167 0.1790792178027953
2820000000.0 -0.2522807810725033 0.17692426928823543
2840000000.0 0.08874465537559358 -0.27755839316015474
2860000000.0 -0.05100934194072718 0.27821512598184917
2880000000.0 0.008717139263161937 -0.2799000391825051
2900000000.0 -0.15967492773887645 0.2280009196553224
2920000000.0 0.1352508535266206 0.25165081085606283
2940000000.0 0.2294479938235122 -0.18398449161186026
2960000000.0 0.10802439649843332 -0.28178156060573506
2980000000.0 -0.12368703546875016 -0.28662953036807326
3000000000.0 -0.10530527320592094 -0.2994811842264473
3020000000.0 0.0521847014622358 -0.3165359858516412
3040000000.0 0.28433736463476683 -0.1404694251291415
3060000000.0 0.11448666105862042 0.2918468454079546
3080000000.0 -0.2902589108135477 -0.0945171268422399
3100000000.0 0.2621156567723588 -0.13797917135836615
3120000000.0 -0.10539483641990974 0.26305927723189276
3140000000.0 0.02715035119351296 -0.266271404681948
3160000000.0 -0.1498311527925827 -0.19917344318173863
3180000000.0 0.04376429565704481 0.2282808992256483
3200000000.0 0.06723980216081651 -0.20248137982107217
3220000000.0 -0.11150705524803838 0.15953954934504672
3240000000.0 0.025270672509384112 -0.17232117123823112
3260000000.0 0.11772277787261463 0.09519829105518142
3280000000.0 0.09267315929968918 0.08340116889689675
3300000000.0 0.03391647294117248 -0.09042246994564232
3320000000.0 0.042821479786618544 -0.05092453304311597
3340000000.0 -0.029120413205805346 0.021786014460904363
3360000000.0 -0.010544895965040272 0.01853534119569302
3380000000.0 -0.02031379587278191 0.019783691867794478
3400000000.0 -0.03583275182515543 -0.0194249461926597
3420000000.0 0.030430976691474265 -0.03889751610553299
3440000000.0 0.02824842068090574 -0.037968871328411626
3460000000.0 -0.039683629551418735 0.012819356503139015
3480000000.0 -0.04039060124923725 -0.01369153204534481
3500000000.0 0.05991936823952473 -0.008451954675743814
3520000000.0 0.00568868107163969 -0.08991425116312779
3540000000.0 -0.06568656422842956 -0.09557918101430238
3560000000.0 -0.04157858258233555 0.13116879236235243
3580000000.0 0.13937865302092092 0.06309788730523952
3600000000.0 -0.05752957640499552 -0.15968942964055452
3620000000.0 -0.1694060603719927 -0.033661398601310545
3640000000.0 -0.16595294288154025 -0.05958456690513604
3660000000.0 0.0798330634077735 -0.15634091343058235
3680000000.0 -0.07461431917070542 0.15935505614046153
3700000000.0 0.08350009785806421 -0.15264555561710785
3720000000.0 -0.17559468921750648 0.03154338995031073
3740000000.0 0.07786322777535584 -0.16404584891959753
3760000000.0 -0.01795233352702841 0.18317791216172075
3780000000.0 -0.1828972179113681 -0.008855254159025393
3800000000.0 0.011893938832551666 -0.17622218253160077
3820000000.0 0.09781953542926769 0.1338814552634223
3840000000.0 0.13979008319497113 -0.05421169931065767
3860000000.0 -0.030179279144496085 0.13489604463755597
3880000000.0 0.13361806820867494 -0.030795948545510522
3900000000.0 -0.13868834729355223 -0.02848132191437507
3920000000.0 -0.06102456112076379 -0.14228308943320456
3940000000.0 0.16997978300389124 0.031903412246111706
3960000000.0 0.12779726808267472 -0.13702033757709275
3980000000.0 0.09445742384386759 0.16736747638372795
4000000000.0 -0.11397007437808024 -0.1449705223690094
