! Created with skrf (http://scikit-rf.org).
# Hz S RI R 50.0 
!freq ReS11 ImS11
400000000.0 0.16928701321067013 0.8581318220597444
420000000.0 0.613226423759044 0.6023976153512823
440000000.0 0.8002185047131859 -0.2092053669973955
460000000.0 0.16781349680903931 -0.7716158840399542
480000000.0 0.48898726590063263 -0.5107486464640374
500000000.0 0.3241191348924446 -0.4578879676968173
520000000.0 0.23814809818361657 -0.4261832724878687
540000000.0 0.41845144677201773 -0.08277583110606757
560000000.0 -0.29899189541580085 -0.1841263355292241
580000000.0 -0.3237842192544032 0.08157942715781367
600000000.0 0.3232409651429549 0.06710715880207674
620000000.0 -0.1455920602305341 -0.31666228465016394
640000000.0 -0.3052630842095854 -0.22851789339003484
660000000.0 -0.3943265645766478 0.058091679269105724
680000000.0 0.1407566886174045 -0.4050175363289162
700000000.0 0.16241748888894036 0.41840614293766837
720000000.0 0.20262632553047397 -0.4032331914992051
740000000.0 0.4252056290714255 -0.12672313340313474
760000000.0 -0.4189824168814426 0.009156495436172439
780000000.0 0.09613853655558298 -0.371434621286221
800000000.0 0.04634647918907018 0.3461753515836172
820000000.0 0.11744914632598304 0.26469306237611634
840000000.0 0.2227593302378194 0.07115915360863836
860000000.0 0.018566293947766096 0.1988549102541377
880000000.0 -0.13106694608563166 0.045038434174931995
900000000.0 0.012993148428382159 0.07090585610120588
920000000.0 -0.03528461975018532 0.019998386502327135
940000000.0 0.03115579039280244 -0.011730718854237137
960000000.0 0.03947981806900538 -0.02465732085169712
980000000.0 0.052946160759276675 0.011344983010635292
1000000000.0 0.05971896782418885 0.010156647477771247
1020000000.0 0.06545483361097892 -0.03185929586714695
1040000000.0 -0.036637069627240414 0.07258800527670654
1060000000.0 0.11520878924094508 -0.03744917753658398
1080000000.0 -0.11388368751565536 -0.07900222231698802
1100000000.0 -0.08634798741800223 -0.13996370370972094
1120000000.0 -0.19430254571651895 -0.01888902022054036
1140000000.0 0.20763652957825837 0.1225078044891319
1160000000.0 0.20729906218694266 -0.1971748660780474
1180000000.0 -0.1354771637400377 -0.3017371693635053
1200000000.0 -0.3316943692006272 -0.1602684308097686
1220000000.0 -0.015135307759229581 -0.39718365580563963
1240000000.0 0.4058443383131991 0.10312624023171421
1260000000.0 -0.43949748847617404 0.012670643888187139
1280000000.0 0.4453284343721912 -0.05314410573820429
1300000000.0 -0.4094248359764518 -0.1817354157610606
1320000000.0 -0.14338499463306675 0.410732185538497
1340000000.0 -0.3562452665923325 0.22192850150590468
1360000000.0 -0.14572726919673812 -0.3811400047663392
1380000000.0 0.21481531041915353 -0.3468245587724065
1400000000.0 0.13420076910460735 -0.3738893427262387
1420000000.0 0.08315913437230887 -0.37812406223775114
1440000000.0 -0.1894318166647032 -0.3200452435602461
1460000000.0 -0.35127257819102464 0.03257462990390277
1480000000.0 0.10623443642633265 0.315805175701222
1500000000.0 -0.0928255381419854 -0.2941245887851385
1520000000.0 -0.17192575338531924 0.22517464831937592
1540000000.0 -0.18084483937594828 0.1772519253188333
1560000000.0 0.05959040802152422 0.206930583157934
1580000000.0 0.14912317114882206 0.10206888553111253
1600000000.0 -0.1234707185051017 0.08103596436723946
1620000000.0 -0.02379279629664667 -0.10323074734031248
1640000000.0 -0.07792674375526858 0.00899447318243218
1660000000.0 -0.052720430006038474 0.010204534805787887
1680000000.0 0.023025114935354103 -0.007316510522261613
1700000000.0 0.006701506668837491 -0.01069371402994703
1720000000.0 0.0024420154011473086 -0.029869816331448147
1740000000.0 0.046905093804584505 -0.02423686062609621
1760000000.0 0.019246647278388502 -0.06649332215321394
1780000000.0 -0.01780329187716161 -0.08653874982747682
1800000000.0 0.11238165780519255 0.019501992800352287
1820000000.0 0.07940057985143711 -0.09928406097457074
1840000000.0 0.1234926217698629 0.08817138981742824
1860000000.0 -0.03195494582102275 0.17184890512525375
1880000000.0 -0.12183951437492607 -0.1704878548618303
1900000000.0 0.0852982043372247 -0.236402816754432
1920000000.0 -0.2919342572181027 -0.05328086662459779
1940000000.0 0.03698854585732089 0.34127319355814406
1960000000.0 0.09513521211056059 -0.37150184125163
1980000000.0 -0.041656544404925416 0.40975792868928274
2000000000.0 0.32890161650243394 -0.28619282355120657
2020000000.0 -0.36020097033059595 0.27113446676628905
2040000000.0 0.40082691314069613 0.21317073152421173
2060000000.0 -0.11625380597957481 -0.4351835708887303
2080000000.0 -0.40848000771005366 0.1537422391262567
2100000000.0 -0.24718734276625617 0.33968710276192104
2120000000.0 -0.28092752403163446 0.28511971332864305
2140000000.0 -0.36373537838404896 0.11853632794927654
2160000000.0 0.21260429881461607 -0.29858630497976946
2180000000.0 0.3540380594328856 -0.031208720631321317
2200000000.0 0.27718319084379234 0.21087326744477666
2220000000.0 0.3502666786699695 0.027876674760806575
2240000000.0 -0.04828864783975017 -0.3482524777982086
2260000000.0 -0.3543728225052387 0.021933307593777172
2280000000.0 0.1547800707150024 0.3236754806197576
2300000000.0 0.27735682157890645 -0.24483840713218463
2320000000.0 -0.35959708868347534 -0.1464069226063339
2340000000.0 -0.16425250914633083 0.38111294227545683
2360000000.0 0.45050784380853265 0.021388111275144374
2380000000.0 -0.3462195717503039 -0.3575130708551231
2400000000.0 0.18720047511197546 0.5162217377802263
2420000000.0 -0.29488307595337065 -0.525861699471742
2440000000.0 0.5878770854501933 0.28810150917426497
2460000000.0 -0.6873169535799452 0.11809030961224695
2480000000.0 0.5453483944703754 -0.48626693387600095
2500000000.0 -0.5196710659066721 0.5445476183708612
2520000000.0 0.5757241554534569 -0.5021986752516322
2540000000.0 -0.7327303984253971 0.2250666408903866
2560000000.0 0.6802015805802117 0.3425326850120361
2580000000.0 -0.15934035349307007 -0.7294010531167591
2600000000.0 -0.48576315312924184 0.5343239838355507
2620000000.0 0.6909806486815151 0.021754278395235634
2640000000.0 0.6062455664186733 -0.24493555278110712
2660000000.0 -0.5049305672495028 -0.3432015519744065
2680000000.0 0.021204472680131262 0.5660493091545836
2700000000.0 0.24266159682424576 -0.4632447720145286
2720000000.0 -0.2606953394724341 0.39877197938877795
2740000000.0 0.21243930984461518 -0.3765958621832313
2760000000.0 -0.035740401105697206 0.3887961845234147
2780000000.0 -0.2374780786480098 -0.2648451283187756
2800000000.0 0.3233239221459267 0.02792986978800337
2820000000.0 -0.2585484727351519 0.1559153401065772
2840000000.0 0.24808010958434842 -0.14675798074839302
2860000000.0 -0.2362141896638463 0.157065012359703
2880000000.0 0.2546416980532571 -0.12665330314394255
2900000000.0 -0.2842616088246642 -0.05524128265902939
2920000000.0 0.1158288664135567 0.2785332969403149
2940000000.0 0.11308553331579935 -0.29133700380040267
2960000000.0 -0.3040112475407926 -0.09705073172263727
2980000000.0 -0.30726161795798224 0.10830789920361486
3000000000.0 -0.28447826268628695 0.16243621595036312
3020000000.0 -0.32609303766415926 -0.0016800440736977995
3040000000.0 0.10533570155803072 -0.30228902054882
3060000000.0 0.19836828951843932 0.24358467362117214
3080000000.0 -0.1803464424181684 -0.2446559175431613
3100000000.0 0.1071330054429085 0.2753261341209381
3120000000.0 0.06543215104603942 -0.2772070893280463
3140000000.0 -0.16944410028433818 0.21627444281640343
3160000000.0 0.24869400410619874 -0.08546332523149267
3180000000.0 -0.05631115989623106 -0.24373361313941372
3200000000.0 0.20973605713652185 0.10069144726196293
3220000000.0 -0.05674924522973304 0.200977307788888
3240000000.0 -0.16449894309827578 0.07944192882604958
3260000000.0 -0.12585076596286182 -0.08286669453009651
3280000000.0 -0.11349094069301806 -0.02362299360466688
3300000000.0 -0.07502646100549366 -0.03209096284751333
3320000000.0 -0.00877616744101185 0.04607388259458827
3340000000.0 -0.01447930385385367 -0.009332996030029145
3360000000.0 -0.003698346845077677 -0.007597359502500472
3380000000.0 0.01879583846463987 -0.012252562095454703
3400000000.0 -0.017403917240212348 0.026632093063073837
3420000000.0 -0.0201552447865774 -0.030335593359014906
3440000000.0 0.03517507374158273 -0.015594363948244996
3460000000.0 0.03148858627785616 -0.031206068863329994
3480000000.0 0.050196220634545756 0.033433476685122
3500000000.0 0.05014872838108067 0.06468015608941818
3520000000.0 0.0014977207421880026 0.10550116270370051
3540000000.0 0.09362965163537894 0.07947055775980087
3560000000.0 0.11401637741497714 0.07143459440155825
3580000000.0 -0.07379585040072863 0.12439251143165057
3600000000.0 -0.14525224123400662 -0.059850942677020784
3620000000.0 0.0696033283011683 -0.14870377826698
3640000000.0 0.08162434328771676 0.14998581722737186
3660000000.0 -0.18121289588903905 0.0032360683365400154
3680000000.0 0.09542633381297497 -0.16046370900922075
3700000000.0 0.18993583584486476 0.01162939731345731
3720000000.0 0.0794045950114427 0.17739238516949102
3740000000.0 0.08253438229332345 0.17436191360246875
3760000000.0 -0.1704891933472841 0.0802065443108848
3780000000.0 -0.003876927927749968 -0.178296133513469
3800000000.0 0.042233577890995994 0.16011856374284436
3820000000.0 0.10469554811790828 0.11217917991267627
3840000000.0 -0.10440578043004309 0.0965362521473141
3860000000.0 0.13921772530774698 -0.01206356392469204
3880000000.0 -0.1217651095029253 0.08220164786913246
3900000000.0 -0.07053703168748457 0.13944510876531022
3920000000.0 0.15403260745476569 -0.06480876567441955
3940000000.0 0.06816218791983598 0.1631264637333942
3960000000.0 0.17729111291288446 0.05038418367015007
3980000000.0 -0.15943427609570116 -0.08992648424513335
4000000000.0 -0.12489376062931469 0.12007214245078102
