! Created with skrf (http://scikit-rf.org).
# Hz S RI R 50.0 
!freq ReS11 ImS11
400000000.0 0.15334303008708627 0.8593778872879834
420000000.0 0.5930148148455063 0.6238522260034907
440000000.0 0.7856518644897365 -0.2593753107049618
460000000.0 0.15355383870984463 -0.7738539086349133
480000000.0 0.5487276633408752 -0.4461824830135771
500000000.0 0.27108220524971505 -0.49453067795868916
520000000.0 0.15284422578135817 -0.4609962726081659
540000000.0 0.42347002460026145 0.04989340669268924
560000000.0 -0.29685288081624295 -0.1888662180772003
580000000.0 -0.2526843086036674 0.21930444567125004
600000000.0 0.297125896698698 0.13994269781831375
620000000.0 -0.16837316944542088 -0.30629256093191054
640000000.0 -0.3083810755859035 -0.22540481833978865
660000000.0 -0.393599083225749 0.06447311579426762
680000000.0 0.11849789058604025 -0.41136990609524654
700000000.0 0.11713503955046814 0.4336369149084363
720000000.0 0.15060956914589047 -0.4265832028173889
740000000.0 0.4002422425171884 -0.18869732562960428
760000000.0 -0.4144537350150266 -0.06597441914201485
780000000.0 0.08820306837750248 -0.3735355905977781
800000000.0 0.09769955138796572 0.33447137540951183
820000000.0 0.08628006418767695 0.275852940554065
840000000.0 0.217526450504446 0.08652200935322749
860000000.0 0.03068837645466188 0.19779590315030554
880000000.0 -0.12827985867843697 0.051113019097465594
900000000.0 -0.015330020524810438 0.07046995178033764
920000000.0 -0.03717222169428444 0.015800316568318973
940000000.0 0.024683140536200063 0.022530231085732336
960000000.0 0.024309242436632843 -0.03926287232416894
980000000.0 0.05209336315156225 0.015962331859992993
1000000000.0 0.056841552748444324 -0.018918849631500603
1020000000.0 0.072239557666439 0.003710285086676817
1040000000.0 -0.040218599087119444 0.07077958256010883
1060000000.0 0.11021551353417865 -0.04990762453396711
1080000000.0 -0.10888688274654798 -0.08502879384457336
1100000000.0 -0.06927391186913442 -0.14952654971481927
1120000000.0 -0.19138169228658153 -0.04049011839938202
1140000000.0 0.21249484821511821 0.11457083598138364
1160000000.0 0.2167956683140469 -0.18713894751750773
1180000000.0 -0.11435664822044138 -0.31075604184667593
1200000000.0 -0.33024277893661874 -0.16446715036316972
1220000000.0 -0.0007926519273896509 -0.39785488381277195
1240000000.0 0.40190928908188067 0.1179530437042309
1260000000.0 -0.43986236700573 -0.001281204432593379
1280000000.0 0.44486722847182447 -0.05777582757721609
1300000000.0 -0.40712042712008706 -0.18636623011012468
1320000000.0 -0.14442622910967665 0.4098060725108534
1340000000.0 -0.35677390030606176 0.22002994991813343
1360000000.0 -0.1402027841895437 -0.3830456620051754
1380000000.0 0.21392553856954083 -0.3469172460247714
1400000000.0 0.14606557662795724 -0.36903235110222565
1420000000.0 0.09187686235855685 -0.3760354621377501
1440000000.0 -0.1917692225955769 -0.319143424453212
1460000000.0 -0.3518220336245697 0.03049231928286865
1480000000.0 0.10941538089028786 0.31541398842089724
1500000000.0 -0.09921170157774817 -0.29310961266661734
1520000000.0 -0.15878753199793616 0.23542867713497465
1540000000.0 -0.17533774628370902 0.1835148532895176
1560000000.0 0.039239354229079315 0.21250779712322246
1580000000.0 0.1507044302602615 0.10054548098595209
1600000000.0 -0.12906352385324824 0.07172323382900046
1620000000.0 -0.0018753140204348306 -0.10577737108044775
1640000000.0 -0.07709951078891937 0.013223165018392624
1660000000.0 -0.04357101730958201 0.030376777187690652
1680000000.0 -0.01764858507580206 -0.01578299872443762
1700000000.0 -0.011555577489488534 0.006158511319248065
1720000000.0 -0.001643194232892328 -0.03087748165156282
1740000000.0 0.0527593966681985 0.007882094722369594
1760000000.0 0.045539491968334206 -0.05197169277168338
1780000000.0 -0.002430212075528756 -0.08823878348556104
1800000000.0 0.11342862092953492 0.010090263037903925
1820000000.0 0.07862461357171142 -0.09906695313866654
1840000000.0 0.12554265122416583 0.08356117185040203
1860000000.0 -0.036320983481868234 0.16967901515108427
1880000000.0 -0.12090939084457783 -0.16984619274581672
1900000000.0 0.08101655239876727 -0.23667384577029124
1920000000.0 -0.28815872750327676 -0.06775832806299953
1940000000.0 0.01917220669133876 0.3424579332171775
1960000000.0 0.10520509708377825 -0.3689264307195527
1980000000.0 -0.04286907738784081 0.4101918454317257
2000000000.0 0.29502382067124755 -0.3217028197072938
2020000000.0 -0.36615369892056265 0.2651761272800492
2040000000.0 0.42978633766993163 0.14939424033483248
2060000000.0 -0.14578618153327189 -0.4274367729194936
2080000000.0 -0.38773002380742805 0.20242782699376444
2100000000.0 -0.20546798426426688 0.36677657407206604
2120000000.0 -0.265388285227001 0.2995705238487952
2140000000.0 -0.3760899891002908 0.06977650530806737
2160000000.0 0.2654208445037673 -0.25265375777821175
2180000000.0 0.3502378017139283 0.06073074059471225
2200000000.0 0.2094570047629397 0.2785759406636744
2220000000.0 0.32171436318174707 0.14196248022029356
2240000000.0 0.013784730002513445 -0.3518446096174279
2260000000.0 -0.3559009790452654 -0.002285403824813365
2280000000.0 0.14117789892046065 0.3299767866416317
2300000000.0 0.26222744775116236 -0.2610280336302947
2320000000.0 -0.37495782636548847 -0.09949708272287021
2340000000.0 -0.13921903073851946 0.3899996302461742
2360000000.0 0.4497984064760879 0.004284338694091656
2380000000.0 -0.34246007142810736 -0.3602609083009094
2400000000.0 0.17648335498483858 0.5195158160833241
2420000000.0 -0.29542824534196666 -0.5255108985047859
2440000000.0 0.5798282581109215 0.30472691798719315
2460000000.0 -0.6859258871199775 0.12693029293879907
2480000000.0 0.5329068092402309 -0.4997825366665452
2500000000.0 -0.5596092085191752 0.5041232487295148
2520000000.0 0.5981235067191902 -0.47598330043593207
2540000000.0 -0.7513255938657348 0.1536863979102557
2560000000.0 0.6834703373722916 0.336384138565011
2580000000.0 -0.11472769727479581 -0.738599090945755
2600000000.0 -0.49156663817924656 0.5294737351489242
2620000000.0 0.6852727181865109 0.09701987517241445
2640000000.0 0.5972079472628641 -0.26877009380988054
2660000000.0 -0.4807775521869227 -0.37773604418599144
2680000000.0 -0.006668584659837299 0.5672492955477673
2700000000.0 0.26155719930897675 -0.45373620427124167
2720000000.0 -0.2873057381077403 0.3807727046751425
2740000000.0 0.2300169235231471 -0.36647169972090854
2760000000.0 -0.06371979480609959 0.3855998492482336
2780000000.0 -0.22056460301551728 -0.2790742648555031
2800000000.0 0.3204265610662319 0.050745621073005315
2820000000.0 -0.2738688143047366 0.1270084513061214
2840000000.0 0.2623044237134044 -0.12057313194650408
2860000000.0 -0.24901565840065806 0.13689404280945275
2880000000.0 0.25857615855929794 -0.11902319714622502
2900000000.0 -0.2853722809151397 -0.0521087580595957
2920000000.0 0.135252771598643 0.2703965573499426
2940000000.0 0.10372313423232815 -0.29535682296346927
2960000000.0 -0.304974121896181 -0.0964565261829788
2980000000.0 -0.3094393659053233 0.10349581511230298
3000000000.0 -0.2928098648282648 0.15023047852530783
3020000000.0 -0.3118527994700308 -0.09886674706445728
3040000000.0 0.0709260210836459 -0.31304895335864413
3060000000.0 0.12498946757584668 0.28845109858357276
3080000000.0 -0.14054967146059635 -0.2701361317154373
3100000000.0 0.024234867127352625 0.2945128940867186
3120000000.0 0.09543275013350627 -0.2683737947728449
3140000000.0 -0.22076766910676146 0.16326499722499713
3160000000.0 0.2573413817568265 -0.05281407831135573
3180000000.0 0.0020384764360123794 -0.24947039619835581
3200000000.0 0.19518091431541698 0.12575891885074605
3220000000.0 -0.06740629611329986 0.19731519648169737
3240000000.0 -0.16410744038797292 0.08044583261681622
3260000000.0 -0.1463552395586207 -0.03434888100226431
3280000000.0 -0.10896115488692976 0.037843896556222306
3300000000.0 -0.06589931730078225 0.0471035375553443
3320000000.0 0.046353947339914936 -0.0044132546046828655
3340000000.0 -0.0017973942700620406 -0.01691884664835226
3360000000.0 0.009307493141199882 -0.0025915766348645957
3380000000.0 0.021824956469534133 0.007739507947215663
3400000000.0 -0.014137262129368403 -0.028217733944119368
3420000000.0 0.006761564339797485 -0.03557988382617216
3440000000.0 -0.0017851638816358721 0.03793316755198847
3460000000.0 0.020915630251968333 0.03900103010384444
3480000000.0 -0.035858847049959806 0.04886364125749005
3500000000.0 -0.0469993268499568 0.06785230086951875
3520000000.0 -0.05267566571673243 0.09266640619794389
3540000000.0 0.03547024906269965 0.11804042741878311
3560000000.0 0.08509188645946442 0.10439939255915358
3580000000.0 -0.09170637456935274 0.11156807457605593
3600000000.0 -0.12802576417182437 -0.09035819411365718
3620000000.0 0.10454534246314136 -0.12558880270158973
3640000000.0 0.03263749992465777 0.16699866451616813
3660000000.0 -0.1689184306598493 -0.062212901711697334
3680000000.0 0.14803572259764614 -0.11288694876453613
3700000000.0 0.1734949416924844 0.07717351639085161
3720000000.0 0.02737695970937008 0.19176699170312259
3740000000.0 0.05939194898541783 0.18360842991145382
3760000000.0 -0.16756347071610722 0.08547461836300708
3780000000.0 -0.03975356630373602 -0.1733252586075361
3800000000.0 0.0782972722336347 0.14468964857611946
3820000000.0 0.12153894043491888 0.09120857287863059
3840000000.0 -0.10695610355811662 0.09087194571798987
3860000000.0 0.13559562643127251 0.026142130767531465
3880000000.0 -0.14396482792817333 0.026754364432022698
3900000000.0 -0.10283531002321425 0.11679964409417912
3920000000.0 0.16374000397488547 -0.03240985357410185
3940000000.0 0.06396918630103537 0.1649116893208029
3960000000.0 0.17987095549705887 0.03722869944747119
3980000000.0 -0.15994158499379166 -0.087443690653272
4000000000.0 -0.13592996583135936 0.10518062143032311
