! Created with skrf (http://scikit-rf.org).
# Hz S RI R 50.0 
!freq ReS11 ImS11
400000000.0 0.1472139103740911 0.8599434437716074
420000000.0 0.5976221200529435 0.6199410581561956
440000000.0 0.78895036296819 -0.24934058369736103
460000000.0 0.16460802729163115 -0.7721249006455496
480000000.0 0.5536166373572647 -0.44044259938921543
500000000.0 0.2817317680462279 -0.4886948638955604
520000000.0 0.20429818067061525 -0.44065259127603645
540000000.0 0.4266117044697327 0.009546025912392442
560000000.0 -0.31205309082073357 -0.16258869811056834
580000000.0 -0.2810222070252421 0.18059966485756448
600000000.0 0.2911046893376645 0.15238126095357662
620000000.0 -0.10892519561740403 -0.33236723932015944
640000000.0 -0.304106074409206 -0.23164411633847762
660000000.0 -0.392311801841596 0.07459770767803031
680000000.0 0.11092520210115768 -0.4135561944479143
700000000.0 0.04473853938752102 0.44614107299062944
720000000.0 0.20629871757238885 -0.4040086307573133
740000000.0 0.3935012999166949 -0.20697897963043463
760000000.0 -0.4138906403067988 0.061812633982944655
780000000.0 0.1341790257764461 -0.3575081130346199
800000000.0 0.0030038883248138617 0.34866564660756855
820000000.0 0.06410001405171442 0.28425281581872613
840000000.0 0.22178040165835908 -0.07405751052054786
860000000.0 0.038722099227358156 0.19408128332308297
880000000.0 -0.13032166116786525 -0.04378734887031271
900000000.0 -0.057940855119399066 0.0446678835876666
920000000.0 -0.04128564473549632 -0.005163305856188661
940000000.0 -0.02198303417739352 0.02665449711954757
960000000.0 -0.04695803398427574 0.006147151784860323
980000000.0 0.03966358367245239 -0.034275485345098736
1000000000.0 0.05036452206569536 0.030851371952488733
1020000000.0 0.07122264277201405 0.01569864574322477
1040000000.0 -0.030313145619524962 0.0758858737382921
1060000000.0 0.10716046266501547 -0.05599657196113074
1080000000.0 -0.09467421437328323 -0.10070318556334679
1100000000.0 -0.03730374287622963 -0.1608057472211901
1120000000.0 -0.19264767025646462 -0.036331397431103925
1140000000.0 0.20681950129683957 0.12451702336327215
1160000000.0 0.2380882421469151 -0.15960445855292243
1180000000.0 -0.12183436651248325 -0.3079012850056666
1200000000.0 -0.32194059407101555 -0.17959943131665546
1220000000.0 0.03954279364043041 -0.3954691450781134
1240000000.0 0.40339708948887637 0.11202176002526257
1260000000.0 -0.4397607511426325 -0.0023752019388671355
1280000000.0 0.44611506029558284 -0.04461813488162928
1300000000.0 -0.41191073934368777 -0.1746782247659952
1320000000.0 -0.13727716621117594 0.41187956268486486
1340000000.0 -0.35891594762362383 0.21644156231258221
1360000000.0 -0.14168915786471065 -0.3825370730973644
1380000000.0 0.20265508144322916 -0.35382509619028174
1400000000.0 0.13768679628138625 -0.37218315574371325
1420000000.0 0.08568327761003303 -0.3774756912469892
1440000000.0 -0.16207751961060957 -0.3356148640873385
1460000000.0 -0.3528162509839713 0.028193354267092647
1480000000.0 0.13489327532787487 0.30573339608856154
1500000000.0 -0.10080255291058403 -0.2923038866462399
1520000000.0 -0.17935122734111597 0.2201939564669883
1540000000.0 -0.1857485886782381 0.17366828780640958
1560000000.0 0.06565744294237486 0.20580172669065935
1580000000.0 0.1557004521066437 0.09182418198090128
1600000000.0 -0.13028991765608486 0.06858215526822853
1620000000.0 0.02401607549658581 -0.10257191811302147
1640000000.0 -0.07414365097449233 0.024579998742433298
1660000000.0 -0.04063190456575405 0.034409996417670084
1680000000.0 -0.022747176765457316 0.008661522899105784
1700000000.0 -0.012587039821839657 -0.00490726697417261
1720000000.0 -0.011258695590923394 -0.02919163360929087
1740000000.0 0.047880120978068465 -0.02334657949262614
1760000000.0 0.018928856900615954 -0.0659732488944456
1780000000.0 -0.009977351954443414 -0.08722833756608375
1800000000.0 0.1134412991131585 0.008716414041466872
1820000000.0 0.06967257566771919 -0.10572485614372817
1840000000.0 0.13275827639407867 0.07105661025626876
1860000000.0 -0.0351853037116027 0.1696259186548668
1880000000.0 -0.10977068800269159 -0.1769779584442289
1900000000.0 0.09208816569486188 -0.232871306073614
1920000000.0 -0.2885218904772766 -0.0675722286804426
1940000000.0 0.02046594074962514 0.3423568917294165
1960000000.0 0.10693104714270366 -0.36852808578253576
1980000000.0 -0.05647953308011366 0.40867813035960054
2000000000.0 0.30386446014412793 -0.31365976771310305
2020000000.0 -0.37978487872140915 0.2459602755784546
2040000000.0 0.43099293404556427 0.14656488667922132
2060000000.0 -0.17151977010446154 -0.4175464536065333
2080000000.0 -0.4073554674226017 0.15927022742964986
2100000000.0 -0.21113066344309558 0.3634628756920881
2120000000.0 -0.26630134389866367 0.2988391572069563
2140000000.0 -0.37360149040389173 0.0806598425051827
2160000000.0 0.27299965618466215 -0.2443741368263766
2180000000.0 0.34800228472912553 0.0712266161220854
2200000000.0 0.20390770408721712 0.28273429529536087
2220000000.0 0.3186453412048739 0.1504164407672247
2240000000.0 0.022102704639696363 -0.35186690555233663
2260000000.0 -0.3558680589387471 -0.013138635114338082
2280000000.0 0.16072572263613882 0.3214114948481986
2300000000.0 0.2600489556193446 -0.2635943576443386
2320000000.0 -0.3745917483415833 -0.10064031344815444
2340000000.0 -0.13835707943272174 0.39028806217549217
2360000000.0 0.44952937635220047 0.009314030265087127
2380000000.0 -0.31959226073981306 -0.3799931536891255
2400000000.0 0.17004983919742553 0.521520889982838
2420000000.0 -0.29707866953600776 -0.5244596205674584
2440000000.0 0.5686873143479102 0.324930940454132
2460000000.0 -0.6851976894252814 0.13113524745234822
2480000000.0 0.564027147094637 -0.4652794714036028
2500000000.0 -0.5230240225093605 0.542161885089379
2520000000.0 0.6246751877474818 -0.44205970291829605
2540000000.0 -0.7362014660875174 0.21616252904661443
2560000000.0 0.6681322869949511 0.36668344818779375
2580000000.0 -0.15679818246247004 -0.7309891840842392
2600000000.0 -0.5092088580664715 0.5130380578628173
2620000000.0 0.6908431507285844 0.04361788783129494
2640000000.0 0.626946587680344 -0.1895592398432095
2660000000.0 -0.46514828374954104 -0.396969767507644
2680000000.0 -0.015696404812069173 0.5673672086099067
2700000000.0 0.2619064805713505 -0.45326073949638024
2720000000.0 -0.27766064569307897 0.38760174722785956
2740000000.0 0.21430864732369814 -0.37543942960906124
2760000000.0 -0.04419825973299916 0.3877676578705291
2780000000.0 -0.22928673501558505 -0.27165294391715317
2800000000.0 0.3234360373939694 0.02443868542827838
2820000000.0 -0.25966316916631965 0.15335571833198444
2840000000.0 0.2490022921850081 -0.14498274454228183
2860000000.0 -0.23329853478202275 0.16247508184191814
2880000000.0 0.2577684372756827 -0.1226325196548232
2900000000.0 -0.2864903998112229 -0.049877289592375106
2920000000.0 0.09693400582749608 0.28716808212576217
2940000000.0 0.12461371420994626 -0.28775942966369095
2960000000.0 -0.2920312505481005 -0.1321185750245426
2980000000.0 -0.312012210651963 0.09697907007142723
3000000000.0 -0.3136500100834677 0.09856524758867842
3020000000.0 -0.31495380279393026 -0.08716425377561032
3040000000.0 0.043309545820259206 -0.3178669603652245
3060000000.0 0.10218551297540433 0.2965336122690155
3080000000.0 -0.11013521493879226 -0.28300777814996075
3100000000.0 0.03809238330305847 0.2926060164825544
3120000000.0 0.11410567872529317 -0.26051724177657715
3140000000.0 -0.209315319455423 0.17684830864605885
3160000000.0 0.2596704321342227 -0.035666863721302
3180000000.0 -0.005467445186469035 -0.24949953626788635
3200000000.0 0.20191472732192348 0.11431696191969451
3220000000.0 -0.046280194413753896 0.20361656987736323
3240000000.0 -0.15721374814849395 0.09259111090779328
3260000000.0 -0.14952967415247084 -0.018942893123284302
3280000000.0 -0.10907931361966322 0.03822433292280499
3300000000.0 -0.04820788419956705 0.06544296274396143
3320000000.0 0.046018553126928353 -0.006783806637676682
3340000000.0 -0.00755239290957778 -0.015258058205596612
3360000000.0 -0.0025474542659955704 0.00908168812330362
3380000000.0 0.00812085497843076 0.02130968937632679
3400000000.0 -0.031059337483964878 0.006273702183445697
3420000000.0 -0.012174005167558245 -0.03343719989232845
3440000000.0 -0.006080717690824036 0.03764102295288346
3460000000.0 0.00737381452644496 0.04395107255726954
3480000000.0 -0.01322724567514947 0.05933176498763862
3500000000.0 -0.02625261891822027 0.07820578066357048
3520000000.0 -0.06071298193845894 0.08780095249618458
3540000000.0 0.05578802369843904 0.11065371772864697
3560000000.0 0.10442327432553118 0.08555269672280061
3580000000.0 -0.06411841936697421 0.129813474070953
3600000000.0 -0.10893839588732661 -0.11194947071546672
3620000000.0 0.10943216978645465 -0.12208403543524197
3640000000.0 0.04453390010475386 0.16482667057329356
3660000000.0 -0.1637846095206847 -0.07462187827552906
3680000000.0 0.15888697628265486 -0.09712404746214297
3700000000.0 0.15838408508124066 0.10503255210555165
3720000000.0 0.01723004043322471 0.19335753632275982
3740000000.0 0.057229947430803084 0.1841495299707756
3760000000.0 -0.16938567019873388 0.08149878569424159
3780000000.0 -0.014693753112986449 -0.17702204993614415
3800000000.0 0.04629038113081429 0.15768725453921073
3820000000.0 0.08886307140265634 0.12331531160627891
3840000000.0 -0.11416020194168133 0.0815148010466554
3860000000.0 0.12139171111959696 0.06556344375019807
3880000000.0 -0.14591582389810498 0.007669767062156734
3900000000.0 -0.10966684567647045 0.11058499397943759
3920000000.0 0.1629660538119978 -0.03575233210002119
3940000000.0 0.05451381794306721 0.1686618186820855
3960000000.0 0.18239642304124312 0.019923955791327976
3980000000.0 -0.16807256227361525 -0.06968148714822035
4000000000.0 -0.12128421638643654 0.1210276449941395
