! Created with skrf (http://scikit-rf.org).
# Hz S RI R 50.0 
!freq ReS11 ImS11
400000000.0 -0.5518122470308475 0.6549416713158686
420000000.0 0.026405423930067277 0.8654804580516834
440000000.0 0.8378906298739597 -0.024713097907026867
460000000.0 0.011097245978807882 -0.801269626731587
480000000.0 0.28867541801030244 -0.6707584386775682
500000000.0 -0.19402869070824885 0.5384935579793186
520000000.0 -0.4035600685134496 0.24785321664758742
540000000.0 0.4091908349790179 -0.06790193092351093
560000000.0 -0.3481379095163877 -0.03943941111078058
580000000.0 0.32222521557348405 -0.059249308535569645
600000000.0 -0.23947449028771606 -0.21223060844592928
620000000.0 0.07521829329205491 0.3243878550216118
640000000.0 -0.2672486520485029 0.23382191453709578
660000000.0 -0.34313006991312567 0.15576302200995673
680000000.0 0.03169527059643045 -0.4064270636459543
700000000.0 -0.42989694708071985 0.002753012954506749
720000000.0 -0.0876465792519194 0.43297088928705185
740000000.0 -0.38957187265855125 0.21500820684522068
760000000.0 0.3820285292243807 -0.19521199271387152
780000000.0 0.3373874124314351 0.21501532811983126
800000000.0 -0.27355680713557207 0.2471244877905144
820000000.0 0.07015244582955855 0.30397437151205703
840000000.0 -0.2336523272255971 -0.09403664840996376
860000000.0 0.07353513433552283 -0.18763631262235408
880000000.0 -0.15325455395471935 -0.0005773396485358374
900000000.0 -0.008471636899666705 -0.07779595700243452
920000000.0 0.04576501391561288 -0.0015549649082601778
940000000.0 -0.00883917624131354 -0.04249984796271443
960000000.0 -0.04610285320062729 0.025493657786456174
980000000.0 0.010319555343467093 0.06353750927484636
1000000000.0 0.05515297963225435 -0.0366759262288717
1020000000.0 -0.07283631719049247 0.03002435977077747
1040000000.0 0.009307753174350675 -0.0846754156536606
1060000000.0 -0.07888999788739531 -0.09824725248389736
1080000000.0 0.11929815836650826 0.0781152927111355
1100000000.0 0.16806364079916347 -0.003526109402314709
1120000000.0 0.09543706166090615 -0.16496367426483827
1140000000.0 -0.06783117822340924 -0.21987009286753734
1160000000.0 -0.19942952211471296 -0.18812657751113118
1180000000.0 -0.2771572860282875 -0.1508101064861534
1200000000.0 -0.24017816550796509 -0.25824165066357774
1220000000.0 0.34465006176250945 -0.17586962486841146
1240000000.0 0.031778036420975514 0.41452757547462676
1260000000.0 -0.23968511024835476 -0.3687646009299858
1280000000.0 0.3186408754240879 0.3213060799149597
1300000000.0 -0.15251679877738233 -0.4296178802271704
1320000000.0 -0.35401086650118596 0.2711146886722799
1340000000.0 -0.3950991267799897 0.17909660961642307
1360000000.0 -0.33104258768277295 -0.266089024421827
1380000000.0 -0.37914248942385653 -0.1900674523764952
1400000000.0 -0.20725227343806857 0.3504270990947495
1420000000.0 -0.07771972338644077 0.3776703877196345
1440000000.0 0.055509918841278365 0.3554886012022655
1460000000.0 -0.026374953084559897 0.33256191549472586
1480000000.0 -0.0049582249200141445 0.31170909817573705
1500000000.0 0.15665385526826026 0.24603637364531009
1520000000.0 -0.16326686943927018 -0.21735233713882043
1540000000.0 0.14993793671582473 0.1999376645191509
1560000000.0 0.2014247278067904 0.09036008028926415
1580000000.0 0.13842647562071683 -0.13341946987406683
1600000000.0 0.12284159213075925 0.0989203288775695
1620000000.0 -0.10084812696389339 0.06514573712528014
1640000000.0 0.09164281149583409 0.017154621692870374
1660000000.0 0.06842215913499815 0.008860807941799623
1680000000.0 -0.04143051126099581 -0.008099043315023776
1700000000.0 0.0020068742174946083 0.022861344825263582
1720000000.0 -0.02344821212324381 -0.0009626124886470731
1740000000.0 0.026761468743809105 -0.03402879968060669
1760000000.0 -0.03530071498270377 -0.056868146215458604
1780000000.0 0.09443170599137586 0.015156472563674615
1800000000.0 -0.06173123131977397 -0.11225236538175068
1820000000.0 0.07571937307186762 -0.13457707249067424
1840000000.0 0.0923062579345046 0.1578841458630939
1860000000.0 -0.016709279486836925 -0.2050666049165004
1880000000.0 -0.16749845236557814 -0.15783193403385953
1900000000.0 -0.2311031892715147 -0.11468183750358629
1920000000.0 -0.24725951662819007 -0.14814373598164718
1940000000.0 -0.19521821174328138 -0.2533925561484979
1960000000.0 -0.2662681472961367 -0.2359941879364911
1980000000.0 -0.26532120983048035 0.28183239875706106
2000000000.0 0.18906699670382948 0.3711735174532029
2020000000.0 0.27980717651605375 -0.3402077738578692
2040000000.0 -0.4560316372263294 -0.02768026024151582
2060000000.0 0.406144501012199 0.21977933221606014
2080000000.0 -0.1790326755006657 -0.4219084208660992
2100000000.0 -0.34086135873504403 0.2893198090895946
2120000000.0 0.30248616619140106 0.3007338487377792
2140000000.0 -0.1015811657669943 0.3909869605504424
2160000000.0 0.0898335939334507 0.37054777776751907
2180000000.0 -0.12481496623119086 0.3356066945315239
2200000000.0 -0.3268474252554261 0.1057421208986727
2220000000.0 -0.099221455648033 -0.31894698109536296
2240000000.0 0.01569537245622723 -0.34071773215796103
2260000000.0 -0.15951628041638477 -0.3132638081398188
2280000000.0 -0.3539421319257225 0.09273141036741665
2300000000.0 0.3823786956211333 0.04140332529968627
2320000000.0 -0.34406595971796006 -0.22306303066047586
2340000000.0 0.26776152530537506 0.34670505424194886
2360000000.0 -0.2031956259445753 -0.42928860283592385
2380000000.0 0.18349339108702256 0.4820957126762401
2400000000.0 -0.20615206347906265 -0.5239700177083688
2420000000.0 0.44300172278393785 0.42017383613347037
2440000000.0 -0.6411129670973956 -0.13515265093917617
2460000000.0 0.6581420921602953 -0.21398664351367574
2480000000.0 -0.5457536881368859 0.46889379782172885
2500000000.0 0.5850257020792673 -0.44949800759103614
2520000000.0 -0.7034421191850302 0.24973148005327808
2540000000.0 0.7288323933293898 0.16236799045690886
2560000000.0 -0.40983613234681543 -0.615784897644659
2580000000.0 -0.3560314148876345 0.6301035910397287
2600000000.0 0.6925851686873824 -0.08545406590173385
2620000000.0 -0.40334235617088426 -0.5290321403750418
2640000000.0 -0.45524895936133936 -0.4312568054371207
2660000000.0 -0.3014771468342112 0.49830194973624714
2680000000.0 0.4691130289116502 0.2634710991464859
2700000000.0 0.1887556353123459 -0.45962579934330683
2720000000.0 -0.4390298594203629 0.12131557415239375
2740000000.0 0.3544709894667667 0.22147862721061903
2760000000.0 -0.3408411800012962 -0.17825940130267073
2780000000.0 0.3076897972252488 -0.17935738080549724
2800000000.0 0.1733831311761654 0.2814512436223742
2820000000.0 -0.18633988995063747 0.24600887616963527
2840000000.0 -0.19306622705873738 -0.21560907930567952
2860000000.0 0.27499572656412236 0.0460386501149144
2880000000.0 -0.27224245168190886 -0.0021878950847553052
2900000000.0 0.1895109202939384 0.1911114132208622
2920000000.0 0.27194860454891623 0.03905743753045018
2940000000.0 0.18382840594130925 -0.21637487040763156
2960000000.0 0.19558178640335994 -0.21620063111923704
2980000000.0 0.17803975019799367 -0.24691956621027908
3000000000.0 0.21270954136899353 -0.2318753591140605
3020000000.0 0.2675843350186473 -0.1759947890897107
3040000000.0 0.315429215692212 -0.0520983337861791
3060000000.0 0.11414105171968218 0.29398924163849904
3080000000.0 -0.30717386081750453 0.018480920683324995
3100000000.0 0.12999331872278516 -0.2675837958009655
3120000000.0 0.06413230364039228 0.27606756568085344
3140000000.0 -0.05542073206353311 -0.26287832066872213
3160000000.0 -0.23492412319606887 -0.08473093951241278
3180000000.0 0.14534948476715887 0.18031732832171377
3200000000.0 0.030586391643326275 -0.20812090918785958
3220000000.0 -0.1306779676385822 0.13564404978455524
3240000000.0 0.1612245102412989 0.047632861978080344
3260000000.0 -0.113959338070462 -0.09362207159960138
3280000000.0 -0.01656187888146332 -0.1237877023512105
3300000000.0 -0.07708609444879988 -0.06172225905624409
3320000000.0 -0.013182377061977871 -0.06861138681158553
3340000000.0 -0.004196685391832252 0.04076778587004466
3360000000.0 0.020677876872697388 -0.008758360221002442
3380000000.0 0.02883717168454878 -0.0013971162966446603
3400000000.0 0.03830951345147683 -0.017541494117594092
3420000000.0 -0.04253581354931217 0.03187608926166695
3440000000.0 0.012553763870581386 -0.051350273744065145
3460000000.0 0.03955554714336517 -0.024643540606417838
3480000000.0 -0.021182695337908532 0.038662953073688784
3500000000.0 0.02575486732254712 -0.0506813347968542
3520000000.0 -0.07409462144096761 0.037204257771357885
3540000000.0 -0.10892443470604757 0.007266964906208606
3560000000.0 -0.10757771614604379 0.07452166715953541
3580000000.0 -0.06830924852111589 0.13308454810284967
3600000000.0 0.16759002587523839 0.01140676032127833
3620000000.0 -0.052284112623961515 -0.16649856307720032
3640000000.0 -0.029992392839849332 -0.17703521255016197
3660000000.0 -0.004126874271024152 -0.18133109097298702
3680000000.0 0.16484361624067956 0.06841325375066247
3700000000.0 -0.1741453700713518 -0.01264599613319563
3720000000.0 0.11635540639696254 0.128600015037707
3740000000.0 -0.1304647910940735 -0.11498603799188872
3760000000.0 -0.08484410929349025 0.1548121430904176
3780000000.0 -0.014558942189316977 -0.1756490933707419
3800000000.0 0.1167995328378948 0.13004322419320521
3820000000.0 -0.15650010449892537 0.06403051267574131
3840000000.0 0.15253309762552913 0.03541653172834683
3860000000.0 0.14463525455352028 0.015808662741635435
3880000000.0 -0.08348661122654231 0.11217740844912241
3900000000.0 0.03273398831895184 -0.13362920767220568
3920000000.0 0.0619659289035544 0.13233269396921266
3940000000.0 0.1534040638514765 -0.04861981470497388
3960000000.0 0.12597808068581973 0.12464067933686178
3980000000.0 -0.06483980484689708 -0.17573398336948526
4000000000.0 0.09457571746405805 0.15932765280493177
