! Created with skrf (http://scikit-rf.org).
# Hz S RI R 50.0 
!freq ReS11 ImS11
400000000.0 0.14275658607885772 0.8615425816920398
420000000.0 0.6001876021143224 0.6176260873485119
440000000.0 0.7891413710556108 -0.24883317523826934
460000000.0 0.17080270334299327 -0.770371774310324
480000000.0 0.5540206482526285 -0.44013713731240056
500000000.0 0.2588238164146986 -0.5010817204243373
520000000.0 0.1954539467778048 -0.44431790866492904
540000000.0 0.4257011437107495 0.030244995763860704
560000000.0 -0.31177286171641644 -0.16399231694511915
580000000.0 -0.2699376495783556 0.196126062734336
600000000.0 0.2829638474626118 0.16796483778584642
620000000.0 -0.12498663420103621 -0.32709385044470163
640000000.0 -0.3091308475834405 -0.2246171477619574
660000000.0 -0.3928056231733181 0.07011401829934898
680000000.0 0.11469073309403398 -0.41269739633834424
700000000.0 0.06872210191013588 0.44326835105891865
720000000.0 0.18668473698593951 -0.4132638067017667
740000000.0 0.391621125916573 -0.21013648135211413
760000000.0 -0.41662179852360237 0.042044480785708244
780000000.0 0.1089198862574035 -0.36645460049885437
800000000.0 0.000595777434555511 0.34837645438367343
820000000.0 0.057299602969495614 0.28587729380012417
840000000.0 0.2194255728763758 -0.08048217092181735
860000000.0 0.039797591487260225 0.1938352316194719
880000000.0 -0.1295684745549898 -0.04632841903122701
900000000.0 -0.06264261840910539 0.037981751464614646
920000000.0 -0.0415290310424245 0.00414415561793654
940000000.0 -0.005999456143094332 0.0343543852381992
960000000.0 -0.04555095083922848 0.01341304894675882
980000000.0 0.04482886928069215 -0.027648519475007956
1000000000.0 0.03874075689294999 0.04490787761942825
1020000000.0 0.07098404450146317 0.01750900765107565
1040000000.0 -0.021113627171334942 0.0789026221416841
1060000000.0 0.1102710029583585 -0.04928924108036478
1080000000.0 -0.09064419787662398 -0.10432636084143249
1100000000.0 -0.05321769575502269 -0.15626824127728542
1120000000.0 -0.19329780303988628 -0.03132787542583943
1140000000.0 0.209286615556565 0.12013177085494345
1160000000.0 0.2407557466749309 -0.15530616684417864
1180000000.0 -0.1314370147796654 -0.30401934187586216
1200000000.0 -0.3225898012517745 -0.17834857902187648
1220000000.0 0.010460392560526947 -0.3974038256951648
1240000000.0 0.400019484022631 0.12417856252942168
1260000000.0 -0.4398140458658246 -0.007616584702225038
1280000000.0 0.44433434471795596 -0.060264522088122274
1300000000.0 -0.40669926737768725 -0.18658331132615452
1320000000.0 -0.14435502813624945 0.40959953888765377
1340000000.0 -0.35624932721323166 0.22070065024371743
1360000000.0 -0.1375921211622431 -0.38388620342982543
1380000000.0 0.20621160449626647 -0.3517707840197173
1400000000.0 0.13616920793671947 -0.372799556873389
1420000000.0 0.0991634772454224 -0.37422748405834855
1440000000.0 -0.1743720147914344 -0.3291943779152445
1460000000.0 -0.3529863223775573 0.024322407204798786
1480000000.0 0.13031531020832074 0.3079480235744053
1500000000.0 -0.10391133302671786 -0.2913946790963311
1520000000.0 -0.15988786787608797 0.2343815011713559
1540000000.0 -0.2089262941492482 0.14545340541601093
1560000000.0 0.08087973590154614 0.200692739648057
1580000000.0 0.16949347896199063 0.06397947649996548
1600000000.0 -0.13904995620212487 0.048603569999892994
1620000000.0 0.021801523165369267 -0.10331530984733532
1640000000.0 -0.07816621697211379 0.002540903334090309
1660000000.0 -0.04501632462057862 0.028064928713883126
1680000000.0 -0.021631042553272323 0.009126687947939966
1700000000.0 0.008695811129389134 -0.010534983986761259
1720000000.0 -0.013066572311206032 -0.02872788752767264
1740000000.0 0.05316495447114405 -0.004724649557725289
1760000000.0 0.03927371144903123 -0.05659618397176465
1780000000.0 0.008960974960754996 -0.08742319509020356
1800000000.0 0.11289220956123348 0.014568848187935707
1820000000.0 0.06993224752630939 -0.10523815394440239
1840000000.0 0.12954747768997232 0.07601416072429824
1860000000.0 -0.03684564697693177 0.1690539973543089
1880000000.0 -0.1150377592265947 -0.1733694210916843
1900000000.0 0.08917838241105197 -0.23375007804762132
1920000000.0 -0.288790972207905 -0.06559629210224133
1940000000.0 0.028867265264424225 0.3416588176768479
1960000000.0 0.0889767060281353 -0.3732461293710197
1980000000.0 -0.04001697431664339 0.41062144301970116
2000000000.0 0.2958739421240092 -0.32133145034154564
2020000000.0 -0.376654789740729 0.25095266262516897
2040000000.0 0.43230481219440936 0.14312015002993853
2060000000.0 -0.14622849508146363 -0.42749140064807484
2080000000.0 -0.3976928680206482 0.18247105631933996
2100000000.0 -0.2115488361808627 0.3634261665031419
2120000000.0 -0.2828665129084376 0.2834743740299433
2140000000.0 -0.3789897569157488 0.051795726252653565
2160000000.0 0.29100971370174267 -0.22293992799707468
2180000000.0 0.34087657604302485 0.10058656787601647
2200000000.0 0.1933501587511067 0.29015833974301747
2220000000.0 0.3116574866312232 0.16429360512471794
2240000000.0 0.031048306345685978 -0.3509421803205981
2260000000.0 -0.35453223976614673 -0.02938561641458391
2280000000.0 0.12496623288136566 0.3361640399860672
2300000000.0 0.277290972032333 -0.244270214366175
2320000000.0 -0.37635099476548145 -0.09290704932131795
2340000000.0 -0.13379221296334323 0.3914885173880359
2360000000.0 0.44951750113615085 0.005456162306006038
2380000000.0 -0.33237342631060507 -0.36893302181123255
2400000000.0 0.17420423018696152 0.5199776987915525
2420000000.0 -0.30681090529272553 -0.518921165788431
2440000000.0 0.5847713380127879 0.29558407869323977
2460000000.0 -0.6841121209497146 0.1373348076660737
2480000000.0 0.5429113552205675 -0.4895432668228531
2500000000.0 -0.5854598090639599 0.4751033591365955
2520000000.0 0.6552089001522478 -0.39531290523171575
2540000000.0 -0.7547000236344111 0.1401160282770633
2560000000.0 0.6717480867446914 0.3598325493371627
2580000000.0 -0.08691205057011239 -0.7427169700045876
2600000000.0 -0.5292195860849253 0.4919342711832434
2620000000.0 0.6868094425396234 0.08465942703923421
2640000000.0 0.6302301948640043 -0.17709108755827152
2660000000.0 -0.4604127551504551 -0.402223176389871
2680000000.0 0.003188591509244213 0.5675191231139082
2700000000.0 0.26249757132014895 -0.45304788038128047
2720000000.0 -0.2753174710244433 0.3894385461349032
2740000000.0 0.24406527607513487 -0.35679712198819136
2760000000.0 -0.044853733396705904 0.38793351973579593
2780000000.0 -0.23522188568951616 -0.2665427240887723
2800000000.0 0.3225248399236287 0.034055455513325186
2820000000.0 -0.26747234386465496 0.13980663061730497
2840000000.0 0.2469919967314903 -0.14836788459390368
2860000000.0 -0.2283215964077901 0.1690672500651626
2880000000.0 0.2580965889348187 -0.12143049910971372
2900000000.0 -0.285152957745507 -0.05643893430971781
2920000000.0 0.1361258528393374 0.27051518924168927
2940000000.0 0.12440250281026945 -0.28793136005792025
2960000000.0 -0.29001836776284484 -0.1362132004858973
2980000000.0 -0.3082573172913047 0.10808727021877373
3000000000.0 -0.30618113346470627 0.12112036739700023
3020000000.0 -0.32196036612242457 -0.057676612002174756
3040000000.0 0.09194953495883339 -0.30744520646151335
3060000000.0 0.0964879018994725 0.2991419950495236
3080000000.0 -0.13428253680001306 -0.27308039439256354
3100000000.0 0.05147103456711669 0.29066889305690463
3120000000.0 0.13801479908804654 -0.24873588365435473
3140000000.0 -0.22578023961098082 0.15606220625632647
3160000000.0 0.2612850320679366 -0.023366714248386357
3180000000.0 -0.006269189827847281 -0.24935773387674626
3200000000.0 0.18546326927347392 0.13913880459534123
3220000000.0 -0.07053626357164976 0.19625332276443122
3240000000.0 -0.16162765729001888 0.08452401524958898
3260000000.0 -0.14995568134992213 -0.008800090480695995
3280000000.0 -0.10870188963082282 0.03742597691663491
3300000000.0 -0.046810957833099576 0.06593149109915644
3320000000.0 0.03482205605954094 -0.030772908800564405
3340000000.0 -0.009230990017152333 0.014154241301003755
3360000000.0 -0.009727947062954186 -0.0023545143054476045
3380000000.0 -0.008305763934469067 0.021580924647779474
3400000000.0 -0.02742806683469333 -0.01620306122260386
3420000000.0 0.024631698832193995 -0.025928377726934647
3440000000.0 -0.03689479597947546 0.008617920123169224
3460000000.0 0.01667195293238361 0.04173951424784941
3480000000.0 -0.03196749830441071 0.05175728283544637
3500000000.0 -0.043699885393309254 0.07020926460234014
3520000000.0 -0.06567696844119857 0.08442621549842991
3540000000.0 0.032698122574527116 0.11941352726539313
3560000000.0 0.07247794139789077 0.11337964102338953
3580000000.0 -0.08429013019993556 0.11735108876678164
3600000000.0 -0.1028048042653319 -0.11795436776924802
3620000000.0 0.12361113703291378 -0.1074254552536324
3640000000.0 0.024069357524202813 0.16855331027106332
3660000000.0 -0.15911416593259814 -0.0837017793492172
3680000000.0 0.16536058672462794 -0.08525746851578204
3700000000.0 0.152281577095233 0.11296252650929653
3720000000.0 0.02222079811970573 0.19304308116183033
3740000000.0 0.05452962870855948 0.1848159113463487
3760000000.0 -0.17100800460323579 0.07770364489804193
3780000000.0 -0.015254354537222606 -0.17687642222327876
3800000000.0 0.06705848973861253 0.14971960325582448
3820000000.0 0.11662058303746856 0.0971745143151374
3840000000.0 -0.10476775357522615 0.09235202540074187
3860000000.0 0.12495480496335824 0.05781098594845368
3880000000.0 -0.14153076190692576 0.03406398151191426
3900000000.0 -0.11166955748073994 0.10780436263732014
3920000000.0 0.1615789508442377 -0.03941962570195317
3940000000.0 0.072734103669293 0.16110702016635503
3960000000.0 0.18272039700882226 -0.009053632914762865
3980000000.0 -0.17466433364163578 -0.05032717026999983
4000000000.0 -0.10289186437913266 0.13734354440283394
