! Created with skrf (http://scikit-rf.org).
# Hz S RI R 50.0 
!freq ReS11 ImS11
400000000.0 0.1578721811118275 0.8574092150983713
420000000.0 0.643919203975442 0.5668487810176879
440000000.0 0.7599393743513183 -0.3221605024760163
460000000.0 0.134124233450812 -0.7756167620241184
480000000.0 0.49504385462182826 -0.5056826404038045
500000000.0 0.22584963192066237 -0.516168710536689
520000000.0 0.18232352808578817 -0.44988327940335343
540000000.0 0.42159708045051253 0.06774724437391627
560000000.0 -0.30642227986062814 -0.17316629443503656
580000000.0 -0.20352073794318287 0.26545405353199486
600000000.0 0.29945664300340274 0.13532880846865433
620000000.0 -0.16945878868804845 -0.3069599682404805
640000000.0 -0.30097832814119047 -0.23727555625383862
660000000.0 -0.3996769920705887 0.018173180681540734
680000000.0 0.18107477300587338 -0.3889009416798009
700000000.0 0.023752916239083256 0.448940410397684
720000000.0 0.21013883979422118 -0.4004124881190419
740000000.0 0.4319284864854182 -0.09683998816496908
760000000.0 -0.40295874237815205 -0.11541774948751075
780000000.0 0.0923635465084747 -0.37125277199682294
800000000.0 0.08296888747345525 0.3379072335639329
820000000.0 0.14854806477379204 0.24762564711939797
840000000.0 0.23279855904739166 -0.01882481564822211
860000000.0 0.11590838239999365 0.1626062234410681
880000000.0 -0.08502648910516698 0.11027233121938618
900000000.0 0.04010451209559216 0.06212376395506305
920000000.0 -0.03988430558600315 0.013822368801762675
940000000.0 -0.031172285520005914 0.011344665346717518
960000000.0 0.043623908040150684 -0.008618818304261951
980000000.0 0.051355582742993254 0.012531898802475166
1000000000.0 0.03514256714535164 -0.04741533486039643
1020000000.0 0.02356515449583667 -0.06765551596647498
1040000000.0 0.05362844580300667 0.06036208920443811
1060000000.0 0.044633175918788646 -0.11267584402206705
1080000000.0 -0.13899922849003318 -0.003312342698927819
1100000000.0 -0.13963003802016444 -0.08983376066516624
1120000000.0 -0.19588055634911372 0.020085218207460908
1140000000.0 0.21812100094116527 0.10730712985001688
1160000000.0 0.24405935153127847 -0.1531885383155156
1180000000.0 -0.07480753631254565 -0.3240605241108329
1200000000.0 -0.29555055803070496 -0.22240332545024089
1220000000.0 0.08745087325424783 -0.3887355441911342
1240000000.0 0.3746061158762825 0.18833006936244123
1260000000.0 -0.4350687335313609 -0.06511839902454633
1280000000.0 0.4484943809148297 -0.0002481982263799787
1300000000.0 -0.39252091156483015 -0.21494516970900107
1320000000.0 -0.176347036482433 0.3967195007542812
1340000000.0 -0.3675888386770163 0.20149514351452327
1360000000.0 -0.1493023714438653 -0.37946188300766276
1380000000.0 0.19450467297024956 -0.3581196573917004
1400000000.0 0.1186337253895836 -0.37874488320408367
1420000000.0 0.036355622390917976 -0.3850636873362133
1440000000.0 -0.2168269951403185 -0.3023077933175884
1460000000.0 -0.3486589906953561 0.053713154043166615
1480000000.0 0.12182940236792779 0.31071280067052603
1500000000.0 -0.11852967030918515 -0.28565899460089916
1520000000.0 -0.12750380106546413 0.25334757381929013
1540000000.0 -0.1797113362236417 0.1789711722905936
1560000000.0 0.03901293425376374 0.21238117937060158
1580000000.0 0.1581324170709016 0.08874124605605758
1600000000.0 -0.14598391941274194 0.02252976100602174
1620000000.0 0.038510213135218394 -0.09846399522929132
1640000000.0 -0.07792543798839902 -0.008022557425934981
1660000000.0 -0.051954579281182724 0.011404724018626888
1680000000.0 -0.0021574796142250783 -0.023579675847556127
1700000000.0 -0.010519098910068745 0.0077284609717976445
1720000000.0 0.016917576795068077 -0.025386272677436296
1740000000.0 0.04468343633348342 0.027891345080516362
1760000000.0 0.05490172171585146 -0.04133998839299164
1780000000.0 0.008985046721090873 -0.08755920235991449
1800000000.0 0.11207783326719646 0.02081226488146412
1820000000.0 0.07889443559680745 -0.09933535443630842
1840000000.0 0.1247809791667485 0.08615719776300507
1860000000.0 -0.024251643642017102 0.17295032784928246
1880000000.0 -0.14205600846915564 -0.1540606830795353
1900000000.0 0.04690676792538684 -0.2469231944841138
1920000000.0 -0.29568902637295635 -0.028753261662159163
1940000000.0 0.05396564661503901 0.33938546805267333
1960000000.0 0.07536633316393813 -0.3764792227886379
1980000000.0 -0.029551108222059478 0.4112331166974442
2000000000.0 0.30155320405154884 -0.314842498352556
2020000000.0 -0.3921307223953105 0.2233628154917678
2040000000.0 0.4001877821094798 0.21481639386464874
2060000000.0 -0.05729318126712991 -0.44687705035140896
2080000000.0 -0.4186628226133853 0.12380256954807925
2100000000.0 -0.256304366925464 0.33259063345401313
2120000000.0 -0.28450835722859996 0.2810773540283739
2140000000.0 -0.3689750696703186 0.10049655115745451
2160000000.0 0.23303980867720164 -0.2827080273161266
2180000000.0 0.3544272703126164 -0.020266262421037882
2200000000.0 0.284485083577833 0.20008437064194487
2220000000.0 0.34961994750556347 0.02888357514022495
2240000000.0 -0.08805989039756477 -0.3397599458880417
2260000000.0 -0.3485515252973088 0.06639823534686212
2280000000.0 0.18185530460309307 0.308998013263084
2300000000.0 0.2410919338390754 -0.28143807832874007
2320000000.0 -0.3782828225187205 -0.09164801766479586
2340000000.0 -0.1232021192106875 0.39742469121019525
2360000000.0 0.4519183086503543 -0.006583822922607485
2380000000.0 -0.3607358858449696 -0.34451248152438774
2400000000.0 0.20188611029031853 0.511883334108045
2420000000.0 -0.35696397344731706 -0.4870671527493149
2440000000.0 0.6062009609408272 0.24898970957027586
2460000000.0 -0.6759406073603338 0.1716529889033468
2480000000.0 0.5177538793028594 -0.5150314015344841
2500000000.0 -0.495705482856159 0.565759661889482
2520000000.0 0.560075393739394 -0.5185833399030141
2540000000.0 -0.7347877149286783 0.21503362413224061
2560000000.0 0.714936537107212 0.25795651637945827
2580000000.0 -0.18566502738258178 -0.7220835222380093
2600000000.0 -0.4197473249587686 0.5854220355620057
2620000000.0 0.687822718781638 0.052244472082620244
2640000000.0 0.5971139037564632 -0.2627843038132137
2660000000.0 -0.5103233873541977 -0.3325696318470586
2680000000.0 0.026903696649192482 0.5645161615404165
2700000000.0 0.23959212597170826 -0.4631424268169396
2720000000.0 -0.2609959505767734 0.39702323769796055
2740000000.0 0.20823954374181244 -0.3775410060660967
2760000000.0 -0.023102899259194138 0.3889628336974996
2780000000.0 -0.24950242197780148 -0.25239025809875604
2800000000.0 0.32392804893972915 0.0019497688695034
2820000000.0 -0.24284857601817889 0.178778363254563
2840000000.0 0.2218394729844054 -0.18329037681253674
2860000000.0 -0.23007833676567999 0.16640281152187544
2880000000.0 0.24961488386612238 -0.1364356920278361
2900000000.0 -0.2841569387116991 -0.05787759493138773
2920000000.0 0.11240274094797682 0.2801647675173384
2940000000.0 0.11750338931409998 -0.28936082878549957
2960000000.0 -0.2897307554466114 -0.1336592755048546
2980000000.0 -0.3177062047561134 0.07093938697100037
3000000000.0 -0.3132535891668342 0.09752046328637225
3020000000.0 -0.3131959425346918 -0.09067414746930558
3040000000.0 0.14382640625788495 -0.2856722825073871
3060000000.0 0.12209072553761424 0.2883059774390234
3080000000.0 -0.14576933666821743 -0.2656882828194686
3100000000.0 0.0616518993721845 0.2876621390720568
3120000000.0 0.09400740569137109 -0.26799629449551254
3140000000.0 -0.1839123423309981 0.20291697356795768
3160000000.0 0.24856514122333603 -0.08096617166692519
3180000000.0 -0.038669978026557555 -0.2455467570269148
3200000000.0 0.21908586082104645 0.07542611350990695
3220000000.0 -0.007871919543307713 0.207675249919389
3240000000.0 -0.1451590354206383 0.110206419807735
3260000000.0 -0.14664689098122782 -0.03280462535990268
3280000000.0 -0.11462037510760771 0.016305907918298064
3300000000.0 -0.0816976153287327 0.0052968427768636216
3320000000.0 0.022975111506323573 0.041642025811407385
3340000000.0 -0.002412941305715315 0.01788594280829268
3360000000.0 -0.004135449982366776 0.006666506653928994
3380000000.0 0.018585759471392942 -0.010992256980166077
3400000000.0 -0.027059658686185418 -0.014177951844552044
3420000000.0 0.004593350142278306 -0.03516233203185414
3440000000.0 0.03656752012998135 -0.009864867774698765
3460000000.0 0.034205220369166386 -0.02710462743148759
3480000000.0 0.04223953040317307 0.041798616711650756
3500000000.0 0.04855949818881062 0.06487399059431659
3520000000.0 0.002032737059580946 0.10446073681643786
3540000000.0 0.08455055921603455 0.08751032139260122
3560000000.0 0.11626210142034882 0.06661142185515964
3580000000.0 -0.03257460522720314 0.14068195590202479
3600000000.0 -0.14120068927744603 -0.06630307911915999
3620000000.0 0.049771255525199905 -0.15605513588655578
3640000000.0 0.1141798736683557 0.12709879604072613
3660000000.0 -0.17904070711279074 0.017923758121248867
3680000000.0 0.08042383166616271 -0.1679204859502128
3700000000.0 0.18939971235458664 -0.0035610012751854797
3720000000.0 0.09956364242857997 0.166404309717726
3740000000.0 0.10409513358158376 0.1619928541379405
3760000000.0 -0.15810709669203732 0.10153953675564444
3780000000.0 -0.029649441321600186 -0.17547595522572187
3800000000.0 0.06477744827197966 0.15220437818267107
3820000000.0 0.11239837064337806 0.1039462502614516
3840000000.0 -0.09362440004760852 0.10658713684639079
3860000000.0 0.1391139226959589 -0.014783217753917251
3880000000.0 -0.10072086842195725 0.1069046468977411
3900000000.0 -0.04022545227536489 0.15057756162534575
3920000000.0 0.14547562189233265 -0.08160212784332782
3940000000.0 0.08197001965904585 0.15658774380659563
3960000000.0 0.18074414713242207 0.034149231454736494
3980000000.0 -0.14532353822402208 -0.11127733540168346
4000000000.0 -0.15446293325679047 0.07822075332543488
