! Created with skrf (http://scikit-rf.org).
# Hz S RI R 50.0 
!freq ReS11 ImS11
400000000.0 -0.5160181366213399 0.6845590249772027
420000000.0 -0.009503111571974497 0.8659524325262096
440000000.0 0.8379051645674503 -0.029477703582470063
460000000.0 0.07768094325561307 -0.7978040749601824
480000000.0 0.29655927540009513 -0.6668125683630413
500000000.0 -0.19576698475156817 0.5379302995849073
520000000.0 -0.3998436957172708 0.25442934421898267
540000000.0 0.3775445742392998 -0.1716172604770856
560000000.0 -0.34277088558264196 -0.07538334535170069
580000000.0 0.30982246237623867 -0.10770150727395977
600000000.0 -0.26909919290860107 -0.17296011635855063
620000000.0 0.07081607906959234 0.3242707240043235
640000000.0 -0.26049274538871797 0.24212268526984276
660000000.0 -0.33177518085296837 0.1792241892979268
680000000.0 0.04438311557746366 -0.4047586744983151
700000000.0 -0.4295921153034858 -0.020779387336580038
720000000.0 -0.07390904983353391 0.43564908544564634
740000000.0 -0.37065764071925866 0.2458604501855595
760000000.0 0.3743197423255908 -0.2098316367342616
780000000.0 0.3122649517851598 0.2502107199795831
800000000.0 -0.3085593042488609 0.20236733200974305
820000000.0 0.03813524598853838 0.30973532110690527
840000000.0 -0.23674224427752713 -0.086441954350462
860000000.0 0.07423749313795203 -0.18790300235007498
880000000.0 -0.15422314867389605 -0.002254354687111251
900000000.0 -0.004184201718261206 -0.07872256689165659
920000000.0 0.044303684035256294 0.011638380621803545
940000000.0 -0.0010015643279290701 -0.04383699273005185
960000000.0 -0.050723460550633995 0.014889704229434964
980000000.0 -0.00817277660498569 0.06407355466978573
1000000000.0 0.05946793148953702 -0.03020306411722833
1020000000.0 -0.07790902511287932 0.015332672893090728
1040000000.0 -0.0050434004822557076 -0.08490260070940749
1060000000.0 -0.07589016040630166 -0.10036422761259152
1080000000.0 0.12412699129317424 0.06974135921578045
1100000000.0 0.16241401607880832 -0.043922530827329116
1120000000.0 0.08803752749448794 -0.16904258266509967
1140000000.0 -0.08306824234949887 -0.21462614336045557
1160000000.0 -0.1882538928138308 -0.19908311313925883
1180000000.0 -0.2775056399977367 -0.15008200692289522
1200000000.0 -0.24175282506752993 -0.25694718402140143
1220000000.0 0.351115932181022 -0.16277383629545591
1240000000.0 0.029318627914736595 0.41475534991265994
1260000000.0 -0.2380034520681699 -0.369602371045435
1280000000.0 0.3107426149231649 0.32890943387292204
1300000000.0 -0.13934460388287842 -0.43396763920211673
1320000000.0 -0.3604850031786369 0.26192891455824857
1340000000.0 -0.39994396429657003 0.16811242101136575
1360000000.0 -0.33166066043844783 -0.2656326012688353
1380000000.0 -0.38070509826255877 -0.18677814614088029
1400000000.0 -0.19526720385476432 0.3569929791929216
1420000000.0 -0.05768305880856531 0.38087868921366647
1440000000.0 0.060243300257245995 0.354587854149981
1460000000.0 -0.02883003811056502 0.3320437549422821
1480000000.0 0.032185953707662196 0.30966863326526806
1500000000.0 0.16036831490370992 0.24361505307958822
1520000000.0 -0.15715453200226262 -0.2218900054325709
1540000000.0 0.15973394205622085 0.1924459839294288
1560000000.0 0.19058689391051223 0.11209438096275666
1580000000.0 0.1502193188894661 -0.12038367007162595
1600000000.0 0.1362631225197342 0.07968122642721123
1620000000.0 -0.0950034304721032 0.07336362787307138
1640000000.0 0.0821480063802894 0.0435767614451629
1660000000.0 0.06018896038578859 0.03314179873577381
1680000000.0 -0.039320985269601094 -0.015939308354153043
1700000000.0 0.002027715047468365 0.023059011720920144
1720000000.0 -0.021242798640379337 -0.010149721412566273
1740000000.0 0.006628571921285031 -0.04280740071441407
1760000000.0 -0.012854336363690504 -0.06587045262771928
1780000000.0 0.08819578663405152 0.037012817030259285
1800000000.0 -0.03088969825608401 -0.12414268508436066
1820000000.0 0.08298771214464434 -0.13018667212453403
1840000000.0 0.08768829368909288 0.1602772829942775
1860000000.0 -0.0039925651410400685 -0.20567932932019367
1880000000.0 -0.1728063192453315 -0.1517263779337983
1900000000.0 -0.23833595540719502 -0.09832623794455002
1920000000.0 -0.2589390248440007 -0.12616736945828239
1940000000.0 -0.2065627828346396 -0.24417169875755038
1960000000.0 -0.27459246969484025 -0.2255544326974122
1980000000.0 -0.25293955871575297 0.2926769365607255
2000000000.0 0.18995387089864155 0.37040166003207514
2020000000.0 0.2811351986142183 -0.3389231859486338
2040000000.0 -0.45628451368182765 -0.020999952690485192
2060000000.0 0.4089581712258237 0.21412956360283658
2080000000.0 -0.18532617482344418 -0.4189799742091037
2100000000.0 -0.32903595075797026 0.3024429207935835
2120000000.0 0.2790828190506503 0.3227403254273975
2140000000.0 -0.08244962544471765 0.3955052913628546
2160000000.0 0.09830180841232493 0.36833306457030185
2180000000.0 -0.15404273854082345 0.32300792024182445
2200000000.0 -0.3175176191929068 0.13021562421437816
2220000000.0 -0.09533970379803318 -0.319692985629477
2240000000.0 0.01994774532686027 -0.34014661796394297
2260000000.0 -0.14725308881781632 -0.3184089311867984
2280000000.0 -0.3575135613617575 0.0750816275590267
2300000000.0 0.377131251096718 0.07138861859266672
2320000000.0 -0.33135537530506426 -0.24018756013192175
2340000000.0 0.2848476697822575 0.3324930759659315
2360000000.0 -0.18794302151613573 -0.43563222115585054
2380000000.0 0.16685237472529724 0.48761128248647484
2400000000.0 -0.1916334936686983 -0.5289674597466792
2420000000.0 0.4221386367163337 0.44047470945216755
2440000000.0 -0.6262835144201614 -0.1921181653019359
2460000000.0 0.6655292781530652 -0.18893246652069018
2480000000.0 -0.5809683172716292 0.42415802381158446
2500000000.0 0.6536510788034282 -0.3425880168142142
2520000000.0 -0.7293793967264494 0.15948276803575176
2540000000.0 0.7210504613924344 0.19411722422038136
2560000000.0 -0.33024706722889885 -0.6622722289288145
2580000000.0 -0.3442121086393338 0.63676916330157
2600000000.0 0.698146240932266 -0.00781891017356968
2620000000.0 -0.3809351655591495 -0.5459593634568893
2640000000.0 -0.4465344381525886 -0.44088193539371123
2660000000.0 -0.33484529667346413 0.4770641649907532
2680000000.0 0.43610967705802267 0.31541742132910855
2700000000.0 0.20120415352343463 -0.4547861486611054
2720000000.0 -0.44494899402080157 0.09918218436525411
2740000000.0 0.35252639992166407 0.22531167532126714
2760000000.0 -0.33641972008856963 -0.18752577051557717
2780000000.0 0.31453718947497855 -0.16811631290511805
2800000000.0 0.15843027676486562 0.29056307149129823
2820000000.0 -0.18609342430256445 0.2465150238003864
2840000000.0 -0.19592524816705476 -0.21346002161105418
2860000000.0 0.2717052773547618 0.06474665475737001
2880000000.0 -0.2724235869020815 -0.003581471875604735
2900000000.0 0.17828575359075235 0.20267965244395275
2920000000.0 0.2711374345079987 0.04645959267252756
2940000000.0 0.18646297478784407 -0.21437326427061104
2960000000.0 0.19275844249833518 -0.2186742396210446
2980000000.0 0.1991543850327309 -0.23004876825246443
3000000000.0 0.21613611542766464 -0.22916484901576195
3020000000.0 0.2774379823203159 -0.1607370866006715
3040000000.0 0.32038488638268064 0.007450644655334786
3060000000.0 0.05913503077855732 0.31063819247537805
3080000000.0 -0.3080864159292179 0.011783088718490342
3100000000.0 0.17994563786771897 -0.23694422228177103
3120000000.0 0.044553606902795195 0.28032546634500083
3140000000.0 -0.04617199635672607 -0.2650300771102253
3160000000.0 -0.23964609087718095 -0.07146324626299319
3180000000.0 0.129256770589155 0.19237195945134722
3200000000.0 0.04304819557787502 -0.20598124201059692
3220000000.0 -0.1411937114999803 0.12428541077804349
3240000000.0 0.15916808805353877 0.053021199963412584
3260000000.0 -0.10534512224230326 -0.1026694494390427
3280000000.0 0.007322255142000535 -0.12451082425560195
3300000000.0 -0.08650472805527086 -0.04739825691787352
3320000000.0 -0.04262299227299052 -0.05554395750090267
3340000000.0 0.01970670726745524 0.03578703065970958
3360000000.0 0.012408376150816724 -0.01849492196647846
3380000000.0 -0.005347675949323334 0.028875617187798623
3400000000.0 0.04244752581895387 -0.0034074729752511987
3420000000.0 -0.053553883914509964 0.0018107190092417702
3440000000.0 0.03915187776042238 -0.036145293606994734
3460000000.0 0.047191995589711905 -0.00019588227934345733
3480000000.0 -0.038318599970787605 0.022410073202929898
3500000000.0 0.040203781956605136 -0.040722419269364575
3520000000.0 -0.0658211921848738 -0.049793190717901156
3540000000.0 -0.09458678792621311 -0.053217483105711914
3560000000.0 -0.12637856695825103 0.03366654458896078
3580000000.0 -0.09811056679796412 0.11281716861167752
3600000000.0 0.165820257229706 0.026874869772683354
3620000000.0 -0.029629645533654353 -0.17187338267820446
3640000000.0 -0.007356783270764225 -0.17951718948784542
3660000000.0 0.01285523732570379 -0.1809728734525248
3680000000.0 0.16361541737418248 0.07115843291180196
3700000000.0 -0.17389109111882695 -0.015604733267250488
3720000000.0 0.1188897116969194 0.12637944661822598
3740000000.0 -0.13432563484504417 -0.10974985533572987
3760000000.0 -0.08691486933780608 0.1531974165744065
3780000000.0 -0.007873756253190511 -0.17596224819708323
3800000000.0 0.12726948223348197 0.11930924878696159
3820000000.0 -0.1607943453820834 0.05357349201917911
3840000000.0 0.1553367667838847 0.016603926334183058
3860000000.0 0.1438465987279458 -0.01996898753679717
3880000000.0 -0.055718477527900566 0.12792226086504546
3900000000.0 0.04381404106871068 -0.130547495737557
3920000000.0 0.0814264800803469 0.1210743679033792
3940000000.0 0.1531155416034246 -0.0484597230556174
3960000000.0 0.1253501259538992 0.12420755464545974
3980000000.0 -0.07838808130090778 -0.1697452772071568
4000000000.0 0.10258053512350672 0.15387038406156997
