! Created with skrf (http://scikit-rf.org).
# Hz S RI R 50.0 
!freq ReS11 ImS11
400000000.0 -0.07944093221328319 0.8677209044022893
420000000.0 0.3869511563297777 0.7710161910091496
440000000.0 0.8188253774219915 -0.14102231669352475
460000000.0 0.33332276212577544 -0.7189262324928433
480000000.0 0.6677934721327295 -0.2563784146844503
500000000.0 -0.050349045007410595 -0.570270855825303
520000000.0 -0.172741032954585 -0.4611127208377085
540000000.0 0.316504411288449 -0.29540157738675304
560000000.0 -0.32375951115718105 0.1540211141311388
580000000.0 0.023692890752679132 0.3386169954405441
600000000.0 0.26859993569936985 -0.20495549886769188
620000000.0 -0.3394342936967407 0.11181256548972986
640000000.0 0.11413087275299405 0.37184242522710803
660000000.0 0.40063406710315486 -0.024667530369158395
680000000.0 -0.02244182499415755 0.4196400983077356
700000000.0 0.25208242041180795 -0.3512302134995471
720000000.0 -0.2423463528997342 -0.3516140864965537
740000000.0 0.3937007811014528 0.14424198338412045
760000000.0 0.09043766836208583 -0.3915337209227689
780000000.0 0.0997129206112738 0.35843379124475233
800000000.0 0.1260787145233156 -0.32042740755140486
820000000.0 0.2890046516899581 -0.056603691620329466
840000000.0 -0.003995444941872516 -0.2478851232385972
860000000.0 0.16774255154781664 -0.13373282956554136
880000000.0 -0.06396556310952263 0.14540445186000725
900000000.0 -0.03557538681412495 0.08785582560595001
920000000.0 -0.06331568190014271 0.002813943535803609
940000000.0 -0.011661807044654826 0.046335778729491635
960000000.0 0.006541159516885829 -0.053122104421100505
980000000.0 0.03928190798181987 0.05914082835281008
1000000000.0 0.01962436878149045 -0.07771401129515627
1020000000.0 0.005456280093503619 0.09854989553832603
1040000000.0 0.10303347050154292 0.03963788681802032
1060000000.0 -0.046946251564967095 0.13731776863702624
1080000000.0 -0.14687994296183543 -0.06158495621489774
1100000000.0 -0.14015524970594567 0.11376411621703783
1120000000.0 0.14538350937348563 0.14078733222712367
1140000000.0 0.21034169115795232 -0.10200071978188305
1160000000.0 0.2697584514533346 -0.019084644976487115
1180000000.0 0.2428209329414012 0.1881919519881459
1200000000.0 -0.0660409200236219 0.33348577431355597
1220000000.0 0.05869668211509589 -0.3619405858057907
1240000000.0 -0.1675436139577493 0.35748633973380045
1260000000.0 0.40934261780707465 -0.10533915539207658
1280000000.0 -0.4396953510047869 0.06525689825269071
1300000000.0 0.4301067582429683 0.15274717802196475
1320000000.0 -0.19881128408372478 -0.407649753214571
1340000000.0 -0.37461723598577407 -0.2382946488664472
1360000000.0 -0.33219679979175054 -0.2783244549731121
1380000000.0 -0.3669930062048299 -0.21985475347479977
1400000000.0 -0.39696066159341414 0.1187076385918871
1420000000.0 0.027814785026839532 0.395897804118236
1440000000.0 0.3200473556532992 0.1879755531756614
1460000000.0 0.2119299638277162 -0.27039324346858384
1480000000.0 -0.12052330451246257 -0.2894777435728103
1500000000.0 -0.26969838220992876 -0.0846868508375769
1520000000.0 -0.25451582610955714 -0.024261702607870528
1540000000.0 0.21185174836845994 -0.08507351013611113
1560000000.0 -0.03238823241602463 0.19417307856465935
1580000000.0 -0.15368783376994583 -0.08019528452088731
1600000000.0 -0.08075644576377418 0.12193448305074765
1620000000.0 0.1171113860870311 0.01883148266776356
1640000000.0 0.09116761192351348 -0.02785639473862881
1660000000.0 -0.06726554739239862 0.023057836000061623
1680000000.0 0.040658946880689606 0.024594475095512013
1700000000.0 -0.028087435939701623 0.0016736194234817077
1720000000.0 0.011358579480473242 0.006065367506653991
1740000000.0 -0.020547686040606025 0.005018228429968777
1760000000.0 0.04271915652354038 -0.0037401998312133304
1780000000.0 -0.04701109961583888 0.05994515190569756
1800000000.0 0.04550574075811229 -0.1040619520410745
1820000000.0 0.10040720897378513 -0.10648590979741461
1840000000.0 0.11937910359595652 0.13343293100152392
1860000000.0 -0.20774338346552354 -0.028347889620208063
1880000000.0 0.07090135815271041 0.229348220263499
1900000000.0 0.22661682303457809 -0.15399490956211964
1920000000.0 -0.20095972058612158 -0.22897210657085174
1940000000.0 -0.3277650387281543 0.0778987520392746
1960000000.0 -0.006508420959121113 0.36709458593652766
1980000000.0 0.388905001137715 -0.052928823977706076
2000000000.0 0.07440601192859546 -0.4078385937555363
2020000000.0 -0.43028945766106236 0.015128964528162349
2040000000.0 -0.05334152252545399 0.43456503258738927
2060000000.0 0.4337387083988969 0.0682628448271459
2080000000.0 0.3046298264878159 -0.31035746524871494
2100000000.0 0.10100484491474021 -0.41627011333987474
2120000000.0 -0.14971955313688812 -0.39144603150186785
2140000000.0 -0.3547481963939943 -0.20171972126591564
2160000000.0 -0.11677138964028394 -0.3753421968161222
2180000000.0 -0.34525185725530305 -0.14849769054251274
2200000000.0 -0.3412227006993559 0.11762292369802471
2220000000.0 -0.24933087203627818 0.24053402280411923
2240000000.0 -0.12077759097452911 0.3190945689680543
2260000000.0 -0.048716660286760506 0.33742664387079485
2280000000.0 0.01791105037369267 0.3455984092956019
2300000000.0 0.34496966765919157 0.11037965448180427
2320000000.0 0.041045472243261494 -0.3864002045597365
2340000000.0 -0.3977952855402666 0.1408304644923538
2360000000.0 0.46206166740273646 0.04105599873891854
2380000000.0 -0.5094384278710219 -0.03196689952458852
2400000000.0 0.5596205777334774 0.0037071844827903495
2420000000.0 -0.5618284904507661 0.2393835650385374
2440000000.0 0.3222620160943385 -0.5744712355707463
2460000000.0 0.09801335910606548 0.6915230362467459
2480000000.0 -0.4064554660530764 -0.6046895408500536
2500000000.0 0.42968587927565105 0.6127971950008749
2520000000.0 -0.28571836210964185 -0.7025330412116303
2540000000.0 -0.0849243388983711 0.7552673232909832
2560000000.0 0.5760302152568125 -0.48621585808277595
2580000000.0 -0.6994761767854865 -0.23843707702828443
2600000000.0 0.24123446113771313 0.6728373627456048
2620000000.0 0.39810791219170993 -0.5558723209397652
2640000000.0 0.045742916022962654 -0.6446208475301257
2660000000.0 -0.49751040321231027 0.33773692416474366
2680000000.0 0.5125165886517129 0.20713366661956897
2700000000.0 -0.12528908680664883 -0.48960379899701795
2720000000.0 -0.28396588194146216 0.3597937388783906
2740000000.0 0.4156828507617454 0.022056910759759234
2760000000.0 -0.3032134263336381 -0.22915144980870267
2780000000.0 0.32503726185866194 0.1358502392855238
2800000000.0 -0.31979001397110923 0.07750268976551324
2820000000.0 -0.0010585013826815031 -0.3125771323489348
2840000000.0 0.29625220411943265 0.05492866975275106
2860000000.0 -0.1379467352277053 0.2622005462757464
2880000000.0 -0.21072073917969977 -0.20418707320566826
2900000000.0 0.27048684009987084 0.11046145340611513
2920000000.0 0.013277372487820209 -0.2940672917421241
2940000000.0 -0.2904450253459607 0.07114447516135625
2960000000.0 -0.20866695294725396 0.21711533958556933
2980000000.0 -0.28260282924387126 0.11492050209875612
3000000000.0 -0.2534842026672637 -0.1797937125032621
3020000000.0 0.06450421509226237 -0.3063369564201691
3040000000.0 0.25062629052341623 0.18449531000312483
3060000000.0 -0.3057925708233698 0.04962087433208901
3080000000.0 0.24147023780442975 -0.1871243763314899
3100000000.0 -0.08324206101457937 0.28741298622892564
3120000000.0 -0.03765866335673086 -0.28804386619212696
3140000000.0 0.16930953692957815 0.22421056847494059
3160000000.0 -0.2649412783376236 -0.039568548489749396
3180000000.0 0.17961666176574217 0.17486470412724228
3200000000.0 -0.1546831760444618 0.16719575775557283
3220000000.0 -0.18589681706004355 -0.0727139849289591
3240000000.0 0.0933272556530578 -0.14079706066350214
3260000000.0 -0.06559552696725786 0.11696657002327872
3280000000.0 0.10249818930121098 -0.0056424072559549295
3300000000.0 0.05365033376443943 -0.053435947698009356
3320000000.0 0.0407228908410806 -0.031082609797667877
3340000000.0 0.01933402899443912 -0.023266162822043936
3360000000.0 0.010557140130671222 -0.008181224446210257
3380000000.0 0.0011689676302929313 -0.0046107530154041124
3400000000.0 0.018351061589385924 -0.006547911734308023
3420000000.0 -0.030744146342834518 0.018444581010430727
3440000000.0 -0.042848517187273984 0.025234526224981776
3460000000.0 -0.05778871507256154 0.008760919347654217
3480000000.0 -0.06718152154528975 0.009242299067993768
3500000000.0 -0.0393411347794098 0.06726752203662671
3520000000.0 0.019903489836563926 0.0883053332910415
3540000000.0 0.09557966720162746 -0.04037167215272203
3560000000.0 -0.11485998193475004 -0.0274271572773336
3580000000.0 0.05918946664188154 0.12000544702258556
3600000000.0 -0.12589920598804322 0.09083481552978963
3620000000.0 -0.12741327728860377 0.11254931629019223
3640000000.0 -0.17016390965503075 0.0641490353824664
3660000000.0 -0.14209608073579888 0.12649858641085607
3680000000.0 -0.177533835569265 0.07469312470834137
3700000000.0 -0.18726685813860156 -0.03807692039882745
3720000000.0 -0.010458002760526516 -0.18865721512695746
3740000000.0 0.15987091323042588 -0.08910524739412663
3760000000.0 -0.17663773272450223 -0.007615379437356864
3780000000.0 0.16219910541678625 0.04870517796341924
3800000000.0 0.026603243740460775 -0.15906961938451764
3820000000.0 -0.12740116544114022 -0.08657636211295153
3840000000.0 -0.00963236890195148 -0.1477561334251148
3860000000.0 0.14402256072846337 0.03312624767817296
3880000000.0 0.15357174503805177 0.003192530786412304
3900000000.0 0.0019091753891166828 -0.15590283047396825
3920000000.0 -0.11906918351077574 0.10830635037666812
3940000000.0 0.06178752147088278 -0.15316372168245412
3960000000.0 0.16903573047548975 -0.02510151480687873
3980000000.0 0.12135051235251137 -0.12143667637138654
4000000000.0 0.12465713884640091 -0.10989257619332125
