! Created with skrf (http://scikit-rf.org).
# Hz S RI R 50.0 
!freq ReS11 ImS11
400000000.0 -0.07949199950073563 0.8661111826718092
420000000.0 0.3907342245686674 0.7682948480787688
440000000.0 0.8227023069606092 -0.11121893153236934
460000000.0 0.2832934838658413 -0.7403464579301533
480000000.0 0.6406456724661502 -0.31741190899647637
500000000.0 -0.0677140557232941 -0.5687677480662793
520000000.0 -0.11078254562620349 -0.4794124798714557
540000000.0 0.3398926328756384 -0.2690026637104161
560000000.0 -0.35393995031972986 0.060226665604655255
580000000.0 0.04753830362401587 0.3363532106859477
600000000.0 0.2918863899261056 -0.16960584936074688
620000000.0 -0.32973061093292655 0.13467306564340545
640000000.0 0.1291884192863078 0.36632448881393864
660000000.0 0.3992310508861709 -0.026810445610688034
680000000.0 -0.008455761842320749 0.4205870839363901
700000000.0 0.24492146043062624 -0.35602640992932205
720000000.0 -0.2698583071855154 -0.3307054895744011
740000000.0 0.38980836171146693 0.15329911922724387
760000000.0 0.06617633721082905 -0.39692457890609034
780000000.0 0.09989240748222018 0.35880375049069513
800000000.0 0.13606605293124513 -0.31679637934447086
820000000.0 0.29066677268887114 -0.04345006249952007
840000000.0 -0.01844694713344342 -0.2468937565603712
860000000.0 0.16269536269552856 -0.14020972240246837
880000000.0 -0.08328462972757657 0.1358460199340948
900000000.0 -0.04155424037529545 0.08522086427526077
920000000.0 -0.06252060722635899 0.006689076083584199
940000000.0 0.01764926591562477 0.045265683489723575
960000000.0 0.040423710720133746 -0.03618393082693155
980000000.0 0.05430160142118934 0.045453888298556705
1000000000.0 0.01142879733516594 -0.0792935815522555
1020000000.0 -0.012590333586408728 0.09739857252076681
1040000000.0 0.1019290288536348 0.042825728166367295
1060000000.0 -0.0631784083517351 0.13137687340063808
1080000000.0 -0.1440590661310847 -0.06709900119719152
1100000000.0 -0.09813613291796729 0.15218933550355046
1120000000.0 0.14558539312075575 0.13949038715097814
1140000000.0 0.20156208419565486 -0.11890518988212581
1160000000.0 0.2675262871745049 -0.04374898106812609
1180000000.0 0.22782333520834605 0.20669787821805097
1200000000.0 -0.08284395180392773 0.32917012272749346
1220000000.0 0.09191908350474241 -0.3547787757096133
1240000000.0 -0.2111479282589444 0.33318269326619715
1260000000.0 0.40970818642785195 -0.10527339587593869
1280000000.0 -0.44317107234996683 0.029304358608935606
1300000000.0 0.41798535956035765 0.18423346613403244
1320000000.0 -0.16175650615050666 -0.423465700955717
1340000000.0 -0.37335861901643885 -0.24131365360587206
1360000000.0 -0.34358414981908636 -0.2647809295431007
1380000000.0 -0.37283786677513353 -0.21160215371131239
1400000000.0 -0.3865141791777172 0.15053740421827339
1420000000.0 0.03641219016348834 0.39547336153419105
1440000000.0 0.3172682399813342 0.19376611074662775
1460000000.0 0.21003465791762824 -0.272855239183891
1480000000.0 -0.10199858079741947 -0.29668960459640914
1500000000.0 -0.26480201308934315 -0.10148894871562299
1520000000.0 -0.2530359417849789 -0.041976213958688086
1540000000.0 0.2233877779781988 -0.04876643814870484
1560000000.0 -0.06205512538351341 0.18609623003675435
1580000000.0 -0.12678844842368642 -0.11712586362797807
1600000000.0 -0.0908265288554184 0.11409098878496036
1620000000.0 0.0834906202495277 0.08264055082121129
1640000000.0 0.09353381858551597 -0.012428405907917816
1660000000.0 -0.07008076138044116 0.004647557480678134
1680000000.0 0.04001316127699753 0.02461415468184954
1700000000.0 0.0271816824200453 0.009162472442901692
1720000000.0 0.012469748949778715 -0.006562223652471688
1740000000.0 0.01792297778652529 -0.010717533834689865
1760000000.0 0.020442660792858135 0.03657640525585264
1780000000.0 -0.049133898604541704 0.05749498075805136
1800000000.0 0.053218997901188794 -0.0998763437794689
1820000000.0 0.09582002879751234 -0.10983603251178971
1840000000.0 0.11493742626253398 0.1368817342137855
1860000000.0 -0.20927345783291765 -0.006063760055058942
1880000000.0 0.13449862677119603 0.19923174164510069
1900000000.0 0.20714606327550003 -0.1788507496315672
1920000000.0 -0.23396942960936037 -0.19547530698726012
1940000000.0 -0.3265439689991801 0.08431510180637551
1960000000.0 -0.019728067899274185 0.3672039240475151
1980000000.0 0.39249835684564516 -0.024744740400520347
2000000000.0 0.12080521503850167 -0.39765237830245004
2020000000.0 -0.4309943638054644 0.008858353525455538
2040000000.0 -0.0710125369544149 0.43233581471524685
2060000000.0 0.42461821293772795 0.11024269324141255
2080000000.0 0.34238582180215205 -0.2675801612849027
2100000000.0 0.13473327012910222 -0.40653543727330915
2120000000.0 -0.11812389224746396 -0.4019586896754677
2140000000.0 -0.3578389585689448 -0.19623170830773806
2160000000.0 -0.15450241462210818 -0.3615979713811322
2180000000.0 -0.34652390745333345 -0.14489517015537687
2200000000.0 -0.32806663969527716 0.14860696058984063
2220000000.0 -0.21489032618647577 0.27124705183008335
2240000000.0 -0.11875940164992962 0.31909985750842373
2260000000.0 -0.0334505619940462 0.339143271513416
2280000000.0 0.05382259874889236 0.34211558598818254
2300000000.0 0.35876789654127755 0.055605434253904504
2320000000.0 0.04633199343092895 -0.3867201984940041
2340000000.0 -0.4016298631977061 0.13081412978060564
2360000000.0 0.46382789429082083 0.03013604939643671
2380000000.0 -0.5110732926892817 -0.009848092359595233
2400000000.0 0.5590541874434601 -0.04334044091693682
2420000000.0 -0.5489216418696994 0.26853204535090264
2440000000.0 0.2914739373954372 -0.590745341489439
2460000000.0 0.15329874371283067 0.6810764387210786
2480000000.0 -0.44937947105074694 -0.5726095076334997
2500000000.0 0.4841585137826219 0.5697566300445818
2520000000.0 -0.36245073770507646 -0.6652654181525186
2540000000.0 -0.04030288100181743 0.7578631455652609
2560000000.0 0.5209201174371348 -0.5436924921774311
2580000000.0 -0.7278081642079949 -0.12190700283717727
2600000000.0 0.35235762217171696 0.620698259681506
2620000000.0 0.3328586089612251 -0.5965160856826179
2640000000.0 -0.05223523734365676 -0.6432788065446641
2660000000.0 -0.46411683706302825 0.3809219265525135
2680000000.0 0.5264350535622183 0.16811775710988203
2700000000.0 -0.13941840544142564 -0.48529009618530267
2720000000.0 -0.2894855077573188 0.3538205186239403
2740000000.0 0.41555518923697954 -0.01632400545318678
2760000000.0 -0.31109063225050027 -0.21787525177242384
2780000000.0 0.33102028187371896 0.1201442122400437
2800000000.0 -0.3232956878005169 0.06067666294210609
2820000000.0 0.03768913091551166 -0.31015977630421476
2840000000.0 0.29648881808246963 0.05161029253503304
2860000000.0 -0.10213148557080255 0.2777689974913077
2880000000.0 -0.220387857969083 -0.1931543689439142
2900000000.0 0.25791943837236725 0.13747897750047247
2920000000.0 -0.017021400562092892 -0.2938928986567623
2940000000.0 -0.29718756542270425 0.033463877235251356
2960000000.0 -0.2018370468743989 0.22220592191297
2980000000.0 -0.28733934219173385 0.10327272588840264
3000000000.0 -0.25893382508403906 -0.1713363949715798
3020000000.0 0.053880635439350545 -0.3074781649705762
3040000000.0 0.28910211202466524 0.11265336824946397
3060000000.0 -0.2951146639484494 0.09256512043952825
3080000000.0 0.21817524535472577 -0.21448529894199478
3100000000.0 -0.017412599328587335 0.2996304129549539
3120000000.0 0.012630445106389191 -0.2902774672111753
3140000000.0 0.15805191554933218 0.23305258495832598
3160000000.0 -0.2644480746703907 -0.04291189480194298
3180000000.0 0.16069761590856743 0.19240834601655538
3200000000.0 -0.1492187932146041 0.171880733920351
3220000000.0 -0.1896363119707568 -0.06434849955590738
3240000000.0 0.0537461399170168 -0.16002306258529017
3260000000.0 -0.05273873809259159 0.12354031364182767
3280000000.0 0.10122514299733808 -0.017926134218806785
3300000000.0 0.05603993163890256 -0.051225501910564124
3320000000.0 0.04890202718439629 -0.013866683187312923
3340000000.0 0.02735983082276862 -0.012675308716274456
3360000000.0 -0.0024420222172247636 -0.013573779604880756
3380000000.0 0.0022711915771542928 0.00424679102338926
3400000000.0 0.01888182352986106 -0.002937061978145126
3420000000.0 -0.03135222683240256 0.015085249824556123
3440000000.0 -0.02856909406270629 0.04001143454138415
3460000000.0 -0.03737327749616489 -0.043636612251071356
3480000000.0 -0.06690652200401574 0.0062903084274772356
3500000000.0 -0.04794769170616245 0.06145102290558971
3520000000.0 -0.040462804203802535 0.08072968507925232
3540000000.0 0.09160968637385968 -0.04838165600454949
3560000000.0 -0.11708321975945425 -0.013521514989499306
3580000000.0 0.07619640955972382 0.10966355672580928
3600000000.0 -0.12371916326977579 0.0932491764180816
3620000000.0 -0.14701225198736592 0.08489659563224991
3640000000.0 -0.1726840231268706 0.054861047845147184
3660000000.0 -0.16699945532389798 0.09003331299642725
3680000000.0 -0.18594921031395892 0.048579556277294704
3700000000.0 -0.18373605791442263 -0.05011324143752795
3720000000.0 -0.019137629575860408 -0.1867956799202081
3740000000.0 0.16490736891411173 -0.07972894827668463
3760000000.0 -0.17729793632239402 -0.007778722511398169
3780000000.0 0.1537483723235758 0.07221199054504354
3800000000.0 0.030194414931723423 -0.1585920365622209
3820000000.0 -0.10996581044533826 -0.10839564117895817
3840000000.0 0.024530718078303666 -0.1459880503411236
3860000000.0 0.13667201010935393 0.05692958058513748
3880000000.0 0.15350372454835887 -0.007423768227225506
3900000000.0 -0.008624960192335879 -0.1557347897638708
3920000000.0 -0.13029186551037444 0.09554404516653874
3940000000.0 0.1132500876786796 -0.12222516524579702
3960000000.0 0.15176170836779063 0.07984048092956646
3980000000.0 0.142751175504332 -0.09768492570753018
4000000000.0 0.1526407154669023 -0.06658998645577603
