! Created with skrf (http://scikit-rf.org).
# Hz S RI R 50.0 
!freq ReS11 ImS11
400000000.0 -0.06722438679752747 0.8682723484237176
420000000.0 0.40034274193130104 0.7634726688600827
440000000.0 0.8124440222326569 -0.17091568531557444
460000000.0 0.2721614908188673 -0.7441659427365516
480000000.0 0.6520508220800649 -0.294130034296483
500000000.0 -0.0731873398222052 -0.5683349816400517
520000000.0 -0.15896287566643869 -0.46572125257618746
540000000.0 0.3279658625175734 -0.283110631664426
560000000.0 -0.3367597116386015 0.12302367373829366
580000000.0 0.0365124000911872 0.33747725380823557
600000000.0 0.2827451827342971 -0.18318040057650295
620000000.0 -0.3438068278323925 0.09576283306878057
640000000.0 0.1688493151719043 0.34962117670804826
660000000.0 0.3937795134221061 -0.07152786431344137
680000000.0 -0.0023586514971020702 0.42020758971308886
700000000.0 0.27043773772286556 -0.33800250134927706
720000000.0 -0.2838650857387679 -0.319093028118239
740000000.0 0.39124268327877043 0.1477792823565518
760000000.0 0.08120401803297955 -0.3946963950933216
780000000.0 0.06776405962866842 0.3664858373785883
800000000.0 0.15314761523789885 -0.3089849190998893
820000000.0 0.28417341797239853 -0.07485427617261241
840000000.0 0.0010289991626883017 -0.24819265132706053
860000000.0 0.17080138941192033 -0.12974454168870977
880000000.0 -0.06475054973412724 0.14552213071842388
900000000.0 -0.05251146338509109 0.0785630395343837
920000000.0 -0.053220819106105974 0.033888390468417934
940000000.0 0.007641314691688032 0.04788039205854807
960000000.0 0.032722647975294776 -0.04274125853044575
980000000.0 0.03694662026681119 0.05997881508426744
1000000000.0 0.013957631561879172 -0.07897576663183269
1020000000.0 0.0013549382927877224 0.09838876922861829
1040000000.0 0.10607658330494851 0.029734613261873863
1060000000.0 -0.021568848880107197 0.1440432944027083
1080000000.0 -0.12894529449562106 -0.09379658869269851
1100000000.0 -0.1033511436309339 0.1481798410183158
1120000000.0 0.16590763468115022 0.11528696939378197
1140000000.0 0.20869840823035157 -0.10632354877332889
1160000000.0 0.26771869364882006 -0.037601964777037776
1180000000.0 0.24967364840489242 0.18150839168412047
1200000000.0 -0.07546543540186713 0.33048662598795964
1220000000.0 0.016984854510833418 -0.3660025805275588
1240000000.0 -0.21144564529905052 0.33265378104714893
1260000000.0 0.4073690093475035 -0.11241956039989917
1280000000.0 -0.4434942141437638 0.02434864428276035
1300000000.0 0.4327670655462401 0.1476803533682286
1320000000.0 -0.178633232317068 -0.4166116804597599
1340000000.0 -0.3676468297280043 -0.24999519458055106
1360000000.0 -0.3386935623929836 -0.2705474307695051
1380000000.0 -0.3766679714667641 -0.2049330687691111
1400000000.0 -0.39154953228810485 0.1352586474852701
1420000000.0 0.06580487140771969 0.39167417018589246
1440000000.0 0.31963073986365004 0.1893860884628644
1460000000.0 0.1996172346940602 -0.2803402612937055
1480000000.0 -0.11992331559033735 -0.2900558949378275
1500000000.0 -0.2720821971212435 -0.07851022646670225
1520000000.0 -0.2538889741416304 -0.03519978073719337
1540000000.0 0.2249354095661243 -0.042711786136666846
1560000000.0 -0.04246176671695112 0.19231922741975496
1580000000.0 -0.13341523102238775 -0.1099007799818513
1600000000.0 -0.11281126032440804 0.09315230516473205
1620000000.0 0.1046253549233575 0.053899735261060476
1640000000.0 0.08586118659088607 -0.04029683249599644
1660000000.0 -0.06880433674935003 -0.012412943487920486
1680000000.0 0.02277576169817393 0.04076508349490303
1700000000.0 -0.02187834476221158 0.017385510681665214
1720000000.0 0.00478023931709089 0.012703524810924335
1740000000.0 0.01987529704260187 -0.006336149658123
1760000000.0 0.042057160313038834 -0.004738303418037718
1780000000.0 -0.05679795634736342 0.05007719626765935
1800000000.0 0.024733860286776675 -0.1105892190289518
1820000000.0 0.10161096075996116 -0.10553369601804301
1840000000.0 0.12169527877149604 0.1312042524753276
1860000000.0 -0.2073144986688994 -0.03307932056105454
1880000000.0 0.10028341505474984 0.2185276530013019
1900000000.0 0.22128267497761622 -0.16179564770535193
1920000000.0 -0.23279063424529983 -0.1971285100554726
1940000000.0 -0.3293701343222221 0.0731539976354843
1960000000.0 -0.008599104153198851 0.3674645536986637
1980000000.0 0.39227620560042553 -0.023303164536949084
2000000000.0 0.08963813581769244 -0.40503873206522234
2020000000.0 -0.4300924304316132 -0.02623724031372749
2040000000.0 -0.08481644423932194 0.4294818010304869
2060000000.0 0.414984998823696 0.14221495892236663
2080000000.0 0.3304681634597064 -0.2817069073342764
2100000000.0 0.13244167145045666 -0.40683337833441247
2120000000.0 -0.18764286562498872 -0.37377027003299995
2140000000.0 -0.37640007122732444 -0.1564370918940185
2160000000.0 -0.18144029162352313 -0.34829098046465545
2180000000.0 -0.35055740585035017 -0.1334445638293301
2200000000.0 -0.32687985489238086 0.15123932639453108
2220000000.0 -0.20899374692760905 0.2754591757267335
2240000000.0 -0.1018753988064304 0.32450872767107486
2260000000.0 -0.05242839804160847 0.3360815126733315
2280000000.0 0.04139626998198834 0.3432721687360346
2300000000.0 0.3559362301670981 0.0695794980412445
2320000000.0 0.054631827659630074 -0.38522579048874106
2340000000.0 -0.39544016891017797 0.14815643250918795
2360000000.0 0.46291828427821624 0.03623388561233215
2380000000.0 -0.5107653001059689 0.0032573326970702695
2400000000.0 0.560047466957544 -0.015452000975716732
2420000000.0 -0.559905713116962 0.2436132735196221
2440000000.0 0.34385755769785115 -0.561830408071716
2460000000.0 0.12888599162021894 0.6859346184039212
2480000000.0 -0.44141376649261493 -0.5784310308283444
2500000000.0 0.41173532101809596 0.6244517539791442
2520000000.0 -0.3037109535763357 -0.694374547510409
2540000000.0 -0.07690738494612338 0.7551603748450335
2560000000.0 0.5554493103665384 -0.5086489643688864
2580000000.0 -0.7152638207673534 -0.18306480293447727
2600000000.0 0.24664741770650792 0.6697535120813738
2620000000.0 0.3050802654560381 -0.6111284471880744
2640000000.0 -0.04087037489344947 -0.6441227839948318
2660000000.0 -0.46300596134051764 0.38278598990008444
2680000000.0 0.5356496402123179 0.13507441641488718
2700000000.0 -0.16464486122400512 -0.47734245026142086
2720000000.0 -0.26533346414219666 0.37188148906879404
2740000000.0 0.41335947770882586 -0.04435271263685392
2760000000.0 -0.3164253306225854 -0.20945290772192882
2780000000.0 0.3346507662173051 0.10884372177679029
2800000000.0 -0.31556247173056196 0.09333942686354411
2820000000.0 0.01801958377392252 -0.31198562212970876
2840000000.0 0.29693928345956566 0.04756821204001866
2860000000.0 -0.13688325260629752 0.2632618913552366
2880000000.0 -0.22111493949952954 -0.1932238131555626
2900000000.0 0.2546599317247858 0.14410064937583417
2920000000.0 0.006451587107999894 -0.29431643102135896
2940000000.0 -0.299286185591629 -0.004191041915241009
2960000000.0 -0.2102610546683431 0.21494854254457868
2980000000.0 -0.288236814705453 0.09988820487317285
3000000000.0 -0.26982791963095765 -0.1521996961677417
3020000000.0 0.026218142984330887 -0.3113077661748939
3040000000.0 0.26029336121092056 0.16908964477669408
3060000000.0 -0.2682765642039545 0.1545188048967987
3080000000.0 0.22307891387117876 -0.20901667905427063
3100000000.0 -0.026345918351379335 0.29920557623994787
3120000000.0 -0.02004026352232313 -0.28974741113348207
3140000000.0 0.16359505512247077 0.22958696212283805
3160000000.0 -0.2658431672058304 -0.034738105354817986
3180000000.0 0.16575437827440762 0.18856553254504374
3200000000.0 -0.14227441230899196 0.1775043441122774
3220000000.0 -0.18939084679767862 -0.06550002778577142
3240000000.0 0.07649636298819164 -0.1505401863856471
3260000000.0 -0.0637828649259289 0.11880278124277771
3280000000.0 0.10302088025316238 0.00046964412180296346
3300000000.0 0.058864342895122684 -0.04779192355817262
3320000000.0 0.05038140541861056 -0.004046421992153406
3340000000.0 0.028653161549973334 0.008441399395020593
3360000000.0 -0.01182160083843265 0.005113719513155851
3380000000.0 0.0050304508518295935 -0.00030659635293440925
3400000000.0 7.65753803762326e-05 -0.01936127482622077
3420000000.0 -0.017481361489488628 0.030828785473373272
3440000000.0 -0.012767865267581228 0.04745801679062895
3460000000.0 -0.05617025420590828 -0.015053157465885189
3480000000.0 -0.06375926874283214 0.023087857341060444
3500000000.0 -0.030147472219809967 0.07241605132381546
3520000000.0 -0.02242619754781005 0.0880454470247693
3540000000.0 0.09294488402317952 -0.04675042978319647
3560000000.0 -0.11463643909657599 -0.027693525960690732
3580000000.0 0.0785807883731061 0.10893714943419577
3600000000.0 -0.12814750878541456 0.0874451516548145
3620000000.0 -0.13546296852602593 0.10404912795927268
3640000000.0 -0.17803883223103054 0.03507000796489809
3660000000.0 -0.16243464472834 0.09911617809373582
3680000000.0 -0.1901560022988389 0.028572551153403045
3700000000.0 -0.18079849041259663 -0.06204791566198342
3720000000.0 0.000845950955455092 -0.1873837061548981
3740000000.0 0.16762014531014913 -0.07505051601650266
3760000000.0 -0.17468578875989135 -0.02801570406662379
3780000000.0 0.1544104702163014 0.07081722575405124
3800000000.0 0.04818460990269381 -0.15424151322201313
3820000000.0 -0.10497067776007778 -0.11294365919048541
3840000000.0 0.030135713719879435 -0.14466617583429253
3860000000.0 0.12310112486023361 0.08213315620475367
3880000000.0 0.1496062489530229 0.03491015622600448
3900000000.0 0.0047388408449402 -0.15627295532522195
3920000000.0 -0.135265403127815 0.08837518920315508
3940000000.0 0.10949505660383464 -0.12452303964506421
3960000000.0 0.14770123807140617 0.08777108708420801
3980000000.0 0.15011176958909328 -0.08568601960413769
4000000000.0 0.15260965181763808 -0.06600742667813243
