! Created with skrf (http://scikit-rf.org).
# Hz S RI R 50.0 
!freq ReS11 ImS11
400000000.0 0.030806033442654052 0.8714213613434114
420000000.0 0.4894086477669511 0.7080971182047618
440000000.0 0.80720964990429 -0.18584805701293036
460000000.0 0.09446328972411588 -0.7859543457980688
480000000.0 0.4182645691127185 -0.566108989890009
500000000.0 0.5158754969262187 -0.1981755607997622
520000000.0 0.4839424047201182 0.06741362852989508
540000000.0 0.030489085931228385 0.4322059758280505
560000000.0 0.2641151391375062 -0.25849273335627315
580000000.0 -0.31628262669851465 -0.1597969342304343
600000000.0 0.24271280510866428 0.26139658820210127
620000000.0 -0.36068816780498253 -0.11659306061452529
640000000.0 0.41020780510204985 0.0458483386521268
660000000.0 -0.16853701132757193 -0.38062954678725425
680000000.0 -0.12717120521168848 -0.4054244713251074
700000000.0 -0.36467094646543113 0.19870082086006854
720000000.0 -0.27231581450124825 -0.2981467058461482
740000000.0 -0.3435737074232231 0.21313949841295307
760000000.0 0.24873121895512246 0.31270863479441524
780000000.0 -0.3516307971319012 -0.14448086486206127
800000000.0 0.34420285671914463 -0.1064540271695579
820000000.0 -0.09731548395791632 -0.29601220097644493
840000000.0 0.2461958489182431 0.06022630093633494
860000000.0 0.013047086559983392 0.20957681295156697
880000000.0 -0.14879668827013326 0.0142302460252369
900000000.0 -0.07268042074749596 0.031662533103367356
920000000.0 -0.03661666102344802 0.027173893020353543
940000000.0 0.02899641124888005 0.0011212336744632076
960000000.0 0.023193188238624835 0.02797594774580026
980000000.0 0.031592542452731825 0.034601912280132624
1000000000.0 -0.054254249295395976 -0.016355991374489346
1020000000.0 0.06049350969628264 0.054675381174229445
1040000000.0 0.0853174078027915 0.06398962910610687
1060000000.0 0.08403398112995729 -0.12877982794161272
1080000000.0 -0.08586151436813877 -0.15477809327573858
1100000000.0 -0.008417421475492381 -0.20712968500919052
1120000000.0 0.21715316693516726 0.06637272749298759
1140000000.0 -0.20298155654823397 0.1562703149579244
1160000000.0 0.02348190102248643 0.2764858484134534
1180000000.0 -0.27214844804384974 -0.12966984509207835
1200000000.0 0.32307969997747865 0.019321983598092157
1220000000.0 0.11950760199134806 -0.3277864755945701
1240000000.0 -0.35333574661352346 -0.14197594425831012
1260000000.0 0.05419077999089646 0.41378399875617194
1280000000.0 0.008629940779120382 -0.44317248617773786
1300000000.0 -0.046993675427801314 0.4600410059939462
1320000000.0 0.056481069687341005 -0.4587815795593682
1340000000.0 -0.43034705638494924 -0.14226222958645338
1360000000.0 -0.41785421305737563 0.13394255705510785
1380000000.0 -0.3010438872647195 0.30526567982058467
1400000000.0 -0.07182378707385842 0.4025632128142526
1420000000.0 0.17964724143924668 0.3433299538176421
1440000000.0 0.12340242356181189 0.3431583934767009
1460000000.0 0.2968882855248235 0.17134939245700012
1480000000.0 0.24061389653666657 -0.21123729191601323
1500000000.0 -0.1953119813648239 -0.22104880879876795
1520000000.0 -0.2046664448281249 0.17113447245033442
1540000000.0 -0.11564790768953954 -0.20445235958537689
1560000000.0 0.1943763530057554 -0.03442904045233222
1580000000.0 -0.023252217948168175 0.16637756145224286
1600000000.0 -0.03152058437886045 0.1341695409921059
1620000000.0 -0.08809928092428557 0.06348214998068667
1640000000.0 0.0609117640908572 -0.06242003748481115
1660000000.0 -0.013468912451339 -0.06341682731604484
1680000000.0 0.03898140653053279 -0.02131161048347442
1700000000.0 9.051402801745002e-05 0.02921446897020541
1720000000.0 -0.012686988603405733 0.003569505091243494
1740000000.0 0.011660268882786247 -0.013626414363893802
1760000000.0 -0.03811222092906911 0.013473199100541306
1780000000.0 0.0012468901182515009 0.0749721496106419
1800000000.0 0.01865602876281544 0.11186631537664529
1820000000.0 0.14453758683327625 -0.02401398993987981
1840000000.0 0.16300247649343205 0.07245152473218858
1860000000.0 -0.18204391673034317 0.09727563732780786
1880000000.0 0.11363045655888994 0.20579610714674718
1900000000.0 0.26876049553040254 0.01771727320295378
1920000000.0 0.011856906366071306 -0.30382195141283347
1940000000.0 -0.3111793620684476 -0.13461287693489118
1960000000.0 -0.0402094264869334 0.36936470444286934
1980000000.0 0.3613796030856378 -0.1633662577730268
2000000000.0 -0.08839475246128914 -0.40776100277439237
2020000000.0 -0.3949831910599364 0.17278581007774435
2040000000.0 -0.019703291386718794 0.43679935670145087
2060000000.0 0.4080465169309148 0.161832988061389
2080000000.0 0.3856869968669795 -0.2023325897363353
2100000000.0 0.2538831174541443 -0.34652127781839515
2120000000.0 0.007536403268237077 -0.42044711360655673
2140000000.0 -0.3187733635445315 -0.25631839000390927
2160000000.0 0.029526822510246773 -0.3915316556165142
2180000000.0 -0.17789328419498268 -0.3289300074817984
2200000000.0 -0.29775344074626686 -0.19923195971491012
2220000000.0 -0.30313640096283556 -0.16716725834491059
2240000000.0 -0.33638737390965434 0.058388446865690925
2260000000.0 -0.2863123371741839 0.1876268343364935
2280000000.0 -0.16625997772647055 0.30525262368837286
2300000000.0 0.32971911166776485 0.15116802191551515
2320000000.0 0.06967126491690435 -0.37965918090240414
2340000000.0 -0.3917614891806469 0.14081665556990255
2360000000.0 0.41691185638087647 0.18632545826170407
2380000000.0 -0.37504008415851076 -0.33626658109301255
2400000000.0 0.3657471538466518 0.4194421071906083
2420000000.0 -0.5744351190151769 -0.20631609187645725
2440000000.0 0.6003091407937048 -0.27414422575192715
2460000000.0 -0.3024743090292998 0.6320561046755685
2480000000.0 -0.0434751678888455 -0.7304579615140461
2500000000.0 0.008942656476661266 0.7527633504758567
2520000000.0 0.22723697452306166 -0.7288201443542425
2540000000.0 -0.5626241520107507 0.5185804006692033
2560000000.0 0.7592795488954618 -0.009515534968436828
2580000000.0 -0.3929826021144767 -0.6325515467068271
2600000000.0 -0.2503075562426817 0.6755639354026167
2620000000.0 0.6305625250912049 -0.27844101982792724
2640000000.0 0.43879218245562795 -0.48175388778847683
2660000000.0 -0.6066820040597488 -0.00860213990020422
2680000000.0 0.3442187718495988 0.4400066320169894
2700000000.0 0.08438488876595908 -0.5042363985092639
2720000000.0 -0.3735467270029082 0.2753360533496784
2740000000.0 0.42155437854479066 -0.021576864383043813
2760000000.0 -0.36845571371920904 -0.10990190466207327
2780000000.0 0.35507122516243916 -0.01605513625025915
2800000000.0 -0.25278614778919734 0.21494616860868437
2820000000.0 -0.15189322511275624 -0.27500962969828513
2840000000.0 0.29569504225041066 -0.06385618327182524
2860000000.0 -0.08389571146171912 0.28540619220796304
2880000000.0 -0.12178616440396722 -0.2686585856831698
2900000000.0 0.0993633654503408 0.27854815863000193
2920000000.0 0.20868667981610767 -0.2144620515825314
2940000000.0 -0.267419356135734 -0.1463234429540508
2960000000.0 -0.2916981387228839 0.0984923450415673
2980000000.0 -0.311316345679842 0.026127865292162673
3000000000.0 -0.24732554108390933 -0.19507785750155957
3020000000.0 0.1060909434531753 -0.29639825579961526
3040000000.0 0.2554379276335549 0.17899855439406298
3060000000.0 -0.3095484459243323 0.00028293427589880937
3080000000.0 0.28105381566329757 -0.12071713698198427
3100000000.0 -0.21681698223474333 0.20791106560333095
3120000000.0 0.08794325646414365 -0.2787115503967537
3140000000.0 0.0819856096731789 0.2702240550607256
3160000000.0 -0.23333114598647398 -0.13074705726088362
3180000000.0 0.09133734046977622 0.2329677763866267
3200000000.0 -0.20993990593668305 0.08676600752074003
3220000000.0 -0.13715285744321307 -0.14542189291483115
3240000000.0 0.11860259868165313 -0.1197980123157719
3260000000.0 -0.04862759115837684 0.12427887881019885
3280000000.0 0.07373411079423914 -0.06861189508327142
3300000000.0 -0.03261186252146714 -0.06448302109440136
3320000000.0 -0.012005353877671229 -0.04550458290723481
3340000000.0 -0.005562678673167111 -0.025413208240185378
3360000000.0 -0.009546650656323256 0.0030556762806338484
3380000000.0 0.005712386093171941 -0.0021925409293432107
3400000000.0 -0.002914599217719276 0.020653764121761738
3420000000.0 0.03483817323155311 -0.013984108006088847
3440000000.0 -0.014774973644187513 -0.04988244778617415
3460000000.0 0.05583768203767547 0.024681122562149
3480000000.0 0.0670684093252525 -0.023633262511688874
3500000000.0 -0.0759321405502291 -0.02926924367786124
3520000000.0 -0.08451932118643753 0.037937535339988
3540000000.0 0.09721099516553647 0.04220733994807337
3560000000.0 -0.035837034768838795 -0.1130728951621995
3580000000.0 -0.05555890373520961 0.12277772893010827
3600000000.0 -0.12345040334403387 -0.09387285430417015
3620000000.0 -0.1503614310621797 -0.080140901135833
3640000000.0 -0.10163214075592224 -0.15104250416422424
3660000000.0 -0.17513695324289225 -0.07572704753303855
3680000000.0 -0.16944708703264302 -0.09282052253902409
3700000000.0 -0.17266181030153852 -0.07946819162126784
3720000000.0 0.03269168752467481 -0.183818133444126
3740000000.0 0.1810126664724956 -0.004964501427177165
3760000000.0 -0.16566086163293986 -0.05241528547859289
3780000000.0 0.0987864271266752 0.13223682747047613
3800000000.0 0.15582121828036202 -0.024088516184837205
3820000000.0 0.029418118233849083 -0.14970891045544968
3840000000.0 0.0656975971872283 -0.13213535519215544
3860000000.0 0.14227482959061688 0.0383587374783759
3880000000.0 0.14840146635806234 -0.03132867073267251
3900000000.0 -0.04094015748943886 -0.14721040051844703
3920000000.0 -0.14650257088949234 0.0565522654840214
3940000000.0 0.16051679765434765 -0.022359294167199232
3960000000.0 0.015404882551044321 0.16764956898085007
3980000000.0 0.17047703500770942 0.01419543354355119
4000000000.0 0.11319968397102778 -0.12196989694514801
