! Created with skrf (http://scikit-rf.org).
# Hz S RI R 50.0 
!freq ReS11 ImS11
400000000.0 -0.05024574699046182 0.8681410619261419
420000000.0 0.4084524700777229 0.758120087048067
440000000.0 0.822962731697556 -0.11032823792173446
460000000.0 0.2931354766521918 -0.7355748075998788
480000000.0 0.6420500783687524 -0.3155474878253776
500000000.0 -0.051347988147821676 -0.5695096500011032
520000000.0 -0.11609607593392662 -0.47889717314060715
540000000.0 0.2899780698991317 -0.3240727393392512
560000000.0 -0.2703241122514561 0.23361094909862173
580000000.0 -0.07945985083662459 0.3294154778992478
600000000.0 0.3013323184583821 -0.14980653213207779
620000000.0 -0.33143576931808794 0.13316898047930062
640000000.0 0.10096994568522989 0.37461841825928044
660000000.0 0.3952495321009309 -0.06735971484860254
680000000.0 -0.030829279137599867 0.41891161525748694
700000000.0 0.2091623450957466 -0.37922495711169557
720000000.0 -0.3036703957410429 -0.3008864981865721
740000000.0 0.38554107094927387 0.16286770120787422
760000000.0 0.13935792941021738 -0.3775224073908891
780000000.0 0.10362065013864467 0.3576453795579223
800000000.0 0.15695858332201804 -0.30739202945406174
820000000.0 0.289737457254883 -0.05154449072304951
840000000.0 -0.016651747226499963 -0.2478823416713516
860000000.0 0.16082199245120057 -0.14049228851582626
880000000.0 -0.08182690467033882 0.13523983483325164
900000000.0 -0.05870724614327566 0.07409221343878063
920000000.0 -0.05515479320346377 0.030020222151799187
940000000.0 0.03315206858299167 0.034380139684637
960000000.0 0.04976064069827606 -0.020871013139086122
980000000.0 0.06757916041596279 0.02191214313108952
1000000000.0 0.011607522954313707 -0.07902496128406152
1020000000.0 -0.041426307641357435 0.08953095709603863
1040000000.0 0.09286165420244039 0.06003412600077291
1060000000.0 -0.06610038441962157 0.1295605481207498
1080000000.0 -0.15453489843153884 -0.03936282473215859
1100000000.0 -0.09288870716510733 0.15512890794087678
1120000000.0 0.14877093874804173 0.1364534640564986
1140000000.0 0.2022395664412539 -0.11682344977636615
1160000000.0 0.26708153308693344 0.03884017995136304
1180000000.0 0.22562999998483577 0.2099501878333569
1200000000.0 -0.02685736941315987 0.3391309125316747
1220000000.0 0.03547805708073566 -0.3654529224565298
1240000000.0 -0.17608800467203553 0.35332671527728404
1260000000.0 0.4094713644980812 -0.1055202856853283
1280000000.0 -0.44343336045075377 0.03379973074423659
1300000000.0 0.4293637779040425 0.15634090045521337
1320000000.0 -0.2057096194549566 -0.40458652125989353
1340000000.0 -0.3811357452679816 -0.22864510272806468
1360000000.0 -0.3370696118654015 -0.27135203649298617
1380000000.0 -0.37050283151104446 -0.21541751485704352
1400000000.0 -0.3896509223192018 0.14159112496486162
1420000000.0 0.043515376703142546 0.39421820141079744
1440000000.0 0.32065506840277985 0.18726652551345385
1460000000.0 0.23025597711616766 -0.254717262998579
1480000000.0 -0.07795308333214875 -0.30325160474328533
1500000000.0 -0.26237226156041754 -0.10601514958665958
1520000000.0 -0.2550693138851691 0.0021361353402011736
1540000000.0 0.2148111570029792 -0.07600576814265365
1560000000.0 -0.013475812222719413 0.1955406388964954
1580000000.0 -0.15434350695600427 -0.07862161055393951
1600000000.0 -0.05498738622223019 0.13556745675095677
1620000000.0 0.1180549643074747 0.00198584199739844
1640000000.0 0.060098226385279785 -0.07321371953423214
1660000000.0 -0.06568171820364933 0.026373182208230556
1680000000.0 0.011359658742262363 0.045479556499137264
1700000000.0 -0.024760301858290232 -0.013346806816538733
1720000000.0 0.007033223485695589 0.010924002441972162
1740000000.0 -0.014435284952899146 0.014951254584178097
1760000000.0 0.00213155738591166 -0.04235889131068234
1780000000.0 -0.01328514204160826 0.07483629528571356
1800000000.0 0.01280205513191705 -0.11316745551980338
1820000000.0 0.04971678958784478 -0.13797919572892803
1840000000.0 0.13656594597757218 0.11699038564042762
1860000000.0 -0.21004256525228943 0.012779941503158055
1880000000.0 0.10931025103244597 0.2151197423948809
1900000000.0 0.22645136558736445 -0.15487932752946543
1920000000.0 -0.19237175013662208 -0.23714235199497338
1940000000.0 -0.33535823731590486 0.03401138554915519
1960000000.0 -0.046425099188106646 0.364729100873141
1980000000.0 0.3928619243028731 -0.009331628914433553
2000000000.0 0.1032115471049044 -0.40133685272320974
2020000000.0 -0.4306168381894686 -0.0058421008471987845
2040000000.0 -0.059241751605492325 0.43325729514216715
2060000000.0 0.43138363826255927 0.07465614297864229
2080000000.0 0.28904511123188076 -0.32323811403701963
2100000000.0 0.08927366667491544 -0.4175932695320118
2120000000.0 -0.1982184214755593 -0.3676696622463539
2140000000.0 -0.388199599949843 -0.1218409206759894
2160000000.0 -0.19995267632535174 -0.3372282034107099
2180000000.0 -0.36746660512572243 -0.07191575235951052
2200000000.0 -0.2834118464669126 0.22193697560978315
2220000000.0 -0.1631937610046476 0.30495689284261746
2240000000.0 -0.031063198559712252 0.339366887457136
2260000000.0 0.0598932384256677 0.3355542437054055
2280000000.0 0.12739593013881517 0.3219306169286739
2300000000.0 0.3626790809744298 -0.007241742296053624
2320000000.0 -0.022730162696577537 -0.38854433801737065
2340000000.0 -0.3735814946723041 0.19757442471165185
2360000000.0 0.4643337571288694 0.013607745719393802
2380000000.0 -0.5107984005730516 -0.011556663403406175
2400000000.0 0.5591115669582052 -0.03317150403125849
2420000000.0 -0.5366475814265453 0.2909577421782648
2440000000.0 0.28793614271053813 -0.5920159002368858
2460000000.0 0.1327692842934612 0.6851291708054349
2480000000.0 -0.44976527873495264 -0.5721832916581757
2500000000.0 0.48763957094955557 0.5660430152180337
2520000000.0 -0.3502391531762933 -0.6714081609052939
2540000000.0 -0.0034198186836525532 0.759186782941416
2560000000.0 0.5373199725672008 -0.5277046485666168
2580000000.0 -0.7255991299993744 -0.13119881857429602
2600000000.0 0.3396388878151575 0.6270427535177556
2620000000.0 0.2624933108666374 -0.630509461316526
2640000000.0 -0.034343937733005335 -0.6435642179406671
2660000000.0 -0.4610477599910172 0.3831026732261595
2680000000.0 0.5347608272563684 0.13578016851022956
2700000000.0 -0.18698208343120792 -0.46820802375248294
2720000000.0 -0.2468513021371424 0.3843096208250678
2740000000.0 0.41484993265653114 -0.008004905383551074
2760000000.0 -0.313901373702846 -0.21170545802307608
2780000000.0 0.33766112995845304 0.09515841689697792
2800000000.0 -0.31071488605763853 0.10349962501660889
2820000000.0 -0.024743397052839882 -0.31053808449921627
2840000000.0 0.29990280500994276 -0.008458183452315617
2860000000.0 -0.07523465861508034 0.28560180539762076
2880000000.0 -0.2526752003778013 -0.1467834645937025
2900000000.0 0.2721376209432374 0.10554781429157414
2920000000.0 -0.0676358440392153 -0.28601710869644176
2940000000.0 -0.28021301573830487 0.10286488506400217
2960000000.0 -0.20899090935137982 0.21684538749602417
2980000000.0 -0.28879344975037075 0.10186561074891443
3000000000.0 -0.27463913423036834 -0.14542592336879512
3020000000.0 0.059456341067557386 -0.30712624593754057
3040000000.0 0.26927219369381 0.15677312183298925
3060000000.0 -0.2907850355006323 0.1078115518346746
3080000000.0 0.212192444069976 -0.21963778741908796
3100000000.0 -0.04101719906865562 0.29689560855042274
3120000000.0 0.02416684996711681 -0.28924873650116273
3140000000.0 0.17691294684201178 0.21918859631017457
3160000000.0 -0.2616199734789287 -0.05796877419137929
3180000000.0 0.1277638441539781 0.2154739858245383
3200000000.0 -0.18721844108442764 0.12981404731432183
3220000000.0 -0.15290962183855128 -0.12944339510176833
3240000000.0 0.12018064346952242 -0.11822460418684363
3260000000.0 -0.1252940030136932 0.04697810803508736
3280000000.0 0.0734878765159195 0.07124175532981014
3300000000.0 0.07564091009104984 0.0006583174548310661
3320000000.0 0.04391735704358652 0.02514372279680123
3340000000.0 -0.024963384101681585 0.01579806958812038
3360000000.0 0.011228877287940399 -0.005294424158962116
3380000000.0 0.004371983763171027 0.0008158325818096513
3400000000.0 0.01603364479228943 -0.011280894393393638
3420000000.0 0.03465757514032233 -0.011434712694003786
3440000000.0 0.04775955343842344 0.016143317247908753
3460000000.0 -0.05476791588269999 0.020792608976054415
3480000000.0 -0.016456873241389308 0.06622355521712515
3500000000.0 0.03466602650042405 0.0698738373973313
3520000000.0 0.07557680628789092 0.04945367966084739
3540000000.0 -0.005331319963933551 -0.10397703267077008
3560000000.0 -0.09014368182191633 0.07611842581745105
3580000000.0 0.13226206159857087 0.022805655127792573
3600000000.0 -0.10022796365498503 0.11840033429671823
3620000000.0 -0.0533464185039438 0.16120697831177846
3640000000.0 -0.126674813230096 0.1301472888000479
3660000000.0 -0.06599677749452525 0.17892418563862766
3680000000.0 -0.15116090843446442 0.1200751928299694
3700000000.0 -0.19087461871920458 -0.0202904623339075
3720000000.0 -0.05386298080356824 -0.18189995859554084
3740000000.0 0.1429862247845476 -0.11672692979044741
3760000000.0 -0.1737749023468781 0.04083204668004077
3780000000.0 0.17037796857204074 0.007598291868860386
3800000000.0 0.016787568588905764 -0.1619894284573535
3820000000.0 -0.13166169683904716 -0.08270090653341561
3840000000.0 -0.061952252951718904 -0.1355995779501226
3860000000.0 0.14846910282457076 0.017631214988369302
3880000000.0 0.152123844749095 -0.030755018127417627
3900000000.0 -0.03388582016701903 -0.15386420074725976
3920000000.0 -0.1236378555711189 0.10510552598055717
3940000000.0 0.11598007728045785 -0.12023173776236515
3960000000.0 0.17141549275265744 0.013794658099148004
3980000000.0 0.11666625665556701 -0.12842829811881246
4000000000.0 0.10424962396094306 -0.13024257490293034
