!Created with skrf (http://scikit-rf.org).
# Hz S RI R 50.0 
!freq ReS11 ImS11
400000000.0 -0.6796128836985506 0.545776345718359
420000000.0 0.5596755315905135 0.6653673437063522
440000000.0 0.5978185858151764 -0.5849579938897963
460000000.0 -0.29988025315996025 -0.7247738277127036
480000000.0 0.6898476084304871 0.15862727993725514
500000000.0 0.2280322669154037 -0.5368345316550441
520000000.0 -0.48374793182386505 -0.09172896244097978
540000000.0 0.11131342055833053 0.40852841873385426
560000000.0 -0.34400684451163277 -0.16615307626970235
580000000.0 0.31667366107995687 -0.14939283399850967
600000000.0 0.06140981921855203 -0.34958143530605057
620000000.0 0.24362635587844464 0.2757198073716777
640000000.0 0.3021497863400833 -0.25705961270937644
660000000.0 -0.353841403347455 -0.2007249890927576
680000000.0 0.3740064008096752 -0.19849361633071852
700000000.0 -0.2299626607552194 -0.3601452233756127
720000000.0 -0.4253821245632055 0.0033662096591956336
740000000.0 0.3118653862660149 -0.27276631258502976
760000000.0 -0.3478331741012143 -0.1857810700027877
780000000.0 0.2749661329397905 0.23171779423768915
800000000.0 0.18332136491649043 -0.26558454493522177
820000000.0 -0.27238747002846175 0.04858056937123214
840000000.0 -0.11352461866560801 0.20635079132312117
860000000.0 -0.04694294318416669 -0.19512541414242415
880000000.0 0.09032080665207856 0.13167192826514726
900000000.0 0.10872107182264032 -0.026236713216823727
920000000.0 0.03763534537890232 0.06222948555115213
940000000.0 0.03413338565820033 0.02834073752267268
960000000.0 -0.04596376560122282 -0.02105800725437007
980000000.0 0.05859204106403365 0.037218577956109826
1000000000.0 0.027122962234089856 -0.0820355988489723
1020000000.0 0.03139762538848141 -0.09960475860222355
1040000000.0 0.11083439922923527 0.04554964621102796
1060000000.0 0.04862304942814163 0.1503958871589718
1080000000.0 0.13710728333275574 0.11000224772292186
1100000000.0 -0.07275205285563731 -0.18658053688609919
1120000000.0 0.2197972102542206 0.02139668097350446
1140000000.0 -0.05881470798762116 -0.2446933794333185
1160000000.0 -0.2722025997018687 -0.056358623086874865
1180000000.0 -0.08720660884358347 -0.3004960334505987
1200000000.0 0.280297788795977 -0.1872803481035091
1220000000.0 -0.2974645945113723 0.2109153002526417
1240000000.0 0.3671343133203365 0.11709931226529566
1260000000.0 -0.12503441292375173 -0.3903556983169653
1280000000.0 -0.413669418842224 0.09862840357775193
1300000000.0 0.272524178171277 0.3415747779500232
1320000000.0 0.4211763069820818 0.12361219422306496
1340000000.0 0.4393233864177642 -0.011654566719134295
1360000000.0 0.4416275641874376 0.012259551243276521
1380000000.0 0.22574735426612175 -0.37574938614700465
1400000000.0 -0.3978324709431857 -0.16111900976706206
1420000000.0 0.009994837900837692 0.41065916555077925
1440000000.0 0.3750327378902057 -0.07950196258622462
1460000000.0 -0.0030229714501410765 -0.35158105813381435
1480000000.0 -0.3153983435793604 0.05217213873491741
1500000000.0 -0.11770729864417694 0.2602781703824452
1520000000.0 0.018248429038748033 0.25577104524187244
1540000000.0 -0.134026796920259 -0.1836089206963341
1560000000.0 0.1310432617005288 -0.14207613948102804
1580000000.0 0.05221835684574013 0.1569850172639205
1600000000.0 0.11557894008015898 -0.06285036235837342
1620000000.0 0.07836368527290186 0.06541334035410776
1640000000.0 -0.06794131643132902 0.03475225703879942
1660000000.0 0.05275199181718198 -0.003880894727028793
1680000000.0 -0.022560419664932687 0.026076914181407236
1700000000.0 -0.007595132749739615 -0.019842673470244314
1720000000.0 -0.0008023950201665776 -0.004585877606500485
1740000000.0 0.006820529508587903 -0.013336156043702219
1760000000.0 0.0282123545194302 0.016177672127055457
1780000000.0 -0.004045413698766049 0.061115400798198646
1800000000.0 -0.060348314929653056 -0.0715012508051814
1820000000.0 -0.12344302283892063 -0.01337140116724199
1840000000.0 0.15564779796480444 -0.04443248236273775
1860000000.0 -0.1966257980291235 -0.02324943495506507
1880000000.0 0.23339982235197299 0.04672090054280975
1900000000.0 -0.28215529207428314 -0.012493842902320569
1920000000.0 0.3030081256114909 -0.09409727341511813
1940000000.0 -0.350550122923695 -0.02895958504039533
1960000000.0 0.3192556310959878 0.20306872820573643
1980000000.0 -0.03880299005411157 -0.3945294063331793
2000000000.0 -0.3785098870995431 -0.16561831709701091
2020000000.0 -0.24244730714795543 0.3482902336964542
2040000000.0 0.11672135098647231 0.41493710310352233
2060000000.0 0.42707341746084654 0.07430473369429103
2080000000.0 0.3177737213430522 -0.29013956861984963
2100000000.0 0.11807620205270013 -0.4052568582657609
2120000000.0 -0.0382161686531279 -0.412053132715354
2140000000.0 -0.14773771099225777 -0.3761259206730138
2160000000.0 0.29263603015802886 -0.2602370715089291
2180000000.0 0.05585072962739848 -0.373969396693368
2200000000.0 -0.231452018435944 -0.2811800202928161
2220000000.0 -0.26215305604586614 -0.23525244258651493
2240000000.0 -0.347886859261786 0.003291783954289078
2260000000.0 -0.30853970061037206 0.15883451877156662
2280000000.0 -0.1521093793292913 0.31532401925382486
2300000000.0 0.2377501048059836 0.27023471300845964
2320000000.0 0.37558738933653374 -0.06273495251905517
2340000000.0 0.0013415713442435227 -0.4130297720643623
2360000000.0 -0.3408714654116363 0.29885065160723384
2380000000.0 0.4372783159308239 -0.2442840590378571
2400000000.0 -0.4827568362380536 0.2667463799666396
2420000000.0 0.34653238964695204 -0.4954365875242438
2440000000.0 0.08367339972492796 0.648823157393038
2460000000.0 -0.5666790606543803 -0.4042779220800822
2480000000.0 0.7289684635514155 0.03178565800501289
2500000000.0 -0.7397387243382652 0.13728992714097613
2520000000.0 0.7599879759241447 -0.09170824628639199
2540000000.0 -0.7419486717970624 -0.20538247179378363
2560000000.0 0.5101121474205105 0.5733303508456284
2580000000.0 0.11983545550598163 -0.745519129713123
2600000000.0 -0.5790369931247081 0.45126287402660775
2620000000.0 0.6994759862274244 0.09719296817808713
2640000000.0 0.5855982993110787 -0.32910504857451905
2660000000.0 -0.6226092024016707 -0.08884835963633972
2680000000.0 0.4038800679601305 0.4200215710030619
2700000000.0 -0.048231453458051014 -0.5338523855527808
2720000000.0 -0.21109090443841652 0.43973347830591397
2740000000.0 0.4019895644514322 -0.1856024397762793
2760000000.0 -0.39940065338456204 0.04480385635065067
2780000000.0 0.3689175509453615 0.025016357149189764
2800000000.0 -0.3387559135801098 0.04475299999511401
2820000000.0 0.20781524138114293 -0.24696095357887596
2840000000.0 0.0064254365330498305 0.3092201083510719
2860000000.0 -0.2533104667640774 -0.16758043360958996
2880000000.0 0.27502047710001276 -0.12468055955674245
2900000000.0 -0.17586796803622812 0.24459598106475325
2920000000.0 0.2572046323916861 -0.15896930158796446
2940000000.0 -0.2573567779835628 -0.16457782926888878
2960000000.0 -0.2889036881690671 0.1092379615616407
2980000000.0 -0.2732651910874651 0.1534436112936617
3000000000.0 -0.30875753563939556 0.06527181782802624
3020000000.0 -0.2457605514465688 -0.197781427785222
3040000000.0 0.1962686965789482 -0.24371899952020157
3060000000.0 -0.005482376998271419 0.3089452965196224
3080000000.0 -0.08291289384060986 -0.2925304637712061
3100000000.0 0.13065250203401702 0.26951958005887366
3120000000.0 -0.1777668722356647 -0.23460812237101314
3140000000.0 0.2851725572617855 0.016908860820603076
3160000000.0 -0.1643393044378766 0.21552299381607698
3180000000.0 0.2554257435871704 -0.01690876550504383
3200000000.0 0.01765428095611125 0.2323437034842732
3220000000.0 -0.20531553642860184 0.027702492975464853
3240000000.0 -0.00955992447395252 -0.17764973963150954
3260000000.0 0.13342204067658864 0.05654780975741935
3280000000.0 -0.10995179883328973 -0.027845716587890333
3300000000.0 0.08333093306889744 -0.0026292500237043454
3320000000.0 -0.0526899431990375 0.017297270737033205
3340000000.0 0.02541355050875702 -0.018306765552427825
3360000000.0 -0.0002925069984051809 -0.012384727160400993
3380000000.0 -0.006827387354385039 -0.0005461922534203517
3400000000.0 -0.005121397261474782 -0.018612210186970967
3420000000.0 0.028058170119405028 -0.014655563684288947
3440000000.0 -0.027432395992411557 0.03269718243819814
3460000000.0 -0.04140211774547009 0.03220923928215638
3480000000.0 -0.06359461574723134 0.009439974710340741
3500000000.0 0.06306792332931647 0.04871986495781993
3520000000.0 0.012628380967395022 -0.09327293239884138
3540000000.0 0.03925126141458541 0.10240451358759343
3560000000.0 -0.12102777541355422 -0.0255151464707738
3580000000.0 0.10385904564656791 -0.09053098250414593
3600000000.0 0.1398131077059114 0.06545985169051352
3620000000.0 0.04292207815954565 0.15945039986039475
3640000000.0 -0.09868180561676292 0.1455988258845866
3660000000.0 -0.18224465825375616 0.03640600452860505
3680000000.0 -0.1673582761687825 -0.09153162936145876
3700000000.0 -0.14487163666021904 -0.12480852438157246
3720000000.0 0.041737521858427704 -0.1851470264185744
3740000000.0 0.1442773098784196 -0.11341034670629722
3760000000.0 -0.16612219988047794 0.0637860362020645
3780000000.0 0.1651715372930372 -0.034052303734801434
3800000000.0 -0.05856415779978197 -0.15023734496773156
3820000000.0 -0.1479773666428769 -0.04036909977458223
3840000000.0 -0.084258011903687 -0.11800894217171819
3860000000.0 0.11608175944694979 0.08810258248013175
3880000000.0 0.08855466941777446 0.12216201179167037
3900000000.0 0.14651262453332448 -0.05833142338545768
3920000000.0 -0.15646794662088903 -0.042355660459552406
3940000000.0 0.14416735290849486 -0.08260812896745069
3960000000.0 0.1440113723816863 0.0919400094473322
3980000000.0 0.15362072769114135 -0.07382487378433371
4000000000.0 0.16315778578936738 -0.014385922821917823
