!Created with skrf (http://scikit-rf.org).
# Hz S RI R 50.0 
!freq ReS11 ImS11
400000000.0 -0.6921031084995078 0.5277194952143661
420000000.0 0.5504228995268029 0.6706084648881779
440000000.0 0.5744978528275027 -0.6060220758515051
460000000.0 -0.3440439381242087 -0.704257099855427
480000000.0 0.6955354764985872 0.1305329019775042
500000000.0 0.2346184735155811 -0.5332408044451282
520000000.0 -0.4852083946043993 -0.08710582326455824
540000000.0 0.15263799072459994 0.3948935060427051
560000000.0 -0.35206414078664144 -0.14579051590309083
580000000.0 0.3108731568029596 -0.16252157973465464
600000000.0 0.027874433899782464 -0.35607654035670894
620000000.0 0.2831171118976667 0.23628833643530123
640000000.0 0.35132418075129557 -0.18692124007861738
660000000.0 -0.3202519182356468 -0.25351078780092673
680000000.0 0.4020351846342221 -0.13579170369541432
700000000.0 -0.15519984610840834 -0.39806915099099677
720000000.0 -0.41981035319670623 -0.06798970732061461
740000000.0 0.3662111266709895 -0.19329900936445546
760000000.0 -0.33327404210469364 -0.20845894392875344
780000000.0 0.26783064451923905 0.2380180808698755
800000000.0 0.16267308450257403 -0.27734871613632256
820000000.0 -0.2514936282604855 0.11308600441456595
840000000.0 -0.035248686602036644 0.23257311370627753
860000000.0 -0.12895371028099467 -0.15369786389842163
880000000.0 0.14685675528368794 0.06462643741107381
900000000.0 0.08059201552075901 -0.08003992765260871
920000000.0 0.02895677471588075 0.06870758877493299
940000000.0 -0.033788801371598794 0.030440852308215555
960000000.0 0.03815235562218956 -0.032572502573898814
980000000.0 0.015599061119388863 0.06609053923283385
1000000000.0 0.022337792882824052 -0.08178585353882577
1020000000.0 -0.03270437129821232 -0.09761425260608349
1040000000.0 0.11295295526200885 -0.037416805466510314
1060000000.0 0.12836075856483503 0.09265144628047789
1080000000.0 0.17262142285186566 0.03800848666165691
1100000000.0 -0.1380706150175283 -0.14710353818885047
1120000000.0 0.22255341260002495 0.007088628168270443
1140000000.0 -0.04177740701617475 -0.2502187515474644
1160000000.0 -0.24712567793953702 -0.1306078799879805
1180000000.0 -0.011575504010247532 -0.31390121995090936
1200000000.0 0.32284668827696017 -0.10013634807488037
1220000000.0 -0.34410145255975305 0.1223108508471466
1240000000.0 0.3289218771674215 0.20128617949079927
1260000000.0 -0.046614018211674366 -0.4071713692016297
1280000000.0 -0.42295886107283415 0.04328363814181997
1300000000.0 0.24830580841698144 0.3591566937425807
1320000000.0 0.4129210310545611 0.14775708332953433
1340000000.0 0.4389092489277899 -0.006506526400289867
1360000000.0 0.4412419691736793 0.01083502408354005
1380000000.0 0.21333009379516432 -0.3827209535149191
1400000000.0 -0.4052598842232044 -0.1408646895611173
1420000000.0 0.04486899168722716 0.4082401952472186
1440000000.0 0.37118600929278245 -0.09672718212442709
1460000000.0 -0.03526164403876645 -0.3502444431935716
1480000000.0 -0.3159646111325203 0.05154799772323393
1500000000.0 -0.09720826313317052 0.2695403717853146
1520000000.0 0.029538776378965095 0.2556957474625073
1540000000.0 -0.1302274655922015 -0.18761850348606174
1560000000.0 0.1463744700302537 -0.1275132111563938
1580000000.0 0.03392669962576347 0.1626120361664956
1600000000.0 0.1294484101914351 -0.025512514274172456
1620000000.0 0.05878840444266464 0.0837345715271189
1640000000.0 -0.0761053527667 -0.0010492524063397447
1660000000.0 0.048112078200071 0.021116490908559587
1680000000.0 -0.01831449800114961 0.028835934071486304
1700000000.0 -0.02074828251175219 0.002043673592903692
1720000000.0 0.0034129872182523005 0.002050914596938898
1740000000.0 0.0013077293186247129 0.014964380307119924
1760000000.0 -0.004458969074854329 0.03188183877840824
1780000000.0 -0.027658542884205425 0.05441896936693959
1800000000.0 -0.0529255448388039 -0.07633687225266184
1820000000.0 -0.12185226716849755 -0.021338466592345357
1840000000.0 0.1550739103720522 -0.044763122859303686
1860000000.0 -0.19756205524251713 -0.00486006323543079
1880000000.0 0.23597563175605746 0.030377292173988817
1900000000.0 -0.2820107739318651 0.009161145439238098
1920000000.0 0.29696647564793444 -0.11153524429221895
1940000000.0 -0.35173797585703054 -0.005848823570185592
1960000000.0 0.32788768621847164 0.18939348390757024
1980000000.0 -0.04954592781622368 -0.39351446699999987
2000000000.0 -0.37700545444139527 -0.17029178259470384
2020000000.0 -0.2563110554189474 0.33892561351921496
2040000000.0 0.08751328949464492 0.42243767912927827
2060000000.0 0.42423875143199274 0.09023796209151087
2080000000.0 0.33095934490071505 -0.27528481229827373
2100000000.0 0.15045146698995374 -0.3944386776057298
2120000000.0 0.008609635219245501 -0.4136766638336021
2140000000.0 -0.05704156890080703 -0.40005175158396955
2160000000.0 0.32554730627297956 -0.21695713495853483
2180000000.0 0.11199649366597435 -0.3606028308811881
2200000000.0 -0.2055361454457935 -0.29981029594714376
2220000000.0 -0.2493345623381407 -0.24754388546236603
2240000000.0 -0.34570249126069913 0.02871934747025787
2260000000.0 -0.30014683199674497 0.17224894349000106
2280000000.0 -0.11995383047820463 0.3281535954505204
2300000000.0 0.2674496133109925 0.24032343880043328
2320000000.0 0.36318001574306197 -0.11406079489417217
2340000000.0 -0.0509439006784772 -0.4101037904609157
2360000000.0 -0.30307088607134186 0.3378986747960372
2380000000.0 0.4272255279752859 -0.26222728894307573
2400000000.0 -0.48126904976299173 0.2703896911190833
2420000000.0 0.34374798534399154 -0.4978526896177243
2440000000.0 0.05434513099691122 0.6524490756976363
2460000000.0 -0.5512593028362044 -0.42568797941563574
2480000000.0 0.7288775196123795 0.034976682321898316
2500000000.0 -0.7506319582816136 0.05704830067434901
2520000000.0 0.7651029928710661 -0.03517978025963623
2540000000.0 -0.7342568260353431 -0.23096330269545795
2560000000.0 0.4597926246381358 0.6140563080451377
2580000000.0 0.17846012323894278 -0.7334102254052758
2600000000.0 -0.6248025127525325 0.3842476620550085
2620000000.0 0.6961552206039358 0.11474693334031755
2640000000.0 0.6111265832787829 -0.27696797026012193
2660000000.0 -0.611702911483311 -0.14183015134654203
2680000000.0 0.3757009265850855 0.44450553819235206
2700000000.0 -0.059897621147940235 -0.5322195738161545
2720000000.0 -0.17967282204039947 0.4529524202493684
2740000000.0 0.3948762222506172 -0.1988928412434885
2760000000.0 -0.39728539489077225 0.05790967366054109
2780000000.0 0.3692625070571586 -0.010493930301304405
2800000000.0 -0.3329313378797264 0.0762425538282848
2820000000.0 0.18282156233043687 -0.26622320303822095
2840000000.0 0.01993936394684782 0.309110314537611
2860000000.0 -0.2557018185564916 -0.16519917793784242
2880000000.0 0.265427870035851 -0.1449127014154067
2900000000.0 -0.19227931986146923 0.23312256552409283
2920000000.0 0.27573138697382277 -0.126452941578907
2940000000.0 -0.23349098220750786 -0.19830886637465264
2960000000.0 -0.29510438790925303 0.09289439486665559
2980000000.0 -0.28969220163577575 0.12170368272299255
3000000000.0 -0.31300539450839476 0.04135982082801956
3020000000.0 -0.2421762131885579 -0.20250238655865713
3040000000.0 0.21593993359819835 -0.22623708931225067
3060000000.0 -0.08805852918275485 0.29577191147960846
3080000000.0 -0.024580722778002637 -0.30272550779482815
3100000000.0 0.011689798923461094 0.2981399694572643
3120000000.0 -0.16618590859288554 -0.24200116269135463
3140000000.0 0.2819671513479085 0.04105046373885369
3160000000.0 -0.17739490975022076 0.20368963071941343
3180000000.0 0.2543801773760614 -0.011972851578887922
3200000000.0 0.009966948208420083 0.23142383501367114
3220000000.0 -0.20051495557180066 0.04685309237750209
3240000000.0 -0.04261493713480772 -0.17156341860152424
3260000000.0 0.14339461808489512 0.01431822470193203
3280000000.0 -0.10572114102696892 0.03933014974389648
3300000000.0 0.04868092681240275 -0.06719966451558054
3320000000.0 0.0035964634314636663 0.05517935177193393
3340000000.0 -0.030845030538619287 -0.0049133201184459255
3360000000.0 0.0015873792752921032 -0.012899667153136792
3380000000.0 -0.0069764854032688915 -0.0027653292539947757
3400000000.0 -0.014003939735221845 0.013050700046190957
3420000000.0 0.0004270853751673662 0.03146438703785053
3440000000.0 -0.03759248425902521 -0.019837235347659632
3460000000.0 -0.03165084288263651 -0.0411948784845547
3480000000.0 -0.016118481058150343 -0.06148807892618123
3500000000.0 0.008395975487015738 0.07866828948218238
3520000000.0 0.06577628629025331 -0.06673004968869008
3540000000.0 -0.021621836567102995 0.10677930676282353
3560000000.0 -0.11127771897442244 -0.05324121669377741
3580000000.0 0.12668614818820634 -0.05231064396047475
3600000000.0 0.09092764450388231 0.12305380163088399
3620000000.0 0.004287072614944814 0.16414583683404824
3640000000.0 -0.12879642776496394 0.11832387953073421
3660000000.0 -0.184183941107525 0.014753597874481193
3680000000.0 -0.1642738753974747 -0.09577486108316138
3700000000.0 -0.14607719071616407 -0.12213663507446146
3720000000.0 0.042368071755048406 -0.1845773678074061
3740000000.0 0.13724032921948093 -0.1201717415002391
3760000000.0 -0.16032876695797568 0.07565042256682661
3780000000.0 0.15560702335147933 -0.06252696813675941
3800000000.0 -0.06937350255894889 -0.1448989028757879
3820000000.0 -0.15112330494757822 -0.021341204968065304
3840000000.0 -0.09733233251444393 -0.10632574943141851
3860000000.0 0.12620787816933662 0.07132380608606669
3880000000.0 0.10335333217344822 0.10876362266826178
3900000000.0 0.1400271339639156 -0.0712210661991404
3920000000.0 -0.16145908246583138 -0.0011650171696260417
3940000000.0 0.12613901267941646 -0.10758384496586122
3960000000.0 0.15651427599143092 0.06774519657727063
3980000000.0 0.14608224835546585 -0.08734532771479157
4000000000.0 0.16272603474258193 -0.015651017585326863
