!Created with skrf (http://scikit-rf.org).
# Hz S RI R 50.0 
!freq ReS11 ImS11
400000000.0 -0.6824840659455379 0.5430949855943977
420000000.0 0.5503636847406252 0.6742345026631923
440000000.0 0.6134841423700297 -0.5691271958351822
460000000.0 -0.280499324237537 -0.7330282495383312
480000000.0 0.6783130733690838 0.20294418454563667
500000000.0 0.18550177929846853 -0.5533476289309578
520000000.0 -0.4764347805829047 -0.12256968913070704
540000000.0 0.09331484602591156 0.41289315167734053
560000000.0 -0.35530203805723126 -0.14119608554165344
580000000.0 0.31454889428368765 -0.15500701937400518
600000000.0 0.008685989220336983 -0.3544785877705122
620000000.0 0.22136579593537534 0.294290475740046
640000000.0 0.3144027388639528 -0.2433679322574118
660000000.0 -0.3443489298482898 -0.21775050568425974
680000000.0 0.38472361768815466 -0.17496641889223366
700000000.0 -0.18904516712909294 -0.3826298964718523
720000000.0 -0.42540769186203714 0.008390124297795818
740000000.0 0.2991730215918045 -0.28736589545850205
760000000.0 -0.3490626376719021 -0.1808687447089535
780000000.0 0.2778734145418418 0.22773119346833165
800000000.0 0.174738969250309 -0.2711961219315553
820000000.0 -0.2625028181455073 0.08626825934956041
840000000.0 -0.10407595884324077 0.21159117427249308
860000000.0 -0.04990198128603025 -0.19439389990811382
880000000.0 0.10998274948034942 0.11604428850850901
900000000.0 0.10041660882067265 -0.05003942041618602
920000000.0 0.02560216873044834 0.06900003880305773
940000000.0 -0.014234616859717183 0.04242982556975752
960000000.0 -0.015011623266893781 -0.048179905434401114
980000000.0 0.05953360025973574 0.03589340502076258
1000000000.0 0.008000730405796524 -0.08617991206029314
1020000000.0 0.04333614194569516 -0.09499651559526308
1040000000.0 0.10269640262392125 0.06129000966072394
1060000000.0 0.06555690801359501 0.14372697386887132
1080000000.0 0.14437185246358003 0.10032001847276291
1100000000.0 -0.11987052602557449 -0.16039317343485804
1120000000.0 0.2209081167749492 0.011440855782742185
1140000000.0 -0.09985258513586519 -0.2317274362469667
1160000000.0 -0.2757443839022218 -0.03824300116920405
1180000000.0 -0.10302065571535987 -0.29504086352214454
1200000000.0 0.27281089425687727 -0.19826177079012725
1220000000.0 -0.31612958636050303 0.181813879657635
1240000000.0 0.3605403871869445 0.1355721018363904
1260000000.0 -0.11519950003062451 -0.39314476298808715
1280000000.0 -0.4176521648155465 0.08148387964105137
1300000000.0 0.2839374778284601 0.3323260755680691
1320000000.0 0.4205329072347537 0.1254367041969126
1340000000.0 0.4392234542711368 -0.0025211353287853218
1360000000.0 0.44111508372384345 0.015469134172920035
1380000000.0 0.23515717159578114 -0.3696750987236318
1400000000.0 -0.4024952574376753 -0.1476102647384091
1420000000.0 0.02817418855183697 0.4094687523277739
1440000000.0 0.37527595660967733 -0.07776557343373815
1460000000.0 0.010091323740039883 -0.351728661090995
1480000000.0 -0.30882986336255946 0.08108624168190351
1500000000.0 -0.10926136838266359 0.26385481431875374
1520000000.0 0.04731612558200007 0.2517552375031963
1540000000.0 -0.1267199924798029 -0.1885073622947272
1560000000.0 0.13244292287271867 -0.14037775541402753
1580000000.0 0.08940210965137069 0.1388614421538471
1600000000.0 0.12284304201377745 -0.04685041517628056
1620000000.0 0.10135066208384848 0.007489791762158841
1640000000.0 -0.03278965231592101 0.06903819457708811
1660000000.0 0.03847895043579485 -0.03734639404749938
1680000000.0 0.019493950283832502 0.030141076003718285
1700000000.0 0.002946588219632958 -0.021785105067466268
1720000000.0 -0.004913937330906966 -0.0012537564038579087
1740000000.0 -0.014342875330548706 -0.0037506830677819414
1760000000.0 0.032134621373002124 0.002531925785253219
1780000000.0 0.017784309687746892 0.05883852895076537
1800000000.0 -0.08880758351355408 -0.03170704559025446
1820000000.0 -0.12299126888454877 0.02024237815308819
1840000000.0 0.1450058714188437 -0.0726986266941201
1860000000.0 -0.19837907830957854 0.005389785349280884
1880000000.0 0.2335526063564581 0.047321012994208884
1900000000.0 -0.282618378070651 -0.007212312970387141
1920000000.0 0.30174987237262396 -0.09864185388381644
1940000000.0 -0.3503477728569383 -0.030641613394952135
1960000000.0 0.3085604226234568 0.21896262720257512
1980000000.0 -0.029017737088919342 -0.3952419504288023
2000000000.0 -0.3767710999311608 -0.1686021743376284
2020000000.0 -0.22569915524102468 0.35901710892426425
2040000000.0 0.09442133666941666 0.4201189560011777
2060000000.0 0.427487223426337 0.06832243526182089
2080000000.0 0.31284922185041464 -0.2950836662992075
2100000000.0 0.12694716489736718 -0.40196490717556765
2120000000.0 -0.03211366521044185 -0.4112261642391351
2140000000.0 -0.1382018972461826 -0.3786904736551678
2160000000.0 0.2685173038537672 -0.2832327877363719
2180000000.0 0.020707055373488183 -0.3766292831490485
2200000000.0 -0.24088981159588127 -0.2717794539693036
2220000000.0 -0.2766348354884012 -0.21626493820111237
2240000000.0 -0.3418395602172844 0.05330713396029085
2260000000.0 -0.28548561099873704 0.19444138551229617
2280000000.0 -0.09842521767455319 0.3344884688875292
2300000000.0 0.2830085051344254 0.2209339706460537
2320000000.0 0.348740456239829 -0.15221992798461467
2340000000.0 -0.06964574212424254 -0.406604483295341
2360000000.0 -0.2794107151387916 0.35697191800171246
2380000000.0 0.40966099967301267 -0.28799218412002725
2400000000.0 -0.46095474643270623 0.30238062715886155
2420000000.0 0.29904717323910435 -0.5252643561611338
2440000000.0 0.11352537060466056 0.6443243711146112
2460000000.0 -0.578747364855794 -0.3872640741433092
2480000000.0 0.7293312865787883 0.022482311728388785
2500000000.0 -0.7364083814926168 0.15514186116090906
2520000000.0 0.7591161212793897 -0.10097216942201878
2540000000.0 -0.7485443510151123 -0.18096401494182718
2560000000.0 0.5254500331800944 0.5590855022014468
2580000000.0 0.10295987222531068 -0.7480614192586985
2600000000.0 -0.5899404694035831 0.4362327259408433
2620000000.0 0.6963395242449457 0.11467230896341933
2640000000.0 0.5877713357461217 -0.32369865678797805
2660000000.0 -0.6157725007974705 -0.12396697015867397
2680000000.0 0.3628944918126402 0.4549022589759482
2700000000.0 -0.033105801216552294 -0.5339281444449115
2720000000.0 -0.18610811379536824 0.44912874593577906
2740000000.0 0.4046588401238302 -0.17362066262565415
2760000000.0 -0.3967098233611338 0.04441139184669917
2780000000.0 0.3673699271181452 -0.01252753221434174
2800000000.0 -0.32612872528219283 0.0954310795034913
2820000000.0 0.1480860295467875 -0.28534550832858147
2840000000.0 0.08624116013426346 0.296149062683758
2860000000.0 -0.29238355180276765 -0.08164926300493452
2880000000.0 0.24023817619924123 -0.1833183763325588
2900000000.0 -0.12376495384515378 0.2750831085992268
2920000000.0 0.22563285859483814 -0.20337449105896033
2940000000.0 -0.26520420618087265 -0.15463252222011262
2960000000.0 -0.28867676409853943 0.1117198922106829
2980000000.0 -0.27481659243405726 0.15279923410014642
3000000000.0 -0.31219206096295904 0.05124907308944473
3020000000.0 -0.24965679079979444 -0.19433393417907188
3040000000.0 0.22232389751602183 -0.22112993889923876
3060000000.0 -0.07621102708631038 0.2994698907414551
3080000000.0 0.003706647480218195 -0.3035408984391759
3100000000.0 0.04921122747233155 0.29482804862854217
3120000000.0 -0.20657845339553857 -0.20942934742789668
3140000000.0 0.274042745347381 0.07589076133682827
3160000000.0 -0.20130630937998914 0.179355150707172
3180000000.0 0.2491843217112094 0.05169975694779405
3200000000.0 -0.013691840187106433 0.23095293919928217
3220000000.0 -0.20543088574957474 -0.002295305965001335
3240000000.0 0.018090829847458592 -0.17503006149243638
3260000000.0 0.13272409793404105 0.055534836380781584
3280000000.0 -0.10709741058655925 -0.03373080224563304
3300000000.0 0.0823737488088166 -0.002656954977682319
3320000000.0 -0.0474732620320885 0.02639168660435011
3340000000.0 0.023810906724964092 -0.017569832239335063
3360000000.0 0.007537781032324249 0.007910447580628737
3380000000.0 0.0075928846765336 0.0017619019932382963
3400000000.0 -0.005155484473644852 -0.019770744412336158
3420000000.0 0.01880779219940448 -0.027300924763920844
3440000000.0 -0.036456029329381745 0.024193668574593347
3460000000.0 -0.018325029001014712 0.05081263421629534
3480000000.0 -0.04713465738434376 0.04603453445298402
3500000000.0 0.0755777040859144 0.02626707045075958
3520000000.0 -0.04113718242285083 -0.08617217653338943
3540000000.0 0.07585160148054079 0.08133625958325678
3560000000.0 -0.12284937103955546 0.021616472400784688
3580000000.0 0.10385580592527117 -0.09145081455591199
3600000000.0 0.14443791568409645 0.0548526635990411
3620000000.0 0.06342453589315672 0.15411127978148673
3640000000.0 -0.07193969983590583 0.16071066769036363
3660000000.0 -0.18401473911714453 0.0320757100956596
3680000000.0 -0.16691438657000035 -0.0948105212981451
3700000000.0 -0.14653522340472913 -0.12537327524596825
3720000000.0 0.07384141924964338 -0.17649955352360103
3740000000.0 0.1666863027607297 -0.07918404795155741
3760000000.0 -0.1786368845452916 -3.512435381389316e-05
3780000000.0 0.1680766954369242 0.023017108425129888
3800000000.0 -0.021828281345926227 -0.16056268028760437
3820000000.0 -0.11772919480131239 -0.09898304442841022
3840000000.0 -0.047621613018348774 -0.13734642665216842
3860000000.0 0.08256136477758177 0.12046770072782129
3880000000.0 0.08315794611375821 0.12716855525038695
3900000000.0 0.15857881407146068 0.002977045450057799
3920000000.0 -0.14961549170825414 -0.06306560701013884
3940000000.0 0.15415685231381532 -0.06252913449693533
3960000000.0 0.10322494290274337 0.13722234425567
3980000000.0 0.17114979281762735 -0.01003623465478021
4000000000.0 0.14391985781225006 0.0806852714138013
