!Created with skrf (http://scikit-rf.org).
# Hz S RI R 50.0 
!freq ReS11 ImS11
400000000.0 -0.674761877695793 0.5525583632173297
420000000.0 0.5449765236496936 0.6776660827946422
440000000.0 0.5933927777758645 -0.5887991224991496
460000000.0 -0.3145812276343058 -0.7183032698834301
480000000.0 0.6921124061203957 0.14709554044943393
500000000.0 0.24743085510166438 -0.5284880741320311
520000000.0 -0.4846768906491248 -0.08765117177539898
540000000.0 0.14459542502616995 0.39686101129667745
560000000.0 -0.33198169713706216 -0.18951033446092394
580000000.0 0.31653265964745075 -0.14966323278120192
600000000.0 0.016287668345948247 -0.3547664500179704
620000000.0 0.2291565236063265 0.2866254733965467
640000000.0 0.2609514681214035 -0.2986211804945311
660000000.0 -0.35433388922892506 -0.2005823208991179
680000000.0 0.37398267847424227 -0.19843744268776092
700000000.0 -0.24801530851980183 -0.34761155409424843
720000000.0 -0.42521823773739137 0.016458097098752827
740000000.0 0.3069899980379616 -0.27929575842304316
760000000.0 -0.34382973359853625 -0.19222780435874226
780000000.0 0.2849834720178077 0.22058263879930218
800000000.0 0.19991524665216323 -0.2527058060783211
820000000.0 -0.26897195564886095 0.06435469296915751
840000000.0 -0.10957115303266107 0.20857335029227544
860000000.0 -0.05340564711712965 -0.1935322605507095
880000000.0 0.08942299405226402 0.13222627670907275
900000000.0 0.10778394461348977 -0.02818376270839538
920000000.0 0.024454053786083514 0.06802846143918288
940000000.0 0.044313501497231796 -0.0001231777116269813
960000000.0 -0.05088833136722806 -0.0019795225152013526
980000000.0 0.06353669235982325 0.02881132476999817
1000000000.0 0.04029337227604963 -0.07646324102110791
1020000000.0 0.04769408943975734 -0.09301189367095021
1040000000.0 0.10340753760289209 0.06042076967245306
1060000000.0 0.05382342265175984 0.14849742585779885
1080000000.0 0.14060659357558192 0.105159238202159
1100000000.0 -0.0854849076107451 -0.18086722360505142
1120000000.0 0.22057717494969697 0.002573378313588074
1140000000.0 -0.08011298078102322 -0.2386321885471845
1160000000.0 -0.27353579777060594 -0.04642456773314287
1180000000.0 -0.08786476381740778 -0.30008636634570424
1200000000.0 0.28090068185094313 -0.18618877040103454
1220000000.0 -0.2860623497029984 0.2258445788283511
1240000000.0 0.3689496350958309 0.11046481313627449
1260000000.0 -0.13470931828456495 -0.3872204595718047
1280000000.0 -0.4152818592831078 0.09264802694727307
1300000000.0 0.29538521368866316 0.322178650073464
1320000000.0 0.4171734525766272 0.13679003971605086
1340000000.0 0.43976242634192764 -0.005798882850808965
1360000000.0 0.4418056022345716 0.014419489714591121
1380000000.0 0.23943552989529224 -0.36741346749234627
1400000000.0 -0.39669816540996766 -0.1631937075803234
1420000000.0 0.009717353655434798 0.41081294317483896
1440000000.0 0.37428041152593344 -0.0830621271212681
1460000000.0 0.006478698774491454 -0.3515326503546088
1480000000.0 -0.3197717756539145 -0.007217782853663157
1500000000.0 -0.11987858465567687 0.2594069905514482
1520000000.0 0.032946936681991695 0.2539722165457044
1540000000.0 -0.1373239800198661 -0.18104254891148508
1560000000.0 0.13644595548478655 -0.13687167578483062
1580000000.0 0.08094598678173712 0.1440299809424039
1600000000.0 0.11739873949859878 -0.059167095078731566
1620000000.0 0.09561284883987356 0.035224960635195354
1640000000.0 -0.060490787934130014 0.04656202090974807
1660000000.0 0.04541387576261837 -0.02765564733814487
1680000000.0 0.0025321409551580807 0.03467854302580669
1700000000.0 -0.02012032298993552 -0.007547886288679962
1720000000.0 0.0028880653823721587 0.004175389882096482
1740000000.0 0.006438089590486348 -0.013141186003895113
1760000000.0 0.032373979549927184 0.0018011147507584332
1780000000.0 0.015776989067402894 0.059154658215049095
1800000000.0 -0.07972409107187606 -0.04871863086079981
1820000000.0 -0.12402909562002924 0.0071182229314683525
1840000000.0 0.153291645445869 -0.05246515041941218
1860000000.0 -0.19816369085099153 -0.007958652772249376
1880000000.0 0.23595637401608052 0.03374672585585697
1900000000.0 -0.2821610872277019 -0.017349346805210854
1920000000.0 0.3052292628280235 -0.0875456482106123
1940000000.0 -0.34976498874001954 -0.039218505300219225
1960000000.0 0.30969946530582465 0.21746417044094335
1980000000.0 -0.01868712125722959 -0.3959177126154168
2000000000.0 -0.3539676815538912 -0.21371204992374918
2020000000.0 -0.23078940670873752 0.35581222464428736
2040000000.0 0.09866122777153448 0.419385357404402
2060000000.0 0.43123330120363035 0.037006793010483215
2080000000.0 0.29597061333920616 -0.31137655947402365
2100000000.0 0.11742043663683113 -0.4050254264966066
2120000000.0 -0.03328238127087223 -0.4119275557167497
2140000000.0 -0.14261021482325378 -0.3775015135477656
2160000000.0 0.288484935457472 -0.26410797380690054
2180000000.0 0.02993459381809535 -0.37644232126537824
2200000000.0 -0.23165822607681927 -0.28087426051278774
2220000000.0 -0.28811827795950956 -0.2023102901025209
2240000000.0 -0.34800994065852886 0.014774815818196226
2260000000.0 -0.3079007161858333 0.15984850958421898
2280000000.0 -0.13565336985539173 0.322904550366023
2300000000.0 0.25077699544920523 0.25891566726052945
2320000000.0 0.3714744658957256 -0.08608021209399083
2340000000.0 -0.007595652775814746 -0.4134079647414896
2360000000.0 -0.3370363382850612 0.3041152429082711
2380000000.0 0.4529407282623116 -0.21441283696342867
2400000000.0 -0.4971873832709723 0.23908989241071923
2420000000.0 0.36125124201758435 -0.4848178524514545
2440000000.0 0.06360398208894552 0.6508658037665094
2460000000.0 -0.5563091522370178 -0.41784001315276836
2480000000.0 0.728852569406787 0.02029643694995714
2500000000.0 -0.747299980345243 0.08542247492940087
2520000000.0 0.7646657848785353 -0.034949604894875815
2540000000.0 -0.7459423015020136 -0.18856728623362706
2560000000.0 0.5025610928138056 0.5795953986870205
2580000000.0 0.020128489205813345 -0.7545093606946781
2600000000.0 -0.5780251753019267 0.452676419722154
2620000000.0 0.7062161170792068 0.009028079668490558
2640000000.0 0.5573726006156742 -0.37521491345024166
2660000000.0 -0.62548249926996 -0.06692622617048288
2680000000.0 0.4367724282155162 0.38647143478494655
2700000000.0 -0.07361584605183406 -0.5313090664611991
2720000000.0 -0.1798980419757796 0.45386118532178477
2740000000.0 0.4177269625528203 -0.14707611419859826
2760000000.0 -0.4013084350830574 0.024039931314793896
2780000000.0 0.3692085084677918 0.020935929192762444
2800000000.0 -0.3400739740244768 0.03322458153749871
2820000000.0 0.21222100704732982 -0.24335508448109858
2840000000.0 -0.00750135471257523 0.3092627641600185
2860000000.0 -0.23985244160226252 -0.18662875841919568
2880000000.0 0.278471361093489 -0.11679390427033955
2900000000.0 -0.1882465675947762 0.23502758602988572
2920000000.0 0.26576239583817496 -0.14381328879208383
2940000000.0 -0.2529918170681125 -0.17053588039242207
2960000000.0 -0.2817764948357859 0.12600613294135157
2980000000.0 -0.26993821694835246 0.15866111605320762
3000000000.0 -0.2975377020208834 0.1036766580819196
3020000000.0 -0.256722942756265 -0.18334832015851704
3040000000.0 0.14085275222079796 -0.27924234901161665
3060000000.0 0.026116371923021804 0.3074999002745859
3080000000.0 -0.1085700802985777 -0.2838387151493941
3100000000.0 0.0934616924980343 0.28406153516927996
3120000000.0 -0.23814447880380007 -0.17341224458749083
3140000000.0 0.2836180302207667 -0.03474764238887314
3160000000.0 -0.1802964245358082 -0.2024854076320563
3180000000.0 0.2513725269557183 -0.049781025379506426
3200000000.0 0.04722558309698283 0.22805965559202265
3220000000.0 -0.20296539417560788 0.04276824630808694
3240000000.0 -0.02393359564116441 -0.1764990945860354
3260000000.0 0.13579709975550877 0.05183737007723336
3280000000.0 -0.11304901457349913 -0.013545681169229372
3300000000.0 0.08322412974512279 0.010449068058777471
3320000000.0 -0.05605086138190161 0.0008583341852526009
3340000000.0 0.031181401467474997 0.005676319418355447
3360000000.0 0.009712941608171185 0.008176849199261779
3380000000.0 0.003920647047280424 0.004582839347101832
3400000000.0 -0.012968843716968985 -0.013080787396505204
3420000000.0 0.015992983274677797 -0.026702110668636165
3440000000.0 -0.007552879985430511 0.04126374768117206
3460000000.0 -0.025513063099945853 0.04496220698839765
3480000000.0 -0.05779074277765863 0.026581179447902663
3500000000.0 0.06462002262119734 0.04525959313915096
3520000000.0 -0.02236201510726195 -0.0910552770800425
3540000000.0 0.05964512642047938 0.09134198452249143
3560000000.0 -0.12110815474663716 0.024364638032707785
3580000000.0 0.07517243877700859 -0.11531098956867754
3600000000.0 0.15252109602728584 0.02509494572748452
3620000000.0 0.07425299309784321 0.14742409940171178
3640000000.0 -0.0680447976098455 0.1628803419949675
3660000000.0 -0.17252314414221126 0.07085283274978413
3680000000.0 -0.18014661738852603 -0.06421705388940549
3700000000.0 -0.16114011139781279 -0.1043224833818047
3720000000.0 0.014419806028242542 -0.1898533595301491
3740000000.0 0.13554943157050725 -0.12413221666317574
3760000000.0 -0.16368859704552446 0.07088766072348014
3780000000.0 0.1641964242200539 -0.04070637901768558
3800000000.0 -0.060301638268147266 -0.15010202687188637
3820000000.0 -0.14777371105824974 -0.04202568032374828
3840000000.0 -0.07387755590953007 -0.1256458655190164
3860000000.0 0.1157272098746079 0.08951400246255274
3880000000.0 0.08232364816893045 0.12687206334983223
3900000000.0 0.14843029273300423 -0.05443855609007892
3920000000.0 -0.15950706705440063 -0.02961992128852626
3940000000.0 0.14458514132942288 -0.08254209003361279
3960000000.0 0.1528844751864016 0.07684585621747785
3980000000.0 0.1425547391903632 -0.0938422599189717
4000000000.0 0.15194037730427648 -0.06236793152324507
