!Created with skrf (http://scikit-rf.org).
# Hz S RI R 50.0 
!freq ReS11 ImS11
400000000.0 -0.703285955995106 0.5136431605233386
420000000.0 0.5703628752569498 0.6566410657204677
440000000.0 0.6648942618168222 -0.5078710555253702
460000000.0 -0.28967125466043103 -0.7294377036864667
480000000.0 0.6995963389746788 0.10538045854191307
500000000.0 0.23237544061237325 -0.535122219092658
520000000.0 -0.48875761121732647 0.054965061513765144
540000000.0 0.02593965363866733 0.4220808947493056
560000000.0 -0.34869917260518624 -0.1604493767318733
580000000.0 0.3026647450626646 -0.17633340972148648
600000000.0 -0.0265358463190716 -0.3530867450278464
620000000.0 0.176663791818395 0.3243411954932547
640000000.0 0.30268277171517743 -0.25464426345811053
660000000.0 -0.3503179791486744 -0.20789556903568274
680000000.0 0.3773464210520963 -0.1890657262716947
700000000.0 -0.24359828656263602 -0.3510666827413726
720000000.0 -0.4251737298711952 -0.020753180274197564
740000000.0 0.3159249370804265 -0.2688356980778413
760000000.0 -0.36412527248470894 -0.15175622324246824
780000000.0 0.2863560614949456 0.21683463985294393
800000000.0 0.187760110466256 -0.26178482110074947
820000000.0 -0.2669549347645355 0.07409637428358941
840000000.0 -0.082560513887425 0.22156572992447424
860000000.0 0.00507709284040014 -0.2001062923423858
880000000.0 0.06138126103249727 0.1475631259306692
900000000.0 0.09509604736860983 -0.05880683677637914
920000000.0 0.007509582660349058 0.07262429649622763
940000000.0 0.04051027205816244 0.019119779489352295
960000000.0 -0.04745220152433005 -0.01717787513443672
980000000.0 0.05579716440584886 0.041047967436055544
1000000000.0 0.026934859971961506 -0.08251424126393081
1020000000.0 0.051799566398619344 -0.09069698959279898
1040000000.0 0.10224464891448669 0.062248163027631656
1060000000.0 0.07132864015852755 0.14059981572556954
1080000000.0 0.12556986249509355 0.12282552869708199
1100000000.0 -0.10699455177214202 -0.16901634251692546
1120000000.0 0.219630804437613 -0.02153841715805566
1140000000.0 -0.10320791360804393 -0.22941741672916813
1160000000.0 -0.27541999219323177 -0.03779519238695989
1180000000.0 -0.1311995168901362 -0.28396256189198205
1200000000.0 0.2761195645985123 -0.19335589310831697
1220000000.0 -0.30989107407734173 0.19285583393784728
1240000000.0 0.3639920274337752 0.12628586613964818
1260000000.0 -0.10848862858560619 -0.3953396595673643
1280000000.0 -0.4156296543084571 0.09249697396317404
1300000000.0 0.29095840229605724 0.3265837000329905
1320000000.0 0.4192103354974506 0.1313504107775111
1340000000.0 0.43952617764291924 0.007435514932069448
1360000000.0 0.44151418936979164 0.01193940180887582
1380000000.0 0.24642196727979634 -0.36211809676867357
1400000000.0 -0.3981492247187319 -0.1590490905733339
1420000000.0 0.01338238856581272 0.41024565466431234
1440000000.0 0.3777645063201757 -0.06404670361078836
1460000000.0 0.021251159495655512 -0.35097093327309914
1480000000.0 -0.3190901311603649 0.009536581790666103
1500000000.0 -0.10349280342995952 0.26562117334768726
1520000000.0 0.04449041848050523 0.2521096533896116
1540000000.0 -0.14239033488858183 -0.1764563961540997
1560000000.0 0.11708605213178581 -0.1533871130754288
1580000000.0 0.07806574233237641 0.14568934042265647
1600000000.0 0.1014526976166659 -0.08319276546045744
1620000000.0 0.10075787626358691 -0.01467165447758668
1640000000.0 -0.01765030411178582 0.07463558566199584
1660000000.0 0.03154100988960323 -0.04361344441118686
1680000000.0 0.0042523112263459575 0.03538184855060993
1700000000.0 -0.017022749268322507 -0.013812172801201603
1720000000.0 -0.004097119219329884 -0.003099240729533459
1740000000.0 -0.0139298345571478 0.004005815190638787
1760000000.0 0.03202887560632044 -0.003908769967262556
1780000000.0 0.028679328782208368 0.05439411908492013
1800000000.0 -0.09288290382251628 -0.016015424892541052
1820000000.0 -0.12094554696945861 0.030715431473004498
1840000000.0 0.14074578968679197 -0.08039611565639024
1860000000.0 -0.19822965294734243 0.011580142374984415
1880000000.0 0.23473180575660782 0.04274588277375605
1900000000.0 -0.28278868815312713 -0.0029171420903913365
1920000000.0 0.3022203902660096 -0.09744834493607346
1940000000.0 -0.34805574857957294 -0.05127746089455656
1960000000.0 0.30049499521676076 0.23025561996095528
1980000000.0 -0.015212430012071293 -0.3959798202570017
2000000000.0 -0.3738763234229055 -0.1743917287309513
2020000000.0 -0.23975797834429477 0.34954781395474044
2040000000.0 0.06592518009526219 0.4256166685337523
2060000000.0 0.42621791758471805 0.07452611527842741
2080000000.0 0.31560290205262426 -0.2912411709441325
2100000000.0 0.12531028888676252 -0.40190044470195213
2120000000.0 -0.0617589181005626 -0.40770559322545125
2140000000.0 -0.16551778450844273 -0.3671280241271669
2160000000.0 0.2609136590705478 -0.2898540174867575
2180000000.0 0.01784076571546533 -0.37676944173071764
2200000000.0 -0.26178134100174355 -0.25131216707912346
2220000000.0 -0.3022283748446116 -0.17835700784669847
2240000000.0 -0.3376755354188252 0.07563254677859277
2260000000.0 -0.2745510529284514 0.20963204287562168
2280000000.0 -0.07543920957075709 0.34062651871727573
2300000000.0 0.29230230591509826 0.209103818851614
2320000000.0 0.34721886027413545 -0.1566552150621631
2340000000.0 -0.08569438047109385 -0.40395278622848885
2360000000.0 -0.28301967997387517 0.3549413699255638
2380000000.0 0.4358400137480288 -0.24675567890385353
2400000000.0 -0.4684655132024098 0.2910490528992176
2420000000.0 0.33728747732154246 -0.5016091204463514
2440000000.0 0.09729673796194653 0.6468092476482907
2460000000.0 -0.5569081088268228 -0.4174951570926047
2480000000.0 0.7286420455255428 0.03053480148255598
2500000000.0 -0.7409384037136724 0.12857103875510734
2520000000.0 0.7567559344547191 -0.11338456174170126
2540000000.0 -0.7549528109085846 -0.14873767237373656
2560000000.0 0.5494255480313254 0.5348443205797686
2580000000.0 0.053482959548025705 -0.752949385359339
2600000000.0 -0.556736586531111 0.4776795155311406
2620000000.0 0.7014673802313787 0.07831532043410583
2640000000.0 0.5736142717456411 -0.34828157131318943
2660000000.0 -0.6259849198159843 -0.058632669276796966
2680000000.0 0.4140478248049196 0.4098705250195637
2700000000.0 -0.041479927611911924 -0.5340348561132053
2720000000.0 -0.21581113156359313 0.4361702248789696
2740000000.0 0.40426209681031566 -0.17608331108761402
2760000000.0 -0.3989389231296289 0.02409742313934736
2780000000.0 0.3680057289866227 0.007864133505238952
2800000000.0 -0.3332324482698585 0.06881924796796642
2820000000.0 0.174058167771467 -0.2703292028330954
2840000000.0 0.04716245536288017 0.3044835343397288
2860000000.0 -0.2740637059701833 -0.1302500048258492
2880000000.0 0.24558552736631692 -0.17518776673926584
2900000000.0 -0.11420934424728514 0.27808767339632234
2920000000.0 0.2327042207537638 -0.1940120308809518
2940000000.0 -0.2682188273557707 -0.1482451672122678
2960000000.0 -0.26817215363482483 0.15321412951646723
2980000000.0 -0.26608348339631543 0.16451844778008937
3000000000.0 -0.3012435257808817 0.09538770474165019
3020000000.0 -0.267986603212006 -0.1678526984032166
3040000000.0 0.13724622303720582 -0.2814127889600789
3060000000.0 -0.011774448178791362 0.30876356247924336
3080000000.0 -0.02422062628222754 -0.30283918485508704
3100000000.0 0.09209662885758772 0.2842372906972623
3120000000.0 -0.20918772897710697 -0.2065978270703016
3140000000.0 0.2808844693427281 0.04659497642008295
3160000000.0 -0.18431031520175634 0.19707636427922492
3180000000.0 0.2531345664175371 0.02631897938533604
3200000000.0 0.017029076105778695 0.23108600270755658
3220000000.0 -0.20509194839651254 0.017294961861970843
3240000000.0 -0.006733131726499411 -0.17631874800050024
3260000000.0 0.13541329126800178 0.04947659856129061
3280000000.0 -0.10680375004128884 -0.035794589915176346
3300000000.0 0.08143355224079989 -0.016693009178072375
3320000000.0 -0.049732223133610316 0.023366321878205774
3340000000.0 0.027417180043588694 0.012342026735977955
3360000000.0 -0.007353574701498648 -0.009067730114244619
3380000000.0 -0.0023472364662926754 -0.006876458073911022
3400000000.0 0.005259479732956588 -0.018894867357813976
3420000000.0 0.009059880158127722 -0.03093296349008457
3440000000.0 -0.026749379255317233 0.03369167735997391
3460000000.0 -0.022036948494202957 0.04808341741660058
3480000000.0 -0.03662323304900558 0.053587315956476284
3500000000.0 0.0791667345595063 1.2326291403217129e-05
3520000000.0 -0.06089481023528216 -0.0721015909371798
3540000000.0 0.08124307660809721 0.07407517469573423
3560000000.0 -0.09851735403932387 0.0759022009868177
3580000000.0 0.04834841923885474 -0.129139469691909
3600000000.0 0.15279819356658716 0.018986335075034076
3620000000.0 0.11533566640718061 0.1197874976625466
3640000000.0 -0.0052597219813000804 0.17612940323994944
3660000000.0 -0.15723397547691553 0.10118129728146037
3680000000.0 -0.1909758881290215 -0.020921095302501337
3700000000.0 -0.18171245526993182 -0.06612598202440756
3720000000.0 0.000903808232797414 -0.1920301330111739
3740000000.0 0.12484090796313421 -0.13704767100180987
3760000000.0 -0.17167266433923814 0.05288470928995963
3780000000.0 0.16745446486927257 -0.0341390435410225
3800000000.0 -0.055215562709949116 -0.1534965722745484
3820000000.0 -0.13475710789261167 -0.07680687371750558
3840000000.0 -0.06234765271286455 -0.13288901378233386
3860000000.0 0.09066703812284291 0.11634731681350301
3880000000.0 0.10362892041067005 0.11233687974469281
3900000000.0 0.157384009136054 -0.0260082964865966
3920000000.0 -0.1575647052614254 -0.043110943798250874
3940000000.0 0.14621018412508707 -0.08205594975057165
3960000000.0 0.12987286017723654 0.11377796088983118
3980000000.0 0.1656882931127856 -0.048494667586252774
4000000000.0 0.16293953664113295 0.03396251103481941
