!Created with skrf (http://scikit-rf.org).
# Hz S RI R 50.0 
!freq ReS11 ImS11
400000000.0 -0.6685356385854889 0.5603201031372035
420000000.0 0.5602499194951518 0.6653586021242753
440000000.0 0.6034451974585342 -0.57938260363926
460000000.0 -0.33347530824727833 -0.7103088235948705
480000000.0 0.6937852677072188 0.14097717389206046
500000000.0 0.25340274647333516 -0.5252698097270982
520000000.0 -0.4853108555216707 -0.08867135538566942
540000000.0 0.16742559921723305 0.3880102269729571
560000000.0 -0.318215021974883 -0.21104927009306643
580000000.0 0.3305518630027037 -0.11623798456778021
600000000.0 0.038513286363801136 -0.3535806761047654
620000000.0 0.2938308591564064 0.2203574034888149
640000000.0 0.2441852894152406 -0.3127395315504987
660000000.0 -0.35609123593524455 -0.19709155414726393
680000000.0 0.3584976179570112 -0.2247726081193285
700000000.0 -0.2588143484070959 -0.33968716738412397
720000000.0 -0.4253106950803218 -0.005744140087889935
740000000.0 0.32639991412930003 -0.25658721511026317
760000000.0 -0.34654687732243783 -0.1878523455423654
780000000.0 0.2684057971944666 0.2390813234367029
800000000.0 0.19253311250921654 -0.2586774046175727
820000000.0 -0.2728148353930983 0.044924161015430904
840000000.0 -0.13747845142695733 0.19118864755825019
860000000.0 -0.04945556679142689 -0.19442196707766585
880000000.0 0.09881407557314748 0.12517536636425802
900000000.0 0.10355376474785323 -0.04322921533746044
920000000.0 0.014411611103849465 0.07197298609906179
940000000.0 0.020712120607908432 0.03939773548329049
960000000.0 -0.045965129609461954 -0.02189302190312234
980000000.0 0.06131164806757972 0.03259484452092868
1000000000.0 0.04045478069423081 -0.07676731305957733
1020000000.0 0.05313764831803665 -0.08987134141159703
1040000000.0 0.10076968427733543 0.06438817371382838
1060000000.0 0.06669228465580533 0.14311390290297887
1080000000.0 0.1433116203526786 0.10196166680651018
1100000000.0 -0.10518009518521318 -0.17043795324407046
1120000000.0 0.22006398174355649 -0.015352636518171108
1140000000.0 -0.11038126289862144 -0.22663861758718892
1160000000.0 -0.2751101284738554 -0.04135168366964719
1180000000.0 -0.10875663346330973 -0.29336830948823583
1200000000.0 0.27506782658192985 -0.1959371016483395
1220000000.0 -0.2951925045160542 0.21436740316673916
1240000000.0 0.35645237014675385 0.14645254112053763
1260000000.0 -0.13115365856097197 -0.3883615886262485
1280000000.0 -0.41165295956451287 0.10808926144128053
1300000000.0 0.3079246776480111 0.3102816951346665
1320000000.0 0.4203560421867676 0.12665001985637056
1340000000.0 0.4394784271364145 0.0013542400426520328
1360000000.0 0.4411536156243948 0.01694827331059369
1380000000.0 0.22293982836822046 -0.37700215394493575
1400000000.0 -0.4008991642134884 -0.1520651309904076
1420000000.0 0.03321039369411208 0.4089778077658245
1440000000.0 0.3752390135442234 -0.07877117188789438
1460000000.0 -0.004305650613125332 -0.35123218329842193
1480000000.0 -0.3185823255368436 -0.025566607738189938
1500000000.0 -0.09285249184185221 0.26995653210138504
1520000000.0 0.07227037784935404 0.24578159745824882
1540000000.0 -0.12977165707429203 -0.1864140720790245
1560000000.0 0.1274374798891514 -0.1450488298230099
1580000000.0 0.10392989413363275 0.12841997000395883
1600000000.0 0.12052776206091259 -0.05305326393351341
1620000000.0 0.09693003654589383 0.03082723687048162
1640000000.0 -0.04462129205579902 0.0623181471614082
1660000000.0 0.04724028116020707 -0.0249200660012535
1680000000.0 -0.021510605487926118 0.027527716145970542
1700000000.0 -0.0069196874941707285 -0.020325788809255653
1720000000.0 0.0022165091144494033 -0.0038616413813339703
1740000000.0 0.01026878953271513 -0.011213696573135363
1760000000.0 0.025166928628486806 0.020686126356647672
1780000000.0 0.016566799167777802 0.0592316533151666
1800000000.0 -0.0869871494392646 -0.03613813647893081
1820000000.0 -0.1247338870957342 0.001611123216911657
1840000000.0 0.15327144736472834 -0.052972758777289214
1860000000.0 -0.19840056639817935 0.00019454469927148766
1880000000.0 0.2349075717982218 0.039909975958384226
1900000000.0 -0.28235761256549746 -0.011221764840214567
1920000000.0 0.3061485111439214 -0.08447066175779337
1940000000.0 -0.3496459113988965 -0.03874040781771581
1960000000.0 0.3041803181885479 0.22504795704765934
1980000000.0 -0.031325434471220416 -0.3950293019733385
2000000000.0 -0.3709343476343737 -0.18161525584761104
2020000000.0 -0.23199354977615863 0.35503087571219694
2040000000.0 0.10388434204692107 0.4185224055070802
2060000000.0 0.42764201541913444 0.06972025773361401
2080000000.0 0.314689930108639 -0.2931958225786463
2100000000.0 0.13576449440931837 -0.3993385288838607
2120000000.0 -0.017682252594990122 -0.41249423982332617
2140000000.0 -0.13288802430245594 -0.381016193970949
2160000000.0 0.2920636521028558 -0.25987896198428256
2180000000.0 0.05793054467862113 -0.37298567368997604
2200000000.0 -0.20742149890914202 -0.2983936206283812
2220000000.0 -0.2628610263364649 -0.23298912097511043
2240000000.0 -0.345550887869668 0.024034892759497717
2260000000.0 -0.311588566326705 0.14968004071852495
2280000000.0 -0.12820573608003827 0.3244187334519373
2300000000.0 0.26574202626251264 0.24230100767639223
2320000000.0 0.3633424527033694 -0.11361873328265273
2340000000.0 -0.04082193701743996 -0.4109571362419169
2360000000.0 -0.30571109914692324 0.3350215476579945
2380000000.0 0.42116951374200984 -0.2706770527717912
2400000000.0 -0.45862705117060354 0.306329870098203
2420000000.0 0.2934495844497786 -0.528580962739745
2440000000.0 0.1147164549283949 0.6441493113553509
2460000000.0 -0.5760928918976823 -0.3912439788513575
2480000000.0 0.7294927446144801 0.0004953840969987883
2500000000.0 -0.7460737915113695 0.09498142226756201
2520000000.0 0.760660617139449 -0.08547661487126788
2540000000.0 -0.7546619235386542 -0.150958840199131
2560000000.0 0.5190524646401767 0.5646565474096985
2580000000.0 0.08182221311688355 -0.750017205218875
2600000000.0 -0.5306611605665591 0.5055933138902564
2620000000.0 0.7052812507635335 -0.002478873235219035
2640000000.0 0.534039032526068 -0.4064971420468375
2660000000.0 -0.6263037898809517 -0.04877183569690406
2680000000.0 0.4040016538247475 0.41955265090860494
2700000000.0 -0.04171155063961434 -0.533505800115564
2720000000.0 -0.18706606672554962 0.4496702329375465
2740000000.0 0.4072211503281821 -0.16923969081140092
2760000000.0 -0.3957887355680529 0.06048309524001597
2780000000.0 0.3680065843244762 -0.022155832037474062
2800000000.0 -0.3307385190879607 0.08328768987200046
2820000000.0 0.18400905606321388 -0.26452753328130385
2840000000.0 0.03692442349099657 0.3068369890324756
2860000000.0 -0.25369547088967026 -0.1668208293480037
2880000000.0 0.2560607572258523 -0.15963026925697182
2900000000.0 -0.14224311024325284 0.26540240772076207
2920000000.0 0.26443308646730385 -0.14705242900605983
2940000000.0 -0.23893928145819576 -0.1913787713365035
2960000000.0 -0.26750824424944175 0.15411030638602044
2980000000.0 -0.24966174801157925 0.18973850671277598
3000000000.0 -0.3055037043946604 0.08291212898828432
3020000000.0 -0.24624205341423827 -0.19918333690129364
3040000000.0 0.22194666946754776 -0.22127448835012606
3060000000.0 -0.06978117340650337 0.3013337181754023
3080000000.0 -0.0645440924666618 -0.29801115831990377
3100000000.0 0.09687233568258756 0.283835620960359
3120000000.0 -0.153167655064205 -0.2513105698590775
3140000000.0 0.27951975244510874 0.05896786322638766
3160000000.0 -0.20047511079720864 0.18216771392664982
3180000000.0 0.2550757265906955 0.013091031448429578
3200000000.0 -0.028700030985295097 0.2303780006984788
3220000000.0 -0.20643204957455155 0.004028798154967215
3240000000.0 0.015789790239307436 -0.17583407945067459
3260000000.0 0.1295823723967933 0.06250023374225261
3280000000.0 -0.10421970959296105 -0.041860258497133755
3300000000.0 0.08249000332054225 0.00043259817725338625
3320000000.0 -0.048878710481456804 0.024036925131979834
3340000000.0 0.000275014411600791 -0.030076504841851908
3360000000.0 -0.010065438747564732 -0.005483036587420077
3380000000.0 0.000494274148378354 -0.006762261591498261
3400000000.0 0.007864427778487795 -0.017447973769273314
3420000000.0 -0.010033963211510129 -0.030272634654958438
3440000000.0 -0.0376181785742245 0.021444939399748102
3460000000.0 -0.043858851485089154 0.029544278272531276
3480000000.0 -0.0634471789260779 0.010329005688978859
3500000000.0 0.06761733566055225 0.04213650656911821
3520000000.0 -0.00920927789572165 -0.09329105772810384
3540000000.0 0.07445535611320185 0.08043528658619772
3560000000.0 -0.12088560542264226 0.02721935054690588
3580000000.0 0.08486865756103769 -0.10776959605909532
3600000000.0 0.1497973669223872 0.03725261990739792
3620000000.0 0.08643890140869609 0.1410394925222203
3640000000.0 -0.08573840597863555 0.15289184739715214
3660000000.0 -0.17858075885335314 0.04917546618600343
3680000000.0 -0.16847038345436055 -0.08796366201382713
3700000000.0 -0.1667010991190807 -0.09377883823600554
3720000000.0 0.011199523429580685 -0.18944129046607847
3740000000.0 0.1304093170442911 -0.12943882290076497
3760000000.0 -0.17755121530475357 0.020483437460015363
3780000000.0 0.16542052860331252 -0.036264612890168406
3800000000.0 -0.060805855523319866 -0.15062254799998323
3820000000.0 -0.14927830466511255 -0.03705821465614456
3840000000.0 -0.10071988567588745 -0.10415409997579865
3860000000.0 0.12035871009770908 0.08395375166621052
3880000000.0 0.08235322622813993 0.12781187858168214
3900000000.0 0.15375106824377166 -0.03706099008980875
3920000000.0 -0.16190025983686931 -0.012478743281069715
3940000000.0 0.13804900130153253 -0.09368947033770687
3960000000.0 0.13025571004989234 0.11187282947741556
3980000000.0 0.15224898519023322 -0.07767274099238129
4000000000.0 0.1556973398060599 -0.04937728173479666
