!Created with skrf (http://scikit-rf.org).
# Hz S RI R 50.0 
!freq ReS11 ImS11
400000000.0 -0.6762002837191656 0.5503081265245998
420000000.0 0.5507925682007924 0.6727616377555258
440000000.0 0.6022123169643528 -0.5803348234036776
460000000.0 -0.33833361409436546 -0.7076359427986582
480000000.0 0.6933045903522858 0.14297012504697199
500000000.0 0.24450725519993027 -0.5294200335827051
520000000.0 -0.48619114446681805 -0.08356445428836867
540000000.0 0.1548887229610177 0.3933152284103839
560000000.0 -0.3206849186054664 -0.20693290843883883
580000000.0 0.31686289218279795 -0.1493112193721063
600000000.0 0.023041396417764648 -0.3548684135410924
620000000.0 0.26497574736220714 0.2539917439006347
640000000.0 0.2630455499768765 -0.2966146930850093
660000000.0 -0.3440470443586994 -0.2171637969655155
680000000.0 0.3559943362462917 -0.2287427620506493
700000000.0 -0.26464536112533205 -0.33529893730619487
720000000.0 -0.425326511891191 -1.6141881681093586e-05
740000000.0 0.3274669476246883 -0.2554076865283376
760000000.0 -0.3492188587138877 -0.18280329964050063
780000000.0 0.2693651691758394 0.23817020779341652
800000000.0 0.18974459080954645 -0.26069710207725266
820000000.0 -0.2723502184585806 0.04797588157835681
840000000.0 -0.14046024227852577 0.18914364200301342
860000000.0 -0.035718175960261285 -0.19739268367224194
880000000.0 0.08421034090807152 0.13513726971825193
900000000.0 0.10185283051389522 -0.045608260350431695
920000000.0 0.026039046616737012 0.06819803247898572
940000000.0 0.034353613612539066 0.02792090775229507
960000000.0 -0.050105831198599404 -0.009650001024178052
980000000.0 0.060460636608915354 0.03445214370863103
1000000000.0 0.04228997989970035 -0.07594361655822793
1020000000.0 0.06206001340885094 -0.08409203185861658
1040000000.0 0.09526542520409946 0.0723313726305098
1060000000.0 0.06183656084737096 0.1451893054530634
1080000000.0 0.13522094836112747 0.11223767506939106
1100000000.0 -0.10210790049283003 -0.1721844444914082
1120000000.0 0.22037469268702484 -0.006352273851717334
1140000000.0 -0.11035303394254124 -0.22638952945733368
1160000000.0 -0.27320410703493153 -0.05095164271595782
1180000000.0 -0.10893082887475568 -0.293198006338552
1200000000.0 0.2696170265980929 -0.20315864106742784
1220000000.0 -0.2888884438358023 0.22257307559167405
1240000000.0 0.3623400155280362 0.13145560598675127
1260000000.0 -0.13083232356777985 -0.38836034450510387
1280000000.0 -0.411140054793915 0.10999148834187326
1300000000.0 0.30263503408179165 0.3155899362828554
1320000000.0 0.4206272215103667 0.1266204968250766
1340000000.0 0.43961651636228205 -0.0010498152539764325
1360000000.0 0.4409804618232612 0.024258829840194143
1380000000.0 0.2391013528318385 -0.3671285911542839
1400000000.0 -0.3977346535522914 -0.16044859181334173
1420000000.0 0.015423192539235483 0.41033250521927406
1440000000.0 0.3760712367564798 -0.07426033623637665
1460000000.0 0.006209855467252019 -0.3512177107322946
1480000000.0 -0.3194630625942646 -0.007028140181567549
1500000000.0 -0.10578901964576581 0.26495529690842096
1520000000.0 0.05482978501067171 0.25044754025577537
1540000000.0 -0.13209249106013138 -0.18476179604940646
1560000000.0 0.1286048477463184 -0.14391041871492646
1580000000.0 0.07466174967854171 0.14748071623683584
1600000000.0 0.10855174748284174 -0.07430548273498652
1620000000.0 0.09987234223110003 0.0192401585750533
1640000000.0 -0.03659775959435741 0.06735675149708002
1660000000.0 0.04492947965775217 -0.028816612352352305
1680000000.0 -0.014537223653615657 0.03199913823167736
1700000000.0 0.012362732719445824 -0.01732237648274476
1720000000.0 0.004252300162281259 -0.0014416818840351188
1740000000.0 0.009502401312355692 0.011541813367180551
1760000000.0 0.02140109573248977 0.02452692908020654
1780000000.0 0.011713351265825723 0.06038559703524661
1800000000.0 -0.08827781645329029 -0.033107874735489345
1820000000.0 -0.12459815871280133 -0.00021393404716509417
1840000000.0 0.152633566083012 -0.05473673097073273
1860000000.0 -0.19831913473315038 -0.001250494571268432
1880000000.0 0.23529671157174287 0.03762711283622767
1900000000.0 -0.28243602940661233 -0.01032814773119967
1920000000.0 0.30631938877662207 -0.0838408598161336
1940000000.0 -0.34997547338710194 -0.035763913048074865
1960000000.0 0.3032445688058084 0.22628755966904301
1980000000.0 -0.02501344596256042 -0.39552993635852646
2000000000.0 -0.3673379620286334 -0.18859177106189093
2020000000.0 -0.24567043734931365 0.34586161037610197
2040000000.0 0.1170013763063374 0.415004237138713
2060000000.0 0.4279159216471336 0.06693515425854335
2080000000.0 0.30535495810778834 -0.3025685318457734
2100000000.0 0.12480286999883525 -0.40278163260750616
2120000000.0 -0.022388096887088184 -0.4121317855571756
2140000000.0 -0.13580073506388535 -0.3798486975262638
2160000000.0 0.2825105808951253 -0.27028238904452284
2180000000.0 0.046503768421142004 -0.37434941063931076
2200000000.0 -0.2132054666365956 -0.29435621442540133
2220000000.0 -0.2695800902272801 -0.22533647667443185
2240000000.0 -0.34574653300515473 0.022221147121652584
2260000000.0 -0.3028177115607046 0.16758872641629882
2280000000.0 -0.1331025302766083 0.3225229162121207
2300000000.0 0.2558315756463098 0.25287535156660573
2320000000.0 0.3667668406291704 -0.1034526641404617
2340000000.0 -0.028537787616471254 -0.41230815253101977
2360000000.0 -0.31831611495448037 0.32318375004537275
2380000000.0 0.4321963396522691 -0.2530647634732681
2400000000.0 -0.47061667363590204 0.2879229665361022
2420000000.0 0.31171812562478624 -0.5180688144277659
2440000000.0 0.06797120158235108 0.6507112061929808
2460000000.0 -0.5709607941830742 -0.3985051118717359
2480000000.0 0.7291912678579536 0.005134989565660219
2500000000.0 -0.7503777675508378 0.05087137541958722
2520000000.0 0.7645609807544608 -0.030100705861958527
2540000000.0 -0.7550355223397031 -0.14846045437514055
2560000000.0 0.5175239774148941 0.5657736220515978
2580000000.0 0.03441858898396747 -0.7536440858333688
2600000000.0 -0.5384558611789563 0.49741866313824656
2620000000.0 0.704743287259902 0.029066526157169037
2640000000.0 0.5339239046491043 -0.40717736773782887
2660000000.0 -0.6271019280730007 -0.04315289959447549
2680000000.0 0.3794731878783237 0.4423478482959197
2700000000.0 -0.037634361492691344 -0.5342647290509398
2720000000.0 -0.197495599487387 0.44578385139652554
2740000000.0 0.3981305049299765 -0.19133145201278703
2760000000.0 -0.39950328691729925 0.03238808945871102
2780000000.0 0.3688957772783637 -0.003974747551633849
2800000000.0 -0.336057923465056 0.05947013690151628
2820000000.0 0.20220273011599316 -0.25105081714629385
2840000000.0 0.004533056581047096 0.30908541780730847
2860000000.0 -0.24276739193558208 -0.1825528719228199
2880000000.0 0.2650493589127454 -0.14392598539132803
2900000000.0 -0.1526284481221224 0.25935973192896844
2920000000.0 0.2558842063957492 -0.16051038067701268
2940000000.0 -0.25376821651790504 -0.170622391827736
2960000000.0 -0.2741763710016065 0.1417822937157185
2980000000.0 -0.23587020486576232 0.20714924381822114
3000000000.0 -0.2945649466403002 0.11469449389581302
3020000000.0 -0.27166909097217123 -0.1622566630209998
3040000000.0 0.20968146728786952 -0.23264965460298653
3060000000.0 0.020394090485621585 0.30892568485301003
3080000000.0 -0.08562846580672565 -0.2924796075099071
3100000000.0 0.1076984002212785 0.2798533323196075
3120000000.0 -0.1879578424236564 -0.22668394093833594
3140000000.0 0.28485042800806043 0.02246019406535448
3160000000.0 -0.1721062174855715 0.2093070997471452
3180000000.0 0.25546352133066214 -0.00710997483192299
3200000000.0 0.005978489774239352 0.2323555852147033
3220000000.0 -0.20475694752992024 0.024829100837019745
3240000000.0 0.0043894676089643115 -0.17675781667132906
3260000000.0 0.12894059189086796 0.06462671692471991
3280000000.0 -0.11132437500279672 -0.016371536535556796
3300000000.0 0.08282498391290415 0.0012116980916624233
3320000000.0 -0.04680895504804035 0.028335891802499607
3340000000.0 0.006085489538943421 -0.029969736336656335
3360000000.0 0.00529242180203537 0.010998147439281113
3380000000.0 -0.0026715514667219158 0.0059631731832286
3400000000.0 0.0114998855408333 -0.014866267458127212
3420000000.0 0.017502026091673756 -0.026120575851525225
3440000000.0 0.0002045584930525251 0.0430612706901152
3460000000.0 -0.045583939883268115 0.02606233974859376
3480000000.0 -0.05838077805095255 0.026063268928654522
3500000000.0 0.07304750980403812 0.030964220292346117
3520000000.0 -0.03846154201933716 -0.0852706272374099
3540000000.0 0.07996432536555409 0.07450902071234708
3560000000.0 -0.12005440914396075 0.029050449380013443
3580000000.0 0.07120862135888911 -0.11697202145274309
3600000000.0 0.15351888606966496 0.014698190371926202
3620000000.0 0.10829985781428611 0.12501283305090713
3640000000.0 -0.055812521523447504 0.1662497725405236
3660000000.0 -0.16731727755025586 0.07954724193779132
3680000000.0 -0.1831354658261751 -0.05177815217312683
3700000000.0 -0.1764073960826527 -0.07424228897199531
3720000000.0 -0.011561333724352883 -0.18942557794506376
3740000000.0 0.11023006120827668 -0.14730651093736766
3760000000.0 -0.17250477235077713 0.04793578205461534
3780000000.0 0.1620248269232296 -0.05123268245000401
3800000000.0 -0.06233334180515234 -0.15036230429575614
3820000000.0 -0.1495361318430573 -0.03871336611850255
3840000000.0 -0.08897392475312489 -0.11514258989351754
3860000000.0 0.12103083412763006 0.08379179026939627
3880000000.0 0.07460822658205013 0.13292540649878243
3900000000.0 0.15227905828911908 -0.04331527953713221
3920000000.0 -0.16253084088377034 -0.0032642541480997133
3940000000.0 0.12725620768196724 -0.10838897373053187
3960000000.0 0.13734131438233207 0.10344008200880861
3980000000.0 0.15497089927793856 -0.07376399022506748
4000000000.0 0.16148988386663496 -0.0281553898228027
