!Created with skrf (http://scikit-rf.org).
# Hz S RI R 50.0 
!freq ReS11 ImS11
400000000.0 -0.6776014272303144 0.5457038188460516
420000000.0 0.5714670344689041 0.6536184522553403
440000000.0 0.5774377400581775 -0.6035890646137593
460000000.0 -0.3555001959472896 -0.6987668115927634
480000000.0 0.6959975746886647 0.12797768832694584
500000000.0 0.24911620616100233 -0.5266889838256955
520000000.0 -0.48945871188560014 -0.0642771793539392
540000000.0 0.19025913575973508 0.37659358234082496
560000000.0 -0.3169418639479443 -0.21196757749920805
580000000.0 0.27489906984720375 -0.2195149048248289
600000000.0 -0.028815548047960583 -0.35533991589266334
620000000.0 0.2693910479613921 0.2513791216040086
640000000.0 0.3159613627783831 -0.2432519113022276
660000000.0 -0.3119685799127653 -0.2636809503793644
680000000.0 0.40765771041106197 -0.1184241567541889
700000000.0 -0.14641469328483933 -0.40085600456814646
720000000.0 -0.4174432734971221 -0.08061075640392718
740000000.0 0.3703854591866852 -0.18617078510218157
760000000.0 -0.3358801995491416 -0.20397466436265224
780000000.0 0.2690638652302475 0.2368373642459224
800000000.0 0.1659211213000959 -0.2752146655439509
820000000.0 -0.2535914546556169 0.10803041602727739
840000000.0 -0.04695178397147381 0.23044677506988445
860000000.0 -0.13747069101267073 -0.1464345509026292
880000000.0 0.15482742578600672 0.04275726479617721
900000000.0 0.04327636615591404 -0.10549355407128892
920000000.0 0.018236116151818145 0.07363189469706902
940000000.0 -0.04484078080480788 -0.009030916994293097
960000000.0 0.046844400141139116 -0.018135621432605872
980000000.0 0.02244682543325239 0.0638932591773811
1000000000.0 0.03069953110489067 -0.07940570564875753
1020000000.0 -0.010655238042987854 -0.10242002639825488
1040000000.0 0.11518230203758813 -0.029261865655391843
1060000000.0 0.13393607318226053 0.08379614949555869
1080000000.0 0.17356598707180843 0.03489249695497799
1100000000.0 -0.13981011608392555 -0.14586312715660368
1120000000.0 0.21899091587669944 -0.04085187763009289
1140000000.0 -0.08071172748845291 -0.24091503116269797
1160000000.0 -0.2672458806339181 -0.08483387456637904
1180000000.0 -0.02977954023324355 -0.3131584859375507
1200000000.0 0.3216437890573042 -0.10670728484346728
1220000000.0 -0.3399415412164877 0.134335397125782
1240000000.0 0.3180222196220581 0.21844080785985825
1260000000.0 -0.052360343860995535 -0.4063691925755976
1280000000.0 -0.42265416148304313 0.04656485818708183
1300000000.0 0.2625883702355549 0.34860245033671294
1320000000.0 0.4094706518511323 0.1564996162206855
1340000000.0 0.43860762072529197 0.014230256098509447
1360000000.0 0.4407174205984684 0.01083908031411818
1380000000.0 0.2105818556178388 -0.38350237657033814
1400000000.0 -0.4057981890904856 -0.1377947241535443
1420000000.0 0.05493439630498783 0.40665166723163515
1440000000.0 0.36989131813572546 -0.10114642181517716
1460000000.0 -0.03789815909451591 -0.3494406179022185
1480000000.0 -0.3177686639224112 0.037674414917186254
1500000000.0 -0.056480825481877335 0.2804434725670659
1520000000.0 0.09478285346582845 0.23886670645672337
1540000000.0 -0.12263346063060704 -0.19232180808985663
1560000000.0 0.1330955956393246 -0.14093276252311537
1580000000.0 0.07758290771964546 0.14671135655768258
1600000000.0 0.13192933076614652 -0.008517712290361468
1620000000.0 0.06980567875447624 0.07427010457673805
1640000000.0 -0.07388127420669366 0.019550671304867387
1660000000.0 0.050034955933169416 0.017310922287164496
1680000000.0 -0.03381419241796897 -0.006443266959842929
1700000000.0 -0.01835585129814711 -0.010416212946128716
1720000000.0 -0.0021558857249431565 -0.003410755195951142
1740000000.0 0.01219268855930373 0.009471153114577927
1760000000.0 -0.00020044612835407632 0.032736027525938946
1780000000.0 -0.014580243327192528 0.05955546696982284
1800000000.0 -0.07037600597293091 -0.061933905368046785
1820000000.0 -0.12245405414815218 -0.020323072861340812
1840000000.0 0.1534624637760759 -0.050158154684626026
1860000000.0 -0.19762502499911114 0.008477974809992388
1880000000.0 0.23621992347967372 0.028333636001793273
1900000000.0 -0.2819445515330917 0.015253343767691198
1920000000.0 0.2983867732404731 -0.10871599909214757
1940000000.0 -0.351568615738083 -0.012772139194490661
1960000000.0 0.31888166796803336 0.2041932979399127
1980000000.0 -0.04874276650432666 -0.3935746781649226
2000000000.0 -0.372914833757188 -0.1783832709417855
2020000000.0 -0.22616635411735114 0.35931386078872346
2040000000.0 0.08706390507701643 0.4229213688808754
2060000000.0 0.4236746547789173 0.0928666850408794
2080000000.0 0.3329922949983802 -0.27267930130541035
2100000000.0 0.17408081403116807 -0.38446210331308645
2120000000.0 0.03134181696208574 -0.41184672302051767
2140000000.0 -0.07358177126000877 -0.3965950186112537
2160000000.0 0.29938501439067 -0.2506807347151465
2180000000.0 0.08355472154199359 -0.36727102554125574
2200000000.0 -0.18956260219394688 -0.3089917050876948
2220000000.0 -0.2561274680102425 -0.23912238547708617
2240000000.0 -0.34406928483753363 0.027832936759508823
2260000000.0 -0.2923457970841931 0.18275403695543418
2280000000.0 -0.09123855113733922 0.3356843992661644
2300000000.0 0.2913711887733955 0.20964871410015
2320000000.0 0.3436528990751718 -0.16256938477923172
2340000000.0 -0.08414221172446881 -0.4036696447439604
2360000000.0 -0.2658353597979746 0.36714838492922
2380000000.0 0.3983473975283797 -0.3031590930717131
2400000000.0 -0.43667406553288113 0.33724884851015446
2420000000.0 0.291387734414628 -0.5302595175934698
2440000000.0 0.11221713176862663 0.6451812256047401
2460000000.0 -0.5774623132424038 -0.39021858406069454
2480000000.0 0.7297263728720575 0.021671798895072057
2500000000.0 -0.7438742340396151 0.11365370945745575
2520000000.0 0.7650124388019727 -0.031392479973088305
2540000000.0 -0.7348857037044874 -0.22929010790245793
2560000000.0 0.4839169695258168 0.5946286476383618
2580000000.0 0.17303010768324922 -0.7338683133777759
2600000000.0 -0.5811699439487773 0.4447941388435868
2620000000.0 0.7012630014169252 0.06173656758259644
2640000000.0 0.5633237228397777 -0.3624253487541742
2660000000.0 -0.6204106342700059 -0.08745653748295248
2680000000.0 0.39384819744360483 0.4268656028199149
2700000000.0 -0.028069256265195318 -0.5327243829428947
2720000000.0 -0.193307870334962 0.4454943182601418
2740000000.0 0.39242020967993213 -0.1983020779152387
2760000000.0 -0.38898788249759353 0.09016517510928787
2780000000.0 0.3613101772741857 -0.06827902617813862
2800000000.0 -0.31405756990977235 0.13151333891471706
2820000000.0 0.1352196815716934 -0.2922910504062476
2840000000.0 0.08790860166937618 0.2963060537902475
2860000000.0 -0.26923755544296646 -0.14179765255226878
2880000000.0 0.23840111682906243 -0.18648623536515704
2900000000.0 -0.1378378359618187 0.2689150501707594
2920000000.0 0.27464540024356954 -0.1293918445176469
2940000000.0 -0.22551812545029246 -0.20836058207216868
2960000000.0 -0.28177253886368314 0.1284717326147065
2980000000.0 -0.27417954392349086 0.15491200740677552
3000000000.0 -0.3171753978286309 0.00552381094506865
3020000000.0 -0.1852258051888259 -0.2576417813178925
3040000000.0 0.23514477422027752 -0.20768725756876485
3060000000.0 -0.1385994299348427 0.2764529502576407
3080000000.0 0.039566674663484104 -0.30186268341355954
3100000000.0 0.006388260387061122 0.29941000641338633
3120000000.0 -0.093213451442195 -0.27824158494291057
3140000000.0 0.2654823941149825 0.10240077662965266
3160000000.0 -0.2337333216152051 0.13490190158491347
3180000000.0 0.2498725482086716 0.04487997861910859
3200000000.0 -0.03780048995240735 0.22739083412559932
3220000000.0 -0.2048621024344487 -0.004481652294516032
3240000000.0 -0.004270723316909254 -0.17558233134031087
3260000000.0 0.14118231220484898 0.020732875328703007
3280000000.0 -0.1107319759982728 -0.009311841210418274
3300000000.0 0.04602923197070178 -0.06739586382495162
3320000000.0 0.02431244004035545 0.048177733703617394
3340000000.0 -0.024029499073042717 0.017705153844899336
3360000000.0 0.005262968750965816 0.010558678487723908
3380000000.0 0.007490980193675143 0.0031590806430398877
3400000000.0 -0.017018507453762485 0.0101439248722681
3420000000.0 0.021553534785519055 0.023908681596391253
3440000000.0 -0.04203260050409182 -0.012710672268950982
3460000000.0 -0.050450500968889894 -0.017245261731418517
3480000000.0 -0.04848574872707796 -0.04291971355447478
3500000000.0 0.04453734004348071 0.06656730973851542
3520000000.0 0.060736366040946316 -0.07116582350048768
3540000000.0 0.012026150295091248 0.1086651955098444
3560000000.0 -0.12181948146423395 -0.021415006362264687
3580000000.0 0.1083426680723233 -0.08410225048766404
3600000000.0 0.1383845381691059 0.06741320802250707
3620000000.0 0.05511345894350528 0.15571612026500206
3640000000.0 -0.10292155259485812 0.14187896876910877
3660000000.0 -0.1834015357002903 0.024112933727959255
3680000000.0 -0.15031471435655144 -0.11546199883447371
3700000000.0 -0.14322701339026025 -0.12537550297201974
3720000000.0 0.039137095290816264 -0.1848932817392712
3740000000.0 0.13737990327889588 -0.12107097165048185
3760000000.0 -0.17714574331328742 0.017161813784302125
3780000000.0 0.16339668214465636 -0.041322626296569825
3800000000.0 -0.05540801426910356 -0.15180587853026292
3820000000.0 -0.15104907467063872 -0.02340115847946583
3840000000.0 -0.09904845195680259 -0.10474547831328981
3860000000.0 0.12440415927240497 0.07593784107375977
3880000000.0 0.09173741019968049 0.1195925597289725
3900000000.0 0.1517493556118347 -0.040167090140545605
3920000000.0 -0.160448554537699 0.014299465807392026
3940000000.0 0.10330773117542003 -0.1290538018388855
3960000000.0 0.1539416373704887 0.0722217858717625
3980000000.0 0.10268433413201992 -0.1348916427483531
4000000000.0 0.10860831585604433 -0.12064805121790152
