! Created with skrf (http://scikit-rf.org).
# Hz S RI R 50.0 
!freq ReS11 ImS11
400000000.0 0.025105261347370785 0.8684982268773236
420000000.0 0.5465175729176367 0.6623988058896411
440000000.0 0.7841888677261799 -0.2601452543045019
460000000.0 0.04366628389994971 -0.7894569590170495
480000000.0 0.3998211755975831 -0.5787715572592168
500000000.0 0.4183470890164363 -0.365611726792155
520000000.0 0.4588918678457233 0.16629301923483186
540000000.0 0.03308307548001491 0.43497680443211173
560000000.0 0.09822976577461244 -0.35514572689486856
580000000.0 -0.294960174063797 -0.19777665427410068
600000000.0 0.22910832364532013 0.2760921525023063
620000000.0 -0.3662227322942273 0.10057950675902577
640000000.0 0.40391912303994126 0.08171964960902102
660000000.0 -0.31657078950038753 -0.2706218079083741
680000000.0 -0.12246566141210256 -0.4041871486623687
700000000.0 -0.411888978985288 0.03333668644998278
720000000.0 -0.1012092865216658 -0.3912304660627903
740000000.0 -0.3740029315537389 0.15748614170387684
760000000.0 0.2224844208171978 0.33413366108753295
780000000.0 -0.3799745248664874 -0.03263961464256866
800000000.0 0.2552575158094685 -0.25458319092254084
820000000.0 -0.16973690700492572 -0.2579167781266141
840000000.0 0.24849833092905954 0.03227734850219244
860000000.0 -0.06001663671390286 0.1998700940597308
880000000.0 -0.1436465723873075 -0.041293543595018856
900000000.0 -0.07618954445114887 -0.02625764025883014
920000000.0 -0.024454552365107393 0.04175796722291874
940000000.0 -0.028770274530557645 0.011568572539037281
960000000.0 -0.030589569819789806 0.017617195038489047
980000000.0 0.01436887631727629 0.0427579849186766
1000000000.0 -0.054977651955230966 0.002771784608264959
1020000000.0 0.07871137315384691 -0.011703744642850419
1040000000.0 0.10400630476726334 -0.0009123229979549045
1060000000.0 0.03808257328134449 -0.14694299665684443
1080000000.0 -0.050369569552487586 -0.1696849975525556
1100000000.0 0.03875591896498112 -0.20547579177021402
1120000000.0 0.22672142309002954 0.03876997293125907
1140000000.0 -0.18510739246565075 0.1811480200749046
1160000000.0 0.06087190261337155 0.2741650782052826
1180000000.0 -0.29264460890636695 -0.0803452184208141
1200000000.0 0.3232552750062141 0.03466885482411524
1220000000.0 0.11892774346719383 -0.3289897787392552
1240000000.0 -0.34251240385842785 -0.16783989250378098
1260000000.0 0.024824610521791284 0.41707490596956154
1280000000.0 0.011102081160038454 -0.44346752515174215
1300000000.0 -0.08364398324221874 0.45422057711620095
1320000000.0 0.07158046409496575 -0.4561446650678966
1340000000.0 -0.4260279482634195 -0.15294037667878183
1360000000.0 -0.4288128370209529 0.08625269817171508
1380000000.0 -0.3436970489801249 0.2554011191763751
1400000000.0 -0.139303980203946 0.38468733301555363
1420000000.0 0.15676106873507256 0.35588118214101266
1440000000.0 0.16378054594603242 0.32742438187572526
1460000000.0 0.334567021625489 0.07863187938095248
1480000000.0 0.09906847927345704 -0.3039970801724832
1500000000.0 -0.275174226697103 -0.10260880623931898
1520000000.0 -0.10928861516619595 0.24125813729622994
1540000000.0 -0.16416736934173337 -0.16439413871148464
1560000000.0 0.1905829107701212 -0.044552646811397416
1580000000.0 -0.05732846585531374 0.15696253917520683
1600000000.0 -0.0639640911531409 0.1223600628835905
1620000000.0 -0.10986852582881518 -0.003154967428733461
1640000000.0 0.05831920343873203 -0.06792707808621251
1660000000.0 -0.0214649968028053 -0.06396507878000256
1680000000.0 0.034197320608290435 -0.03137249863304337
1700000000.0 0.007124991016370685 0.03057367364773332
1720000000.0 0.012791932612413787 -0.004109618461383763
1740000000.0 -0.015003500518228964 -0.009081136744089799
1760000000.0 0.02201059508219754 0.03498360839839633
1780000000.0 0.06315008370997781 0.042752757545919694
1800000000.0 0.0853084658501432 0.0755996429413999
1820000000.0 0.13378848545454092 -0.06025984019437262
1840000000.0 0.15014427957580997 0.09615010176186606
1860000000.0 -0.19696277306895213 0.0594165079948568
1880000000.0 0.054872476461628295 0.2284776370544581
1900000000.0 0.2636000174528608 0.062025463080475
1920000000.0 0.036956533333374286 -0.3028505289811664
1940000000.0 -0.3127802527049986 -0.13411115179580146
1960000000.0 -0.0067338670932357075 0.3722655964658784
1980000000.0 0.347184902764274 -0.19288110865377525
2000000000.0 -0.11512706986177337 -0.400763763085541
2020000000.0 -0.3682592141668701 0.22255667747690053
2040000000.0 0.014510937170665204 0.43591918670594826
2060000000.0 0.41882564103818354 0.1270529783791136
2080000000.0 0.35395931026933514 -0.2509342481722698
2100000000.0 0.22469012746518474 -0.3647050946973148
2120000000.0 -0.07356522769443545 -0.4132214727351067
2140000000.0 -0.3676624396271268 -0.17670606336235886
2160000000.0 -0.09231620119914583 -0.38161456166247654
2180000000.0 -0.2971226465636009 -0.22634375384115477
2200000000.0 -0.3469706809066254 -0.08730177208515529
2220000000.0 -0.34597049328450125 0.011816624862415467
2240000000.0 -0.2624812322519481 0.2196552444347559
2260000000.0 -0.12696406341913458 0.31850028887450427
2280000000.0 0.03267353357121741 0.3472198967241116
2300000000.0 0.36278311534089863 -0.03178981484932439
2320000000.0 -0.11878858768465991 -0.3696179916075119
2340000000.0 -0.32687493444741483 0.26150449691236294
2360000000.0 0.4507956353407957 0.08408418922981269
2380000000.0 -0.43592532264959233 -0.25666419502460763
2400000000.0 0.4514042414772182 0.32831675786579007
2420000000.0 -0.6081133057254189 -0.060834656469037664
2440000000.0 0.543408899061543 -0.3741444459291363
2460000000.0 -0.14934824080426742 0.6832473194464829
2480000000.0 -0.20366756262837882 -0.7008962021928706
2500000000.0 0.20085116560562058 0.7226843170021988
2520000000.0 -0.03245304625273307 -0.7597998239787144
2540000000.0 -0.3268439147694596 0.6878662234134383
2560000000.0 0.6935721162399425 -0.29916231082453415
2580000000.0 -0.641707001233882 -0.3692964766608104
2600000000.0 0.12451634221635093 0.7053805181475236
2620000000.0 0.46916609747331794 -0.5005240736604296
2640000000.0 0.22658982779087694 -0.60769985492402
2660000000.0 -0.5741002780249803 0.1866091973493406
2680000000.0 0.47839259262507194 0.2840730623249963
2700000000.0 -0.040323070849349704 -0.5073883754994942
2720000000.0 -0.3332233748152065 0.32073724586131785
2740000000.0 0.41694895739101734 -0.05287274989625618
2760000000.0 -0.35757004800509484 -0.13746918511307657
2780000000.0 0.35336326295890963 0.025723946708298154
2800000000.0 -0.2916340352496135 0.15459540580883901
2820000000.0 -0.05162845833693321 -0.3085618352235101
2840000000.0 0.29927158279128807 0.026406368421988718
2860000000.0 -0.1299569085746962 0.2647640801134135
2880000000.0 -0.11152090396889344 -0.2712127936991288
2900000000.0 0.1386658142292614 0.2579399002456677
2920000000.0 0.20109381945287474 -0.21791593996351924
2940000000.0 -0.2969940147291123 -0.0585606625596426
2960000000.0 -0.2124909828505441 0.21895896984791902
2980000000.0 -0.2904511084790636 0.10763630733202013
3000000000.0 -0.30077707475455173 -0.08869224758942287
3020000000.0 -0.05560010869972653 -0.30862230028563586
3040000000.0 0.30619413899062814 0.051056915959640126
3060000000.0 -0.3018213410568284 0.06666732258413094
3080000000.0 0.25385453498490257 -0.16877937881598823
3100000000.0 -0.13364299344306754 0.2681603998452655
3120000000.0 0.0936829584107249 -0.27580690709891736
3140000000.0 0.12946916543634854 0.251953292796332
3160000000.0 -0.2601094449723157 -0.06380547739413374
3180000000.0 0.10647881322562226 0.22621524172096166
3200000000.0 -0.19260404826730684 0.12139513966045194
3220000000.0 -0.17584911049418867 -0.09619643869302673
3240000000.0 0.061542914667904076 -0.15828276176721123
3260000000.0 0.005734861214131715 0.1349159148436826
3280000000.0 0.06879110685209402 -0.07665401032484294
3300000000.0 -0.00983017057771391 -0.07405593268964107
3320000000.0 -0.02232983970039674 -0.043803670328120776
3340000000.0 0.02730008369796343 -0.003455697049692886
3360000000.0 -0.0011505339343213595 -0.012407399568275128
3380000000.0 0.0010073105511567478 0.003101707907863899
3400000000.0 0.013418387972680898 0.011483152126270187
3420000000.0 0.01292458494607494 -0.0315720476983152
3440000000.0 -0.009168362840224872 -0.047578940937796875
3460000000.0 0.05195980905275345 -0.026542773917887938
3480000000.0 -0.014733060978936325 -0.06704809110364984
3500000000.0 -0.07551233964974995 0.023685813168045865
3520000000.0 0.021526479255844947 0.08887956796470035
3540000000.0 0.06440533465762613 -0.08147987628105487
3560000000.0 -0.11605586387203592 0.008751510013384863
3580000000.0 0.050233995302784384 0.12212830475933781
3600000000.0 -0.13809339962071715 0.06677778528217912
3620000000.0 -0.15362000753687322 0.06722705122979811
3640000000.0 -0.17770088311546814 -0.03179502583160336
3660000000.0 -0.17405657340141295 0.0772215423351945
3680000000.0 -0.18186909894071865 0.06555778496476644
3700000000.0 -0.18382815783197307 0.04902696713510246
3720000000.0 -0.10563493737123121 -0.15449889813877443
3740000000.0 0.09041031732940341 -0.15755309741016973
3760000000.0 -0.15709157286872769 0.07646548055776728
3780000000.0 0.15848358938733398 0.054730705257140744
3800000000.0 0.09004400453879767 -0.1313084976466667
3820000000.0 -0.06778236970263415 -0.13780896275376295
3840000000.0 0.00024043164738428736 -0.14868463180608002
3860000000.0 0.1479902421213298 -0.01808811119093166
3880000000.0 0.05492843556211744 -0.14384507287893086
3900000000.0 -0.15370539501024696 -0.022562694447480987
3920000000.0 -0.053286947722351374 0.15072860225099663
3940000000.0 0.12864552518617223 -0.10331154216078647
3960000000.0 0.1143276799710998 0.1268721877193785
3980000000.0 0.17359052658434998 0.006141498445499885
4000000000.0 0.16395622878473678 -0.041068282221717725
