!Created with skrf (http://scikit-rf.org).
# Hz S RI R 50.0 
!freq ReS11 ImS11
400000000.0 0.4776091328618081 0.7262763611527886
420000000.0 0.841857760964137 -0.0723576287300869
440000000.0 0.7677756783684151 -0.2182256160917324
460000000.0 0.7286989226658482 0.14584418817139602
480000000.0 -0.07691232686015848 -0.6809384958338967
500000000.0 0.03390702881384004 0.6010573170171704
520000000.0 0.17872291412493807 0.4789297367043437
540000000.0 -0.3746785024736822 -0.21964434598982482
560000000.0 0.056667414225433664 0.39151964297035285
580000000.0 -0.3175625236124424 -0.16643623743900837
600000000.0 0.3502908390905014 -0.05983836648981092
620000000.0 -0.13979476557634388 -0.3266719952980176
640000000.0 0.40496355620615077 -0.06694957905408919
660000000.0 0.0741649798700653 0.4081358960556056
680000000.0 -0.20534430322741315 -0.39747161696089633
700000000.0 0.17653362701018435 0.42561795892008814
720000000.0 -0.45345274862141327 0.08754967079991385
740000000.0 -0.28128751029943455 0.31849249764971843
760000000.0 -0.29253138579256865 -0.2843771878944807
780000000.0 -0.35146799250964195 0.1467609562760155
800000000.0 -0.18929671567864556 0.2788588961540113
820000000.0 0.1607339119336607 0.22534038301211304
840000000.0 -0.15617179154787023 -0.1330774214274125
860000000.0 0.050403548255343295 -0.16286074189951955
880000000.0 0.08792913121475959 -0.11753514476634758
900000000.0 0.02978329866139357 0.10025154200906017
920000000.0 -0.030424619233761066 -0.053284779842223094
940000000.0 -0.008321261527177323 0.0368286670646446
960000000.0 0.005655602917868116 -0.04001423177240132
980000000.0 -0.06117534423835761 -0.011548190440481073
1000000000.0 0.01455855029587882 -0.09882817648567238
1020000000.0 -0.0635397853644741 -0.10642830863249206
1040000000.0 0.10528401709453789 0.0854279192572882
1060000000.0 0.06525334596787924 -0.14443487844590208
1080000000.0 -0.08688358277821329 0.15887984145190467
1100000000.0 0.12781280626164299 -0.16096562774441908
1120000000.0 0.11247559933460041 0.2000447535065207
1140000000.0 -0.24873644910390635 -0.06522587150765147
1160000000.0 -0.2793233131211834 -0.04416761573684545
1180000000.0 -0.17204364344342238 -0.2580302385406793
1200000000.0 0.3273891706330811 0.10243161265317567
1220000000.0 -0.2831495600857692 -0.24113787146457266
1240000000.0 0.3852161903543812 0.0855955159162003
1260000000.0 -0.2900606373336713 -0.288272842009916
1280000000.0 -0.4241167402156727 0.03617295645946889
1300000000.0 0.35255677481782355 0.2543125316064646
1320000000.0 0.41275352175563346 -0.13608686259019687
1340000000.0 0.4112074832410296 0.14724237585633784
1360000000.0 0.4373227343249 -0.05437019156577317
1380000000.0 -0.06489067851220043 -0.42646825664605603
1400000000.0 -0.08203434229713012 -0.41252301042617656
1420000000.0 -0.3246860168337184 0.24261025755279927
1440000000.0 0.34372929048757156 0.16905345096695282
1460000000.0 0.2003984161716602 -0.29265006334075006
1480000000.0 -0.27319137007408534 0.1689528798497861
1500000000.0 0.2670684122752693 0.09316869473859121
1520000000.0 0.03334887396021129 0.24633777770775475
1540000000.0 0.17151787543831232 0.13700414167113922
1560000000.0 -0.1838370259844749 0.046812644803121646
1580000000.0 0.08997719387055263 -0.14490738036646172
1600000000.0 -0.0329239027112871 -0.1351009252313191
1620000000.0 -0.05948982001068192 0.08818680259174878
1640000000.0 -0.07916437675188363 -0.025191908305573673
1660000000.0 0.03927483778851457 -0.05453331359910326
1680000000.0 -0.010112952998067299 0.04212706477578602
1700000000.0 0.017745221942498425 -0.009694967553653072
1720000000.0 -0.005154590031782189 0.00040809939881967144
1740000000.0 -0.005343347931603354 0.011948333097066737
1760000000.0 -0.027975101944291016 -0.009722868952814007
1780000000.0 0.04864063332785827 0.02315868622174963
1800000000.0 0.05843116281796293 0.07446462217715898
1820000000.0 0.004588605845540711 -0.12512888536122801
1840000000.0 0.024275727133414776 0.15904449970002896
1860000000.0 0.044422936485280284 0.194335977343936
1880000000.0 0.2284036522413161 0.060338078970494036
1900000000.0 -0.026493414307701003 -0.27696534294828795
1920000000.0 0.2660111058411032 -0.17747391885032418
1940000000.0 -0.29772277535687136 -0.1709651618213017
1960000000.0 -0.34756857968546 0.12587529418511223
1980000000.0 0.3960441299628166 -0.06147192920823095
2000000000.0 -0.08476902536828806 -0.41037421635644983
2020000000.0 -0.3040714145152245 -0.30267225095510103
2040000000.0 0.0020445412720255154 0.43578912633068034
2060000000.0 0.20577482920378193 0.38633873767411786
2080000000.0 0.3584921096537901 0.24526712456534838
2100000000.0 -0.03493014492613517 -0.4247388762637903
2120000000.0 -0.027903357115668603 -0.41256951377235707
2140000000.0 0.22519974951682023 -0.3264267416536125
2160000000.0 0.38256273095865323 -0.037382197721034204
2180000000.0 0.3732752069551289 -0.024983530682402003
2200000000.0 0.31768985866980537 -0.17528784161638924
2220000000.0 -0.2971087216629142 -0.18809710057572618
2240000000.0 -0.26242316772984986 -0.22447282225415036
2260000000.0 -0.31542955271859824 -0.13530618576061254
2280000000.0 0.09837595161451575 0.33213944617574787
2300000000.0 0.13351099148047166 0.3280304155238885
2320000000.0 0.16931921544167222 0.3371311286334279
2340000000.0 -0.1332995476602862 -0.3887027466962354
2360000000.0 -0.4474899956911199 -0.03441241090283151
2380000000.0 0.19838793674723065 0.45681220801438566
2400000000.0 -0.44013920531926465 0.34312971180724416
2420000000.0 0.4953878442374382 -0.35680686287301305
2440000000.0 -0.461235863015879 0.468696875101094
2460000000.0 -0.6956235516352174 -0.09338736728273216
2480000000.0 0.7095627794681643 0.18518710180651785
2500000000.0 -0.42011757638113534 -0.627432741681084
2520000000.0 0.7240526655253164 -0.2545383360972061
2540000000.0 -0.6003243715927675 -0.48366201244344414
2560000000.0 -0.38246743468676053 0.6649661424497437
2580000000.0 -0.09295225576607406 -0.7472864384935021
2600000000.0 -0.7312407124770044 0.020774938818850505
2620000000.0 0.0031982545739536712 0.7041760805678021
2640000000.0 0.4660327688999563 -0.4748501954679343
2660000000.0 -0.5104853308592612 -0.36102021936470946
2680000000.0 -0.14380994926792026 0.560731831595007
2700000000.0 -0.28535449476219255 -0.44321403770386203
2720000000.0 -0.18142732433779607 0.4452900738123615
2740000000.0 0.43034659689009486 -0.04065009215387248
2760000000.0 -0.3297999063131176 0.20930256627763882
2780000000.0 0.3602419625145295 -0.004464417656856039
2800000000.0 -0.3269336161283931 -0.07738947680091637
2820000000.0 -0.05697836389920891 -0.3091982406102983
2840000000.0 0.15803702438953493 0.26074593589319855
2860000000.0 -0.23786755222446349 -0.176422524397987
2880000000.0 0.14649351611698774 -0.2513108237905058
2900000000.0 -0.2512754255405683 -0.1474467534389021
2920000000.0 -0.2718989638000142 0.12401144995253999
2940000000.0 0.17495411666879918 -0.25762357108078465
2960000000.0 -0.1430348984622872 -0.2844378092397283
2980000000.0 -0.28131832208845337 -0.1502602116023917
3000000000.0 -0.3161738497111509 0.027997114621825202
3020000000.0 0.291462310553089 0.1310008768669139
3040000000.0 0.2954285493436498 0.12110968238078172
3060000000.0 0.16760839265469457 0.26416873165664373
3080000000.0 0.2869241842176675 -0.09573740804294256
3100000000.0 -0.19184062826970266 0.22132110419721773
3120000000.0 -0.05704162270722801 -0.2786928952917441
3140000000.0 -0.27308908780658636 -0.03286886617925932
3160000000.0 0.23094836708397645 -0.12641924029101237
3180000000.0 -0.24521870532389123 0.05147101498481601
3200000000.0 0.23222861954265728 -0.04438708118146281
3220000000.0 0.026786359589980446 -0.20727853576303942
3240000000.0 -0.1433551472703167 -0.09888929532498884
3260000000.0 0.07715218360364304 -0.11911355458743618
3280000000.0 0.03619282468118629 0.09109776593495351
3300000000.0 0.04598392090006236 0.046981416095432965
3320000000.0 -0.02973542047373052 -0.02683274836962766
3340000000.0 -0.017266657668706473 -0.015383722810881162
3360000000.0 -0.0034192141886894324 -0.009240570337697021
3380000000.0 -0.00038308855483801165 0.0010500520117113102
3400000000.0 -0.011768157803174533 0.01243831617573343
3420000000.0 0.015842815468107434 -0.03316523390221161
3440000000.0 0.051669887572501315 -0.003102771682688227
3460000000.0 0.015742493956753412 -0.06370663737370494
3480000000.0 0.07424337998911483 0.022563175301851278
3500000000.0 0.055482645166248554 -0.06697278522211947
3520000000.0 0.07947594827510297 0.06074846711863807
3540000000.0 -0.043881074103762706 -0.1048794570531752
3560000000.0 -0.06637434870824688 0.0995425585214696
3580000000.0 0.08059975653520222 0.10819775222621505
3600000000.0 -0.053794550418448134 0.14520623845403083
3620000000.0 0.00934031132745874 -0.16508304499403317
3640000000.0 -0.11869858859651623 -0.1368862453427913
3660000000.0 -0.14463709494832078 -0.12127931288437413
3680000000.0 0.09292982738954966 -0.16690381100846452
3700000000.0 0.007774119762477958 -0.19103501217671817
3720000000.0 0.16641607654579357 -0.09002597839625992
3740000000.0 -0.001266782523984206 0.18178578752594585
3760000000.0 0.14814304689229377 -0.10067455535704951
3780000000.0 -0.07599783737482772 0.15730414712055524
3800000000.0 0.10245487377726478 -0.13296924564732515
3820000000.0 -0.1494464409470772 0.047242445302855915
3840000000.0 -0.12383995661005759 -0.07520155476199865
3860000000.0 0.07170556811672799 -0.12076107439321476
3880000000.0 0.025890126557922895 0.13921110180333457
3900000000.0 -0.14838180625296338 -0.005531324397642
3920000000.0 -0.05919509791559672 0.14344753437657282
3940000000.0 -0.16967522197686144 0.0068227445105678965
3960000000.0 -0.00038069034336328864 0.17638226567509188
3980000000.0 0.11787233416745352 0.12556332840463108
4000000000.0 0.1333304093148248 -0.09139646407468771
