!Created with skrf (http://scikit-rf.org).
# Hz S RI R 50.0 
!freq ReS11 ImS11
400000000.0 0.7295723748627506 0.4667117991672125
420000000.0 0.842459565998107 -0.018548859021790123
440000000.0 0.7933517121937578 -0.07895797310776034
460000000.0 0.7333490995684984 -0.16320421044729733
480000000.0 -0.545080384991855 -0.42339676191163617
500000000.0 0.5411795489784086 0.24943667410025452
520000000.0 0.4963709995090604 -0.03380914714745557
540000000.0 -0.1734383421090676 -0.39381630786166927
560000000.0 -0.301253212792612 0.2500529508571209
580000000.0 -0.2528529945051338 -0.25926381272492494
600000000.0 0.35863905499043525 -0.010529097613501195
620000000.0 -0.3494795194168017 -0.08834402414403271
640000000.0 -0.33595820760105655 -0.23071155378123223
660000000.0 -0.23230211779615956 0.33568596035738923
680000000.0 -0.3152415792581644 -0.31310852394962235
700000000.0 0.14852519625197141 0.4380422760248869
720000000.0 -0.42619335848225676 -0.19590476838951842
740000000.0 -0.008602645553149846 0.43902267590904115
760000000.0 0.12577577863923145 0.3888373858850538
780000000.0 -0.11617675236635669 0.3521328437006628
800000000.0 0.042306698965113416 0.32047242240528123
820000000.0 -0.2332144396114362 0.14098713998610835
840000000.0 0.20808765397304604 -0.00569271322564475
860000000.0 -0.01773101974710502 -0.17582006144019022
880000000.0 -0.08033083811859856 0.12878549431754927
900000000.0 -0.10392335269921027 -0.02063597215126009
920000000.0 -0.05314665450441764 0.01814419401236885
940000000.0 0.024097085853795986 -0.02445983269591294
960000000.0 -0.017565052582244396 0.031270170433098356
980000000.0 0.032753300059556296 -0.0481051780610315
1000000000.0 0.028877950995179928 -0.08954069985442106
1020000000.0 0.11935591452335352 -0.0071132482679575155
1040000000.0 0.0021500159926712325 0.13512652881238665
1060000000.0 0.12131085109748707 -0.10249802235074279
1080000000.0 -0.1567871593325118 0.08822912979680048
1100000000.0 0.10606771944643494 -0.17803915816641352
1120000000.0 0.19725231515249375 0.12510701654124376
1140000000.0 -0.25499629334769963 0.039451422269956536
1160000000.0 -0.08714822001875461 0.27263442006606914
1180000000.0 -0.2739925543812075 0.14830334256488342
1200000000.0 0.33397084443702696 -0.06502117065992766
1220000000.0 -0.36436673259140173 0.072756361495367
1240000000.0 0.39131732470091035 -0.043675982771648664
1260000000.0 -0.2068833574543575 -0.3517445363655114
1280000000.0 -0.31345591087810015 0.2894802296433962
1300000000.0 0.37177751175752494 0.22220047749635252
1320000000.0 0.4354440756899074 -0.016048448372725323
1340000000.0 0.4316287786108603 -0.08494253915848914
1360000000.0 0.40081946118705386 -0.18737079419416391
1380000000.0 -0.09279014658939969 -0.4248449780795873
1400000000.0 -0.41948077093284364 -0.06033081238373837
1420000000.0 0.17584740851163494 0.36283147665773513
1440000000.0 0.3707157165848604 -0.04357925318386307
1460000000.0 0.18998987523185001 -0.2864073036436727
1480000000.0 -0.28980607564592636 -0.12666922906940134
1500000000.0 0.002146099388670025 0.28489290953484125
1520000000.0 0.008662122170033945 0.25183353062672975
1540000000.0 -0.016249613974608983 -0.22276709450269822
1560000000.0 0.15677586233994856 0.11229898044549572
1580000000.0 0.11802190626507196 0.11781702910106084
1600000000.0 0.1300703343412608 -0.010700468381312025
1620000000.0 -0.028355083749932616 0.0941226633072061
1640000000.0 0.07750437566323413 -0.013289873414896942
1660000000.0 0.059209307566451354 0.03269091022019631
1680000000.0 0.0412461284237848 0.02262267085113539
1700000000.0 -0.02212146428035147 -0.014983613309847444
1720000000.0 0.0029634795439415157 -0.008558619151558085
1740000000.0 -0.0012201088295607 -0.011192669033664811
1760000000.0 0.027193095656685644 0.018122469060679415
1780000000.0 -0.05249273050066227 -0.02814051417183971
1800000000.0 0.06466001135685634 -0.072631162654613
1820000000.0 -0.11965484831072422 0.04897183815685063
1840000000.0 0.11064272133763381 -0.125093057735836
1860000000.0 0.16361423475620177 0.11498406961486836
1880000000.0 0.1861075457103505 -0.14625590179245634
1900000000.0 -0.27451748156686223 -0.061680776422310096
1920000000.0 0.31927770074413325 -0.03748379132951199
1940000000.0 -0.3417715177194545 -0.0681010415272886
1960000000.0 -0.0025528925101983577 0.3741368552712307
1980000000.0 0.3866174826304356 -0.11476910513971843
2000000000.0 -0.3795387809787315 -0.18272556771690435
2020000000.0 -0.2454147355785241 0.3498502310202742
2040000000.0 0.09641083627653957 0.42193364331698147
2060000000.0 0.3732714738474672 0.2210069735087022
2080000000.0 0.3910081067219523 -0.18143090901879202
2100000000.0 0.10061553524543336 -0.41422691354936164
2120000000.0 -0.24848506016195093 -0.3326617506743917
2140000000.0 -0.3563619282073746 -0.18025775111069572
2160000000.0 0.24211050685708269 -0.30096894101739047
2180000000.0 -0.032815931379938455 -0.37146750850855337
2200000000.0 -0.25499552657260277 -0.25274274531850044
2220000000.0 -0.3408625203282497 -0.0799374854127737
2240000000.0 -0.34373360257725366 0.03542641413889506
2260000000.0 -0.19891969094021364 0.2849811453332492
2280000000.0 0.18779202651736887 0.29634185061343327
2300000000.0 0.36063087796983295 0.0051882508635424235
2320000000.0 0.12320858140882845 -0.36467762528989794
2340000000.0 -0.3914329431223657 -0.13728451193336322
2360000000.0 -0.06181158513413447 0.45011751642222075
2380000000.0 0.21962632739366772 -0.4571174731459003
2400000000.0 -0.03992069455686071 0.5603266909326059
2420000000.0 -0.3871846895198579 -0.47740065362320144
2440000000.0 0.6617366798420348 0.012376261061249874
2460000000.0 -0.5111338556444733 0.4809147178937357
2480000000.0 0.16408362517011899 -0.7144614823126323
2500000000.0 -0.03524820979494047 0.7520523529238841
2520000000.0 0.17531155376045812 -0.7434260904190036
2540000000.0 -0.4831578577176576 0.5947296925403063
2560000000.0 0.7358984590247852 -0.1919657980959024
2580000000.0 -0.5472362183493354 -0.5080779986332483
2600000000.0 -0.012597706394969106 0.7231136664599305
2620000000.0 0.5631795412312415 -0.40697601655476556
2640000000.0 0.14224944860510932 -0.6422028141598217
2660000000.0 -0.4786613099873497 0.38530143586163973
2680000000.0 0.5655249385635578 0.0013504776696023142
2700000000.0 -0.3552943080548336 -0.37379676096413617
2720000000.0 0.11010877889495813 0.45572133421054845
2740000000.0 0.14890069747615212 -0.3944784565953756
2760000000.0 -0.3542756850067747 0.1508360345651612
2780000000.0 0.2527034097619462 -0.24770243710491974
2800000000.0 -0.011389510565076642 0.327999640944121
2820000000.0 -0.1700092951475855 -0.2565226640071426
2840000000.0 0.29427429026378554 0.0439942824460229
2860000000.0 -0.18278111834662245 0.22416996965542083
2880000000.0 0.08375603726953033 -0.27377536935037183
2900000000.0 -0.24928498830171308 0.1414169337643832
2920000000.0 0.10349298885614054 0.275429650749645
2940000000.0 0.2598741606740595 -0.16576604113144813
2960000000.0 -0.2889070319621565 -0.13141893034163898
2980000000.0 -0.18603335983374988 0.26007441510717666
3000000000.0 -0.27459575470249276 0.15951758076006498
3020000000.0 -0.2671996806187918 -0.1731369532027045
3040000000.0 0.03756508405910484 -0.31274178300066946
3060000000.0 0.22422601961140828 0.20942685010619863
3080000000.0 -0.13652411749734528 -0.26301751007942487
3100000000.0 -0.1060843018179187 0.2696294245201864
3120000000.0 0.10192595175230505 -0.26650408511625445
3140000000.0 -0.04586088332749079 0.2727139827182363
3160000000.0 -0.14178225743431758 -0.22334140182085183
3180000000.0 -0.01867835089162975 0.2495199790005673
3200000000.0 -0.20940026430034042 0.09357246539482553
3220000000.0 -0.20198055293210407 0.013177864357489662
3240000000.0 -0.09765298793317516 -0.13868818485659076
3260000000.0 0.05474883008820202 -0.12241914724829216
3280000000.0 -0.08247463753253509 -0.05163035156506611
3300000000.0 -0.040526286766290526 0.057403831710798305
3320000000.0 0.039028034539524484 -0.014611369185260984
3340000000.0 -0.015568588297266006 -0.01888851105453803
3360000000.0 -0.0007307722909418856 0.00995469525832144
3380000000.0 0.0033351525523521454 0.0008956247464749971
3400000000.0 -0.010495242773424562 -0.01189897513542579
3420000000.0 0.025601630125495992 -0.022085230346601852
3440000000.0 0.03918684956075503 0.032135492270628806
3460000000.0 -0.039906213141247544 0.05062324591726712
3480000000.0 0.031201944748157205 -0.06601344624579404
3500000000.0 -0.059776946125886236 -0.06378706881767647
3520000000.0 0.08356761466951276 -0.05463377221735804
3540000000.0 -0.11108713434968953 -0.017314323561964072
3560000000.0 0.11161200288617215 -0.05285781445574418
3580000000.0 -0.0759294642220992 -0.11226216062598746
3600000000.0 0.13481765102072404 -0.06985134090715196
3620000000.0 -0.061348131551172726 0.15356873270816848
3640000000.0 -0.09882847025727258 0.1511535981592204
3660000000.0 -0.1801541954490159 -0.053998817163407466
3680000000.0 -0.18383074344786612 -0.0637655359969321
3700000000.0 -0.19231735173796588 0.029562922724005427
3720000000.0 -0.15767359924260152 -0.10828081944094628
3740000000.0 0.15665881984626753 -0.0936355715069688
3760000000.0 -0.0584733839375985 -0.16863733117294946
3780000000.0 -0.08136085393330311 0.15608945969323387
3800000000.0 -0.03756492329992617 -0.16702826822270633
3820000000.0 0.03131580651986834 0.15909857995896476
3840000000.0 0.022174286164305654 0.14617235286192387
3860000000.0 -0.13928803886299437 -0.02569974797551081
3880000000.0 0.13841383243216493 0.033068016281610296
3900000000.0 -0.15014709427699469 0.011264357608719341
3920000000.0 0.02625091006058455 0.16234346055716117
3940000000.0 -0.053718717868624574 0.1676339740333514
3960000000.0 0.16852675999433636 0.06620277666617493
3980000000.0 0.018693113308827117 -0.17441630292588417
4000000000.0 -0.01574620977177018 -0.16405107926710502
