!Created with skrf (http://scikit-rf.org).
# Hz S RI R 50.0 
!freq ReS11 ImS11
400000000.0 0.5026695777541804 0.7108568398413997
420000000.0 0.8389906640033951 -0.09834899005430361
440000000.0 0.756821865980831 -0.2535084629645595
460000000.0 0.7294264898023006 0.14142863473212222
480000000.0 -0.05507736453187341 -0.6830991185027361
500000000.0 0.061810417107802065 0.5985333855559637
520000000.0 0.171805824397366 0.48145486629514395
540000000.0 -0.37959595210750974 -0.21108378558065502
560000000.0 0.04969899193098816 0.39253230248726495
580000000.0 -0.30634934983780754 -0.18589474752784452
600000000.0 0.3509604525569261 -0.054935067813691306
620000000.0 -0.18146682295085334 -0.3051128427049198
640000000.0 0.4031230293654715 -0.07714296315206604
660000000.0 0.11620090887783556 0.3979373562058712
680000000.0 -0.22016257099023903 -0.3895804359314135
700000000.0 0.1606543623734189 0.43193463437330026
720000000.0 -0.446274860321238 0.11940515599494946
740000000.0 -0.3013892076790397 0.3006548157177331
760000000.0 -0.2893583051901275 -0.28791108515780545
780000000.0 -0.35683663103161184 0.13391236981987198
800000000.0 -0.1962388279041945 0.274277667306331
820000000.0 0.1421883918369107 0.2378406250437661
840000000.0 -0.14140735503805651 -0.14853673007927495
860000000.0 0.05511017703817947 -0.16128722736147055
880000000.0 0.0841510093785158 -0.12034711470525568
900000000.0 0.03864897987303503 0.09732143766558077
920000000.0 -0.03394699765587336 -0.05162460235448133
940000000.0 -0.02240423118738371 0.030758506041599895
960000000.0 0.009347653858780969 -0.03928949401127213
980000000.0 -0.06001290606179861 -0.015671064577793145
1000000000.0 0.01683053152878438 -0.09828395460635235
1020000000.0 -0.05748264510113245 -0.10980805749989113
1040000000.0 0.09295248645536085 0.09858371698703258
1060000000.0 0.08411594868821717 -0.13414468329063636
1080000000.0 -0.09807966588038171 0.15195823729651112
1100000000.0 0.13367644159892345 -0.15581484387638986
1120000000.0 0.11468183767095254 0.19858945054882776
1140000000.0 -0.25201507608171914 -0.05071759979444681
1160000000.0 -0.28228682891122286 -0.016902331447588983
1180000000.0 -0.19623443404089147 -0.2400005519846042
1200000000.0 0.3357872054012377 0.06987905220296785
1220000000.0 -0.2997092764233537 -0.2204033825329748
1240000000.0 0.3881252954059598 0.07196737569656658
1260000000.0 -0.3011953356714398 -0.2768077970563487
1280000000.0 -0.42295339375294233 0.04894976332987155
1300000000.0 0.3539910928463266 0.25258426285775143
1320000000.0 0.4091223366859942 -0.14760855846244794
1340000000.0 0.40713145988224836 0.15856867521307286
1360000000.0 0.4377731326854232 -0.05030892553573714
1380000000.0 -0.07223674563830262 -0.42529037428064376
1400000000.0 -0.07268346750964168 -0.4144758828694027
1420000000.0 -0.32753768532449634 0.23881572100890835
1440000000.0 0.3389246321131344 0.17801479425396516
1460000000.0 0.20268677773805596 -0.2907512713405454
1480000000.0 -0.24600238812874975 0.20621939804073636
1500000000.0 0.2695505397213323 0.08621421731865182
1520000000.0 0.04114151478818564 0.24477733841912672
1540000000.0 0.17276348808157857 0.13487115773655872
1560000000.0 -0.18226698023857535 0.05200453816833412
1580000000.0 0.054804226840502526 -0.16129070838425674
1600000000.0 -0.026636556885374075 -0.1366829781923563
1620000000.0 -0.032086041533059655 0.10152981324205866
1640000000.0 -0.08172131606867937 -0.01580937383879057
1660000000.0 0.029381263780915517 -0.06068348294189071
1680000000.0 -0.001445682159493518 0.04385089538105926
1700000000.0 0.007117403418856125 -0.019793945015486838
1720000000.0 -0.0036569184417161297 0.004323217444977056
1740000000.0 0.012646367341787361 -0.0035274013831215274
1760000000.0 -0.02659830315060504 0.013148858883219062
1780000000.0 0.05369447816947169 0.005685310190321769
1800000000.0 0.07146825151934295 0.06219587109494518
1820000000.0 -0.01598659200575094 -0.12448383334735486
1840000000.0 0.04930322148987029 0.1534031602779794
1860000000.0 0.049735024922245935 0.19322259922678933
1880000000.0 0.23079693241439223 0.05209505254562746
1900000000.0 -0.026366713155533603 -0.2771633510673442
1920000000.0 0.27485084455794245 -0.1635091948473875
1940000000.0 -0.29043446371467746 -0.1832503942969649
1960000000.0 -0.35055880622037894 0.1170465333843171
1980000000.0 0.3985620676932148 -0.04132185891519432
2000000000.0 -0.07141200052874129 -0.4126412485045491
2020000000.0 -0.2985699217979126 -0.307368254997615
2040000000.0 -0.006505492576067622 0.43517719343306527
2060000000.0 0.22433612461176833 0.3750063710701518
2080000000.0 0.37427407708921084 0.2190760722005043
2100000000.0 -0.0567161780766061 -0.42195552382274415
2120000000.0 -0.07145352242805844 -0.4067903985570621
2140000000.0 0.21508027858037926 -0.33289541867968675
2160000000.0 0.37653995846915217 -0.07608172817380751
2180000000.0 0.36979646064838895 -0.05592981559448554
2200000000.0 0.2974765063860887 -0.2079041730336028
2220000000.0 -0.3132162703261028 -0.1612799082838286
2240000000.0 -0.2762951331762844 -0.20761974273468226
2260000000.0 -0.3269962872510111 -0.10571355256321677
2280000000.0 0.11355402032816378 0.3276485155320502
2300000000.0 0.1409837904993752 0.3251822035867859
2320000000.0 0.17214719708969234 0.33579376057967236
2340000000.0 -0.12900150162121135 -0.39007724924525494
2360000000.0 -0.44744781228966374 -0.033907239897105576
2380000000.0 0.19907473891622673 0.45664276091830036
2400000000.0 -0.44502062380443974 0.3363900899289422
2420000000.0 0.48922915550779067 -0.3642695986723641
2440000000.0 -0.47756376098926756 0.451612676655322
2460000000.0 -0.6944048155945709 -0.09825830285410474
2480000000.0 0.7062333675776674 0.19557488191756417
2500000000.0 -0.4400034066767109 -0.6128281850703651
2520000000.0 0.6962874801973871 -0.32152494457275116
2540000000.0 -0.6146996224562153 -0.4650413272547931
2560000000.0 -0.3411857224363875 0.6867610691190408
2580000000.0 -0.05770288213422412 -0.7510097152750326
2600000000.0 -0.7310796316423807 0.004084591382086461
2620000000.0 0.06077725307459258 0.7015665582068711
2640000000.0 0.4334334318676879 -0.5048918161526261
2660000000.0 -0.524137861020916 -0.3409326741156145
2680000000.0 -0.1364214410667103 0.5626584242309539
2700000000.0 -0.31277758088459345 -0.4247873936014274
2720000000.0 -0.1548982200323667 0.4557299145129925
2740000000.0 0.4255549692758355 -0.07937090987191286
2760000000.0 -0.32050784998161186 0.22399467549431493
2780000000.0 0.36057196360536264 0.00039142627193512606
2800000000.0 -0.32519194782075717 -0.08530888785368575
2820000000.0 -0.050825887928705835 -0.3104711323748569
2840000000.0 0.1537829463321935 0.2633498557137255
2860000000.0 -0.23450300201927024 -0.18073738049752264
2880000000.0 0.15238576163606743 -0.24745125364800613
2900000000.0 -0.24662782771046202 -0.15443736309437756
2920000000.0 -0.27261332374232017 0.12125593085136624
2940000000.0 0.19121090008888522 -0.24529115996722545
2960000000.0 -0.1565955751006065 -0.2767855253796192
2980000000.0 -0.26934657437027615 -0.17089020380689257
3000000000.0 -0.3120899375322562 0.053021001658314144
3020000000.0 0.29558784056948034 0.12172137456881289
3040000000.0 0.31127123497054116 0.07092257293441943
3060000000.0 0.16898051526385352 0.2631480294624632
3080000000.0 0.26990421993412167 -0.1361015555776386
3100000000.0 -0.1963730175878662 0.21682130476798414
3120000000.0 -0.07842796810378097 -0.27352346579888687
3140000000.0 -0.27386914722718075 -0.024858724626161004
3160000000.0 0.20288299778993743 -0.16887778792824065
3180000000.0 -0.23505340195017196 0.08907560490090816
3200000000.0 0.22894224668609664 -0.06090852343522896
3220000000.0 0.005623776830380661 -0.20979554431039116
3240000000.0 -0.153641106841849 -0.08285530732284688
3260000000.0 0.08804615412480088 -0.11196119619680836
3280000000.0 0.005398200718301781 0.09846059575870263
3300000000.0 0.052457347969679914 0.04051114334772126
3320000000.0 -0.01891289815416566 -0.03589511824476132
3340000000.0 0.019814166493775532 -0.012639425141111136
3360000000.0 0.002746007134562868 0.00994630609209146
3380000000.0 0.0006491770577751295 -0.0008681291084279316
3400000000.0 0.016777107168513106 -0.0017363982224447257
3420000000.0 -0.035017280633253274 -0.010699550684120178
3440000000.0 0.0363753535851034 -0.036408142166440616
3460000000.0 -0.02654597893350044 -0.05985035869762971
3480000000.0 0.07502311030110487 -0.0199815545974484
3500000000.0 0.013309370070057534 -0.08568806690971634
3520000000.0 0.08921080259859684 0.04469810879590889
3540000000.0 -0.06758220034938522 -0.09105906354088106
3560000000.0 -0.045316644646237796 0.11069181441535043
3580000000.0 0.110228595784187 0.07852055899565953
3600000000.0 -0.020939110739268053 0.15394966829311832
3620000000.0 -0.009589027089226822 -0.16537441479439882
3640000000.0 -0.15187828917551002 -0.10097514525846867
3660000000.0 -0.16729940740225416 -0.09001260612824583
3680000000.0 0.08905732481884701 -0.16957194279434834
3700000000.0 0.0019171573270276654 -0.19182316924035633
3720000000.0 0.1702963664363777 -0.08340921284512864
3740000000.0 0.009617366831920916 0.18210434348412408
3760000000.0 0.13982888786543948 -0.11283860134532717
3780000000.0 -0.08714133756280368 0.15238426655272147
3800000000.0 0.08908323189774374 -0.14243254387023802
3820000000.0 -0.14880110230131907 0.050562202754725845
3840000000.0 -0.1210892105843464 -0.0800407184800897
3860000000.0 0.07930235019813588 -0.1160420528747757
3880000000.0 0.013038876124420142 0.1415087530039167
3900000000.0 -0.14795731627460165 -0.015067708215782615
3920000000.0 -0.07261307734299433 0.13744731959780004
3940000000.0 -0.16967444455893596 -0.010073941310737931
3960000000.0 0.012413882843520081 0.17554166984017186
3980000000.0 0.12422445185769068 0.11923647599486432
4000000000.0 0.1100239306015794 -0.11846959324333856
