!Created with skrf (http://scikit-rf.org).
# Hz S RI R 50.0 
!freq ReS11 ImS11
400000000.0 0.7193990803794462 0.4808171649753375
420000000.0 0.8424836184606712 -0.005199888374614719
440000000.0 0.7961735995496869 -0.051589281170240045
460000000.0 0.7278477391241271 -0.1866880793936703
480000000.0 -0.549900063508814 -0.4169984649926706
500000000.0 0.5284978800350478 0.2756159381040331
520000000.0 0.49646868833076935 -0.032917020268825134
540000000.0 -0.17637072432965803 -0.3924637254961204
560000000.0 -0.298801468351837 0.2532795986160966
580000000.0 -0.2529033019751052 -0.2592203579024216
600000000.0 0.35795845390463554 -0.012588997146328959
620000000.0 -0.3397838397979654 -0.1188717593138898
640000000.0 -0.3366514500523244 -0.2296796905023373
660000000.0 -0.2083494067029484 0.35116570550077597
680000000.0 -0.32789748590971635 -0.300332574081661
700000000.0 0.1714934021853381 0.4298247173476048
720000000.0 -0.42469665669594925 -0.198888333449887
740000000.0 -0.016832715464292585 0.4394113302950209
760000000.0 0.13890108545423724 0.3844090483489009
780000000.0 -0.130682894860709 0.34671807013367184
800000000.0 0.0361513626893065 0.3211638568792056
820000000.0 -0.24250564635055938 0.12465728542134864
840000000.0 0.20751703511434885 0.015182045320319134
860000000.0 -0.008007123932368316 -0.1763747685540392
880000000.0 -0.07877827090213815 0.12973126632786247
900000000.0 -0.1056336711466366 -0.009919416389706903
920000000.0 -0.056480800338008445 0.0032947174753388663
940000000.0 0.034177889321515095 0.006754753220898038
960000000.0 -0.03214706562535678 0.01608167918073106
980000000.0 0.0393971605642001 -0.042976141082724725
1000000000.0 0.03533716874597343 -0.0871646847203995
1020000000.0 0.11941675480941362 -0.0032620456526808337
1040000000.0 0.003317214104274496 0.135084276186256
1060000000.0 0.12403236884197892 -0.09918035354503925
1080000000.0 -0.15760950118619224 0.08658453451727305
1100000000.0 0.09972319062281595 -0.1813864913814789
1120000000.0 0.19663220401867199 0.12581905202313926
1140000000.0 -0.2581274516800065 -0.003256154287683328
1160000000.0 -0.09063544289992849 0.2716655331792163
1180000000.0 -0.2740221575467945 0.14843411029473416
1200000000.0 0.33335936955244794 -0.06767887670034244
1220000000.0 -0.36463557524914986 0.07133527924417225
1240000000.0 0.3908755018611063 -0.046958895629825
1260000000.0 -0.20201223236178487 -0.3546058928286701
1280000000.0 -0.32068125556552796 0.2815173476183789
1300000000.0 0.3730402571325877 0.22000696887579688
1320000000.0 0.4352742482568823 -0.014594351465663794
1340000000.0 0.43241971794567596 -0.0798575774709398
1360000000.0 0.39421876665466193 -0.20030348473842668
1380000000.0 -0.07693127415964987 -0.427892770608421
1400000000.0 -0.4187864223330388 -0.0651626566619408
1420000000.0 0.18151930205111574 0.36006619019306735
1440000000.0 0.3697819028832801 -0.050803141378989385
1460000000.0 0.18833001752270662 -0.28742404444938563
1480000000.0 -0.301838660228949 -0.09380240440521115
1500000000.0 -0.0018563499469705235 0.2848795661079463
1520000000.0 0.01745771446690924 0.2513860632182552
1540000000.0 -0.03569561971933471 -0.22007354423237743
1560000000.0 0.13076988945485102 0.1421466433484025
1580000000.0 0.12212260907017408 0.11355932021889927
1600000000.0 0.12922502507721476 -0.01774979410597968
1620000000.0 -0.030091885383868217 0.09352861888792935
1640000000.0 0.07788281359657634 -0.011419763009678863
1660000000.0 0.05848910530210342 0.03352358061577344
1680000000.0 0.04545468548252287 -0.013531425738967054
1700000000.0 -0.019509817831241637 -0.018221476625069934
1720000000.0 -0.007938625184395786 0.004521285554878843
1740000000.0 -0.01100109913158463 -0.002950805861415721
1760000000.0 0.029444357075661624 0.014174325694477248
1780000000.0 -0.05932596370695453 0.004632677862523845
1800000000.0 0.06030688816394988 -0.07610785744312884
1820000000.0 -0.10967832254722559 0.06815670841182737
1840000000.0 0.11410759690990524 -0.12181652058735926
1860000000.0 0.1703917572059449 0.10483449121299492
1880000000.0 0.1761823166325445 -0.15837506784480787
1900000000.0 -0.27669089847626155 -0.051308009993106536
1920000000.0 0.31688258216410187 -0.0550850058308157
1940000000.0 -0.3419931356680803 -0.06791350121028937
1960000000.0 -0.0037636600132907685 0.3743194347132943
1980000000.0 0.3883146936077695 -0.1100882354983681
2000000000.0 -0.3920835565098223 -0.15324353263283402
2020000000.0 -0.23407223293266158 0.3574477924260681
2040000000.0 0.09470939084829212 0.42220911362664004
2060000000.0 0.36618572277124706 0.2323440006129103
2080000000.0 0.3873435549521078 -0.1887472831792237
2100000000.0 0.10498384094354138 -0.4130749085141369
2120000000.0 -0.24976447323614995 -0.33148681670824376
2140000000.0 -0.366224617199266 -0.1591322409967284
2160000000.0 0.2387993217073729 -0.3033206513619406
2180000000.0 -0.05627322951866799 -0.36817019008874513
2200000000.0 -0.24228968951684268 -0.26474652253143005
2220000000.0 -0.3408826561595168 -0.07845828750265489
2240000000.0 -0.341928618796397 0.04891157204457584
2260000000.0 -0.1924148626355889 0.2893755621648829
2280000000.0 0.18257625570318836 0.29927930569989464
2300000000.0 0.36018248434421896 0.009545342270738793
2320000000.0 0.12500950998262797 -0.3638703187888988
2340000000.0 -0.3983616954874598 -0.11599439237651506
2360000000.0 -0.04490445045481323 0.45208931744690006
2380000000.0 0.21822862701615714 -0.4576078503488867
2400000000.0 -0.032357511041833736 0.560709207571076
2420000000.0 -0.39328440279645427 -0.47220133969369577
2440000000.0 0.6618019553164787 0.013809158926289221
2460000000.0 -0.519558898155662 0.4716271445427432
2480000000.0 0.1513233960132584 -0.7171264992815993
2500000000.0 -0.10879166322878571 0.7452381987119105
2520000000.0 0.163662153114382 -0.7461583078281592
2540000000.0 -0.46251451212702577 0.6107831429449504
2560000000.0 0.7432584421558516 -0.1625469199935982
2580000000.0 -0.5479412544245812 -0.5074427820551404
2600000000.0 -0.04072009072332117 0.7221418528225187
2620000000.0 0.5568619614295967 -0.4154346900127274
2640000000.0 0.12207260943858103 -0.6464447833710824
2660000000.0 -0.49020622391682256 0.3704818784996201
2680000000.0 0.5647691267363139 -0.030575095863355987
2700000000.0 -0.34626759422787456 -0.38198161371828604
2720000000.0 0.10262300968074202 0.45710045692787166
2740000000.0 0.15797847346849256 -0.39047307424702626
2760000000.0 -0.35317662042378106 0.15275349624313522
2780000000.0 0.25204394011372533 -0.247965426652598
2800000000.0 0.004746242553793093 0.32782716480370067
2820000000.0 -0.17943165520891627 -0.24960197829374575
2840000000.0 0.29627382685161724 0.023027694326326613
2860000000.0 -0.1683748632865544 0.23516386605830125
2880000000.0 0.05738573360541508 -0.2803920962095
2900000000.0 -0.23961607015375608 0.15737370096060563
2920000000.0 0.12019459284629135 0.26890673859051056
2940000000.0 0.24750761809179167 -0.18430115057004048
2960000000.0 -0.29304907197977276 -0.12254227145533059
2980000000.0 -0.19933409496513946 0.24998654446476773
3000000000.0 -0.28546024888417687 0.14033110065123736
3020000000.0 -0.2563435104800011 -0.1894859701404849
3040000000.0 0.08119965512570196 -0.3044918479748165
3060000000.0 0.20567377677175716 0.2277940430102401
3080000000.0 -0.1188710324395365 -0.27158175146250707
3100000000.0 -0.12580787667080248 0.26089020854944395
3120000000.0 0.1614086208980433 -0.23466698417144816
3140000000.0 -0.045861106181392136 0.2726600852561011
3160000000.0 -0.11690289189269444 -0.2370674687253395
3180000000.0 -0.05084863640339316 0.24479858175286962
3200000000.0 -0.2178710654610966 0.07157710567358892
3220000000.0 -0.20184600698051497 -0.0007020651618438143
3240000000.0 -0.08009288367031568 -0.14947770215785192
3260000000.0 0.06453281963069771 -0.11737095777471489
3280000000.0 -0.09246287481249595 -0.029141247863892283
3300000000.0 -0.05827770848649338 0.03900616423009069
3320000000.0 0.04136512095847251 -0.004213262982527232
3340000000.0 -0.024335068272174958 -0.0024529205915796983
3360000000.0 -0.0019163388917954058 0.00973490826038903
3380000000.0 0.002317300020460638 -0.002730444192906333
3400000000.0 0.004629570552947823 -0.015377270828969511
3420000000.0 0.016920883881182628 -0.029475305764899935
3440000000.0 0.02047940119728623 0.04608937925422698
3460000000.0 -0.05883197285068891 0.02512529106507771
3480000000.0 0.010527013308442178 -0.07237757536497051
3500000000.0 -0.06129322229208988 -0.06262326225990981
3520000000.0 0.08343266600872001 -0.05472994009688192
3540000000.0 -0.1117078707719237 -0.012779228151963687
3560000000.0 0.09580258563520051 -0.07822436715929477
3580000000.0 -0.09814373181988283 -0.09381435780126661
3600000000.0 0.13633307813305115 -0.06606689492787318
3620000000.0 -0.043022827449076005 0.15990595340285857
3640000000.0 -0.09488510307427263 0.1539703442932429
3660000000.0 -0.1823059724246543 -0.046557117095515736
3680000000.0 -0.18112528025939084 -0.07202770481498295
3700000000.0 -0.1942650529599267 0.020793896745962704
3720000000.0 -0.15937827575647215 -0.10681676754771208
3740000000.0 0.1589983332044443 -0.09059563282699587
3760000000.0 -0.061261036392474655 -0.1675658826598136
3780000000.0 -0.09467882267716472 0.1493674808916644
3800000000.0 -0.04513827734988797 -0.1654303937226477
3820000000.0 0.026840737932962426 0.1601494424617384
3840000000.0 0.028209124636210003 0.144880785963596
3860000000.0 -0.1399229805950458 -0.023850828149740398
3880000000.0 0.1388418220066313 0.03162277962913593
3900000000.0 -0.1503251039111309 0.00038999286312310383
3920000000.0 0.01730495105018082 0.16303493608116687
3940000000.0 -0.07162188905018835 0.16075458608649512
3960000000.0 0.16507879824953672 0.07405566458685195
3980000000.0 0.0021823224840005827 -0.17468731484615632
4000000000.0 -0.03803659829437746 -0.1598454964184413
