!Created with skrf (http://scikit-rf.org).
# Hz S RI R 50.0 
!freq ReS11 ImS11
400000000.0 0.7297397408489545 0.46736312583548967
420000000.0 0.8421100710315456 -0.048918131247980445
440000000.0 0.7983791919487364 -0.02762271921180297
460000000.0 0.7296921982273126 -0.18147299184217724
480000000.0 -0.5725563918096925 -0.3832781642540199
500000000.0 0.547975948829047 0.23742745160290554
520000000.0 0.49412140135701704 -0.05125770145643185
540000000.0 -0.2031361799364216 -0.3808736006011949
560000000.0 -0.2537970235821149 0.296054330029625
580000000.0 -0.2702863887780567 -0.24335771318939198
600000000.0 0.3571730969524336 0.01635957747810249
620000000.0 -0.31494321628712446 -0.17470065411913793
640000000.0 -0.3733829044441068 -0.16348895759439885
660000000.0 -0.24458334373276286 0.32509971092601775
680000000.0 -0.3603512046489029 -0.2633934501911617
700000000.0 0.16988277756422596 0.4302737782298642
720000000.0 -0.408939767839113 -0.23332573983018598
740000000.0 0.0727652787054445 0.4333695218387547
760000000.0 0.08515771719930522 0.3992826356131843
780000000.0 -0.13876254926102574 0.3440043729745193
800000000.0 -0.025693595492576337 0.3211575500688415
820000000.0 -0.23692437119296889 0.13579058361007634
840000000.0 0.20667714632879336 -0.01578836102477066
860000000.0 -0.009025429038885303 -0.17578716533202532
880000000.0 -0.04474920820514703 0.14478189543369901
900000000.0 -0.046738873120641365 -0.09507487382624258
920000000.0 -0.05534286424243205 0.008056691811315565
940000000.0 -0.009405585916872747 0.03263200704585606
960000000.0 -0.009329800821338928 0.035445152757013404
980000000.0 -0.015099990664331535 -0.05664993382495641
1000000000.0 0.06088102051850426 -0.07122473486993255
1020000000.0 0.11665339750299875 0.031661725565327516
1040000000.0 0.013231523048739363 0.13276430194742625
1060000000.0 0.13311549628439834 -0.08823395994320214
1080000000.0 -0.10633205475303986 0.1442545062150297
1100000000.0 0.12463573230450632 -0.16605209907779858
1120000000.0 0.21419933932255375 0.09377810877159101
1140000000.0 -0.25727492392016144 -0.010350829391255005
1160000000.0 -0.09035237725162845 0.272037622830243
1180000000.0 -0.26204282293039066 0.1683323978149059
1200000000.0 0.3339913554677235 -0.07126282203894681
1220000000.0 -0.35111148887577676 0.12096652585157773
1240000000.0 0.3924521693702743 -0.03854714054988172
1260000000.0 -0.24427687420756367 -0.3265330153088358
1280000000.0 -0.33481757993011496 0.2648908229495393
1300000000.0 0.3851720671286819 0.2005003267523351
1320000000.0 0.435995213613933 0.0008966594152701429
1340000000.0 0.43845874937589274 -0.03464322716908382
1360000000.0 0.40218667142332915 -0.1844001889527528
1380000000.0 -0.030233712673912286 -0.4332802466068939
1400000000.0 -0.4146532365253769 -0.08957773227134365
1420000000.0 0.17338993752544885 0.36360828800707634
1440000000.0 0.37350466943129257 -0.011994113051755998
1460000000.0 0.20102004515855415 -0.2786079810802988
1480000000.0 -0.28306463903027795 -0.1402727013391181
1500000000.0 0.05064797721580292 0.280302131056791
1520000000.0 0.036503487376197345 0.249570085227177
1540000000.0 -0.054317201990910086 -0.21541102523797412
1560000000.0 0.15557375308849514 0.11409850246875876
1580000000.0 0.13665766346265315 0.09506930851884912
1600000000.0 0.12903712707650883 -0.014569524146471127
1620000000.0 0.01745621736205659 0.09716486860120364
1640000000.0 0.06445693690798242 -0.04438917366350452
1660000000.0 0.06559776231895702 0.018162739213674603
1680000000.0 0.04708425574300079 -0.007936122969169065
1700000000.0 -0.012267810797291145 0.02430480441076651
1720000000.0 -0.007972754975282086 0.0037461723164392245
1740000000.0 0.006958200815418874 -0.009342155594090556
1760000000.0 0.023381366557419157 -0.02297838283003251
1780000000.0 -0.058943079983312927 0.009940977333441452
1800000000.0 0.03167070848506414 -0.0922095504489019
1820000000.0 -0.10909050221149907 0.06893585966833042
1840000000.0 0.12350450552895466 -0.11266414951495649
1860000000.0 0.15775565217238827 0.12333869735311516
1880000000.0 0.18556841119194784 -0.14755469342934954
1900000000.0 -0.27308420487414387 -0.06761915387131318
1920000000.0 0.31817312302794354 -0.049353136522627836
1940000000.0 -0.33856843187929736 -0.08191258988679821
1960000000.0 -0.038958005621570646 0.37211781042173425
1980000000.0 0.38879507092683296 -0.10633519341171693
2000000000.0 -0.3908110751119155 -0.15423081870905744
2020000000.0 -0.24086689359663765 0.35216664453210833
2040000000.0 0.11400832706246482 0.41713556338380803
2060000000.0 0.3718764482979735 0.2234644970928727
2080000000.0 0.3680760094580653 -0.22424199275692988
2100000000.0 0.08028107049575518 -0.4184963380341448
2120000000.0 -0.2503929843443817 -0.33133593180821236
2140000000.0 -0.38089921297585233 -0.12177152161585796
2160000000.0 0.2099408074168756 -0.32443113141088326
2180000000.0 -0.05769199760867586 -0.36871550749079113
2200000000.0 -0.249566515749916 -0.2584569914917754
2220000000.0 -0.337724354087716 -0.09290498311694981
2240000000.0 -0.34320411072896495 0.038570070604985116
2260000000.0 -0.1975093181228042 0.2862711444520068
2280000000.0 0.17545795322823005 0.3035837989585829
2300000000.0 0.3601566004626436 0.015461597500537192
2320000000.0 0.124804338695145 -0.36381719538652735
2340000000.0 -0.391452602173297 -0.13646582373991795
2360000000.0 -0.0666905942237793 0.4491548927966887
2380000000.0 0.22451558333412783 -0.4545472011250909
2400000000.0 -0.014358126014868019 0.561588695564061
2420000000.0 -0.40136564470407504 -0.465226804825643
2440000000.0 0.6618290487809256 -0.003645575527026703
2460000000.0 -0.5099737206223269 0.48228960850654
2480000000.0 0.12788459071480957 -0.7218857291616516
2500000000.0 -0.13091013018861294 0.7417842441790671
2520000000.0 0.2469250071232091 -0.7227588355718637
2540000000.0 -0.4529231634630047 0.6174181218694552
2560000000.0 0.7438390341680141 -0.1558855069631876
2580000000.0 -0.5768692286704876 -0.47283669282441426
2600000000.0 -0.02037861060579766 0.722746937431383
2620000000.0 0.5618281614067958 -0.40700688231507454
2640000000.0 0.11872596338833472 -0.646638374883431
2660000000.0 -0.45653962082195265 0.41060723855847336
2680000000.0 0.5582917770020255 -0.09079376858225578
2700000000.0 -0.37027196050051114 -0.3595706634241784
2720000000.0 0.14485729271310807 0.44558286539883163
2740000000.0 0.17974806021207532 -0.3816387612222935
2760000000.0 -0.3604233508410521 0.1360814583317475
2780000000.0 0.2657980485974421 -0.23389452368394673
2800000000.0 -0.021313626511070115 0.32759794243632684
2820000000.0 -0.16813151295740106 -0.2573121117578416
2840000000.0 0.2929407394357229 0.04768401738804237
2860000000.0 -0.20152389861925774 0.20788326648965538
2880000000.0 0.054850205339730077 -0.2806591317776448
2900000000.0 -0.2584681417498925 0.12364523894993829
2920000000.0 0.07912909246814372 0.2839765356716752
2940000000.0 0.2666962792395569 -0.15424776208370755
2960000000.0 -0.2975314814544256 -0.10962621400503035
2980000000.0 -0.1833745185100759 0.26094655969040487
3000000000.0 -0.26773142035296116 0.17105280534807255
3020000000.0 -0.28224199553829754 -0.14782921619435285
3040000000.0 -0.03800463837334368 -0.31184777576574363
3060000000.0 0.22332157251250265 0.21046939185385505
3080000000.0 -0.162330430917247 -0.24891422496073928
3100000000.0 -0.07915943619200355 0.27924241089812374
3120000000.0 0.17671405586248176 -0.22564388021974968
3140000000.0 -0.035944125670282684 0.27569610668055927
3160000000.0 -0.11653399887140362 -0.23819796856966755
3180000000.0 -0.022553270359542976 0.2502847156267735
3200000000.0 -0.22429512037768623 0.05227998209486605
3220000000.0 -0.20035724337532412 -0.029982936287779604
3240000000.0 -0.02907090385491216 -0.1677202199152655
3260000000.0 0.12063624098922425 -0.0582456352914
3280000000.0 -0.03302533417371063 -0.09109601614923965
3300000000.0 -0.06255982650288616 -0.03141192226474557
3320000000.0 0.03312151269920759 0.025933557354995168
3340000000.0 0.024048920444913323 0.004517992686985609
3360000000.0 0.009563646881456098 0.0005195866844172652
3380000000.0 0.004248131326000664 0.0010608151902368858
3400000000.0 0.00953174434045306 -0.013509968420706966
3420000000.0 0.015035546108581106 -0.03114797490856849
3440000000.0 0.04863477089721716 0.01389536152557249
3460000000.0 -0.024190182299200048 0.0598257759908956
3480000000.0 -0.035164111735156774 -0.06486883114191001
3500000000.0 -0.06402081929238908 -0.06042146052657812
3520000000.0 0.07911955304341334 -0.06014936108049442
3540000000.0 -0.11232180340504384 -0.0010581703664772188
3560000000.0 0.10631528305816201 -0.06198777943210591
3580000000.0 -0.10040983066211791 -0.09165680420856677
3600000000.0 0.13469904125860427 -0.06812447320646386
3620000000.0 -0.05254046006551794 0.1565793726523002
3640000000.0 -0.06792947066275715 0.1678706351037717
3660000000.0 -0.18592886480352425 -0.0210430763555356
3680000000.0 -0.18690250788858592 -0.05401606109821628
3700000000.0 -0.1929655329271638 0.02563171603792554
3720000000.0 -0.1558427357915267 -0.11144826204316328
3740000000.0 0.11737670376981482 -0.13936074681768806
3760000000.0 -0.0868405861973536 -0.15613210674131783
3780000000.0 -0.022793399592106814 0.17499926427971144
3800000000.0 -0.12119974535429089 -0.12080455679478223
3820000000.0 0.050674762853319726 0.15487140947954797
3840000000.0 0.09446238048209334 0.11407611975023753
3860000000.0 -0.14203494617418377 -0.010815363851004298
3880000000.0 0.1429408125990009 0.003164959542590416
3900000000.0 -0.1504982098357186 0.003923829367804201
3920000000.0 0.053314974749152144 0.15598476445733236
3940000000.0 0.008770793611635193 0.17578461897432865
3960000000.0 0.18174965732718504 0.0018254835807560267
3980000000.0 0.0045140253157010535 -0.1758023152606982
4000000000.0 -0.046200803696059466 -0.158642441952991
