!Created with skrf (http://scikit-rf.org).
# Hz S RI R 50.0 
!freq ReS11 ImS11
400000000.0 0.7491694979151973 0.436657863214805
420000000.0 0.8416906970243423 -0.04092656237708501
440000000.0 0.7890596020500306 -0.11269533240776672
460000000.0 0.7345209784106539 -0.15658902859384327
480000000.0 -0.5332847619881259 -0.43818298368197695
500000000.0 0.5232367040112073 0.2850336962600623
520000000.0 0.49837711083947506 0.003721036583861424
540000000.0 -0.2157984410338956 -0.37349336556652557
560000000.0 -0.27749063197934654 0.2763062467402726
580000000.0 -0.26828053217818815 -0.24262709870837712
600000000.0 0.3568938352102712 -0.03778363838642934
620000000.0 -0.3567191861173766 -0.051121648481971586
640000000.0 -0.3518398334063718 -0.20340899044228428
660000000.0 -0.2569283371415668 0.31624300753637447
680000000.0 -0.30419086346539215 -0.32522368121505574
700000000.0 0.21125700462454808 0.4124971318313259
720000000.0 -0.4395172156125097 -0.16111390674951342
740000000.0 -0.07493401090151668 0.4325094382380625
760000000.0 0.06459963667619242 0.40485639158672954
780000000.0 -0.11003714130369091 0.355050793247332
800000000.0 0.09766236507647863 0.30854011027699596
820000000.0 -0.22935764872411188 0.14547102572693915
840000000.0 0.20719275511857618 0.004050670765837036
860000000.0 0.02205321198736358 -0.1749466214552622
880000000.0 -0.1078479147612371 0.10605961577809066
900000000.0 -0.09775153804375732 -0.04120828533440717
920000000.0 -0.04768803442654942 0.031684896647148846
940000000.0 -0.03270906540605649 -0.014233147976625664
960000000.0 0.025333403076791525 -0.025513352102793787
980000000.0 -0.03286220654019706 -0.04779335672638802
1000000000.0 0.017793751029820455 -0.09186039819986752
1020000000.0 0.11646116502286472 -0.023827409740273014
1040000000.0 -0.02481455084910033 0.131803622869977
1060000000.0 0.13848016421563022 -0.07660243783882308
1080000000.0 -0.17426507571169159 0.044095879694062624
1100000000.0 0.13047171515515102 -0.16158892175284761
1120000000.0 0.20917815635212156 0.10630681702417989
1140000000.0 -0.2326302371769169 0.112102601775499
1160000000.0 -0.05399249707901892 0.28042581665791966
1180000000.0 -0.2810101816756237 0.13442046209462827
1200000000.0 0.3322995601745297 -0.07752679748137713
1220000000.0 -0.3546230400594473 0.1141293037524628
1240000000.0 0.38332357463328104 -0.09147086341182545
1260000000.0 -0.23791423050663718 -0.3312320164681712
1280000000.0 -0.3256227410992494 0.27494264077899055
1300000000.0 0.35906051901361 0.24231485924344415
1320000000.0 0.43589270269171 0.014768889429657912
1340000000.0 0.4341302390583852 -0.07221255945519009
1360000000.0 0.39934577008508754 -0.19085992073872896
1380000000.0 -0.08513943959770481 -0.42619061860786206
1400000000.0 -0.4176126814772535 -0.07296387813628136
1420000000.0 0.16597197339430858 0.3675014687306149
1440000000.0 0.370989456920533 -0.04052428357273795
1460000000.0 0.1758011833573689 -0.2953091205743179
1480000000.0 -0.2983645367910861 -0.10333006265968608
1500000000.0 0.02537036404312751 0.28282181351516666
1520000000.0 -0.021885045766809177 0.2504897334035128
1540000000.0 -0.01036185606611622 -0.22256935353774396
1560000000.0 0.12023215790786615 0.15131262895875192
1580000000.0 0.10168750911425155 0.1330124561279244
1600000000.0 0.12425441665097639 -0.04184878361612689
1620000000.0 0.02137083814669566 0.09613317666012816
1640000000.0 0.06442730575278607 -0.044694786865859336
1660000000.0 0.06680621667764994 0.004600906185168058
1680000000.0 0.04008553488908321 0.02288109226137057
1700000000.0 -0.008218606900841568 -0.024758737629551754
1720000000.0 0.003370042344923252 0.007984095323768689
1740000000.0 -0.011444208727143242 -0.0017995561236662677
1760000000.0 0.0310143561323536 -0.008407107590643347
1780000000.0 -0.04686168799202246 -0.0356514961272602
1800000000.0 0.09615658307246273 -0.014818514591074165
1820000000.0 -0.1297413893001325 0.009106538358760487
1840000000.0 0.13089889023593484 -0.10486663586466985
1860000000.0 0.16282635947089266 0.11734306509958899
1880000000.0 0.16736325136939256 -0.16806480398004867
1900000000.0 -0.2793708640506649 -0.032912338730332245
1920000000.0 0.3172062485493359 -0.04933035436002625
1940000000.0 -0.34044566236965546 -0.07289831870704666
1960000000.0 -0.013947511407715113 0.37385187748572746
1980000000.0 0.3860302734628906 -0.11671106621966149
2000000000.0 -0.38162891990732417 -0.17808610234688677
2020000000.0 -0.2083861149226802 0.3728036714552115
2040000000.0 0.0762740138771183 0.4263406874471802
2060000000.0 0.3786055015740635 0.21221374232079215
2080000000.0 0.3676703182077339 -0.22514597129916686
2100000000.0 0.06844996481112102 -0.42078188102999764
2120000000.0 -0.25808308627737486 -0.32475053336018667
2140000000.0 -0.37200463422262203 -0.14420750451059064
2160000000.0 0.24742138793614296 -0.29657427600313163
2180000000.0 -0.059679268686394685 -0.36823980901465164
2200000000.0 -0.24259951846413572 -0.26562293203975496
2220000000.0 -0.34882592174143123 -0.0309446573023239
2240000000.0 -0.34253579151999164 0.04734260222119559
2260000000.0 -0.196563299287637 0.28692835563470237
2280000000.0 0.19109299775744956 0.2948206613321187
2300000000.0 0.3611197111976784 0.006078862312590572
2320000000.0 0.14259757304405477 -0.3578400406938608
2340000000.0 -0.38577011143997886 -0.1543261360056344
2360000000.0 -0.08062763040374434 0.44807223898361337
2380000000.0 0.23304280922148218 -0.4509464634221969
2400000000.0 -0.05910687127915374 0.5589468967625268
2420000000.0 -0.3756072268051717 -0.4867888641463129
2440000000.0 0.6617509882380721 0.010221952581039445
2460000000.0 -0.5206587940098304 0.47036916239090676
2480000000.0 0.14621812969294667 -0.71832346294927
2500000000.0 -0.05308722608008711 0.7512281864262277
2520000000.0 0.10210094487849268 -0.7568242994510289
2540000000.0 -0.4023609543080267 0.6517649291727163
2560000000.0 0.7405519061936355 -0.1747652735468227
2580000000.0 -0.5884790925223141 -0.45984572848250493
2600000000.0 0.015532192404867882 0.7236711829120744
2620000000.0 0.4816280354242498 -0.5016198519556526
2640000000.0 0.07950543325788988 -0.6535610253309136
2660000000.0 -0.45342688272450415 0.41578879379059785
2680000000.0 0.562272072338535 -0.06834545010186541
2700000000.0 -0.3922066385010381 -0.3364143523216616
2720000000.0 0.114607075909634 0.45540633918544554
2740000000.0 0.15849765430414192 -0.3912195351052414
2760000000.0 -0.3598568594403782 0.1381650092950359
2780000000.0 0.2776042799143338 -0.219685428644771
2800000000.0 -0.054650281247879795 0.3236002926469863
2820000000.0 -0.1401800406811164 -0.2742239766992729
2840000000.0 0.2912102766831674 0.0620321673838788
2860000000.0 -0.17415465741917385 0.23089455533862885
2880000000.0 0.051944672679557956 -0.2810929513352901
2900000000.0 -0.2335012493024842 0.16464093670243876
2920000000.0 0.12097740168799515 0.2672684515456484
2940000000.0 0.24318028023779534 -0.18838868884538634
2960000000.0 -0.3020248535886808 -0.09678671482796161
2980000000.0 -0.13842072152546855 0.28769134691235426
3000000000.0 -0.26380744129845246 0.17744699313653392
3020000000.0 -0.2936602018436675 -0.12418580778548337
3040000000.0 0.009556704368883177 -0.3153235024667292
3060000000.0 0.2545501095059191 0.1720656335333614
3080000000.0 -0.1812155453179991 -0.23496425505621818
3100000000.0 -0.10468617530719938 0.2700545657103748
3120000000.0 0.12328026612555051 -0.25689736041825395
3140000000.0 -0.033767484804499245 0.27467931193693934
3160000000.0 -0.1291182653713943 -0.23113369464889624
3180000000.0 -0.011709519347475317 0.2507496186280025
3200000000.0 -0.2056386497934446 0.10255368343915978
3220000000.0 -0.20144187894022397 0.017448687653068774
3240000000.0 -0.08794399689319302 -0.14538943465222987
3260000000.0 0.06132562732069956 -0.11946468069470378
3280000000.0 -0.09101351979212623 -0.034311884851906393
3300000000.0 -0.0621010215291256 0.032943335057544675
3320000000.0 0.04109365861498586 -0.007181080380251044
3340000000.0 -0.006229190984408645 -0.02371296771158401
3360000000.0 0.005777271365107304 -0.0082757099601477
3380000000.0 -0.0016782472117357176 0.0031152478240052805
3400000000.0 -0.007061268856910651 -0.013876780223814012
3420000000.0 0.032863438313283845 -0.007687355720730198
3440000000.0 0.0051201837370941986 0.05048122501246876
3460000000.0 -0.047386354534428174 0.044225884777306615
3480000000.0 0.015996254421352694 -0.07160382372783955
3500000000.0 -0.08373065544855313 -0.026407349442300547
3520000000.0 0.08599202521394242 -0.049862425514636294
3540000000.0 -0.11249499521798541 -0.0001227352571471935
3560000000.0 0.11075053703287274 -0.055001383459848646
3580000000.0 -0.10431642561125576 -0.08787872959204801
3600000000.0 0.1348315491396562 -0.07083231969845796
3620000000.0 -0.06833392158935316 0.1509470400370322
3640000000.0 -0.09598383719715137 0.15344986248287912
3660000000.0 -0.1788105963144942 -0.0583927125874719
3680000000.0 -0.18040899060366206 -0.07347635073264655
3700000000.0 -0.19320384665091755 0.024195667168698094
3720000000.0 -0.15202923599491075 -0.11696540388428817
3740000000.0 0.15965105516919653 -0.0885673580694504
3760000000.0 -0.043058974768420445 -0.1730057997430738
3780000000.0 -0.1290888989662889 0.12067570760909484
3800000000.0 -0.003288632093144844 -0.17181490807814462
3820000000.0 0.0008070893806809703 0.16284671638729725
3840000000.0 0.0239176661602147 0.1460329412043762
3860000000.0 -0.13928930704485215 -0.026826717930956548
3880000000.0 0.13961878647741263 0.026500987915567806
3900000000.0 -0.1493641569437782 -0.01749687062503266
3920000000.0 -0.008613517758718197 0.16423684518329035
3940000000.0 -0.07405941208384591 0.16040236414044157
3960000000.0 0.1746514786195703 0.04965298815465623
3980000000.0 -0.06302855373528223 -0.1633588451774027
4000000000.0 -0.10199137824730221 -0.12911199098156353
