!Created with skrf (http://scikit-rf.org).
# Hz S RI R 50.0 
!freq ReS11 ImS11
400000000.0 0.7549737299323509 0.42798046948475604
420000000.0 0.8421070581097271 -0.050206152966838474
440000000.0 0.7965963956793999 -0.0575013208682173
460000000.0 0.7346179427283157 -0.15914237447510757
480000000.0 -0.547385215017496 -0.41962667881233384
500000000.0 0.5378067148535525 0.25621473635785724
520000000.0 0.49640607070240667 -0.03503796048382814
540000000.0 -0.17332975794741118 -0.39392852419244656
560000000.0 -0.2859143477178721 0.26760190433333775
580000000.0 -0.27788991047413186 -0.2320345862390284
600000000.0 0.3577066760105466 -0.016851720759523153
620000000.0 -0.34643340277301987 -0.09915005705818997
640000000.0 -0.3190066075829236 -0.2542851425618329
660000000.0 -0.20643558004668355 0.35290850559502596
680000000.0 -0.33060674770372434 -0.29843128089300525
700000000.0 0.12818485634881072 0.44474681661361765
720000000.0 -0.4293315266810494 -0.18953232266085512
740000000.0 -0.026310534444618942 0.4388929357653006
760000000.0 0.14747174368604604 0.38098105053434345
780000000.0 -0.13266110713121226 0.3457124734319877
800000000.0 0.03151289688920183 0.3215833607314056
820000000.0 -0.24462112365551714 0.12088212397827056
840000000.0 0.2082031691574866 0.0056593862723092825
860000000.0 -0.0428516962535568 -0.17157091400111213
880000000.0 -0.08701629324348828 0.1251839869497147
900000000.0 -0.10511807267480533 -0.015664553967395817
920000000.0 -0.05313115756760583 -0.02048430858057347
940000000.0 0.012116115200272923 0.032483787755259036
960000000.0 -0.034941342657272854 0.009345524981721887
980000000.0 0.026997608647852684 -0.051674526164637274
1000000000.0 0.02386781367804415 -0.09118424410712281
1020000000.0 0.12006474114581826 -0.00241246605658716
1040000000.0 0.002196099114702935 0.13535072395480507
1060000000.0 0.11227648658053312 -0.11258232950889152
1080000000.0 -0.146307465541349 0.10476254405432456
1100000000.0 0.10371342149279462 -0.17935273461134188
1120000000.0 0.1808458999382511 0.1477225051875812
1140000000.0 -0.2577672761373906 0.005973475182612206
1160000000.0 -0.10465793121212852 0.26667200140925734
1180000000.0 -0.25102439462725695 0.18548388264126636
1200000000.0 0.3237235625980321 -0.10721258525106082
1220000000.0 -0.3482803218309144 0.13028632125475856
1240000000.0 0.3911830996563677 -0.046050333441181625
1260000000.0 -0.19747427185574534 -0.356932977346328
1280000000.0 -0.30791242316664275 0.2958519362639834
1300000000.0 0.3749574133269957 0.2175646781260519
1320000000.0 0.4358327068103699 0.0032250081699328934
1340000000.0 0.4368827504856547 -0.04855732799311132
1360000000.0 0.40850930338475067 -0.1693892748019953
1380000000.0 -0.07655656999857416 -0.4279719385332665
1400000000.0 -0.41607152922181423 -0.08072369862121548
1420000000.0 0.1652822785498452 0.36795187631344567
1440000000.0 0.3709851749077606 -0.04229334642629968
1460000000.0 0.19488445907362165 -0.28298709195015315
1480000000.0 -0.28142833954631924 -0.14366222124060993
1500000000.0 0.03270715998306727 0.2829840687078069
1520000000.0 0.03367366358938084 0.2500701819189082
1540000000.0 -0.04800501981614539 -0.21819348170656402
1560000000.0 0.1692553167511731 0.09267279658498305
1580000000.0 0.1372736396925262 0.09451743935118666
1600000000.0 0.12858715050551792 -0.020509260109635653
1620000000.0 0.011731917287442134 0.09794129077964402
1640000000.0 0.06913677942913087 -0.037883793438552305
1660000000.0 0.05606959343678118 0.037734094554479854
1680000000.0 0.046508451236872084 0.009228074259871053
1700000000.0 -0.026856168978307882 -0.0011321960622905937
1720000000.0 -0.0038254202134019406 -0.00786680186127504
1740000000.0 -0.009355084970909111 -0.007383983905557358
1760000000.0 0.03284186755200861 0.00048786663666854215
1780000000.0 -0.05964714204207005 0.004093696100426987
1800000000.0 0.059061058266614494 -0.0772610627348947
1820000000.0 -0.11853368164766617 0.051325294600159166
1840000000.0 0.13233793956149262 -0.10154178332523162
1860000000.0 0.14428105555322535 0.13863486179795148
1880000000.0 0.18780955670423005 -0.14385496480410329
1900000000.0 -0.27351285429057864 -0.06562869798685309
1920000000.0 0.3166816571699742 -0.055502367377393134
1940000000.0 -0.3411220516936378 -0.07035916199724619
1960000000.0 -0.0023442199380979485 0.37385954326947796
1980000000.0 0.38575843515742925 -0.11762317241254339
2000000000.0 -0.40027517120549727 -0.12936254478448342
2020000000.0 -0.22766392189720877 0.3615338138945649
2040000000.0 0.12655687456022457 0.4138789638151604
2060000000.0 0.3698539316922391 0.22714595975385254
2080000000.0 0.38600676485523594 -0.19311315849719993
2100000000.0 0.08321060430866635 -0.41839618524693944
2120000000.0 -0.26151521203462946 -0.3225650912582274
2140000000.0 -0.35938756636957303 -0.17640123645873518
2160000000.0 0.22876858945406658 -0.31174305225155086
2180000000.0 -0.032329350473113284 -0.3719344472270948
2200000000.0 -0.21996232966342152 -0.28432651455702923
2220000000.0 -0.31708356507414137 -0.14845939349706072
2240000000.0 -0.34564614668101123 -0.0015147350581645892
2260000000.0 -0.21378638169224998 0.2740793159812361
2280000000.0 0.17023316496878294 0.306422561831624
2300000000.0 0.36037039360466905 -0.005238087661421687
2320000000.0 0.12248672436246197 -0.3646018614295373
2340000000.0 -0.3884472393703781 -0.14325297124868125
2360000000.0 -0.05312175029929735 0.450954588526229
2380000000.0 0.2049877957822768 -0.46357652808022437
2400000000.0 -0.008559591930772515 0.5616318727789915
2420000000.0 -0.38986079622039077 -0.4753192892392401
2440000000.0 0.661240867229146 -0.03252528115477436
2460000000.0 -0.5018226462783729 0.49144196819479774
2480000000.0 0.11875643014525536 -0.7236699054329419
2500000000.0 -0.05652919676968842 0.7511410194280749
2520000000.0 0.17626597956417017 -0.7434911038753591
2540000000.0 -0.4987959572451408 0.581707389590527
2560000000.0 0.7451632128111296 -0.1522422218521509
2580000000.0 -0.5286743467220547 -0.5268894201506045
2600000000.0 -0.05643612412229784 0.7211757944042542
2620000000.0 0.5593526228128778 -0.41071230005102677
2640000000.0 0.14322471273491813 -0.6417954414728689
2660000000.0 -0.47528840039231546 0.3888484323338909
2680000000.0 0.5619903408135315 -0.0640596624668404
2700000000.0 -0.35506029356077407 -0.37442872345706024
2720000000.0 0.12200182422376543 0.4522649021736389
2740000000.0 0.17979351490378928 -0.38140883121595764
2760000000.0 -0.3593798637631075 0.13814972066997375
2780000000.0 0.26861688692856467 -0.23045050084396212
2800000000.0 -0.0065382282904833805 0.32770973046196467
2820000000.0 -0.16894151451774064 -0.25641114274346033
2840000000.0 0.29595149847589447 0.02767351513149704
2860000000.0 -0.18263196919633773 0.22432349684663053
2880000000.0 0.041135084900983256 -0.28327634004418345
2900000000.0 -0.2436753105838998 0.15135292363735314
2920000000.0 0.11057434188945323 0.2732464512253955
2940000000.0 0.2424280601536562 -0.1908944529959721
2960000000.0 -0.2977234095169986 -0.1104505630941189
2980000000.0 -0.1856624238310447 0.2603519970229396
3000000000.0 -0.27789568762096384 0.1558821944872964
3020000000.0 -0.2762028703770665 -0.16009092392649507
3040000000.0 0.11015262700545303 -0.2952662560892571
3060000000.0 0.17955774144421943 0.24960418388813144
3080000000.0 -0.13851963420768856 -0.2630499907304521
3100000000.0 -0.16679974957209703 0.23782578326494686
3120000000.0 0.18098380898965868 -0.22230507177806746
3140000000.0 -0.10352789973989569 0.2578880342691176
3160000000.0 -0.08267504186986413 -0.2519121207590602
3180000000.0 -0.06994266510854669 0.24085494203868993
3200000000.0 -0.22743596977093672 0.034369427107074385
3220000000.0 -0.19721529345662345 -0.04371255244644391
3240000000.0 -0.01374702799027196 -0.16898899381177335
3260000000.0 0.12770837041470032 -0.03818901483467286
3280000000.0 -0.06251035517526557 -0.07295522571990697
3300000000.0 -0.06284273389279221 -0.028748952147682437
3320000000.0 0.02723899071704697 0.03155837579216011
3340000000.0 0.0093847012583952 -0.021503298784536544
3360000000.0 0.00670335794467751 -0.0061195208989268425
3380000000.0 -0.004827608483491907 -0.0003003026424979841
3400000000.0 0.012710219492701447 0.011722860489906709
3420000000.0 0.029092551801109316 -0.019231424049727972
3440000000.0 0.020519126894336423 0.046738896304094724
3460000000.0 -0.05558493885917091 0.032506975606408396
3480000000.0 0.018916767447054974 -0.07131680444112098
3500000000.0 -0.05172223153061097 -0.0714596627239705
3520000000.0 0.09757713977068021 -0.019537891317981827
3540000000.0 -0.11058125410904807 -0.02075261315807358
3560000000.0 0.11896382092192993 -0.03233759931162967
3580000000.0 -0.10400713242463337 -0.08828060245838745
3600000000.0 0.1489920260449842 -0.023063025129508155
3620000000.0 -0.07354298962383146 0.14782551946271047
3640000000.0 -0.09690083239163494 0.15257699739892663
3660000000.0 -0.18237780794026595 -0.04256664958503068
3680000000.0 -0.179225993389982 -0.07550141609815844
3700000000.0 -0.19361376486583584 -0.01894281062239822
3720000000.0 -0.15834528378576504 -0.10753128441750984
3740000000.0 0.14301142537248765 -0.11213989184917159
3760000000.0 -0.08199753893734743 -0.15838655912271646
3780000000.0 -0.03440749469268798 0.17242045182915072
3800000000.0 -0.11369481349539776 -0.1275343784498063
3820000000.0 0.07463891922906146 0.14388481578624387
3840000000.0 0.07783272163808518 0.12583078822995192
3860000000.0 -0.1422254448290172 -0.006228107122744327
3880000000.0 0.14192854222689136 0.012103179884553757
3900000000.0 -0.15046454085757402 -0.004920652233044776
3920000000.0 0.04563514473183989 0.15778846829413443
3940000000.0 -0.012964209644678665 0.17520015109615092
3960000000.0 0.18100846970153708 0.008590682479819246
3980000000.0 -0.00761429672466965 -0.17510227718127133
4000000000.0 -0.07088849801280009 -0.14867601813715572
