!Created with skrf (http://scikit-rf.org).
# Hz S RI R 50.0 
!freq ReS11 ImS11
400000000.0 0.4908165923440782 0.7200966791759241
420000000.0 0.8425931275074935 -0.07157226507281449
440000000.0 0.7639034813775891 -0.23379870397373265
460000000.0 0.724986694012822 0.16606734561116063
480000000.0 -0.0338728086450447 -0.6846750243659119
500000000.0 0.02811812146123993 0.6015540025214597
520000000.0 0.1627196816469708 0.484700745666929
540000000.0 -0.38362216536809224 -0.20334450221350206
560000000.0 0.06420545124468859 0.39034003699259784
580000000.0 -0.31778232057952144 -0.16624877772909258
600000000.0 0.35124479745181464 -0.05750317828692719
620000000.0 -0.1292776783003493 -0.3315876455389123
640000000.0 0.40880843083556967 -0.04387719229222534
660000000.0 0.05165900129564955 0.4121483795423321
680000000.0 -0.18231038342270803 -0.40841480618182585
700000000.0 0.11942106952013697 0.44502608090608875
720000000.0 -0.4602639488423983 0.04031238809446198
740000000.0 -0.3194842143846147 0.28056600651939756
760000000.0 -0.28829082789069516 -0.28800621121188374
780000000.0 -0.35772379601215687 0.12914222366350117
800000000.0 -0.19290024765076366 0.27581949440429593
820000000.0 0.14773895231968695 0.23348536960729643
840000000.0 -0.14446985767802295 -0.1454993527854002
860000000.0 0.029251692169768733 -0.16772187962438176
880000000.0 0.055929475990540614 -0.13589621613002575
900000000.0 0.04670064576240511 0.09371090237618694
920000000.0 -0.005146917907044136 -0.06212303832055664
940000000.0 -0.03878779059341079 -0.0033692584877976534
960000000.0 0.03851187863341598 0.01197619707769206
980000000.0 -0.03742769298035404 -0.04911870074536114
1000000000.0 0.021175961913093313 -0.09718798589180087
1020000000.0 -0.07706378378493892 -0.09708113718519043
1040000000.0 0.12643020456411086 0.04917410245392987
1060000000.0 0.04167541314705741 -0.15309891394492026
1080000000.0 -0.06684071640360773 0.16882844659998025
1100000000.0 0.10896381374199761 -0.17491311865652173
1120000000.0 0.115535488550627 0.198837186253892
1140000000.0 -0.24218658930723572 -0.0879678850124223
1160000000.0 -0.2708757220673395 -0.08293290833342645
1180000000.0 -0.12657367699263067 -0.2836908359778511
1200000000.0 0.3102064035095042 0.14680944765723938
1220000000.0 -0.2593062440016467 -0.26702103612772243
1240000000.0 0.3745442138618077 0.12366909396494546
1260000000.0 -0.2604878968931151 -0.31481369396670955
1280000000.0 -0.42503373057138594 0.00651033654248553
1300000000.0 0.34597315597192946 0.2620673444440621
1320000000.0 0.4086596801360936 -0.1464946482199452
1340000000.0 0.41403789739318575 0.13683864582716102
1360000000.0 0.4353040607514979 -0.06514711440203357
1380000000.0 -0.09561798073566916 -0.42049481969992836
1400000000.0 -0.11033319152381114 -0.40621234602837897
1420000000.0 -0.2951673167699597 0.2784440899165004
1440000000.0 0.3616400661605214 0.12684292025782598
1460000000.0 0.17855393505933753 -0.30691842077935977
1480000000.0 -0.28432752475140255 0.15148611328298472
1500000000.0 0.2700245009500455 0.08708232402220571
1520000000.0 0.027651905708128564 0.24771214161766256
1540000000.0 0.15526953770094215 0.1564327726203959
1560000000.0 -0.19033983874415403 0.009532225439575954
1580000000.0 0.10602517147609138 -0.13405651893837636
1600000000.0 0.04289645046155522 -0.13279853811733366
1620000000.0 -0.09710011470685231 0.043278799173524944
1640000000.0 -0.06209054587147814 -0.05497996538193093
1660000000.0 0.0513163545879132 -0.04286483563047086
1680000000.0 -0.011723437558958896 0.041066825105596325
1700000000.0 0.019213693202841175 -0.002024545742685214
1720000000.0 -0.0043274896147410345 -6.92806077847474e-05
1740000000.0 0.0065232960527280386 -0.011988683336050111
1760000000.0 -0.010901318810991732 -0.027952282711907004
1780000000.0 0.041234933853601094 0.034444375561282
1800000000.0 0.029041655500805317 0.08940525363273091
1820000000.0 0.03479368633537627 -0.11949565731081616
1840000000.0 0.00627095105404133 0.1601211698433957
1860000000.0 0.02225301843919884 0.19744970374657111
1880000000.0 0.22653966836103478 0.06560950110481517
1900000000.0 -0.040749024187851264 -0.27501781955262267
1920000000.0 0.25652266041387095 -0.19055289335809522
1940000000.0 -0.31104815041283357 -0.14478855404318994
1960000000.0 -0.33474013820882276 0.15628145847724964
1980000000.0 0.3928933976872123 -0.07954177721738638
2000000000.0 -0.09440761732208305 -0.40855241782784063
2020000000.0 -0.31805222605661143 -0.2886504017133279
2040000000.0 0.012530380360513706 0.43649351882539666
2060000000.0 0.23208600524885617 0.37232204254654716
2080000000.0 0.36216879556946735 0.2414834657416454
2100000000.0 -0.03138406588859614 -0.42585017767332567
2120000000.0 -0.021811439203766957 -0.41374797476538583
2140000000.0 0.2772891367426745 -0.2852926944539823
2160000000.0 0.3855483956706517 0.002961694830708598
2180000000.0 0.3723922787751582 0.04709105143130188
2200000000.0 0.34624292393098727 -0.1114873048572123
2220000000.0 -0.2726124769491913 -0.22313409829082773
2240000000.0 -0.21660735073934695 -0.268859492826922
2260000000.0 -0.2866577586869239 -0.18837066009779516
2280000000.0 0.03221831289897644 0.3446719590247135
2300000000.0 0.08381508215539275 0.3434675255549065
2320000000.0 0.1313164241901802 0.35272980560400335
2340000000.0 -0.11890250245415866 -0.39233444412250174
2360000000.0 -0.4462553031496795 -0.03452800001891266
2380000000.0 0.20298859136981148 0.4538275511203452
2400000000.0 -0.4323161107786838 0.35180785983501084
2420000000.0 0.47825278796977944 -0.379087856326588
2440000000.0 -0.44164601441482515 0.4875583063904355
2460000000.0 -0.6993223555346599 -0.06675144851661433
2480000000.0 0.7063899904779402 0.20222111498527062
2500000000.0 -0.490954380265519 -0.5750489495531783
2520000000.0 0.7079883948889703 -0.30063209083753034
2540000000.0 -0.5550597964773292 -0.5376530389388565
2560000000.0 -0.42377240438823943 0.6413457283622394
2580000000.0 0.06352546982791359 -0.7519607719034114
2600000000.0 -0.7289379065791374 -0.0727538986442697
2620000000.0 -0.11171048449471346 0.6964585847181641
2640000000.0 0.5063502811876198 -0.4326569110905003
2660000000.0 -0.4251205688440422 -0.45830602232979584
2680000000.0 -0.27166013616599816 0.5105658544837445
2700000000.0 -0.1930483599908871 -0.48982667635355637
2720000000.0 -0.22641076972247406 0.4233581126251386
2740000000.0 0.43052255807159906 -0.031439511130596565
2760000000.0 -0.3187328734934606 0.22453734610016493
2780000000.0 0.35840687466194504 -0.02740281932905742
2800000000.0 -0.3335706625241453 -0.03387275618517184
2820000000.0 -0.11804029939718418 -0.2909299177457364
2840000000.0 0.21427680787143066 0.21693175654431632
2860000000.0 -0.2672301138380413 -0.12895459887761693
2880000000.0 0.08706649264606614 -0.2782466966642186
2900000000.0 -0.267244699491073 -0.1192400767696246
2920000000.0 -0.2666025490129171 0.13828055799690134
2940000000.0 0.19126172148567946 -0.2476684007735376
2960000000.0 -0.1423216708447816 -0.2863582776796538
2980000000.0 -0.2306138227982808 -0.22204930971873008
3000000000.0 -0.31672725978284894 -0.0321460364768295
3020000000.0 0.26538223533329636 0.18104511959856137
3040000000.0 0.2528744430857057 0.19707358124529167
3060000000.0 0.05565220774963915 0.3087643745956946
3080000000.0 0.30286002132916046 -0.009346133808387497
3100000000.0 -0.2593899260055796 0.13660029446038657
3120000000.0 0.04846665413054968 -0.28046364217561315
3140000000.0 -0.24459822049235627 -0.12563694277813436
3160000000.0 0.25876077681370707 -0.046706341758850106
3180000000.0 -0.24986655855336842 -0.011738752467309373
3200000000.0 0.23458422943087132 0.01962507076414049
3220000000.0 0.06890966724606813 -0.19604918489146902
3240000000.0 -0.1277888944900042 -0.11615501889993124
3260000000.0 0.09055868371303522 -0.10740753751400635
3280000000.0 0.05499107047078959 0.07961322515829078
3300000000.0 0.061671634017807966 0.018823822878612537
3320000000.0 -0.03816816044046921 0.007375696723165632
3340000000.0 -0.021574195686978905 -0.0006414626641792129
3360000000.0 -0.007666529889402943 -0.0028521830400113635
3380000000.0 0.0010295824957809601 0.002191799156144268
3400000000.0 -0.017080177526798874 -0.007373267111600862
3420000000.0 0.03740193880724834 -0.006306049477874932
3440000000.0 0.03415022422652865 0.04057650408302008
3460000000.0 0.057369910066985615 -0.0343685879234552
3480000000.0 0.038777664306506254 0.06856668771078185
3500000000.0 0.08690083343537114 -0.012799699645504977
3520000000.0 0.0081276863796474 0.10046313036471945
3540000000.0 0.03939509294423398 -0.10749756877045301
3560000000.0 -0.11571930982466112 0.03429175555213693
3580000000.0 0.029790359735761 0.13292120131174612
3600000000.0 -0.12581106261660158 0.09119796561740813
3620000000.0 0.0931600114349211 -0.13743749118980195
3640000000.0 -0.05763693841089907 -0.1730307740331879
3660000000.0 -0.05991209426667864 -0.1791714433341374
3680000000.0 0.1768103434234453 -0.0720515459467859
3700000000.0 0.11720408179884204 -0.1505619281970196
3720000000.0 0.187988816701775 0.012158808327528518
3740000000.0 -0.08576291346644055 0.15924869944962677
3760000000.0 0.1753661199083866 -0.030358889333887983
3780000000.0 -0.14215226465685216 0.09930219636318607
3800000000.0 0.14117867180677798 -0.08761532461950398
3820000000.0 -0.15380148503248198 -0.019391579918980634
3840000000.0 -0.07175277169375295 -0.12402028305597944
3860000000.0 0.12373959645086309 -0.06198656353439069
3880000000.0 -0.05572693080016275 0.12811537904073997
3900000000.0 -0.1197168075751134 -0.08410361421862389
3920000000.0 -0.11418151272316442 0.10152355759198131
3940000000.0 -0.15812283792681023 -0.05390217874626788
3960000000.0 -0.03020189645749888 0.17097820039089037
3980000000.0 0.10800861753376689 0.13093084734126506
4000000000.0 0.1181417760260508 -0.10706010501556634
