!Created with skrf (http://scikit-rf.org).
# Hz S RI R 50.0 
!freq ReS11 ImS11
400000000.0 0.7377882067665708 0.4540488300469172
420000000.0 0.842383421440694 -0.011874613720317593
440000000.0 0.7931623179046969 -0.08056460167499996
460000000.0 0.7306907450731055 -0.17540227409663414
480000000.0 -0.5494348675923143 -0.41762568157142993
500000000.0 0.5263093021465338 0.2786287545613659
520000000.0 0.4970707521407077 -0.023324956338838434
540000000.0 -0.1916614092195384 -0.38539934982074897
560000000.0 -0.29763575672761017 0.2544148234060653
580000000.0 -0.23726985058579578 -0.2735109073271935
600000000.0 0.358154695326925 -0.02335172071395115
620000000.0 -0.3553744384881054 -0.06011436629151008
640000000.0 -0.3572472527138808 -0.19624266186042777
660000000.0 -0.22001526409194846 0.343646579250354
680000000.0 -0.32853067431880584 -0.2996912289214523
700000000.0 0.15684784274021185 0.4350104125659961
720000000.0 -0.4343916388274299 -0.17686990341520814
740000000.0 -0.01769805550638643 0.43900176207704367
760000000.0 0.12998562334188019 0.38801462474285164
780000000.0 -0.11723193699537471 0.3520824199192808
800000000.0 0.08238015001777318 0.312720800700221
820000000.0 -0.2342349771546708 0.13851110457176674
840000000.0 0.2077749268220611 -0.004153506923837523
860000000.0 0.005760367005924647 -0.17667631536892636
880000000.0 -0.09445599674420362 0.11879931169037924
900000000.0 -0.10562311536381502 -0.003311857625149197
920000000.0 -0.055038135930893024 0.011244171428561099
940000000.0 0.012411454293882985 -0.03231848988047543
960000000.0 0.021126295349042756 0.02866962550486266
980000000.0 0.015591822982181825 -0.05588920054555754
1000000000.0 0.039044342782835334 -0.08553342994218197
1020000000.0 0.11939695134102071 0.00789845068700852
1040000000.0 0.0026303202622048674 0.1351409217617362
1060000000.0 0.13017179098192944 -0.09086142671116254
1080000000.0 -0.163873238631402 0.07417790012568055
1100000000.0 0.12574602753523267 -0.16470878736501732
1120000000.0 0.20135822562507655 0.11876832637765061
1140000000.0 -0.248548098179556 0.0697821892290583
1160000000.0 -0.06333318640144478 0.27892179489143837
1180000000.0 -0.26098957345816415 0.17002507408476925
1200000000.0 0.32174916646906776 -0.11184996341179196
1220000000.0 -0.3497396153405649 0.12596130126608332
1240000000.0 0.38736202531310066 -0.06906369134504858
1260000000.0 -0.22238307384539804 -0.342058235342933
1280000000.0 -0.3255251339526106 0.2762044216878915
1300000000.0 0.3834007922432666 0.203229313039266
1320000000.0 0.4356006973456327 -0.02291888266550239
1340000000.0 0.4326577465000903 -0.080670217420705
1360000000.0 0.4007294756959011 -0.18788492757800987
1380000000.0 -0.07904621980088274 -0.42766878723934215
1400000000.0 -0.4159994963047882 -0.08148067424137644
1420000000.0 0.15678915899105544 0.37132848184482653
1440000000.0 0.37294526331505984 -0.014128383616037235
1460000000.0 0.20316707564554384 -0.27712350177524475
1480000000.0 -0.2969825507249154 -0.10755320439574996
1500000000.0 0.0027365954498929606 0.284425137781539
1520000000.0 0.004323466848804381 0.25150125661052686
1540000000.0 -0.03465604288727144 -0.22010633115501485
1560000000.0 0.15372811026647196 0.11607738762297122
1580000000.0 0.13562003272112377 0.09659442663950017
1600000000.0 0.11593309085605209 -0.06008868616897348
1620000000.0 0.02629898400509771 0.09498314069432733
1640000000.0 0.07768852942572152 -0.010172801192176121
1660000000.0 0.06652986376807815 0.012486772122521606
1680000000.0 0.0454172697544804 0.013358196940784576
1700000000.0 -0.0251516998038889 -0.0102240319874813
1720000000.0 -0.008593830724174967 0.0031934167862943032
1740000000.0 0.0016923026418557557 0.010991259119554776
1760000000.0 0.031355011635619115 -0.009903110662342535
1780000000.0 -0.055741195036458635 -0.021203645101696752
1800000000.0 0.0811557891406907 -0.054596902476046094
1820000000.0 -0.12409307631167023 0.03856210969083959
1840000000.0 0.11969964709004448 -0.11744271830435317
1860000000.0 0.16098561704028536 0.11970108471800538
1880000000.0 0.18414163098961064 -0.14919840219764996
1900000000.0 -0.26986319823440963 -0.0795450219422063
1920000000.0 0.3203296134490495 -0.025755234332503967
1940000000.0 -0.3344930347652514 -0.09722480117170107
1960000000.0 -0.012216116563308975 0.37383668621099236
1980000000.0 0.38709945203601165 -0.11283846441681354
2000000000.0 -0.39621399031975635 -0.14059833544652467
2020000000.0 -0.22966325999580536 0.3597494067337513
2040000000.0 0.10369481917846049 0.4199235738803109
2060000000.0 0.3874897922444678 0.19502128903366303
2080000000.0 0.3718102786618408 -0.21807817877348992
2100000000.0 0.06429468864374949 -0.42117064556562733
2120000000.0 -0.2415515920456973 -0.33750118635801024
2140000000.0 -0.36655711239758604 -0.1579092869930461
2160000000.0 0.2426469855543288 -0.3004931273690982
2180000000.0 -0.07247147085495963 -0.365900255624089
2200000000.0 -0.24311343080043737 -0.26501791258844637
2220000000.0 -0.3387306208524166 -0.08920876944977778
2240000000.0 -0.3419548737735514 0.05077552939807166
2260000000.0 -0.19216096537812052 0.28992280710138635
2280000000.0 0.19131609228868487 0.29425810261434465
2300000000.0 0.36067462206214285 0.008733606022722
2320000000.0 0.14183242911492938 -0.3577009453700199
2340000000.0 -0.39059879597461217 -0.14048872464277307
2360000000.0 -0.07809520376244879 0.4477989142002314
2380000000.0 0.24675385862322355 -0.44299120543709647
2400000000.0 -0.05076640454915055 0.5593380441774308
2420000000.0 -0.3778600064222594 -0.48448750281703323
2440000000.0 0.6609873033160829 0.03325060454107437
2460000000.0 -0.5266274027264483 0.46370899457786574
2480000000.0 0.1457812375184249 -0.7181385963209326
2500000000.0 -0.09558587459065203 0.7469598736991813
2520000000.0 0.1695005598304685 -0.7448392126166403
2540000000.0 -0.44211305204975354 0.6257699449122928
2560000000.0 0.7384697883682738 -0.1824949998313167
2580000000.0 -0.5633461181341194 -0.4906060829736403
2600000000.0 -0.02113624174571958 0.7231590829144119
2620000000.0 0.5011957591946784 -0.4813817008154064
2640000000.0 0.1340249435773217 -0.6443033496624059
2660000000.0 -0.45075966185063693 0.41831328487480796
2680000000.0 0.5634197968055374 -0.05590572947272353
2700000000.0 -0.3851269889606081 -0.3438510015725638
2720000000.0 0.1337848990296952 0.44974183076293023
2740000000.0 0.12159009230012884 -0.40419486995693105
2760000000.0 -0.34830702840504424 0.16549087566264617
2780000000.0 0.2581331294991138 -0.24268425037701297
2800000000.0 -0.022337694318978245 0.3278356223218221
2820000000.0 -0.1532593922062943 -0.26734558750087783
2840000000.0 0.29279322579089057 0.054080520633702514
2860000000.0 -0.1858153894128406 0.2216638002809073
2880000000.0 0.08716109148421093 -0.27247927608679084
2900000000.0 -0.2529358853575926 0.13348401249921385
2920000000.0 0.08110757468673944 0.28237784393154286
2940000000.0 0.2571740421946383 -0.16889919321717023
2960000000.0 -0.29977343692276637 -0.1024369097943442
2980000000.0 -0.16934120165390323 0.2700788419514712
3000000000.0 -0.2568043701606118 0.18750699750135816
3020000000.0 -0.2950505073220364 -0.11960835413379069
3040000000.0 -0.04035428207563181 -0.31241530277884716
3060000000.0 0.26315073177050036 0.1580367549846155
3080000000.0 -0.19666796322001054 -0.22216124177155444
3100000000.0 -0.12823116467678086 0.2596133886248095
3120000000.0 0.10346815443875895 -0.26581024968319383
3140000000.0 -0.02118581559088178 0.27608470245845085
3160000000.0 -0.15359364198901385 -0.21625641393410544
3180000000.0 -0.0013584482900039104 0.2510021325852737
3200000000.0 -0.2111965650118501 0.09095658962170707
3220000000.0 -0.20261417224505085 0.008294585279125286
3240000000.0 -0.07310870219867158 -0.153694006881771
3260000000.0 0.08001337268899462 -0.10805858500897751
3280000000.0 -0.07650755927936063 -0.060485063295573016
3300000000.0 -0.06633883030933159 0.02308048997834392
3320000000.0 0.039811101686332444 0.01249458213592042
3340000000.0 0.012243325909575735 -0.021162025113710233
3360000000.0 -0.005231027600042623 -0.008955735919770454
3380000000.0 -0.002222695894417794 -0.003870921066277215
3400000000.0 -0.013803430033485423 0.00800056118191382
3420000000.0 -0.013081223782603471 -0.03153817217435869
3440000000.0 0.022899483621032772 0.045496921213867954
3460000000.0 -0.01970553292453927 0.061854788343421445
3480000000.0 -0.0057294616414892 -0.07362192609281064
3500000000.0 -0.054348548442909476 -0.06896791111336902
3520000000.0 0.06163058832950267 -0.07954499734213019
3540000000.0 -0.11292795481966254 0.0026924177037233564
3560000000.0 0.1057163673697956 -0.06493408465013616
3580000000.0 -0.10682931816910961 -0.08514993359283979
3600000000.0 0.14020852588934068 -0.059577719858973505
3620000000.0 -0.06038810344822617 0.15475665609138256
3640000000.0 -0.10310276650457662 0.14928307404066127
3660000000.0 -0.17633393801547567 -0.06649656698999265
3680000000.0 -0.17127450461766355 -0.09286744339247491
3700000000.0 -0.19499745939371904 0.0037226233644740334
3720000000.0 -0.14492392785962177 -0.12601288707756544
3740000000.0 0.16262628980162067 -0.08301622835973169
3760000000.0 -0.03879786975596094 -0.17416878729070448
3780000000.0 -0.12592483021631262 0.12424884387336603
3800000000.0 -0.02910430602995633 -0.16869089810884222
3820000000.0 -0.006729979578393082 0.16236612838028366
3840000000.0 0.029029301957550248 0.1442864992231275
3860000000.0 -0.13618299834347827 -0.03820741783477154
3880000000.0 0.1399492269551999 0.02348759308922434
3900000000.0 -0.14989772649185912 0.00307509202526061
3920000000.0 0.023364194489326185 0.1624226386349241
3940000000.0 -0.05441619991923868 0.1675031647608862
3960000000.0 0.1783214190250405 0.03095309409963917
3980000000.0 -0.0602356585376837 -0.16406872646377124
4000000000.0 -0.10352146128597021 -0.12798028406646053
