!Created with skrf (http://scikit-rf.org).
# Hz S RI R 50.0 
!freq ReS11 ImS11
400000000.0 0.48831901100496405 0.7205532956208686
420000000.0 0.8411460621187715 -0.07888716572777123
440000000.0 0.7550813565840262 -0.2586490282880097
460000000.0 0.7325830854691843 0.12463918403255285
480000000.0 -0.05942285979136896 -0.6827819725760479
500000000.0 0.04521348172246244 0.6002427003672696
520000000.0 0.16518958036017958 0.483795907920717
540000000.0 -0.3670163595316352 -0.23236823139550233
560000000.0 0.042350705564184014 0.3935344299749492
580000000.0 -0.31844137260985905 -0.1646572242802775
600000000.0 0.34746351611809234 -0.07327919084399515
620000000.0 -0.16087568591332416 -0.31608439874011807
640000000.0 0.40408316469622 -0.07030021485608555
660000000.0 0.09534519066852121 0.40374445322808744
680000000.0 -0.22425410755652309 -0.3871510610130751
700000000.0 0.18771756529093017 0.42128151827161925
720000000.0 -0.4530341220625284 0.09039967856154997
740000000.0 -0.29210271940332566 0.30905173190174645
760000000.0 -0.2865899405233336 -0.2899414573614236
780000000.0 -0.36395164729840673 0.1129150360428126
800000000.0 -0.20486780988245265 0.26782338932930533
820000000.0 0.138667257914547 0.24004747198504117
840000000.0 -0.1324482753537519 -0.15634278404844587
860000000.0 0.07852262652596705 -0.151250199360022
880000000.0 0.0881121910674126 -0.11726604398397798
900000000.0 0.04320676024494378 0.09532248982182645
920000000.0 -0.04965387264542188 -0.03654329006488758
940000000.0 -0.00299152078361306 0.03808150739952014
960000000.0 -0.0030834756722928573 -0.04028912238844095
980000000.0 -0.06176456850352721 0.001250437588054397
1000000000.0 0.002552414083879216 -0.09912560840714495
1020000000.0 -0.06032612756260727 -0.10742191667745724
1040000000.0 0.08760038721656149 0.10263000530141164
1060000000.0 0.09882644316839836 -0.12336925436578954
1080000000.0 -0.11132439807148939 0.14233818006262883
1100000000.0 0.1555963780561323 -0.13405240090884368
1120000000.0 0.09729666750060717 0.20807798045460602
1140000000.0 -0.25107506003207236 -0.05657399626357544
1160000000.0 -0.2828956455403246 0.012570362882668214
1180000000.0 -0.2115573930162049 -0.22679711944860279
1200000000.0 0.3313273148062063 0.08751066711691402
1220000000.0 -0.29307346995091055 -0.22906560908749943
1240000000.0 0.3864602797141404 0.08101783170380321
1260000000.0 -0.2961964922242719 -0.2822992935293352
1280000000.0 -0.423856884120112 0.039840033775334696
1300000000.0 0.35331985421301493 0.2535444207704692
1320000000.0 0.41270636985570397 -0.13727411320452426
1340000000.0 0.41208183301692336 0.14506983596660028
1360000000.0 0.4354750855617279 -0.06677716850169237
1380000000.0 -0.0752254112505527 -0.42468531500012374
1400000000.0 -0.07526089040446474 -0.41385577617332764
1420000000.0 -0.3316161049863727 0.23307397603284524
1440000000.0 0.34291858692407934 0.1702471353281013
1460000000.0 0.1999134004621204 -0.2928533397678391
1480000000.0 -0.2714151430161285 0.17191100232963896
1500000000.0 0.26503303469333506 0.099449968680591
1520000000.0 0.04286808470476609 0.244548952311084
1540000000.0 0.17771217402295125 0.12816532243538453
1560000000.0 -0.18713690582398237 0.0304550467186098
1580000000.0 0.06846749679907267 -0.15579941287524862
1600000000.0 -0.012782555245081064 -0.13850617774017415
1620000000.0 -0.043692366616039015 0.09687400540136218
1640000000.0 -0.08316771957661677 -0.0036579413274695654
1660000000.0 0.007681911468133245 -0.06728549131564522
1680000000.0 0.004281954949585778 0.043701316352590294
1700000000.0 0.020780527509915513 -0.0007864335253577869
1720000000.0 0.005661299934376597 0.0013231637054390865
1740000000.0 0.012215305756221888 -0.003134317618139634
1760000000.0 -0.02268446106645991 0.018971501985732577
1780000000.0 0.052782080352068814 0.01199980201685503
1800000000.0 0.07566684781964092 0.05800011020191432
1820000000.0 -0.034392370267340516 -0.1209152313365072
1840000000.0 0.06942194349686918 0.1457100335372103
1860000000.0 0.06679420285181546 0.18794916393553
1880000000.0 0.23005912074959844 0.05385560827033935
1900000000.0 -0.01752783484242701 -0.277867002499561
1920000000.0 0.28263949254195697 -0.1499779853407105
1940000000.0 -0.27900354623461115 -0.20041310384731897
1960000000.0 -0.35628638664929535 0.09893394599389184
1980000000.0 0.39936935707434723 -0.03478923476352366
2000000000.0 -0.07129283326291186 -0.41284404027608773
2020000000.0 -0.31034378772922433 -0.29534563527847035
2040000000.0 0.019335107283757806 0.4342560315969487
2060000000.0 0.2182376757401342 0.37817266592345206
2080000000.0 0.35214324655591545 0.2529791775334099
2100000000.0 -0.052719216333267815 -0.422518842953036
2120000000.0 -0.08056423584216432 -0.40531547206461044
2140000000.0 0.17329906835584788 -0.35647633375079046
2160000000.0 0.36970161560350023 -0.10355965400608426
2180000000.0 0.3636195152908379 -0.08687640256094283
2200000000.0 0.2971038050285806 -0.20844903781101834
2220000000.0 -0.3112205872351176 -0.16435296925449144
2240000000.0 -0.2850475824261979 -0.19609415762571708
2260000000.0 -0.32521456608610766 -0.1115809087257021
2280000000.0 0.12781172405536578 0.3225426196364132
2300000000.0 0.14371771885965617 0.3240341286497792
2320000000.0 0.1707973672617121 0.3365003470070493
2340000000.0 -0.12122640146445995 -0.392776793603532
2360000000.0 -0.4460911922246716 -0.04887642326682059
2380000000.0 0.1719028127889407 0.4672471784353423
2400000000.0 -0.4602339320967197 0.3147821349336904
2420000000.0 0.4937654893742794 -0.357918279014255
2440000000.0 -0.4701717505868301 0.4589392002173181
2460000000.0 -0.6924021780453209 -0.11118257240148523
2480000000.0 0.7039726830134085 0.20333913373030651
2500000000.0 -0.43773508653536525 -0.6143582646566894
2520000000.0 0.7159150942989779 -0.2754062792458334
2540000000.0 -0.6048041731038363 -0.47755016555539603
2560000000.0 -0.36193481003889344 0.6761766500305233
2580000000.0 -0.12181174023241174 -0.743214645697883
2600000000.0 -0.7276902845047174 0.07588757473868929
2620000000.0 0.04351323977535758 0.7031859587629389
2640000000.0 0.42897587659302144 -0.5094130127726056
2660000000.0 -0.522908667057132 -0.343618110588105
2680000000.0 -0.12858759254727678 0.5650154046477356
2700000000.0 -0.3014692093994633 -0.4332442360907273
2720000000.0 -0.15605562484878524 0.4553756276149618
2740000000.0 0.4304239836048572 -0.0454947286922806
2760000000.0 -0.3221029899037887 0.22161264634489958
2780000000.0 0.3605000222397727 -0.0027266946951363664
2800000000.0 -0.32570882865024975 -0.08343369709716662
2820000000.0 -0.04867811309656585 -0.31079336240479816
2840000000.0 0.15839589011186264 0.26073556509073925
2860000000.0 -0.23430008357120663 -0.18139742524059058
2880000000.0 0.13761195248899694 -0.25599449996543044
2900000000.0 -0.24938863254341526 -0.15024867745844342
2920000000.0 -0.2782236761634696 0.10877122798130516
2940000000.0 0.22050560100515548 -0.21962427688166247
2960000000.0 -0.159954283301507 -0.27451629946362743
2980000000.0 -0.2890671190921485 -0.13357335992442199
3000000000.0 -0.31311279457898267 0.050463110197783836
3020000000.0 0.30240267143234045 0.10352422637222823
3040000000.0 0.3166319705474966 0.04163736040849377
3060000000.0 0.17368085298093094 0.2601632295683375
3080000000.0 0.26283160768102276 -0.14938939717242092
3100000000.0 -0.16893124984557562 0.23888019687101028
3120000000.0 -0.09623227809519203 -0.26789159622640224
3140000000.0 -0.2751400443736101 -0.005401026469843434
3160000000.0 0.19854947591844407 -0.1736621552353051
3180000000.0 -0.23323954676417294 0.09416837129807736
3200000000.0 0.22426487706989895 -0.07708827712787206
3220000000.0 -0.009889485268181909 -0.20970884413087354
3240000000.0 -0.15518943476159702 -0.08086988989808108
3260000000.0 0.07580374312384322 -0.1207404936872272
3280000000.0 0.010673005890748351 0.09806283724379648
3300000000.0 0.047112388450971085 0.04678847167651961
3320000000.0 -0.024931771791522884 -0.03227090744125703
3340000000.0 -0.0015493800267322804 -0.02376303486433794
3360000000.0 0.006917702324400939 -0.007804238523967065
3380000000.0 0.0001573149131158464 0.0009007073938623367
3400000000.0 0.01621816335752756 0.004506852308916054
3420000000.0 -0.028802523747256767 -0.022545059094153896
3440000000.0 0.04871579220429563 -0.016188325172636787
3460000000.0 -0.049915639994914184 -0.04265073728426926
3480000000.0 0.07467638400905174 -0.02093820930767057
3500000000.0 0.011542563320814308 -0.08610227662084782
3520000000.0 0.09559944948212062 0.029159205585909224
3540000000.0 -0.08265347273398317 -0.07825918914793324
3560000000.0 -0.022613074119223652 0.1177656373353865
3580000000.0 0.10942031503881886 0.07964934322037504
3600000000.0 -0.018686899999270607 0.154397464512588
3620000000.0 -0.0156504156331411 -0.1650707174419097
3640000000.0 -0.1482581935644515 -0.10655187170064283
3660000000.0 -0.1649769381750416 -0.09430921013944434
3680000000.0 0.08457426977650326 -0.17208772835260155
3700000000.0 0.013184900308171347 -0.19156277743959516
3720000000.0 0.17133988600810016 -0.08152636679990018
3740000000.0 -0.004011629057097123 0.1823592160982695
3760000000.0 0.14370728506426525 -0.10779893206045763
3780000000.0 -0.08044743470049186 0.15564124207204771
3800000000.0 0.09288612428466328 -0.1400498490257702
3820000000.0 -0.1502448694562399 0.04593121717516359
3840000000.0 -0.1207690454229236 -0.0806775698130405
3860000000.0 0.07790995791783856 -0.11680812381155305
3880000000.0 0.0044960412191744036 0.14173233433093865
3900000000.0 -0.14397527912866984 -0.036344775409950236
3920000000.0 -0.08870038970891127 0.12723039807401768
3940000000.0 -0.167881752513574 -0.021952227697626378
3960000000.0 -0.01347050609571972 0.17537992746460712
3980000000.0 0.10480308229761374 0.136022072250494
4000000000.0 0.13937278856124932 -0.08146024945815855
