! Created with skrf (http://scikit-rf.org).
# Hz S RI R 50.0 
!freq ReS11 ImS11
400000000.0 0.2578763019501583 0.8345040907860586
420000000.0 0.6605938706851788 0.5507003100139021
440000000.0 0.7775079674993131 -0.27159032509235026
460000000.0 0.22905961840604822 -0.7525050191755009
480000000.0 0.6731242724914727 -0.1990925337122472
500000000.0 0.5554207445026546 -0.10476223458306475
520000000.0 0.4331107007583688 -0.23657843576750548
540000000.0 0.3270609810811798 0.28329299649716694
560000000.0 -0.2813856366152054 -0.22944648932181014
580000000.0 -0.22897726981834454 0.25420671458532085
600000000.0 0.339909785808243 -0.006443643029816884
620000000.0 -0.35317076934910746 -0.04145462271723979
640000000.0 -0.31304632990054 0.22655085036405595
660000000.0 -0.05214802780292013 0.39600336537918496
680000000.0 -0.3492256058793816 -0.2425593447053531
700000000.0 0.2637740845482492 0.356137254116006
720000000.0 0.16990105391109125 -0.4128097415201029
740000000.0 0.4328317258287851 -0.07791428891886835
760000000.0 -0.39799531438195024 -0.12990414099732422
780000000.0 0.11463492104241829 -0.3670433091362354
800000000.0 0.19326253938579743 0.288773036933176
820000000.0 0.19485211512970063 0.20623378989308136
840000000.0 0.1512087240038901 0.17112630868587084
860000000.0 -0.08990516021485359 0.17214275596943143
880000000.0 0.12609586622671035 0.033439230446026966
900000000.0 0.0614258762705241 -0.03634095330827211
920000000.0 0.025379906308456015 0.032877407938097555
940000000.0 0.02505230029659993 -0.008905934614949257
960000000.0 -0.0257358220865586 0.023596241791835847
980000000.0 0.02675829400813428 -0.04340257626870633
1000000000.0 -0.05706387386392441 0.0005500957600123735
1020000000.0 0.06418087339265699 0.03732984498500637
1040000000.0 0.07811013015814113 0.037232407176087216
1060000000.0 -0.1274841081899705 -0.009362974143801729
1080000000.0 0.14428426890675336 -0.03458691633636666
1100000000.0 -0.04068707695300353 -0.17503097249126937
1120000000.0 -0.04498069128157587 0.20500165482737084
1140000000.0 -0.06942047568590744 -0.24079504054912887
1160000000.0 -0.2769027850520512 0.09214488383214482
1180000000.0 -0.08237139413467139 0.31992247420634967
1200000000.0 -0.11774198489272757 0.3411374092627837
1220000000.0 -0.3336026613078641 -0.1941857143669921
1240000000.0 0.4060562605906677 0.013587056098690117
1260000000.0 -0.4110289900231397 -0.12060042708743167
1280000000.0 0.36060495717510016 0.2521181995696353
1300000000.0 -0.06031316169352985 -0.43877030329196
1320000000.0 -0.4330200327937411 0.02286913546694433
1340000000.0 -0.35425457714902825 -0.2304716372112297
1360000000.0 0.13310711862946298 -0.39241774449352224
1380000000.0 0.32683702418103666 -0.25678751111726716
1400000000.0 0.2057208044165216 -0.35017932555226583
1420000000.0 -0.13904010831370678 -0.3712301123490686
1440000000.0 -0.3719393703456492 -0.07697314337989938
1460000000.0 -0.04615370608319344 0.35712332076277964
1480000000.0 0.25378526476587654 -0.2208042959717614
1500000000.0 -0.2654928294512323 0.15378358115080648
1520000000.0 0.2759488320687168 0.02852563733008909
1540000000.0 0.22137080047116794 0.10027712567633569
1560000000.0 0.18778481359375707 0.06990752821453648
1580000000.0 0.08703263457022528 0.13897085406502047
1600000000.0 0.1043651279265626 -0.07640844192640041
1620000000.0 0.08373033492880087 0.039761596504100945
1640000000.0 -0.027188556980888616 -0.06495298061147355
1660000000.0 -0.04443373871661329 -0.012529662439353178
1680000000.0 -0.01854080343892741 -0.015901084155982285
1700000000.0 -0.011454996026774826 0.002025111135965211
1720000000.0 0.010606477293755672 0.006037587352510144
1740000000.0 -0.026552961446588332 -0.010896333294467613
1760000000.0 0.017683605084164285 -0.039784522574758674
1780000000.0 -0.00015741309086888207 -0.06948456487488612
1800000000.0 -0.023971570155962636 0.09533720379325233
1820000000.0 -0.11578125246157335 0.04072435678260794
1840000000.0 -0.022017960090322378 0.15533631297681166
1860000000.0 0.16772566880230463 0.08791046730324868
1880000000.0 0.18972800007245846 -0.1271227136093641
1900000000.0 -0.1713977669557192 -0.21142876917759346
1920000000.0 0.13494431748689809 0.2815721700423803
1940000000.0 0.09529439360244343 -0.33764505486593427
1960000000.0 -0.2690948130103798 0.2725373091401917
1980000000.0 0.36206306702732993 -0.1859011356789602
2000000000.0 -0.33716543118610587 -0.25871761462826465
2020000000.0 -0.09485981887144478 0.42524887948470497
2040000000.0 0.4131576589700874 0.14663350716388507
2060000000.0 0.24536405473181497 -0.3600314620108791
2080000000.0 -0.07998076422166278 -0.41905184598561773
2100000000.0 -0.11598864477463385 -0.4014607045855418
2120000000.0 -0.14213930570559563 -0.38232414431289025
2140000000.0 -0.15752090400458846 -0.3649860448595952
2160000000.0 0.3045310663105306 -0.23529527731242028
2180000000.0 0.1971842416018708 -0.31494144395134954
2200000000.0 0.09118666573485347 -0.34930328438185243
2220000000.0 -0.2725084836072786 -0.22512315850358525
2240000000.0 -0.2904553176730152 0.19303696903054088
2260000000.0 0.002004715470838647 0.3480984231385343
2280000000.0 0.22053354574749837 0.2706444910835801
2300000000.0 0.3090956551252144 -0.18711608545193648
2320000000.0 -0.11489423930644835 -0.3650187381804252
2340000000.0 -0.3895821586374279 0.13987126870681146
2360000000.0 0.3452874679313189 0.29504795710329257
2380000000.0 -0.279954250971847 -0.4172779301730281
2400000000.0 0.2513025173583195 0.49444587156054265
2420000000.0 -0.4873308737933427 -0.362622016120108
2440000000.0 0.6558560814122035 -0.046594885909622276
2460000000.0 -0.5140592905947925 0.4736108746284357
2480000000.0 0.26028778175473083 -0.6829854228982246
2500000000.0 -0.2815171032574248 0.6979265687239083
2520000000.0 0.3845371266539844 -0.6593831718325442
2540000000.0 -0.6008180067414216 0.47420858252265796
2560000000.0 0.752456942959113 0.10426386697329972
2580000000.0 -0.32404370127836013 -0.6707573287078545
2600000000.0 -0.301809809116184 0.6544606432759856
2620000000.0 0.685802345559755 -0.07673061951053788
2640000000.0 0.4998478269849607 -0.42003977863518327
2660000000.0 -0.6031661115920568 -0.08484836259239063
2680000000.0 0.2960970101921889 0.47736038818646714
2700000000.0 0.046649690840672685 -0.5122943199914668
2720000000.0 -0.21526658411294283 0.4132013145746566
2740000000.0 0.3679228046779644 -0.20442372085316224
2760000000.0 -0.3777903187418783 0.05189163565909253
2780000000.0 0.3285453597678205 -0.12384127607957061
2800000000.0 -0.21178569034792216 0.24807940345245286
2820000000.0 -0.10500377289679778 -0.2911547791601962
2840000000.0 0.29264975764334755 0.0642879000557006
2860000000.0 -0.15041540332052042 0.25496263078285547
2880000000.0 -0.11816059984483387 -0.2711158092630045
2900000000.0 0.17388629640535008 0.24043327570026363
2920000000.0 0.07350561714752485 -0.29206851029834974
2940000000.0 -0.30600930036693996 0.024587638540142932
2960000000.0 -0.15925808724097396 0.2646276618368651
2980000000.0 -0.2658825820139762 0.16502148486418233
3000000000.0 -0.2634657035590729 -0.1721826821280515
3020000000.0 0.11321222616235864 -0.2956958736275901
3040000000.0 0.20384229621845484 0.2399930726439645
3060000000.0 -0.3138090284955142 -0.002972229652421481
3080000000.0 0.27891391229203333 -0.13379498708725704
3100000000.0 -0.13487048384352548 0.2712547855390545
3120000000.0 0.031352035898773 -0.292786037803543
3140000000.0 0.14427005349734257 0.24386096103856078
3160000000.0 -0.24939073069922724 -0.095381501257841
3180000000.0 -0.003534946234893993 0.24886073578923154
3200000000.0 -0.19560996104604098 -0.11377819796999648
3220000000.0 0.14269415040927222 -0.1389770770122955
3240000000.0 0.0371182684782715 0.16483387061409221
3260000000.0 0.016477949195521667 -0.1365813535253801
3280000000.0 -0.050214420073099106 0.09453588944710323
3300000000.0 0.05878266828796826 -0.053402204524236586
3320000000.0 -0.047547808583651215 0.020668160857764836
3340000000.0 -0.0035205179312255744 -0.027238741360212693
3360000000.0 -0.0011658103537734174 0.00704016102357811
3380000000.0 -0.001498530645652668 0.009812643715736397
3400000000.0 -0.023926093832210872 -0.006076773893775606
3420000000.0 -0.0157196323734374 -0.034716276896000625
3440000000.0 -0.02260822314151746 0.0437457104796923
3460000000.0 0.04097386649097208 0.039217221201127285
3480000000.0 -0.04861897173478786 -0.04471568845812719
3500000000.0 -0.012128616216075007 -0.07799405092066436
3520000000.0 -0.08923332043902044 -0.03285706133822888
3540000000.0 0.10417232682835449 0.03831966585235056
3560000000.0 -0.11034285862201978 0.058856210162248825
3580000000.0 0.11810915701093154 -0.0727264524837899
3600000000.0 0.105756172968201 0.11700196992706947
3620000000.0 0.016014974856846498 0.16821340317723288
3640000000.0 -0.15537043211766588 0.0909430138890699
3660000000.0 -0.18989425274078417 0.0028194034659557404
3680000000.0 -0.14222676319663707 -0.132398801208138
3700000000.0 -0.10472834595346299 -0.16315508577299093
3720000000.0 0.07741214770893952 -0.17632377494733562
3740000000.0 0.17128849416369799 -0.07865070752264952
3760000000.0 -0.16474869149819393 0.07374848739758116
3780000000.0 0.16995485962371423 0.010199886906524491
3800000000.0 0.046529466293619856 -0.15356575517535387
3820000000.0 0.03376474994971873 -0.14961087712134075
3840000000.0 0.13987457298685543 -0.048537400781254535
3860000000.0 0.027022073106275878 0.14664202315483793
3880000000.0 0.0684135976793648 0.14013946999979204
3900000000.0 0.05940853742543759 -0.14756263760398733
3920000000.0 -0.1456939091145788 0.07277231658937142
3940000000.0 0.14491891435029755 -0.08241019574806883
3960000000.0 0.15289494238114532 0.07216216710379275
3980000000.0 0.16463602229390698 -0.0396032638667845
4000000000.0 0.16162640944139467 -0.022763594374876402
