! Created with skrf (http://scikit-rf.org).
# Hz S RI R 50.0 
!freq ReS11 ImS11
400000000.0 0.19510250154715159 0.8490879657017043
420000000.0 0.6492885951060615 0.5626580536167823
440000000.0 0.7393305209722245 -0.3646680849593953
460000000.0 -0.008787930258299059 -0.7850052126218672
480000000.0 0.536069212708144 -0.4433628748272651
500000000.0 0.511690004743836 0.21908494646043813
520000000.0 0.3645835283973636 0.33027373643415775
540000000.0 -0.3801874319168632 0.22463271120054995
560000000.0 0.26453157891143914 -0.27290818726420785
580000000.0 -0.2376600691484968 0.27458668375257794
600000000.0 0.2619395185456287 -0.24697465507969096
620000000.0 0.06715985455341407 0.36893450002825556
640000000.0 0.18191430534903386 -0.35442294110173006
660000000.0 -0.2536666230739395 -0.31202685210255743
680000000.0 0.4078702641270689 -0.04989716165084553
700000000.0 0.22317023681230386 -0.3580088057075002
720000000.0 0.07312188629781165 -0.41725665663028905
740000000.0 0.19447321421548874 0.3772122408915855
760000000.0 0.11088178154819893 -0.3953685059749363
780000000.0 0.35300457091207693 0.13732896236036238
800000000.0 -0.3175240334052114 -0.1347209173995162
820000000.0 -0.15283120122465554 -0.24677792353494768
840000000.0 -0.2279183230641536 0.06472660144092254
860000000.0 0.16811818653572297 -0.10932683819013922
880000000.0 -0.12955643534131067 -0.055240040565618286
900000000.0 0.08100136598910757 0.00863931473743695
920000000.0 -0.05788690262027238 -0.0017683408390129036
940000000.0 -0.01051096259109916 -0.03633374185410364
960000000.0 -0.02485437877406837 0.035346926332800614
980000000.0 0.03659768193717488 0.052635424016772944
1000000000.0 0.05981901042364041 0.0603301425474789
1020000000.0 -0.09989156710159766 -0.050890762185931034
1040000000.0 -0.11153932495532189 0.062275057957956396
1060000000.0 0.11197461710186009 0.11393648400395294
1080000000.0 0.14806087318380567 0.08124333021228047
1100000000.0 -0.010837900577119376 -0.18323115078629634
1120000000.0 -0.02404344665484609 -0.1958717227017049
1140000000.0 0.05268379434895548 -0.22042924096232516
1160000000.0 0.17577010021905765 0.19449635248485525
1180000000.0 -0.20140469139382056 0.23073331723346643
1200000000.0 -0.3423419137645245 0.02562016158983586
1220000000.0 0.20572375561272435 -0.31358289021890456
1240000000.0 -0.01765654998545546 0.40105452446140255
1260000000.0 0.14353094880178827 -0.4016987176740205
1280000000.0 -0.2861194400380355 0.33478401323657436
1300000000.0 0.44583598150537845 0.05353963686599068
1320000000.0 -0.0047691915113403874 -0.4447956778979065
1340000000.0 0.030009304590609402 -0.4377440771503474
1360000000.0 0.15655705009753376 -0.40323130017810965
1380000000.0 -0.08585194067661057 -0.4234369778400656
1400000000.0 -0.41698720618922963 0.018124644404030603
1420000000.0 0.016081987540253556 0.39811244437736
1440000000.0 0.3401892859348858 0.15345589483798322
1460000000.0 0.16920690796114268 -0.29990519194994103
1480000000.0 -0.22330426128322503 -0.22029913360235703
1500000000.0 -0.2725876231266706 0.07783222386729181
1520000000.0 -0.2012636684180425 0.15832004540481792
1540000000.0 0.01164407730702108 -0.22724633666259922
1560000000.0 0.18751355634783637 0.05132781427330236
1580000000.0 -0.07663703957122471 0.15004408601398606
1600000000.0 0.12356319422419035 0.06586094917328081
1620000000.0 0.07426693951945557 0.0824979243541306
1640000000.0 -0.06954059006347418 0.05576591522689856
1660000000.0 -0.05282955662779959 0.04119429313084653
1680000000.0 -0.024168377171708236 -0.03997229689162617
1700000000.0 0.006141159411617729 -0.029790332584422027
1720000000.0 -0.00576922700662401 0.008557101633948594
1740000000.0 0.013691097131148109 -0.000375482558756217
1760000000.0 0.035874776074272294 -0.008881504926868155
1780000000.0 -0.005640754279868635 -0.07273287550918928
1800000000.0 0.0840597095577729 0.07313748937242798
1820000000.0 0.12869692010545528 0.06958104474483294
1840000000.0 -0.009471087955008551 0.18180374209022243
1860000000.0 -0.20658365593493075 -0.048255384945407945
1880000000.0 0.11323019797025179 0.21291414716804638
1900000000.0 0.25011184439777034 -0.1105703878934391
1920000000.0 -0.09779927710584553 -0.28782504013393934
1940000000.0 -0.3053677569018097 -0.1414484433159059
1960000000.0 -0.15858760455217843 0.33189025366040675
1980000000.0 0.37896136317638307 0.10400602352131189
2000000000.0 0.25597475905774436 -0.32869887759704025
2020000000.0 -0.42939863931974154 -0.04814354170337676
2040000000.0 -0.08322916272377757 0.43159280372157655
2060000000.0 0.43760104660132154 -0.044047701679403264
2080000000.0 0.05352103230277197 -0.4294968541230087
2100000000.0 -0.18376212610122483 -0.38145682355319144
2120000000.0 -0.3422328083630086 -0.2293859404660289
2140000000.0 -0.3989068983427373 -0.006039020426046633
2160000000.0 -0.11239272141904218 -0.3666679983594088
2180000000.0 -0.20771314915420724 -0.30238634131260017
2200000000.0 -0.2739212524183204 -0.2267682918795037
2220000000.0 -0.31982537558950896 -0.1356710439762692
2240000000.0 -0.29597781209210444 0.17927205486838763
2260000000.0 -0.02700687525774538 0.3460917647146457
2280000000.0 0.2508787558018696 0.24727477313742252
2300000000.0 0.18619059683503694 -0.3141644184291558
2320000000.0 -0.3497711717576926 -0.16320325740150257
2340000000.0 -0.18155188728492783 0.3723702312078398
2360000000.0 0.4486695518677036 0.06558117419175585
2380000000.0 -0.36098672870250725 -0.34741463187629296
2400000000.0 0.29004958048710217 0.47227688822220637
2420000000.0 -0.5138209509125624 -0.3262326357377134
2440000000.0 0.6487756234975017 -0.11125455385770529
2460000000.0 -0.3988088264304056 0.5742182006211984
2480000000.0 0.05940364165774824 -0.7275550720601076
2500000000.0 -0.09964519441302558 0.7439357623698474
2520000000.0 0.2155215719735598 -0.7295072566815232
2540000000.0 -0.5182460750646488 0.5594785005476313
2560000000.0 0.7524190841923621 -0.07875057362506144
2580000000.0 -0.5380889176910619 -0.5100765425795724
2600000000.0 -0.06532617557983623 0.7144647020208452
2620000000.0 0.5455918868865066 -0.4171382971530426
2640000000.0 0.2645421266856857 -0.5925399336234569
2660000000.0 -0.5771173326851307 0.176236560104246
2680000000.0 0.4921430009909543 0.2585044944428382
2700000000.0 -0.12304344437446867 -0.49327413052155117
2720000000.0 -0.2162753190546307 0.40667364960606606
2740000000.0 0.38041166852844277 -0.17301963717341337
2760000000.0 -0.37947682533006427 0.02181823120493483
2780000000.0 0.3278972764003025 -0.12476123606969289
2800000000.0 -0.17816123787418375 0.2732207604040834
2820000000.0 -0.14238235271646282 -0.2737540048304353
2840000000.0 0.2976372481760435 -0.01328386662178499
2860000000.0 -0.15769211715803153 0.2480898455919587
2880000000.0 -0.09902605693197337 -0.2758548647214401
2900000000.0 0.13588113248279896 0.26107889730760697
2920000000.0 0.13916877140387776 -0.26461218633591027
2940000000.0 -0.3027099764497228 -0.0422307778727855
2960000000.0 -0.2013159306428761 0.2340245861405493
2980000000.0 -0.21539391443404632 0.22782033164880813
3000000000.0 -0.31360240615558876 0.017955815299351738
3020000000.0 -0.11956787497254123 -0.2914885538280483
3040000000.0 0.3093436250123049 -0.04212503063258752
3060000000.0 -0.2849007684741721 0.12117041212188046
3080000000.0 0.2460875884274862 -0.1811035737411522
3100000000.0 -0.18433929339703137 0.2366138466090844
3120000000.0 0.1521301725279529 -0.24890160976037926
3140000000.0 0.001037144822420946 0.28272355724064946
3160000000.0 -0.16674684527169345 -0.2105024436999309
3180000000.0 -0.07651994304382118 0.23989338993210552
3200000000.0 -0.18687354847586524 -0.13398766911656984
3220000000.0 0.10372059150775963 -0.17520039939284657
3240000000.0 0.12276893907828704 0.12204068336226792
3260000000.0 -0.12808701120974292 -0.05461400723663367
3280000000.0 0.09874632759106954 0.03918628540029894
3300000000.0 -0.007694122882650182 -0.07595985355190475
3320000000.0 -0.010366151352161892 -0.04659934155414681
3340000000.0 -0.02001874548342313 0.0113800659395685
3360000000.0 0.006247879094789611 -0.00020537792021683572
3380000000.0 -0.004506250519081412 0.009527519497285577
3400000000.0 0.021803944867606388 -0.005685762024639048
3420000000.0 0.03450635431906158 -0.002234509003704895
3440000000.0 -0.04126986373784084 0.020534651817448065
3460000000.0 -0.03392178596842394 -0.04394723915296339
3480000000.0 0.060596475152596585 -0.03153670797078093
3500000000.0 0.0004559632642459266 -0.08348343680614997
3520000000.0 0.036818943357808415 0.09261545312442512
3540000000.0 -0.11083521985978068 -0.029110734719200344
3560000000.0 0.11978760225144568 -0.03991477121414587
3580000000.0 -0.13750442506037422 -0.00954317556161438
3600000000.0 0.1339264511758093 -0.07859118565767546
3620000000.0 0.08091944144226385 0.14581334968104515
3640000000.0 -0.17081368703592156 0.0505358086166262
3660000000.0 -0.16533998379402692 -0.09200281685786033
3680000000.0 -0.08850067466167286 -0.174156138201826
3700000000.0 -0.04464060509295369 -0.19202165032929544
3720000000.0 0.12037511707136297 -0.15454967215776366
3740000000.0 0.1384392973877602 -0.13357115126408117
3760000000.0 -0.050401793588371636 0.17676684636912343
3780000000.0 0.014931431412787554 -0.1716328277392733
3800000000.0 -0.15319405830576222 -0.04998782389449919
3820000000.0 -0.1405014003810959 -0.05949211452041706
3840000000.0 0.09565521453666798 -0.1116765867027159
3860000000.0 0.003413214891432883 0.14919718411857738
3880000000.0 0.07895600229211568 0.13603694568449673
3900000000.0 0.10948748711760152 -0.11807655676093472
3920000000.0 -0.16428172959914222 0.02392482186361879
3940000000.0 0.09618814306651276 -0.1402664295324661
3960000000.0 0.17098917245979192 0.02798589101130258
3980000000.0 0.12378045406388011 -0.12193543432196502
4000000000.0 0.08982857578078186 -0.14071198191129083
