!Created with skrf (http://scikit-rf.org).
# Hz S RI R 50.0 
!freq ReS11 ImS11
400000000.0 0.42670818895060286 0.7575556919059447
420000000.0 0.8448316166702563 0.0033959026521250386
440000000.0 0.7998140250350191 -0.0018765539604767576
460000000.0 0.661823043706345 0.3427160656784548
480000000.0 0.023433209108003797 -0.6874086497550916
500000000.0 0.11760867145649588 0.5942237565899646
520000000.0 0.3539600294173145 0.36889501645223277
540000000.0 -0.4096794191301667 -0.14274142957548092
560000000.0 0.17748093812974675 0.35345262835439684
580000000.0 -0.3510204150675354 0.08540224987254268
600000000.0 0.1726334915249262 -0.3059210030977065
620000000.0 -0.14266938139469879 -0.32010871441805455
640000000.0 0.391155868053707 0.11060915727121368
660000000.0 0.053336596186849744 0.40952744140542796
680000000.0 -0.07662004301324596 -0.4382574366183539
700000000.0 0.01385815584620995 0.4602028003528044
720000000.0 -0.44256539093438696 -0.13143145691166797
740000000.0 -0.39248802802379595 0.16931030055851906
760000000.0 -0.23514970157910617 -0.3371000711583942
780000000.0 -0.3442099124395902 0.16796886087517338
800000000.0 -0.17565975874080525 0.29267155636026515
820000000.0 0.2509562409907746 0.12830017201633284
840000000.0 -0.05003951881578231 0.2014641354885599
860000000.0 -0.1562679810195726 0.057231707986187104
880000000.0 -0.09843175289861748 -0.09814756037691681
900000000.0 -0.07118835217555093 0.0624186356369842
920000000.0 0.045436020290039014 -0.031247074174665285
940000000.0 -0.03542749831802493 -0.00037414556110884243
960000000.0 0.01643065273154196 -0.031519316496466665
980000000.0 -0.05802806703364718 -0.007790177697504981
1000000000.0 -0.007032523256794711 0.0968199472507734
1020000000.0 0.04659978337230904 0.11176687014006999
1040000000.0 -0.08392444318554175 -0.10687289236234479
1060000000.0 -0.020395531299882735 0.1611151943974192
1080000000.0 -0.15769802633756533 -0.10573664114188183
1100000000.0 0.16115710220299712 -0.14184219436819434
1120000000.0 0.22868773309428794 -0.061703218823591754
1140000000.0 -0.1098085525212543 0.23586307466583306
1160000000.0 -0.14411915308299308 0.24186912150829193
1180000000.0 -0.2754233893298432 -0.13353016608231072
1200000000.0 0.2997075598557911 0.1581565647432559
1220000000.0 -0.11594317954291171 -0.35171379367486666
1240000000.0 0.34931067700539487 0.18245498390585124
1260000000.0 -0.317353222386422 -0.25443949018180595
1280000000.0 -0.42068743875792647 0.023804418617974974
1300000000.0 0.13589946604251876 0.4079792231346829
1320000000.0 0.3516961457627235 0.25536100471889206
1340000000.0 0.14121404247819655 0.41786023465842864
1360000000.0 0.4412602121272258 0.08555391531830753
1380000000.0 -0.29748337581357975 -0.32554550963224055
1400000000.0 -0.42658475423741904 0.018045824991961997
1420000000.0 0.3145345500341991 0.2522849619067616
1440000000.0 0.2535129184550847 -0.2705201154602146
1460000000.0 0.2854355913639999 -0.18433156666337375
1480000000.0 -0.03592717666082328 -0.3106188164771975
1500000000.0 -0.2665521613342847 0.09510113861085469
1520000000.0 -0.18739421518060298 -0.1737675550564135
1540000000.0 -0.09948887481371008 0.20843723078466853
1560000000.0 -0.10572337950178243 0.17162735188345846
1580000000.0 -0.13947597483766902 0.11165843561648837
1600000000.0 0.14034165500671922 0.027513129105167487
1620000000.0 -0.08250751892458354 0.06453244738194966
1640000000.0 -0.0712422106090196 -0.0303031529562588
1660000000.0 0.0532763791027077 0.026051720311999326
1680000000.0 -0.026280802223978564 -0.02085091392976073
1700000000.0 0.00886147259561188 0.00266714046629913
1720000000.0 -0.009710599107589125 -0.00759961090954725
1740000000.0 0.025974914981420395 0.006823664613023857
1760000000.0 -0.03578661741919371 0.0016793157720171711
1780000000.0 -0.027811842421157133 -0.038702738552866885
1800000000.0 -0.05078869471900176 -0.06248027511866705
1820000000.0 0.05735152449672082 0.09528043807006592
1840000000.0 0.15160086385437216 -0.009306705789058161
1860000000.0 0.14296740658985346 -0.13980692578362555
1880000000.0 -0.22786196533552 0.08807350080741277
1900000000.0 0.19764695673171695 -0.2100449194685945
1920000000.0 0.14610219140681693 -0.2965508243059086
1940000000.0 -0.21324808743181334 0.27686188974412484
1960000000.0 0.0966289708895843 0.35606636413775
1980000000.0 0.17445824918796568 -0.3547857410809954
2000000000.0 -0.2433512208201779 -0.33218367664126525
2020000000.0 -0.2692756453965596 -0.3249346710037753
2040000000.0 -0.27277621116350637 0.33468300754268443
2060000000.0 -0.13800325909436992 0.4150122916261785
2080000000.0 0.05927172824507487 0.43346992020012914
2100000000.0 0.12051796631995122 -0.4147032202604101
2120000000.0 -0.04703264040054948 -0.4162683893828409
2140000000.0 0.13907922515016444 -0.3774367203565038
2160000000.0 0.26297586927681615 -0.28415589064814906
2180000000.0 0.2935060403464635 -0.23077969381849875
2200000000.0 0.2880272062714436 -0.216007879483182
2220000000.0 -0.2789410534563705 -0.20998112587038847
2240000000.0 -0.1580596837777086 -0.3027506892257581
2260000000.0 -0.14936266767564954 -0.3059119039518361
2280000000.0 -0.1890577615721725 0.2911132393220563
2300000000.0 -0.05021482458381058 0.3528469338442785
2320000000.0 0.16647865883296292 0.34104855454270266
2340000000.0 -0.16751443733924698 -0.37505671643999394
2360000000.0 -0.4471688049972744 -0.016051649864425616
2380000000.0 0.22818941364887171 0.4419050123937929
2400000000.0 -0.43401751783818626 0.34912473322794085
2420000000.0 0.48658692318450303 -0.367027110990634
2440000000.0 -0.4925644022849502 0.4345489002178508
2460000000.0 -0.6893286460767243 -0.13115937706443662
2480000000.0 0.6979182105600344 0.22753800626101955
2500000000.0 -0.35305658513800015 -0.6684699688320348
2520000000.0 0.7379481878975898 -0.214206134239969
2540000000.0 -0.5593465524653132 -0.5318494500131491
2560000000.0 -0.48927454968353284 0.5926798213746688
2580000000.0 0.08842378980715486 -0.7487641968430852
2600000000.0 -0.718633522340335 -0.14173967304121649
2620000000.0 -0.16085271872656828 0.6873116475918389
2640000000.0 0.5758284928170977 -0.33892837961761424
2660000000.0 -0.4130270183923503 -0.47254444228287723
2680000000.0 -0.2583944100937987 0.5207873540712856
2700000000.0 -0.2730431455879439 -0.45340955001889477
2720000000.0 -0.11829668810576532 0.4667631907947182
2740000000.0 0.4059289844332699 -0.14741823284188482
2760000000.0 -0.3117502349226704 0.23132275443593686
2780000000.0 0.3457868337896804 0.09280850328700066
2800000000.0 -0.26259964069091696 -0.2064192582716546
2820000000.0 0.10641813934724902 -0.29481723299784984
2840000000.0 -0.06315539788662865 0.2995015902142901
2860000000.0 -0.13542558213066672 -0.26863421129341064
2880000000.0 0.010868356756837286 -0.2968262838234495
2900000000.0 -0.25311412800028293 0.15165841053161472
2920000000.0 0.0027102809882203387 0.29921890622949704
2940000000.0 -0.0400879018450525 -0.30651330033532137
2960000000.0 -0.23498520161166409 -0.20894904144035048
2980000000.0 -0.1448327452766183 -0.28091243570116653
3000000000.0 -0.22647497558290489 -0.2227192396616407
3020000000.0 0.09140706920989922 0.30901325964492943
3040000000.0 0.1746942571500471 0.2716665311104177
3060000000.0 0.08235671439312761 0.30460550276698567
3080000000.0 0.2980372597087155 -0.06289539278181902
3100000000.0 -0.20839886409619296 0.20882652578061453
3120000000.0 -0.057387093243225926 -0.27999343776198016
3140000000.0 -0.2728816580986622 0.03087746947781175
3160000000.0 0.22374965745379813 -0.13356646418242243
3180000000.0 -0.23844221738881882 -0.06591675721524276
3200000000.0 0.19907378435713996 0.12114864433416311
3220000000.0 0.20630086016228996 -0.02733962372439304
3240000000.0 0.06293459397785035 -0.1638409394103442
3260000000.0 0.13664090924752553 0.04695506327454638
3280000000.0 0.08042405849994616 0.061100695352095225
3300000000.0 -0.0607382890732052 0.02445246219323257
3320000000.0 -0.03691380267838642 -0.008451424740961623
3340000000.0 -0.011844337731681545 0.014430865084047713
3360000000.0 -0.0029935712805174005 -0.006820038739267759
3380000000.0 -0.001266419144393495 -0.002779853751757163
3400000000.0 0.003854298383795074 -0.015807271677619233
3420000000.0 0.020192504726129535 -0.02850923069686566
3440000000.0 -0.036493985259335955 0.034075206537604076
3460000000.0 0.012118725239968372 0.06340771134952351
3480000000.0 -0.07771440052026521 0.0021418888342200643
3500000000.0 0.05094031453762733 0.07322192934315251
3520000000.0 -0.010759358892262235 0.10268738387591878
3540000000.0 -0.10779625705155846 -0.042627807116030376
3560000000.0 0.022498801491052167 0.11812374166052313
3580000000.0 0.13046482975429888 -0.028538540096179423
3600000000.0 -0.047961851663489236 0.14239813501592213
3620000000.0 0.16117410633107876 -0.01293254289608067
3640000000.0 0.12976116682502228 -0.12494457207358142
3660000000.0 0.0676020561500677 -0.17844113595169594
3680000000.0 0.17932236104431107 -0.07494388611149602
3700000000.0 -0.11583210540704386 -0.15549735974464918
3720000000.0 -0.07028676353025261 -0.175171640611122
3740000000.0 0.17414531740659894 0.040489849894441675
3760000000.0 0.14565478658488373 -0.09442304031428418
3780000000.0 -0.1681385295584602 -0.03500225646552117
3800000000.0 0.1654406571097926 0.024530540361907736
3820000000.0 -0.14328681715596675 -0.0702638668654047
3840000000.0 -0.14315002429215734 0.036250821690443996
3860000000.0 -0.12793389293870205 -0.06024832882397255
3880000000.0 0.1185554776891996 -0.07391206839700294
3900000000.0 -0.12208635391872366 0.07580029363873449
3920000000.0 -0.1272944429983418 0.0804826018237152
3940000000.0 -0.02866986509419893 -0.1642920732190262
3960000000.0 -0.17499507075024293 0.02075742756255429
3980000000.0 0.031381213526350864 0.17145926940612785
4000000000.0 0.07128194188453066 -0.14913159838341483
