!Created with skrf (http://scikit-rf.org).
# Hz S RI R 50.0 
!freq ReS11 ImS11
400000000.0 0.4395182404883714 0.749830598975755
420000000.0 0.8426075279497209 0.06645246638433289
440000000.0 0.7997551414894839 -0.00994455884017299
460000000.0 0.678190193791032 0.3087254753798344
480000000.0 0.007723870291577305 -0.6876575100935838
500000000.0 0.1296368495895801 0.5915922853717944
520000000.0 0.34787138937800277 0.37468355899293343
540000000.0 -0.41287762875348916 -0.13278881862968275
560000000.0 0.19501085052060427 0.3440495205396617
580000000.0 -0.3505714012897387 0.08778682248748372
600000000.0 0.17376696659954943 -0.3054803879803221
620000000.0 -0.13392587186668103 -0.3242396008683265
640000000.0 0.38749234023009443 0.12297714899961791
660000000.0 0.0508752555845304 0.4099795342398429
680000000.0 -0.08099170299833248 -0.4372954932561699
700000000.0 0.006144400203977413 0.4603773466771741
720000000.0 -0.4425721119520732 -0.13126603248708288
740000000.0 -0.39733646356941893 0.15822391344557965
760000000.0 -0.2346799021581011 -0.33723985014850344
780000000.0 -0.3439661487371063 0.16824611095599157
800000000.0 -0.17132385537644929 0.29509237634767493
820000000.0 0.2510853039261835 0.12777633002443253
840000000.0 -0.045329383764082076 0.20258961545963278
860000000.0 -0.15637387561985577 0.056898687643371
880000000.0 -0.09845394715632033 -0.09823955506055582
900000000.0 -0.07360597993610818 0.05977711324733575
920000000.0 0.04527415286130501 -0.03167756235637599
940000000.0 -0.0340147312440581 -0.010243003698471958
960000000.0 0.028183134490271294 -0.021778400682863446
980000000.0 -0.054213496492187783 -0.021939207630019025
1000000000.0 -0.008580813715958167 0.09655886331555869
1020000000.0 0.043827594064096 0.11287717811598955
1040000000.0 -0.08217123599481871 -0.10829580571631589
1060000000.0 -0.027842857988824885 0.1601110577966351
1080000000.0 -0.15781426386946418 -0.10566932324446297
1100000000.0 0.17270817952211973 -0.12743000456545828
1120000000.0 0.22542802359027211 -0.07263921950666442
1140000000.0 -0.07787666233240254 0.24808743079571932
1160000000.0 -0.14839555374451877 0.23914226136836234
1180000000.0 -0.28069517686310674 -0.12243446722892087
1200000000.0 0.29886092549939486 0.16002320487968538
1220000000.0 -0.13045706687057493 -0.34663546504347176
1240000000.0 0.35151661949019103 0.1783021954202875
1260000000.0 -0.3190901892487215 -0.2526104725319215
1280000000.0 -0.4206774464341582 0.02563693694639425
1300000000.0 0.143313392524722 0.4055736250208809
1320000000.0 0.35201825286894783 0.2548847086682559
1340000000.0 0.14221876850196863 0.41740244958494727
1360000000.0 0.4406991763173412 0.08840904726994961
1380000000.0 -0.29381636568988234 -0.32879028396109095
1400000000.0 -0.42605236524988577 0.025163073510856324
1420000000.0 0.3271684160803684 0.23497788848993018
1440000000.0 0.26261276310029 -0.26203512801173945
1460000000.0 0.2861653970982063 -0.18325527537470368
1480000000.0 -0.046345149956706695 -0.30929941936633265
1500000000.0 -0.2690853905339642 0.08767025094165679
1520000000.0 -0.18942964182892671 -0.1715881061366955
1540000000.0 -0.09183231819159436 0.21210219863726607
1560000000.0 -0.11055984942899877 0.16888064507563197
1580000000.0 -0.14605005987524533 0.10329585818689435
1600000000.0 0.142921201296741 0.005368198481699601
1620000000.0 -0.09193078365062873 0.0502764343944376
1640000000.0 -0.06894993869695047 -0.03501541291786931
1660000000.0 0.0465547129914454 0.036632092615132006
1680000000.0 -0.005684424569860725 -0.0326733528877797
1700000000.0 -0.003920456361221629 -0.007895012377294326
1720000000.0 -0.010063886091774533 -0.007057050169839941
1740000000.0 0.02718641621300998 -0.0006755225542366976
1760000000.0 -0.035570718870347615 -0.0031089891272610823
1780000000.0 -0.02477804708996456 -0.04069798223325408
1800000000.0 -0.05100497362668345 -0.06269726370069728
1820000000.0 0.049583513926540625 0.09928157471458873
1840000000.0 0.15142174108667442 -0.011381758830337117
1860000000.0 0.13274480321968768 -0.14919873810086787
1880000000.0 -0.22365960786805267 0.09817456722251004
1900000000.0 0.18943758915259087 -0.21718514823356116
1920000000.0 0.14280590375172328 -0.2980416711686056
1940000000.0 -0.20430229381076065 0.2835079107781685
1960000000.0 0.1098112394188133 0.35238629920984177
1980000000.0 0.16384239891142155 -0.36008734485612187
2000000000.0 -0.24837609883770267 -0.32861360284323776
2020000000.0 -0.2780883036367036 -0.3176636269033021
2040000000.0 -0.2735352560154817 0.3343010384905413
2060000000.0 -0.1285988468953352 0.41825194141422367
2080000000.0 0.059972423312775934 0.433551384809129
2100000000.0 0.11472692093545016 -0.41657158218603146
2120000000.0 -0.030817871870971264 -0.41806106530812437
2140000000.0 0.13587302585570982 -0.37861731145051514
2160000000.0 0.2721912747419731 -0.27532997124183634
2180000000.0 0.2955547807113332 -0.22777601359422825
2200000000.0 0.28286391891655 -0.22256733601174936
2220000000.0 -0.2857433019688528 -0.20047541581661696
2240000000.0 -0.15456435289050877 -0.30432603436578054
2260000000.0 -0.15616902593499363 -0.3024650896901261
2280000000.0 -0.1767563369840164 0.2988425113817447
2300000000.0 -0.03749488834944603 0.35433844575853957
2320000000.0 0.18743528106325902 0.33011472786400187
2340000000.0 -0.16072319800992874 -0.3777913128519623
2360000000.0 -0.4472595231377155 -0.009548962021575872
2380000000.0 0.24805016127901378 0.4312995490753506
2400000000.0 -0.4345625388361382 0.3487149142998699
2420000000.0 0.4722480016054651 -0.3856264048830521
2440000000.0 -0.47148171299314195 0.4575394387627025
2460000000.0 -0.6848213361214062 -0.15486931200911166
2480000000.0 0.6936864853620336 0.2406640192369476
2500000000.0 -0.3626913318983399 -0.6632168913788944
2520000000.0 0.7404220259088211 -0.2055735452241492
2540000000.0 -0.553804582141347 -0.5374328583647343
2560000000.0 -0.5007193656857021 0.5827916636973424
2580000000.0 0.07207102936904744 -0.7504531866389672
2600000000.0 -0.722616926655105 -0.11881784045530272
2620000000.0 -0.15242062319815827 0.6893822121274649
2640000000.0 0.5877906062473598 -0.31745362474181343
2660000000.0 -0.42119283560396653 -0.4652409497608737
2680000000.0 -0.242090562623955 0.5285813413739145
2700000000.0 -0.2838497708060272 -0.44664702634111053
2720000000.0 -0.1176368329190945 0.4670161496233188
2740000000.0 0.41711757759635715 -0.11139657792133177
2760000000.0 -0.3200782275961681 0.21925633066283523
2780000000.0 0.3411993139700352 0.10865589254911452
2800000000.0 -0.2567691922852689 -0.21354411590881012
2820000000.0 0.10927552837313326 -0.2937238715019292
2840000000.0 -0.0636942858134168 0.29931317992252454
2860000000.0 -0.13576706956369938 -0.2682761157333742
2880000000.0 0.013068961765112849 -0.2967049537235997
2900000000.0 -0.25052996751893 0.15559920246846204
2920000000.0 0.009820912308618006 0.29894604838105243
2940000000.0 -0.050513427825190985 -0.3049580899388136
2960000000.0 -0.22297478050861533 -0.22195289181497693
2980000000.0 -0.20609720343331883 -0.23995146948352103
3000000000.0 -0.22489438703559006 -0.22504301851328912
3020000000.0 0.08369155204138204 0.311393383133784
3040000000.0 0.2064827649863348 0.24858587344403785
3060000000.0 0.07501373832789184 0.30684065050142745
3080000000.0 0.2957238126607652 -0.07413638127709121
3100000000.0 -0.2138506777507301 0.20333806433814883
3120000000.0 -0.05838514769889217 -0.2799844499367028
3140000000.0 -0.27452108491533844 0.008034707125846637
3160000000.0 0.22880502124225832 -0.12495087924962717
3180000000.0 -0.22909258548673397 -0.09254807008389378
3200000000.0 0.18782119966505578 0.13812141600211417
3220000000.0 0.2076863717756897 -0.0043278264150119474
3240000000.0 0.06716027578130258 -0.1620364746859753
3260000000.0 0.13290554535802004 0.05610040837689589
3280000000.0 0.07373702985691988 0.06872648967824656
3300000000.0 -0.05663641712312255 0.03233882803693999
3320000000.0 -0.037427532890432415 0.0030368084123743
3340000000.0 -0.016182277080682456 -0.008833078865736489
3360000000.0 0.007017461326625438 -0.0015600247340697426
3380000000.0 -0.0034747549098538737 -0.000728453945259256
3400000000.0 -0.012936315908556793 -0.010125099686337766
3420000000.0 0.028745150403367562 -0.020359662382288493
3440000000.0 -0.04238318364510941 0.0267450035967475
3460000000.0 -0.005353961918167196 0.06457587555456683
3480000000.0 -0.07234167346054489 -0.02809179166232479
3500000000.0 0.02797649067514786 0.08473980783810704
3520000000.0 -0.016925395333338557 0.10193747904804745
3540000000.0 -0.1042093033235142 -0.05101550568068415
3560000000.0 0.030601938241521142 0.11659290679371817
3580000000.0 0.13221850939128987 -0.01895469811580954
3600000000.0 -0.08566869511688589 0.122868107555384
3620000000.0 0.16156302519080878 0.0044845916587549235
3640000000.0 0.13922173059168846 -0.11415278912283736
3660000000.0 0.07734955439922765 -0.17415561673572952
3680000000.0 0.17994175879484572 -0.07330731905596105
3700000000.0 -0.11046459511826988 -0.15913188000176384
3720000000.0 -0.0747572945568841 -0.17340588062337126
3740000000.0 0.17263331059344753 0.04576699718584475
3760000000.0 0.14223775770457436 -0.09957758516383369
3780000000.0 -0.17022135012482179 -0.01650706996470682
3800000000.0 0.16642415212953543 0.013555095651048147
3820000000.0 -0.14624207844405446 -0.06380563755892309
3840000000.0 -0.1395963061183396 0.04828960386179991
3860000000.0 -0.13113249247917771 -0.0531796644857307
3880000000.0 0.11369160120837088 -0.08123557509517015
3900000000.0 -0.12611243057178456 0.06964378341001676
3920000000.0 -0.11976041321047698 0.09159156505519322
3940000000.0 -0.06527074003124937 -0.1530864707865366
3960000000.0 -0.1745474050246682 0.02638223387509371
3980000000.0 0.02513417069339789 0.1727572946258878
4000000000.0 0.07418143543145009 -0.14786242661366641
