!Created with skrf (http://scikit-rf.org).
# Hz S RI R 50.0 
!freq ReS11 ImS11
400000000.0 0.47156639635469727 0.7322396337409768
420000000.0 0.8438605093893735 0.04862002336050375
440000000.0 0.7977903668226669 -0.04868919938881898
460000000.0 0.6713017460492645 0.3230996178013838
480000000.0 -0.004580973459522552 -0.6876043808200187
500000000.0 0.12150993138882854 0.593197295447087
520000000.0 0.3541438513406128 0.3692403532020476
540000000.0 -0.4111725262639968 -0.1386734847497121
560000000.0 0.18813281008123936 0.3479617997745047
580000000.0 -0.3575738625533592 0.05059766994419633
600000000.0 0.17831963668908657 -0.30257181675542333
620000000.0 -0.14717845033162255 -0.3180467023410828
640000000.0 0.39889294308458884 0.08077058752350351
660000000.0 0.08878768942144225 0.4035084390877528
680000000.0 -0.08451220094752973 -0.4372821218053359
700000000.0 -0.0227719347384566 0.4597574733321717
720000000.0 -0.4503632160704493 -0.10313517137709013
740000000.0 -0.4024718586661125 0.14708532020491805
760000000.0 -0.24135335146485978 -0.33256366772749013
780000000.0 -0.3513026542921338 0.15205421430154062
800000000.0 -0.1911531284717825 0.2828761790020501
820000000.0 0.2522755472757092 0.12595163857236438
840000000.0 -0.03950474711285012 0.20355855032335887
860000000.0 -0.1522498082191845 0.06660609512219619
880000000.0 -0.09612607714445516 -0.10016192947074537
900000000.0 -0.07007331779498839 0.06356200670975769
920000000.0 0.039926103987270416 -0.03787517575207626
940000000.0 -0.02987935447811906 0.018709556560392145
960000000.0 -0.002546631551496134 -0.035717393614325445
980000000.0 -0.05819466768741362 -0.0067870866621219965
1000000000.0 -0.005006854168622552 0.09680136476186751
1020000000.0 0.03807472874359792 0.11477508749693793
1040000000.0 -0.07778913408520266 -0.11119590767625623
1060000000.0 -0.026817534820324927 0.16002907250535944
1080000000.0 -0.16341904094386972 -0.09665854123459362
1100000000.0 0.16007233818735317 -0.1429713207910734
1120000000.0 0.22726330997513441 -0.06712615161682069
1140000000.0 -0.060916134300836866 0.25308189134359854
1160000000.0 -0.15883990111078292 0.2324576428094736
1180000000.0 -0.2781618848259978 -0.1280245882316181
1200000000.0 0.3004472459338545 0.15711375284185009
1220000000.0 -0.1586269542531977 -0.3349706569666856
1240000000.0 0.3568242667019532 0.16747969143202993
1260000000.0 -0.31980048047868115 -0.25164870993583743
1280000000.0 -0.4206420682175476 0.024166613994095844
1300000000.0 0.12253646572311717 0.41229340155586086
1320000000.0 0.34962544634872383 0.258233931602361
1340000000.0 0.13700148834951775 0.4191333218322959
1360000000.0 0.44021031376787617 0.09085841689307601
1380000000.0 -0.28969802283655843 -0.33245563723074656
1400000000.0 -0.4263071133077209 0.018173094363782137
1420000000.0 0.3249547359311166 0.23810325228564458
1440000000.0 0.24261888469871268 -0.28014399618410507
1460000000.0 0.2859415031998603 -0.18318301210404447
1480000000.0 -0.05178488726007605 -0.308439640625192
1500000000.0 -0.261810186144051 0.107463775917572
1520000000.0 -0.20386919585606955 -0.15349313179967403
1540000000.0 -0.0988079890520327 0.2086551409317174
1560000000.0 -0.10782722399193415 0.17041683249636103
1580000000.0 -0.12290775726409892 0.12963356646392962
1600000000.0 0.13874518873169647 0.035301099003004335
1620000000.0 -0.10071804324601273 0.0283512261356789
1640000000.0 -0.06722031533585414 -0.038319568737242
1660000000.0 0.05305922309203497 0.026413921656175003
1680000000.0 -0.01914838927506266 -0.02727989676583153
1700000000.0 0.002179374392548957 -0.008381957796677757
1720000000.0 -0.009413144164918757 0.008201469730623464
1740000000.0 0.024861760490995262 0.010009499762169978
1760000000.0 -0.035816901415629536 0.0013619092102785386
1780000000.0 -0.028695743083145424 -0.03817544789405153
1800000000.0 -0.05997316331303653 -0.05444475634315857
1820000000.0 0.052655997181348314 0.0976272374599114
1840000000.0 0.15118957360280186 -0.014997313324873269
1860000000.0 0.1366623911685695 -0.14602622371532353
1880000000.0 -0.2228163485255985 0.10076310296682664
1900000000.0 0.18834962943944514 -0.21850823510363404
1920000000.0 0.14376960030656044 -0.29781623364735604
1940000000.0 -0.20467005692524537 0.2834513535863252
1960000000.0 0.10103206308170047 0.3550405614469984
1980000000.0 0.17523555943079305 -0.3548924803289602
2000000000.0 -0.24238230088697602 -0.3330983665242722
2020000000.0 -0.2847431175694332 -0.3113245701755303
2040000000.0 -0.2969456186413504 0.31346480548871003
2060000000.0 -0.12055227022374755 0.4201624009158828
2080000000.0 0.0798916910148586 0.42989283174801574
2100000000.0 0.12708257315861463 -0.4125261823527192
2120000000.0 -0.04610771969775559 -0.4161133333279458
2140000000.0 0.13714694515209244 -0.3778888218384916
2160000000.0 0.2625526597509089 -0.2841514538026879
2180000000.0 0.27803009790105043 -0.2487885440459847
2200000000.0 0.2705350843435979 -0.23745268224775426
2220000000.0 -0.2928876163626124 -0.18934781184303318
2240000000.0 -0.17694639099500675 -0.2919884418348362
2260000000.0 -0.18908739788778514 -0.2835397116020191
2280000000.0 -0.17090167631569111 0.30238219664269805
2300000000.0 -0.03434281266823529 0.3548284759514951
2320000000.0 0.17852217367754916 0.33526239840108985
2340000000.0 -0.17305280878011153 -0.37311727107165243
2360000000.0 -0.4478779954427476 -0.009819342895666537
2380000000.0 0.23112127404122362 0.44073131301752494
2400000000.0 -0.4296389643109554 0.355170634751428
2420000000.0 0.4792909122800718 -0.37679546471004177
2440000000.0 -0.4801668450251269 0.44825158416905597
2460000000.0 -0.6896379548103929 -0.12908993433907298
2480000000.0 0.7030949683339189 0.2099906091365535
2500000000.0 -0.383186599441249 -0.6509838261268713
2520000000.0 0.7213903753283712 -0.26349055490668033
2540000000.0 -0.5605594494685465 -0.5298245639627293
2560000000.0 -0.4521381751380846 0.6207962103866135
2580000000.0 0.045311460950041724 -0.7520561614608753
2600000000.0 -0.7283304351304861 -0.07447419240558387
2620000000.0 -0.03360480779455262 0.7051003117455271
2640000000.0 0.5566877063188771 -0.3690292286760259
2660000000.0 -0.4461609186906333 -0.44136955564159036
2680000000.0 -0.1907180614324455 0.5492506034762873
2700000000.0 -0.3048396703722348 -0.4326164759756576
2720000000.0 -0.11421313151816562 0.46791754623426496
2740000000.0 0.41866227094185815 -0.10593421557298133
2760000000.0 -0.3224431952194337 0.215928646710586
2780000000.0 0.3423723282870419 0.10411164936157555
2800000000.0 -0.252919269641482 -0.21781672030953758
2820000000.0 0.12327621796367341 -0.28792047439190693
2840000000.0 -0.07960862386784272 0.29517284714650216
2860000000.0 -0.12057955806652862 -0.2752846763439974
2880000000.0 0.008899761738952463 -0.296511397443536
2900000000.0 -0.2520979680520691 0.1525406072380244
2920000000.0 0.0031566511968368054 0.29900210482479833
2940000000.0 -0.029993986772252373 -0.30744427833231797
2960000000.0 -0.23465756044523836 -0.2091787828657443
2980000000.0 -0.18608927140096485 -0.2554346182316918
3000000000.0 -0.24315674363954298 -0.20355876061795136
3020000000.0 0.11321226931955336 0.3017034766023204
3040000000.0 0.19459234791644106 0.25789041392503703
3060000000.0 0.11251142694609048 0.29505400743478327
3080000000.0 0.29255875384454 -0.08576991371566962
3100000000.0 -0.2374228364588921 0.17458126182831393
3120000000.0 -0.0746251453849868 -0.2759597279772723
3140000000.0 -0.27131758112407145 0.042710396276672495
3160000000.0 0.21399549194733344 -0.1488140125004971
3180000000.0 -0.23884553646664006 -0.06347328085930068
3200000000.0 0.1993066367429817 0.12096559539662359
3220000000.0 0.2063936596400562 -0.022055152065050532
3240000000.0 0.06776346085001282 -0.16154988164716927
3260000000.0 0.1373181870392392 0.044133044574746455
3280000000.0 0.07218031972985252 0.07053777227336075
3300000000.0 -0.051952915332346375 0.03981560116830636
3320000000.0 -0.037554632933017695 0.0030908540075903087
3340000000.0 -0.01727331404296653 0.0071296339645995025
3360000000.0 -0.00493579974482947 -0.00544169917310559
3380000000.0 5.8271189031207264e-05 0.003560399410564731
3400000000.0 0.001596126398638797 -0.016018575356351504
3420000000.0 0.022325970297794286 -0.026674231799058954
3440000000.0 -0.04583144103924778 0.018923211680326797
3460000000.0 0.02045822876822662 0.06123321944070179
3480000000.0 -0.07742818587570117 0.005738742468906185
3500000000.0 0.044725459990600076 0.07682093143472275
3520000000.0 -0.0001608584592300819 0.10309227251901247
3540000000.0 -0.11558246805037242 -0.010572509518394183
3560000000.0 0.0331714310811736 0.11504466731326621
3580000000.0 0.1266395473626561 -0.04123125151052916
3600000000.0 -0.029202528064893353 0.1471942846425799
3620000000.0 0.15502521110064868 -0.04690494134477872
3640000000.0 0.11099018735199974 -0.1418434698007145
3660000000.0 0.04177351591124587 -0.18624506852428144
3680000000.0 0.1680957563659111 -0.09741584392768533
3700000000.0 -0.13960421801094902 -0.13449718341160372
3720000000.0 -0.09698038690207213 -0.16192939656295344
3740000000.0 0.17674706176701874 0.02863555366735351
3760000000.0 0.13720162990102058 -0.10741261536120954
3780000000.0 -0.17138305927170253 -0.012281111934289964
3800000000.0 0.1668572359525268 0.01643609004110614
3820000000.0 -0.14865069827824198 -0.05926599246862685
3840000000.0 -0.13464078374924507 0.062169929049403674
3860000000.0 -0.1332568773030469 -0.049442931872966986
3880000000.0 0.10902652309920122 -0.08859606399408512
3900000000.0 -0.12075127872582059 0.0794106223434032
3920000000.0 -0.12311468825285599 0.08822055541768398
3940000000.0 -0.04653789851945168 -0.1609581452901533
3960000000.0 -0.17723899532645132 -0.010376544378583218
3980000000.0 0.0019052766066502854 0.17529411540614304
4000000000.0 0.11535163282671171 -0.11927746089605713
