!Created with skrf (http://scikit-rf.org).
# Hz S RI R 50.0 
!freq ReS11 ImS11
400000000.0 0.4175187577150811 0.7629010413928891
420000000.0 0.8448329713091242 0.01333495362680714
440000000.0 0.7994616829170598 -0.018203054665483547
460000000.0 0.6683080917290828 0.3290471166555996
480000000.0 0.017023294377803443 -0.6874615558715105
500000000.0 0.12851467478601739 0.5916567472404547
520000000.0 0.349608250679724 0.37298962449165995
540000000.0 -0.4142718630457197 -0.1286959549699876
560000000.0 0.18626991181356659 0.349040713087168
580000000.0 -0.35540712784394296 0.065604782994307
600000000.0 0.17763518765812247 -0.3033574256672264
620000000.0 -0.16078633891228641 -0.31160561547197735
640000000.0 0.3964961308690486 0.09120696880702851
660000000.0 0.08868472294268923 0.403486535550552
680000000.0 -0.04845407935215984 -0.44276528253995034
700000000.0 -0.023962819076205993 0.4597493102142936
720000000.0 -0.44564995868688195 -0.1207764183389961
740000000.0 -0.4003737346506045 0.15009486635447933
760000000.0 -0.2270662418819641 -0.3423727144178146
780000000.0 -0.34164545627250953 0.17307995887916408
800000000.0 -0.16516506069112852 0.29844167550612266
820000000.0 0.2537690977315207 0.12230930308200566
840000000.0 -0.04457543939236992 0.2026502741465339
860000000.0 -0.15520253561316755 0.06003273483565623
880000000.0 -0.10028789997007645 -0.09637469174061433
900000000.0 -0.06826887905559256 0.06580734077397307
920000000.0 0.046804983350364864 -0.029527461175706506
940000000.0 -0.03351001001734884 -0.012092143714064725
960000000.0 0.024800704355051505 -0.025478277866781265
980000000.0 -0.05811564162669173 -0.00690205534715755
1000000000.0 -0.002760865325605689 0.09688402475777168
1020000000.0 0.04501324054129264 0.1124704528426245
1040000000.0 -0.08545204596503127 -0.10573090311071438
1060000000.0 -0.01870865130231092 0.16153241297020826
1080000000.0 -0.15879407163165057 -0.10417025081845466
1100000000.0 0.16570972561539313 -0.13649928011628373
1120000000.0 0.23146316183636667 -0.050329145523288626
1140000000.0 -0.06779803085976559 0.2510955447993696
1160000000.0 -0.1633951509376241 0.22907118807770088
1180000000.0 -0.2761362957440493 -0.13196828174430053
1200000000.0 0.2945893008300885 0.16756115724139192
1220000000.0 -0.15440858637266708 -0.3368831562499792
1240000000.0 0.3486514445621203 0.18371578090582602
1260000000.0 -0.3043031659598603 -0.2702015863468443
1280000000.0 -0.42099986123283245 0.01841922685263756
1300000000.0 0.13164832978097102 0.4093820392411421
1320000000.0 0.3587099074514322 0.2456298921571675
1340000000.0 0.14045717442267472 0.41808594801172494
1360000000.0 0.4417875064090545 0.08278110986217722
1380000000.0 -0.30572253006119526 -0.31791425965954456
1400000000.0 -0.4259120226854983 0.02754857521631324
1420000000.0 0.3285038519271539 0.2333062948848858
1440000000.0 0.25228547551031244 -0.2717877230932199
1460000000.0 0.2813902858639412 -0.19028749717397966
1480000000.0 -0.08839484041282657 -0.30009910203194634
1500000000.0 -0.2679959846361875 0.09210167955139088
1520000000.0 -0.19443439084475173 -0.16571534369913296
1540000000.0 -0.09701872141378613 0.20971134775823286
1560000000.0 -0.11037188694384722 0.16901507286857137
1580000000.0 -0.1281123965107417 0.12481203574519888
1600000000.0 0.14031534998475834 0.02863653655491918
1620000000.0 -0.09950061580234924 0.03237834472114696
1640000000.0 -0.06599782930059227 -0.04042170815988401
1660000000.0 0.0423382792991819 0.04135941210794117
1680000000.0 -0.001538688356239493 -0.03335865896774672
1700000000.0 -0.005453218290667108 0.007188996419915869
1720000000.0 -0.010023059050003884 -0.007568271191121737
1740000000.0 0.021500815841681842 0.01608592016720958
1760000000.0 -0.03435440228069684 -0.009597900911233375
1780000000.0 -0.008771502064844974 -0.04673360555953974
1800000000.0 -0.04438990403975956 -0.06776873671354945
1820000000.0 0.04566382769053608 0.10128997830246773
1840000000.0 0.15171289013835831 -0.006255197066790411
1860000000.0 0.14398685904597958 -0.13835485772378714
1880000000.0 -0.22812593256465719 0.0867495612829074
1900000000.0 0.19214971935505124 -0.2146991863470043
1920000000.0 0.1454206247189305 -0.2965465866704116
1940000000.0 -0.20201139230704193 0.28498062071053226
1960000000.0 0.1130964224719191 0.35112250626601027
1980000000.0 0.1695876955767622 -0.35733492132602496
2000000000.0 -0.24512798248038536 -0.33099208943132824
2020000000.0 -0.27878258157656444 -0.3170965472053873
2040000000.0 -0.27430107673368015 0.33381723130776386
2060000000.0 -0.11133222549871054 0.42308578007039493
2080000000.0 0.10041084642263184 0.42618000155205227
2100000000.0 0.13699449954778845 -0.4100110198158411
2120000000.0 -0.0254909389477387 -0.4184593319791115
2140000000.0 0.12959990772181848 -0.38083347500390125
2160000000.0 0.2847192833613323 -0.26261777410150483
2180000000.0 0.3035927981072463 -0.21758504845138366
2200000000.0 0.30059753203205936 -0.19825409742629457
2220000000.0 -0.26098741889617383 -0.23175542265344493
2240000000.0 -0.1363722947621334 -0.3127535361180328
2260000000.0 -0.1544125364717476 -0.3034187019650199
2280000000.0 -0.18125492913859095 0.29597875349610137
2300000000.0 -0.03443769030177847 0.35469330143519595
2320000000.0 0.1717962071402854 0.3379494340089562
2340000000.0 -0.16566615903320137 -0.3754630036099268
2360000000.0 -0.4469615817788779 -0.013498694559151751
2380000000.0 0.2381662365131029 0.43644867534516585
2400000000.0 -0.42975274045262674 0.3545006437710784
2420000000.0 0.4791596938196239 -0.3769170585547846
2440000000.0 -0.49508498443937937 0.43202961544930896
2460000000.0 -0.6859563347947935 -0.14932670163132988
2480000000.0 0.6875695350712381 0.25864942886598313
2500000000.0 -0.3668613384769581 -0.6611282547388359
2520000000.0 0.7428936406473036 -0.19882361773222976
2540000000.0 -0.5123893746026227 -0.5779854277695953
2560000000.0 -0.5000994577670377 0.5835880245710033
2580000000.0 0.13334116181854136 -0.7423749914587173
2600000000.0 -0.7211561035052075 -0.12744303051650097
2620000000.0 -0.11800291844367071 0.6961938873830421
2640000000.0 0.6120573692477175 -0.2676074226582788
2660000000.0 -0.395865051130225 -0.4869895769631726
2680000000.0 -0.23290519887676817 0.5327024879240405
2700000000.0 -0.27190378694405476 -0.45399576653657536
2720000000.0 -0.114591869158638 0.46782159184693045
2740000000.0 0.40797008276211755 -0.14181470932891763
2760000000.0 -0.3085696366290172 0.23576680759387064
2780000000.0 0.34549849343532346 0.0953453602804556
2800000000.0 -0.2592806299831446 -0.21101984916006197
2820000000.0 0.10580211005251781 -0.2953051478516657
2840000000.0 -0.06253708800836062 0.2997846422857869
2860000000.0 -0.12181759669036685 -0.2752911571967022
2880000000.0 0.03951523272971145 -0.29471936372022933
2900000000.0 -0.262474909147789 0.13487977739656348
2920000000.0 -0.00866986690121526 0.2991572306097221
2940000000.0 -0.04337717623066952 -0.30610096866357295
2960000000.0 -0.2148971684486244 -0.22996838145850063
2980000000.0 -0.18995057663596282 -0.2536311221398652
3000000000.0 -0.21580101083187891 -0.2337450010572255
3020000000.0 0.0718363107256263 0.3143439505762819
3040000000.0 0.18831319596312265 0.26285180505477174
3060000000.0 0.07283199335804515 0.3073302930124666
3080000000.0 0.2978539107084621 -0.0664736064579211
3100000000.0 -0.22953249310591262 0.1855789454931998
3120000000.0 -0.05903508511278488 -0.28011420401477866
3140000000.0 -0.2746403407232148 0.006844943905240909
3160000000.0 0.23050264471702367 -0.12200445481026276
3180000000.0 -0.22969148249738078 -0.09151968406285006
3200000000.0 0.1876786362260572 0.13839763484484835
3220000000.0 0.20787470580869327 -0.0076120209806715845
3240000000.0 0.07213984297234352 -0.15989124887834677
3260000000.0 0.13400081520955734 0.05314102962870911
3280000000.0 0.057921975328532105 0.08234488614137643
3300000000.0 -0.0614963779662407 0.02106895759743583
3320000000.0 -0.032351256458528196 0.018778678949409783
3340000000.0 -0.015132765444814344 -0.009935138342856567
3360000000.0 0.005845799931271232 0.0038871536925551907
3380000000.0 -0.0036427722072499415 0.0009211700835805806
3400000000.0 0.005312652672832355 -0.016027273136564508
3420000000.0 0.03483219607458511 -0.006423663147950395
3440000000.0 -0.047118748440454855 0.017739801203548365
3460000000.0 -0.0021468094161736554 0.06498549216450317
3480000000.0 -0.07515195163995057 -0.021342982609085376
3500000000.0 0.026264558969135623 0.08551502640796721
3520000000.0 -0.039865541500121254 0.09518939403238733
3540000000.0 -0.0896225066141353 -0.07373751499694774
3560000000.0 0.0031092060055352274 0.12036721508264608
3580000000.0 0.12820621298297874 0.03521822696699368
3600000000.0 -0.07978383285321052 0.12704397736290607
3620000000.0 0.15987707457933262 0.023923079831574105
3640000000.0 0.14937484018308986 -0.09997424623893562
3660000000.0 0.08780830592093081 -0.16906718729854148
3680000000.0 0.18229100691641542 -0.06662540858726856
3700000000.0 -0.10215094745918042 -0.16429922950121828
3720000000.0 -0.06440586782094829 -0.17690346680022956
3740000000.0 0.16894616901498838 0.0567340286427312
3760000000.0 0.15159763451213476 -0.08370488262354404
3780000000.0 -0.16897902501396095 -0.02320566958668732
3800000000.0 0.16588553372154174 0.014285756505098562
3820000000.0 -0.14961889942887954 -0.05316343348912959
3840000000.0 -0.1388117502315599 0.04878060437620208
3860000000.0 -0.13307634059753823 -0.04593288878837743
3880000000.0 0.10552415865213291 -0.09062152284309637
3900000000.0 -0.1134697146374636 0.08728424684641772
3920000000.0 -0.12082887754746983 0.08924630483448481
3940000000.0 -0.06087742682099801 -0.15444641209796328
3960000000.0 -0.17007017921727274 0.04538170143925772
3980000000.0 0.05315991108380734 0.1659777808102298
4000000000.0 0.045570667216469726 -0.158947126584846
