!Created with skrf (http://scikit-rf.org).
# Hz S RI R 50.0 
!freq ReS11 ImS11
400000000.0 0.4662613648280207 0.7343784859924335
420000000.0 0.8443047191554064 0.02448295372374458
440000000.0 0.7971854565006699 -0.05782552179908123
460000000.0 0.6749278277610987 0.3149974581613654
480000000.0 -0.010667828097537186 -0.6877210453505254
500000000.0 0.16408739097911795 0.5828577919067296
520000000.0 0.34344533196504434 0.37913269582023507
540000000.0 -0.4073978190545681 -0.1505125086301967
560000000.0 0.16545377825190746 0.35962911469179565
580000000.0 -0.3470956100343088 0.10110067399509066
600000000.0 0.17521074409408402 -0.30437649238156483
620000000.0 -0.14709616256956864 -0.3179406871224777
640000000.0 0.4010102362133901 0.06652561278316954
660000000.0 0.11295644161873983 0.39674457936792507
680000000.0 -0.09949619425303993 -0.4335566932492313
700000000.0 0.025633658335874925 0.45924936624140117
720000000.0 -0.4446716756091983 -0.12395267521513842
740000000.0 -0.4051196025820536 0.13879297993230966
760000000.0 -0.21300511740996955 -0.35201593829837663
780000000.0 -0.3500564891914667 0.15596739410964708
800000000.0 -0.19193760172594454 0.2824624891003823
820000000.0 0.24305820139378834 0.1435770052202222
840000000.0 -0.04665190555852785 0.20236636862091248
860000000.0 -0.14833344363130993 0.07473356249812817
880000000.0 -0.11298350578056734 -0.07927746265935219
900000000.0 -0.08453861769077568 0.04098621782379595
920000000.0 0.05397888694797434 -0.007962951427144541
940000000.0 -0.03392141743027311 0.008938283878664507
960000000.0 0.010282166095918087 -0.03389824959815805
980000000.0 -0.05492681280518511 -0.02083104394237632
1000000000.0 -0.03307067603993403 0.0915266102848931
1020000000.0 0.02282296434157832 0.11907822976528462
1040000000.0 -0.07756889749583928 -0.1116124402923661
1060000000.0 -0.016179812152346568 0.16143871527017672
1080000000.0 -0.1620734278463474 -0.09827775355976123
1100000000.0 0.1563176448688536 -0.1467205195391645
1120000000.0 0.22933407233004288 -0.05886262701661117
1140000000.0 -0.05946174309586894 0.25345380348648977
1160000000.0 -0.14424066023866322 0.242141056338416
1180000000.0 -0.28813177843883364 -0.10454348611812474
1200000000.0 0.30810139600575587 0.14162409369831017
1220000000.0 -0.16879732731768332 -0.32987794751285143
1240000000.0 0.3532355295109 0.17468260845543968
1260000000.0 -0.31847315429980716 -0.253163798950479
1280000000.0 -0.4210063661672951 0.019325320987160513
1300000000.0 0.13176016084042072 0.4094881610729316
1320000000.0 0.3484444040892453 0.2597634754068254
1340000000.0 0.13180618207584244 0.4207446033304339
1360000000.0 0.4418820231314102 0.0814518130494961
1380000000.0 -0.3023055193826076 -0.3204892763212694
1400000000.0 -0.42637767093713996 0.013014209656325293
1420000000.0 0.3233093321846199 0.2401746084263355
1440000000.0 0.25036085196552893 -0.2731933311367684
1460000000.0 0.2850082888453479 -0.18472729889160294
1480000000.0 -0.06588152532272454 -0.3057305654461354
1500000000.0 -0.2618236629942176 0.1071045394225453
1520000000.0 -0.19932889640561505 -0.158880466571405
1540000000.0 -0.09441849750750654 0.2102671147602771
1560000000.0 -0.12403281942357393 0.15868207850327237
1580000000.0 -0.14250555783633945 0.10765071665754046
1600000000.0 0.1403318446436605 0.027227282535480617
1620000000.0 -0.09104486079283056 0.051578794489244316
1640000000.0 -0.0751005708395682 -0.018151734392632256
1660000000.0 0.05836206504733168 0.008766346028851749
1680000000.0 -0.033437878450059175 -0.0026830250359178736
1700000000.0 0.007695744062972439 0.004632291345773479
1720000000.0 -0.011895813205357476 -0.0015510243589232369
1740000000.0 0.026586123645929733 -0.00011947338551757357
1760000000.0 -0.035285192198825456 -0.0027701592020849815
1780000000.0 -0.030322682512844642 -0.0372265824754685
1800000000.0 -0.07880905809310822 -0.019740863039612963
1820000000.0 0.09679109469094624 0.05484274982408659
1840000000.0 0.13656034075866919 -0.06636391103818842
1860000000.0 0.10631664032284371 -0.16909736393522443
1880000000.0 -0.21716190424512705 0.1119684411292296
1900000000.0 0.1957809506410927 -0.21238593161157038
1920000000.0 0.15084036691076172 -0.2949499447118218
1940000000.0 -0.21830225785291318 0.2737895730522326
1960000000.0 0.09350028631161843 0.3575053137492743
1980000000.0 0.1888406519166489 -0.3479711842019762
2000000000.0 -0.228573144834132 -0.34286611043923726
2020000000.0 -0.2598428588903468 -0.33255121818020505
2040000000.0 -0.27413372023006494 0.3328805096239749
2060000000.0 -0.13840301658146498 0.413755905553242
2080000000.0 0.07252936885348209 0.43030825875512824
2100000000.0 0.13868179014286516 -0.4078706780470719
2120000000.0 -0.04344420111630395 -0.4157270296441469
2140000000.0 0.10401161618817277 -0.38772549376094134
2160000000.0 0.23687419587698935 -0.3055400731813964
2180000000.0 0.24981640298013388 -0.27651364128663797
2200000000.0 0.21516283806585745 -0.288004933652246
2220000000.0 -0.3218610164536863 -0.13463036409178578
2240000000.0 -0.197061613170819 -0.27865913152315314
2260000000.0 -0.1873967836210071 -0.2847635683321345
2280000000.0 -0.15242907863868752 0.31294775881109105
2300000000.0 -0.006582043282978316 0.3578738939586353
2320000000.0 0.1920441175867353 0.32869373277683256
2340000000.0 -0.18031810789353994 -0.3702709729999959
2360000000.0 -0.44806715451590295 -0.007881254512524074
2380000000.0 0.2142651988724693 0.44961908900197267
2400000000.0 -0.4616759229026307 0.3125529912270854
2420000000.0 0.4975479934376033 -0.3522096492619908
2440000000.0 -0.5097071672945376 0.4141059242890819
2460000000.0 -0.6836801463762533 -0.15567351162555082
2480000000.0 0.6925506125577089 0.24072978900771386
2500000000.0 -0.3878686242126012 -0.6472842839511694
2520000000.0 0.7071540447049759 -0.2978954950492471
2540000000.0 -0.5458101250350295 -0.5448536252309575
2560000000.0 -0.4345534983476899 0.6325830103105725
2580000000.0 0.033416475111726095 -0.7527329589001767
2600000000.0 -0.7311440611961167 -0.030966849749388865
2620000000.0 0.008834625850723678 0.7057960308477379
2640000000.0 0.5233326066799506 -0.4152950464459362
2660000000.0 -0.44037630616728834 -0.44719835733919083
2680000000.0 -0.22478915508436562 0.536522077847844
2700000000.0 -0.30227627118712014 -0.43544253559271867
2720000000.0 -0.12598233542766693 0.4655915946924193
2740000000.0 0.41213695995596117 -0.13064817142612917
2760000000.0 -0.30667122251391443 0.23807705799443385
2780000000.0 0.34294449088792467 0.10147112216245109
2800000000.0 -0.24548063355178382 -0.22580385105803072
2820000000.0 0.15349565286612887 -0.2725124638388692
2840000000.0 -0.1285959905079898 0.2778371066865588
2860000000.0 -0.09638357715198241 -0.28460412290295495
2880000000.0 0.037820642545394266 -0.29482402316212536
2900000000.0 -0.23625397833589956 0.17587970896470329
2920000000.0 0.04787548110799174 0.2947528682045357
2940000000.0 -0.07430380624341935 -0.299454845876379
2960000000.0 -0.2519532335603802 -0.1872825295667478
2980000000.0 -0.20427875207643098 -0.24075898605250887
3000000000.0 -0.2392859144370964 -0.20892955356740375
3020000000.0 0.1114725346448665 0.30184366936737667
3040000000.0 0.14119186554725247 0.29020077036098607
3060000000.0 0.10473670836331252 0.2976267396042507
3080000000.0 0.28521568117711005 -0.10739856303757926
3100000000.0 -0.195958546348517 0.2201008881872453
3120000000.0 -0.08207107935922406 -0.2734892185888321
3140000000.0 -0.2685922151083596 0.055032192873305755
3160000000.0 0.20341369981386873 -0.16237983996303063
3180000000.0 -0.24265167476581126 -0.04565274919154457
3200000000.0 0.2101188312551467 0.10018878681524235
3220000000.0 0.20277335717483314 -0.04617160331899382
3240000000.0 0.04234191791946527 -0.17040401390976154
3260000000.0 0.14171297835537863 0.028664596467415898
3280000000.0 0.07394364819436583 0.06949754433074243
3300000000.0 -0.04366327165092441 0.049681646526330454
3320000000.0 -0.0300364433987139 0.024185170277252258
3340000000.0 -0.01313436012545913 0.014221860342349209
3360000000.0 0.002883822016264578 -0.007815530565577145
3380000000.0 -0.0018571886491826823 0.0021681085828041758
3400000000.0 -0.013074198687039415 0.008092713322994221
3420000000.0 -0.0001319120891059024 -0.03370446881551796
3440000000.0 -0.04413622654811099 0.01997640158042648
3460000000.0 0.002725209557643645 0.06325570514672572
3480000000.0 -0.07696428406345011 -0.002813043875541952
3500000000.0 0.059988766356806354 0.06537207303144138
3520000000.0 0.03926280532982171 0.09498627517424836
3540000000.0 -0.11377221941896062 0.01777409794461386
3560000000.0 0.09836322437068606 0.06820102226973161
3580000000.0 0.10237638989713098 -0.08388084372160234
3600000000.0 0.007686340763610763 0.14911924931784484
3620000000.0 0.1400322156399797 -0.07970470410935011
3640000000.0 0.07049137862430281 -0.16536756675900405
3660000000.0 -0.012819440017736454 -0.1904496797889488
3680000000.0 0.12929453448816555 -0.1460295580723189
3700000000.0 -0.1686742126497408 -0.09684507699371835
3720000000.0 -0.13173280216633348 -0.13690578219601957
3740000000.0 0.17785255344953624 -0.027166757838524448
3760000000.0 0.10450455576876833 -0.14033659604795418
3780000000.0 -0.171190314022057 0.020133076498137958
3800000000.0 0.1678944386461867 0.01113492061099054
3820000000.0 -0.14054866254127515 -0.07921108329719607
3840000000.0 -0.1440480786807186 0.041649242706685394
3860000000.0 -0.13620269059048415 -0.04513477746263696
3880000000.0 0.11164259132240312 -0.08732818422934042
3900000000.0 -0.11662885336555236 0.08721987890474972
3920000000.0 -0.12966496142056402 0.07982821098282065
3940000000.0 0.0007042140776112107 -0.16876713232068474
3960000000.0 -0.16884514961210317 -0.05644222438377595
3980000000.0 -0.05809241350772104 0.16610795820414506
4000000000.0 0.15364717520191598 -0.06405002254637218
