!Created with skrf (http://scikit-rf.org).
# Hz S RI R 50.0 
!freq ReS11 ImS11
400000000.0 0.4404769803944155 0.7502531162470024
420000000.0 0.844572344432985 0.0070444265695400795
440000000.0 0.7988256230033792 -0.034353321995266736
460000000.0 0.6713027579045342 0.3230162992059425
480000000.0 -0.007186783664668024 -0.6874597957036
500000000.0 0.13342436585027537 0.5909005129684596
520000000.0 0.3590538760979368 0.36385025171475355
540000000.0 -0.4154723223952514 -0.12501860561076894
560000000.0 0.17405093654912884 0.35498232066221735
580000000.0 -0.35060341363469244 0.08653556945626285
600000000.0 0.17961723414514846 -0.30188786471102913
620000000.0 -0.14364563371056657 -0.3196226489067565
640000000.0 0.3933825695760453 0.10252495594995555
660000000.0 0.0697077245833894 0.40709896915770927
680000000.0 -0.10547510069555029 -0.43223629209365577
700000000.0 0.020323391931023713 0.4598780823771132
720000000.0 -0.4469631889585436 -0.11616715182594961
740000000.0 -0.4034174351306796 0.14282892467185498
760000000.0 -0.2251426379038158 -0.34393557886999004
780000000.0 -0.35200623384988433 0.15086257675591716
800000000.0 -0.1815245001121428 0.289191806704476
820000000.0 0.2508931033970794 0.12883544195447674
840000000.0 -0.06609324474770754 0.19689545795273072
860000000.0 -0.15487852549934855 0.06081674028560043
880000000.0 -0.09991897255129813 -0.0964668379615432
900000000.0 -0.06545350396728451 0.0684794148024015
920000000.0 0.040629336879408624 -0.0366683409402799
940000000.0 -0.03206842921835621 0.013606553905514976
960000000.0 0.003996028780654073 -0.035075537185847196
980000000.0 -0.05790814109416307 0.009279062090138212
1000000000.0 -0.022101697932036694 0.09439827448256104
1020000000.0 0.030522836486963505 0.11718252051826664
1040000000.0 -0.08038726047595661 -0.10943904416869667
1060000000.0 -0.042831119711546004 0.15671440728352234
1080000000.0 -0.1557835960799104 -0.1082971724495259
1100000000.0 0.16512715550202856 -0.13688282264428925
1120000000.0 0.22795045781324483 -0.06314262511885015
1140000000.0 -0.04540083826084442 0.25594664266076683
1160000000.0 -0.15353529836131286 0.23577257588981473
1180000000.0 -0.28403107950336737 -0.11412930526115933
1200000000.0 0.30600027822547243 0.1459619930507066
1220000000.0 -0.17659420446586077 -0.3259488476514482
1240000000.0 0.3595464300381615 0.16150661834003996
1260000000.0 -0.32632853657938465 -0.24315265855934337
1280000000.0 -0.42027087269123503 0.03215248505605025
1300000000.0 0.1663898577132766 0.39680825487525156
1320000000.0 0.3520626773367877 0.2548841868719192
1340000000.0 0.12630716155059313 0.4225398114268685
1360000000.0 0.4407369747193848 0.08988233726926849
1380000000.0 -0.2973766085772786 -0.3259280924671531
1400000000.0 -0.4265316520106564 0.015866096501176777
1420000000.0 0.3252219336137437 0.2375553450942428
1440000000.0 0.2585210820618758 -0.2656766776241392
1460000000.0 0.28526836103911074 -0.1840976192321371
1480000000.0 -0.060416711635360894 -0.30643442740191756
1500000000.0 -0.26873437582252374 0.08734607325320298
1520000000.0 -0.19119498608347452 -0.16916192776907357
1540000000.0 -0.08612631247396528 0.21395737498396117
1560000000.0 -0.09468843528898416 0.1777391960518301
1580000000.0 -0.14222797458223874 0.10802013539798938
1600000000.0 0.13942488596697294 0.031126648651311577
1620000000.0 -0.0947143478571044 0.04472518615166666
1640000000.0 -0.07556774764105437 -0.01732727195954331
1660000000.0 0.05544788900262991 0.021378814335486933
1680000000.0 -0.018552589586508534 -0.02774982125830981
1700000000.0 -0.008591769134877454 -0.0029516109442493956
1720000000.0 -0.0112117902283326 0.004824932431353106
1740000000.0 0.023524804530141625 -0.013471020159555652
1760000000.0 -0.032276385071963926 0.01573553916619084
1780000000.0 -0.036812896133779444 -0.030396201576421415
1800000000.0 -0.07045923608326114 -0.040217142861020475
1820000000.0 0.06455759901028223 0.09019917121054853
1840000000.0 0.15000501419800374 -0.02505545530251964
1860000000.0 0.13147931405655977 -0.15085897005601837
1880000000.0 -0.22614382359747198 0.09281336371929923
1900000000.0 0.1947268996540059 -0.21311726655957083
1920000000.0 0.1503469554778222 -0.29476160096097914
1940000000.0 -0.21591568322782406 0.2750280994416749
1960000000.0 0.09946297803964164 0.3553758077190813
1980000000.0 0.1798971385928563 -0.3522951118094765
2000000000.0 -0.240981369954861 -0.33392838548855774
2020000000.0 -0.26777740034552566 -0.3260773232683145
2040000000.0 -0.2950783504371936 0.3149236939027763
2060000000.0 -0.10266428329081943 0.42459139856844075
2080000000.0 0.11497998709619683 0.421505980013402
2100000000.0 0.10182222777510709 -0.4191044909744046
2120000000.0 -0.04998799511795985 -0.41540769093252483
2140000000.0 0.10696251492161025 -0.3872736283716134
2160000000.0 0.2535333180809281 -0.29201028502781573
2180000000.0 0.26794358021196296 -0.2594535616473814
2200000000.0 0.26304387611676877 -0.2454014116996996
2220000000.0 -0.29871036309773835 -0.18063575955949768
2240000000.0 -0.18498549107203174 -0.28702165698099114
2260000000.0 -0.19198787812823565 -0.28166983417749214
2280000000.0 -0.1528438685022091 0.31214683019960743
2300000000.0 0.002588145265090769 0.35721294850009366
2320000000.0 0.19960095839170475 0.32360008212000935
2340000000.0 -0.17649405408203717 -0.3717296758426639
2360000000.0 -0.44827897088735014 0.0011514130856006386
2380000000.0 0.25481326967259565 0.42796697919681065
2400000000.0 -0.441797873806202 0.3400199630535864
2420000000.0 0.4829985909924177 -0.37237239080374146
2440000000.0 -0.48078572054786 0.4475331203016237
2460000000.0 -0.6870911053707242 -0.14086100722157524
2480000000.0 0.7004652679593844 0.21790140728405416
2500000000.0 -0.4545431320327907 -0.602427356398304
2520000000.0 0.7069142027999284 -0.2982618792223493
2540000000.0 -0.5565001600633058 -0.5336257994111536
2560000000.0 -0.42784067724816677 0.637270773557447
2580000000.0 0.0711594681772751 -0.7497254109668294
2600000000.0 -0.7304980037010677 -0.038318981710492306
2620000000.0 -0.04405234342713055 0.7041942650666791
2640000000.0 0.5355231933996375 -0.39883014284393237
2660000000.0 -0.46203595478299814 -0.4243072673989213
2680000000.0 -0.23176843836317937 0.5329802072268842
2700000000.0 -0.29911337089433687 -0.43664988743767297
2720000000.0 -0.08547286338016134 0.47425975482632643
2740000000.0 0.4062739782342738 -0.14709926226097678
2760000000.0 -0.31018195282931305 0.2335718433211872
2780000000.0 0.34310641796361535 0.10233874101111917
2800000000.0 -0.24672444997118986 -0.22497160030549282
2820000000.0 0.13842954411391775 -0.28092454029755964
2840000000.0 -0.09471140588655136 0.2906537116193809
2860000000.0 -0.10567943001829413 -0.2810910147939131
2880000000.0 0.0352718737424275 -0.29447889821564494
2900000000.0 -0.25469490661432964 0.1474180296153939
2920000000.0 -0.0001625302372174197 0.2987308165588603
2940000000.0 -0.024840428161455777 -0.30760641511284215
2960000000.0 -0.2498211184412871 -0.19010280597247295
2980000000.0 -0.1988678618875375 -0.24508110052454926
3000000000.0 -0.2335225561279287 -0.21523290835112638
3020000000.0 0.09493680927070021 0.3076954374704818
3040000000.0 0.22694637991740277 0.22972085340270898
3060000000.0 0.12012815521738757 0.2918326060493528
3080000000.0 0.2842652330666238 -0.1095165406298029
3100000000.0 -0.1995982852543515 0.2170277691042593
3120000000.0 -0.09778177272658432 -0.26889895141593045
3140000000.0 -0.27059212121068194 0.04642389916395865
3160000000.0 0.2122107399940814 -0.15141488828976102
3180000000.0 -0.24030839381378782 -0.05766158472737905
3200000000.0 0.20913807942620127 0.1028253036594113
3220000000.0 0.2060201848038877 -0.028359982893702795
3240000000.0 0.06849593472153395 -0.16155301734848646
3260000000.0 0.13446455145706254 0.05303347768730793
3280000000.0 0.05623291724205333 0.08408681304833929
3300000000.0 -0.050992185124673295 0.04123918605857889
3320000000.0 -0.03694654553716476 0.008993895094895468
3340000000.0 -0.018004309387528013 -0.006208592528670021
3360000000.0 0.005127902979509215 -0.0059670133414109665
3380000000.0 -0.002570267171937664 0.0015428208991174804
3400000000.0 -0.01390136178061276 -0.007938479921978487
3420000000.0 0.021812417441010444 -0.02690901161202327
3440000000.0 -0.03954513607553471 0.029604484858496538
3460000000.0 0.030530947835940195 0.05647324416435068
3480000000.0 -0.0768144426267114 0.006990310236479315
3500000000.0 0.05645429780167982 0.06830418023295869
3520000000.0 0.013318494592043631 0.10170397269623144
3540000000.0 -0.11531587855703469 0.004266564231145753
3560000000.0 0.06530221831103042 0.10001594375515543
3580000000.0 0.11697204012160707 -0.06318603452459305
3600000000.0 0.004010092311837984 0.14992583051160488
3620000000.0 0.14620279528162636 -0.06849144346455933
3640000000.0 0.06724891607440812 -0.16727859488783497
3660000000.0 0.016457772553674442 -0.19007508966642897
3680000000.0 0.14990618460526128 -0.12426641459919034
3700000000.0 -0.15243739477171647 -0.12024784014723541
3720000000.0 -0.1152313872089828 -0.15034561631077287
3740000000.0 0.17931952443725757 0.007533494287906266
3760000000.0 0.12901684531252558 -0.11766550541308958
3780000000.0 -0.17197292372698725 -0.004890888156961905
3800000000.0 0.16556011490683553 0.02749040806605696
3820000000.0 -0.1433423754121665 -0.07307399836081352
3840000000.0 -0.14517588571345305 0.03452409097461855
3860000000.0 -0.13000354489559146 -0.05971968467442359
3880000000.0 0.11466643876640362 -0.08271350850238064
3900000000.0 -0.11704617766075355 0.08649778828642889
3920000000.0 -0.11993616157605666 0.09364749896931113
3940000000.0 -0.04636544198637962 -0.16109419909002057
3960000000.0 -0.17711542490171717 -0.015698493700945334
3980000000.0 -0.03720706626263646 0.17164164725165512
4000000000.0 0.13573854202420804 -0.09614606900793639
