!Created with skrf (http://scikit-rf.org).
# Hz S RI R 50.0 
!freq ReS11 ImS11
400000000.0 0.4455416125344902 0.7464427723610398
420000000.0 0.8428682609955434 0.06364318693036364
440000000.0 0.7993363092083721 -0.023698889988257265
460000000.0 0.677380319036231 0.31047099802004197
480000000.0 0.0018707490668367554 -0.6876076711464134
500000000.0 0.14853506790427318 0.586919583460485
520000000.0 0.353275917260239 0.3696274268304204
540000000.0 -0.41347284079938396 -0.13184071442661158
560000000.0 0.18845757661415616 0.347804428321742
580000000.0 -0.35225560921256 0.08075040624701042
600000000.0 0.17999208080993795 -0.30166326137202765
620000000.0 -0.13439910903401575 -0.3236529570743122
640000000.0 0.3948621138339024 0.0969232136375986
660000000.0 0.05862240017620727 0.40892321891441713
680000000.0 -0.06684060382891736 -0.4399493407598344
700000000.0 0.015611272046899157 0.46006572516903316
720000000.0 -0.4447526883791626 -0.12371324012250291
740000000.0 -0.4012428531240143 0.149004018366513
760000000.0 -0.23133462476109048 -0.3399374733150471
780000000.0 -0.343660101291102 0.16920066986724025
800000000.0 -0.1822302444128983 0.28866417497854147
820000000.0 0.24583535022955236 0.1379903636985125
840000000.0 -0.053541328316408024 0.20037761008735896
860000000.0 -0.15435295047111497 0.06192445590999356
880000000.0 -0.10356980030756084 -0.09292911021429325
900000000.0 -0.06597569208459458 0.06830120806473398
920000000.0 0.04774438865557533 -0.028174115350283215
940000000.0 -0.03517388366509395 -0.005438469247798607
960000000.0 0.010707281373624518 -0.033996338763916154
980000000.0 -0.05730580468399005 -0.011716608456333936
1000000000.0 -0.007644620954507398 0.09681809438848306
1020000000.0 0.038090954377228106 0.11492056657160382
1040000000.0 -0.07662776533851662 -0.11223209033447
1060000000.0 -0.029875878852889202 0.15961031080479002
1080000000.0 -0.15816077056766456 -0.10484149588911496
1100000000.0 0.16217662600625068 -0.14048859663802193
1120000000.0 0.22992084188958406 -0.05650169853887347
1140000000.0 -0.05732575628054971 0.2537463584956325
1160000000.0 -0.1532574410486764 0.23606240227763517
1180000000.0 -0.2817483183445742 -0.1198845113173477
1200000000.0 0.2990466123185192 0.1598144206133717
1220000000.0 -0.15714497771318808 -0.33573573395199763
1240000000.0 0.3533414562271721 0.1747242634973541
1260000000.0 -0.3122037501381459 -0.2609107945781634
1280000000.0 -0.4209045251108089 0.02003672061024858
1300000000.0 0.13420509631540029 0.4085543902027964
1320000000.0 0.3530790491212177 0.253338647769385
1340000000.0 0.12559946917455006 0.4227103329885238
1360000000.0 0.44249829646753314 0.07880047298981047
1380000000.0 -0.2989969371205122 -0.323949565108472
1400000000.0 -0.426428423211317 0.01653372350554506
1420000000.0 0.3226241073502347 0.24104177095632956
1440000000.0 0.250014641428271 -0.27365401271370726
1460000000.0 0.2827279111795389 -0.18826483709089595
1480000000.0 -0.045385491118837044 -0.30948708010697934
1500000000.0 -0.2644290414746642 0.10110167862384037
1520000000.0 -0.1877115629291728 -0.17376418512834543
1540000000.0 -0.10218536958915328 0.2073144263174431
1560000000.0 -0.12603543201436493 0.15788995837849987
1580000000.0 -0.1480915837180649 0.10036693421775868
1600000000.0 0.13839443298874846 0.03646335190746399
1620000000.0 -0.09680393264747866 0.039937296286342676
1640000000.0 -0.06626331860980443 -0.04012213484839082
1660000000.0 0.047793644064368944 0.03488248470165263
1680000000.0 -0.028362561491557706 -0.017808059931901314
1700000000.0 -0.00879276398904254 0.0017766643162019403
1720000000.0 -0.010894319412909604 0.00575403160646983
1740000000.0 0.02559093854514559 -0.009540054271644971
1760000000.0 -0.035739922633420566 -0.0008462876339609116
1780000000.0 -0.023625196558969466 -0.04136968705721684
1800000000.0 -0.049459219978811204 -0.0636340876075713
1820000000.0 0.04814921700448141 0.09999124266778303
1840000000.0 0.1515840566392782 -0.005703020995562304
1860000000.0 0.13423279136610045 -0.14786729235398186
1880000000.0 -0.22310539392192535 0.09942108174292315
1900000000.0 0.18308910123880526 -0.22259586993048538
1920000000.0 0.14241218423453803 -0.29822144035550546
1940000000.0 -0.20148974743978318 0.28544545726784604
1960000000.0 0.11255664385917448 0.3513023989186663
1980000000.0 0.17239035428976773 -0.3560247700374688
2000000000.0 -0.24368271091501909 -0.3321448117125195
2020000000.0 -0.27936265347821543 -0.3163853241340709
2040000000.0 -0.27404978518667394 0.3336743320212161
2060000000.0 -0.12303219649008756 0.41960019371090956
2080000000.0 0.06787929468000124 0.4322134104584684
2100000000.0 0.12652553763277646 -0.41299455429131615
2120000000.0 -0.004130474950370633 -0.41902004262392134
2140000000.0 0.15891336169706008 -0.3692353405375709
2160000000.0 0.2665867053191086 -0.28043373461501186
2180000000.0 0.2908389064539329 -0.23371482576321265
2200000000.0 0.2853895961261519 -0.21921117950195093
2220000000.0 -0.2778461248422524 -0.21118912575052468
2240000000.0 -0.1591142413655369 -0.30197493505082657
2260000000.0 -0.1656022573085411 -0.297463526458852
2280000000.0 -0.17754834256997581 0.2981581872556274
2300000000.0 -0.030611915348535097 0.3549499729468836
2320000000.0 0.18303014782607238 0.33236138871707216
2340000000.0 -0.17458157900194493 -0.3718252354784547
2360000000.0 -0.4475766997843382 -0.00852531509924992
2380000000.0 0.23937737846563484 0.43630816418910157
2400000000.0 -0.4346777630395071 0.34876110567461827
2420000000.0 0.4844645714143241 -0.3702931694904084
2440000000.0 -0.4817947293972853 0.44672398182689915
2460000000.0 -0.6869972138240844 -0.14316589240177197
2480000000.0 0.6939246582486368 0.23970267988188285
2500000000.0 -0.3640902551556784 -0.6622072219409657
2520000000.0 0.7310414394190318 -0.2360799769345279
2540000000.0 -0.5549796952424684 -0.5361002620036964
2560000000.0 -0.4910451588212293 0.5910067379369418
2580000000.0 0.09099129475450951 -0.7481533562439561
2600000000.0 -0.7222462715761816 -0.12018445403436319
2620000000.0 -0.17268217675149464 0.6842269761264628
2640000000.0 0.5674350415412207 -0.35218792070333405
2660000000.0 -0.4529485124167091 -0.4343479972846573
2680000000.0 -0.20160576205500177 0.5453743602032082
2700000000.0 -0.29623942921769314 -0.43866169076395645
2720000000.0 -0.11193783477171333 0.4685287616177824
2740000000.0 0.41328725043418935 -0.12565121351596284
2760000000.0 -0.3109234509933361 0.23255448457257247
2780000000.0 0.34420584111939095 0.09891543035051019
2800000000.0 -0.25652989460230374 -0.2140125114663077
2820000000.0 0.11003862264033168 -0.29337110373333336
2840000000.0 -0.0628866211408401 0.29942543694358936
2860000000.0 -0.15714862355168885 -0.2558885806844285
2880000000.0 0.02574520999430889 -0.296007833960969
2900000000.0 -0.25518324825027444 0.14781850598921348
2920000000.0 0.01607759537345777 0.29854062878832116
2940000000.0 -0.041115929394124257 -0.30608303307893403
2960000000.0 -0.22745518566540146 -0.217118114343727
2980000000.0 -0.17521267257052572 -0.26344938924468764
3000000000.0 -0.22857226793143637 -0.22137461011048462
3020000000.0 0.11401883598901803 0.3014510334995558
3040000000.0 0.20764609753989494 0.24768588631612148
3060000000.0 0.08212877476516708 0.3047820254467359
3080000000.0 0.2935406426811299 -0.08147543360055899
3100000000.0 -0.24433218484485994 0.16482121097576113
3120000000.0 -0.07406060962165924 -0.2762258931066918
3140000000.0 -0.27289780113325723 0.031761432859358237
3160000000.0 0.22433310466645992 -0.132876576735507
3180000000.0 -0.23695641682937083 -0.07035648344187807
3200000000.0 0.19726215517731127 0.12382480810370351
3220000000.0 0.20691517414956562 -0.015826760807635717
3240000000.0 0.0704049691566229 -0.1605080912347243
3260000000.0 0.13686577909486564 0.04494824064106816
3280000000.0 0.0796440669611667 0.06159700366218672
3300000000.0 -0.049964589983225255 0.04193572384467897
3320000000.0 -0.037300286753652295 0.004598715697645063
3340000000.0 -0.017202246247908105 0.006396055344164102
3360000000.0 -0.00016344613285823476 -0.007190344853592874
3380000000.0 -0.0007211307362186345 0.0035777812678173333
3400000000.0 0.012859601279581773 -0.010341084922831074
3420000000.0 0.03492685173085101 0.004179068789026402
3440000000.0 -0.042211054391223156 0.026863941923811245
3460000000.0 -0.0016127415048471068 0.06453946100870564
3480000000.0 -0.07468680236587094 -0.02081761843985419
3500000000.0 0.034451274220835056 0.08209480199981425
3520000000.0 -0.02552577105233755 0.09983771161237659
3540000000.0 -0.1077178148478089 -0.042171596876009576
3560000000.0 0.027481043294281353 0.11676888794663486
3580000000.0 0.13042642595832468 -0.02645445287841254
3600000000.0 -0.048660221395132534 0.1419953911397203
3620000000.0 0.1606255812452485 -0.016103930926288326
3640000000.0 0.12662698302262454 -0.12760845438391033
3660000000.0 0.06111681769738483 -0.1801663743133422
3680000000.0 0.17294221033863544 -0.0882921796425403
3700000000.0 -0.12377092094250769 -0.14878780167960656
3720000000.0 -0.08651325499974014 -0.16784121777162728
3740000000.0 0.17643870801995135 0.028908752764785973
3760000000.0 0.13441753141957322 -0.11020578438712289
3780000000.0 -0.17127722262042563 -0.005006776988768727
3800000000.0 0.1671611107408635 0.0027730158651138874
3820000000.0 -0.152714910009659 -0.04657854620881715
3840000000.0 -0.13796519507443905 0.0536819191582163
3860000000.0 -0.1368978495796221 -0.036550282909860586
3880000000.0 0.10938370955460001 -0.08746207231367222
3900000000.0 -0.11484821974912679 0.08738552694791721
3920000000.0 -0.11595243186970604 0.0966880128277087
3940000000.0 -0.05748897113115868 -0.156621896021864
3960000000.0 -0.176382985184027 0.013767459749716696
3980000000.0 0.014691682367640974 0.17442094675886782
4000000000.0 0.09507467232794045 -0.13588601839748082
