!Created with skrf (http://scikit-rf.org).
# Hz S RI R 50.0 
!freq ReS11 ImS11
400000000.0 0.4325233140026777 0.755153160716884
420000000.0 0.8447559486620978 0.0027998419450022184
440000000.0 0.7997817343544166 -0.001680083082249612
460000000.0 0.666076845214522 0.33477576717894597
480000000.0 0.004086887279475108 -0.6876646189826939
500000000.0 0.16227285713948367 0.5832304395474283
520000000.0 0.3578673051888079 0.36533213602539016
540000000.0 -0.41066471307901103 -0.1402332534550503
560000000.0 0.1876127828038767 0.348235249916844
580000000.0 -0.35224576925704365 0.08024707388053598
600000000.0 0.18297705505517145 -0.29985463255570666
620000000.0 -0.1377327050000049 -0.32222192446404035
640000000.0 0.39332947770979215 0.10315417555253135
660000000.0 0.06172035226391286 0.4083168283495503
680000000.0 -0.0743485813725192 -0.4387678496229277
700000000.0 0.018509811449641523 0.46000312548696487
720000000.0 -0.45460589864337103 -0.08164034662723149
740000000.0 -0.379042766772369 0.19527536271010523
760000000.0 -0.22937394490664378 -0.34095047194716976
780000000.0 -0.3499040018022089 0.15542603154341414
800000000.0 -0.17967891131460328 0.29021034447634403
820000000.0 0.24814991987186194 0.13334175486404148
840000000.0 -0.05588714170518657 0.19975572355051902
860000000.0 -0.15783606959335142 0.052212731387219526
880000000.0 -0.0974636384396505 -0.09922365783143365
900000000.0 -0.069781957333483 0.06399524561454172
920000000.0 0.049434191886279795 -0.024741654826520288
940000000.0 -0.03540016429778218 0.0004716218824754661
960000000.0 0.018836717475822568 -0.03027666288707604
980000000.0 -0.05716707990493658 -0.013196761476971386
1000000000.0 -0.012968542391923792 0.09608554610382462
1020000000.0 0.04317761755535084 0.11304602967606253
1040000000.0 -0.08476095253215832 -0.10616697464083917
1060000000.0 -0.025171088557198316 0.16041279576810366
1080000000.0 -0.15493956868645625 -0.1096073791839623
1100000000.0 0.17565105522939628 -0.12324838074494926
1120000000.0 0.22505034236989993 -0.07379350925736508
1140000000.0 -0.08023123858922093 0.24736073647712958
1160000000.0 -0.13683225271042812 0.24617875634759206
1180000000.0 -0.2792989780580709 -0.1255355338562909
1200000000.0 0.29824600316600774 0.16119742130817122
1220000000.0 -0.16234721351740172 -0.3332065775754944
1240000000.0 0.35332011573668437 0.17464648158642163
1260000000.0 -0.3190148642969657 -0.2524582108799202
1280000000.0 -0.4203619459873231 0.029349246595002914
1300000000.0 0.13657440121262754 0.40776460401183956
1320000000.0 0.3532925852651402 0.2530344415617245
1340000000.0 0.1496369885290776 0.41481170042671434
1360000000.0 0.43994597946343755 0.09196797166906591
1380000000.0 -0.2998560745173561 -0.32326685440066477
1400000000.0 -0.4260252185116216 0.025639542170832037
1420000000.0 0.3289116739351336 0.23267214214374915
1440000000.0 0.2526918179951384 -0.2712629064868176
1460000000.0 0.28619556107922217 -0.18303013463425846
1480000000.0 -0.10142462571218183 -0.29573851494331943
1500000000.0 -0.26638534413308895 0.09567175340623015
1520000000.0 -0.19844932702280935 -0.16029728066709456
1540000000.0 -0.10089998177635431 0.20756856440325783
1560000000.0 -0.11928393508885428 0.16260297350029598
1580000000.0 -0.13851242429396776 0.11265505586384326
1600000000.0 0.14266484708748606 0.007166257104330134
1620000000.0 -0.09016311075308682 0.05301670960704108
1640000000.0 -0.06602289398471373 -0.039860963203475056
1660000000.0 0.056431143090277795 0.018050561160537562
1680000000.0 -0.023840074251951296 -0.023589302401054738
1700000000.0 0.006621874677704418 0.006297601790790937
1720000000.0 -0.012147693575223818 0.0010696754883250921
1740000000.0 0.02642721431191329 0.004192533747965295
1760000000.0 -0.03334586218352118 0.012757747861217028
1780000000.0 -0.03420810519669635 -0.033125956384601356
1800000000.0 -0.06270129262474573 -0.051048093342110974
1820000000.0 0.06349285696640032 0.09102250167376565
1840000000.0 0.1504574099948114 -0.022184248016382083
1860000000.0 0.12755554162924532 -0.15401298403257965
1880000000.0 -0.2212838103616272 0.10430600875900341
1900000000.0 0.18774577134581907 -0.21915312457766842
1920000000.0 0.143705575007434 -0.2979397925175598
1940000000.0 -0.21342437232025344 0.2770247745085285
1960000000.0 0.0941963522074145 0.35682336592528463
1980000000.0 0.18622480425362362 -0.3491557270459544
2000000000.0 -0.23389607748873312 -0.33897224793408004
2020000000.0 -0.27189269612630257 -0.32253284518621433
2040000000.0 -0.30155427329614676 0.3088150901972772
2060000000.0 -0.1316434319167906 0.4167367273573156
2080000000.0 0.0713120376117086 0.4312611029870758
2100000000.0 0.1045922703644826 -0.4186769215870294
2120000000.0 -0.06052486830977687 -0.41418690130767694
2140000000.0 0.11918333338507268 -0.3838985704718409
2160000000.0 0.25186868292918524 -0.29361940118634566
2180000000.0 0.2710573583713424 -0.2561913716024079
2200000000.0 0.2685183882754417 -0.23960552210046993
2220000000.0 -0.2934557451792979 -0.1891956042436909
2240000000.0 -0.17543563905656773 -0.2929062468496626
2260000000.0 -0.1759905156931597 -0.2917998632666395
2280000000.0 -0.1661363531517028 0.3051320294217287
2300000000.0 -0.0260193502783926 0.355973008404532
2320000000.0 0.18859179660561462 0.32982182072344446
2340000000.0 -0.15798009145730155 -0.3792625317476786
2360000000.0 -0.44751742296204294 -0.01482036074651321
2380000000.0 0.239060095059032 0.43656977395360047
2400000000.0 -0.43194050138777046 0.35199924230584206
2420000000.0 0.4850849383269411 -0.36928381951444056
2440000000.0 -0.48553886692660086 0.44224387361433554
2460000000.0 -0.6859839141852655 -0.1465575954721419
2480000000.0 0.6795672181458936 0.2779310003290801
2500000000.0 -0.43671614270703546 -0.6160767997772376
2520000000.0 0.720833551248355 -0.26485474241483903
2540000000.0 -0.5722022887186623 -0.5172588060134061
2560000000.0 -0.451239644277033 0.6213398970285408
2580000000.0 0.07174267494060015 -0.7502905682747408
2600000000.0 -0.7278280843875015 -0.07752180270172876
2620000000.0 -0.024662034707962577 0.705486521121851
2640000000.0 0.5644268558246631 -0.35732746093407713
2660000000.0 -0.43956442160267617 -0.44792057991545503
2680000000.0 -0.20727703193750477 0.5430934732826495
2700000000.0 -0.2880590819459948 -0.4439885531245072
2720000000.0 -0.11425735864134322 0.4678679592750518
2740000000.0 0.4070543183896572 -0.14419140527522953
2760000000.0 -0.30961421371646164 0.2340565296814479
2780000000.0 0.34465356804712244 0.09657527818925109
2800000000.0 -0.2540741795440545 -0.21682589565761282
2820000000.0 0.11735327356407356 -0.29059519419820085
2840000000.0 -0.07084954458117125 0.29769051622539044
2860000000.0 -0.14707558521387148 -0.2618999754239038
2880000000.0 0.023710240210011675 -0.2959694633924263
2900000000.0 -0.25671801665298616 0.14473992097565885
2920000000.0 0.021193333364814698 0.29798005781740705
2940000000.0 -0.03166042399740597 -0.307112943005686
2960000000.0 -0.22975801039879656 -0.2142116924912284
2980000000.0 -0.1535112685599967 -0.27583884090903105
3000000000.0 -0.21992207947289916 -0.2298020395975243
3020000000.0 0.0867880264241801 0.31008180934562557
3040000000.0 0.2141199741488709 0.241628511775959
3060000000.0 0.0987395155994849 0.29984714998661355
3080000000.0 0.29257654717682097 -0.08454426956032375
3100000000.0 -0.20429251299197201 0.21248895788409275
3120000000.0 -0.050056407115707725 -0.2811628329310663
3140000000.0 -0.27341481181437427 0.022447140661776444
3160000000.0 0.2188119259815405 -0.14140967464730606
3180000000.0 -0.24069337114306633 -0.05659286568783538
3200000000.0 0.20308720071903402 0.11417600421798929
3220000000.0 0.2059452848634642 -0.026687024027279942
3240000000.0 0.058121738028780526 -0.16553131970143067
3260000000.0 0.13845820703878023 0.04105246986670837
3280000000.0 0.08530966674042083 0.05425735290139413
3300000000.0 -0.04935430819383302 0.04322569885270495
3320000000.0 -0.03775451988103961 0.0013930875165545156
3340000000.0 -0.01780458553073939 0.005724177684664986
3360000000.0 -0.007432935887757863 0.0013368036556016022
3380000000.0 -0.0021882782639908436 -0.0024656269618056957
3400000000.0 0.009055478637096197 -0.013107918372014183
3420000000.0 0.034315401684264606 -0.0034698472465038697
3440000000.0 -0.021023117629888056 0.04497845977700623
3460000000.0 0.006672286889854078 0.06389802703958554
3480000000.0 -0.07385494499407014 0.023879422341373926
3500000000.0 0.05125992392963914 0.07232749845689679
3520000000.0 0.002807052509545086 0.10268904730819718
3540000000.0 -0.11526203467549606 -0.011094542147943571
3560000000.0 0.0553610178808983 0.10654892340330646
3580000000.0 0.12448707983626742 -0.04707272313940516
3600000000.0 -0.024426736846685258 0.14807641998561402
3620000000.0 0.15638913139456345 -0.04016893924342312
3640000000.0 0.09866630590672734 -0.1509009223323756
3660000000.0 0.02728131764780148 -0.18885730488520008
3680000000.0 0.16091099951906787 -0.10920686199073246
3700000000.0 -0.14465975506162684 -0.12927987833276794
3720000000.0 -0.0925925495313266 -0.1645436776196902
3740000000.0 0.17648213462167384 0.030944625810805416
3760000000.0 0.1401418601093547 -0.10361830414947132
3780000000.0 -0.17144844720884067 -0.004921387922767637
3800000000.0 0.166698479540087 0.01643470370094013
3820000000.0 -0.14411487102665055 -0.0697648559066721
3840000000.0 -0.14518382502471314 0.031322118887918034
3860000000.0 -0.1293841714630257 -0.05926102897639701
3880000000.0 0.12031696635877395 -0.07274564441328628
3900000000.0 -0.1296337704350194 0.06442931701027231
3920000000.0 -0.12853095839960454 0.08003317661571535
3940000000.0 -0.024240270435946686 -0.16558068460868533
3960000000.0 -0.17626143711616796 -0.018565800047161102
3980000000.0 -0.035251206092842303 0.17146963693547593
4000000000.0 0.11660546531624126 -0.1175262553702883
