! Created with skrf (http://scikit-rf.org).
# Hz S RI R 50.0 
!freq ReS11 ImS11
400000000.0 -0.8093482504151343 0.2983907027051842
420000000.0 0.164910383868872 0.8498073742049278
440000000.0 0.8109407379785806 -0.21201360248802906
460000000.0 0.3519916230311151 -0.7050651099584964
480000000.0 0.6438548041195551 -0.3344656186339433
500000000.0 -0.520550593431629 -0.22308086971106214
520000000.0 -0.4641231435666015 -0.1508247710759838
540000000.0 0.13932658650569568 -0.38651074923469103
560000000.0 -0.3154660604855902 -0.19233788986577605
580000000.0 0.0548576021470359 -0.3151122750967685
600000000.0 0.039260075043826434 -0.3253769485455377
620000000.0 0.3330955271825096 0.010191699723240666
640000000.0 -0.33793993881155016 0.09148251278670542
660000000.0 -0.27793212497574477 0.26517541698769626
680000000.0 0.10948876960457904 -0.39101428809981825
700000000.0 -0.4042984193036871 0.17453114665432715
720000000.0 0.07133455206196376 0.4369580400404988
740000000.0 -0.3497006995785223 0.2925799504993244
760000000.0 -0.24015293005765145 -0.36289754706937954
780000000.0 0.391047889646222 -0.08196780979402489
800000000.0 0.23634618112300723 0.27277707103176635
820000000.0 0.0248689270558167 0.2945809954758788
840000000.0 0.07507080308193095 -0.23250035619175038
860000000.0 0.1452395877227288 0.12445481669575353
880000000.0 0.12684436077659184 -0.07492257867504802
900000000.0 -0.06168010495405512 -0.02865387986634294
920000000.0 0.02803770031630941 0.021756789761432985
940000000.0 0.006814528506386051 -0.03771403452327182
960000000.0 0.03721314279009394 0.03113445962593873
980000000.0 -0.015707819181354794 -0.05256053299740258
1000000000.0 0.06276598231703676 -0.006916934628978365
1020000000.0 0.07050962140858519 0.011951529834389804
1040000000.0 -0.07764817404817795 0.031004777898941377
1060000000.0 0.09730917566857168 0.06767374289079399
1080000000.0 0.13330187747699435 -0.04677999279116822
1100000000.0 -0.08418173160430177 -0.1423937228556486
1120000000.0 -0.18841943067888578 -0.06436719616454555
1140000000.0 0.17418800625550496 -0.17032742749030774
1160000000.0 -0.09413940911049452 -0.26870232161662544
1180000000.0 -0.24102782347785 0.22364089713043803
1200000000.0 -0.35743338998646745 0.04481369400957425
1220000000.0 -0.2624828944727018 -0.29429250271349844
1240000000.0 0.3949884512538337 0.12356102496552583
1260000000.0 -0.41976819536978893 0.12581641267075208
1280000000.0 0.4374578902040077 -0.0671064044431108
1300000000.0 -0.2604230290733625 -0.3617060178523128
1320000000.0 -0.3840696110011693 0.19964546951527523
1340000000.0 -0.3219937328259817 -0.27723245456198436
1360000000.0 0.022751014724371445 -0.42035291626788296
1380000000.0 0.10298292871835597 -0.4076876651437664
1400000000.0 -0.35989950319574426 -0.18966915133474302
1420000000.0 -0.3929460163138454 -0.013345258974422443
1440000000.0 -0.0508884505339872 0.3690171399083806
1460000000.0 0.10460756466552254 0.3295951247304785
1480000000.0 0.32068700888562696 -0.04845708629467615
1500000000.0 -0.011742925283454135 -0.29803790506253136
1520000000.0 -0.26725710589549334 -0.047874544310678065
1540000000.0 0.09701253298422209 -0.22908980733522408
1560000000.0 0.05731248722698469 -0.2075536133600232
1580000000.0 -0.09675430208890236 -0.15624219057890126
1600000000.0 0.15000944669515456 0.01806382512317538
1620000000.0 -0.08665843743787038 0.07478319730629399
1640000000.0 0.03636214356771811 0.07760715311417844
1660000000.0 -0.03643515578931491 -0.048312361623266485
1680000000.0 0.027497222867530657 0.01365324600524288
1700000000.0 -0.011328827392826386 0.002792375281519772
1720000000.0 0.02234603797645238 0.0020093986826560796
1740000000.0 -0.01712350929948237 -0.04010564745187714
1760000000.0 0.02180598558147977 0.05820228606409389
1780000000.0 -0.0008958117581883297 -0.08426087392140548
1800000000.0 0.08810065244223184 0.07552765273049768
1820000000.0 -0.09819843629164632 -0.09914312035673106
1840000000.0 -0.16285701917142106 0.028311845112608387
1860000000.0 0.04281813650628693 0.18640655726985975
1880000000.0 -0.022982918646533304 0.21899408146936816
1900000000.0 -0.127830722374173 0.22386793432621635
1920000000.0 0.2547219156234901 0.1506423660183975
1940000000.0 0.2932088680689192 -0.16131176625272597
1960000000.0 -0.3322678518568829 -0.16679343001489297
1980000000.0 0.10135237410051484 0.3856458137270226
2000000000.0 0.40000889228589004 -0.13775358180319247
2020000000.0 -0.32628439386190194 -0.2992575840210457
2040000000.0 -0.06283294123270085 0.447711035508872
2060000000.0 0.43894393347033417 -0.11584094833820172
2080000000.0 -0.2711360603082505 -0.35912954190382723
2100000000.0 -0.28204573479275963 0.332908039708847
2120000000.0 -0.11533217344379053 0.40131145761805975
2140000000.0 -0.395570542873769 -0.042588259875830044
2160000000.0 -0.37768653699643995 -0.01784464346850108
2180000000.0 -0.2510031778251141 -0.26364733152182024
2200000000.0 -0.07673391271325208 -0.34175489294800454
2220000000.0 0.20684588331368842 -0.28012940373524814
2240000000.0 -0.08378096948565397 -0.3393484046265473
2260000000.0 -0.31911553411585525 -0.1623571698096608
2280000000.0 -0.13124428136576777 0.34191643827962853
2300000000.0 0.3820365136460315 -0.008241647991348683
2320000000.0 -0.32651418811693017 -0.2384185072851313
2340000000.0 -0.08085686737767385 0.42538644700632144
2360000000.0 0.22083083195721062 -0.41182324758895694
2380000000.0 -0.4546070433643169 0.23449432882710555
2400000000.0 0.4993031949643987 -0.2524445453554297
2420000000.0 -0.4193589893237689 0.4421974791960881
2440000000.0 0.0521471353500537 -0.6548217078648828
2460000000.0 0.3828346065230487 0.5805224450787546
2480000000.0 -0.6563349838359197 -0.3082428032428836
2500000000.0 0.6964959963974905 0.26137131261795826
2520000000.0 -0.6525467607768096 -0.3773005239267756
2540000000.0 0.4239993748675116 0.6247662920014496
2560000000.0 0.11768741832974502 -0.7394538245587721
2580000000.0 -0.6494478488086871 0.34148615581783415
2600000000.0 0.6363518266474485 0.313789545244316
2620000000.0 -0.10037736484459833 -0.6714530404981977
2640000000.0 -0.38050718845632264 -0.5162655008434204
2660000000.0 -0.29514168066632995 0.5184126685155962
2680000000.0 0.5463225838587967 0.08337977965537638
2700000000.0 -0.1766985280181031 -0.4780849851772866
2720000000.0 -0.14272050641383474 0.4431784819046233
2740000000.0 0.33336266008288473 -0.2637899464406246
2760000000.0 -0.32540892800101834 0.21086814347624253
2780000000.0 0.1330822852969632 -0.3303906801507757
2800000000.0 0.10049795915444806 0.31279758289589915
2820000000.0 -0.3053545775877781 -0.0351949093760535
2840000000.0 0.21414670975777902 -0.1989802725998558
2860000000.0 -0.0584403001705941 0.2770844749415966
2880000000.0 0.007859759019268685 -0.27899310549148676
2900000000.0 -0.16403106059356637 0.22412979184721862
2920000000.0 0.17998425787730918 0.2197590896397853
2940000000.0 0.21976800174147343 -0.19215585533793633
2960000000.0 -0.015397796741624984 -0.2999212027483226
2980000000.0 -0.2335385097973092 -0.20276666651046257
3000000000.0 -0.22258486199401037 -0.22265329517461396
3020000000.0 -0.15758372816444513 -0.2763226411925948
3040000000.0 0.2087051953669284 -0.23486283281486386
3060000000.0 0.17898170220703252 0.2549132549074012
3080000000.0 -0.29729793102014934 -0.06271358554994796
3100000000.0 0.2522055393686681 -0.15382490266736212
3120000000.0 -0.2347020459654949 0.15762161017145043
3140000000.0 0.13047392675621908 -0.23520897138883942
3160000000.0 -0.20868416409868196 0.14150693239199413
3180000000.0 0.013205754673921264 0.23574629597820512
3200000000.0 0.01531076456584619 -0.2154564410914552
3220000000.0 -0.04544013180221632 0.19229426438631048
3240000000.0 -0.08123219452471178 -0.1545602330044725
3260000000.0 0.1386055053047454 -0.058400850338523304
3280000000.0 0.11370771834376246 0.04581123419792582
3300000000.0 -0.012904990162821612 -0.09211431167512454
3320000000.0 0.0604071181740504 0.004981502326214452
3340000000.0 0.021973701687088974 -0.02212643987786523
3360000000.0 -0.013109726444596303 0.008813245145139245
3380000000.0 0.02147791197290515 0.014413252005554027
3400000000.0 0.036900575428944475 0.007903168063685895
3420000000.0 0.044381379463987396 -0.01377405269329585
3440000000.0 -0.04538734049713493 0.00893508668900815
3460000000.0 0.013921924481891616 0.04036287099020578
3480000000.0 0.047333763918332473 -0.00016993126681217097
3500000000.0 -0.05356984236793219 -0.03867316829026701
3520000000.0 -0.03825958885468849 0.08484226560113309
3540000000.0 0.03150678583904296 0.11253253940315953
3560000000.0 0.12734849727286876 0.0483806518051199
3580000000.0 0.13942383845919867 -0.05561763219331063
3600000000.0 0.04773521038973345 -0.15947316437226014
3620000000.0 -0.07522895299653244 -0.15422334643391114
3640000000.0 0.004282972304557026 -0.1760873425663478
3660000000.0 0.1776473725816042 -0.010358271168497826
3680000000.0 -0.16939857937038766 0.05749710575747144
3700000000.0 0.14911495090547336 -0.09703090756687145
3720000000.0 -0.17814359136098085 0.03330772004320168
3740000000.0 -0.031755663256749375 -0.18028272884075489
3760000000.0 0.11539768965009009 0.144370131985468
3780000000.0 -0.17374487177998976 0.05672175472157786
3800000000.0 -0.06385641236241049 -0.16273491716094324
3820000000.0 0.06746642574510353 0.148889996917927
3840000000.0 0.14639754260335755 0.018228889165729498
3860000000.0 -0.13779663906938341 -0.010071046047627118
3880000000.0 0.09025838962792893 0.10600596649140462
3900000000.0 -0.1417918851693725 -0.03705785264714003
3920000000.0 -0.14969216292998322 -0.054097911252117166
3940000000.0 0.05149054301136466 -0.1676855345761484
3960000000.0 -0.16057473057349975 -0.09597508058803131
3980000000.0 0.18877943622828341 -0.02746434592376642
4000000000.0 -0.17906780443587886 0.028173739581947358
