! Created with skrf (http://scikit-rf.org).
# Hz S RI R 50.0 
!freq ReS11 ImS11
400000000.0 -0.8060796010273362 0.30593723813952217
420000000.0 0.16292890210334138 0.8497196409107618
440000000.0 0.826567116661945 -0.14260786286548552
460000000.0 0.3356306633594738 -0.7141071167040591
480000000.0 0.5979785363664402 -0.40997971276296125
500000000.0 -0.48444843997356013 -0.2902744622973902
520000000.0 -0.4322141168099166 -0.22961489624142514
540000000.0 0.06348469995171219 -0.407102523275382
560000000.0 -0.3400738944858691 -0.13937770549933406
580000000.0 0.15859661449297804 -0.2775794289058985
600000000.0 0.06804942754833888 -0.32201514431724465
620000000.0 0.32139454610317825 -0.08749604404680571
640000000.0 -0.3461689560491828 0.051030651337522194
660000000.0 -0.30082783092987847 0.2397683295185976
680000000.0 0.11658539729074612 -0.38882551607591004
700000000.0 -0.40616739762716314 0.1709743703002701
720000000.0 0.09719490359959031 0.43197938118076645
740000000.0 -0.355375173456296 0.28571807762970586
760000000.0 -0.2360633674656199 -0.3652450413455745
780000000.0 0.39488495089338327 -0.06090391129304614
800000000.0 0.2384864670276743 0.2703286522715186
820000000.0 0.0513994136522965 0.29079599326447997
840000000.0 0.08884594760347121 -0.22691036640404866
860000000.0 0.16285854030252034 0.10108019232997133
880000000.0 0.13225402003487396 -0.06477688581172991
900000000.0 -0.06639053097764419 -0.01305932423957948
920000000.0 0.02463691813454957 0.025405804052221318
940000000.0 0.019065009964579285 -0.03335875789725539
960000000.0 0.03817429144206864 0.029697174434560308
980000000.0 -0.021426706330519168 -0.050629635523087295
1000000000.0 0.056673819216631324 -0.028013214561545804
1020000000.0 0.06934150791503667 0.018069134849911135
1040000000.0 -0.07693805973043802 0.03285784570352218
1060000000.0 0.08468271703741516 0.08337379445864684
1080000000.0 0.12961105661201985 -0.0566487830756123
1100000000.0 -0.09932434449852037 -0.13232310897242655
1120000000.0 -0.18788309811206835 -0.06622315893392523
1140000000.0 0.16849592770414593 -0.1761589097254098
1160000000.0 -0.10984206737404743 -0.2629130422482124
1180000000.0 -0.25321793769891693 0.20927748068505594
1200000000.0 -0.3595007989022324 0.015075425507121987
1220000000.0 -0.22960877593165427 -0.32036464410507565
1240000000.0 0.39749803033430453 0.11393543356770568
1260000000.0 -0.4233131965834247 0.11284805746921917
1280000000.0 0.4345451813315037 -0.08215503884827646
1300000000.0 -0.24838595556128562 -0.3700324783993838
1320000000.0 -0.3798022497488837 0.20783078068627595
1340000000.0 -0.32820807789673334 -0.2696863593435713
1360000000.0 0.03605239888581788 -0.4192552218482968
1380000000.0 0.10312492221677262 -0.4078054003391975
1400000000.0 -0.36000524999943523 -0.1898881106375397
1420000000.0 -0.39202397689518215 -0.03361051107444607
1440000000.0 -0.05069390778941833 0.3691636038727268
1460000000.0 0.11077829960721337 0.32747393835265204
1480000000.0 0.32399896205017903 -0.01632880790332017
1500000000.0 -0.008617371388053564 -0.29789723762841064
1520000000.0 -0.26048011841436053 -0.07704519159149009
1540000000.0 0.0844790040215427 -0.23363221819836935
1560000000.0 0.09004195555471675 -0.19530725346339012
1580000000.0 -0.04540176252531669 -0.17816546102343744
1600000000.0 0.1505568167085034 0.012298364892531107
1620000000.0 -0.09099373711538417 0.06891486831240576
1640000000.0 0.04170053594143973 0.07467648720929394
1660000000.0 -0.03081460129897145 -0.052001187104373424
1680000000.0 0.027822408709080416 0.013766134812777421
1700000000.0 -0.007597801289998703 0.008784603366394658
1720000000.0 0.012666022530217534 0.018698906206686093
1740000000.0 -0.005663976901793094 -0.04307688551709801
1760000000.0 0.0305747015221094 0.05389570905468166
1780000000.0 -0.008527078740615418 -0.08379153700047952
1800000000.0 0.08113897186216677 0.08245633456184678
1820000000.0 -0.10046038506976283 -0.09711180454784295
1840000000.0 -0.16140696620162298 0.036009696876070085
1860000000.0 0.047225477041567834 0.18525617830265495
1880000000.0 -0.025727049061709886 0.21891113461346823
1900000000.0 -0.12118617067975816 0.22733155213870745
1920000000.0 0.2586666844450932 0.14425180335112806
1940000000.0 0.29988725852784787 -0.14854113290720647
1960000000.0 -0.329260826251025 -0.17276167516039084
1980000000.0 0.11752989337491729 0.3808607644021673
2000000000.0 0.3905722347459168 -0.16175090133519607
2020000000.0 -0.3097453719633154 -0.31646566957562294
2040000000.0 -0.07097643649972431 0.4465140949518911
2060000000.0 0.44007685333924634 -0.10994924546260383
2080000000.0 -0.25808342744131413 -0.36806786953625004
2100000000.0 -0.2884527766301458 0.32734472790933306
2120000000.0 -0.09615129648779545 0.4062241882417677
2140000000.0 -0.3968866949897559 -0.023988681142035242
2160000000.0 -0.377402936618843 -0.016565113951487465
2180000000.0 -0.25181905929836035 -0.2627080061813952
2200000000.0 -0.09039593022776186 -0.3383731114735751
2220000000.0 0.19305880675228523 -0.2896864989792741
2240000000.0 -0.07313169517152213 -0.341992525141324
2260000000.0 -0.31268942757828816 -0.1746327267518611
2280000000.0 -0.12430275588066078 0.3448713684269077
2300000000.0 0.38193521978183653 -0.007029999131348103
2320000000.0 -0.313387057428419 -0.25542888259620905
2340000000.0 -0.09389964395208744 0.422624921986378
2360000000.0 0.22267246194970045 -0.4105615678251035
2380000000.0 -0.46424264374834107 0.2139099290730409
2400000000.0 0.5044543883789226 -0.24209492167377172
2420000000.0 -0.43814627616282387 0.42365471621413664
2440000000.0 0.06219868869457925 -0.6537469666537856
2460000000.0 0.36425228193363773 0.5923917254222119
2480000000.0 -0.6534358249781214 -0.3144742752438507
2500000000.0 0.6689431550604494 0.3266551890757926
2520000000.0 -0.6388609090485492 -0.40057533180677035
2540000000.0 0.42306743297916577 0.6256755060957302
2560000000.0 0.11668234917736602 -0.7397366013289999
2580000000.0 -0.6576604742720437 0.32616823313248605
2600000000.0 0.62960226321289 0.3271016120115145
2620000000.0 -0.014898306137686 -0.6789628222321616
2640000000.0 -0.3315275878165891 -0.5491466211378523
2660000000.0 -0.300110336929522 0.5159117980223947
2680000000.0 0.548950923783606 0.06616574106053105
2700000000.0 -0.1764743849530048 -0.47829265990471304
2720000000.0 -0.14480462178730535 0.4425271654409765
2740000000.0 0.3268646358866417 -0.27224807945083146
2760000000.0 -0.3202151787136686 0.21851452631009158
2780000000.0 0.14049291548045964 -0.32724027724258503
2800000000.0 0.1103711434718357 0.30962230485020914
2820000000.0 -0.30580578223146615 -0.03366296262145953
2840000000.0 0.20435059562623303 -0.20926190104208653
2860000000.0 -0.0822375661123871 0.2712611670913309
2880000000.0 0.010174295645110876 -0.2791478585522836
2900000000.0 -0.14050800412503078 0.23989799438311646
2920000000.0 0.1972609154117654 0.20431220294094007
2940000000.0 0.22282570063249493 -0.1882114163566789
2960000000.0 -0.009456406524789348 -0.30020653129904384
2980000000.0 -0.2430333386807603 -0.1913649024883242
3000000000.0 -0.23570893256430295 -0.20892417367482702
3020000000.0 -0.1421990134261748 -0.2843648958446851
3040000000.0 0.22624392497365006 -0.21833582453641698
3060000000.0 0.21303536881653892 0.2276080590525236
3080000000.0 -0.30113216777970603 -0.035769280901502234
3100000000.0 0.280895596083181 -0.08971518194987836
3120000000.0 -0.186677402201748 0.2132233641403312
3140000000.0 0.1153862052040438 -0.24300469143122058
3160000000.0 -0.2004092860303431 0.15262090214748997
3180000000.0 0.03214120657993586 0.23417591508406013
3200000000.0 0.019861779745036733 -0.21517912428815428
3220000000.0 -0.04545812738334103 0.192073808689954
3240000000.0 -0.09748118534145134 -0.14514505661110044
3260000000.0 0.14143666708974606 -0.051652603541085126
3280000000.0 0.12211274310090679 0.011809481680373686
3300000000.0 -0.000711934011271868 -0.09323430802492265
3320000000.0 0.05808730847057354 0.01671016877964439
3340000000.0 0.01102591901372167 -0.029613174277572284
3360000000.0 -0.0022682959356228483 -0.016266310671848094
3380000000.0 0.025716339268836867 -0.0023590129627515787
3400000000.0 0.030406858952902533 0.02213545692609847
3420000000.0 0.046326533898697835 -0.0005606305374029184
3440000000.0 -0.03243008142797585 0.03328529272783436
3460000000.0 0.004121401199482851 0.042273318778845395
3480000000.0 0.044863991472607626 -0.014749197799891828
3500000000.0 -0.05326319029475287 -0.038943594924481524
3520000000.0 0.006367239852831871 0.09313936203898449
3540000000.0 0.028675032956348896 0.1129193172205224
3560000000.0 0.1364694005688934 0.0019165299409432722
3580000000.0 0.14185827247877406 -0.04844171201835603
3600000000.0 0.06789960091404017 -0.15093784634447086
3620000000.0 -0.06148189486408905 -0.15968302593907963
3640000000.0 0.018537195226567486 -0.17506981833805207
3660000000.0 0.17593227171981057 -0.025948498200582204
3680000000.0 -0.17005757327987028 0.055491053266799595
3700000000.0 0.14494736250363288 -0.10312350074908763
3720000000.0 -0.17738337072677232 0.03753284629051758
3740000000.0 -0.04162449026248067 -0.17831514294777479
3760000000.0 0.11920844346232676 0.14117769750595574
3780000000.0 -0.172680060592598 0.058897634655933125
3800000000.0 -0.06733502122891159 -0.1616373257320058
3820000000.0 0.07014158160210755 0.14748934556801616
3840000000.0 0.13900100536324617 0.050561376982574374
3860000000.0 -0.13677929407857453 -0.021012470389233096
3880000000.0 0.08682878543381142 0.10883085646864482
3900000000.0 -0.1397231467092358 -0.044751984320361426
3920000000.0 -0.14873422326765595 -0.056960704494379254
3940000000.0 0.06635572173261013 -0.16281073638343874
3960000000.0 -0.14935911276405314 -0.11316944747907665
3980000000.0 0.18809663820857975 0.035505117069434565
4000000000.0 -0.16864792902845913 -0.06657108874131824
