! Created with skrf (http://scikit-rf.org).
# Hz S RI R 50.0 
!freq ReS11 ImS11
400000000.0 -0.7967825429704174 0.33067053633331783
420000000.0 0.15101023776059133 0.8514841121635598
440000000.0 0.8175499282439369 -0.18410859148223185
460000000.0 0.3157643455123649 -0.7219643357458547
480000000.0 0.6239522829255663 -0.3697938178905188
500000000.0 -0.4901211998103429 -0.28199168708317507
520000000.0 -0.45260873152026293 -0.18408525615595933
540000000.0 0.07628558449335768 -0.40446006423128755
560000000.0 -0.3358700070541288 -0.14911332761221732
580000000.0 0.16171477067248596 -0.2772482538285746
600000000.0 0.060637373064473345 -0.3219548574186499
620000000.0 0.32673316635352345 -0.06026134920456047
640000000.0 -0.34818616209957554 0.027244615639006105
660000000.0 -0.2939101905438388 0.248300187142496
680000000.0 0.11497081360940933 -0.3889351720841379
700000000.0 -0.41212106393780334 0.15368587103350037
720000000.0 0.09335906855691849 0.4318323182290076
740000000.0 -0.32148889535913533 0.32239138085888774
760000000.0 -0.2063139035165678 -0.38360146692540575
780000000.0 0.3957158416483963 -0.06198834606486456
800000000.0 0.2025263026835181 0.29871301844686743
820000000.0 0.037114141977543036 0.2937927320744729
840000000.0 -0.0028236862111613494 -0.24442313810233537
860000000.0 0.18953395405351955 0.03365864210975039
880000000.0 0.11293121356073352 -0.09557409746273847
900000000.0 -0.06251819619593937 0.02599217899041747
920000000.0 0.018190153299152613 -0.029636046805498667
940000000.0 -0.03960954885543988 0.0012312569931186982
960000000.0 0.04183381886825041 0.026762810827823086
980000000.0 -0.03293844782962352 -0.04509906964242636
1000000000.0 0.03147110438393361 -0.0551916737448803
1020000000.0 0.0683658100802506 -0.02073482833041877
1040000000.0 -0.045716215464880416 0.06944420312579883
1060000000.0 0.08374460520330192 0.08341199142916464
1080000000.0 0.1374820931801691 -0.028991828957832692
1100000000.0 -0.06155890962235674 -0.1528934748459088
1120000000.0 -0.1799309084725164 -0.08348401922432015
1140000000.0 0.16989790289907952 -0.1739635115410958
1160000000.0 -0.10614927115901214 -0.2640964041631425
1180000000.0 -0.23583984880444941 0.22880180381194
1200000000.0 -0.3518656841889857 0.07391908166901281
1220000000.0 -0.2759900149140906 -0.28146292113462795
1240000000.0 0.4074749643986867 0.07111719261613166
1260000000.0 -0.42578425162694766 0.10304711286092372
1280000000.0 0.43914886626135186 -0.05888216180322723
1300000000.0 -0.2724927598605411 -0.35352037295593375
1320000000.0 -0.3689894324693271 0.22758398339220381
1340000000.0 -0.3422733268359668 -0.25151912093067036
1360000000.0 0.005386786763350566 -0.42048288196149997
1380000000.0 0.08466797613256379 -0.41171683454336305
1400000000.0 -0.35601835466892817 -0.1955528247075402
1420000000.0 -0.3904761346895796 -0.039265728383588536
1440000000.0 -0.09141801266251705 0.36047823724909794
1460000000.0 0.08544463304709045 0.3348907149511605
1480000000.0 0.324076026495346 -0.006891818941633005
1500000000.0 0.0005310187102574001 -0.29860501002014483
1520000000.0 -0.2632331136350536 -0.06678002514997725
1540000000.0 0.07979328116176752 -0.2356726455343101
1560000000.0 0.04687798869355949 -0.21017076581119995
1580000000.0 -0.09160664437537992 -0.15910107184600608
1600000000.0 0.1458240241016775 0.04017848777654273
1620000000.0 -0.0813655679525356 0.08053293383709721
1640000000.0 0.00778608372147141 0.08501931480817042
1660000000.0 -0.026370253032816416 -0.053786341998677045
1680000000.0 0.02675748818847061 0.013701131012146772
1700000000.0 -0.00895753729531 0.006946479013605325
1720000000.0 0.011739118449432148 0.019079035931474232
1740000000.0 -0.031954970007671175 -0.029641678130533766
1760000000.0 0.020731430308187023 0.05893887471179722
1780000000.0 -0.0006730032529985811 -0.08483466895109659
1800000000.0 0.08158164569760418 0.08300044800974478
1820000000.0 -0.1019790742427994 -0.09582968141890197
1840000000.0 -0.15295505509085272 0.061540257457683864
1860000000.0 0.09697623086288272 0.16444645016989928
1880000000.0 0.020460666809197316 0.2188659252888908
1900000000.0 -0.11548066548483499 0.23008874924494715
1920000000.0 0.25333238787744783 0.1523351374643311
1940000000.0 0.30095961379274616 -0.14586832551686565
1960000000.0 -0.3272635582450046 -0.17637286346773223
1980000000.0 0.12746909833101802 0.37794398097065346
2000000000.0 0.38508478160835474 -0.1748948950962629
2020000000.0 -0.3154789822440789 -0.3113940966912121
2040000000.0 -0.11539005637444126 0.4380241202473633
2060000000.0 0.4385669265485586 -0.11613473437057369
2080000000.0 -0.2759061278832415 -0.3552701203644463
2100000000.0 -0.27017808644051416 0.342914811580735
2120000000.0 -0.05893651990563619 0.4133253499954611
2140000000.0 -0.39519109847908784 0.04259361499158544
2160000000.0 -0.37762941265504696 -0.0071489158775979
2180000000.0 -0.2447618926298828 -0.26817125980134054
2200000000.0 -0.08126257557715995 -0.33983903992623843
2220000000.0 0.20302462764780976 -0.28185643015482437
2240000000.0 -0.06958064576279303 -0.3422400737996821
2260000000.0 -0.30734786480987086 -0.18349776320684952
2280000000.0 -0.12083390572778786 0.34606316519770475
2300000000.0 0.3816297973273863 -0.01709609408060005
2320000000.0 -0.33485480675938084 -0.2270464975711223
2340000000.0 -0.015537648414510084 0.4328589555470718
2360000000.0 0.1184798397922322 -0.4523372051376274
2380000000.0 -0.39580190271282034 0.3241084356806685
2400000000.0 0.4506851879911101 -0.33212221992745783
2420000000.0 -0.3565255669403553 0.49437609460422793
2440000000.0 -0.026496253029134963 -0.6561572798413637
2460000000.0 0.445809750339553 0.5329516042670255
2480000000.0 -0.6892558357244223 -0.22231842734301158
2500000000.0 0.710122447918937 0.22108982034998442
2520000000.0 -0.6886545026575869 -0.3056969233154041
2540000000.0 0.4597291353136641 0.5978744799473253
2560000000.0 0.057125705343788406 -0.7451790297052072
2580000000.0 -0.6233041724759887 0.3838225578656882
2600000000.0 0.6585489956765291 0.25891548941322384
2620000000.0 -0.18189804016655814 -0.6519487846695838
2640000000.0 -0.40691833954986734 -0.49377586930869116
2660000000.0 -0.2745847939131051 0.5283582933324725
2680000000.0 0.5431250362502565 0.09510176372604277
2700000000.0 -0.1584541574473112 -0.48248761867484696
2720000000.0 -0.11931664075437569 0.44938751334388555
2740000000.0 0.3428161879863979 -0.2514900796576775
2760000000.0 -0.3165552057758121 0.22392231069998852
2780000000.0 0.14665793613136266 -0.32421402793376286
2800000000.0 0.10082758250040823 0.3120330162092217
2820000000.0 -0.3039125104368207 -0.03959870087905423
2840000000.0 0.2163758111859715 -0.194564457712944
2860000000.0 -0.0639255156973403 0.2748698421569645
2880000000.0 0.017111225687551072 -0.27731938692822394
2900000000.0 -0.16581060052794264 0.22176841385397422
2920000000.0 0.22023164053135746 0.17800919755367026
2940000000.0 0.18471793668922723 -0.2252344744637829
2960000000.0 -0.025066393051775125 -0.2992325558330205
2980000000.0 -0.2279993083299512 -0.20910219039383554
3000000000.0 -0.2308053118791966 -0.21402285010953578
3020000000.0 -0.18868402754148536 -0.2553202097127721
3040000000.0 0.1912059236154971 -0.24818402518468796
3060000000.0 0.20686434977647608 0.2334052978798038
3080000000.0 -0.30335891470171866 -0.021718461997811522
3100000000.0 0.2742612885085221 -0.10918010197667563
3120000000.0 -0.21198754573777817 0.18782427378413138
3140000000.0 0.1331614384342322 -0.23408319038286857
3160000000.0 -0.22634450597795558 0.11071234300858636
3180000000.0 -0.01903804804954056 0.23524461802018096
3200000000.0 0.06673903045719234 -0.20558995399841706
3220000000.0 -0.1089147537957777 0.16384858949046335
3240000000.0 -0.031701985525371165 -0.1718731375811923
3260000000.0 0.14881423332079657 0.019288177641546406
3280000000.0 0.11659405579297111 0.035158108303093946
3300000000.0 0.018654757425487615 -0.09034002924679532
3320000000.0 0.060320343504470506 -0.0030141354173358467
3340000000.0 0.009169413030865383 -0.030057964675381302
3360000000.0 -0.013415352601580893 0.009353381045932845
3380000000.0 0.025427917896039164 -0.0028591036868859977
3400000000.0 0.03664025455827331 -0.008971038526906085
3420000000.0 0.010562020799284675 -0.04540124345516861
3440000000.0 -0.03776022551265156 0.02685809603384681
3460000000.0 0.02307217773318549 0.03466857241743484
3480000000.0 0.041779329683238026 0.020870310786620154
3500000000.0 -0.03839555709585323 -0.05296934231801085
3520000000.0 -0.033784956549039756 0.08586544501731169
3540000000.0 0.009865197375224514 0.11554109145301297
3560000000.0 0.1338032765554343 0.02264706001797473
3580000000.0 0.13308279865321593 -0.06857834034876466
3600000000.0 0.053679398920842114 -0.15641600119676535
3620000000.0 -0.10517409932608156 -0.13475175088572963
3640000000.0 -0.006151959727719123 -0.17539391554221
3660000000.0 0.17655118801202196 0.0018581758062424089
3680000000.0 -0.1615472241386442 0.0738215480899921
3700000000.0 0.14526819677642286 -0.10060036199090377
3720000000.0 -0.17790822137615644 0.031017112349075705
3740000000.0 -0.03821479849501629 -0.17929754913360862
3760000000.0 0.11285754970322914 0.1467420116505199
3780000000.0 -0.15965546412321066 0.08970475898056629
3800000000.0 -0.0910535517472477 -0.1500304855114848
3820000000.0 0.13606206079410568 0.0913194174154418
3840000000.0 0.14760284294181017 0.015560392104000386
3860000000.0 -0.13096803148542285 0.04357290134145745
3880000000.0 0.11615842702292378 0.07664268021165956
3900000000.0 -0.14583273217069523 0.004877399385304281
3920000000.0 -0.15145046295256787 -0.04679143228525254
3940000000.0 0.07604048137445298 -0.15809606623686487
3960000000.0 -0.1565620284583286 -0.10362588725785825
3980000000.0 0.17775203138093243 -0.06835374649604306
4000000000.0 -0.15271227089791584 0.09537804567028854
