! Created with skrf (http://scikit-rf.org).
# Hz S RI R 50.0 
!freq ReS11 ImS11
400000000.0 -0.8055619180315253 0.30707913049661234
420000000.0 0.14689701647338899 0.8527598776857241
440000000.0 0.8141166314874122 -0.20178902571718693
460000000.0 0.28818058420305626 -0.7332385340488369
480000000.0 0.6155949338250837 -0.3829546172302683
500000000.0 -0.46839383043241845 -0.3177310050321491
520000000.0 -0.45946006333140926 -0.1677555403054739
540000000.0 0.08247142402381834 -0.4033863465629618
560000000.0 -0.33181585547781606 -0.15682742009800046
580000000.0 0.16964785078059358 -0.27269365484444064
600000000.0 0.013162182937076067 -0.32827847993790915
620000000.0 0.32368790690274163 -0.07693335812509529
640000000.0 -0.3483647558258136 0.03342458572028871
660000000.0 -0.3034627905096086 0.236859146113792
680000000.0 0.0958094070901177 -0.39439889785785276
700000000.0 -0.4049291940521269 0.17327521736664406
720000000.0 0.09029003706192046 0.4335882457913543
740000000.0 -0.3268800127967286 0.3170889843193663
760000000.0 -0.20395121653097684 -0.38394022085022
780000000.0 0.3890938383230271 -0.09281376550991911
800000000.0 0.23273028016971334 0.2747964781912481
820000000.0 0.02509756387217892 0.2940868897451923
840000000.0 0.08858712214516282 -0.22750066179182682
860000000.0 0.15982718862007417 0.10528133923129165
880000000.0 0.1258505337399948 -0.07631579175061476
900000000.0 -0.06125954726210558 -0.028817522114557213
920000000.0 0.032453193458930545 0.014593824922747257
940000000.0 0.0035807772748388863 -0.037966715333623
960000000.0 0.02824219310045835 0.03920613229298794
980000000.0 -0.0044847312342087275 -0.05467108483835221
1000000000.0 0.053536796301878346 -0.03301831904442636
1020000000.0 0.06805087436848871 0.022138356773039863
1040000000.0 -0.07491624472427713 0.037472295121266194
1060000000.0 0.0903794442473936 0.07689713849966512
1080000000.0 0.12422229668855755 -0.06746007115628375
1100000000.0 -0.09958631214862486 -0.13224478288869004
1120000000.0 -0.18686827101122946 -0.0691965433856387
1140000000.0 0.16817137269136181 -0.17645484416861268
1160000000.0 -0.0903088989531957 -0.27009842443654547
1180000000.0 -0.24031183745775087 0.22417333591971605
1200000000.0 -0.3555936722803154 0.058375674203739354
1220000000.0 -0.24373819019969764 -0.30996525643260975
1240000000.0 0.3991925738916768 0.10859944193673736
1260000000.0 -0.4226678553315195 0.11514475643697263
1280000000.0 0.43573020365326903 -0.07670834908047792
1300000000.0 -0.24720222380471565 -0.37073688659890064
1320000000.0 -0.37767000802963485 0.21118398065166033
1340000000.0 -0.3196435142076372 -0.2797094966722923
1360000000.0 0.032111164729161944 -0.4196911674551974
1380000000.0 0.10400733697577311 -0.4077485314452401
1400000000.0 -0.36149078273146207 -0.1862660054027027
1420000000.0 -0.39225530186951996 -0.03044021630349147
1440000000.0 -0.04602619162667308 0.36976189633574363
1460000000.0 0.1042611456916702 0.3298273567206858
1480000000.0 0.3245082192056127 -0.006282374085443801
1500000000.0 -0.0016797899535865826 -0.29825822097962446
1520000000.0 -0.26362930635166926 -0.06540482031662394
1540000000.0 0.07517378865790335 -0.23687852074852422
1560000000.0 0.07618766722111471 -0.20114249545165336
1580000000.0 -0.06532531378931306 -0.17161901898647908
1600000000.0 0.1443172511988749 0.044705953334000334
1620000000.0 -0.08571489675444569 0.07539028243879739
1640000000.0 0.03611515985527249 0.07744006947587247
1660000000.0 -0.03632645302380182 -0.04817905586004057
1680000000.0 0.029205859050186866 0.00904969757473592
1700000000.0 -0.007632631989338136 0.008756603547565418
1720000000.0 0.02170396553230288 0.006094831827498772
1740000000.0 -0.02296771648859583 -0.03680627017238078
1760000000.0 0.0290002269681184 0.05469729428402813
1780000000.0 0.005771369565023404 -0.08356894413662433
1800000000.0 0.09009330481219423 0.07321626282551605
1820000000.0 -0.10615820890068436 -0.09056785181349165
1840000000.0 -0.16284343009646687 0.028345001817010187
1860000000.0 0.05261513560786988 0.18382344433561712
1880000000.0 -0.006884678485597541 0.22009067569913066
1900000000.0 -0.12347099330224286 0.2264537876853936
1920000000.0 0.2567909933063588 0.1475465252282192
1940000000.0 0.2937577004256075 -0.16073130764387858
1960000000.0 -0.32542932598145013 -0.17966473351188367
1980000000.0 0.11826602956427316 0.38068582118796684
2000000000.0 0.39197562773062933 -0.1581026281050328
2020000000.0 -0.3023621294959803 -0.3237182010962057
2040000000.0 -0.06123274975976478 0.4479222456328157
2060000000.0 0.4448429342927424 -0.08918804455560403
2080000000.0 -0.26881470316831135 -0.36024978039672795
2100000000.0 -0.29410303779150454 0.3222143683991199
2120000000.0 -0.07725282472715583 0.4101448943145146
2140000000.0 -0.3966788580105623 -0.02822063333530283
2160000000.0 -0.377112131260627 -0.023371902043986238
2180000000.0 -0.24994762706527995 -0.2643659529183474
2200000000.0 -0.09650965731163874 -0.33655922026356366
2220000000.0 0.1651039363520187 -0.3060919817190123
2240000000.0 -0.06120950785805507 -0.34450583317242944
2260000000.0 -0.3135376295059034 -0.17270170751927533
2280000000.0 -0.13185697791100157 0.34181824981713194
2300000000.0 0.38172879199689913 0.006676496430103739
2320000000.0 -0.3196304565227192 -0.24756019300299645
2340000000.0 -0.09685175936868488 0.42199874181499064
2360000000.0 0.22297742680261198 -0.41055514714126723
2380000000.0 -0.46708661663464496 0.20754569641915754
2400000000.0 0.5073682362728915 -0.23585207208523729
2420000000.0 -0.45881208482008745 0.4014653781831857
2440000000.0 0.08995918599601245 -0.6505802357234269
2460000000.0 0.3592733900953751 0.5955115805604505
2480000000.0 -0.6443425008368008 -0.33292590598943234
2500000000.0 0.6562416441776053 0.3517895737835356
2520000000.0 -0.6151638718375582 -0.4358600264505285
2540000000.0 0.4350398043803947 0.6174622845626959
2560000000.0 0.1325518045053664 -0.737183706457966
2580000000.0 -0.6503882964706188 0.34054982620796004
2600000000.0 0.6330685661114478 0.3211573233037994
2620000000.0 -0.07312626655410612 -0.675347958449938
2640000000.0 -0.36331923521228815 -0.5291583628329997
2660000000.0 -0.3062133569106481 0.5127932167673463
2680000000.0 0.5505105214091837 0.054957282727174754
2700000000.0 -0.16246775183940862 -0.48353899912197074
2720000000.0 -0.14326662042250124 0.44322377524534273
2740000000.0 0.34842718468498435 -0.243902440511505
2760000000.0 -0.33097492298878234 0.20208518461496777
2780000000.0 0.14501124232774146 -0.3252700162491828
2800000000.0 0.1044484649818676 0.31164668538434215
2820000000.0 -0.3065028337671603 -0.02509553340719638
2840000000.0 0.19767627231084292 -0.2155867878721859
2860000000.0 -0.06562422227398863 0.27580012267942117
2880000000.0 -0.0036678037162167928 -0.27934927013203875
2900000000.0 -0.15329282135788624 0.2324610846012978
2920000000.0 0.21904680264607948 0.18058113420369648
2940000000.0 0.23054835921105726 -0.17877861074584683
2960000000.0 -0.017284218217500428 -0.3000084837485821
2980000000.0 -0.23542938962217344 -0.20047133830873962
3000000000.0 -0.2232818677984636 -0.22231790336943552
3020000000.0 -0.16282979200040176 -0.27292918715983716
3040000000.0 0.23607041439457985 -0.2074443994418703
3060000000.0 0.20899201331507872 0.23117704361889707
3080000000.0 -0.3009612635202617 -0.03865005057281112
3100000000.0 0.27780108558785876 -0.09876438174807152
3120000000.0 -0.20291467058752977 0.1980720746847486
3140000000.0 0.11014508931659119 -0.24547384067437275
3160000000.0 -0.2110776071468664 0.13723002549464874
3180000000.0 0.026574421167640073 0.2347188471149476
3200000000.0 0.005674214109487513 -0.21576332642320478
3220000000.0 -0.040869002883832016 0.19304636240573983
3240000000.0 -0.09265125835505594 -0.14814045346075613
3260000000.0 0.1367251475073291 -0.06283214910947421
3280000000.0 0.12254468397329871 0.0014623629100709958
3300000000.0 0.005179990629581966 -0.092789113728381
3320000000.0 0.05993173418055755 0.007680843561763635
3340000000.0 0.012819658255424622 -0.02898526467572267
3360000000.0 -0.004089241883016213 -0.015908132444143065
3380000000.0 0.025733710606977052 0.0020162262618813693
3400000000.0 0.025192992878643683 0.02777891093254268
3420000000.0 0.04617686400250801 -0.0032743398522402313
3440000000.0 -0.040771874631699706 0.02226408750057395
3460000000.0 -0.013252938107654306 0.03997085767324505
3480000000.0 0.04580827959705466 0.010498749282156647
3500000000.0 -0.058038549662270913 -0.031834534313698835
3520000000.0 -0.019056885467106283 0.09090566420252169
3540000000.0 -0.004231951535846168 0.11643575205532121
3560000000.0 0.13203400582233782 0.03306892149953994
3580000000.0 0.1465248616529028 -0.02896513818609982
3600000000.0 0.03233097880246544 -0.16292262316507172
3620000000.0 -0.0636523748806273 -0.15942318453764187
3640000000.0 -0.01038565546907149 -0.17587068066600395
3660000000.0 0.1751730483109552 -0.03362127465747636
3680000000.0 -0.16744651600155802 0.06312597181086141
3700000000.0 0.13975303250225493 -0.10984231625412769
3720000000.0 -0.17369236326483944 0.05125083909635127
3740000000.0 -0.04720579109166884 -0.17697621772397273
3760000000.0 0.12463304384817372 0.1362432734628697
3780000000.0 -0.1598237230552377 0.08696539433884701
3800000000.0 -0.06795211418554177 -0.16101966667600906
3820000000.0 0.08894617441511933 0.13642534175037635
3840000000.0 0.14253276155284164 0.04019791204395656
3860000000.0 -0.13765004992554056 -0.01354599947398557
3880000000.0 0.0838356998674829 0.11159565113763005
3900000000.0 -0.14457219866046755 -0.024251417865137768
3920000000.0 -0.1495316158533995 -0.05617129803471384
3940000000.0 0.047729233060264796 -0.16878662528378974
3960000000.0 -0.14830663695717441 -0.11518349217652914
3980000000.0 0.18486294978381654 0.04976398667048816
4000000000.0 -0.1628462019534594 -0.07924805142401758
