! Created with skrf (http://scikit-rf.org).
# Hz S RI R 50.0 
!freq ReS11 ImS11
400000000.0 -0.8064246148392873 0.30420343986424275
420000000.0 0.1369204806733752 0.8545154218590596
440000000.0 0.8139127537873688 -0.1981984947557385
460000000.0 0.30139013749919813 -0.727873693261137
480000000.0 0.6390772422228309 -0.34163233382849006
500000000.0 -0.5106962467740463 -0.24757947176699657
520000000.0 -0.48211580865843756 -0.07022916140648447
540000000.0 0.1521748611011105 -0.38084259753580346
560000000.0 -0.30227632835796914 -0.2119924826556938
580000000.0 0.06075019125977093 -0.3161072809254357
600000000.0 0.04342219026665909 -0.32326857116857116
620000000.0 0.32944160870146016 0.03724406753796486
640000000.0 -0.34962712459518974 0.016055344928492536
660000000.0 -0.28589502508414544 0.25687332675182906
680000000.0 0.09689194941335595 -0.3938225418772288
700000000.0 -0.41531130584078857 0.14178057589967688
720000000.0 0.0536182627145909 0.439480938690966
740000000.0 -0.3182006782015948 0.3249626513983186
760000000.0 -0.23326468912871426 -0.36782035916095523
780000000.0 0.39388824182301496 -0.07316723074717608
800000000.0 0.2251123709693461 0.2826513597867271
820000000.0 0.03439539298267261 0.29366733071324036
840000000.0 0.046526921005715455 -0.23992549069749428
860000000.0 0.17619680833848894 0.0779149536750999
880000000.0 0.11933283408797261 -0.0869384467556624
900000000.0 -0.06754412142583004 -0.005548692112693753
920000000.0 0.03461268040914235 -0.0007365146286946573
940000000.0 -0.02214993876647138 -0.03254357828774459
960000000.0 0.04756855922678812 0.013657873905635344
980000000.0 -0.028652443351129004 -0.0475618454263661
1000000000.0 0.03604239129506747 -0.05140168000497632
1020000000.0 0.06814849107586406 -0.022158673058930094
1040000000.0 -0.04800741479152251 0.06797397381519953
1060000000.0 0.08765925359105997 0.07936090022760516
1080000000.0 0.13783931812080136 -0.028297296144427962
1100000000.0 -0.07295959846389827 -0.14783527646440164
1120000000.0 -0.18249993168312076 -0.07880403677684918
1140000000.0 0.1616699505209934 -0.18126860792649968
1160000000.0 -0.10907758677139189 -0.2626804185484881
1180000000.0 -0.23617565173262448 0.2282857075991794
1200000000.0 -0.35395238919992034 0.06352839552101383
1220000000.0 -0.2692932942835933 -0.28779997292090903
1240000000.0 0.4052423050453327 0.08360257314402211
1260000000.0 -0.4271653935675077 0.0969761636479258
1280000000.0 0.43979851863150704 -0.054515895797065395
1300000000.0 -0.2719654196654553 -0.35402826049619907
1320000000.0 -0.38422357716098426 0.19974197649082498
1340000000.0 -0.3338607975915028 -0.26246414220640835
1360000000.0 0.012647423456018728 -0.4204965336290757
1380000000.0 0.0965940197574244 -0.4091796053209543
1400000000.0 -0.3601257975334923 -0.1881034971748917
1420000000.0 -0.3905803252960253 -0.040791582650024964
1440000000.0 -0.06935557069296093 0.3654576933340924
1460000000.0 0.0958103031579098 0.3324349844686155
1480000000.0 0.32406482800364933 -0.012318455586264467
1500000000.0 -0.007540446476532715 -0.2983486533157446
1520000000.0 -0.26693872363918714 -0.050475812247687026
1540000000.0 0.07524371628830624 -0.23703717344623887
1560000000.0 0.04295308755238942 -0.2111336811689251
1580000000.0 -0.07192630087264981 -0.1688160285740632
1600000000.0 0.13994074506218862 0.058140240693601186
1620000000.0 -0.08907881817630373 0.07211839263115742
1640000000.0 0.008649067226847624 0.08471507646644603
1660000000.0 -0.0021752494781116898 -0.05964985516350182
1680000000.0 0.02979454011492911 0.0040645243428121675
1700000000.0 -0.008922612819885342 0.0073629565650820935
1720000000.0 0.022475567663007363 0.00195500428659835
1740000000.0 -0.03575505126453127 -0.024665347872928754
1760000000.0 0.010620073520991893 0.06109937235598902
1780000000.0 0.015013199879990502 -0.08306839787409263
1800000000.0 0.07634097996816959 0.08741163985055143
1820000000.0 -0.0833394352779643 -0.1120222538971431
1840000000.0 -0.16062753960114862 0.036175872543727394
1860000000.0 0.08402492214293808 0.17146147698046382
1880000000.0 0.013988804021425681 0.21959300591040012
1900000000.0 -0.1040620351610522 0.2357518192666656
1920000000.0 0.2590406100475382 0.14246731854956596
1940000000.0 0.29550730854187435 -0.1566335886850667
1960000000.0 -0.33774213893512045 -0.15510476441117033
1980000000.0 0.13342906405661276 0.3757001299718154
2000000000.0 0.3913833024691453 -0.160387019325516
2020000000.0 -0.3012595402521253 -0.32517631500746164
2040000000.0 -0.11787609401288368 0.43725648568722697
2060000000.0 0.44463092651991826 -0.09046061214301555
2080000000.0 -0.2668916102849977 -0.36225559555077924
2100000000.0 -0.29515013924705 0.3220725623211037
2120000000.0 -0.045454576516557245 0.41498567133306646
2140000000.0 -0.3971543026616671 0.01771286358290237
2160000000.0 -0.37787112642139625 -0.0028881601694302145
2180000000.0 -0.23929158783025553 -0.2730438857703507
2200000000.0 -0.08076033817980964 -0.3398468102376945
2220000000.0 0.1963641018556427 -0.28621159509983973
2240000000.0 -0.0656858678983889 -0.34317035489160674
2260000000.0 -0.32807807273247286 -0.1417021086574894
2280000000.0 -0.13125351744292793 0.3421581734996922
2300000000.0 0.3801397315958141 0.03404589358904675
2320000000.0 -0.29877248820963276 -0.27174804695901567
2340000000.0 -0.06346506782226528 0.4282209112441507
2360000000.0 0.16278430025645133 -0.4380434519216919
2380000000.0 -0.4322478801269908 0.27333290547147165
2400000000.0 0.4744358820230483 -0.2972484977097868
2420000000.0 -0.4167255465073043 0.4451834631622019
2440000000.0 0.05827401253386202 -0.6543004254240683
2460000000.0 0.37010100861012596 0.5884026742444649
2480000000.0 -0.6661221944973278 -0.285398266117285
2500000000.0 0.7149201322196034 0.20575942443148937
2520000000.0 -0.6617684397404475 -0.3616892049807952
2540000000.0 0.43148134649691033 0.619312062468449
2560000000.0 0.09140508062175466 -0.7425316024643995
2580000000.0 -0.6427075014279929 0.35212146299173863
2600000000.0 0.6539183081038679 0.2727392103319081
2620000000.0 -0.13467233576859663 -0.6644372521391498
2640000000.0 -0.3897670358643903 -0.5091521108741136
2660000000.0 -0.29027454803099273 0.521528892446871
2680000000.0 0.5435638587954279 0.0989803854686723
2700000000.0 -0.14866506512118075 -0.48655495830103324
2720000000.0 -0.14139189032176783 0.4437644939780857
2740000000.0 0.3362337318680172 -0.261190973073876
2760000000.0 -0.325901929148278 0.21071328652085808
2780000000.0 0.16261971337552952 -0.31703377381698444
2800000000.0 0.08346195566655772 0.31767934930297526
2820000000.0 -0.30446987822430693 -0.03587351309378604
2840000000.0 0.22154886101961932 -0.18909821836315152
2860000000.0 -0.05596676256883558 0.27707255107752654
2880000000.0 -0.007627827589385373 -0.2784073919030157
2900000000.0 -0.15071978563273997 0.2326912745234141
2920000000.0 0.2035576153088964 0.19761005922778363
2940000000.0 0.189661078552809 -0.22172238879408665
2960000000.0 -0.033604158318324764 -0.29873067949581716
2980000000.0 -0.22067631791044134 -0.21809360356632235
3000000000.0 -0.20976101801904976 -0.23587685015398865
3020000000.0 -0.1319299543494625 -0.2889796178417579
3040000000.0 0.20516860253844552 -0.23768475536853237
3060000000.0 0.20947764553292206 0.23101264522243828
3080000000.0 -0.29388578011681005 -0.07926317044959748
3100000000.0 0.25306484382195366 -0.15428838794235408
3120000000.0 -0.21789178905158882 0.18088355845801976
3140000000.0 0.1411943752212981 -0.2290446534811878
3160000000.0 -0.22955874842295246 0.10373292038302954
3180000000.0 -0.01677560192328885 0.23553316880020161
3200000000.0 0.04864627369994235 -0.21053102762151685
3220000000.0 -0.09078918140723184 0.1742866377191673
3240000000.0 -0.04457343347549015 -0.16901950099645816
3260000000.0 0.14999079543053212 -0.004445327069956182
3280000000.0 0.11135726473773666 0.04997725295331232
3300000000.0 -0.02564113364103892 -0.0887452530799301
3320000000.0 0.0546486265698674 -0.02627663298519405
3340000000.0 0.02076038528184116 -0.023876510123431286
3360000000.0 -0.013803937587299742 -0.008496683008805463
3380000000.0 0.00972284780783215 0.023422533435343857
3400000000.0 0.037562377328475456 0.002834953576809477
3420000000.0 0.021650327941851885 -0.04105282250640049
3440000000.0 -0.04592179355303194 0.00016183294927917915
3460000000.0 0.028235944556550818 0.031296004317983885
3480000000.0 0.03362802450201194 0.03249258025292275
3500000000.0 -0.03952861738668335 -0.052064121484268464
3520000000.0 -0.038935715821928917 0.08343116593644134
3540000000.0 -0.013189151837476544 0.11519057777579576
3560000000.0 0.13362216632094107 0.02317280660014345
3580000000.0 0.1366052143499551 -0.06013542938316324
3600000000.0 0.0605738604535217 -0.15383983840823376
3620000000.0 -0.10754657315692917 -0.13334797910070742
3640000000.0 0.00624943845295671 -0.1748978348107553
3660000000.0 0.17539764796013563 -0.021396824157481266
3680000000.0 -0.1586869753039619 0.07965595999130368
3700000000.0 0.13503337781363992 -0.11418630606937563
3720000000.0 -0.1676440432614836 0.06703631391263469
3740000000.0 -0.06560190285170196 -0.1710642047561219
3760000000.0 0.12140319513230426 0.13999227750518822
3780000000.0 -0.15469163000354752 0.09800142012720446
3800000000.0 -0.09486432385266061 -0.1473326548754741
3820000000.0 0.1403910754127189 0.08425022669568402
3840000000.0 0.1484214540362912 -9.978030999910627e-05
3860000000.0 -0.11884846885489014 0.06940891331788462
3880000000.0 0.11691390256318106 0.0762758902017903
3900000000.0 -0.1427720281720217 0.02970870762783147
3920000000.0 -0.15479567091355123 -0.0355038715800106
3940000000.0 0.07445976577022197 -0.1587775824842223
3960000000.0 -0.15018236586330003 -0.11300073585855398
3980000000.0 0.18516026380518402 -0.04278793712029184
4000000000.0 -0.1701908911558971 0.05720811284438773
