! Created with skrf (http://scikit-rf.org).
# Hz S RI R 50.0 
!freq ReS11 ImS11
400000000.0 -0.7997013830980793 0.32474254221138393
420000000.0 0.19307544859911385 0.843535866893884
440000000.0 0.8178284904141211 -0.18511955214643147
460000000.0 0.3364694499659308 -0.7136373037293788
480000000.0 0.6189106906911839 -0.37805145873207663
500000000.0 -0.4913333991465091 -0.278966318260097
520000000.0 -0.43904458091517545 -0.21528618919545878
540000000.0 0.0905386412410299 -0.4023972185008683
560000000.0 -0.33847346033709125 -0.14320595844040113
580000000.0 0.1691847343223814 -0.27124159496145245
600000000.0 0.0627058234768662 -0.32287143044169525
620000000.0 0.3096409479458772 -0.12254997166478518
640000000.0 -0.34674779410713813 0.04858088692303482
660000000.0 -0.2791580521035706 0.2643521134483822
680000000.0 0.12587059730357827 -0.38619705497413964
700000000.0 -0.40821490532571014 0.16512653783694586
720000000.0 0.12345092077465844 0.42553471461670905
740000000.0 -0.3298981733896979 0.3135963457792838
760000000.0 -0.22750474196673834 -0.37097391401196766
780000000.0 0.39313338525812447 -0.07177804591123521
800000000.0 0.22654070155994935 0.2806147766697068
820000000.0 0.04235921993337899 0.2923737543545912
840000000.0 0.0895015154740539 -0.22660217203091734
860000000.0 0.16688625881203656 0.09402460440175978
880000000.0 0.1244914442281528 -0.07922146800645062
900000000.0 -0.0651282269403249 -0.01958854167499613
920000000.0 0.015455457845106645 0.03209377788773517
940000000.0 0.01981007806257981 -0.032839752287066135
960000000.0 0.04141595223289894 0.025366220198105176
980000000.0 -0.006184001294884434 -0.05490817421027278
1000000000.0 0.061797399045929284 -0.013627578204695946
1020000000.0 0.06509200188901482 0.030194637252065497
1040000000.0 -0.07988403862165697 0.024963356804192035
1060000000.0 0.0842871684936419 0.08355482249408892
1080000000.0 0.1272363337751636 -0.06161299562741943
1100000000.0 -0.10905588931213986 -0.1244209991579588
1120000000.0 -0.18008343891052 -0.08515556793190437
1140000000.0 0.15909325461990012 -0.18463512934870285
1160000000.0 -0.09698536902755991 -0.2677619150766367
1180000000.0 -0.23530246695305349 0.22930995909430307
1200000000.0 -0.3569135749998649 0.048849958350313916
1220000000.0 -0.2673409957176942 -0.29004849068510175
1240000000.0 0.39755727973332355 0.1142555099436363
1260000000.0 -0.42642477367715126 0.10004197480122454
1280000000.0 0.4381396849083735 -0.059068496908337854
1300000000.0 -0.23464864715375372 -0.3787144987693715
1320000000.0 -0.382317370592933 0.2027642211615577
1340000000.0 -0.31934003632672775 -0.28017452306132223
1360000000.0 0.03876949224721854 -0.41888878960780385
1380000000.0 0.09987448458137056 -0.4085416206481096
1400000000.0 -0.3607724303467642 -0.18813938444837294
1420000000.0 -0.3927266385064499 -0.01915436476461388
1440000000.0 -0.055680085018571225 0.36830241844997447
1460000000.0 0.10155062000659155 0.3304617981717411
1480000000.0 0.32188114097266923 -0.04104211834021313
1500000000.0 -0.020859842384439473 -0.2973232213498597
1520000000.0 -0.2610403631725042 -0.07511727579276313
1540000000.0 0.09020309696481485 -0.23200001903972825
1560000000.0 0.07009989992857558 -0.2034632145477785
1580000000.0 -0.07628829272115528 -0.16698524485798377
1600000000.0 0.14944130234951444 0.02218778513523214
1620000000.0 -0.08443583809902015 0.07715290747338324
1640000000.0 0.028667631385810112 0.0803962256199022
1660000000.0 -0.02719326698689549 -0.05405148113016572
1680000000.0 0.027693351484397805 0.013813605475718846
1700000000.0 -0.010837900553051762 0.004042219892365343
1720000000.0 0.021346330297351924 0.006769315176533867
1740000000.0 -0.00759351246332081 -0.04281856143233272
1760000000.0 0.03338278684000378 0.052463071501072746
1780000000.0 -0.0012879828036385244 -0.0838501412379406
1800000000.0 0.08127250750345026 0.08293301766216395
1820000000.0 -0.09731230093354591 -0.09949162964868352
1840000000.0 -0.16083389353741445 0.03716725652013647
1860000000.0 0.05701930778090109 0.1823916480842531
1880000000.0 -0.005707677695929139 0.22029957973879463
1900000000.0 -0.11865793699936722 0.2287344043502148
1920000000.0 0.259255259159146 0.14326111073578016
1940000000.0 0.2941330329380224 -0.15992809559527574
1960000000.0 -0.3328958555097092 -0.16558286673659972
1980000000.0 0.1241066193169767 0.3788605868599875
2000000000.0 0.40384043423687005 -0.1265933158395862
2020000000.0 -0.3338086993971935 -0.2911956937018481
2040000000.0 -0.11132304170440213 0.4386334272441041
2060000000.0 0.4455137702176328 -0.08686423837208433
2080000000.0 -0.27986507827570045 -0.35159699265949723
2100000000.0 -0.3092828888718354 0.3079183284175775
2120000000.0 -0.09994254332009003 0.40520126395015643
2140000000.0 -0.39688885298496857 -0.017968291077409024
2160000000.0 -0.37653273005716187 -0.028437659305535577
2180000000.0 -0.25049151989850454 -0.2637634059568984
2200000000.0 -0.06801982075627853 -0.34329571090271127
2220000000.0 0.18205707301955 -0.29657997533109076
2240000000.0 -0.06418454020015539 -0.3435715350744415
2260000000.0 -0.31287723906649545 -0.17394566405592896
2280000000.0 -0.11039478822624559 0.3494995101272475
2300000000.0 0.3812604960219441 -0.017247742276341703
2320000000.0 -0.320192248580793 -0.24673040572155147
2340000000.0 -0.09624403139283255 0.42192636807872225
2360000000.0 0.21065073597939457 -0.41686021586737987
2380000000.0 -0.46110584412480304 0.2210491924938067
2400000000.0 0.509698631403637 -0.2309726428800642
2420000000.0 -0.4383214693812379 0.423614588542661
2440000000.0 0.07855288137787475 -0.6520806427926282
2460000000.0 0.3468354729578139 0.602921875449129
2480000000.0 -0.643726303963266 -0.3340336803369869
2500000000.0 0.6793281966349622 0.3037695829412363
2520000000.0 -0.6484540594083192 -0.3846010033539441
2540000000.0 0.41537654376358757 0.6308083165621143
2560000000.0 0.12553844716671242 -0.7382808229944579
2580000000.0 -0.645491221859649 0.34926403183495763
2600000000.0 0.6260799772213782 0.3342665610784891
2620000000.0 -0.0779323435448683 -0.674748091272409
2640000000.0 -0.3499466602415098 -0.5377941017289939
2660000000.0 -0.2996790189078165 0.5162796637206898
2680000000.0 0.5490085004325109 0.06691209520633457
2700000000.0 -0.18433045271901388 -0.4756011749610691
2720000000.0 -0.14108582397037578 0.44408726290421
2740000000.0 0.35272372852042666 -0.2378046152966242
2760000000.0 -0.3326043868957169 0.19961974455447498
2780000000.0 0.14776146362887999 -0.32420993424511324
2800000000.0 0.09700858670031455 0.3139504431362019
2820000000.0 -0.3050226223690301 -0.03959830480105403
2840000000.0 0.20920106942688663 -0.20453856636786022
2860000000.0 -0.0591192305456228 0.2770005294436251
2880000000.0 0.007148769677991697 -0.27915245482938034
2900000000.0 -0.15444097986766334 0.23116560361269178
2920000000.0 0.21949179327840582 0.1798350699886069
2940000000.0 0.2192433448638281 -0.1923489580252358
2960000000.0 -0.02429868353752384 -0.2990906980670568
2980000000.0 -0.23572018533134326 -0.20009453966940755
3000000000.0 -0.24604667546830558 -0.1973430132600772
3020000000.0 -0.1502072619936943 -0.2804849491123316
3040000000.0 0.21199262685197418 -0.23227724178063752
3060000000.0 0.19593556465119458 0.242599798808894
3080000000.0 -0.30266372655566987 -0.023339519509262354
3100000000.0 0.2718667318493251 -0.1140745318605289
3120000000.0 -0.2133803235424065 0.18630673620146224
3140000000.0 0.13805299910364788 -0.23104259499359295
3160000000.0 -0.206625175897461 0.14418536319620168
3180000000.0 0.02709866029962182 0.23456271551018815
3200000000.0 0.031308320936021136 -0.21376673492870107
3220000000.0 -0.05496873286988792 0.18946144248762994
3240000000.0 -0.09460068359170773 -0.14688839949102764
3260000000.0 0.1377287915699931 -0.05992072869123524
3280000000.0 0.12212156275030184 0.006049334697457373
3300000000.0 0.00033391907962376945 -0.09309500155999327
3320000000.0 0.058572328514211985 -0.015462077784856955
3340000000.0 0.0074574610804463 -0.030583888077393092
3360000000.0 -0.012758091209670015 0.008760688011006651
3380000000.0 0.025662562847061855 0.001006127043759591
3400000000.0 0.021985369075888928 0.03047505383316169
3420000000.0 0.04545073999426159 -0.00953084977585406
3440000000.0 -0.04578406206188105 0.0021716263963011315
3460000000.0 -0.006501977135744789 0.041446451398674665
3480000000.0 0.047276952388429765 0.0016061635410079592
3500000000.0 -0.054907816564652094 -0.03663050522655708
3520000000.0 0.0072924579583875165 0.09276960641031512
3540000000.0 -0.018667667780248025 0.11450448316246224
3560000000.0 0.13611831639531524 0.009174995373097931
3580000000.0 0.13543749649792808 -0.06360051548327798
3600000000.0 0.05122508230202701 -0.15730317940941677
3620000000.0 -0.08189304854234195 -0.15085960865581496
3640000000.0 0.00017705977721221703 -0.17601387473881155
3660000000.0 0.17405215120722092 -0.037831054212459754
3680000000.0 -0.16608385880990112 0.06649958007304482
3700000000.0 0.1425881634030166 -0.10625700724792622
3720000000.0 -0.17266360295608277 0.053301110487066004
3740000000.0 -0.051591720126949916 -0.17576516909993753
3760000000.0 0.13351564946579111 0.12688353642426672
3780000000.0 -0.15787818461222655 0.09140019188738338
3800000000.0 -0.08600337930731744 -0.152383161475449
3820000000.0 0.08518700750659151 0.13948089411115994
3840000000.0 0.14548207654030107 0.02739538190534697
3860000000.0 -0.13823992661821155 -0.008805947997565422
3880000000.0 0.08429133986094041 0.11150274663680967
3900000000.0 -0.14283632853787737 -0.03324697650152728
3920000000.0 -0.14899548560761866 -0.05695583893442151
3940000000.0 0.05905585063667679 -0.16558645237803538
3960000000.0 -0.1513352604971946 -0.11066243388741298
3980000000.0 0.1900888423388079 0.022903168358280716
4000000000.0 -0.17254339625800105 -0.05537509259674575
