!Created with skrf (http://scikit-rf.org).
# Hz S RI R 50.0 
!freq ReS11 ImS11
400000000.0 0.6853318711224783 0.5311360824967167
420000000.0 0.8431062270048922 0.024227198092795863
440000000.0 0.7976490775667163 -0.02729310662268739
460000000.0 0.7450703376203016 -0.06899004621822567
480000000.0 -0.24290791951083401 -0.6432200227543203
500000000.0 0.08633976596237602 0.5939509203633544
520000000.0 0.5026047982575673 -0.05760704781984287
540000000.0 -0.40680990900031244 -0.15620663274533145
560000000.0 0.19455162609760204 0.3449586055324177
580000000.0 -0.15479295236956048 0.328764258946985
600000000.0 -0.05653720754742469 -0.3494615552139334
620000000.0 -0.35244182151599573 0.014178960161981112
640000000.0 -0.1219456545594664 -0.38281298557635945
660000000.0 -0.3798944324493997 0.14576608373578914
680000000.0 -0.04995350943974206 -0.4421139718554456
700000000.0 0.04023081683118578 0.4578361430601793
720000000.0 -0.30377656884416493 -0.34994668127978673
740000000.0 -0.3675664502184805 0.2271496857796217
760000000.0 -0.4102481475905026 0.021560406764433167
780000000.0 -0.35563490960470584 0.14228980568368121
800000000.0 0.28945271202241035 0.1765043172935167
820000000.0 0.18738506377951666 -0.2081186932062197
840000000.0 0.0468058254863226 0.1975281403233102
860000000.0 -0.1151968085333022 -0.11818482684390988
880000000.0 -0.10005215025989879 0.09704085333953222
900000000.0 0.024287934832177026 0.09288457444986527
920000000.0 -0.052763848370712095 0.014417267417135044
940000000.0 0.0244041920564422 -0.0263567151341521
960000000.0 -0.032338859398151 -0.0056852945736115155
980000000.0 0.018226054256683017 0.05426264042359279
1000000000.0 0.07592108705759988 0.056817286230930526
1020000000.0 0.11932133329287431 0.00755480537358063
1040000000.0 -0.06862525313581898 0.11376189148531805
1060000000.0 0.0253574587598115 0.15663978725495237
1080000000.0 -0.035720782263865505 -0.18368794284310963
1100000000.0 0.1494973556572131 -0.1571706035832229
1120000000.0 0.2396169843500921 -0.03326638937331155
1140000000.0 -0.16443579820197693 0.20252394652035446
1160000000.0 -0.12536138726209536 0.25756237578105695
1180000000.0 -0.3101611655092171 0.04472278164928248
1200000000.0 0.32873483944803755 -0.09445464775186016
1220000000.0 -0.3093499416419266 0.2060654823761628
1240000000.0 0.345467635614785 -0.18026958343734228
1260000000.0 -0.21263585365992332 -0.3387655122208681
1280000000.0 -0.4135071977723778 0.05415463576503378
1300000000.0 -0.05917004419241635 0.42440250829233395
1320000000.0 0.19966317752627893 0.3881985820512531
1340000000.0 0.3730660179182849 0.24482406951884791
1360000000.0 0.3883805476726994 -0.23074452853595143
1380000000.0 -0.38546969725785524 -0.21606455373476066
1400000000.0 -0.1560119579567393 0.39806774276825674
1420000000.0 0.3927929548635989 -0.08607964112187129
1440000000.0 0.1405333044260086 -0.3405713036834625
1460000000.0 0.1274852776782622 -0.31188073950337963
1480000000.0 -0.17623411847282172 -0.25610194570053246
1500000000.0 -0.2800089826405739 0.034868885218787955
1520000000.0 -0.18732408085406022 -0.1716955179514221
1540000000.0 0.12914032039704737 0.1901163875692891
1560000000.0 -0.19671176568396828 0.05368964217222619
1580000000.0 -0.09518089858360204 0.153262197119727
1600000000.0 0.047292260503585495 -0.1362131393309387
1620000000.0 -0.1044460916547184 0.02153656208909634
1640000000.0 -0.06004206427019816 0.04985512947577897
1660000000.0 0.010086285037231371 0.05688312343473908
1680000000.0 0.03094744573036866 0.0034884062120938714
1700000000.0 0.00045241895324073434 0.008183018984928226
1720000000.0 -0.00016379259180031414 -0.010607937393036438
1740000000.0 0.013834333441997741 0.0216539865899761
1760000000.0 0.031400301260436865 -0.02300226639000773
1780000000.0 -0.053422598702493454 -0.012128549780487722
1800000000.0 0.0823867164962111 0.015352216403899447
1820000000.0 -0.1109789812249417 0.01399285236024434
1840000000.0 -0.14917602905668892 0.028015134154171603
1860000000.0 0.029582425948391604 -0.19130920465628193
1880000000.0 -0.21138876974145335 0.1153668172892329
1900000000.0 -0.039847044829798624 -0.2890582445953421
1920000000.0 0.2756176643393919 -0.186906737431913
1940000000.0 -0.08451245323696824 0.3461127169900118
1960000000.0 0.3662221534737951 -0.08417022073141475
1980000000.0 -0.05408324170876365 -0.39719462140822126
2000000000.0 -0.39389907058727885 0.13413160040228686
2020000000.0 -0.19876710712633228 0.37390010358855713
2040000000.0 -0.08685492213313156 0.42294123516140797
2060000000.0 0.15241265796107334 0.40785545168313253
2080000000.0 0.4042279408515916 0.16386272532182533
2100000000.0 0.32006477871655586 -0.2899921110336
2120000000.0 -0.019052339875570024 -0.4199968467568455
2140000000.0 -0.18829075020193692 -0.358095910865572
2160000000.0 0.3698152168717593 -0.12483614139172404
2180000000.0 0.13549962627378184 -0.35008314909539523
2200000000.0 -0.10444869843097492 -0.3444611828571855
2220000000.0 -0.2631846872800615 -0.22907953557741828
2240000000.0 -0.3346862448359668 -0.06415711023727652
2260000000.0 -0.29662615930356484 0.16604890520880491
2280000000.0 -0.07913795557936587 0.33466222990856737
2300000000.0 0.26093821042252174 0.23982042561411565
2320000000.0 0.2593783372150456 -0.2803429907336597
2340000000.0 -0.37671150070253223 -0.1691913262374949
2360000000.0 0.018434897825901353 0.45334764777659553
2380000000.0 -0.0003470481986725427 -0.5080984315961896
2400000000.0 0.312054297948129 0.46913980915061976
2420000000.0 -0.6001955920622289 -0.1394484493622054
2440000000.0 0.5913813670215522 -0.3007710027790218
2460000000.0 -0.36736965085529727 0.600691574400906
2480000000.0 0.06631099314826733 -0.7329993566479104
2500000000.0 -0.18300312266281413 0.7345781085312288
2520000000.0 0.37762048487757277 -0.6680272365073467
2540000000.0 -0.6137993854226196 0.46268882591821764
2560000000.0 0.7526876149868452 0.12244020816132424
2580000000.0 -0.2653494915562369 -0.6983721996980846
2600000000.0 -0.45947547660983035 0.55765803906525
2620000000.0 0.6915126285307468 0.008984595115437671
2640000000.0 0.5084973681088529 -0.41166021074962994
2660000000.0 -0.608037152841343 -0.05849706802975535
2680000000.0 0.49991449262682247 0.26001422751228437
2700000000.0 -0.2978883483261916 -0.4203312717425688
2720000000.0 0.2859712236169439 0.3690684141780013
2740000000.0 -0.20322873958690085 -0.3633791620153432
2760000000.0 -0.003109291943822834 0.37515438915947835
2780000000.0 -0.00809315186882232 -0.3414462316048912
2800000000.0 -0.036703178713111496 0.3140796887292649
2820000000.0 0.17157042890900365 -0.24696083543187167
2840000000.0 -0.04915180011699398 0.2950724831697076
2860000000.0 -0.2837498257402409 -0.09559223401031801
2880000000.0 0.05757466002625189 -0.2946863003681672
2900000000.0 0.052051936515605315 0.29529430895419595
2920000000.0 0.20218222529905108 -0.22522523879225564
2940000000.0 -0.27218262836183815 -0.1471158841343328
2960000000.0 -0.26622557169858785 0.1606289556572784
2980000000.0 -0.29896642249458744 0.08408171383578757
3000000000.0 0.0027725356672779356 -0.31213436220365487
3020000000.0 0.31970189865495596 0.022489030425664205
3040000000.0 0.18955437513852258 0.25997197369493796
3060000000.0 -0.22760839484935935 0.219293080480796
3080000000.0 0.049544939223327006 -0.3007450468985246
3100000000.0 -0.10495522503133234 0.27436794769976264
3120000000.0 0.14621881505346757 -0.24477157183622106
3140000000.0 -0.011589333127045678 0.2726755445225047
3160000000.0 0.02252635364408785 -0.2560336468432166
3180000000.0 -0.23475386650472346 -0.05720199121389088
3200000000.0 0.1731165659745082 -0.13913168934148712
3220000000.0 0.19289087893349682 0.04847905247715138
3240000000.0 0.11008212454550685 0.12905276879480543
3260000000.0 0.08091730025674286 0.10788820527394302
3280000000.0 -0.09835710185253595 0.0036476738314222463
3300000000.0 -0.01658833362353982 -0.0672203275813582
3320000000.0 0.02195267305708929 0.028505705552281112
3340000000.0 -0.0035272932907957784 0.013433226671349814
3360000000.0 -0.00040664020204601967 -0.0035928062627425985
3380000000.0 0.01070021359492678 0.008138276480455323
3400000000.0 0.0026623316085635142 -0.019806822312229373
3420000000.0 -0.03131677614449978 -0.012190489997466039
3440000000.0 -0.04354735953023148 -0.019222033897546065
3460000000.0 -0.05532319159890091 -0.028244607048897315
3480000000.0 0.07558326086584154 0.017992848465541944
3500000000.0 -0.05612273146257787 0.07838081458549571
3520000000.0 0.054630880084234106 0.09407571518440785
3540000000.0 -0.11728858717514647 -0.001641232453679353
3560000000.0 0.11615841083317692 -0.042221772704153775
3580000000.0 -0.04015106266007035 -0.12702361566712428
3600000000.0 -0.012333938591331757 0.14508845902006745
3620000000.0 0.06532347013804496 -0.14837449059085367
3640000000.0 0.10654057834767812 -0.14428301957850412
3660000000.0 0.17699676316048554 -0.0681301885820364
3680000000.0 0.13214061668277596 -0.14542908232569118
3700000000.0 -0.15064864765329292 -0.1253332337783418
3720000000.0 -0.16582789885848903 -0.09595287816783943
3740000000.0 0.023906570643878015 -0.17733417212080105
3760000000.0 -0.16871421801796507 -0.025871364988722362
3780000000.0 -0.03882788047124702 0.16078103044286648
3800000000.0 0.14587331306544982 -0.06529214605376495
3820000000.0 -0.07802501763130981 -0.13420627277680447
3840000000.0 -0.0681550453119084 -0.13228240111157363
3860000000.0 -0.14594707881140187 -0.018467837038819934
3880000000.0 -0.14252426277303681 0.012536308552481557
3900000000.0 0.0971720461920992 -0.10188253746055918
3920000000.0 0.14890274218423 -0.004997936812234397
3940000000.0 -0.1425773619124681 0.07481510279707536
3960000000.0 -0.09885201160501751 0.13988526917401878
3980000000.0 0.17312181147209282 -0.010945315472270697
4000000000.0 -0.15864033753262366 -0.0589278134730787
