!Created with skrf (http://scikit-rf.org).
# Hz S RI R 50.0 
!freq ReS11 ImS11
400000000.0 0.6877978702699876 0.5282649111080335
420000000.0 0.8429138533556687 -0.01208349576167223
440000000.0 0.7939237093086087 -0.07760283119240052
460000000.0 0.7453572519869834 -0.06554109016426261
480000000.0 -0.24114539503093013 -0.6441397327327468
500000000.0 0.10052242398065186 0.591906187360907
520000000.0 0.5034989416225495 -0.0532750840629252
540000000.0 -0.40691337129066074 -0.15648872145005732
560000000.0 0.18892276053404808 0.34813203521669317
580000000.0 -0.16781557957685245 0.3222072570885474
600000000.0 -0.06503242610606745 -0.3477527132830018
620000000.0 -0.35161934676709844 0.021431409443523945
640000000.0 -0.1598792635043508 -0.3684022019641826
660000000.0 -0.35997921496407004 0.1893840734158416
680000000.0 -0.09489943317177787 -0.4344460398225592
700000000.0 0.04583391694726809 0.45725884582967863
720000000.0 -0.325686881106775 -0.32985240728548265
740000000.0 -0.3668477510825145 0.22857633226304425
760000000.0 -0.41063673833875614 0.0230058328250812
780000000.0 -0.35977394600920354 0.13232780344842038
800000000.0 0.28177712764117413 0.18886828728637423
820000000.0 0.20710280481644386 -0.1886584894007192
840000000.0 0.004512887512819537 0.20279368494970676
860000000.0 -0.12275844178418267 0.11022809944494913
880000000.0 -0.12357668700701796 0.0638474764017508
900000000.0 0.016085343551481467 0.09456114360338007
920000000.0 -0.051034387165774464 0.018303006672264616
940000000.0 0.0033758326206197314 -0.03544468148158805
960000000.0 -0.025305387812142727 0.021222077798997072
980000000.0 0.018943092725660946 0.05448390239216995
1000000000.0 0.06587000616208084 0.06857174715683227
1020000000.0 0.11676093271345814 0.025173587605454444
1040000000.0 -0.08414869168342595 0.1024399028935183
1060000000.0 0.01805847970929891 0.1573577685629092
1080000000.0 -0.03075553862221783 -0.18398060016774034
1100000000.0 0.14634393730520684 -0.15924850872593385
1120000000.0 0.23974824590809207 -0.028457788828608863
1140000000.0 -0.16005155848874242 0.20559283843104184
1160000000.0 -0.11933623053782237 0.26023440626923916
1180000000.0 -0.31177950863604664 0.03389362495507047
1200000000.0 0.32714330893519056 -0.10112549665676897
1220000000.0 -0.3020398343665611 0.21736576185289871
1240000000.0 0.34271200866596035 -0.1860291509352507
1260000000.0 -0.22287964386594 -0.33230635870411923
1280000000.0 -0.4139709426471651 0.05060418280199875
1300000000.0 -0.05826857563100513 0.4244425238937045
1320000000.0 0.17523305838409245 0.39944042395315094
1340000000.0 0.3560260279874925 0.26823283546880783
1360000000.0 0.39612352896372544 -0.21693651301056177
1380000000.0 -0.384099839590687 -0.21833477134049684
1400000000.0 -0.16152652304008713 0.3959824245900433
1420000000.0 0.3889107616983282 -0.10202293506872195
1440000000.0 0.1406433041879743 -0.34042279879410414
1460000000.0 0.12059832347858072 -0.3143986076590531
1480000000.0 -0.19500791150977786 -0.24163879494992266
1500000000.0 -0.2786314285509819 0.0423317404395587
1520000000.0 -0.17890036175803953 -0.18073529817451467
1540000000.0 0.14795740349569428 0.1755065398943458
1560000000.0 -0.197258615839558 0.05134056484884599
1580000000.0 -0.08875725703624353 0.15693886633044843
1600000000.0 0.026434264932509815 -0.1414607498534476
1620000000.0 -0.10222754025097526 0.030363865649510807
1640000000.0 -0.0457484309913253 0.06358329951473284
1660000000.0 0.03471740293584175 0.04672798633768761
1680000000.0 0.02220353013248371 -0.022315846999493426
1700000000.0 -0.006335851235401823 0.0060273917952102084
1720000000.0 0.008296103654703051 0.0060449414524128406
1740000000.0 0.014084302308190102 0.02125224031821785
1760000000.0 0.03407484705537181 -0.018448419170117455
1780000000.0 -0.05279630521799659 -0.013916464987535408
1800000000.0 0.08345999541684941 0.008666240533467769
1820000000.0 -0.10856415057805047 0.027444091028099585
1840000000.0 -0.14703192025635492 0.038430795386363334
1860000000.0 0.015545640588670213 -0.19302230544121066
1880000000.0 -0.2076842192787947 0.1216726405753825
1900000000.0 -0.042766257056062615 -0.28850806420057606
1920000000.0 0.2786660157517084 -0.18205228095605303
1940000000.0 -0.09734597418229174 0.3425222317127028
1960000000.0 0.37250031067388023 -0.04932971254015975
1980000000.0 -0.0178311227306008 -0.4005925266841857
2000000000.0 -0.4049398014661614 0.09625417264025102
2020000000.0 -0.21617084723903973 0.3641916716191978
2040000000.0 -0.07630438453485114 0.4246632696810988
2060000000.0 0.1806252833213664 0.39543094073575863
2080000000.0 0.40942103862038776 0.14880429412841797
2100000000.0 0.317874358126074 -0.2915162618005357
2120000000.0 -0.02926622537742581 -0.41895570170601343
2140000000.0 -0.21024024025529625 -0.3446951133936442
2160000000.0 0.36104759137464576 -0.1469966544889759
2180000000.0 0.11418184455784428 -0.35742949084249115
2200000000.0 -0.1288210720751151 -0.33605004699613633
2220000000.0 -0.2985680585847041 -0.18004949289184272
2240000000.0 -0.3390703354351379 -0.036785807156289305
2260000000.0 -0.27645819628860707 0.19830367448175998
2280000000.0 -0.032376784387858806 0.3430210001256287
2300000000.0 0.2843208088491815 0.21285571260188385
2320000000.0 0.27176607126501046 -0.2688012518406933
2340000000.0 -0.35329450928179734 -0.21404598886812065
2360000000.0 -0.03887146064819403 0.45233223622962937
2380000000.0 0.06031515628096948 -0.5046773834140188
2400000000.0 0.2220307756884499 0.517657904472958
2420000000.0 -0.5655540693211522 -0.24374286429740055
2440000000.0 0.620647061892904 -0.232924278191099
2460000000.0 -0.440581282323792 0.5483544491909503
2480000000.0 0.15676543365346624 -0.7185316519325897
2500000000.0 -0.1664577667207907 0.7375543647627778
2520000000.0 0.3391397882262617 -0.6876523965259188
2540000000.0 -0.6219415799770935 0.450944599980023
2560000000.0 0.7557175881501907 0.10223384970543238
2580000000.0 -0.24054832380839758 -0.707880335760423
2600000000.0 -0.4092871533374591 0.595764027336888
2620000000.0 0.6837744667428676 -0.11042284620234151
2640000000.0 0.49933595239981016 -0.4245646402261186
2660000000.0 -0.6112277158329641 -0.03485748505139008
2680000000.0 0.5073136189591727 0.24894093561912894
2700000000.0 -0.28858234572566965 -0.42904905684789396
2720000000.0 0.27084634424732307 0.38247133754460977
2740000000.0 -0.20623829623145887 -0.3636321811954281
2760000000.0 -0.019349951097014397 0.37602375080851425
2780000000.0 0.01890686148210749 -0.34186818712708555
2800000000.0 -0.06392837544541183 0.3102732787311638
2820000000.0 0.18443144175296758 -0.23799421375868154
2840000000.0 -0.07357852492679054 0.28996120429201644
2860000000.0 -0.2791246248900232 -0.10812508687980579
2880000000.0 0.0730605150496449 -0.2909298887260612
2900000000.0 0.04577696296513571 0.2961853917011683
2920000000.0 0.1937256883035543 -0.2322276819252274
2940000000.0 -0.26741838751508684 -0.15610329509569024
2960000000.0 -0.254728240381707 0.1785098684813969
2980000000.0 -0.27139795825003477 0.151684449507163
3000000000.0 -0.03623957274044686 -0.3096410581942827
3020000000.0 0.3198184954003019 -0.018220804166986238
3040000000.0 0.23749501888937669 0.21666968365128958
3060000000.0 -0.2193203529630182 0.22728291243803195
3080000000.0 0.036059750574355315 -0.30257114853788836
3100000000.0 -0.07895257385853083 0.28302975433123595
3120000000.0 0.1408168207924233 -0.2478623104615756
3140000000.0 0.007146762134037613 0.27263098707007305
3160000000.0 -0.018336597866400774 -0.25618767178526775
3180000000.0 -0.24166659930494971 2.9406317073331047e-05
3200000000.0 0.12862188178310835 -0.18103138310829547
3220000000.0 0.19878006999149328 -0.007297670293845799
3240000000.0 0.1454037999274726 0.08737609079870737
3260000000.0 0.11066903671147148 0.07768129876829859
3280000000.0 -0.0990293035506559 0.004773252405624069
3300000000.0 -0.06130147516273627 -0.03465461076981051
3320000000.0 0.03660961060554122 -0.006317517083907297
3340000000.0 0.009985572931475827 0.01098814134024152
3360000000.0 -0.00341493228911849 4.773667136277831e-05
3380000000.0 6.481617115235752e-05 0.012486787791016153
3400000000.0 0.01115356217993599 -0.016033173019959056
3420000000.0 -0.032986960916624376 -0.0021920521318219703
3440000000.0 -0.046665149865531004 0.0012885366418496592
3460000000.0 -0.06013999655579385 -0.011063876244755275
3480000000.0 0.06786333763103587 0.035206934969906005
3500000000.0 -0.057132868383999905 0.07638741922475652
3520000000.0 0.07948515945122224 0.07358614688809259
3540000000.0 -0.11178899543528299 0.033703056442818013
3560000000.0 0.07739943091027052 -0.09650555107769077
3580000000.0 -0.09868112401206282 -0.08926036031225253
3600000000.0 0.05456169036382514 0.1343383894257897
3620000000.0 0.005663867507740763 -0.161333876323207
3640000000.0 0.03300518046735778 -0.1764340951214127
3660000000.0 0.14073371664601816 -0.12678928775086448
3680000000.0 0.0786103438734599 -0.18061564586179096
3700000000.0 -0.17507691535268327 -0.08955132754094991
3720000000.0 -0.18400199764883557 -0.05736581747356406
3740000000.0 -0.008922057402969303 -0.1800291206696854
3760000000.0 -0.1716047962323019 0.006156397762808885
3780000000.0 -0.012020457289640393 0.16607415177185722
3800000000.0 0.14198137744518838 -0.07571415195635818
3820000000.0 -0.06883159603729565 -0.14068780551022278
3840000000.0 -0.06033809772709952 -0.13678907798909115
3860000000.0 -0.1447724314165758 -0.030182286562673036
3880000000.0 -0.14291877973781172 -0.01790702869958975
3900000000.0 0.10865199753440526 -0.09162055071179048
3920000000.0 0.15015220628017886 0.005235510576635331
3940000000.0 -0.15520840798552551 0.04719865840805459
3960000000.0 -0.14382344561596452 0.09371072229912172
3980000000.0 0.1425515814584191 0.0997545728178903
4000000000.0 -0.037339108809108845 -0.16514006969021025
