!Created with skrf (http://scikit-rf.org).
# Hz S RI R 50.0 
!freq ReS11 ImS11
400000000.0 0.6867257130177827 0.5299405706976678
420000000.0 0.8430897190648224 -0.001495601952037883
440000000.0 0.7953790232718339 -0.0644796288884843
460000000.0 0.7468274711376014 -0.0484361576838663
480000000.0 -0.24114494383969495 -0.6440806771730213
500000000.0 0.0814418336388841 0.5947643070943454
520000000.0 0.5023403456073958 -0.059634679403011225
540000000.0 -0.4029360068316487 -0.1657517407762698
560000000.0 0.1913009732128652 0.346958346959324
580000000.0 -0.16749653395139152 0.3227412788245831
600000000.0 -0.04114431937636094 -0.35183973436121785
620000000.0 -0.350035353145011 0.041750673375540996
640000000.0 -0.17206647496941005 -0.3631621300911096
660000000.0 -0.36360743091782755 0.18190370958037544
680000000.0 -0.09419582791753309 -0.4341139336345636
700000000.0 0.03460969374089547 0.4582033800863536
720000000.0 -0.325914021694902 -0.32957330706546467
740000000.0 -0.3807085097626526 0.20556045664781647
760000000.0 -0.4105400484571242 0.016313057028184478
780000000.0 -0.35422622281387567 0.14594390667585544
800000000.0 0.2876951779589419 0.17965388665752288
820000000.0 0.20067935962558314 -0.19573227784500966
840000000.0 0.00977878922011958 0.20291427870507608
860000000.0 -0.10626602710119015 0.12642312429390531
880000000.0 -0.1110136365699052 0.08405416227049224
900000000.0 0.02615916383531395 0.09218825056348741
920000000.0 -0.054009536986168664 0.008086972353177008
940000000.0 0.030590615353429332 -0.018815756007794348
960000000.0 -0.029911057849732355 -0.013480574053805343
980000000.0 0.006964310692038265 0.056498072899939404
1000000000.0 0.07445559131129971 0.05824139553721919
1020000000.0 0.11925600105552475 0.007023886084219304
1040000000.0 -0.06972015429878207 0.11318235123933962
1060000000.0 0.020271363906013626 0.15732402109144614
1080000000.0 -0.025320622827176648 -0.18528076730708834
1100000000.0 0.14602871553399893 -0.16015794181191026
1120000000.0 0.24053816684483734 -0.025215833820081364
1140000000.0 -0.1658617291236249 0.2013145047477746
1160000000.0 -0.12379164440271237 0.25842948422417417
1180000000.0 -0.31064333132517324 0.04207897535725814
1200000000.0 0.32886489043438694 -0.09391334662817326
1220000000.0 -0.3093841452570093 0.20616771583729615
1240000000.0 0.34428480555238494 -0.18284455889426304
1260000000.0 -0.20882572863594537 -0.3411505051887669
1280000000.0 -0.414960735285644 0.04262649855397594
1300000000.0 -0.05247018380992034 0.42537825516646255
1320000000.0 0.19970466601535963 0.3881165449584162
1340000000.0 0.3698989597028131 0.24963324840925705
1360000000.0 0.3901670072325276 -0.22751153815328365
1380000000.0 -0.3926346979574659 -0.20256744130186852
1400000000.0 -0.14353391978518557 0.40275078221017807
1420000000.0 0.38694616528890324 -0.10876424094090474
1440000000.0 0.14061187970630942 -0.34055918780798006
1460000000.0 0.12206007980434291 -0.31400937931317296
1480000000.0 -0.1839805071547733 -0.25050000715215814
1500000000.0 -0.2801579553024308 0.034233952654808116
1520000000.0 -0.18621335956609067 -0.1729377794843055
1540000000.0 0.13204724304147766 0.18806709858639548
1560000000.0 -0.19718078861895388 0.05226552401044814
1580000000.0 -0.10164853626740737 0.14915265069146572
1600000000.0 0.05431212568993195 -0.1335338314673462
1620000000.0 -0.106596481802819 -0.0015308309847925918
1640000000.0 -0.05843027227671409 0.0516703696574732
1660000000.0 0.014062552340111587 0.05602285585738394
1680000000.0 0.023107152479411714 0.02024134662052221
1700000000.0 0.007280891491906488 0.004086764496616984
1720000000.0 0.006638948749601061 -0.008313522050767162
1740000000.0 0.019830548776057017 0.016746531582147305
1760000000.0 0.035807873587737134 -0.015233413770740348
1780000000.0 -0.052146392955764634 -0.01724931198788913
1800000000.0 0.0816092187630265 0.019204222190344844
1820000000.0 -0.11135835917714022 0.010734305009874571
1840000000.0 -0.15075871619391476 0.016635647441391524
1860000000.0 0.030199712210259137 -0.19093155143014837
1880000000.0 -0.21236550801281756 0.11318492345068605
1900000000.0 -0.04381862509687584 -0.28829670257137063
1920000000.0 0.2715310288336692 -0.19254584934149965
1940000000.0 -0.07581103488907101 0.34797786050195934
1960000000.0 0.3635723935519857 -0.095032112252505
1980000000.0 -0.0613737269386783 -0.39619519121181873
2000000000.0 -0.39316767848522866 0.13645246670054745
2020000000.0 -0.19531553188487077 0.3758767157269766
2040000000.0 -0.06324151857429675 0.4271532152568939
2060000000.0 0.15468553243163763 0.4070098509063955
2080000000.0 0.4089181771246851 0.15195617514335938
2100000000.0 0.3211476314666085 -0.289172233317539
2120000000.0 -0.01547026437870194 -0.4203334737790291
2140000000.0 -0.17954701451971986 -0.3626580623516385
2160000000.0 0.3710282649265211 -0.12106984691864169
2180000000.0 0.13709957770298944 -0.3492638337154144
2200000000.0 -0.10177930382807696 -0.3451046347063392
2220000000.0 -0.2783230942949039 -0.20979756912051348
2240000000.0 -0.3363339855571491 -0.054958818885479356
2260000000.0 -0.2907925584268111 0.1759518476164092
2280000000.0 -0.05540189658727842 0.33961809774930285
2300000000.0 0.26091861966638735 0.23966678832235458
2320000000.0 0.25513803099489546 -0.28412233809575854
2340000000.0 -0.3741641929167891 -0.173975011092551
2360000000.0 0.017773833306261096 0.4533632274286325
2380000000.0 -0.011401563571472059 -0.5079309898744183
2400000000.0 0.3090089315080499 0.47116356719181635
2420000000.0 -0.5959271024056952 -0.15679801788843506
2440000000.0 0.5870980787963748 -0.30903276257966655
2460000000.0 -0.38690301341206607 0.5883792864360431
2480000000.0 0.09704604453205035 -0.7296858285607136
2500000000.0 -0.09923246350537149 0.7501525018864582
2520000000.0 0.32934580752616743 -0.6927784883193345
2540000000.0 -0.6234548234980307 0.44928199006466923
2560000000.0 0.7527471877889433 0.12183788621501063
2580000000.0 -0.2240978790561159 -0.7128047974641436
2600000000.0 -0.4264946856064949 0.5829385680443356
2620000000.0 0.6916907376630753 -0.01755154329526585
2640000000.0 0.5190592172789967 -0.3985773469390171
2660000000.0 -0.6067512219820445 -0.07071811628880546
2680000000.0 0.4721276636349725 0.307592674087394
2700000000.0 -0.2773426678233623 -0.4342641834613882
2720000000.0 0.28261478859871275 0.37195668252938335
2740000000.0 -0.2164114643563627 -0.3561081055789703
2760000000.0 -0.007479458265269731 0.3753859253660195
2780000000.0 0.00815110941779994 -0.3416529364542156
2800000000.0 -0.04807665971688619 0.31248086266057756
2820000000.0 0.17888649761547207 -0.24173810252980965
2840000000.0 -0.05942528369775975 0.29316384053371425
2860000000.0 -0.27729188037962377 -0.11387586386715458
2880000000.0 0.05484340222877315 -0.29536763073222655
2900000000.0 0.0508299977616901 0.29587588525821584
2920000000.0 0.20509831289706804 -0.22296013766755937
2940000000.0 -0.27079045557033965 -0.15048136238278323
2960000000.0 -0.2624154741685278 0.16677630417065695
2980000000.0 -0.29355721602073703 0.10006395262235566
3000000000.0 -0.004443281309201887 -0.3119435089462788
3020000000.0 0.320626615642666 0.003136073834468216
3040000000.0 0.19288171494946624 0.25793403391475156
3060000000.0 -0.24276943585278066 0.20273208981297597
3080000000.0 0.060079208266371024 -0.298943405988644
3100000000.0 -0.11186565010679396 0.27183701417151573
3120000000.0 0.1395018737885866 -0.24913016312760478
3140000000.0 -0.026772548979640872 0.271644156508742
3160000000.0 0.034453172688924845 -0.2546061041220881
3180000000.0 -0.22617556005933667 -0.08366045828094748
3200000000.0 0.17164115469535962 -0.140709654280359
3220000000.0 0.18546579191323448 0.06979195188786713
3240000000.0 0.10294432317851204 0.13447559777008558
3260000000.0 0.07975443967314666 0.10824590922316474
3280000000.0 -0.09765884623171024 0.010022971765691894
3300000000.0 -0.04639554082130218 -0.05129363733330903
3320000000.0 0.03567149531872722 -0.003661040829812241
3340000000.0 0.013497178138740174 0.0016977614806731357
3360000000.0 -0.0015428536047001993 0.0029377713640954956
3380000000.0 -0.012726192596905831 0.004364129386239539
3400000000.0 0.018931556745064432 -0.007007013000145509
3420000000.0 -0.022081384411351792 -0.02561444167434523
3440000000.0 -0.03829175974250133 -0.028566282327994453
3460000000.0 -0.034567744688996406 -0.05146033471128197
3480000000.0 0.07282345824010993 0.027342026854169102
3500000000.0 -0.07301044487958784 0.06287131708461947
3520000000.0 0.022111081155399056 0.1062476121574139
3540000000.0 -0.11660002825594257 -0.011782415341724547
3560000000.0 0.11766750827738078 -0.037418948529568105
3580000000.0 -0.030303715594261125 -0.12897290112635665
3600000000.0 -0.02447904221640242 0.14269096989495372
3620000000.0 0.07191230675559128 -0.14467141182041188
3640000000.0 0.10817264636890261 -0.14274626424764722
3660000000.0 0.17495287605380708 -0.07245276628545888
3680000000.0 0.12502338793156922 -0.15173235536751425
3700000000.0 -0.15052384266400617 -0.12554259408500762
3720000000.0 -0.1716338967762127 -0.0853243784303921
3740000000.0 0.010584487762387192 -0.17860442405554589
3760000000.0 -0.16944525867731441 -0.0198794676818623
3780000000.0 -0.03174293299546961 0.16212821589286702
3800000000.0 0.14436989572119302 -0.06830928507601508
3820000000.0 -0.07872642871148729 -0.134102513500195
3840000000.0 -0.07439931702345548 -0.12878792667733197
3860000000.0 -0.14675309835708522 0.009038673361752616
3880000000.0 -0.1422302690383906 0.01478884676861079
3900000000.0 0.0832950068145842 -0.11346356469869423
3920000000.0 0.14833626931014648 -0.014615510525475552
3940000000.0 -0.1480538612040275 0.06414493400513047
3960000000.0 -0.12726551958407345 0.1151347568547192
3980000000.0 0.17045376991181121 0.03262456739410786
4000000000.0 -0.12436210309431714 -0.11431724477415606
