!Created with skrf (http://scikit-rf.org).
# Hz S RI R 50.0 
!freq ReS11 ImS11
400000000.0 0.702506443455034 0.5112724950926688
420000000.0 0.8427289572322354 -0.028527632697073303
440000000.0 0.7962635591411844 -0.055547467240901
460000000.0 0.7469741215215783 -0.04495522347222553
480000000.0 -0.22205503429854961 -0.650886051384089
500000000.0 0.08149135452828629 0.5946772759423257
520000000.0 0.5027015051918022 -0.058898793976631676
540000000.0 -0.40247028417736885 -0.16710128298023158
560000000.0 0.19824117685322065 0.3429294258895387
580000000.0 -0.15730722969606759 0.3277345507595102
600000000.0 -0.05265934523988711 -0.3502509176259177
620000000.0 -0.3526755851397551 0.007401579137480441
640000000.0 -0.13408112235892136 -0.3787213927786184
660000000.0 -0.3833987282024822 0.13623947783392268
680000000.0 -0.04660761238810764 -0.4424421238255346
700000000.0 0.029513073235478988 0.45858841925123156
720000000.0 -0.2958470235486486 -0.35657832180772975
740000000.0 -0.3773580006959166 0.21165751923788462
760000000.0 -0.4098038754589015 0.028359834204279653
780000000.0 -0.3544903771265858 0.14538114967895774
800000000.0 0.29026239794490033 0.1753724536835955
820000000.0 0.19855637434784204 -0.1978926510621367
840000000.0 0.02432431381585683 0.20165610013904037
860000000.0 -0.1021182156769157 0.12997680399881098
880000000.0 -0.1105872435661778 0.08483546130369303
900000000.0 0.030354198086392708 0.09124713495027861
920000000.0 -0.05223934798688712 0.01624614292651826
940000000.0 0.03214547971872073 -0.016405009541369146
960000000.0 -0.032010645324581526 -0.007930465131432812
980000000.0 0.0021259620786327773 0.05687442917541928
1000000000.0 0.0716436895247465 0.061717806407626585
1020000000.0 0.11942621015924275 0.005529671321042134
1040000000.0 -0.06819157330942034 0.11393439029827285
1060000000.0 0.017912821503713906 0.1575900963293673
1080000000.0 -0.045107574032253135 -0.18143988089233035
1100000000.0 0.14685913216454413 -0.15931231872267257
1120000000.0 0.2398450630552241 -0.030221751768708355
1140000000.0 -0.16431038275623763 0.20252910576253366
1160000000.0 -0.13718646724932218 0.2512242412752599
1180000000.0 -0.3129539497645779 0.019689098850001863
1200000000.0 0.3307775147520846 -0.08765829742914522
1220000000.0 -0.3212112939544616 0.18729395336696653
1240000000.0 0.34457488441754947 -0.18274423268218565
1260000000.0 -0.22257959011582437 -0.33248504173753435
1280000000.0 -0.4131212057937733 0.05641363288598032
1300000000.0 -0.03816454551794116 0.42673002822289613
1320000000.0 0.19299895334893408 0.3914539209094483
1340000000.0 0.3681631771423413 0.25212533851495705
1360000000.0 0.3934327517371294 -0.2219705129400575
1380000000.0 -0.3918832191805342 -0.20420514028326783
1400000000.0 -0.1499191341709121 0.400670382850927
1420000000.0 0.38491698044724587 -0.11587351404580647
1440000000.0 0.12891399249623645 -0.34508768591501865
1460000000.0 0.11604138987476921 -0.3162881717349843
1480000000.0 -0.19776043340915775 -0.239798125081638
1500000000.0 -0.27817338174789175 0.046667807191862615
1520000000.0 -0.1934317741465463 -0.1649265005754206
1540000000.0 0.11330594611403526 0.20049736951610528
1560000000.0 -0.1921214485632312 0.06923216306598347
1580000000.0 -0.10475710482971769 0.1472069000562246
1600000000.0 0.06215597229968404 -0.13028939231394218
1620000000.0 -0.10685507338347937 -0.0016773016429979424
1640000000.0 -0.06378614265349718 0.045391502871310725
1660000000.0 0.007101100385626436 0.05760757765937395
1680000000.0 0.019065664098054366 0.024251821812988027
1700000000.0 0.006983459918456334 0.004824515278102551
1720000000.0 0.004183552409304495 -0.009821141340021194
1740000000.0 0.0011230634479362212 0.025635016488862947
1760000000.0 0.037646311569388524 -0.009762506434703427
1780000000.0 -0.05023881143629258 -0.02172967349103062
1800000000.0 0.07960154726445069 0.026173657718275435
1820000000.0 -0.11169561136138594 0.005290758005945807
1840000000.0 -0.14979894831943172 0.023973774314059438
1860000000.0 0.03645558098636057 -0.18990983523184649
1880000000.0 -0.20853881363118337 0.1196981648900605
1900000000.0 -0.04643191184471493 -0.2877262748463232
1920000000.0 0.27151757359255485 -0.19229843147062073
1940000000.0 -0.08018707005300361 0.34684451379808057
1960000000.0 0.3679816036656148 -0.0759633509935955
1980000000.0 -0.05573281495047106 -0.39699455189650185
2000000000.0 -0.3948447103123852 0.1314318961506891
2020000000.0 -0.16376194987255097 0.39070798614630997
2040000000.0 -0.0789387564140922 0.42470198315937674
2060000000.0 0.19964337104975002 0.3866991060389196
2080000000.0 0.42139275840300455 0.11225757767592795
2100000000.0 0.3159142727983773 -0.2946621674078298
2120000000.0 -1.1742234048844433e-05 -0.4205481233756831
2140000000.0 -0.18835328995544012 -0.35773586578729366
2160000000.0 0.371772066687411 -0.11825879561523846
2180000000.0 0.13271409001234397 -0.35112090034965027
2200000000.0 -0.11629991014119724 -0.3405658146561016
2220000000.0 -0.2712959408433014 -0.21881351233580573
2240000000.0 -0.3366987062445329 -0.05233034442063376
2260000000.0 -0.2828887833643125 0.18858936731174628
2280000000.0 -0.06089199123532363 0.3383698599559921
2300000000.0 0.26465345508345167 0.23539239462909572
2320000000.0 0.27229034444966616 -0.267077553753502
2340000000.0 -0.37443661627638924 -0.17336348844981941
2360000000.0 0.00010498842900639076 0.4535018540564442
2380000000.0 0.03210488211296716 -0.5066613082845608
2400000000.0 0.29871181111378486 0.4775754011191056
2420000000.0 -0.5932065167937254 -0.16554776625926457
2440000000.0 0.5995854741281395 -0.2838683215294499
2460000000.0 -0.40489267754049096 0.5760958220642917
2480000000.0 0.12156766476921078 -0.7260319540229975
2500000000.0 -0.12976486570551737 0.7455709303052079
2520000000.0 0.3420010800854566 -0.6867129516152299
2540000000.0 -0.6137429975483236 0.46291993383956553
2560000000.0 0.7508398017816462 0.1342924318610004
2580000000.0 -0.2025924915686154 -0.7196067130671715
2600000000.0 -0.4412112271311312 0.5723990420516216
2620000000.0 0.6922065321941633 -0.013036789306395664
2640000000.0 0.501634850547877 -0.42092855519605615
2660000000.0 -0.6090162730101184 -0.05345962743228903
2680000000.0 0.48600409428531866 0.2856746632691819
2700000000.0 -0.2622080408190695 -0.4441768447336588
2720000000.0 0.25964348064213244 0.3887180384504908
2740000000.0 -0.22291422692534477 -0.3526221357617294
2760000000.0 -0.007567982418845522 0.37573505864480766
2780000000.0 0.005448588902345029 -0.34192126684591634
2800000000.0 -0.04725055521922388 0.3128779259199299
2820000000.0 0.17037992489114642 -0.2478261856382022
2840000000.0 -0.04822925009259941 0.2951870443064832
2860000000.0 -0.2756660018036215 -0.11774617514049883
2880000000.0 0.05290061347033673 -0.29572588446614595
2900000000.0 0.05007252554037709 0.2959749273281031
2920000000.0 0.2046112556589535 -0.2236038978298555
2940000000.0 -0.2697173583676918 -0.1527046474637934
2960000000.0 -0.25793102779394905 0.17411651111754023
2980000000.0 -0.2738492219748288 0.14696355043469597
3000000000.0 -0.007296615547812651 -0.3123130379374532
3020000000.0 0.3206640872516735 0.013338579749264697
3040000000.0 0.19450760516965643 0.2567051863498103
3060000000.0 -0.24897750972850785 0.19500008668521274
3080000000.0 0.06876434399564252 -0.29709706957148474
3100000000.0 -0.11968046891594551 0.2684152577046559
3120000000.0 0.14146836722374737 -0.24809899720237183
3140000000.0 -0.027052765937520425 0.2717513952057938
3160000000.0 0.029157852050449372 -0.2552868780122671
3180000000.0 -0.23467259966717624 -0.05689175092859449
3200000000.0 0.16960565373389822 -0.1430963738488108
3220000000.0 0.19238002831067474 0.049748490524696286
3240000000.0 0.11778618486425016 0.12135103340772485
3260000000.0 0.0871201700798739 0.10268038806263746
3280000000.0 -0.09616607982789982 -0.021206565893846677
3300000000.0 -0.05337190505797357 -0.04429414405304963
3320000000.0 0.03603577736953406 0.0016685083505118131
3340000000.0 -0.0012812110317759176 0.013651701526113709
3360000000.0 0.001207965150533807 0.0034499600007977444
3380000000.0 0.002188832033734165 -0.013125743931732733
3400000000.0 0.015123052336993478 -0.013847738984719136
3420000000.0 -0.03086721029933656 -0.01417409547009089
3440000000.0 -0.04715445020202076 -0.007261392990175169
3460000000.0 -0.05463644977838366 -0.029256053024791475
3480000000.0 0.0741989322954429 0.022927609773536316
3500000000.0 -0.06643311221738077 0.06986512995864641
3520000000.0 0.026356221816571684 0.10539378374652753
3540000000.0 -0.11598038661875885 -0.017827878191308013
3560000000.0 0.11847603204335956 -0.03473048999354095
3580000000.0 -0.0659050498290533 -0.11601547379358985
3600000000.0 0.019086748998084085 0.14449811247191424
3620000000.0 0.0498497324413358 -0.15389155619121017
3640000000.0 0.08991078958341948 -0.15545811425539638
3660000000.0 0.17618428313921367 -0.06937895575137024
3680000000.0 0.13354032099476318 -0.1443443820277721
3700000000.0 -0.14984132682198395 -0.12650544254154417
3720000000.0 -0.1710025982033055 -0.08797198174674405
3740000000.0 0.02121491429327007 -0.17794259017677289
3760000000.0 -0.1704735928575606 -0.01191195625384795
3780000000.0 -0.03820517087458028 0.1612052632239464
3800000000.0 0.14697623727017312 -0.06282673988815235
3820000000.0 -0.06387213657483991 -0.14179434552091955
3840000000.0 -0.05175543760883549 -0.1395275669762772
3860000000.0 -0.1436129268421393 -0.032894263297075496
3880000000.0 -0.14307975981714782 -0.0028130415758987554
3900000000.0 0.10738426801046749 -0.09152592555172383
3920000000.0 0.14903521678629086 0.006016942563463201
3940000000.0 -0.15338570600511367 0.04951103469786635
3960000000.0 -0.13809715981156634 0.10130492617357363
3980000000.0 0.16209030701167418 0.0612497496441233
4000000000.0 -0.11429412622703619 -0.12411736312554496
