!Created with skrf (http://scikit-rf.org).
# Hz S RI R 50.0 
!freq ReS11 ImS11
400000000.0 0.6981959969323172 0.5155293265727754
420000000.0 0.8423871690007252 -0.030061357861091213
440000000.0 0.795445818828085 -0.060883410377511715
460000000.0 0.7462371598330583 -0.05311476972968882
480000000.0 -0.2391692469636615 -0.644705096321748
500000000.0 0.1052819225155325 0.5910261368626945
520000000.0 0.5034066884813702 -0.05237682855463465
540000000.0 -0.40369219414833185 -0.16430645820631
560000000.0 0.18920052442683846 0.34801736411527073
580000000.0 -0.17395592832377357 0.31895275032733056
600000000.0 -0.06207850122954541 -0.34829424796039427
620000000.0 -0.3516573540710611 0.019854736795715675
640000000.0 -0.14390756824960804 -0.37496406839402063
660000000.0 -0.3587662402596749 0.19143456828687164
680000000.0 -0.10554412512848843 -0.43194956702166465
700000000.0 0.05074612881225858 0.45646319156398535
720000000.0 -0.33789604955682745 -0.3173234259500284
740000000.0 -0.3758459469883498 0.21530126819251938
760000000.0 -0.40992797731977937 0.03319531436536387
780000000.0 -0.3542158906649449 0.14666178687772333
800000000.0 0.2844510175650658 0.18438196677207855
820000000.0 0.20997518891754072 -0.18556299898925546
840000000.0 0.011818824187580077 0.20280062727441853
860000000.0 -0.10208406384629273 0.12977481178261313
880000000.0 -0.11353735520267613 0.08048310360834632
900000000.0 0.03167098076617128 0.09085702951856621
920000000.0 -0.05413745502396352 0.006586550752183327
940000000.0 0.007834498628076387 -0.03496370379327263
960000000.0 -0.0232289362453653 0.0230577638199783
980000000.0 0.025426249352817412 0.05148828415581502
1000000000.0 0.07132238288913116 0.06306286210518232
1020000000.0 0.11715034051821888 0.02427426943555046
1040000000.0 -0.07925177086559414 0.10642048205546235
1060000000.0 0.02058205477432134 0.15704399953549958
1080000000.0 -0.03522441292687935 -0.18325989637186557
1100000000.0 0.13799533677901835 -0.16678120610105954
1120000000.0 0.23511254302909998 -0.05516416425150435
1140000000.0 -0.14331214940693174 0.21762796577408128
1160000000.0 -0.119469625657098 0.25996431736529835
1180000000.0 -0.3095581131999231 0.04927242514677217
1200000000.0 0.32378361447253506 -0.11105918844163609
1220000000.0 -0.2975017988706297 0.22346017931752643
1240000000.0 0.3342832664759292 -0.20075538315644315
1260000000.0 -0.23693213407982636 -0.3226586636088276
1280000000.0 -0.41173682424321295 0.06748752000830077
1300000000.0 -0.052687230186576436 0.4253465659253815
1320000000.0 0.19169142622900473 0.39221268019635425
1340000000.0 0.35831568092293753 0.26598319464897985
1360000000.0 0.3977383235220331 -0.21431338029998903
1380000000.0 -0.3845808827562857 -0.21769561033599352
1400000000.0 -0.1596064335011154 0.39664270546693037
1420000000.0 0.38919113962298035 -0.09982215701996405
1440000000.0 0.14264288664816746 -0.33938947890292653
1460000000.0 0.12912074798482467 -0.3108465463686625
1480000000.0 -0.2153876448676811 -0.22329733510118935
1500000000.0 -0.27778108189092665 0.04699693763853605
1520000000.0 -0.1977249567110792 -0.15899336838920766
1540000000.0 0.13501826225895383 0.18539156970369305
1560000000.0 -0.19351977953533905 0.06284932381519243
1580000000.0 -0.07422466215711432 0.16412994601680464
1600000000.0 0.029553842898441606 -0.1408100297580733
1620000000.0 -0.09833051125854188 0.04147557334289372
1640000000.0 -0.04915351286446951 0.06092045344687665
1660000000.0 0.035389668214008116 0.04622394188635154
1680000000.0 0.02888095837188527 0.012358635175573266
1700000000.0 0.008530382991291208 -0.0021488874893661873
1720000000.0 -0.008001042873059718 -0.006552395457753516
1740000000.0 0.023395755143765306 0.010383765760946954
1760000000.0 0.021809497352250667 -0.03224683158293488
1780000000.0 -0.05466227645820225 0.005019100781909315
1800000000.0 0.08406104507981908 -0.0032871666438838683
1820000000.0 -0.10465433794636456 0.04001952216594087
1840000000.0 -0.14057656478529387 0.05794889347391289
1860000000.0 0.006659464196657201 -0.19368995971910247
1880000000.0 -0.20130676543891052 0.13239366782705908
1900000000.0 -0.046706551931764276 -0.2881691559223042
1920000000.0 0.279364167934165 -0.1812716114964385
1940000000.0 -0.10747057973395184 0.33952088708732187
1960000000.0 0.37149852812238143 -0.05603854382098482
1980000000.0 -0.021027778350053556 -0.4002734203382489
2000000000.0 -0.4031397626847641 0.10271473282117141
2020000000.0 -0.21346048203779752 0.36559349508208244
2040000000.0 -0.07244526943917955 0.42518682258642193
2060000000.0 0.17996348436531082 0.3955276682737497
2080000000.0 0.4183218092218583 0.11979475933068305
2100000000.0 0.2991065329635235 -0.30993055582205337
2120000000.0 -0.06196911252706674 -0.41477303693374407
2140000000.0 -0.20173957760244604 -0.3492316088684282
2160000000.0 0.3591593101483069 -0.1498718357838707
2180000000.0 0.110650136756832 -0.3579826454555182
2200000000.0 -0.14496411304945434 -0.3287722566173359
2220000000.0 -0.3124885666826349 -0.15327503882445898
2240000000.0 -0.34027444306513527 -0.011790118226147282
2260000000.0 -0.26306943461359916 0.21509191149025975
2280000000.0 -0.003188754917804723 0.3441292604160623
2300000000.0 0.29149344947721123 0.20196763832091294
2320000000.0 0.2464862180973207 -0.2918478873352393
2340000000.0 -0.36906170859788456 -0.1848783263869371
2360000000.0 -0.004195608134678521 0.4538318479056663
2380000000.0 0.027904614631529975 -0.5075624659032969
2400000000.0 0.2608078712346964 0.4993629168723873
2420000000.0 -0.5670651325576114 -0.24052738084044245
2440000000.0 0.6185214287484453 -0.23878053044127867
2460000000.0 -0.44672300848277674 0.5437301353543329
2480000000.0 0.12161365101403597 -0.725072141152214
2500000000.0 -0.1386660621189314 0.7430713154359729
2520000000.0 0.3474221456411738 -0.6833089182926705
2540000000.0 -0.6319661966674351 0.43664088250958893
2560000000.0 0.754345609291284 0.10793200345701633
2580000000.0 -0.24385458846937189 -0.7061463851461979
2600000000.0 -0.40590364285260827 0.5972571207160634
2620000000.0 0.6899106171104648 -0.054071824061870735
2640000000.0 0.5091197925107929 -0.4111882568562884
2660000000.0 -0.6108406614581051 -0.02135433125375368
2680000000.0 0.49605161433357386 0.2682206167140752
2700000000.0 -0.30621544216731617 -0.41530506808621787
2720000000.0 0.29416321505673676 0.3638796542448457
2740000000.0 -0.23375058814916141 -0.3460080291028394
2760000000.0 0.0013748227093047067 0.376086696069437
2780000000.0 0.0022163633023427193 -0.3422893357483891
2800000000.0 -0.050009100780298 0.31254241523015586
2820000000.0 0.17946433030287762 -0.2417430766599283
2840000000.0 -0.06815611713915976 0.2912102039107051
2860000000.0 -0.26657020595705044 -0.13618883933994935
2880000000.0 0.0716040970179922 -0.29117634708831464
2900000000.0 0.0315638894662696 0.2980111079593652
2920000000.0 0.21487828805514236 -0.21281923582035112
2940000000.0 -0.2609532931478121 -0.1660872277513222
2960000000.0 -0.23584265954571476 0.2021887772709514
2980000000.0 -0.2628452542393103 0.1635981911224902
3000000000.0 -0.04124515153383988 -0.3087530698660498
3020000000.0 0.3186233367073194 -0.03134240002811097
3040000000.0 0.23648243456890927 0.21778740249144724
3060000000.0 -0.2220138192367388 0.2247050338543515
3080000000.0 0.023275151470035428 -0.30393061849583586
3100000000.0 -0.0869776039323434 0.28072537635509803
3120000000.0 0.1104283968411104 -0.26346282301713697
3140000000.0 0.00016934749837754413 0.273151269526073
3160000000.0 -0.004062447126793215 -0.25736825282168424
3180000000.0 -0.23735238221274402 -0.04449152170058063
3200000000.0 0.14226099463787956 -0.17071908120124318
3220000000.0 0.19622515662588086 0.03038607419686295
3240000000.0 0.11812876586437523 0.12191411602439547
3260000000.0 0.08214387700369534 0.1071225213686438
3280000000.0 -0.09884121235452789 0.0002470185215356732
3300000000.0 -0.020971574915120604 -0.06683877656869552
3320000000.0 0.015472291274229307 0.033369864411764774
3340000000.0 -0.01410628941618528 0.003341120435922836
3360000000.0 -0.0015007958514524791 0.0027687721606410418
3380000000.0 0.011013269201668839 0.006725120343835892
3400000000.0 0.0007644919321884313 -0.01971065349770416
3420000000.0 -0.03007983682954009 0.014048654616890564
3440000000.0 -0.0419942049044177 0.020993269431918555
3460000000.0 -0.061131722645786105 0.0036329633934726077
3480000000.0 0.07456456135475924 0.017722284736715156
3500000000.0 -0.029371912980124384 0.09083485988059821
3520000000.0 0.07685802065677713 0.0758221240530179
3540000000.0 -0.11158067935595224 0.03376964357453274
3560000000.0 0.07759898283306159 -0.09595534105319126
3580000000.0 -0.0870965727981357 -0.10001000114715002
3600000000.0 0.057988194666769556 0.1327572607413018
3620000000.0 0.004749326806080636 -0.1612409447363062
3640000000.0 0.03720497881106795 -0.17531095574605887
3660000000.0 0.13973600457893218 -0.12754529110244373
3680000000.0 0.06503789384525362 -0.18588387258751388
3700000000.0 -0.182550493855002 -0.07205426309977471
3720000000.0 -0.19057358550665549 -0.03017771866825902
3740000000.0 -0.03958276375862985 -0.17551645502388522
3760000000.0 -0.16972240444190662 0.026725495062445315
3780000000.0 0.015104122051641824 0.16594234235770128
3800000000.0 0.11511280969133854 -0.1122149297022925
3820000000.0 -0.10005203087613596 -0.12058723740132285
3840000000.0 -0.08917648568495332 -0.1202817885953525
3860000000.0 -0.14791640364538258 0.008698717016422174
3880000000.0 -0.14208316968468063 0.025874267002654414
3900000000.0 0.07239541289996866 -0.12275010833700818
3920000000.0 0.14739327189705614 -0.03127305132621283
3940000000.0 -0.13784946718721702 0.08561093229152017
3960000000.0 -0.1209277215246895 0.12305386753044238
3980000000.0 0.1581901717795188 0.0744584075532631
4000000000.0 -0.07185783258298888 -0.1542184837261405
