!Created with skrf (http://scikit-rf.org).
# Hz S RI R 50.0 
!freq ReS11 ImS11
400000000.0 0.702987648950265 0.5093450690980135
420000000.0 0.8428696803355151 -0.024049695188074174
440000000.0 0.7954801065998675 -0.06258321762597661
460000000.0 0.7468441190313493 -0.046733107568074805
480000000.0 -0.23536458243177996 -0.6461624915841225
500000000.0 0.10314025464712406 0.5915300641259607
520000000.0 0.504268672558457 -0.045129563920548836
540000000.0 -0.4041109344689339 -0.16354171314021307
560000000.0 0.1984740657915992 0.3426913665649476
580000000.0 -0.17185757824356435 0.3199104313550451
600000000.0 -0.06528278073696177 -0.34765271942139586
620000000.0 -0.3518158393496633 0.018515269429194816
640000000.0 -0.14685471020356833 -0.37391798628508066
660000000.0 -0.35471743649097215 0.19920018505009882
680000000.0 -0.09680362276846186 -0.4340256587389174
700000000.0 0.05971750193866944 0.4557115664914994
720000000.0 -0.3319365689862246 -0.323767579260173
740000000.0 -0.3771405466946714 0.2131613458001727
760000000.0 -0.410814743972763 0.02361681626840595
780000000.0 -0.36199828642317144 0.1264880828380133
800000000.0 0.27456586613649564 0.19940417903007474
820000000.0 0.2169818051412243 -0.17736677249672422
840000000.0 -0.004946627743428401 0.2027847964088828
860000000.0 -0.12152063000189603 0.11157989512481628
880000000.0 -0.11863198493125866 0.0728051709696446
900000000.0 0.0199473360274018 0.09358906203267328
920000000.0 -0.048722276039578245 0.02403039960131991
940000000.0 0.010683321705529557 -0.0341350925804849
960000000.0 -0.016492449350132526 0.028438851918128213
980000000.0 0.01915718777105592 0.054421843807144876
1000000000.0 0.0649319811463043 0.06951011132047984
1020000000.0 0.11550217552533096 0.03145210653595598
1040000000.0 -0.09113741338248169 0.09633516059094414
1060000000.0 0.007951831782298824 0.15812356750799322
1080000000.0 -0.02970588645409272 -0.18403064237198993
1100000000.0 0.15399126702290897 -0.15169289024612176
1120000000.0 0.2367458962715663 -0.047091095623731975
1140000000.0 -0.15078033797173906 0.2123593135078664
1160000000.0 -0.12486572841926927 0.2575486616666648
1180000000.0 -0.3111324646860404 0.03875376597483329
1200000000.0 0.3258460469308589 -0.1053929634822538
1220000000.0 -0.3071817229128935 0.21002808085103292
1240000000.0 0.3399785433604418 -0.19095671233802605
1260000000.0 -0.2254513841376288 -0.3306208753915715
1280000000.0 -0.4138715293926384 0.05113914779096628
1300000000.0 -0.06807454682887124 0.4228756201772008
1320000000.0 0.17828413497658332 0.39819763450478823
1340000000.0 0.36163921965887375 0.2609994641103633
1360000000.0 0.3982778555540192 -0.21297159185493875
1380000000.0 -0.381210155197504 -0.22349097329904474
1400000000.0 -0.156897772009966 0.39774624306580797
1420000000.0 0.3887561660009272 -0.10223200152530726
1440000000.0 0.13476080160150353 -0.3427865890193456
1460000000.0 0.1242671538314613 -0.31317692545440673
1480000000.0 -0.24847457088805427 -0.18585325763865576
1500000000.0 -0.27878353999336203 0.041319659242415464
1520000000.0 -0.19730132249446702 -0.15979220754609824
1540000000.0 0.13981528790984404 0.18213302314543464
1560000000.0 -0.19546766380162117 0.05749124730453496
1580000000.0 -0.11288638094507124 0.1407874370790937
1600000000.0 0.03820338969159268 -0.13892885764311919
1620000000.0 -0.10079771741961828 0.035018425363003744
1640000000.0 -0.05357954498581772 0.057014719291369365
1660000000.0 0.02703928993364392 0.05137923327349577
1680000000.0 0.02782709970187034 0.014134871621951494
1700000000.0 0.004338937952645397 0.007694149447333615
1720000000.0 0.009948035042449144 -0.0031531001338766123
1740000000.0 0.0174173092426105 0.018715861596705446
1760000000.0 0.03615469884341801 -0.013895441864187123
1780000000.0 -0.05201851984882457 -0.017184662418910403
1800000000.0 0.08117454088329387 0.020509790168318772
1820000000.0 -0.10853527347431573 0.027730165909051967
1840000000.0 -0.14660329036627892 0.039778041918923236
1860000000.0 0.02546096009484366 -0.19198698521407306
1880000000.0 -0.20958500939115335 0.11817231468638989
1900000000.0 -0.039659310117987935 -0.288834125010042
1920000000.0 0.27928601549247517 -0.18098324432315568
1940000000.0 -0.0955748261499075 0.3429856619166702
1960000000.0 0.3720709274955023 -0.051576646394288474
1980000000.0 -0.01872791819580459 -0.40052833323454184
2000000000.0 -0.4027786924296703 0.10490267119868049
2020000000.0 -0.22045518609293202 0.3616736228116117
2040000000.0 -0.06446411348092225 0.4265955238118467
2060000000.0 0.17759205598335331 0.39692095077491446
2080000000.0 0.4141024421578377 0.13511561983544298
2100000000.0 0.3070659987317298 -0.3027768593218389
2120000000.0 0.015365249293403382 -0.4198143045697106
2140000000.0 -0.20105993059055327 -0.35029549771523727
2160000000.0 0.35493085335063307 -0.1610460273569462
2180000000.0 0.11097821719383613 -0.358442112148771
2200000000.0 -0.1324828397136861 -0.3344945149514288
2220000000.0 -0.2839337715400689 -0.2023169076200342
2240000000.0 -0.34097538695657137 -0.010269859599693907
2260000000.0 -0.27460967714545265 0.20093488426427727
2280000000.0 -0.03742490658167757 0.34228268635653325
2300000000.0 0.2752723194818909 0.22373326411728323
2320000000.0 0.2723387847450048 -0.2680042010551165
2340000000.0 -0.3570946229548815 -0.20739467446051818
2360000000.0 -0.03878694699202857 0.4522228086931383
2380000000.0 0.06415676898173137 -0.5040384194363561
2400000000.0 0.2082156061089435 0.5233701265967167
2420000000.0 -0.5732801110764485 -0.22499137884332712
2440000000.0 0.6205015308496576 -0.23287892686165074
2460000000.0 -0.4506032420273016 0.5402237902375744
2480000000.0 0.15779127853841554 -0.7182196455292733
2500000000.0 -0.2416217243129648 0.7168338693380109
2520000000.0 0.3960231364175138 -0.6566322710540715
2540000000.0 -0.6112868747757945 0.4655909166824933
2560000000.0 0.752363682486514 0.12518263694149
2580000000.0 -0.2691881378874975 -0.6974659608932944
2600000000.0 -0.41874124517593125 0.5896657039720125
2620000000.0 0.6868632418304221 -0.09192421492872797
2640000000.0 0.5013147712088212 -0.4226572571379032
2660000000.0 -0.6114314277238511 -0.03406071662821495
2680000000.0 0.48914463096380817 0.28298505060547063
2700000000.0 -0.293889920014442 -0.4254994704271842
2720000000.0 0.27473229317576775 0.3797389968555966
2740000000.0 -0.19172170626326865 -0.3716314852886868
2760000000.0 -0.023232707363040242 0.3759583722071388
2780000000.0 0.020631788636386022 -0.34192050027778825
2800000000.0 -0.0634027843565396 0.31044293253353034
2820000000.0 0.19197991807882317 -0.23215222979067981
2840000000.0 -0.0746048923178463 0.2896831707856836
2860000000.0 -0.27859104793873735 -0.10891153632453315
2880000000.0 0.08599992100320113 -0.28760298309264076
2900000000.0 0.0390896780811227 0.29724254725163507
2920000000.0 0.19454719997657358 -0.23178491998877632
2940000000.0 -0.26496114125806924 -0.16051924174915103
2960000000.0 -0.2519591248949684 0.18235494296615862
2980000000.0 -0.2801085795176632 0.13349757371885618
3000000000.0 -0.03210989405563053 -0.3104240182491076
3020000000.0 0.3203410387044346 -0.0065558716590705945
3040000000.0 0.2546067594216476 0.19643539422581469
3060000000.0 -0.22901999263057632 0.2177276424399038
3080000000.0 0.03078462333010132 -0.3034053022306155
3100000000.0 -0.08408903897483636 0.281649690067808
3120000000.0 0.11999646641408226 -0.2590212161439501
3140000000.0 0.027302904203860848 0.2719098983766874
3160000000.0 -0.026451473992271417 -0.2561156035561971
3180000000.0 -0.24156646291042547 -0.012354949985598237
3200000000.0 0.1295715412601513 -0.18062079892857041
3220000000.0 0.19904587481479163 0.0039781810428436825
3240000000.0 0.14008714710453188 0.09590848905211942
3260000000.0 0.1064046099666705 0.08356946793557299
3280000000.0 -0.09914890652000503 -0.003909108689946039
3300000000.0 -0.057866108582678925 -0.040083133259255055
3320000000.0 0.03531236481519947 0.010936086660498681
3340000000.0 -0.006640564784788135 0.012815348175280803
3360000000.0 0.0009667065305602092 -0.002753759457182073
3380000000.0 -0.007863252238084619 0.009938796624750603
3400000000.0 0.007393226607965518 -0.01826663338818281
3420000000.0 -0.03179398490999743 0.009288270464647912
3440000000.0 -0.037762653770102746 -0.027674989533586557
3460000000.0 -0.06120149777859852 0.006806476043454088
3480000000.0 0.07198513293271522 0.027106878054438822
3500000000.0 -0.07193581201935222 0.06267037122007103
3520000000.0 0.06916332162297915 0.08352056409249659
3540000000.0 -0.1165560991828376 0.008185730674451353
3560000000.0 0.11149664275101166 -0.052260859637959414
3580000000.0 -0.08164781290444725 -0.10519312399523166
3600000000.0 0.06817544967580381 0.12910318350202776
3620000000.0 0.020757559090466268 -0.16024024172399562
3640000000.0 0.05005537253600613 -0.1724983986554246
3660000000.0 0.15448674292731598 -0.10949008394117281
3680000000.0 0.09550986415748296 -0.17222890835745286
3700000000.0 -0.16108240814097396 -0.11257787436914168
3720000000.0 -0.1791305242082398 -0.0712911012119498
3740000000.0 0.008844440467856055 -0.17968385843969906
3760000000.0 -0.17134328004515564 -0.012107899153399717
3780000000.0 -0.02322106021612328 0.16452956538300811
3800000000.0 0.1434557113747919 -0.07190024102369283
3820000000.0 -0.06598066673299167 -0.1414195517773369
3840000000.0 -0.040711589129959785 -0.14346741036941754
3860000000.0 -0.13887812466965538 -0.050978570940496334
3880000000.0 -0.1404060781802774 -0.03199024258722993
3900000000.0 0.11566097772313268 -0.08207488530061918
3920000000.0 0.1497198569117683 0.0039817033161591055
3940000000.0 -0.1491206085431001 0.06137388742812718
3960000000.0 -0.12620492156710064 0.11539579679374877
3980000000.0 0.1674248552293813 0.04488280480061751
4000000000.0 -0.11516335213880304 -0.12349559863056653
