!Created with skrf (http://scikit-rf.org).
# Hz S RI R 50.0 
!freq ReS11 ImS11
400000000.0 0.693854199021245 0.5196203083023261
420000000.0 0.8428982731709802 -0.016640126322857267
440000000.0 0.7949908030356307 -0.0652661953156574
460000000.0 0.7469221794992889 -0.050512207374111995
480000000.0 -0.21605461462265863 -0.6530101340192396
500000000.0 0.09616421513322063 0.5925553810790171
520000000.0 0.5053026851690997 -0.031569291481412104
540000000.0 -0.38005122897050075 -0.21339858982068854
560000000.0 0.14375590547545164 0.3686577597693684
580000000.0 -0.18513194425418672 0.31195260117011975
600000000.0 -0.03608413100971516 -0.35164909236263686
620000000.0 -0.3501984061326458 0.040075528374832775
640000000.0 -0.19118619953471816 -0.3533571491586844
660000000.0 -0.37109888264930985 0.1662947971062831
680000000.0 -0.08628243791948137 -0.436280402929363
700000000.0 0.03946297802607181 0.45781459954046244
720000000.0 -0.3202599520432813 -0.33516678070735606
740000000.0 -0.36921534628919556 0.2260364169755033
760000000.0 -0.4094894113274481 0.0355437894867287
780000000.0 -0.35761870942000046 0.1367113399981763
800000000.0 0.280079445882634 0.19090433343068014
820000000.0 0.20337319714637284 -0.19263214713703647
840000000.0 0.017513972266577613 0.20222455931006839
860000000.0 -0.10336239462158579 0.12877652643027176
880000000.0 -0.11469022914777109 0.07869275763479172
900000000.0 0.024682701453928778 0.09237334558663038
920000000.0 -0.051412162125560386 0.016397757848962583
940000000.0 0.02624427358912152 -0.02347699545767509
960000000.0 -0.023388800682276712 0.022286040655570445
980000000.0 0.030354444860010744 0.04859198931558247
1000000000.0 0.06785384603845945 0.06696474646499928
1020000000.0 0.11675472623812776 0.0277822275002084
1040000000.0 -0.0925390337459771 0.09555172761613115
1060000000.0 0.019008308837865487 0.15713921015291307
1080000000.0 -0.03612519702741556 -0.18284372891038408
1100000000.0 0.14445379336506578 -0.16099672724008005
1120000000.0 0.23476377007460433 -0.05645280250623542
1140000000.0 -0.1409221477066761 0.2190104964981041
1160000000.0 -0.11613323422171738 0.26128581354134733
1180000000.0 -0.3096258650508201 0.04843304418943714
1200000000.0 0.3246950853732952 -0.10839996982778823
1220000000.0 -0.30471479342303076 0.2133694829709846
1240000000.0 0.3217456955402727 -0.2207375854276612
1260000000.0 -0.24603697224590082 -0.3160810344595019
1280000000.0 -0.41157457982111895 0.06906159262793186
1300000000.0 -0.04381042716167862 0.42643799371898217
1320000000.0 0.17685789115095732 0.39903352096568945
1340000000.0 0.36431312595879933 0.25808160596860846
1360000000.0 0.39901536532017906 -0.21209126333606365
1380000000.0 -0.37784810392197776 -0.22886828155149663
1400000000.0 -0.15976386788119193 0.39662414143790037
1420000000.0 0.39685819627435465 -0.06540945556310333
1440000000.0 0.14336131576581207 -0.33911882918602226
1460000000.0 0.12561374709504247 -0.31219335876573273
1480000000.0 -0.18689018187256748 -0.2476080836382885
1500000000.0 -0.27967243025546396 0.03134501622452495
1520000000.0 -0.1964068699881479 -0.16028484992997347
1540000000.0 0.14189950787536085 0.18008476787094857
1560000000.0 -0.19407818143326247 0.061266772475956945
1580000000.0 -0.10121565750260696 0.14910487597108565
1600000000.0 -0.012853243119588324 -0.14307623829466165
1620000000.0 -0.08838507045410605 0.059830322744061755
1640000000.0 -0.034062600136391764 0.07068469451944281
1660000000.0 0.03604548301206345 0.04587150821298707
1680000000.0 0.03133705823051845 0.00149011000529486
1700000000.0 -0.007099618474277274 -0.005497999122335936
1720000000.0 0.003022587039339931 -0.009727243113385749
1740000000.0 0.024749355427843005 0.007022257624181316
1760000000.0 0.026055032344149052 -0.029320089186033044
1780000000.0 -0.05472297305550758 -0.004454651533620152
1800000000.0 0.08333708354383468 0.010846442966361529
1820000000.0 -0.10720635890367103 0.03311335815484097
1840000000.0 -0.14616247456851963 0.042317311099849854
1860000000.0 0.012971844267496155 -0.19344934290534357
1880000000.0 -0.21274686466635842 0.1123554674772178
1900000000.0 -0.04016073093569753 -0.28902516536456735
1920000000.0 0.28251338512847074 -0.17599420350624467
1940000000.0 -0.10891166760429621 0.3387153223891518
1960000000.0 0.3725577915082896 -0.04634970685902757
1980000000.0 -0.019680286092436536 -0.4000437858577568
2000000000.0 -0.40144291146101824 0.10804193895970783
2020000000.0 -0.18989846876833627 0.3780271245716696
2040000000.0 -0.08477559272329825 0.4227747313521081
2060000000.0 0.15928235070366736 0.40437208645642586
2080000000.0 0.40493630214465803 0.15955098525309191
2100000000.0 0.30698301783525145 -0.30245619135367535
2120000000.0 -0.031674755089721986 -0.4184063300826082
2140000000.0 -0.2221615309898076 -0.3368513494896308
2160000000.0 0.3574739593672609 -0.15469240371709103
2180000000.0 0.10598125357779654 -0.3595360309103139
2200000000.0 -0.1477739679066453 -0.3278136666588945
2220000000.0 -0.29571891476725254 -0.18457663432237825
2240000000.0 -0.340829135498986 -0.005866156419772123
2260000000.0 -0.26340212036958244 0.21515574082780378
2280000000.0 -0.02906179927556567 0.34290883672699335
2300000000.0 0.2817600359890231 0.21540749926854255
2320000000.0 0.2587229086003746 -0.2811390215858903
2340000000.0 -0.3671979773934276 -0.18953257956870379
2360000000.0 -0.03320784695883849 0.45278730183401483
2380000000.0 0.06799258385592058 -0.503461526518977
2400000000.0 0.25521821319002863 0.5023059655967079
2420000000.0 -0.5725244351418192 -0.2272039912751002
2440000000.0 0.6152694310796402 -0.24671994073103592
2460000000.0 -0.44092685998472714 0.5482168343751673
2480000000.0 0.1422959625475297 -0.7212958021254079
2500000000.0 -0.24115192300821067 0.7168312519460117
2520000000.0 0.41315838332333304 -0.6458757647100406
2540000000.0 -0.6198272520639208 0.45361034027002733
2560000000.0 0.7502332820050662 0.1355046280714846
2580000000.0 -0.29714664233506083 -0.6855070172913862
2600000000.0 -0.42432494701094375 0.5851248938958434
2620000000.0 0.691856230066738 -0.015829981771118475
2640000000.0 0.49161453548437134 -0.4329651345758376
2660000000.0 -0.6118673259830104 -0.012774581386885244
2680000000.0 0.5182831988620075 0.22477519522615444
2700000000.0 -0.31795085690777053 -0.4073240433935267
2720000000.0 0.30034286514943864 0.35962445880938054
2740000000.0 -0.19594938145655214 -0.3693927114204114
2760000000.0 -0.021778739839372983 0.3760701798362447
2780000000.0 0.020683313158692544 -0.34197233268546806
2800000000.0 -0.06571894856348345 0.3099971723916816
2820000000.0 0.19818576718890446 -0.2269841053676181
2840000000.0 -0.08351866358894958 0.2874607168526045
2860000000.0 -0.26776100377016 -0.13383070933360408
2880000000.0 0.0861809889679013 -0.28738007300102963
2900000000.0 0.016900409818283363 0.29944805912331524
2920000000.0 0.21697892188858733 -0.21056141025582278
2940000000.0 -0.2705714300022161 -0.14964137791467896
2960000000.0 -0.24888791481654035 0.18605177196791084
2980000000.0 -0.2575763993138239 0.17334659022319335
3000000000.0 -0.05768177177596655 -0.306546147356568
3020000000.0 0.3172549161450284 -0.04270299358333327
3040000000.0 0.2724701180532622 0.17049183047533947
3060000000.0 -0.1934229917629059 0.24990114178426814
3080000000.0 -0.005458908055724607 -0.30466778837931924
3100000000.0 -0.06507099152258297 0.2865064636287348
3120000000.0 0.08515600395577791 -0.27259180982931974
3140000000.0 0.026471224633160075 0.2719097826823204
3160000000.0 -0.02912019518218792 -0.25577250765586484
3180000000.0 -0.24211500769994632 -0.004816055515749344
3200000000.0 0.13232914159888942 -0.17894104645398498
3220000000.0 0.19896757349637656 0.01112262426657569
3240000000.0 0.12839699328287815 0.11145908241836057
3260000000.0 0.0902811387184891 0.10101321962832696
3280000000.0 -0.09767606604251707 -0.017462647505549735
3300000000.0 -0.013288485218266043 -0.06901348358760181
3320000000.0 0.019202982988025558 0.03158060804008616
3340000000.0 -0.0015696348372501105 0.014525426747624337
3360000000.0 -0.002602825869708012 0.002972930758632738
3380000000.0 0.00665112249746114 0.010882802396398194
3400000000.0 -0.019301829297203553 -0.005010338492780019
3420000000.0 -0.022708656917674326 0.024270632540506
3440000000.0 -0.046295278802767084 0.007094656750560239
3460000000.0 -0.05589503028779142 0.0255212171317974
3480000000.0 0.0769189394603901 -0.004068262283890127
3500000000.0 -0.016649325352095228 0.09440020721424712
3520000000.0 0.0697017560662301 0.08295148622516577
3540000000.0 -0.10902356027722737 0.04241903586579818
3560000000.0 0.08867403293965122 -0.08578312261048555
3580000000.0 -0.08280824045838027 -0.1037626773637872
3600000000.0 0.06806347852643517 0.12869227643410694
3620000000.0 0.006785058881901544 -0.16124509359771663
3640000000.0 0.046637694137998266 -0.17312808653260864
3660000000.0 0.14168346840445348 -0.12584767058798071
3680000000.0 0.07586797200043353 -0.18144539892601017
3700000000.0 -0.1807951543650875 -0.07731485506641377
3720000000.0 -0.1870871460245749 -0.047142092030925786
3740000000.0 -0.016938808018187868 -0.17914092393120712
3760000000.0 -0.1716988133518807 0.0086351828450095
3780000000.0 0.001053376746212973 0.1664012725314295
3800000000.0 0.12925017153076881 -0.09582836956649166
3820000000.0 -0.08202199742865682 -0.1335290621012881
3840000000.0 -0.06773846152687849 -0.13339434180723508
3860000000.0 -0.1467609237893168 -0.019520248161858426
3880000000.0 -0.1443115751144314 -0.007875852531937289
3900000000.0 0.09344547420254423 -0.10735014201206367
3920000000.0 0.14880818676218463 -0.021479911796063064
3940000000.0 -0.14232399515154012 0.07752694775066747
3960000000.0 -0.12418427831049056 0.11915479450284056
3980000000.0 0.16970978622406646 0.03954547452945744
4000000000.0 -0.11371858520931195 -0.126022953658153
