!Created with skrf (http://scikit-rf.org).
# Hz S RI R 50.0 
!freq ReS11 ImS11
400000000.0 0.6905834802302603 0.5246993752403523
420000000.0 0.8427999312910193 -0.023517028844829795
440000000.0 0.7943599248831289 -0.0763200397352143
460000000.0 0.7453421196309253 -0.06562332763289294
480000000.0 -0.23229081404851978 -0.6473852981705147
500000000.0 0.08914846646416233 0.593853278840029
520000000.0 0.5031830228565811 -0.055710082375307834
540000000.0 -0.4113170561031057 -0.14413809226000016
560000000.0 0.1955439676375192 0.3442496954650996
580000000.0 -0.1987194426995984 0.3040361732392532
600000000.0 -0.037528564624861996 -0.3518223196289275
620000000.0 -0.34824569882837453 0.052353687919601835
640000000.0 -0.16165689395074317 -0.3674975926371245
660000000.0 -0.35257285784111503 0.20250117484367278
680000000.0 -0.10851892194583368 -0.43108798494017714
700000000.0 0.054148702598450844 0.4565168074395525
720000000.0 -0.33237612665085453 -0.3235161362488255
740000000.0 -0.36207820027303333 0.23641389682028982
760000000.0 -0.4104723170037582 0.026213610950134202
780000000.0 -0.3622733005466541 0.12555797957507578
800000000.0 0.2753144474532769 0.1981312913452789
820000000.0 0.22124732743606368 -0.17172746495549623
840000000.0 -0.018108245599425414 0.20204978429837292
860000000.0 -0.12963081033246884 0.10201214132165555
880000000.0 -0.12479918177941424 0.06121977672595027
900000000.0 0.026057016914092193 0.09213973816856756
920000000.0 -0.0495721993612336 0.022471830508492087
940000000.0 0.019470416101342196 -0.030204256348657147
960000000.0 -0.03060470963715673 0.012632669291143482
980000000.0 0.013694528225509067 0.05569761632421405
1000000000.0 0.0663324543407145 0.06801309803800376
1020000000.0 0.1164839980366832 0.027126721464986504
1040000000.0 -0.09078059603597648 0.09674996954131704
1060000000.0 0.01458929170860594 0.15772883255958867
1080000000.0 -0.023373459240489974 -0.18503253572510445
1100000000.0 0.16340510855280438 -0.14133170231898323
1120000000.0 0.2388498118493505 -0.03358629902068622
1140000000.0 -0.15983375583833734 0.20563320835153676
1160000000.0 -0.1060276178402758 0.26605530316079734
1180000000.0 -0.31175736550292305 0.03491658759391129
1200000000.0 0.3263760362757853 -0.10401887764234904
1220000000.0 -0.30499638487579356 0.21351836265725097
1240000000.0 0.3393265059776012 -0.19235646923545052
1260000000.0 -0.21884213423302565 -0.33507671300307457
1280000000.0 -0.41379841359589814 0.05209245216039757
1300000000.0 -0.04959037727227495 0.4255202569627895
1320000000.0 0.17828286710474084 0.3980908568750729
1340000000.0 0.36107141638321383 0.26157208578212354
1360000000.0 0.3993874062578369 -0.2107431500612858
1380000000.0 -0.38047389213685645 -0.22446311569653793
1400000000.0 -0.16199357348244378 0.39579346381888114
1420000000.0 0.39086151299554794 -0.09425050761729968
1440000000.0 0.12298311913961098 -0.3470177901898579
1460000000.0 0.11687039031208735 -0.3156327645063322
1480000000.0 -0.18633665510524228 -0.24831402395741173
1500000000.0 -0.27935157288743406 0.035622952044966814
1520000000.0 -0.18408913509722127 -0.1751590489479159
1540000000.0 0.13647953738776225 0.1845743109567744
1560000000.0 -0.19558733371617304 0.05727082328746609
1580000000.0 -0.1151801970506798 0.1388784697191363
1600000000.0 0.02677287131270164 -0.14156152879003522
1620000000.0 -0.10570681547235097 0.013639142608068856
1640000000.0 -0.05465321328930915 0.05586890899780176
1660000000.0 0.022809420150945867 0.05314324027199085
1680000000.0 0.02679225649878847 -0.016125190301121733
1700000000.0 -0.0008250022615703668 0.008728505192364807
1720000000.0 0.010456423582702658 -0.0003641446923362803
1740000000.0 0.016030071388739662 0.02021357362787
1760000000.0 0.03791461529732458 -0.007298502208228553
1780000000.0 -0.05154992659458479 -0.018506673600744605
1800000000.0 0.07933183612951097 0.027071237714068896
1820000000.0 -0.11060030083677165 0.017559567556571478
1840000000.0 -0.14705056205289166 0.03788711938141586
1860000000.0 0.017193338801126237 -0.19277971252832754
1880000000.0 -0.2067322382272564 0.1227546097424389
1900000000.0 -0.05088023130093321 -0.2872468397223515
1920000000.0 0.2750847462380607 -0.18743357376479972
1940000000.0 -0.09170300661835036 0.3441278652257774
1960000000.0 0.37088737070345984 -0.06015098972224432
1980000000.0 -0.021738739566759625 -0.40039762777627347
2000000000.0 -0.40080795004402564 0.1121698432355655
2020000000.0 -0.1884400299254456 0.3793305469918399
2040000000.0 -0.0665867182145906 0.4264111019845737
2060000000.0 0.14425465038508645 0.41047611866955835
2080000000.0 0.42106630525758576 0.11198995513023262
2100000000.0 0.3155817057472808 -0.2941493591062915
2120000000.0 -0.0052680245808701415 -0.4198979262759243
2140000000.0 -0.20302645007058856 -0.34900910322302764
2160000000.0 0.3680278493567735 -0.12856679415149294
2180000000.0 0.09436914214927442 -0.3628428093374516
2200000000.0 -0.13236651186199008 -0.33441356433154584
2220000000.0 -0.3023849948206574 -0.17331929930043952
2240000000.0 -0.34113901520530027 -0.013570114152634507
2260000000.0 -0.28559214763137697 0.18443485358792175
2280000000.0 -0.028311689274457274 0.34323049512809534
2300000000.0 0.28090849063761625 0.21698528524292107
2320000000.0 0.27144341285944995 -0.26905487462939853
2340000000.0 -0.35586338593270783 -0.2098002612843111
2360000000.0 -0.040233420916924084 0.45221106896943225
2380000000.0 0.05988638903940043 -0.5045901018246491
2400000000.0 0.2507336043066549 0.5045122722050231
2420000000.0 -0.5742661267138364 -0.22186824865479152
2440000000.0 0.6221072532284415 -0.2292393660199174
2460000000.0 -0.44690371796210643 0.5433158239509804
2480000000.0 0.15033120676354048 -0.7197427875209987
2500000000.0 -0.21970203804366228 0.7235145039038752
2520000000.0 0.38410186833873544 -0.663754889445897
2540000000.0 -0.6304678096273724 0.4391885896316014
2560000000.0 0.7501369893312437 0.13777758204995844
2580000000.0 -0.2958854095666666 -0.6864553729905832
2600000000.0 -0.43247195928298265 0.5797232924984267
2620000000.0 0.6920214381954353 -0.032237536198764544
2640000000.0 0.5014583214636626 -0.42234498394902964
2660000000.0 -0.6106175623459497 -0.044379545376214496
2680000000.0 0.498089809066269 0.2666191782504947
2700000000.0 -0.2936996267647192 -0.42536252838817706
2720000000.0 0.27879084834720846 0.37665006251700456
2740000000.0 -0.18551095790266847 -0.3746185705709326
2760000000.0 -0.030202604622478015 0.37538101533896145
2780000000.0 0.027604249469547978 -0.3413443614558245
2800000000.0 -0.061933117829226864 0.3107232336029223
2820000000.0 0.19331995465588667 -0.23057035395767958
2840000000.0 -0.07097455661292144 0.2906205267033641
2860000000.0 -0.2716353536157592 -0.12594303268837787
2880000000.0 0.06945077263459798 -0.2918697594937976
2900000000.0 0.0342817000332902 0.2979601946136104
2920000000.0 0.2153541034047952 -0.21317600526475022
2940000000.0 -0.25610619328606044 -0.17460325726352868
2960000000.0 -0.2553683497440643 0.17757213735665808
2980000000.0 -0.28810962308038934 0.11465729722290605
3000000000.0 -0.04070693151689368 -0.30924756866399405
3020000000.0 0.3199088624228029 -0.021655475159233935
3040000000.0 0.20651956847608674 0.24690201828419997
3060000000.0 -0.23432374474162013 0.21214835456071793
3080000000.0 0.034610898622544455 -0.30280172530892835
3100000000.0 -0.08894980885188031 0.28007629094712894
3120000000.0 0.11073229790911561 -0.2631406249491861
3140000000.0 0.01606594090673608 0.27260127177476845
3160000000.0 -0.016799002875664854 -0.25662031311549605
3180000000.0 -0.24145520625899694 -0.01164965405078119
3200000000.0 0.13227787616898762 -0.17845708176931888
3220000000.0 0.19881306651019495 0.008965566013658015
3240000000.0 0.13771825903501705 0.09925696795480976
3260000000.0 0.11022899372580974 0.07822884241141637
3280000000.0 -0.09909724149688223 0.003967458855236873
3300000000.0 -0.06252110794579038 -0.0319346227691795
3320000000.0 0.036830029136356135 0.0005274079407641102
3340000000.0 0.010101457605262359 0.010621269805870857
3360000000.0 0.0018423877481353558 0.00276357164009695
3380000000.0 -0.0067144546670007705 0.01074943035562138
3400000000.0 0.011741097023540372 -0.015736140196735658
3420000000.0 -0.031132948600518264 0.011921383102738702
3440000000.0 -0.04653151528224114 -0.006388192695973549
3460000000.0 -0.0533378487878935 -0.03034921105170133
3480000000.0 0.07476317341934478 0.017870923929453424
3500000000.0 -0.04242522032554638 0.08574051501932636
3520000000.0 0.06433360449752838 0.08677600479264665
3540000000.0 -0.1144720608235281 0.023591093724626887
3560000000.0 0.09833930696799627 -0.07442950429290177
3580000000.0 -0.09810549485547772 -0.09027549614696649
3600000000.0 0.03663813575258595 0.1405565008267435
3620000000.0 0.01591922550964481 -0.16103353606288429
3640000000.0 0.029366814780136353 -0.17756570919221845
3660000000.0 0.14906791777980255 -0.11684679005385477
3680000000.0 0.10093056838488194 -0.16903524108694187
3700000000.0 -0.16819086554154689 -0.10192193265130439
3720000000.0 -0.17913001010125237 -0.07127385499282728
3740000000.0 0.002289583096585033 -0.17970657509391727
3760000000.0 -0.17145888555372962 -0.004661239114820269
3780000000.0 -0.012797398067685083 0.16578809192827254
3800000000.0 0.13904687526311732 -0.07978348162373267
3820000000.0 -0.07139699870646307 -0.1388086617856646
3840000000.0 -0.041407477872255245 -0.14375388897588218
3860000000.0 -0.14081417376534225 -0.045934046205632795
3880000000.0 -0.14250061951600265 -0.021114613693752258
3900000000.0 0.11451330532182187 -0.0844851148229127
3920000000.0 0.1499550430566406 0.010326455265945242
3940000000.0 -0.15282391691246927 0.052502710912752396
3960000000.0 -0.14257903751532672 0.09567253782908205
3980000000.0 0.151403141365242 0.0847694077925155
4000000000.0 -0.08036580728007617 -0.148584900317503
