!Created with skrf (http://scikit-rf.org).
# Hz S RI R 50.0 
!freq ReS11 ImS11
400000000.0 0.6867162889733414 0.5295283734954886
420000000.0 0.8423212955266693 -0.028698786270576447
440000000.0 0.7979917869852121 -0.019110793429683685
460000000.0 0.7464216974682955 -0.05641219833983622
480000000.0 -0.2548379565331041 -0.638574963742143
500000000.0 0.07328286329431925 0.5961069017226026
520000000.0 0.5036295146952243 -0.05055637523447254
540000000.0 -0.4012906189304259 -0.17014891060484802
560000000.0 0.19315340496394218 0.34590693529409716
580000000.0 -0.17171809715266395 0.3204231220851669
600000000.0 -0.050535845263681316 -0.35028109121917456
620000000.0 -0.35211398294322876 0.014701032526057301
640000000.0 -0.14448958990351088 -0.3746078264878094
660000000.0 -0.3738836931378629 0.16006352385446634
680000000.0 -0.09120366921330776 -0.4349844058716002
700000000.0 0.053297804862162415 0.4563798844495404
720000000.0 -0.30434165183266887 -0.3494062394670371
740000000.0 -0.3824882311518584 0.20288603842024636
760000000.0 -0.41004648823174644 0.030866800737466303
780000000.0 -0.35470176982685553 0.14484533001739497
800000000.0 0.2841928174628102 0.18522027743505223
820000000.0 0.2129689232179811 -0.18227169180863775
840000000.0 -0.0051425110514607695 0.20309932832716066
860000000.0 -0.11404133962835003 0.11928779955568673
880000000.0 -0.11711202720632095 0.07509520319308025
900000000.0 0.019688621578178356 0.09411794804203978
920000000.0 -0.05436811993652055 0.004918658229623702
940000000.0 0.01800395069124682 -0.03115513977711382
960000000.0 -0.032725279258515455 0.0032044299122316565
980000000.0 0.010275982800047328 0.056351219667603515
1000000000.0 0.07047391025289704 0.06354661715400566
1020000000.0 0.11883699145392958 0.012515244850622113
1040000000.0 -0.06965218939909802 0.11301003741017172
1060000000.0 0.02604276834062087 0.15639768484652655
1080000000.0 -0.033222612926600836 -0.18367560477524522
1100000000.0 0.14544144578575033 -0.1602622325864205
1120000000.0 0.23843900507423504 -0.03855143614219943
1140000000.0 -0.17252144777490522 0.19517268901668167
1160000000.0 -0.10690825546856406 0.265571538057316
1180000000.0 -0.31141050838597417 0.03482874600567626
1200000000.0 0.32566993529718224 -0.10570483932031093
1220000000.0 -0.32363178409662874 0.18333302981848518
1240000000.0 0.3394531530244993 -0.19210242055289206
1260000000.0 -0.22774154892858636 -0.3290845808868867
1280000000.0 -0.41250004718282585 0.06157391877814679
1300000000.0 -0.06340784060491914 0.42354336668346637
1320000000.0 0.18701838987035282 0.39425657599172986
1340000000.0 0.36922583459248853 0.2502762136343931
1360000000.0 0.39643069127683755 -0.21654174632776416
1380000000.0 -0.38022508139061795 -0.2251836147320905
1400000000.0 -0.15150540799485449 0.39986008468654216
1420000000.0 0.38744570931784217 -0.10682724522312304
1440000000.0 0.13761272625948928 -0.34151142792518696
1460000000.0 0.12247734406481368 -0.31371244927648034
1480000000.0 -0.17659150923998532 -0.2555295490199399
1500000000.0 -0.27907036214373976 0.04026084361541239
1520000000.0 -0.19082037306832578 -0.1674968997741925
1540000000.0 0.1245152565577251 0.19328834919547805
1560000000.0 -0.18757297442979226 0.07943141869338298
1580000000.0 -0.09381653115413846 0.15412646888018147
1600000000.0 0.042846516165668064 -0.1376535061503146
1620000000.0 -0.1032000011176058 0.02760339186463151
1640000000.0 -0.05546510435081051 0.05514179470400044
1660000000.0 0.020139801574262286 0.05438756796018744
1680000000.0 0.026232303281609158 0.016497807871819436
1700000000.0 0.008438845272588506 0.001949237808773013
1720000000.0 0.0016157039692384994 -0.010165077100080784
1740000000.0 0.0241034106089492 -0.009426441152086436
1760000000.0 0.02453555830014535 -0.030443681675287007
1780000000.0 -0.05463133887384182 -0.004264863334770642
1800000000.0 0.08409997379084358 0.0036447869078441147
1820000000.0 -0.10784740578427582 0.030239480316048506
1840000000.0 -0.14437470491558255 0.047390609580129535
1860000000.0 0.015278509761380281 -0.19310915273759
1880000000.0 -0.2070377008175551 0.12249541448206833
1900000000.0 -0.04875941497394308 -0.28769411100966064
1920000000.0 0.2768668399567264 -0.18483392134009283
1940000000.0 -0.09402703826166403 0.34356036631467807
1960000000.0 0.3710149187776713 -0.059914541797268406
1980000000.0 -0.029711181837155216 -0.39982442931117496
2000000000.0 -0.4021859469338839 0.1067992139799868
2020000000.0 -0.21469482079388844 0.36506885489223745
2040000000.0 -0.07750378706357831 0.42440064446447867
2060000000.0 0.14993051293050313 0.40833651435204216
2080000000.0 0.39968309449431394 0.17297550962947275
2100000000.0 0.31962645820506913 -0.28954567352215643
2120000000.0 -0.037783707205469245 -0.4179032477418572
2140000000.0 -0.20082663999511122 -0.35012568654187926
2160000000.0 0.3633427136800018 -0.14020427492802928
2180000000.0 0.11135297345038338 -0.35788212217022863
2200000000.0 -0.14469920472160075 -0.32902051656493697
2220000000.0 -0.3086907439575318 -0.16124377736813067
2240000000.0 -0.3407227900377746 -0.007299747766953317
2260000000.0 -0.26515957948724417 0.2130128235022907
2280000000.0 -0.02953143221972423 0.3427755811782922
2300000000.0 0.283209731059742 0.21327953013295653
2320000000.0 0.2612159087216489 -0.2784714879045336
2340000000.0 -0.37110223550268834 -0.1813420107522073
2360000000.0 -0.006696324556785727 0.45367934526186743
2380000000.0 0.03492703636302906 -0.5067826749048612
2400000000.0 0.2682783143997243 0.4951782252351693
2420000000.0 -0.578819290053254 -0.21010430555790052
2440000000.0 0.616359597653624 -0.24452410472308128
2460000000.0 -0.4249645458391829 0.560776309500646
2480000000.0 0.1516117923080018 -0.719859798915266
2500000000.0 -0.22441035910662446 0.7224411147751465
2520000000.0 0.40296792256463926 -0.652598558726157
2540000000.0 -0.6334818579582279 0.43502355545898763
2560000000.0 0.7475224862116433 0.1510673141835632
2580000000.0 -0.2758302412144459 -0.6944755088564059
2600000000.0 -0.43378401551061957 0.5780174462364674
2620000000.0 0.690775321979063 -0.040701249552625524
2640000000.0 0.52488149503528 -0.3912262244916999
2660000000.0 -0.6105524628467311 -0.02950462131239824
2680000000.0 0.4949322864577379 0.2701684182912381
2700000000.0 -0.30559115482587584 -0.4156134543951792
2720000000.0 0.28481988225217075 0.3707603577827761
2740000000.0 -0.2348026178842863 -0.34486281423749865
2760000000.0 0.0052360450388358164 0.3757706436432146
2780000000.0 -0.006490876967876418 -0.34187447586303765
2800000000.0 -0.041569411150304804 0.3135300619848082
2820000000.0 0.17126462861144667 -0.24719543457382068
2840000000.0 -0.049587082735746586 0.2948093902958325
2860000000.0 -0.27968677250726665 -0.10724763219638785
2880000000.0 0.0586700152352549 -0.2943679770905663
2900000000.0 0.046845965129356765 0.2963927654207036
2920000000.0 0.20268935152585965 -0.22480308028915233
2940000000.0 -0.2630033920377146 -0.1637607447786908
2960000000.0 -0.26316518898998553 0.16560396452498344
2980000000.0 -0.2875828398255972 0.11632864267290031
3000000000.0 -0.04174505977517868 -0.3092396338406169
3020000000.0 0.31711541601148036 0.045415874905390397
3040000000.0 0.23286647836957663 0.2217748724384478
3060000000.0 -0.23562005486897653 0.2104101500656227
3080000000.0 0.0632397526547805 -0.29796750330920974
3100000000.0 -0.09040758966891715 0.27961343470707656
3120000000.0 0.12066847765787145 -0.258572736190575
3140000000.0 -0.004258347254522187 0.2728174964735996
3160000000.0 0.0048526045502106305 -0.2570088380604715
3180000000.0 -0.2368020914283383 -0.04673990176893351
3200000000.0 0.1431984104960852 -0.17000813370513299
3220000000.0 0.19523694889909482 0.035936134619885374
3240000000.0 0.1195556148250658 0.12051736675601568
3260000000.0 0.09344522323463546 0.09749012840780458
3280000000.0 -0.09867445914287336 0.0036954118824762874
3300000000.0 -0.033956388685081704 -0.06118900331168299
3320000000.0 0.024690383443755983 0.027021617200059606
3340000000.0 0.0022537657980086843 0.014306421533680285
3360000000.0 0.001675557539655262 -0.002603621697554828
3380000000.0 0.0022485231107676968 0.012668825570902067
3400000000.0 0.005359876201743665 -0.019048463545719586
3420000000.0 -0.03072077877347728 0.013065573382631979
3440000000.0 -0.044408585271428755 0.01614475604584935
3460000000.0 -0.05779035879759184 -0.02049932162481299
3480000000.0 0.07673401284622061 -0.007731381880673564
3500000000.0 -0.02715823236837567 0.09170155047547349
3520000000.0 0.07635779936704942 0.07676493734506801
3540000000.0 -0.1061092750799997 0.04989465209000462
3560000000.0 0.09326093483377643 -0.08045071694713626
3580000000.0 -0.10490674979533636 -0.0823874554458941
3600000000.0 0.059985839534168 0.13229023858440672
3620000000.0 0.0012097818684103628 -0.1617834051419136
3640000000.0 0.035254449568794366 -0.1763444036641361
3660000000.0 0.14586111692430864 -0.12149889395427614
3680000000.0 0.07730700133342011 -0.1814132851860224
3700000000.0 -0.16946837984382945 -0.09970609758710006
3720000000.0 -0.18233720691583852 -0.06356408842330588
3740000000.0 -0.005163414843776243 -0.18001138431763317
3760000000.0 -0.17180901259081702 -0.006958479062340626
3780000000.0 0.003173385743392423 0.1663241798991069
3800000000.0 0.13125631265042403 -0.09286224328303795
3820000000.0 -0.09523878736809002 -0.12408059745742886
3840000000.0 -0.07282518127654614 -0.13060114038796763
3860000000.0 -0.1467256697278832 -0.0205200360296692
3880000000.0 -0.1437583024438344 -0.014274233241218246
3900000000.0 0.09945283102727291 -0.10204530300389437
3920000000.0 0.1498309631502621 -0.012240927607073066
3940000000.0 -0.14827504339593367 0.06465071542594378
3960000000.0 -0.14177709345616427 0.09708505404537628
3980000000.0 0.1557039669511723 0.07774815096802623
4000000000.0 -0.08468940134109722 -0.14655730233788294
