!Created with skrf (http://scikit-rf.org).
# Hz S RI R 50.0 
!freq ReS11 ImS11
400000000.0 0.566272478771617 0.6604503986506758
420000000.0 0.7867437901081433 -0.30642264240011513
440000000.0 0.6423531662372041 -0.47194713847115966
460000000.0 0.7349161437976868 0.0456604330300348
480000000.0 0.16207765228851656 -0.6588087944714565
500000000.0 -0.3689103346643603 0.47376210331459667
520000000.0 -0.14916354322407013 0.4890992868236399
540000000.0 -0.11306609727445296 -0.4244091437032933
560000000.0 -0.10908492071930356 0.3870501503807916
580000000.0 -0.33296091859640636 -0.14934180775717082
600000000.0 0.3311429017799434 -0.13045993097948994
620000000.0 -0.1653229802994074 -0.3159294751408211
640000000.0 0.3783457770268992 -0.16708846378807185
660000000.0 0.4020666282586455 0.10278841684207302
680000000.0 -0.2754244593968585 -0.3461974022511864
700000000.0 0.15744875943518344 0.4346794057645424
720000000.0 -0.3142381518620189 0.34658612259438987
740000000.0 0.23022517817915691 0.35731850117755526
760000000.0 -0.39424146196100146 -0.0384653937253409
780000000.0 -0.2073204292538963 -0.3056596574403013
800000000.0 0.04783312712465439 -0.33273878567414145
820000000.0 -0.21819856234390733 0.18573944677724236
840000000.0 -0.11089884621908269 -0.1835780474466264
860000000.0 -0.16741375391620783 -0.05618472133567189
880000000.0 -0.09726117302396509 0.10928167222106935
900000000.0 -0.060850032711535676 -0.07765461325976207
920000000.0 -0.05546288728680742 -0.013068385003799908
940000000.0 -0.008576050780700558 0.03614167232683398
960000000.0 0.03895489497988205 0.011182834624065583
980000000.0 0.054583237502756315 0.030591037694713243
1000000000.0 -0.06276995192709418 -0.07929876789512255
1020000000.0 -0.12377805959368889 0.011083114325504708
1040000000.0 0.1329103862789425 -0.01456073176407079
1060000000.0 -0.0663555280142993 -0.14180917557887404
1080000000.0 0.0273780179102609 0.1742302004317262
1100000000.0 0.10933450740118245 -0.16631553860100842
1120000000.0 0.05408611752163973 0.2169377572255781
1140000000.0 -0.11659665003257248 -0.22374851901303972
1160000000.0 -0.07763765330543067 -0.26966716893318854
1180000000.0 0.051048140352376675 -0.30988741998739
1200000000.0 0.3450852322796253 0.05859227665374169
1220000000.0 -0.37471268510945144 0.032104275659079876
1240000000.0 0.3601063016645195 -0.1613341431595129
1260000000.0 -0.36925289448145393 -0.16954302011576317
1280000000.0 -0.4242998139609496 0.005856583846380275
1300000000.0 0.372650977243157 0.2217327852869076
1320000000.0 0.42091879478006433 -0.10761336979959242
1340000000.0 0.39430520497741184 0.18898577775876038
1360000000.0 0.4331275229775898 -0.07563135605644931
1380000000.0 -0.030536619635548847 -0.42856213155285616
1400000000.0 0.038213858801631466 -0.4182147565034467
1420000000.0 -0.37912074964484127 0.14783114440357512
1440000000.0 0.3405546489780022 0.17860489595705537
1460000000.0 0.1969206302426428 -0.29628012409148224
1480000000.0 -0.19115531689572599 0.25927427205320847
1500000000.0 0.27866370145340075 -0.043147654818978115
1520000000.0 0.13587616243473755 0.2047508349477068
1540000000.0 0.15642826300182663 0.1492591046951437
1560000000.0 -0.1780047441795437 -0.06309239695128949
1580000000.0 0.05031494843073705 -0.1629866401894086
1600000000.0 -0.07060579864303339 -0.12148866258745213
1620000000.0 0.056459951642939134 0.089099435590502
1640000000.0 -0.08113567357760766 0.0036198341249219024
1660000000.0 0.0636878387864621 -0.01892763246006593
1680000000.0 -0.030231525013511434 -0.030885538905621644
1700000000.0 0.021714688877956263 -0.0002556593197214762
1720000000.0 -0.007558917281256576 0.001973089568784475
1740000000.0 -0.006111625658588375 0.009005157187246798
1760000000.0 0.016490842056067833 0.019617879657402047
1780000000.0 -0.031547067636917024 0.0383351153248268
1800000000.0 -0.084061756990595 -0.04458618926064629
1820000000.0 0.12382403258540936 0.035497617313263556
1840000000.0 -0.053771968929787424 0.15887021650719696
1860000000.0 0.16859560116527647 0.11812213092939647
1880000000.0 0.14413582321893845 -0.19110266082869098
1900000000.0 -0.2580759089486093 -0.102270937780919
1920000000.0 0.12431944568358519 -0.2899174260657097
1940000000.0 -0.2603283782436621 -0.21440889537046
1960000000.0 -0.32468171364340775 -0.1669071779790867
1980000000.0 0.27471792134643697 0.2905488107868716
2000000000.0 0.17909586930775703 -0.38214249313556475
2020000000.0 -0.27862898060978153 -0.32988571516964443
2040000000.0 0.14353262217011348 0.4134340147016171
2060000000.0 0.3612287022877284 0.24465253960549624
2080000000.0 0.42794719335972514 0.056973052676319746
2100000000.0 -0.12143148985521171 -0.40557702155338393
2120000000.0 -0.10314975038158025 -0.39793082468878366
2140000000.0 0.16036583475243824 -0.3609255248241238
2160000000.0 0.3736861198499438 -0.08469726022980219
2180000000.0 0.3734831832742669 -0.014379125616932975
2200000000.0 0.33479262252881203 -0.14476051732015108
2220000000.0 -0.3202698419943287 -0.15346327350988728
2240000000.0 -0.32772850858183405 -0.118848900993637
2260000000.0 -0.3406376230935887 0.06151516924535023
2280000000.0 0.25693542155624893 0.23248378806101558
2300000000.0 0.22877366960588608 0.2680956540704402
2320000000.0 0.15686277329041878 0.3409670430909379
2340000000.0 0.05446176216459884 -0.4061961176954392
2360000000.0 -0.37641332036792596 -0.24687487520748397
2380000000.0 0.04795814621760775 0.4979057177638686
2400000000.0 -0.49276469830453856 0.2648881822265328
2420000000.0 0.5196131865623761 -0.319769729895065
2440000000.0 -0.50785527866659 0.4153130777983198
2460000000.0 -0.6867354999335032 -0.1322062792787438
2480000000.0 0.6929975474266293 0.2328837405403217
2500000000.0 -0.39314476960519845 -0.6419789713320018
2520000000.0 0.7191551652816479 -0.2640192592489915
2540000000.0 -0.6260184139627509 -0.44866908895523694
2560000000.0 -0.3139404477536654 0.700159140620032
2580000000.0 -0.13169863975368507 -0.7417659927296218
2600000000.0 -0.7120200161816246 0.17269822724455428
2620000000.0 0.03058641599375022 0.7061033786238669
2640000000.0 0.47224827132435016 -0.47469601376559073
2660000000.0 -0.5006669255744901 -0.38187102707334475
2680000000.0 -0.16191485642687717 0.5618706789610126
2700000000.0 -0.3276691603629688 -0.4200802652039093
2720000000.0 -0.09255285528242466 0.47594173473573037
2740000000.0 0.4153318776152973 -0.12925719261477658
2760000000.0 -0.30564589710641465 0.2439275250267205
2780000000.0 0.3582008572793827 0.033300290899625364
2800000000.0 -0.24879341376501185 -0.2239916534929342
2820000000.0 0.17824680258622586 -0.2585596134040433
2840000000.0 -0.0795628470222949 0.29526644332315327
2860000000.0 -0.11636403041569951 -0.2746310324988643
2880000000.0 0.1683724313426724 -0.24089327387286252
2900000000.0 -0.2770133034772292 -0.09707602096825904
2920000000.0 -0.15929385253685585 0.25415352989377676
2940000000.0 0.018712311460132813 -0.3098740269099258
2960000000.0 -0.28443921321203414 -0.137657012308743
2980000000.0 -0.3133557998397436 -0.041321973984945526
3000000000.0 -0.31379570085462216 -0.007152892932285925
3020000000.0 0.20878206926297646 0.2395056688368955
3040000000.0 0.20635708667039485 0.24371818407049373
3060000000.0 0.08167077929353096 0.3039316237562226
3080000000.0 0.27266475690039405 -0.13619973551401438
3100000000.0 -0.05720599595865531 0.2895631056421594
3120000000.0 -0.2493892293594386 -0.14073119421571037
3140000000.0 -0.2000139312343882 0.1882546170097789
3160000000.0 0.01952248194056104 -0.26170454331725557
3180000000.0 -0.15250387529711443 0.19641824883304154
3200000000.0 0.20657709485003878 -0.10929382320149027
3220000000.0 0.0970215940453689 -0.18627542011608322
3240000000.0 -0.06638571582899791 -0.16537858083473944
3260000000.0 0.13261069128732486 -0.06592667056871018
3280000000.0 0.07499980083388487 0.07329036937850217
3300000000.0 0.006736032341728298 -0.07182146040659679
3320000000.0 -0.008610233708918547 -0.04438473565831651
3340000000.0 0.023209115859367004 -0.007801377651382539
3360000000.0 -0.010059465661909265 -0.0017082042905866442
3380000000.0 -0.0015290828069729017 0.0007966188147354587
3400000000.0 -0.01303383449371399 0.005869665234993489
3420000000.0 0.022723612103294686 0.021051327247797413
3440000000.0 0.035866908437094856 -0.026131076812347394
3460000000.0 0.039037050321754085 0.044789691906735436
3480000000.0 -0.0711215117427859 0.020163956100449795
3500000000.0 0.034768790929769 0.07883448130209397
3520000000.0 0.10126555524681585 0.01701420145799233
3540000000.0 -0.07167165581054649 0.08933393667191566
3560000000.0 0.09259230611478421 -0.07449838205447647
3580000000.0 -0.011560255625594323 -0.1305536277676503
3600000000.0 0.11593513694743268 0.09686025715044343
3620000000.0 -0.02513734741988722 -0.160152950691715
3640000000.0 -0.1564326346711356 -0.0924334129185712
3660000000.0 -0.18901571562078961 -0.03446747983414603
3680000000.0 0.006221564571661191 -0.19491529692116172
3700000000.0 -0.17020369067504512 -0.09541611772581134
3720000000.0 -0.08078611905446295 -0.17388226333603746
3740000000.0 0.1826821013640953 -0.013993011185230964
3760000000.0 -0.013494417960383186 -0.1778654234526762
3780000000.0 0.02643522594671509 0.17188629518174872
3800000000.0 0.037742681251228365 -0.16339178476955446
3820000000.0 -0.15574788811927787 0.02516948920644756
3840000000.0 -0.14131427275949837 -0.043559459557063376
3860000000.0 -0.02090621439451845 -0.14238567573220032
3880000000.0 0.14236718819266048 -0.02732842475470321
3900000000.0 0.04125914896848409 0.14309845906965807
3920000000.0 0.12867230617462605 0.08432333075576523
3940000000.0 -0.15948414863546767 0.0499526238512547
3960000000.0 -0.12929955318345662 0.11696151469421512
3980000000.0 0.009968189446078933 0.17212753703928985
4000000000.0 0.15968104068680652 -0.04160439588057623
