!Created with skrf (http://scikit-rf.org).
# Hz S RI R 50.0 
!freq ReS11 ImS11
400000000.0 0.6201927513314863 0.6136455854417256
420000000.0 0.7895299190369097 -0.30078317587300135
440000000.0 0.6160282093005174 -0.5058861363958774
460000000.0 0.7301942214016243 0.09780971743760297
480000000.0 0.1599944375555016 -0.6598098636472757
500000000.0 -0.363056484502929 0.4791664506605732
520000000.0 -0.1448280200412418 0.49067544866034524
540000000.0 -0.11950109687372344 -0.4225906774871441
560000000.0 -0.06871445679804178 0.39631082757370695
580000000.0 -0.3515363329977526 -0.09614141899892141
600000000.0 0.311148371625918 -0.1722341680349099
620000000.0 -0.1297728002629747 -0.3314528564497361
640000000.0 0.4040855702213206 -0.09182506171452702
660000000.0 0.39528314865086517 0.12813894623697575
680000000.0 -0.30645777172017175 -0.319149830709548
700000000.0 0.158957079824858 0.4339690057876367
720000000.0 -0.3227718663256397 0.3384547798640149
740000000.0 0.17803322963126694 0.386487770958909
760000000.0 -0.39568968896905427 -0.026513445001349886
780000000.0 -0.2415026632220447 -0.27928685371032763
800000000.0 0.029850351918386583 -0.3341604195789412
820000000.0 -0.23280868956641165 0.166287720925821
840000000.0 -0.06493718382059852 -0.2048017024958616
860000000.0 -0.16455374266134792 -0.06633825150067157
880000000.0 -0.06710768515124751 0.13086838817272614
900000000.0 -0.0713555242057846 -0.06937061080745853
920000000.0 -0.05281712459521171 -0.02131103624763409
940000000.0 -0.0028273755730294533 0.03690576523036324
960000000.0 0.0398633215907388 -0.0044869553611318795
980000000.0 0.040965493600892335 0.04728586140365827
1000000000.0 -0.055032610561167 -0.08478848286290704
1020000000.0 -0.12390258059943765 -0.006884926471081308
1040000000.0 0.13278311415941266 -0.016437154730992262
1060000000.0 -0.0610877523053073 -0.14460069882112372
1080000000.0 0.03788231451716251 0.1729334275241674
1100000000.0 0.11050912919822994 -0.1669595765058746
1120000000.0 0.023700505306792966 0.2232551427635277
1140000000.0 -0.17915009380241198 -0.1783286123942727
1160000000.0 -0.11468476740404923 -0.2560383653188148
1180000000.0 0.04760504465922134 -0.310007228537023
1200000000.0 0.34627494738306613 0.05237322307126069
1220000000.0 -0.37652257916794346 -0.01029723190567127
1240000000.0 0.3508103335658386 -0.18176943432804551
1260000000.0 -0.37221031802077 -0.16478167594862386
1280000000.0 -0.42251149576796 0.03611351051801596
1300000000.0 0.36337010640493994 0.23683687249435137
1320000000.0 0.42403758748202597 -0.09590911898848757
1340000000.0 0.3994111057835352 0.17854404279894573
1360000000.0 0.43192765989889753 -0.08390896575616678
1380000000.0 0.0057033564134220446 -0.42940281651010237
1400000000.0 0.09114398811534435 -0.4099993586824545
1420000000.0 -0.39756283711737683 0.08807287874719556
1440000000.0 0.30996203867606126 0.22850023126097002
1460000000.0 0.20106263499309499 -0.2937037389205662
1480000000.0 -0.24209626179964613 0.21243995262408602
1500000000.0 0.27855963404640766 -0.04073274624488776
1520000000.0 0.13361594178580416 0.20576252438901868
1540000000.0 0.16810419383442263 0.1352835284009815
1560000000.0 -0.17666893379859425 -0.06616041316399913
1580000000.0 0.06778861411362934 -0.15589961918345518
1600000000.0 -0.058013044032192554 -0.12759359017882263
1620000000.0 0.06831001604019273 0.08066049178644163
1640000000.0 -0.06725189550852242 0.045711610851114706
1660000000.0 0.05078417821272793 -0.04244799233791349
1680000000.0 -0.043264489914876456 -0.0038188689569028347
1700000000.0 0.0021494971759128674 0.021188325189240294
1720000000.0 0.0026337481275260583 -0.007663553682640503
1740000000.0 0.006052484793555031 0.009588414993652176
1760000000.0 0.024925296135788415 -0.008175153698054213
1780000000.0 -0.020703806063427307 0.04490179209911138
1800000000.0 -0.08576452469435968 -0.039953292549554466
1820000000.0 0.10411271327631505 0.07553826084193573
1840000000.0 -0.09935478790913145 0.13454931995332473
1860000000.0 0.15290614472287423 0.13784363992457183
1880000000.0 0.14227450955361415 -0.1923870137268688
1900000000.0 -0.2575939155561504 -0.10264799913372187
1920000000.0 0.12264883965622721 -0.29028954783740274
1940000000.0 -0.2631302398761546 -0.2108316158510377
1960000000.0 -0.32938072017620634 -0.15768648506892702
1980000000.0 0.27403973531131187 0.2914384758014948
2000000000.0 0.18412531065908747 -0.3800033114919677
2020000000.0 -0.29264707905607107 -0.318152709155738
2040000000.0 0.13354218068830767 0.41649000945504205
2060000000.0 0.3335262156316428 0.282236712132351
2080000000.0 0.42405631443103226 0.08034904527411191
2100000000.0 -0.08555129552719991 -0.41482068664348976
2120000000.0 -0.07321530887912706 -0.40449084779848726
2140000000.0 0.21350742344517604 -0.33252740156318517
2160000000.0 0.3794656105385376 -0.051483602075974584
2180000000.0 0.3733280101769356 -0.007140349226665071
2200000000.0 0.33720960384636905 -0.13680611001299264
2220000000.0 -0.33017824600635715 -0.12874025771736153
2240000000.0 -0.31252296230345417 -0.15519178627565028
2260000000.0 -0.3430919910840653 0.04091370104302511
2280000000.0 0.24721333527778103 0.24320233833362942
2300000000.0 0.21521838975384563 0.27888220428742655
2320000000.0 0.12758946453303052 0.352497896764878
2340000000.0 0.08550300600482781 -0.4006493324795919
2360000000.0 -0.3672058886633501 -0.25967092126083907
2380000000.0 0.009871645996702951 0.49981668172434196
2400000000.0 -0.5036446231458969 0.24390848724369615
2420000000.0 0.5445369089896189 -0.27587000007307566
2440000000.0 -0.5467607781199639 0.36321807464169753
2460000000.0 -0.6715191830267412 -0.19705936031267782
2480000000.0 0.6533263366378833 0.3291198937155108
2500000000.0 -0.37800206385091667 -0.6510461768220878
2520000000.0 0.7263644405247429 -0.24381474532655611
2540000000.0 -0.6099625388801146 -0.4706478189037368
2560000000.0 -0.34595400201801724 0.6845342956363044
2580000000.0 -0.13703117486375824 -0.7402469213039168
2600000000.0 -0.7290183689996986 0.06663156977061593
2620000000.0 0.07806968511203605 0.7014090631940734
2640000000.0 0.4449521944599085 -0.4989254237476685
2660000000.0 -0.5259475946005981 -0.34565669572976054
2680000000.0 -0.13093379086636842 0.5697751226795092
2700000000.0 -0.3523223059979126 -0.39969913644677235
2720000000.0 -0.05911967645749038 0.48198893545192395
2740000000.0 0.4039682188517329 -0.16245006259142702
2760000000.0 -0.29853367840924105 0.25400843573944953
2780000000.0 0.3595356437444511 0.02394555002064702
2800000000.0 -0.24926959858482428 -0.22467249147858392
2820000000.0 0.19122147941540302 -0.2503660166511453
2840000000.0 -0.07941607925985901 0.2965392855219108
2860000000.0 -0.08381767507997766 -0.28741282992643125
2880000000.0 0.18095182481267133 -0.23239367651515355
2900000000.0 -0.2716873216724171 -0.11114203580066094
2920000000.0 -0.20897283855589713 0.21559403076533543
2940000000.0 0.06568156468293317 -0.30317797501862237
2960000000.0 -0.2532454385573145 -0.18765543937202428
2980000000.0 -0.2897927071087277 -0.1236418187114644
3000000000.0 -0.30987832033185286 -0.047309261048028704
3020000000.0 0.18478886197039945 0.2574824807943075
3040000000.0 0.17237870084381698 0.267598599230883
3060000000.0 0.09539406848137341 0.2984918410433548
3080000000.0 0.2556232040796252 -0.16477796781689377
3100000000.0 -0.041719965987968684 0.2913580758579131
3120000000.0 -0.2768780354879873 -0.07222242113268071
3140000000.0 -0.11485687287459635 0.25006800184547373
3160000000.0 -0.0007719238662239245 -0.26227069291506816
3180000000.0 -0.1210965037852886 0.21684447288129902
3200000000.0 0.19642987238731524 -0.12769743625287902
3220000000.0 0.08620321617973505 -0.19126265177699003
3240000000.0 -0.09494904236336967 -0.1508545721181502
3260000000.0 0.13609617706698676 -0.05755684115053868
3280000000.0 0.06570178624998947 0.08077727873718137
3300000000.0 -0.012998436857992977 -0.06969759497880418
3320000000.0 -0.031851427839905175 -0.030599934453532908
3340000000.0 0.023018939448303757 -0.002616906120659564
3360000000.0 -0.006408329877450751 -0.005388310099367578
3380000000.0 -0.000136406139507934 -0.002332015915315452
3400000000.0 0.010357947497600944 0.011242087786137755
3420000000.0 0.02725660722198562 0.016961666990965872
3440000000.0 0.04506951773094222 0.01155106400379714
3460000000.0 0.04312969805964976 0.043602499853293196
3480000000.0 -0.0712221711555455 -0.02444534646176441
3500000000.0 0.007664926064814409 0.0878224446918692
3520000000.0 0.07225785944587215 0.07371428208417667
3540000000.0 -0.0748699971472281 0.08882220801200617
3560000000.0 0.11503808445350198 -0.034335073912936796
3580000000.0 0.04294159158370014 -0.12412667031580121
3600000000.0 0.04554684547050502 0.14345248037558997
3620000000.0 0.046220326172945046 -0.15506719694382434
3640000000.0 -0.10752779323097261 -0.14557437449302563
3660000000.0 -0.16462805139010503 -0.0965552494399046
3680000000.0 0.0003562061523230772 -0.19358256103879376
3700000000.0 -0.1750728344756554 -0.08278873471688662
3720000000.0 -0.10742119913948713 -0.15773029861717242
3740000000.0 0.1814547497297282 -0.021364275920329964
3760000000.0 -0.023645686357395737 -0.17630601919402394
3780000000.0 0.039951611673357465 0.16880097504422228
3800000000.0 0.01614086018381042 -0.16626065742302173
3820000000.0 -0.14734320222775346 0.05547163508949664
3840000000.0 -0.14740342102404994 -0.012142750205717995
3860000000.0 -0.04266972371437566 -0.1374736481362287
3880000000.0 0.13733542587784492 -0.04748873876493156
3900000000.0 0.06991284816922083 0.1317165149522296
3920000000.0 0.14437071526985334 0.05425040232882439
3940000000.0 -0.13439384628323534 0.09900929695566073
3960000000.0 -0.11243993406503636 0.1348089340984636
3980000000.0 -0.022499986111376012 0.1723826564674028
4000000000.0 0.1605640349857684 0.04333421706475328
