!Created with skrf (http://scikit-rf.org).
# Hz S RI R 50.0 
!freq ReS11 ImS11
400000000.0 0.5874589314740283 0.6452441832295288
420000000.0 0.7890786041879447 -0.3014612671737115
440000000.0 0.624309974983632 -0.4950182295724415
460000000.0 0.7339237768898617 0.056299361010234875
480000000.0 0.16534998096274484 -0.6579895266052637
500000000.0 -0.3557804635281311 0.4842194715948167
520000000.0 -0.13856642848709613 0.4922126023674791
540000000.0 -0.12525424949869762 -0.42123664302509606
560000000.0 -0.08304632340584422 0.39412622366652994
580000000.0 -0.3444623279178463 -0.12027378469437383
600000000.0 0.3285367364288435 -0.13795708307485613
620000000.0 -0.1584283813927511 -0.31915254605262333
640000000.0 0.3953871760018906 -0.12401810729996009
660000000.0 0.40499147361070614 0.09246894673748944
680000000.0 -0.27776339617109164 -0.34462090196424366
700000000.0 0.1210974976851952 0.4463196749066702
720000000.0 -0.29987718401487673 0.3592980983333331
740000000.0 0.17153183816524578 0.3897529237292916
760000000.0 -0.39400788103172757 -0.04527562406324702
780000000.0 -0.20421240262930293 -0.30788161603966824
800000000.0 0.050111610960430084 -0.33179837429603254
820000000.0 -0.23057552820364707 0.16966656089873383
840000000.0 -0.08502666607762163 -0.19695331920347459
860000000.0 -0.16605142803367068 -0.060400094076535245
880000000.0 -0.07758077906088225 0.12470984540982308
900000000.0 -0.062366025274784104 -0.0774481578374657
920000000.0 -0.046534404850734776 -0.033095152927551386
940000000.0 0.011481523762297025 0.03550573712125166
960000000.0 0.040270036965028636 -0.004544583942658881
980000000.0 0.04928451541210928 0.03914934480956059
1000000000.0 -0.05497629122312811 -0.0850160747835315
1020000000.0 -0.12317227480248533 -0.014994453075727566
1040000000.0 0.13320470727198058 -0.011912567811725987
1060000000.0 -0.053625241525295506 -0.14705638176762037
1080000000.0 0.029340540741383345 0.17418449065238664
1100000000.0 0.1015247995977044 -0.17185988196049864
1120000000.0 0.04187422288067172 0.2200315159492472
1140000000.0 -0.17634339028949356 -0.18107418828994443
1160000000.0 -0.12190332640919375 -0.25292281218311763
1180000000.0 0.03803051692534372 -0.3113845860179366
1200000000.0 0.343888828808995 0.06472364112317938
1220000000.0 -0.3761184917740602 0.003530393448157002
1240000000.0 0.36220576758135514 -0.15690549132735618
1260000000.0 -0.3640415818932018 -0.18089723434411992
1280000000.0 -0.4238810987556377 0.009906775894535981
1300000000.0 0.36074490520235336 0.2401228323448165
1320000000.0 0.42015601253079643 -0.11037646750414169
1340000000.0 0.4003662242631172 0.17549456248995496
1360000000.0 0.4286817880606804 -0.09798968969371294
1380000000.0 -0.040003445405768036 -0.42748413081315495
1400000000.0 0.05573074236027929 -0.4160233935466263
1420000000.0 -0.38704290803467567 0.12467508687875029
1440000000.0 0.33885846031069594 0.1820874926522802
1460000000.0 0.19265288911820072 -0.2990098125130578
1480000000.0 -0.20475147874626673 0.24808388440148277
1500000000.0 0.27303391416600314 -0.06966820361785957
1520000000.0 0.1388879410874469 0.2032139794203235
1540000000.0 0.16258174601364608 0.14296720543224403
1560000000.0 -0.17688747222522433 -0.06683150238954925
1580000000.0 0.0928195699153578 -0.1433831714911813
1600000000.0 -0.06554256135245581 -0.12446008866127502
1620000000.0 0.05028407802286261 0.09298280976622567
1640000000.0 -0.08092502652345634 0.006436553398104253
1660000000.0 0.06592894351253378 -0.008178212191389624
1680000000.0 -0.010264909515811512 -0.041968418133966685
1700000000.0 0.02123555963638366 0.003209595442934071
1720000000.0 -0.007536486851700387 -0.001220432060400382
1740000000.0 -0.004001523042649933 -0.01021690081291704
1760000000.0 0.006897574647995831 0.025029476206466162
1780000000.0 -0.03685952664947757 0.03376048539699206
1800000000.0 -0.07343225573718837 -0.059825263819284664
1820000000.0 0.10080241728649704 0.08007135414572021
1840000000.0 -0.09732685928851707 0.1361089395471186
1860000000.0 0.14748887614183115 0.14305686368341725
1880000000.0 0.14693308996916166 -0.18867238759145075
1900000000.0 -0.260099383245277 -0.09482480279809007
1920000000.0 0.11531418208923037 -0.29301630997839745
1940000000.0 -0.26940450811314004 -0.20213857527724527
1960000000.0 -0.33730470272557495 -0.1395929550699493
1980000000.0 0.29298247485011136 0.27217522476542605
2000000000.0 0.16327528347396467 -0.38941406743371254
2020000000.0 -0.28386350041822855 -0.32614050167996494
2040000000.0 0.1432953226258203 0.41362754105040617
2060000000.0 0.3390309588844355 0.27597221589436305
2080000000.0 0.4180428680587115 0.10962839717135076
2100000000.0 -0.07208821268779561 -0.4178241422391968
2120000000.0 -0.08541383670443237 -0.40253171818122
2140000000.0 0.18900743895433325 -0.3474526283399662
2160000000.0 0.38027289318392943 -0.04800945481986734
2180000000.0 0.37312004231052975 0.022278763127393172
2200000000.0 0.3518480098570048 -0.09330808580540512
2220000000.0 -0.2989866862859157 -0.19175260171176753
2240000000.0 -0.3245940670116241 -0.12562331914248664
2260000000.0 -0.34173875407503157 0.05151703406566796
2280000000.0 0.24605969479711015 0.24383196956865844
2300000000.0 0.2257960742673975 0.2708197107980879
2320000000.0 0.1313528847641385 0.3509088849979379
2340000000.0 0.04424330587168739 -0.40738911494717245
2360000000.0 -0.38160130347530496 -0.23832319699496732
2380000000.0 0.036602294982998725 0.49893728369758983
2400000000.0 -0.49881177946597755 0.254011584564707
2420000000.0 0.5239146096050649 -0.3133141967444269
2440000000.0 -0.5177214103607253 0.4031925633239574
2460000000.0 -0.6829007379537257 -0.15292659508809303
2480000000.0 0.6813547437053006 0.2653852651208403
2500000000.0 -0.3849061472761662 -0.6470982758584355
2520000000.0 0.6968840773208775 -0.31832210046608783
2540000000.0 -0.6189399710122601 -0.45834002218184083
2560000000.0 -0.29169041269010715 0.7093234310598271
2580000000.0 -0.04760106877444631 -0.7518298365816102
2600000000.0 -0.7225087089904243 0.11875569133189183
2620000000.0 0.16833330117969783 0.6860709514576805
2640000000.0 0.44896465324984725 -0.4962175204204297
2660000000.0 -0.5025734884087554 -0.3785711396986901
2680000000.0 -0.16951428145511307 0.5592480070407736
2700000000.0 -0.31248915788729975 -0.43129216147775074
2720000000.0 -0.06596065818459593 0.4801376188249049
2740000000.0 0.4081564010773157 -0.1512308244204454
2760000000.0 -0.2948470876711464 0.2573571789569621
2780000000.0 0.35909046626472363 0.02590605632010281
2800000000.0 -0.256660679521541 -0.21570757247701952
2820000000.0 0.17222024168198016 -0.2634290026138036
2840000000.0 -0.08686194405277282 0.29380447494338535
2860000000.0 -0.09062787411182163 -0.2846215168921444
2880000000.0 0.16599090943911496 -0.24284622854914265
2900000000.0 -0.26744088261073407 -0.121470063260399
2920000000.0 -0.2022867218650031 0.22171410708933778
2940000000.0 0.061846005482422854 -0.30419733386246667
2960000000.0 -0.2723035990975721 -0.15956856620142384
2980000000.0 -0.3129061358664931 -0.03843655020350467
3000000000.0 -0.3143619029806643 -0.0005505350458118799
3020000000.0 0.20601796150384227 0.24141590406283706
3040000000.0 0.24843327356222825 0.20067013622485874
3060000000.0 0.10579701208049011 0.2962716455219262
3080000000.0 0.2670999602054382 -0.14677121880587357
3100000000.0 -0.06976303252447913 0.28672364842746173
3120000000.0 -0.2550883747298103 -0.12975651778883734
3140000000.0 -0.15580326094318792 0.22686673294886928
3160000000.0 -0.008748676384510745 -0.2626251402259977
3180000000.0 -0.15421385216536537 0.1942333352244657
3200000000.0 0.20804187287307085 -0.10665150137693735
3220000000.0 0.09174037152704251 -0.1881874693759145
3240000000.0 -0.07653289122478323 -0.1609563674521125
3260000000.0 0.13072120150443275 -0.06937196335560385
3280000000.0 0.09504636342364384 0.04398047762347059
3300000000.0 -0.017387425634814716 -0.06953854022238111
3320000000.0 -0.01642594233127597 -0.042158355722900914
3340000000.0 0.021615305540093367 -0.010418476890573323
3360000000.0 -0.006585743903613109 0.006761373297499249
3380000000.0 0.0008739016749895084 0.0011616316173578556
3400000000.0 -0.01443479942810337 0.0012549289350641895
3420000000.0 -0.004092817057892928 0.03081939917869023
3440000000.0 0.04116040692236983 -0.018763720294312714
3460000000.0 0.04413792219622316 0.04066776933217595
3480000000.0 -0.0650619527775419 0.03610530638119987
3500000000.0 0.045189283555627555 0.07401662244914964
3520000000.0 0.0707190555172442 0.07354959106552303
3540000000.0 -0.03539470509961561 0.10903603806083505
3560000000.0 0.09798067057947712 -0.06717709940018905
3580000000.0 -0.004137443651953992 -0.13116187164237045
3600000000.0 0.09428654722729667 0.11756288224224004
3620000000.0 -0.039020797670738024 -0.15758981911031145
3640000000.0 -0.1522998544474514 -0.09828151815836675
3660000000.0 -0.18431245144534086 -0.05187371155897938
3680000000.0 -0.0015337250253396727 -0.19421959146960938
3700000000.0 -0.18708072713101495 -0.05264899153211222
3720000000.0 -0.10396038964510233 -0.16020847408257607
3740000000.0 0.1813893280308333 -0.02423510053511908
3760000000.0 -0.026524602031952043 -0.1765509954922097
3780000000.0 0.024214837610704348 0.17198638059549862
3800000000.0 0.0723155680523726 -0.15153019607403634
3820000000.0 -0.15813490389842563 -0.004462895528302671
3840000000.0 -0.14370761901639675 -0.03545518194363371
3860000000.0 -0.051869175747108226 -0.13487364686969575
3880000000.0 0.14296609268171764 -0.027500987240792196
3900000000.0 0.05791463168400479 0.13772414226100121
3920000000.0 0.1411528117315903 0.06289543201689739
3940000000.0 -0.1640693708761612 0.0368321147051327
3960000000.0 -0.13823938894441565 0.1083011998404319
3980000000.0 -0.04040404953768934 0.16833558956042446
4000000000.0 0.16387126667201823 0.021514740856987964
