!Created with skrf (http://scikit-rf.org).
# Hz S RI R 50.0 
!freq ReS11 ImS11
400000000.0 0.5619853195874356 0.6661209540121231
420000000.0 0.8109942146605263 -0.2367535149614602
440000000.0 0.6495617162802583 -0.4609300156285656
460000000.0 0.7345134058457343 0.04297855763821332
480000000.0 0.16957349047851178 -0.6570991464072947
500000000.0 -0.35531238855662156 0.4844054669885732
520000000.0 -0.13619313656072346 0.4925994415650523
540000000.0 -0.13932998398692392 -0.4163836032826467
560000000.0 -0.08105537610140219 0.39380716744244953
580000000.0 -0.3487440793922908 -0.1061877731338625
600000000.0 0.33450119588211 -0.11946884545182529
620000000.0 -0.10619792270731523 -0.3394278151259325
640000000.0 0.4052178982470749 -0.08622056386287841
660000000.0 0.39797805863544655 0.12104863129936876
680000000.0 -0.2998813276910261 -0.32488747809166946
700000000.0 0.16082344846405483 0.43260510571745475
720000000.0 -0.32932048054041035 0.3308911250091609
740000000.0 0.19469430350664174 0.37851170581013927
760000000.0 -0.39680802344161176 -0.015329267430018983
780000000.0 -0.2588536732604578 -0.2636770972381825
800000000.0 0.02984710651007716 -0.33382290902688566
820000000.0 -0.2274744646393315 0.17319050100743866
840000000.0 -0.09134540271675476 -0.194817984713886
860000000.0 -0.16876994487461686 -0.05671565470905404
880000000.0 -0.08033780604753231 0.12388745264539149
900000000.0 -0.054000260692832695 -0.08353297670150749
920000000.0 -0.04603517298231726 -0.0322340911663109
940000000.0 0.0020763622639795878 0.035755278073629104
960000000.0 0.03233791925951926 -0.023828785236275622
980000000.0 0.03673886112523297 0.051103478698666875
1000000000.0 -0.03584737578573601 -0.0946694456709351
1020000000.0 -0.12386006094745446 -0.0070318954536586825
1040000000.0 0.13396364412996228 0.00046661235522966446
1060000000.0 -0.051214409904807044 -0.14860142160129908
1080000000.0 0.008859509304580595 0.1771340918131696
1100000000.0 0.14282568692530345 -0.13984674228325192
1120000000.0 0.03327065551092741 0.22212176277303067
1140000000.0 -0.17811451118981209 -0.1794743358209314
1160000000.0 -0.1305624124979436 -0.24879201315954408
1180000000.0 0.05145910065283008 -0.30909797833511965
1200000000.0 0.336319002602473 0.09615248035374069
1220000000.0 -0.3757524271597653 -0.020634804165005228
1240000000.0 0.3705471721206768 -0.1364925917673902
1260000000.0 -0.36443166871654564 -0.1802877305317423
1280000000.0 -0.42403513398294373 0.017196773648306907
1300000000.0 0.35790808645987837 0.24514973410946234
1320000000.0 0.4237169886583208 -0.09752974879060285
1340000000.0 0.40235845735635845 0.1724667237584642
1360000000.0 0.4307373088864701 -0.09017982830835036
1380000000.0 -0.009634522099786423 -0.42959994282045944
1400000000.0 0.08462576340298562 -0.4115534687810274
1420000000.0 -0.39808737903818053 0.08561933444066003
1440000000.0 0.317090212506231 0.21904071223138205
1460000000.0 0.19424172737137896 -0.29843845993988694
1480000000.0 -0.20994689102990743 0.24407982127936304
1500000000.0 0.2793432658588058 -0.03947136617230984
1520000000.0 0.1335022161702358 0.20601553933489022
1540000000.0 0.15450262122744132 0.1511314113093279
1560000000.0 -0.17314599512962967 -0.07432021469507746
1580000000.0 0.09443351752267885 -0.1415407418303782
1600000000.0 -0.03748436311588634 -0.13526566296374526
1620000000.0 0.06696485230207166 0.08255919508379088
1640000000.0 -0.07698002504432964 0.026958872088795955
1660000000.0 0.06080038789502466 -0.027305556110430448
1680000000.0 -0.039801817280443096 -0.015798084228062437
1700000000.0 0.014431802002664805 0.01601168376932167
1720000000.0 -0.0030380410985905598 0.007523855858817164
1740000000.0 0.010646659770150236 0.0009666671122020479
1760000000.0 0.012182352248008215 -0.022631707688655404
1780000000.0 -0.032803643311770596 0.03721421791151731
1800000000.0 -0.0752774654767461 -0.0572566297893263
1820000000.0 0.10026922411880543 0.08028187478013213
1840000000.0 -0.09148968644544014 0.1404759164757372
1860000000.0 0.15882949170059446 0.13075731128727755
1880000000.0 0.15520801501953413 -0.18252602803577034
1900000000.0 -0.25248135308588715 -0.11484093294470918
1920000000.0 0.12281245158882903 -0.2900844516168182
1940000000.0 -0.26324414981203 -0.21028225819848728
1960000000.0 -0.3287750850894958 -0.15869112745346192
1980000000.0 0.2820871055576048 0.28344817726866384
2000000000.0 0.1640721469493308 -0.3891508970761268
2020000000.0 -0.29733914115565935 -0.31408557940626547
2040000000.0 0.16102944424960555 0.4071394972683008
2060000000.0 0.3454500392666615 0.2672316364789222
2080000000.0 0.4225474960903418 0.08884744561731506
2100000000.0 -0.06957428635529522 -0.4178841128041443
2120000000.0 -0.09342951480621538 -0.4006928082357671
2140000000.0 0.19355267972873952 -0.3451646568832358
2160000000.0 0.3753124045609413 -0.07779511681786101
2180000000.0 0.3715912872343165 -0.03718028361024347
2200000000.0 0.35048309552599494 -0.09898760524285216
2220000000.0 -0.31642708007475445 -0.160677447332176
2240000000.0 -0.29791140785104514 -0.180873544362169
2260000000.0 -0.3459574813069822 0.008080563306979142
2280000000.0 0.23227039380766423 0.25720188278036454
2300000000.0 0.21266404229922473 0.2812436004808065
2320000000.0 0.12789463876382426 0.35195738055911296
2340000000.0 0.08744957869559333 -0.39997847526454144
2360000000.0 -0.35865756647963093 -0.2713153571797965
2380000000.0 0.01271860847973817 0.49991864904496824
2400000000.0 -0.5217304549042966 0.20181089190026022
2420000000.0 0.5547575353799165 -0.2547240188218435
2440000000.0 -0.5459367791992398 0.36408685255328366
2460000000.0 -0.6651216071627835 -0.21789894957099565
2480000000.0 0.6537506837577808 0.3284742805167718
2500000000.0 -0.3919193502453952 -0.6431528092643823
2520000000.0 0.697804865253705 -0.316203852628215
2540000000.0 -0.6148940158031552 -0.46453885258107264
2560000000.0 -0.3711627991471889 0.6720614017412821
2580000000.0 -0.1167436477123884 -0.7446886636095751
2600000000.0 -0.7256629094872936 0.10334874036993663
2620000000.0 0.10498580127052158 0.6996337209266686
2640000000.0 0.5004520745861072 -0.446470988038935
2660000000.0 -0.5227749357679637 -0.3533038844619625
2680000000.0 -0.15473773827522783 0.5649977277898044
2700000000.0 -0.32189010596846596 -0.4258287303788296
2720000000.0 -0.06846752066568644 0.48173043977955476
2740000000.0 0.4058896665833562 -0.16043397125186526
2760000000.0 -0.3109853430853683 0.23950647369013459
2780000000.0 0.3561329737151166 0.055022099172659926
2800000000.0 -0.23846922368734022 -0.23624042658670794
2820000000.0 0.20289129892321267 -0.24107407033928424
2840000000.0 -0.09153915300113781 0.2929834395942
2860000000.0 -0.0834611469612846 -0.28726277173276304
2880000000.0 0.16841554677087928 -0.2416283716474391
2900000000.0 -0.2761536717027969 -0.10069242269322791
2920000000.0 -0.15824613891483977 0.25506418400660774
2940000000.0 -0.003353148531280043 -0.3100408619121734
2960000000.0 -0.2776212442193143 -0.150454213438157
2980000000.0 -0.3054644132831941 -0.07773487597622512
3000000000.0 -0.29942513526636916 -0.09436870397433621
3020000000.0 0.22091159922452197 0.22819910213711864
3040000000.0 0.1859157952847922 0.2604862875825185
3060000000.0 0.08912331975175926 0.30217929467532856
3080000000.0 0.27287939069085115 -0.1368209984481523
3100000000.0 -0.06399664728436155 0.2886866502047267
3120000000.0 -0.22079515613940198 -0.1814957043952979
3140000000.0 -0.17316243642547605 0.21381724288927692
3160000000.0 0.02939703618922142 -0.2604889761771271
3180000000.0 -0.17634478384354113 0.1731056032321794
3200000000.0 0.21136061248645024 -0.0995290288463908
3220000000.0 0.11287089397524971 -0.1759602116626408
3240000000.0 -0.08379810189222373 -0.1564290371957815
3260000000.0 0.13311786372013207 -0.06266843039552114
3280000000.0 0.05591291642782252 0.08732464667459981
3300000000.0 -0.003840021380115077 -0.07000663274260017
3320000000.0 -0.0038277086123388857 -0.043839270791863866
3340000000.0 0.0010949052615172544 0.02297495682664862
3360000000.0 -0.0028640856988336335 0.008125633505413324
3380000000.0 -0.0013405701226636311 0.0004947178847988516
3400000000.0 -0.005060936646104003 -0.014436828662866079
3420000000.0 0.00623726105162402 0.031222032219586013
3440000000.0 0.04309503482850126 0.015617976932308745
3460000000.0 0.03491969382438899 0.049471743974057736
3480000000.0 -0.07501138150631398 -0.0055049490602864385
3500000000.0 0.042050676382018946 0.07686620350522042
3520000000.0 0.07834893456237148 0.0662478556643684
3540000000.0 -0.06813017125332552 0.0933262150009058
3560000000.0 0.11372250204110432 -0.03461926098166777
3580000000.0 0.05132746775752916 -0.12033481370392173
3600000000.0 0.025323935855079624 0.14823679195411918
3620000000.0 0.027199697602790746 -0.15938873793579444
3640000000.0 -0.10280421580553839 -0.14781233562853394
3660000000.0 -0.15038293379006637 -0.11735561925287365
3680000000.0 0.033421838853699946 -0.19038169669328642
3700000000.0 -0.16208250417343975 -0.10751779535748097
3720000000.0 -0.08745805244154028 -0.16958004192432177
3740000000.0 0.1824645088445585 -0.012351095343414395
3760000000.0 -0.014874113341209009 -0.1777489870522876
3780000000.0 -0.0015209975524061628 0.17359757331194206
3800000000.0 0.019664626670611182 -0.16593644757888434
3820000000.0 -0.15357521847344502 0.03417565847052581
3840000000.0 -0.14733027684354497 0.0004626388646957929
3860000000.0 -0.03566294950382615 -0.13964319041146928
3880000000.0 0.1406540160337567 -0.03703716894168567
3900000000.0 0.041082482777596054 0.14390358091509553
3920000000.0 0.13399900531602776 0.07615552026599305
3940000000.0 -0.15916240257980502 0.052284102363148593
3960000000.0 -0.14287622358330265 0.10196615194024078
3980000000.0 -0.08249853128463473 0.1535739644496944
4000000000.0 0.14023413626233622 0.09034468974895958
