!Created with skrf (http://scikit-rf.org).
# Hz S RI R 50.0 
!freq ReS11 ImS11
400000000.0 0.5733611407537462 0.6580064426738812
420000000.0 0.8093622134626329 -0.24458303304583875
440000000.0 0.6556095533797577 -0.4534056211250892
460000000.0 0.7315267274899083 0.0833946367012053
480000000.0 0.1621644922886949 -0.6587429669262077
500000000.0 -0.36698680137659606 0.47509110543502603
520000000.0 -0.15041954108814756 0.4887914778647023
540000000.0 -0.11272736439201271 -0.42454581751682136
560000000.0 -0.09052863837316813 0.39196429767541374
580000000.0 -0.3416831407111239 -0.1292733301086319
600000000.0 0.32691384011771035 -0.1426533519399205
620000000.0 -0.16537555941890164 -0.3165334528932167
640000000.0 0.39210031804741313 -0.1320533447346284
660000000.0 0.39155464520142763 0.13594145033074967
680000000.0 -0.2706372869708797 -0.3496182057884117
700000000.0 0.14234136041625808 0.4396761431812968
720000000.0 -0.301560232779213 0.3574355575363622
740000000.0 0.2120341551530434 0.36883590869162436
760000000.0 -0.39288296221530755 -0.04884376640154444
780000000.0 -0.21440258620620609 -0.30110088262546
800000000.0 0.050375696710066815 -0.3325796553504734
820000000.0 -0.2095996144404935 0.19548332797044332
840000000.0 -0.1512597781119784 -0.15187225871437643
860000000.0 -0.1769374350174951 -0.006567010573298365
880000000.0 -0.0584518056587789 0.13475112600157618
900000000.0 -0.06127797851699269 -0.07861011542122344
920000000.0 -0.04692657504246126 -0.03307231555993013
940000000.0 -0.02685767561917655 0.025815049033459474
960000000.0 0.03457864140164243 -0.020746982127114375
980000000.0 0.05871921989293607 0.02306273206273497
1000000000.0 -0.05094466037112446 -0.08721413172311199
1020000000.0 -0.12374612282356358 0.009113473916747451
1040000000.0 0.12935102928605482 -0.03431559805580644
1060000000.0 -0.06116239851231572 -0.14465970687097804
1080000000.0 0.025079614555560688 0.17520980929781638
1100000000.0 0.12742565838945433 -0.15358306698128077
1120000000.0 0.0060441264670216535 0.2240510985475218
1140000000.0 -0.14676104688537064 -0.2053954919484468
1160000000.0 -0.10357026859500436 -0.261127082767248
1180000000.0 0.04574253392185236 -0.3109065785653887
1200000000.0 0.3476201625359671 0.044007922586218766
1220000000.0 -0.3742169279511207 0.035844924201144185
1240000000.0 0.34673700835827315 -0.187599872831357
1260000000.0 -0.373679261841542 -0.1595022495193549
1280000000.0 -0.4232866875568089 0.020442435710862718
1300000000.0 0.36824045211972295 0.22831113747503282
1320000000.0 0.42141535985029904 -0.1053190606495811
1340000000.0 0.38644189154890674 0.20503333581102587
1360000000.0 0.43578955874249903 -0.06107868057764238
1380000000.0 -0.019471071986481625 -0.4295919418366914
1400000000.0 0.05590488636700975 -0.41651038863539663
1420000000.0 -0.3908835568188546 0.11339765310357391
1440000000.0 0.3286908453395444 0.19962803718056965
1460000000.0 0.20015878577098026 -0.2938374184516108
1480000000.0 -0.24220172900951323 0.21228874196450254
1500000000.0 0.27641631210501866 -0.05645345876423183
1520000000.0 0.13969400474128107 0.2019617573125555
1540000000.0 0.17237172116788235 0.12997497995548785
1560000000.0 -0.17707302834275435 -0.06526018355022553
1580000000.0 0.05374994171005789 -0.1616554749756558
1600000000.0 -0.09364036841792417 -0.10387338650377656
1620000000.0 0.08097690908626386 0.06726923577314493
1640000000.0 -0.07501435780147858 0.031618405908204625
1660000000.0 0.061021727555638686 -0.027487500565193015
1680000000.0 -0.028767409225961073 -0.03241612962049954
1700000000.0 -0.001267915746069374 0.02178196621234939
1720000000.0 -0.0074367274247093065 0.0038952083624036052
1740000000.0 0.009332204165728665 -0.004594276365450617
1760000000.0 0.012350627843477542 -0.022804714292608958
1780000000.0 0.010709218793204427 0.04885295935187219
1800000000.0 -0.09527765427920994 -0.002806644146787579
1820000000.0 0.12834823956041758 0.015074630176269
1840000000.0 -0.04392272097106843 0.1618668149087005
1860000000.0 0.17086734016928717 0.11443388811865177
1880000000.0 0.1372524950664317 -0.19604132324784151
1900000000.0 -0.2595523823104897 -0.09834046947396967
1920000000.0 0.1307239941566822 -0.28713302951159236
1940000000.0 -0.2527909455943248 -0.22316601054740398
1960000000.0 -0.32124727713721685 -0.17402101639327866
1980000000.0 0.28370075884093426 0.2818965160178027
2000000000.0 0.1729312976999037 -0.3851032299521213
2020000000.0 -0.2621944104037531 -0.34369238604158264
2040000000.0 0.09449624499878204 0.4274780417630702
2060000000.0 0.3499118556385281 0.2612543048576883
2080000000.0 0.41611685908944096 0.11587795888903235
2100000000.0 -0.09048251314459692 -0.41344600654623154
2120000000.0 -0.09772112603697708 -0.39899168587591105
2140000000.0 0.19338143334423222 -0.3441991151845955
2160000000.0 0.3776157145212653 -0.06113305832459492
2180000000.0 0.3726061930531251 0.009969112022328797
2200000000.0 0.3494278266672547 -0.0981817721092938
2220000000.0 -0.321491623856369 -0.14608760858561642
2240000000.0 -0.32599898098770674 -0.12049322369736723
2260000000.0 -0.3265238550074518 0.11297533105764546
2280000000.0 0.2889316911324449 0.18995154734175262
2300000000.0 0.2720762644285688 0.22292846659513865
2320000000.0 0.19105414711907082 0.3220232337716995
2340000000.0 -0.002202305207226001 -0.4095745913072075
2360000000.0 -0.4085309450321615 -0.1882830168380699
2380000000.0 0.09255257039710339 0.4916655473942259
2400000000.0 -0.4763515207982219 0.2941625445211017
2420000000.0 0.4976535560432121 -0.3538269239048427
2440000000.0 -0.500652688215779 0.42472802571472945
2460000000.0 -0.6869101075374154 -0.134010504614575
2480000000.0 0.6933657069609187 0.2341691955657647
2500000000.0 -0.41800675549566524 -0.6271270847072145
2520000000.0 0.7034674284362222 -0.30416983717864304
2540000000.0 -0.6338246694442504 -0.43698721329053725
2560000000.0 -0.3244621358804314 0.6944348072440065
2580000000.0 -0.12858380672638153 -0.7410189742566137
2600000000.0 -0.7253312767972638 0.0906258100740907
2620000000.0 0.09437659725077253 0.6981139046933345
2640000000.0 0.40960985463249977 -0.5270448588155542
2660000000.0 -0.5267547270132422 -0.34170201993338295
2680000000.0 -0.10804162447560568 0.573112832620531
2700000000.0 -0.3413963174846114 -0.40712006089152497
2720000000.0 -0.05691562173140754 0.4805753914943333
2740000000.0 0.403116398659996 -0.16178536700413246
2760000000.0 -0.285129061003156 0.267273878016623
2780000000.0 0.3593844825656565 0.002682084664137438
2800000000.0 -0.26536605657715245 -0.20408842545108338
2820000000.0 0.15556453893352198 -0.2727776653781724
2840000000.0 -0.055030851520186386 0.3009767117772963
2860000000.0 -0.10024501638566484 -0.2814744251794733
2880000000.0 0.17506113975184726 -0.2364516411186946
2900000000.0 -0.2710347555894482 -0.11262329426790353
2920000000.0 -0.2080510873848846 0.21640002192453375
2940000000.0 0.07361090025073408 -0.3014532078018333
2960000000.0 -0.26717961745647434 -0.16761578373973976
2980000000.0 -0.31121812858779524 -0.04810646946570037
3000000000.0 -0.30821099673388336 -0.05651059272615252
3020000000.0 0.17793337542458018 0.2617454124684819
3040000000.0 0.19074438435505103 0.25475380964902317
3060000000.0 0.10304550278923191 0.2962745727719005
3080000000.0 0.2514902674717913 -0.17109368033856653
3100000000.0 -0.051792763492664325 0.2901174833006538
3120000000.0 -0.2727655737270865 -0.08670649443985493
3140000000.0 -0.1381687148069556 0.23763314779846983
3160000000.0 -0.03847823372427736 -0.25984467161260705
3180000000.0 -0.12342714065870741 0.21552222014759798
3200000000.0 0.18374029024241165 -0.14443897784327664
3220000000.0 0.1016663426406351 -0.18330976790230857
3240000000.0 -0.042829345843571405 -0.17339804474540452
3260000000.0 0.1452950657421805 -0.026463717846025653
3280000000.0 0.05934142555319104 0.08633580245048718
3300000000.0 0.04525024624009876 -0.05545282154037293
3320000000.0 0.04244158403727577 -0.015474056079445882
3340000000.0 -0.014003315035276343 0.019562446881970893
3360000000.0 -0.0045109412059185505 0.008816740905110271
3380000000.0 -0.0003174728585825927 0.0017646285451848782
3400000000.0 0.0058757848369969355 -0.012004168824928527
3420000000.0 0.03067470865510478 -0.001753897470488066
3440000000.0 0.03553222756535714 -0.02787508511538908
3460000000.0 0.050975998963599015 0.031605779417854814
3480000000.0 -0.07383604784999973 -0.0066937789088752754
3500000000.0 0.03793822124381659 0.07812950690686316
3520000000.0 0.1019281207687597 0.01625307850999452
3540000000.0 -0.02664725635774213 0.1124333019441374
3560000000.0 0.07552604549137856 -0.09240620368480174
3580000000.0 -0.032312516075968724 -0.12735785722519968
3600000000.0 0.12579086956992083 0.0830165927422831
3620000000.0 -0.046287499519518716 -0.15573929543468318
3640000000.0 -0.13992364680260827 -0.1137198060149373
3660000000.0 -0.17698709823568476 -0.07115640221885729
3680000000.0 -0.012682369651871323 -0.19338103555329778
3700000000.0 -0.18392954681242352 -0.06265493252654902
3720000000.0 -0.11981533192226762 -0.1493490355694708
3740000000.0 0.1824865733538254 -0.021654548988992644
3760000000.0 -0.06046999259263632 -0.16827681518351564
3780000000.0 0.045040225757511335 0.1687177182606495
3800000000.0 0.01809418642442142 -0.16666236646509844
3820000000.0 -0.1568524282094748 0.01939172559620017
3840000000.0 -0.1471355414921212 0.015993092601291146
3860000000.0 -0.07168809741844652 -0.1249616910707434
3880000000.0 0.10522239170371933 -0.10073866991721411
3900000000.0 0.09128213705304768 0.11881428282433246
3920000000.0 0.15149537293686893 0.03199043539698723
3940000000.0 -0.13624481835433358 0.09834191939101634
3960000000.0 -0.10676024823676855 0.14060287933753723
3980000000.0 -0.03430827006333928 0.17194333878348808
4000000000.0 0.16303122482724633 0.04295483389211696
