!Created with skrf (http://scikit-rf.org).
# Hz S RI R 50.0 
!freq ReS11 ImS11
400000000.0 0.5942509787374323 0.637467153601987
420000000.0 0.7864993363254926 -0.3089325404090222
440000000.0 0.6119228018296266 -0.5113344161850049
460000000.0 0.7343750494184608 0.058419559840363004
480000000.0 0.1712612681327853 -0.6570096275501912
500000000.0 -0.3588442519691629 0.4821330107647267
520000000.0 -0.14216912277778784 0.4913301579842482
540000000.0 -0.12722711880582896 -0.42054661130335996
560000000.0 -0.076456264735895 0.39502520419826553
580000000.0 -0.3486399027407547 -0.10621239959865947
600000000.0 0.31653640580317893 -0.1626306517448532
620000000.0 -0.14519570939418028 -0.32502479873195217
640000000.0 0.4026666380769748 -0.09769142642543127
660000000.0 0.3999375161751182 0.11255420903837547
680000000.0 -0.3017239761514602 -0.3233946498750813
700000000.0 0.14601368036681348 0.43867664430564746
720000000.0 -0.32754295447299125 0.33396597891171426
740000000.0 0.16134048584353622 0.3940620659810571
760000000.0 -0.39393131920054264 -0.04606143563648833
780000000.0 -0.23235363766855663 -0.2869135708250797
800000000.0 0.0425271025822592 -0.33262942177276383
820000000.0 -0.24258675711158373 0.1513277886618751
840000000.0 -0.04152915410467197 -0.21034962544589395
860000000.0 -0.15291281663633824 -0.08930589639123752
880000000.0 -0.07296806650117753 0.12757875999535134
900000000.0 -0.06499142088241039 -0.07491688818375786
920000000.0 -0.045887207793214965 -0.03392708036671448
940000000.0 -0.025666486427407265 0.026809251206799296
960000000.0 0.03992188287530883 -0.004043802932262682
980000000.0 0.04036036169568306 0.04772697198309795
1000000000.0 -0.05411564564045293 -0.08519361316031723
1020000000.0 -0.12409117285890295 0.0008848955224754006
1040000000.0 0.13305378748245345 -0.014332368754406391
1060000000.0 -0.05838523960816909 -0.14553009208321582
1080000000.0 0.02818705196889178 0.17461856254833075
1100000000.0 0.1129086544580272 -0.16511626669854584
1120000000.0 0.013452921878526506 0.22409745479544485
1140000000.0 -0.17763749363099351 -0.17978403967846493
1160000000.0 -0.12174312561591684 -0.2528370179383523
1180000000.0 0.04686131243812816 -0.3102143865360582
1200000000.0 0.34740655449052527 0.04265109783557047
1220000000.0 -0.37643483531576455 0.007292275360544384
1240000000.0 0.34877748957464627 -0.1854507792075409
1260000000.0 -0.366263516177885 -0.17718755314966322
1280000000.0 -0.4223737587765589 0.03688649661730577
1300000000.0 0.3584304216265548 0.24401906170239193
1320000000.0 0.4193174360616676 -0.11482884328390755
1340000000.0 0.39369688326307917 0.19071006395284207
1360000000.0 0.4318633147013373 -0.08321571793323317
1380000000.0 -0.01452347485396262 -0.42924088849905767
1400000000.0 0.08333629233258642 -0.4114062154938811
1420000000.0 -0.39317624248612226 0.10410574046205154
1440000000.0 0.31530810568151707 0.22049006033515156
1460000000.0 0.20739921079001145 -0.28909178061918256
1480000000.0 -0.20621674426761746 0.24730431386895918
1500000000.0 0.27813491260377804 -0.04217007317378793
1520000000.0 0.14000768383450873 0.2010293756044267
1540000000.0 0.16373718515421506 0.14020317708249905
1560000000.0 -0.17887517044103574 -0.05907073687252038
1580000000.0 0.05952215865352021 -0.1592317655276818
1600000000.0 -0.06991493974420636 -0.12158045654734569
1620000000.0 0.07623769118281025 0.07329397523808248
1640000000.0 -0.06753539857950677 0.0453301318458257
1660000000.0 0.05134882560486604 -0.041983808156657615
1680000000.0 -0.03658981127567821 -0.023417357354437517
1700000000.0 0.012958038771617018 0.017371203227398054
1720000000.0 0.00768254616553866 -0.0026850330428428303
1740000000.0 -0.0011204065439193132 0.01111076788554428
1760000000.0 0.023846189257873997 -0.011116984642645747
1780000000.0 -0.01850223188620704 0.04609766727410195
1800000000.0 -0.08486609258003411 -0.04202719582015001
1820000000.0 0.10270880476276614 0.07762528457780833
1840000000.0 -0.09415552143643027 0.13824152182013527
1860000000.0 0.1493557496580253 0.14140792231984414
1880000000.0 0.14707249383805396 -0.18877672865543255
1900000000.0 -0.26067048846380375 -0.09383483066834268
1920000000.0 0.12306130249853557 -0.2900711150333612
1940000000.0 -0.26255341668824306 -0.21121911346093877
1960000000.0 -0.3330536223812107 -0.1494515997991363
1980000000.0 0.2736260372596138 0.29191079406445897
2000000000.0 0.16691397277708367 -0.3878511533238797
2020000000.0 -0.29812432120834126 -0.31301628169684875
2040000000.0 0.0859260341978054 0.42916648873626195
2060000000.0 0.33836352061628366 0.2763478839935322
2080000000.0 0.4145311558507203 0.12132105787211381
2100000000.0 -0.05823459877190517 -0.4197187866324609
2120000000.0 -0.06978980197604918 -0.40525417119440243
2140000000.0 0.2077916127559441 -0.3360631514318585
2160000000.0 0.374793043732706 -0.07802231507576485
2180000000.0 0.37209123108593667 -0.02762025347156145
2200000000.0 0.3350264213454049 -0.14200621768937705
2220000000.0 -0.31762178452504997 -0.1579998273238853
2240000000.0 -0.3164520423880918 -0.1461332272489654
2260000000.0 -0.3395314259290247 0.065989227168513
2280000000.0 0.2527883111342037 0.23747537905247437
2300000000.0 0.21699138402866483 0.2776418181922007
2320000000.0 0.1290257606585292 0.35186922619953365
2340000000.0 0.07707322914626666 -0.40225327490186413
2360000000.0 -0.371492381185356 -0.2537522804402705
2380000000.0 0.02408653879596612 0.4996291117405947
2400000000.0 -0.5005977510918809 0.25017472050569056
2420000000.0 0.5303546280333314 -0.3021862088595199
2440000000.0 -0.5275784597704357 0.3905259806198864
2460000000.0 -0.6771468190583672 -0.176385456029057
2480000000.0 0.6748926081100711 0.2814880171204459
2500000000.0 -0.39603107728070364 -0.6398804258285349
2520000000.0 0.7111366522850977 -0.28535568330486055
2540000000.0 -0.6065644475353601 -0.47488491248707965
2560000000.0 -0.32863862779953035 0.6929223993406907
2580000000.0 -0.13609731992450813 -0.7402404296923186
2600000000.0 -0.7239745851882037 0.10821110394072604
2620000000.0 0.16068193212017012 0.687401031311337
2640000000.0 0.4175643853890884 -0.5221689865799993
2660000000.0 -0.531025738382257 -0.33787026659460107
2680000000.0 -0.1105023187567914 0.5740250637639386
2700000000.0 -0.36617093596113626 -0.3872049161066047
2720000000.0 -0.049203185146709794 0.4832252663039329
2740000000.0 0.3899343488660369 -0.19446045543516205
2760000000.0 -0.29644399113956127 0.2566086664736908
2780000000.0 0.35758945546139687 0.044596280097284675
2800000000.0 -0.23916576994978642 -0.23494606606894322
2820000000.0 0.2044016642571084 -0.23945684278627122
2840000000.0 -0.09117798197718306 0.2928323751829805
2860000000.0 -0.06708255040126737 -0.2916549836582783
2880000000.0 0.18939399928710063 -0.22521450047025834
2900000000.0 -0.2702874091040735 -0.11368203457700342
2920000000.0 -0.2057407230880563 0.21822337219996316
2940000000.0 0.06327290057976077 -0.3036083577674001
2960000000.0 -0.2595999316463767 -0.17858397400494533
2980000000.0 -0.2955324985271993 -0.10770158072414009
3000000000.0 -0.3112314059334182 -0.03378324369939725
3020000000.0 0.20411484154318377 0.24226912529705935
3040000000.0 0.21578585447472765 0.2339548540035798
3060000000.0 0.10952436050757712 0.29381891324610304
3080000000.0 0.25195468938278287 -0.17050672708045056
3100000000.0 0.01470056140913821 0.29434779942078926
3120000000.0 -0.28336206109123546 -0.04327484094617393
3140000000.0 -0.13086029408698618 0.2419512831494637
3160000000.0 -0.007479643831557551 -0.2625110483110605
3180000000.0 -0.12977577451720806 0.2119584345546449
3200000000.0 0.20118126325869967 -0.12037889876914502
3220000000.0 0.08716975574544227 -0.19131769542749694
3240000000.0 -0.08729979709694433 -0.15554929332086226
3260000000.0 0.13597129176409417 -0.05818538752492639
3280000000.0 0.04510287634808365 0.09399892667935716
3300000000.0 -0.03157309041759688 -0.06393257229227446
3320000000.0 -0.025975134839646256 -0.03588571558455014
3340000000.0 0.017704305886481267 0.015343460682271801
3360000000.0 0.0021548056482190233 -0.0083152743048094
3380000000.0 -0.001706540083551483 0.0011265808737868253
3400000000.0 0.010332907946087554 0.0109643712509328
3420000000.0 0.025872968143161496 0.01877901485739771
3440000000.0 0.04184757937185469 0.019546368044694628
3460000000.0 0.04898042400030351 0.036640992097166494
3480000000.0 -0.0751846128043561 0.0023448218441970287
3500000000.0 0.006208633783577707 0.08760478979892788
3520000000.0 0.07077110642503653 0.07470683177651984
3540000000.0 -0.08232535286651287 0.08112559144446028
3560000000.0 0.11808189533238404 -0.017116752800571098
3580000000.0 0.04094726656884233 -0.12456945538829203
3600000000.0 0.07811394910547062 0.12871102990822236
3620000000.0 0.030985744437527878 -0.15863068717724121
3640000000.0 -0.10397956531989935 -0.14754113421838808
3660000000.0 -0.17135563576569757 -0.08352201753433344
3680000000.0 -0.011929605235861881 -0.1928924573843357
3700000000.0 -0.18102713276661456 -0.06854668227238594
3720000000.0 -0.11449845751131311 -0.15203059089883109
3740000000.0 0.17976469624520883 -0.03336707772742091
3760000000.0 -0.04684396736290824 -0.1714783149567944
3780000000.0 0.050053829919936 0.16621497520342665
3800000000.0 0.010906979398283237 -0.166624118126912
3820000000.0 -0.13802763361285014 0.0752325549517203
3840000000.0 -0.14742980233919936 0.01152722366151564
3860000000.0 -0.05493579755006235 -0.1332436850283229
3880000000.0 0.1259234115244571 -0.07235274155272087
3900000000.0 0.08200199494693501 0.12460406688058517
3920000000.0 0.1459078187871704 0.04895038002895679
3940000000.0 -0.14006102524163477 0.09081764722405837
3960000000.0 -0.10760078719905904 0.13850502895063924
3980000000.0 -0.007915080137165348 0.17330952120892001
4000000000.0 0.16529502882317176 0.015664939495402205
