!Created with skrf (http://scikit-rf.org).
# Hz S RI R 50.0 
!freq ReS11 ImS11
400000000.0 -0.5327462894011054 0.6911752130228119
420000000.0 0.6721848521589602 0.55701571460199
440000000.0 0.20625252676960326 -0.8195664454641272
460000000.0 -0.7735174346353672 -0.17141407520880453
480000000.0 -0.2875019149693323 -0.6572561926197247
500000000.0 -0.40908805426127004 0.39248615800161746
520000000.0 0.16107243302128244 0.436131994726038
540000000.0 0.3262866463573384 0.22151635187401486
560000000.0 -0.2762490515230577 0.21754001745403895
580000000.0 0.09944960165807419 -0.3068264892560339
600000000.0 -0.09730874443708334 -0.30559436201044266
620000000.0 -0.046808875239192416 0.3291878726941189
640000000.0 -0.15168240783607648 0.3259379427320736
660000000.0 -0.10496313802056036 0.36195172698628
680000000.0 0.17385873180968411 -0.3676871920679046
700000000.0 -0.31083985052807833 -0.2881256985216093
720000000.0 -0.3597459058351409 0.25616116334604666
740000000.0 -0.4474593312358231 -0.023944409309005182
760000000.0 0.4220082995713217 -0.09128562510025069
780000000.0 0.24994968221429906 0.3143880535540689
800000000.0 -0.2824722999242157 0.2355572462468714
820000000.0 0.06412993443890648 0.3033797299546043
840000000.0 -0.24959770961129538 0.02758178659060286
860000000.0 -0.10907917754703235 -0.16485869163200767
880000000.0 0.07649542837938451 0.12573883864509397
900000000.0 0.040704498470958424 -0.07862918414441511
920000000.0 0.04617565577263489 -0.014744205733622201
940000000.0 -0.02803255823330806 0.0196180774335842
960000000.0 0.03447137912725297 0.03042683594903299
980000000.0 0.04487479812986492 0.03351981481187535
1000000000.0 -0.03921041521190327 0.056076629579542306
1020000000.0 -0.05314812493471075 -0.06431835986998463
1040000000.0 0.092832945124222 -0.030366579612812732
1060000000.0 -0.12020020226021337 0.06711107485662283
1080000000.0 -0.153263543983108 -0.01695815654960376
1100000000.0 -0.17637676226178778 0.004157983000605536
1120000000.0 0.0012340299325558004 0.19612678763261304
1140000000.0 -0.1356836547641998 0.18795052280890073
1160000000.0 -0.10845154185652943 0.24414528443895606
1180000000.0 -0.31111157274486523 0.002777304165435995
1200000000.0 -0.2464181742133945 -0.24092691034921002
1220000000.0 0.3519476141829548 -0.14691582879478085
1240000000.0 -0.26425417572591364 0.30776594225523407
1260000000.0 0.09720021091266082 -0.4225205994222277
1280000000.0 -0.29140533959772197 0.33654550831514024
1300000000.0 0.26849839590405367 -0.3635637064729468
1320000000.0 -0.22680803944050004 -0.3836709273920459
1340000000.0 -0.33904171437739516 -0.27298553887871096
1360000000.0 0.04471817022401243 -0.4289491905083714
1380000000.0 -0.1252798091371329 -0.409318881131114
1400000000.0 -0.38089097834433905 0.1712464846539893
1420000000.0 0.06327368098144626 0.394225905682575
1440000000.0 0.37073435234287944 -0.0346428849008195
1460000000.0 0.197389422062953 -0.2763889114456023
1480000000.0 -0.014712628406207294 -0.3099290265450456
1500000000.0 -0.15201830661917248 -0.23605314794700516
1520000000.0 -0.23395422197101678 0.10239443695090496
1540000000.0 0.03680421539488077 0.22953550415262988
1560000000.0 -0.20002378463113724 0.04779839924417244
1580000000.0 -0.12572990956165617 -0.13483778733495358
1600000000.0 0.032815412611535505 0.14877523842654952
1620000000.0 0.06034284991040426 -0.10687506021347262
1640000000.0 -0.016088128259316 -0.09505540957277582
1660000000.0 0.05800771828596484 0.04672806531624669
1680000000.0 0.044268935284687665 0.021550837620800487
1700000000.0 0.02019044126169681 0.024081757494596095
1720000000.0 -0.00928019349362662 -0.018017040791346306
1740000000.0 -0.02335479191057583 -0.019245935843657167
1760000000.0 -0.03745552384698185 0.036161772833177536
1780000000.0 0.07137913630816195 -0.04230919098327535
1800000000.0 0.09770114810662693 0.0688246449247246
1820000000.0 0.14871784569552207 0.011793464234054155
1840000000.0 0.17247074128088355 0.061405167911629824
1860000000.0 -0.20296798652920095 0.05281102217833404
1880000000.0 0.22242695167680748 0.087328895128188
1900000000.0 0.02960597015431011 -0.2710258028602729
1920000000.0 -0.29573971375522473 0.05197503615131007
1940000000.0 -0.1797798467460958 0.27647081259744166
1960000000.0 0.03619015970314 0.3559373201281829
1980000000.0 0.3770357479262174 0.051542729056796
2000000000.0 0.40089469921209286 -0.05108036767039938
2020000000.0 0.06612871535345531 -0.4200586263820235
2040000000.0 -0.4047904347233481 -0.17085525162889015
2060000000.0 -0.10056730065371654 0.4336369502679676
2080000000.0 0.44237821100403824 -0.06055869548453886
2100000000.0 -0.0383694316109665 -0.43670150570834054
2120000000.0 -0.39556445145023456 -0.15333776725164977
2140000000.0 -0.30214805253485655 0.27520980174604737
2160000000.0 -0.38621941966460865 -0.026989347695402205
2180000000.0 -0.366600310361389 0.0229909148190343
2200000000.0 -0.2546483670867469 0.23821145093332144
2220000000.0 -0.3195835723845842 -0.0966688866644169
2240000000.0 -0.3001745448670267 -0.14299116919371363
2260000000.0 -0.2471896010577336 -0.22857721695647726
2280000000.0 -0.34737186629065697 -0.0020524399525563607
2300000000.0 0.015490979339777609 0.36191230531987445
2320000000.0 0.3769899671813138 -0.08344310497525627
2340000000.0 -0.16727664423403213 -0.38268010696477794
2360000000.0 -0.030814911285014953 0.4568208948145722
2380000000.0 0.20843582665562774 -0.45816109071939876
2400000000.0 -0.2739765149807101 0.4802776007446251
2420000000.0 0.15043504235402663 -0.5856125407596723
2440000000.0 0.23457502004644534 0.6113174398096793
2460000000.0 -0.6244085043801396 -0.3083493193069
2480000000.0 0.7295185642876302 0.02445561430975143
2500000000.0 -0.7430130273616592 0.11557585990951444
2520000000.0 0.7648328018723266 -0.020464644440615153
2540000000.0 -0.7180362261985844 -0.2739269997038238
2560000000.0 0.4687799808155902 0.6050218994561768
2580000000.0 0.15134426381946495 -0.737323765827929
2600000000.0 -0.5786048682833186 0.4463741434237033
2620000000.0 0.6986183108164322 0.06941557731947548
2640000000.0 0.5318902887817695 -0.4007447972155097
2660000000.0 -0.620753230111639 -0.027341497008777544
2680000000.0 0.46179393757522996 0.3402100374861691
2700000000.0 -0.10223940456715375 -0.5152682215373433
2720000000.0 -0.23248035117120253 0.41624919015694256
2740000000.0 0.42950131837104155 -0.04614681962081549
2760000000.0 -0.3533961278298891 -0.17354128362991875
2780000000.0 0.2798540058167428 0.23529024476063912
2800000000.0 -0.33295217747933037 -0.08449188221384252
2820000000.0 0.1439963408035374 -0.2955458638445485
2840000000.0 0.26060031499388014 0.18347882334960694
2860000000.0 -0.13237793333080558 0.28411649450394655
2880000000.0 -0.2877173212511514 -0.11205365284075992
2900000000.0 0.27882868049892184 -0.12197017002093154
2920000000.0 -0.29686838864041487 -0.050611809778578466
2940000000.0 -0.16187213816243023 0.25241961913482097
2960000000.0 -0.1697944557931211 0.2477688743128069
2980000000.0 -0.30421818103801096 0.014790638709425707
3000000000.0 -0.06314690291704858 -0.30163967961286636
3020000000.0 0.2675677488491078 -0.16500291907256698
3040000000.0 -0.015636594713132026 0.31398554648279653
3060000000.0 -0.2404412379945287 -0.20413729698247693
3080000000.0 0.3125078290372656 -0.008793338185341707
3100000000.0 -0.1981096249776872 0.2373968961802823
3120000000.0 -0.15296632409762598 -0.26216103239612143
3140000000.0 0.20701731720412575 -0.2054348637305132
3160000000.0 -0.24388672544755272 0.11901796482795278
3180000000.0 -0.06886517975408753 -0.240854262964473
3200000000.0 0.2212928961050191 0.0011137435487129468
3220000000.0 -0.16736779444641886 0.0909693112811535
3240000000.0 0.1595739694190062 -0.004626961047912651
3260000000.0 0.044797144040319 -0.12115565796858152
3280000000.0 0.09152194584476496 -0.0497504114193446
3300000000.0 -0.005768860829807413 -0.08278906753065725
3320000000.0 0.008313417978636497 0.06219564635814833
3340000000.0 0.025970038038501536 0.035328334283190085
3360000000.0 0.024982684825376848 0.00013642882509122472
3380000000.0 0.007834307225454211 -0.014640293385779784
3400000000.0 -0.02421164486984217 -0.016359560711876928
3420000000.0 -0.005586796363106456 0.0459856906733906
3440000000.0 0.04604168727487482 0.0371868077623427
3460000000.0 0.05093830969712602 0.04140819751267378
3480000000.0 -0.03898107319750718 -0.05895733248084871
3500000000.0 -0.06907141172022384 -0.0321740088626228
3520000000.0 0.024378929190363698 0.08070700409650698
3540000000.0 0.019398038596971142 0.0977927845322089
3560000000.0 0.11666819800257953 0.010558274196885617
3580000000.0 -0.1317013889698204 -0.03902592409347217
3600000000.0 -0.1298443266647304 -0.09219174783422537
3620000000.0 -0.1737418210634053 -0.019811145344233696
3640000000.0 -0.1538525862640982 0.10608836563032183
3660000000.0 -0.07001102039496603 0.18270766467759514
3680000000.0 -0.026354768892559183 0.19511826655244743
3700000000.0 0.08938276967741807 0.17154240481304056
3720000000.0 -0.11270147689721481 0.14880707786181016
3740000000.0 -0.11126667130928646 -0.1366391151101793
3760000000.0 -0.1676286213918051 -0.022241607902744813
3780000000.0 -0.07045107192672138 0.14476616434688688
3800000000.0 0.016434894467485184 0.15928295562330208
3820000000.0 0.15318022364841424 0.043642716988870296
3840000000.0 0.09322413174632214 -0.12541085128476231
3860000000.0 0.11067994977980439 -0.11231395005730857
3880000000.0 -0.11574723156195392 -0.10761270410559322
3900000000.0 -0.13414475560164724 0.08458562240659714
3920000000.0 0.13570963147319628 0.07871981606067335
3940000000.0 0.09064999000573018 -0.12985489221963306
3960000000.0 -0.01133154206671423 0.16403444872149922
3980000000.0 -0.004193955222601139 0.16699811397834574
4000000000.0 -0.11676981093097624 0.11706767507110649
