!Created with skrf (http://scikit-rf.org).
# Hz S RI R 50.0 
!freq ReS11 ImS11
400000000.0 -0.5381524280029396 0.6882851602745873
420000000.0 0.6553650093387535 0.5794528641029292
440000000.0 0.25164306223864097 -0.8077076340125038
460000000.0 -0.7699472032717498 -0.19133075021336984
480000000.0 -0.2597015220125066 -0.6689971804241942
500000000.0 -0.4125049951354179 0.38967343847536356
520000000.0 0.1691735560772865 0.4327270112167391
540000000.0 0.3000754453037709 0.25658396584396925
560000000.0 -0.27432143894180167 0.22125431389323738
580000000.0 0.10663189577526108 -0.3028744604355984
600000000.0 -0.01730402796816804 -0.3198888300193871
620000000.0 -0.0239794084026323 0.33082973550486483
640000000.0 -0.10284025082350087 0.3426610496936746
660000000.0 -0.018956450751292046 0.3743804133806814
680000000.0 0.1060147074134027 -0.3921039149602448
700000000.0 -0.3698143779493978 -0.20634991256474303
720000000.0 -0.28781911260055293 0.3350799267811384
740000000.0 -0.44514049297124475 0.053733128002434426
760000000.0 0.4163200774554256 -0.11658201261785019
780000000.0 0.27336206009563174 0.2957097523371024
800000000.0 -0.3025258303473007 0.21080858947490225
820000000.0 0.0013085748504238434 0.3106337082332016
840000000.0 -0.2415223591107986 -0.06909353082436726
860000000.0 0.022076572524488313 -0.19584861338543355
880000000.0 -0.018549008432602664 0.14442095775502312
900000000.0 0.05481095297633831 -0.06636524701760824
920000000.0 -0.019519994177601162 -0.04231797811067326
940000000.0 0.03098676530156102 -0.016065156083894357
960000000.0 0.045843858496578606 -0.013367092871950639
980000000.0 0.03943067311176503 0.04225368854408378
1000000000.0 -0.06832692438007619 0.014955882358836254
1020000000.0 0.01741931488088623 -0.08281942082995594
1040000000.0 0.06979952790752884 0.06933177462392805
1060000000.0 -0.13233693939052174 -0.036770985003879736
1080000000.0 -0.11854362979523873 -0.09668913537388568
1100000000.0 -0.1532787379388367 -0.08382757272291531
1120000000.0 -0.014811862392626912 0.19345811929376217
1140000000.0 -0.13358880378506055 0.18651119526256832
1160000000.0 -0.028329510722649026 0.2636867390966468
1180000000.0 -0.30024740447177717 0.07518042098332078
1200000000.0 -0.3115560213636512 -0.14441302546253032
1220000000.0 0.290139363398073 -0.24589387862625856
1240000000.0 -0.16970299623864624 0.36809190473832365
1260000000.0 -0.006112624541798944 -0.4337813972088148
1280000000.0 -0.2315922219122017 0.38059976835371956
1300000000.0 0.2488988528731192 -0.377792613544295
1320000000.0 -0.2550506430257705 -0.3663804788266201
1340000000.0 -0.34830701990076857 -0.26226674638387654
1360000000.0 0.05364253768777119 -0.4286209350962877
1380000000.0 -0.09904649318874617 -0.41692757327683744
1400000000.0 -0.3937379026970567 0.1398255705452947
1420000000.0 0.02265113589930202 0.39859112157017096
1440000000.0 0.3707599971465845 -0.027191482398234712
1460000000.0 0.22927145414135763 -0.24972684538228565
1480000000.0 0.04873770858820068 -0.3059982357639075
1500000000.0 -0.10771468097936619 -0.25836444191978336
1520000000.0 -0.23104195482707443 0.10481556004573049
1540000000.0 0.02564932899980995 0.2299404928214545
1560000000.0 -0.18794410059327343 0.08074064365126835
1580000000.0 -0.16152195488007867 -0.08713624207733121
1600000000.0 0.0855646507242336 0.1251875103244581
1620000000.0 0.003671768341664837 -0.12243858090285434
1640000000.0 -0.07189169674553823 -0.0645154533532251
1660000000.0 0.0721526354693548 0.02148110798833172
1680000000.0 0.04901397879702767 0.010423519385573283
1700000000.0 0.002021884873669927 0.03191466510288028
1720000000.0 0.019536455498781694 -0.000759695986206318
1740000000.0 -0.020720199550611232 -0.021236350693006605
1760000000.0 0.002405785373384588 0.05171444920424589
1780000000.0 0.03952742487407738 -0.07324618042433352
1800000000.0 0.11300158110478285 0.0406884597732417
1820000000.0 0.14981966785920728 -0.003665477954315697
1840000000.0 0.17254258686196672 0.0627318380844014
1860000000.0 -0.20333886598179607 0.053261654927667955
1880000000.0 0.21348052706678486 0.10828438838753014
1900000000.0 0.04675715994085298 -0.26886056201967834
1920000000.0 -0.2987990596704885 0.0307259197848917
1940000000.0 -0.20587716219162502 0.2575571519385496
1960000000.0 0.010587632636509728 0.35754530405311563
1980000000.0 0.3724783739733819 0.07589451112890831
2000000000.0 0.4011563922617899 -0.04369497982507139
2020000000.0 0.059412506585656596 -0.4203228686447269
2040000000.0 -0.41318130469491804 -0.14787395578646853
2060000000.0 -0.09988985228624495 0.4334670790569335
2080000000.0 0.438467823702539 -0.08274067853729986
2100000000.0 -0.08977752650023177 -0.4289128450493393
2120000000.0 -0.41797110263824766 -0.07118818734444374
2140000000.0 -0.2903293276350302 0.2878022347070659
2160000000.0 -0.3871306176395405 0.01075022909620193
2180000000.0 -0.3622576432774853 0.06333033312975238
2200000000.0 -0.24466135106624853 0.24889361259746814
2220000000.0 -0.3195751783495764 -0.09837462596600309
2240000000.0 -0.30040065389653753 -0.14401828933119648
2260000000.0 -0.2391677287595153 -0.23804653990837063
2280000000.0 -0.3471829366489422 -0.022325815838869032
2300000000.0 -0.009957733446347955 0.3626049253290005
2320000000.0 0.38344250741496466 -0.046581246377035
2340000000.0 -0.15471320246528603 -0.3883444260669174
2360000000.0 -0.05237790349346531 0.4547763161606263
2380000000.0 0.21803423778765632 -0.4535017557981827
2400000000.0 -0.27250943841433906 0.4808032637767299
2420000000.0 0.110135927737932 -0.5941579521042205
2440000000.0 0.23954485259324335 0.6090957945357929
2460000000.0 -0.6376120321498955 -0.27968769027483975
2480000000.0 0.7280919416752826 -0.04431669828922873
2500000000.0 -0.7472936190982619 0.08521867300663037
2520000000.0 0.7647528300796642 -0.025909266776983887
2540000000.0 -0.7411961511441042 -0.20285567851481173
2560000000.0 0.5135275763972674 0.5676034204736049
2580000000.0 0.0525824543314491 -0.7513560763131919
2600000000.0 -0.5747966241773061 0.45160763325477615
2620000000.0 0.7023325894422527 -0.014679906070441623
2640000000.0 0.5069580853561859 -0.4328621589438874
2660000000.0 -0.621793669616238 0.025495041839752597
2680000000.0 0.48404214641961874 0.3093984721013781
2700000000.0 -0.1702518415545539 -0.4980348635594324
2720000000.0 -0.2054434677518163 0.4311604931949375
2740000000.0 0.42885865756516683 -0.05904460205214296
2760000000.0 -0.3426505479560623 -0.1951482785252735
2780000000.0 0.26584621231042116 0.25148945622321633
2800000000.0 -0.3219406620886782 -0.12018527274217639
2820000000.0 0.17829248424412014 -0.27609452196012657
2840000000.0 0.26197263325043385 0.18012972817747866
2860000000.0 -0.14256105903615304 0.2779222733333155
2880000000.0 -0.28673327615780503 -0.11086709336426995
2900000000.0 0.2680050373395914 -0.14191101350324503
2920000000.0 -0.2995519579944272 -0.021552142151438136
2940000000.0 -0.1125605913445332 0.2766760354114769
2960000000.0 -0.12597109841185275 0.2715939813586543
2980000000.0 -0.28894045025425535 0.09432474250526209
3000000000.0 -0.1567710904327485 -0.26484870603106864
3020000000.0 0.1791164742297581 -0.25754703292368536
3040000000.0 0.1403504110623766 0.28126329999385696
3060000000.0 -0.2753151810420591 -0.15541747652442364
3080000000.0 0.2870635757495549 -0.12567585110973872
3100000000.0 -0.17375712724773396 0.2562920780010128
3120000000.0 -0.20937778421701936 -0.22117456765825474
3140000000.0 0.1764110742252841 -0.23421257548117122
3160000000.0 -0.22091864163321911 0.1594316833525062
3180000000.0 -0.07333632171066741 -0.2402911678709581
3200000000.0 0.22072225424964323 0.028716659074879365
3220000000.0 -0.17860291108341664 0.06984523800119781
3240000000.0 0.15934044932353458 0.01851059059726871
3260000000.0 0.09763724606499566 -0.08591184203739255
3280000000.0 0.10489775914102498 0.0012292032078632862
3300000000.0 0.050386813454236005 -0.06657112764123052
3320000000.0 -0.05229741105408736 0.035098747493119496
3340000000.0 -0.02931108168067218 0.03228221622920712
3360000000.0 -0.003918305533852559 0.02394231378991004
3380000000.0 -0.0031645979908089946 -0.015635361034739986
3400000000.0 -0.023879771428715946 0.016511042971981943
3420000000.0 0.04649084008219344 -4.037024660848126e-05
3440000000.0 0.050753520135233626 -0.030880034480560693
3460000000.0 0.06254922431676034 -0.02107732141023169
3480000000.0 -0.07106926798214094 -0.004489281602901972
3500000000.0 -0.0695632052601022 0.032624061236052826
3520000000.0 0.07441971991465335 0.04050971928860725
3540000000.0 0.060130777098315755 0.08007918352590113
3560000000.0 0.1093039439239222 -0.04410193710497575
3580000000.0 -0.13719084445862179 -0.01161917828801195
3600000000.0 -0.15191892549277025 -0.0510802341664203
3620000000.0 -0.17441878114338674 0.02114997794501104
3640000000.0 -0.13809559018993098 0.1265484047931414
3660000000.0 -0.04872083063502505 0.19040628340995808
3680000000.0 0.013056970914747635 0.19732577448034064
3700000000.0 0.09701697270495262 0.16806486996560407
3720000000.0 -0.10815717272705085 0.15354247701814153
3740000000.0 -0.10278361097873036 -0.14426688526464887
3760000000.0 -0.1682477142095359 -0.025084984973405538
3780000000.0 -0.09408651089678051 0.13204148461159396
3800000000.0 -0.015618315439224886 0.16052488177833502
3820000000.0 0.1509426644737188 0.05354055037759519
3840000000.0 0.11730002663548054 -0.10469968963864815
3860000000.0 0.12227563777032788 -0.1008089330520903
3880000000.0 -0.09272248773644447 -0.1290833137550347
3900000000.0 -0.14377419804006836 0.0682302135926874
3920000000.0 0.12491527830973267 0.09656209316589177
3940000000.0 0.08793820714157734 -0.13193422817491407
3960000000.0 -0.04966178035388834 0.15805082604541923
3980000000.0 -0.022997892609535 0.1664781958831003
4000000000.0 -0.13871689759449388 0.09147128708698235
