!Created with skrf (http://scikit-rf.org).
# Hz S RI R 50.0 
!freq ReS11 ImS11
400000000.0 -0.5370731048640836 0.6902432332582454
420000000.0 0.6513173537701049 0.5833856991943606
440000000.0 0.2529373406795244 -0.8065436433568821
460000000.0 -0.778151285289262 -0.15496299121697796
480000000.0 -0.2707646394226165 -0.6643866419155279
500000000.0 -0.4003815816710394 0.40163948304594005
520000000.0 0.1617168476477376 0.43594302974573834
540000000.0 0.3064021404278432 0.24935142003477603
560000000.0 -0.25641353468386296 0.242224097024223
580000000.0 0.12748148669233522 -0.29441956159745547
600000000.0 0.004121483503398987 -0.31924572682132013
620000000.0 -0.0048116451427373495 0.3309689989510443
640000000.0 -0.0807647895405039 0.3474104753002342
660000000.0 -0.0784284555322458 0.36681554147014217
680000000.0 0.1262061420862166 -0.38599763104395607
700000000.0 -0.3661747953164782 -0.21164434232146614
720000000.0 -0.329879564958207 0.29331496608202784
740000000.0 -0.4482640181075035 0.01635822488593557
760000000.0 0.41755804279538805 -0.11446059718093789
780000000.0 0.24257324961959204 0.32233508427465934
800000000.0 -0.3326736666539519 0.16020971499828265
820000000.0 -0.033507346561639714 0.30960769958238193
840000000.0 -0.23244540614844142 -0.09551796133842773
860000000.0 -0.02098895897789765 -0.19628226222818604
880000000.0 0.004911815738638005 0.1458019738566025
900000000.0 0.016931232321650093 -0.08523066721309838
920000000.0 -0.028963184842036846 -0.03680312015933862
940000000.0 0.03384182052553325 -0.010595360454940856
960000000.0 0.045298097141762965 -0.016501789895844162
980000000.0 0.05163527381191709 0.02585823026641045
1000000000.0 -0.06433899432217167 0.027886888259174857
1020000000.0 0.0021605348809706263 -0.08491723844258343
1040000000.0 0.06967421916635701 0.06948527565474505
1060000000.0 -0.12957069929269135 -0.04704632795433524
1080000000.0 -0.11573539304170732 -0.10031841787029198
1100000000.0 -0.1613501679482499 -0.0673086177426285
1120000000.0 -0.009013287989061732 0.19417342026550247
1140000000.0 -0.13508718966019564 0.18543867865435237
1160000000.0 -0.05713011252616925 0.25845834517080085
1180000000.0 -0.303579453708573 0.05771872304809848
1200000000.0 -0.2829778556174081 -0.19311725315835793
1220000000.0 0.29898899132349444 -0.23436833708657634
1240000000.0 -0.18837488455273074 0.35884005627134663
1260000000.0 0.00370205223329706 -0.43350093649442345
1280000000.0 -0.2511565533035966 0.36795316693432434
1300000000.0 0.25275931076244645 -0.3753581150046574
1320000000.0 -0.2528993747563411 -0.3680898897067593
1340000000.0 -0.3444925721981155 -0.2673630038525688
1360000000.0 0.04024787405471339 -0.43015894191946946
1380000000.0 -0.10716152169511493 -0.415316786469777
1400000000.0 -0.39297733138974805 0.14291298026135574
1420000000.0 0.01059539255959824 0.3994456510911415
1440000000.0 0.37216372425933086 -0.012365189729365704
1460000000.0 0.22510755141457592 -0.2540188742723435
1480000000.0 0.011215297405584227 -0.3097468752202845
1500000000.0 -0.10094843951342305 -0.2614343164082611
1520000000.0 -0.2479828868825484 0.05427101206251311
1540000000.0 -0.03556620671459404 0.22827490529125916
1560000000.0 -0.20375459270888874 0.003880350116681139
1580000000.0 -0.10392562990569654 -0.14972350053469585
1600000000.0 0.038382819857418905 0.14577807046925514
1620000000.0 0.024783680323775727 -0.1193459837305055
1640000000.0 -0.054881012923374904 -0.07861075510782684
1660000000.0 0.07168825183662339 0.019691972998004906
1680000000.0 0.046616662858951365 -0.018106411442250312
1700000000.0 0.007839514851882926 0.031598906899109706
1720000000.0 -0.006822828160809887 0.01893581205530519
1740000000.0 0.011278908806256474 -0.02650588466097004
1760000000.0 0.0016656976476719907 0.05128186913596061
1780000000.0 0.029390607305897442 -0.07778948251872501
1800000000.0 0.10313383117100153 0.06105840806758343
1820000000.0 0.14784248904604622 0.02277467468940919
1840000000.0 0.16453237643792842 0.08188138100095331
1860000000.0 -0.2035227881589684 0.053322230104964716
1880000000.0 0.21478323703928792 0.10650282988789556
1900000000.0 0.04272122188225084 -0.27026095107375764
1920000000.0 -0.2977178810429848 0.04363935723601848
1940000000.0 -0.18967494755914466 0.2701309075121104
1960000000.0 0.03983854503791537 0.3556750849041509
1980000000.0 0.37681607245701443 0.05004467515336093
2000000000.0 0.398304226108197 -0.06370454646887429
2020000000.0 0.05598449031582438 -0.4203321163004305
2040000000.0 -0.39046636247715755 -0.1987383970595034
2060000000.0 -0.107038457888245 0.43039495438495695
2080000000.0 0.4443461700762605 -0.03772927494975919
2100000000.0 -0.036934829096152116 -0.4368130077557709
2120000000.0 -0.40355927272096465 -0.13126003134165287
2140000000.0 -0.2847107542989385 0.2941786614414711
2160000000.0 -0.38470977689380453 0.052221279205239744
2180000000.0 -0.3614051838533999 0.07351904765091899
2200000000.0 -0.22939820739250413 0.26458084659755104
2220000000.0 -0.3227971194054835 -0.0904150741603368
2240000000.0 -0.2764271061427491 -0.1883862216957117
2260000000.0 -0.21639778561247816 -0.25945404062118693
2280000000.0 -0.33691278821787624 -0.0877069447706823
2300000000.0 -0.10535058813242004 0.34741647913309265
2320000000.0 0.38619447607822577 0.025555670928928104
2340000000.0 -0.05481756714799169 -0.41510890169149195
2360000000.0 -0.14651893058672227 0.4345365368441741
2380000000.0 0.2953535777085156 -0.4078302635631755
2400000000.0 -0.34361195153094687 0.4330482019274896
2420000000.0 0.1755520171816078 -0.5778569026512242
2440000000.0 0.1780766680409713 0.6292337704649982
2460000000.0 -0.6211921304599382 -0.31293929518156277
2480000000.0 0.7292339585958277 0.0007840483653683303
2500000000.0 -0.7358249261724112 0.15386898864812443
2520000000.0 0.7595657627408497 -0.09169642519567514
2540000000.0 -0.7560271002708397 -0.14302213905194744
2560000000.0 0.5168442704265779 0.5665003767118589
2580000000.0 0.042648463153657494 -0.7532948132698033
2600000000.0 -0.5808099038827764 0.44769891895802794
2620000000.0 0.6993272438365736 0.08771561093895275
2640000000.0 0.5352325101511293 -0.4026739969029348
2660000000.0 -0.6247817323622497 -0.026348551096723464
2680000000.0 0.4528084929211215 0.35884171985983254
2700000000.0 -0.06501975792867741 -0.5248079969895322
2720000000.0 -0.300120052186289 0.374126306832334
2740000000.0 0.42706736016879276 0.08007840102037876
2760000000.0 -0.2977774716426683 -0.26134724033353357
2780000000.0 0.20332909309905137 0.3058795437286176
2800000000.0 -0.2802698323505957 -0.20053780994616016
2820000000.0 0.2480896470646067 -0.21661734646086186
2840000000.0 0.19893868496710493 0.24809581100227548
2860000000.0 -0.1896610474262123 0.2482063691020673
2880000000.0 -0.2674419667133907 -0.15337875980771806
2900000000.0 0.26265683624640124 -0.15231943939503512
2920000000.0 -0.3000491317747166 0.0026621852210863177
2940000000.0 -0.1277033833085993 0.27016221320003336
2960000000.0 -0.12057264543214512 0.27462266124077
2980000000.0 -0.2885658700891242 0.09536224781944923
3000000000.0 -0.10440128158020902 -0.28924642943601747
3020000000.0 0.2735889543960301 -0.15134888589287185
3040000000.0 0.09540757202893767 0.29906011800170423
3060000000.0 -0.28251219070095385 -0.14007725971824012
3080000000.0 0.2832320117025624 -0.13314376773565398
3100000000.0 -0.12997418587022452 0.2814820240659531
3120000000.0 -0.23929751143842987 -0.1884675850744361
3140000000.0 0.10935767586180592 -0.2719421780195953
3160000000.0 -0.16077018016388972 0.2209773904108595
3180000000.0 -0.16926134418625335 -0.1876519925876078
3200000000.0 0.18494501131882532 -0.12615466505435277
3220000000.0 -0.07629684833986998 0.17729993538843783
3240000000.0 0.12927288230955591 -0.09662020574355124
3260000000.0 0.016342405941823603 -0.12990031923837142
3280000000.0 0.06848973707538451 -0.08031726308991628
3300000000.0 -0.005036182410579051 -0.0842781607621781
3320000000.0 -0.03469306461181366 0.05352939781680689
3340000000.0 -0.019776546189674907 0.04043260079834765
3360000000.0 -0.024462086530634867 -0.009353100005259792
3380000000.0 0.016423631894088204 -0.002744630778717486
3400000000.0 0.027695594905021607 -0.003789132155506937
3420000000.0 -0.016378501713790582 0.042198443064566334
3440000000.0 0.039535670359000255 0.04248202179002125
3460000000.0 0.06595052588201922 -0.0023135118662110416
3480000000.0 -0.0474452458057198 -0.052337541131367744
3500000000.0 -0.07597470057290748 -0.006149709450064029
3520000000.0 0.08094829535044643 0.023956967097955865
3540000000.0 0.08374086797997557 0.05449998780753074
3560000000.0 0.1116361385238007 -0.03326370650808285
3580000000.0 -0.1348491484791917 0.019442190620801724
3600000000.0 -0.15590500646125308 -0.033257161179611604
3620000000.0 -0.15925033160865135 0.07181138349389832
3640000000.0 -0.1421048265310569 0.12154951442655322
3660000000.0 -0.02524235165723873 0.19459296518139382
3680000000.0 0.05889473316926557 0.1882131024110353
3700000000.0 0.15235077844426648 0.12070564742255756
3720000000.0 -0.053603321796561465 0.18029003367005678
3740000000.0 -0.1599830347219491 -0.0770054847280589
3760000000.0 -0.16633359254140936 0.03791615804834248
3780000000.0 -0.028962488987184808 0.16035964628397978
3800000000.0 0.02139034179678969 0.16012474206594032
3820000000.0 0.15767005072230822 0.026313036717737517
3840000000.0 0.08262347538553584 -0.13371596509091419
3860000000.0 0.11046755550613982 -0.11389476872716553
3880000000.0 -0.10402522368810124 -0.12111780770199752
3900000000.0 -0.10919002230265461 0.11611768141235058
3920000000.0 0.14426018987398506 0.06445137005125752
3940000000.0 0.07450507399878407 -0.14019809631530067
3960000000.0 -0.07863495530973234 0.14558160376267043
3980000000.0 -0.08348467556481635 0.14559100285439802
4000000000.0 -0.15782187416489368 -0.049484758535447995
