!Created with skrf (http://scikit-rf.org).
# Hz S RI R 50.0 
!freq ReS11 ImS11
400000000.0 -0.54379107901242 0.6858391284866404
420000000.0 0.6342438195333453 0.6018076372410871
440000000.0 0.2467537899772588 -0.80842769013183
460000000.0 -0.7685048206016727 -0.19725251848261505
480000000.0 -0.2505256971922077 -0.6724614277364613
500000000.0 -0.408076484861087 0.3937010221668482
520000000.0 0.15355657280298746 0.4391167886890397
540000000.0 0.31661328175157893 0.23636128736198442
560000000.0 -0.24881971495878788 0.24989190466831318
580000000.0 0.12766197229719495 -0.29444239664048577
600000000.0 -0.00989216036148626 -0.3195430817387304
620000000.0 0.03750413026047007 0.3287745752189941
640000000.0 -0.08567165413395157 0.3462609588867357
660000000.0 -0.06739459384646485 0.36912282678398184
680000000.0 0.13258588557804687 -0.3840933303394361
700000000.0 -0.3620885339796817 -0.21838566024084619
720000000.0 -0.3165522089374336 0.30778992540008526
740000000.0 -0.4481763745841103 0.01978705075950606
760000000.0 0.4166443792375504 -0.11633798519051794
780000000.0 0.24358142663486118 0.3214640776606837
800000000.0 -0.3244150335905956 0.17632562039374577
820000000.0 -0.030160926953093293 0.309843423806457
840000000.0 -0.23882455847705233 -0.07897279035150474
860000000.0 -0.0026974979887921338 -0.19717781318372726
880000000.0 0.004580486191489004 0.14583284973303023
900000000.0 0.013799435601642996 -0.08534111476335655
920000000.0 -0.03365363909203279 -0.03204845342008108
940000000.0 0.033346342853495865 -0.01285276830235801
960000000.0 0.04008512745412496 -0.026596237105079402
980000000.0 0.048159933525150474 0.03177295319062321
1000000000.0 -0.06279313190814326 0.031180155032569313
1020000000.0 -0.004065817734276642 -0.0848116717279797
1040000000.0 0.07635847428431576 0.06235095134040753
1060000000.0 -0.13181567231021954 -0.040424073194091935
1080000000.0 -0.1177935599282075 -0.09826900675304705
1100000000.0 -0.16643148656769724 -0.054067643802186455
1120000000.0 -0.015960212050379865 0.19381925588128612
1140000000.0 -0.13700237927721035 0.18413786101719531
1160000000.0 -0.06383526954089871 0.25694009375633114
1180000000.0 -0.30630726004688397 0.04108624271109334
1200000000.0 -0.27803485103848213 -0.2000822186647365
1220000000.0 0.32126282106328996 -0.2025600860750526
1240000000.0 -0.19610688128351242 0.35471728776930495
1260000000.0 0.017672076826476153 -0.43318819111057566
1280000000.0 -0.2560172508854353 0.3645159420948097
1300000000.0 0.263035059959317 -0.368157872782632
1320000000.0 -0.2418513392134253 -0.3752742628916281
1340000000.0 -0.3495874215175813 -0.26035474053637325
1360000000.0 0.04638933403014673 -0.42944001769279183
1380000000.0 -0.10078762827098989 -0.41694956956408913
1400000000.0 -0.3890803161285784 0.15311728392304658
1420000000.0 0.031126147915038087 0.3984165491357655
1440000000.0 0.3719782730399581 -0.019916168550607898
1460000000.0 0.2117182053453814 -0.26558388201509364
1480000000.0 -0.011074829061876363 -0.30986742941457446
1500000000.0 -0.10962823294617682 -0.25778428230925654
1520000000.0 -0.25113048444381797 0.03982758714004409
1540000000.0 -0.02437060295655523 0.2300129830901762
1560000000.0 -0.20372878321149115 -0.011900034348021393
1580000000.0 -0.07365254631492658 -0.1671268779721517
1600000000.0 0.05050485273342939 0.14215710712700622
1620000000.0 0.04287681988225662 -0.1143382697609158
1640000000.0 -0.034732302616665635 -0.08936115754169859
1660000000.0 0.06768719760450412 0.030402495652448937
1680000000.0 0.0418767499174433 -0.027801526803480366
1700000000.0 0.021269197353211203 0.024144249998834997
1720000000.0 0.0032867601936120627 0.019905910269560293
1740000000.0 -0.004749244621780941 -0.02853330412814683
1760000000.0 -0.01268838892140521 0.04985461967332515
1780000000.0 0.047950367079068884 -0.06758715635612426
1800000000.0 0.08042305392652442 0.08797450921842719
1820000000.0 0.14796581669451758 0.022204490851882277
1840000000.0 0.1586621322896781 0.09238452831706687
1860000000.0 -0.2053940594362687 0.04470389029261202
1880000000.0 0.21510045887104778 0.10587986961126494
1900000000.0 0.03951680643493772 -0.27054111682555365
1920000000.0 -0.29604333590055587 0.0531576811172901
1940000000.0 -0.17711972306069276 0.2785412488488747
1960000000.0 0.058041131272237464 0.35315662910594214
1980000000.0 0.3786369933716189 0.03401097457115911
2000000000.0 0.39569556596610483 -0.07879673378300339
2020000000.0 0.04935732027994204 -0.42128898458023173
2040000000.0 -0.40524958171587144 -0.16656377477091575
2060000000.0 -0.14670558683872695 0.41908866960297214
2080000000.0 0.4451164424561768 -0.028057571301611572
2100000000.0 -0.034034052849768806 -0.43740499243511916
2120000000.0 -0.4086482244441528 -0.11525250836048788
2140000000.0 -0.30323734111954553 0.2757804884053322
2160000000.0 -0.3881436982469667 0.01871023265965152
2180000000.0 -0.3648281553024168 0.05621411375179961
2200000000.0 -0.2449269509269099 0.25035011828379017
2220000000.0 -0.3222136297803834 -0.09206567698441381
2240000000.0 -0.2724032577988826 -0.1938471519931105
2260000000.0 -0.20484598598912546 -0.2684009623951517
2280000000.0 -0.3341081715775758 -0.09739546490008504
2300000000.0 -0.10163043368614502 0.348533490322463
2320000000.0 0.3861858993558192 0.02163022700629318
2340000000.0 -0.04448567660298717 -0.41600658991821776
2360000000.0 -0.13551128541900825 0.4378544113475444
2380000000.0 0.2687467207434108 -0.4259022508734394
2400000000.0 -0.3429496028602858 0.43341223309521526
2420000000.0 0.1719723920750007 -0.5791020530200138
2440000000.0 0.1794885965423717 0.6290575802131152
2460000000.0 -0.6163328979728402 -0.32337492742520085
2480000000.0 0.7294365097377362 -0.015805851811767153
2500000000.0 -0.7342246972657546 0.1625906934244728
2520000000.0 0.7607871244792158 -0.08442512703615854
2540000000.0 -0.75839459902116 -0.13084904219278107
2560000000.0 0.5203347739299092 0.5636060853043519
2580000000.0 0.11158319722653529 -0.7465167586373149
2600000000.0 -0.5713368208194768 0.4594589590857998
2620000000.0 0.7017004083814056 0.06616870977215007
2640000000.0 0.5650591261693738 -0.3595041668378938
2660000000.0 -0.6224583553033654 -0.05617760814733587
2680000000.0 0.4352181401452426 0.37942555155303515
2700000000.0 -0.04041708388960261 -0.5270270750178637
2720000000.0 -0.3166479086843276 0.35986185311460867
2740000000.0 0.42608811524498347 0.08371540688186582
2760000000.0 -0.29352554918192625 -0.2656140510544106
2780000000.0 0.19941057066978735 0.30819433515364075
2800000000.0 -0.28533475965598226 -0.1928264737975738
2820000000.0 0.23587381027508617 -0.2294537397754405
2840000000.0 0.20873993275271824 0.23942607098217847
2860000000.0 -0.20492597568217633 0.23629801153478064
2880000000.0 -0.2792177806823485 -0.13090795521759846
2900000000.0 0.25719273757467626 -0.16174903439343738
2920000000.0 -0.29768478948455407 -0.042973882545133624
2940000000.0 -0.14764958400972553 0.2605689753782534
2960000000.0 -0.11075238313707289 0.27937141142038835
2980000000.0 -0.2902951272879846 0.09026277976220771
3000000000.0 -0.08767490691217433 -0.2949831131884426
3020000000.0 0.2783699882209053 -0.1436586608142835
3040000000.0 0.07556497722392182 0.30505238321918304
3060000000.0 -0.2661607731743994 -0.16953564427739287
3080000000.0 0.2998303239480807 -0.09039975956858921
3100000000.0 -0.16222808910063227 0.2645420385307045
3120000000.0 -0.20208791912614985 -0.22776274360439
3140000000.0 0.15001028820146323 -0.25146631746600545
3160000000.0 -0.20087429950688174 0.18500151792456723
3180000000.0 -0.13228255306763825 -0.21506680045028848
3200000000.0 0.1951136117733951 -0.10874015337235786
3220000000.0 -0.0973039152835667 0.1661634653511622
3240000000.0 0.1278526933852232 -0.097158483622439
3260000000.0 0.009957446026878203 -0.12978655044019197
3280000000.0 0.07802208187043334 -0.06995520130140481
3300000000.0 -0.020639799915435207 -0.08087906699080906
3320000000.0 -0.020591621277256056 0.059694725492216265
3340000000.0 -0.015328036198170653 0.0415636365119694
3360000000.0 -0.024878218672762555 0.006472612570831979
3380000000.0 -0.0058940094077085375 -0.015852138104075788
3400000000.0 0.020492457054764882 -0.019719999872075813
3420000000.0 -0.038639679439386655 0.02475240340367633
3440000000.0 0.022730454227249623 0.0541152208330709
3460000000.0 0.04731819096323933 0.04630750346218055
3480000000.0 -0.02006552073635099 -0.06822998311114936
3500000000.0 -0.061402441391870934 -0.045536041065096226
3520000000.0 0.06971941220574975 0.04806352949115448
3540000000.0 0.07605210528075743 0.06506784529066918
3560000000.0 0.1159750647830588 -0.012036203050194934
3580000000.0 -0.13401965315272804 -0.023027821337301774
3600000000.0 -0.143887503117406 -0.06792516316761753
3620000000.0 -0.1676605881790842 0.0499507941376258
3640000000.0 -0.1501446825133264 0.11172270645689239
3660000000.0 -0.0437408106764471 0.19146008278382706
3680000000.0 0.04626932394522076 0.1914260334838484
3700000000.0 0.1407838131664141 0.13381092658507163
3720000000.0 -0.05547261970318136 0.17952766359967748
3740000000.0 -0.1624898225987015 -0.0707530454840218
3760000000.0 -0.16531854414108063 0.04169818728047663
3780000000.0 -0.025538967562798706 0.16051604524149563
3800000000.0 0.00399169051047387 0.16117788287618004
3820000000.0 0.15506168196199321 0.03650431548240221
3840000000.0 0.09652026583274238 -0.12311832483000727
3860000000.0 0.12788544287819767 -0.09381363555184388
3880000000.0 -0.09815371761524151 -0.12541975227834315
3900000000.0 -0.11511647704127165 0.10987599896359238
3920000000.0 0.143916796823093 0.06407216496848847
3940000000.0 0.07762858901639365 -0.1382922841566534
3960000000.0 -0.07207105332189491 0.14841289179895883
3980000000.0 -0.08332864134054402 0.1453631853995802
4000000000.0 -0.1573440050325972 -0.04961438141734822
