!Created with skrf (http://scikit-rf.org).
# Hz S RI R 50.0 
!freq ReS11 ImS11
400000000.0 -0.5265534925593015 0.6995240635069241
420000000.0 0.6394757468941055 0.5967254236571549
440000000.0 0.24804959907814328 -0.8080974543599992
460000000.0 -0.7707423659930771 -0.1867585514402513
480000000.0 -0.2786409147552991 -0.6610560660132799
500000000.0 -0.38658618798386796 0.4150417539493443
520000000.0 0.1700315896894391 0.4328527185365276
540000000.0 0.2933640298485639 0.2646509788797548
560000000.0 -0.267213879430898 0.23020654265391194
580000000.0 0.14687166533882653 -0.28517501620505586
600000000.0 0.009898580093273853 -0.3194505774552168
620000000.0 -0.01782654766997429 0.33076117060677956
640000000.0 -0.10988235503784975 0.3393187714473236
660000000.0 -0.07397150727286018 0.3675584922344672
680000000.0 0.09272969498464319 -0.3953317961350159
700000000.0 -0.3853571586999587 -0.1750953850149648
720000000.0 -0.29956514136215745 0.3245029742628245
740000000.0 -0.4446523278243981 0.058802692945822785
760000000.0 0.40904112989601416 -0.14159738571405492
780000000.0 0.27032702583252505 0.299193084609276
800000000.0 -0.3149365078361909 0.19221139843859028
820000000.0 -0.03749877286154394 0.3088767968287644
840000000.0 -0.23874353884224392 -0.07759089522932602
860000000.0 -0.0076582706616582915 -0.19678127765113063
880000000.0 -0.005654874892382928 0.14560976837265757
900000000.0 0.03562579245378701 -0.07886580238873339
920000000.0 -0.018064783730165533 -0.04306181650891001
940000000.0 0.03524646910141287 0.0027016872438896523
960000000.0 0.03812823223387034 -0.029130709705882416
980000000.0 0.04306064038014699 0.03864249494735257
1000000000.0 -0.06891520749784762 0.013593678711670424
1020000000.0 0.03291271492164484 -0.07778518745955029
1040000000.0 0.062333892207533347 0.076065533690497
1060000000.0 -0.1280441063340754 -0.04955004802409261
1080000000.0 -0.11734129222746917 -0.0981773055856724
1100000000.0 -0.16377663236758272 -0.060961225350602236
1120000000.0 0.008309309051627342 0.19407948319709262
1140000000.0 -0.12194792905470155 0.19445797939429169
1160000000.0 -0.006172422515721533 0.26479802362186766
1180000000.0 -0.2877333639682186 0.1147596160256764
1200000000.0 -0.30565504959400086 -0.15673307109457804
1220000000.0 0.2900569696316502 -0.24634125489945508
1240000000.0 -0.175787761301201 0.36562503983097816
1260000000.0 0.020614310100193364 -0.433469348123092
1280000000.0 -0.24514850076429998 0.37209654822025234
1300000000.0 0.2581265009242393 -0.3715066616351906
1320000000.0 -0.2403521297017897 -0.3762020161338835
1340000000.0 -0.3442554260414811 -0.2671995455624721
1360000000.0 0.06926345262546033 -0.42634308079359967
1380000000.0 -0.09659007240321581 -0.41757331636172607
1400000000.0 -0.39334473974827233 0.14042815908541462
1420000000.0 0.019566335404153375 0.39838860412128474
1440000000.0 0.3720025009517055 -0.0026771897961142765
1460000000.0 0.22207028138563298 -0.2562170032583399
1480000000.0 0.024530626745063358 -0.308675868148868
1500000000.0 -0.11230418309572522 -0.2563396815346335
1520000000.0 -0.2419624088005115 0.07708997034248942
1540000000.0 0.011388702754396445 0.23093807579663295
1560000000.0 -0.19605231667106918 0.05699136500546363
1580000000.0 -0.12305901360240709 -0.13568286919578953
1600000000.0 0.0949274852166144 0.11729772283098976
1620000000.0 0.010803682376873599 -0.12174574447324904
1640000000.0 -0.07612451423700245 -0.0595124125443766
1660000000.0 0.06860126986827841 0.028777323685524787
1680000000.0 0.04658100366080841 -0.01877373177171824
1700000000.0 -0.003446202700529614 0.031668779285105336
1720000000.0 0.01936762234090019 0.005004045815161172
1740000000.0 -0.027351607537047216 -0.011487192932359152
1760000000.0 0.02467255515901481 0.045292528990946004
1780000000.0 0.017601761385447084 -0.08134874934561362
1800000000.0 0.1167238858097841 0.027497147674537002
1820000000.0 0.14781121928805585 -0.024839561618575902
1840000000.0 0.17502873273901293 0.055078366125156125
1860000000.0 -0.2006617276197466 0.06206702102682806
1880000000.0 0.21701516481848337 0.10145714476261865
1900000000.0 0.04377668547690196 -0.26953132176729877
1920000000.0 -0.29800533317581207 0.03878899969358062
1940000000.0 -0.19813307318008316 0.26357303317303
1960000000.0 0.0315047749869315 0.35652521778884233
1980000000.0 0.3721500972015883 0.0791754463935092
2000000000.0 0.40126206712626966 -0.04510770285201326
2020000000.0 0.07471147941642661 -0.4179872083557084
2040000000.0 -0.39495156850062646 -0.19053272242626562
2060000000.0 -0.13719994558907855 0.4228643228013907
2080000000.0 0.44469016918916526 -0.032271904950927244
2100000000.0 -0.05185427076669834 -0.4349112274041899
2120000000.0 -0.41341063677238044 -0.09395117340485881
2140000000.0 -0.3116835063769959 0.2637652723086436
2160000000.0 -0.3860831583018551 0.02730138633065949
2180000000.0 -0.3589945581453848 0.08086820917236197
2200000000.0 -0.22692534771099251 0.26534536063247566
2220000000.0 -0.31817696013722746 -0.10349216597448059
2240000000.0 -0.2797379154813236 -0.18190477041686912
2260000000.0 -0.21579967897030913 -0.25868286724461553
2280000000.0 -0.34417962787165896 -0.05019249305515384
2300000000.0 -0.050474685309887385 0.3591143511168901
2320000000.0 0.38533519223450863 -0.0321782827686305
2340000000.0 -0.11412071442161742 -0.4023759507796489
2360000000.0 -0.07267290879419043 0.4525684467990344
2380000000.0 0.24910094589111417 -0.4375982950004139
2400000000.0 -0.3066985241363974 0.4599697196924419
2420000000.0 0.17251179442752404 -0.5794274241179751
2440000000.0 0.18268928178655292 0.6281552681596047
2460000000.0 -0.6187908207555247 -0.31793452297032854
2480000000.0 0.7288009227081412 -0.021743538472818694
2500000000.0 -0.735601640935926 0.15439259707631858
2520000000.0 0.75991296058081 -0.08601689923912637
2540000000.0 -0.7502447186819354 -0.16766192584695017
2560000000.0 0.5242194296051906 0.5579415891353072
2580000000.0 0.09599022015565142 -0.7469254156484055
2600000000.0 -0.5438838795491828 0.48937955084068463
2620000000.0 0.700640640025712 0.059190468381746464
2640000000.0 0.5244722114653266 -0.4135168590115727
2660000000.0 -0.6230799080260702 0.01015738927269795
2680000000.0 0.4602025559074118 0.3457917434266354
2700000000.0 -0.10996933536969443 -0.5155813692171813
2720000000.0 -0.26451690034340153 0.3982621272447246
2740000000.0 0.43301496571300807 0.015171301497397266
2760000000.0 -0.32631133988276556 -0.22359403492037122
2780000000.0 0.22951886035447988 0.28593579497535715
2800000000.0 -0.3060152653685043 -0.15749171560122394
2820000000.0 0.2037738391469455 -0.25801860239041097
2840000000.0 0.23963466578000095 0.2081793896877098
2860000000.0 -0.18945321155206496 0.24866276579173494
2880000000.0 -0.28594268449682253 -0.1140975486055854
2900000000.0 0.270554361661236 -0.13779099167773395
2920000000.0 -0.29860041818885785 -0.03143719770879575
2940000000.0 -0.13590469555779364 0.2661590070439755
2960000000.0 -0.07930646890828044 0.28943296252150563
2980000000.0 -0.2888276064324298 0.09381007030611221
3000000000.0 -0.12326223567539489 -0.2829232234017008
3020000000.0 0.27843252400405394 -0.14569223477058488
3040000000.0 0.041266272847826746 0.31168738966864395
3060000000.0 -0.24800651813108757 -0.194852670383522
3080000000.0 0.2987873627365984 -0.09403576292571017
3100000000.0 -0.12652010601406816 0.28288416117471443
3120000000.0 -0.2641785748165238 -0.1516277363149731
3140000000.0 0.14528408898091075 -0.25391830993023773
3160000000.0 -0.22409324024847996 0.1546964487610573
3180000000.0 -0.07213387780051697 -0.2408966648208364
3200000000.0 0.21765316781541424 -0.0454490266644389
3220000000.0 -0.1345420944128509 0.1365563456786491
3240000000.0 0.1591955306109529 -0.02088159681805162
3260000000.0 0.07259223920834756 -0.10817293228663538
3280000000.0 0.09702952203927467 -0.04053898304190947
3300000000.0 0.02945357603186821 -0.07812304839863195
3320000000.0 -0.0346345282165567 0.05150956930598222
3340000000.0 -0.014158041788994265 0.041054400412911404
3360000000.0 -0.00046085857853968184 0.024766856596320774
3380000000.0 0.004863239728282764 -0.016029026937008962
3400000000.0 -0.01981117469605405 0.021205241566233525
3420000000.0 0.015717634638342033 0.043734702652900255
3440000000.0 0.05588249512090939 0.018307631964948286
3460000000.0 0.06464622624592618 0.014477774253420431
3480000000.0 -0.06105044372984364 -0.036654167593475014
3500000000.0 -0.076708830600948 0.0017546430486018781
3520000000.0 0.07731325683664436 0.035518395756279575
3540000000.0 0.038513454658920934 0.09269448492146852
3560000000.0 0.11505523197990314 0.020262233722088473
3580000000.0 -0.13731647388652446 0.0027510256602246755
3600000000.0 -0.14746937951150899 -0.05945724700918397
3620000000.0 -0.16304334205780086 0.06508462926487601
3640000000.0 -0.12471826556084438 0.13942666582462085
3660000000.0 -0.023620727357813218 0.19478593923554727
3680000000.0 0.05870535851534634 0.18914418395004345
3700000000.0 0.1304553207467544 0.14493654771644976
3720000000.0 -0.10268809022764874 0.15797130229200354
3740000000.0 -0.15951956521944263 -0.07880680827963073
3760000000.0 -0.16337344111028865 0.04807434887200026
3780000000.0 -0.0662553674683928 0.1490043601913857
3800000000.0 -0.003626928160251975 0.16204554800474352
3820000000.0 0.15209543628868316 0.05265654247206167
3840000000.0 0.08968066432526653 -0.12899719559038217
3860000000.0 0.09438383949236459 -0.12656799075262676
3880000000.0 -0.12152801668127523 -0.10244525028319082
3900000000.0 -0.10451359705552765 0.12008274928567098
3920000000.0 0.1459086595266729 0.058293016948850175
3940000000.0 0.08628811997661566 -0.13300370299598488
3960000000.0 -0.06891153413965506 0.15041503292176545
3980000000.0 -0.09142902434134975 0.1418774958778734
4000000000.0 -0.15237349785257018 -0.0690508840583872
