!Created with skrf (http://scikit-rf.org).
# Hz S RI R 50.0 
!freq ReS11 ImS11
400000000.0 -0.5461541474498615 0.6816253018362584
420000000.0 0.6330986533279689 0.6030917288836978
440000000.0 0.2786905766455973 -0.7980259465283617
460000000.0 -0.7724566584867097 -0.18208013112308932
480000000.0 -0.28896765364509425 -0.6562997336808232
500000000.0 -0.383295768386406 0.41775351111740455
520000000.0 0.16566365141882447 0.4345135317318475
540000000.0 0.2952355029761333 0.2624358111292978
560000000.0 -0.2660828358808315 0.2320566200962826
580000000.0 0.12303531379807266 -0.29640089349439397
600000000.0 0.020814833376657862 -0.3184492244821366
620000000.0 0.0032180582644541255 0.3310856271740448
640000000.0 -0.08110602946806802 0.3474188666665633
660000000.0 -0.07366304662954304 0.36765039116739756
680000000.0 0.11060681726823557 -0.39134194971262143
700000000.0 -0.37426595346028746 -0.1963257359390295
720000000.0 -0.32482401709082054 0.299157567788193
740000000.0 -0.4447476326475485 0.056975003454802914
760000000.0 0.4103562368207564 -0.1374947285744607
780000000.0 0.25596382764469183 0.31217750824070495
800000000.0 -0.326231734134997 0.17276275745234818
820000000.0 -0.028468255308207912 0.31018889233278657
840000000.0 -0.2434593979298161 -0.0626027391415893
860000000.0 -0.014405587721850101 -0.19683644161265026
880000000.0 -0.020645323053531048 0.14435021828500544
900000000.0 0.028072948062242364 -0.08198585166206049
920000000.0 -0.024474482546991617 -0.03934872494666813
940000000.0 0.03413920022523533 -0.009234134967761348
960000000.0 0.037304387610432095 -0.030707755804187588
980000000.0 0.05106986665902603 0.027563439938560932
1000000000.0 -0.0670036790248026 0.021306158756748947
1020000000.0 0.012623983109940416 -0.08385807780496443
1040000000.0 0.06710630824597615 0.07227489248611244
1060000000.0 -0.12979965807193833 -0.046209154915409764
1080000000.0 -0.1123953947554565 -0.10398852866005055
1100000000.0 -0.15219727792184323 -0.0862291098489264
1120000000.0 -0.013163424680322666 0.19385139988299258
1140000000.0 -0.14350581853051367 0.17871192722634333
1160000000.0 -0.032811615205868186 0.2627159936631852
1180000000.0 -0.3028463968375905 0.061756988077758763
1200000000.0 -0.2997071004073015 -0.16647554416051907
1220000000.0 0.29354520189079353 -0.24103702168427324
1240000000.0 -0.17100504044135773 0.36770354550174894
1260000000.0 -0.003776771715082662 -0.43354085232088707
1280000000.0 -0.24962335939616462 0.36908948449366685
1300000000.0 0.25265507592925557 -0.37561225156341754
1320000000.0 -0.2475335657303149 -0.3717464717922354
1340000000.0 -0.34711359109939327 -0.26395891613318445
1360000000.0 0.05915826749075799 -0.42824210977616056
1380000000.0 -0.0844336404134762 -0.42059815557325164
1400000000.0 -0.39869836528061114 0.12554949206675206
1420000000.0 -0.01746412846683219 0.39936040284797
1440000000.0 0.37217848370688966 0.007778151774991304
1460000000.0 0.23679062331218165 -0.24317718587339276
1480000000.0 0.0314345850830125 -0.30829165202026615
1500000000.0 -0.0972100856223426 -0.26278235671678646
1520000000.0 -0.24843996038726143 0.05182910898741728
1540000000.0 -0.03587207280915007 0.22819013576222758
1560000000.0 -0.2036272845218174 0.005545510821747195
1580000000.0 -0.0859668797180139 -0.16090796343665412
1600000000.0 0.09192516918924136 0.1191338926420758
1620000000.0 0.005174379186857066 -0.12186509615297841
1640000000.0 -0.06228762403905257 -0.07310092151600368
1660000000.0 0.07460531523736096 0.0018174192571423812
1680000000.0 0.04133883207639933 -0.029236103680455563
1700000000.0 0.010847871589331546 0.031024474460275342
1720000000.0 -0.010006488542837092 0.01737111470606426
1740000000.0 0.0029381532441741165 -0.02863177553729823
1760000000.0 0.03042896086666164 0.04131782572307643
1780000000.0 0.007277826667484301 -0.08285859508385687
1800000000.0 0.11163281845489911 0.04389760644341193
1820000000.0 0.14977735027387984 0.0008697331686839194
1840000000.0 0.17143561545946073 0.06674318923886376
1860000000.0 -0.20360960382299004 0.05348394208845306
1880000000.0 0.215561265145516 0.1056908492144622
1900000000.0 0.06110921379764181 -0.26677162056859743
1920000000.0 -0.2993287716519769 0.029602261456070287
1940000000.0 -0.21006537349043305 0.2544747567476366
1960000000.0 0.015411654598478817 0.3576361543688126
1980000000.0 0.3737973031942747 0.06811713883376869
2000000000.0 0.4004221954044916 -0.04698705480926859
2020000000.0 0.0652185001185318 -0.4189072226994875
2040000000.0 -0.3983935276372736 -0.18179632789218714
2060000000.0 -0.11101237099340565 0.4292985998077629
2080000000.0 0.4444965482081593 -0.02950941668263798
2100000000.0 -0.0882279213731571 -0.42893545897691265
2120000000.0 -0.4118302998384866 -0.10021277353021053
2140000000.0 -0.2676417695761979 0.3091962174011777
2160000000.0 -0.3823218000958728 0.06547819961948409
2180000000.0 -0.3630667904259781 0.06385275944596851
2200000000.0 -0.21817370675090494 0.2734762843862564
2220000000.0 -0.31566055932640363 -0.1138023516118752
2240000000.0 -0.28709246517801684 -0.1716874105606738
2260000000.0 -0.21286904053436348 -0.26254984239086876
2280000000.0 -0.3394662704957242 -0.0793816851317428
2300000000.0 -0.09240475772012235 0.3513289841168291
2320000000.0 0.3871937984803921 0.006452132140684719
2340000000.0 -0.045375224249916975 -0.4161676773865709
2360000000.0 -0.15406276784985767 0.43168877520240834
2380000000.0 0.2917210502878162 -0.41058356046960126
2400000000.0 -0.352547057853057 0.42561831136466177
2420000000.0 0.20271318442937644 -0.5688190329968531
2440000000.0 0.16204067663759625 0.6334250522115624
2460000000.0 -0.6085460167597712 -0.33667738637242156
2480000000.0 0.728931180921801 -0.0006341875165487877
2500000000.0 -0.7280492597914919 0.18557686660103215
2520000000.0 0.7552477152621783 -0.11894346655304827
2540000000.0 -0.7556535980135354 -0.14284317329312868
2560000000.0 0.5443549455707722 0.5395314628035731
2580000000.0 0.09398256108753669 -0.7484510981709523
2600000000.0 -0.533234294263701 0.5030215327814156
2620000000.0 0.7047325739810583 0.011434468376839438
2640000000.0 0.5147909574684033 -0.4281598233055625
2660000000.0 -0.6244974051090173 -0.028335994132031268
2680000000.0 0.4603864613410687 0.3489012439792738
2700000000.0 -0.06999421494465419 -0.5245439432372528
2720000000.0 -0.30574924938175857 0.3699353730306178
2740000000.0 0.4326449806554368 0.046994626419619684
2760000000.0 -0.2998326477743642 -0.25999997123970586
2780000000.0 0.19369302033702998 0.31266583274710413
2800000000.0 -0.2742873583073108 -0.209102110638468
2820000000.0 0.25534976889426647 -0.20824065968461414
2840000000.0 0.1934303780613709 0.25247671428136115
2860000000.0 -0.21578045948597308 0.22609875053778067
2880000000.0 -0.2585461159607279 -0.16732993066216825
2900000000.0 0.2761540375113978 -0.125644988640042
2920000000.0 -0.298594033779723 -0.02599349561184878
2940000000.0 -0.13057520599810177 0.26800412467166984
2960000000.0 -0.08881396011026528 0.28586530497917595
2980000000.0 -0.2860327897725764 0.10250230210077159
3000000000.0 -0.11591879313461151 -0.2847801211262864
3020000000.0 0.26458040288318 -0.1668809369853242
3040000000.0 0.11112301216779888 0.2936336966530982
3060000000.0 -0.2873109574248072 -0.1298624284284594
3080000000.0 0.26227567336418955 -0.17056427730703355
3100000000.0 -0.06232537466053959 0.3036789345579449
3120000000.0 -0.2539325558783572 -0.16754348132296257
3140000000.0 0.07724688980173777 -0.2829644825905558
3160000000.0 -0.1362125567636246 0.23727788215253684
3180000000.0 -0.18191742998176913 -0.17584095028138808
3200000000.0 0.18370733196647315 -0.12826673439962769
3220000000.0 -0.07881246367198137 0.17678034585422175
3240000000.0 0.1315008057293923 -0.09446359151693319
3260000000.0 0.014863733245033053 -0.13055981626413948
3280000000.0 0.07146236991839572 -0.07838928091496578
3300000000.0 -0.01346694003875583 -0.08392628059294141
3320000000.0 -0.03728075998062834 0.05248240072666691
3340000000.0 -0.018715598073292133 0.04121207941322645
3360000000.0 -0.02003743914780845 -0.01695937853779695
3380000000.0 0.01556917278950679 0.005217737491101524
3400000000.0 0.018437604405782626 -0.020735345327642346
3420000000.0 0.00432220616587656 0.04490536150296343
3440000000.0 0.05819703488750531 0.002141407176282975
3460000000.0 0.06514302685920087 -0.007280529279751584
3480000000.0 -0.03173232612461414 -0.06237996494740072
3500000000.0 -0.07527613096895264 0.008302035719606754
3520000000.0 0.08276168791088014 0.01441602990528007
3540000000.0 0.088739685836765 0.04508265620448489
3560000000.0 0.10593267560373523 -0.047984113486221815
3580000000.0 -0.11877790937831377 0.06717393118942737
3600000000.0 -0.15956648760287515 0.007613540091873646
3620000000.0 -0.14637672442940433 0.09554325210442029
3640000000.0 -0.10403085865421613 0.15576403998840932
3660000000.0 -0.0006247386144533882 0.19627163505986608
3680000000.0 0.0889011942798449 0.1762481978631413
3700000000.0 0.16907497538460386 0.09651800099849119
3720000000.0 -0.040000252336972505 0.18456875532740052
3740000000.0 -0.16888292197642518 -0.055358204130604174
3760000000.0 -0.16148643746463928 0.05666361034622407
3780000000.0 -0.006285054079989354 0.16333238999132887
3800000000.0 0.03628434309022542 0.1583131641986982
3820000000.0 0.15926648164041435 0.021162378127160528
3840000000.0 0.07412655353371707 -0.13895164406002436
3860000000.0 0.11462246898604368 -0.11103362312461754
3880000000.0 -0.11016866722429595 -0.11585175115380826
3900000000.0 -0.10925520926248874 0.11647685041395792
3920000000.0 0.14548649285452894 0.06251846729851428
3940000000.0 0.07178602564459922 -0.1422789603449159
3960000000.0 -0.07380985012592628 0.14838858981881645
3980000000.0 -0.08285696506947256 0.14654179326248903
4000000000.0 -0.16488150309358907 -0.018355089267545265
