!Created with skrf (http://scikit-rf.org).
# Hz S RI R 50.0 
!freq ReS11 ImS11
400000000.0 -0.5314945961746492 0.6956088712370248
420000000.0 0.6381737927434444 0.5985320307647386
440000000.0 0.2147692600611702 -0.8176578942121466
460000000.0 -0.7707721710458001 -0.18657136289062784
480000000.0 -0.28627500270694595 -0.6585300557287557
500000000.0 -0.3963636526449402 0.4065050434962974
520000000.0 0.1731647304662867 0.43139941962648287
540000000.0 0.31230143861750437 0.24182457050132544
560000000.0 -0.2757796825662792 0.21981191775329242
580000000.0 0.1000747871914061 -0.3058388698866582
600000000.0 -0.03650312177372501 -0.31707465754215686
620000000.0 -0.020450070965802772 0.32949983856991516
640000000.0 -0.06994635747739651 0.3494849813628114
660000000.0 -0.03219168495221862 0.372929411766539
680000000.0 0.1276837590440182 -0.3848996133721081
700000000.0 -0.35449263615069293 -0.23076290519491596
720000000.0 -0.34888845185523 0.26980377053583393
740000000.0 -0.44627417153575655 0.02953732465247926
760000000.0 0.42344185624614167 -0.08919625761155006
780000000.0 0.20612664953361562 0.3470073884861253
800000000.0 -0.3314923215186046 0.16359938263690765
820000000.0 -0.04173846875704827 0.30887925036025593
840000000.0 -0.24123145755380562 -0.0737602040851661
860000000.0 -0.017476938302713782 -0.19714247090431275
880000000.0 0.028436066151457887 0.14356148804051494
900000000.0 0.017681590798196735 -0.08513729168762163
920000000.0 -0.04474786927946559 -0.014050364917151836
940000000.0 0.01671362178242129 -0.03196009189229683
960000000.0 0.027147105411273072 -0.040350435575639956
980000000.0 0.05785128492596914 0.00765913772440437
1000000000.0 -0.06004200255424858 0.03723438433250794
1020000000.0 0.010692774031850311 -0.0845655600427329
1040000000.0 0.07830650485966484 0.06047945035405336
1060000000.0 -0.13062458531034973 -0.04453840403791746
1080000000.0 -0.10212141384842734 -0.11414814627277436
1100000000.0 -0.1555783750477 -0.07944884902224544
1120000000.0 -0.022323896871216324 0.19216534610563446
1140000000.0 -0.138147090136253 0.1820669666507164
1160000000.0 -0.05279569988759188 0.25856037540099625
1180000000.0 -0.2937301607708053 0.09449655500829483
1200000000.0 -0.2923664613954639 -0.17752720644385248
1220000000.0 0.29398136436717237 -0.24042905032446224
1240000000.0 -0.17560151138793903 0.3647355508648619
1260000000.0 -0.01338354143340928 -0.4330615675692847
1280000000.0 -0.23764664937114768 0.37707209375843764
1300000000.0 0.24347365643555532 -0.3817400792548769
1320000000.0 -0.23934459918467438 -0.3770109781121838
1340000000.0 -0.3484102184345761 -0.2622758659772522
1360000000.0 0.051127768203145435 -0.42906156185202177
1380000000.0 -0.09573777308969972 -0.4181368460978729
1400000000.0 -0.39734292047443615 0.13086044501322888
1420000000.0 0.0012037942302164735 0.39978769283092586
1440000000.0 0.3724692345544376 -0.0018861904429723615
1460000000.0 0.22122505327528225 -0.2577728693831096
1480000000.0 0.017914227640165734 -0.30918075346580054
1500000000.0 -0.1081102709169813 -0.2581651868539303
1520000000.0 -0.24656977867073893 0.05877649178808995
1540000000.0 -0.0477104571608244 0.2257933135975817
1560000000.0 -0.20337161487634442 -0.007191979656717977
1580000000.0 -0.10068608870523679 -0.15169891646086134
1600000000.0 0.0449449771596014 0.1436100090990173
1620000000.0 0.027184051323462563 -0.11879597721247478
1640000000.0 -0.05139739721363814 -0.08190577194363109
1660000000.0 0.05779631687401157 0.04794461816883846
1680000000.0 0.04831720722083323 0.014589545346801557
1700000000.0 -0.006385756370523835 0.032483133655534485
1720000000.0 -0.019042696128804177 0.006313156105670479
1740000000.0 0.02849563156378553 -0.004193549738077833
1760000000.0 -0.01255281263475819 0.049548421592539006
1780000000.0 0.06307054925077633 -0.05398515461970083
1800000000.0 0.07249797467015347 0.09501256302391246
1820000000.0 0.13819529355563132 0.05787470479866737
1840000000.0 0.1404003078913038 0.11807950922877511
1860000000.0 -0.21028596913985512 0.010716178746297912
1880000000.0 0.20172280433102127 0.13015614090040203
1900000000.0 0.05174540091626401 -0.2687406388832602
1920000000.0 -0.29679470040228084 0.049996767728573935
1940000000.0 -0.17862572393158102 0.27772758407037934
1960000000.0 0.06742623315448418 0.35119496815421397
1980000000.0 0.37947051750940963 0.016356502503370764
2000000000.0 0.39412489715730076 -0.0840732208544668
2020000000.0 0.07168260531211748 -0.4172899702553078
2040000000.0 -0.40644517550565834 -0.1623342074666173
2060000000.0 -0.13965084525338503 0.42097486746471224
2080000000.0 0.4452281447495881 0.0017206452275110187
2100000000.0 -0.06273104476011737 -0.4337248599265644
2120000000.0 -0.3973234545663601 -0.15180187847492896
2140000000.0 -0.3129959953420737 0.2653704159249108
2160000000.0 -0.3888397366902883 0.016896394559762672
2180000000.0 -0.3680401981282749 0.03872149073590806
2200000000.0 -0.24613690038173788 0.2502699916508268
2220000000.0 -0.32465476457958514 -0.08628169218526016
2240000000.0 -0.2822744107380429 -0.17891859770821864
2260000000.0 -0.20271115389465208 -0.2698448642237337
2280000000.0 -0.33144651870019315 -0.10706057660809212
2300000000.0 -0.1490318265573158 0.3311621113096109
2320000000.0 0.38150276940774835 0.06568525899716085
2340000000.0 -0.005162130993539214 -0.4184779824250234
2360000000.0 -0.16992965473182178 0.42575020467646413
2380000000.0 0.3075249221654066 -0.39875163232128175
2400000000.0 -0.35585380828046775 0.42326965814940504
2420000000.0 0.21041638871578833 -0.56648510423972
2440000000.0 0.1814645734957469 0.6284771447164361
2460000000.0 -0.612369167811677 -0.3305463747899827
2480000000.0 0.7268588638798845 -0.05671674102770756
2500000000.0 -0.7439594929149674 0.1127203140455839
2520000000.0 0.7636389757124648 -0.04575200948694307
2540000000.0 -0.7530319715468617 -0.15871486416805738
2560000000.0 0.52038679372658 0.5629211389335466
2580000000.0 0.12549265982689198 -0.7439225360117995
2600000000.0 -0.6066847361050407 0.41099619773024393
2620000000.0 0.704080230908319 0.025413235169830434
2640000000.0 0.5392237750078773 -0.39706692145264827
2660000000.0 -0.6205379244309441 -0.07747343717748593
2680000000.0 0.4346602243098501 0.38082661477369184
2700000000.0 -0.06849432854432422 -0.5249636497555793
2720000000.0 -0.29627744162576847 0.37836278519749744
2740000000.0 0.43057569349058367 0.06457269479459908
2760000000.0 -0.2985974218274849 -0.26158583403642327
2780000000.0 0.16537967158037792 0.3290857544595931
2800000000.0 -0.2617267474422515 -0.2250199967383668
2820000000.0 0.2740112943359825 -0.18374470711278523
2840000000.0 0.13924795088851916 0.2861268201625068
2860000000.0 -0.22566002861417783 0.2171652341254616
2880000000.0 -0.24350564678578165 -0.1892368890366646
2900000000.0 0.2913111646747765 -0.08472345134668798
2920000000.0 -0.2957537177567789 -0.04799640619025981
2940000000.0 -0.13603709884615797 0.2652776752197719
2960000000.0 -0.06721159859287806 0.2915307838505833
2980000000.0 -0.278259808782922 0.12079023179683789
3000000000.0 -0.1811332451684492 -0.24750570931590274
3020000000.0 0.22048884390875345 -0.22154238208669585
3040000000.0 0.16506528273893603 0.26638116936778694
3060000000.0 -0.3016510834182357 -0.09038626112378027
3080000000.0 0.27536503759989633 -0.14952834885555327
3100000000.0 -0.14563742516088748 0.2740981545786102
3120000000.0 -0.2600308984669775 -0.16008160080316464
3140000000.0 0.10166248806265142 -0.2758160198501489
3160000000.0 -0.17868703930319235 0.2072807271355139
3180000000.0 -0.17949613966563277 -0.1791988321415138
3200000000.0 0.17182755623390614 -0.14472511471871666
3220000000.0 -0.04824081136815077 0.1874947402322234
3240000000.0 0.10548839842499229 -0.12373399620100861
3260000000.0 -0.004196156895370071 -0.13118495938808405
3280000000.0 0.07736090355079217 -0.07197579554498787
3300000000.0 0.03880273384776222 -0.07430468118335441
3320000000.0 -0.06338051592442777 -0.0035989488647102936
3340000000.0 -0.03741405034037944 -0.024708757649873778
3360000000.0 0.007960634383791874 -0.02458119907717775
3380000000.0 0.010623807686753068 0.011955997637076625
3400000000.0 0.027534005322123776 -0.0019693847711200994
3420000000.0 -0.018634911216568496 0.04107213342060382
3440000000.0 0.04010620632997585 0.04234133000633427
3460000000.0 0.021803376949877797 0.06201007549004074
3480000000.0 -0.015715033342606523 -0.06951753264868177
3500000000.0 -0.0740191850422413 -0.020289307132229383
3520000000.0 0.07748791223800996 0.03363728368122209
3540000000.0 0.08954123620951163 0.04412847390551568
3560000000.0 0.11273657810509223 -0.02926979760887984
3580000000.0 -0.13205307021633467 0.03694994427749549
3600000000.0 -0.15112719721347462 -0.04951389092129769
3620000000.0 -0.17199721039127056 0.028403308566746957
3640000000.0 -0.14310251002480595 0.11980485533690255
3660000000.0 -0.030375996990276804 0.19448325114941373
3680000000.0 0.023655399465031167 0.1963236835976672
3700000000.0 0.12439879435662458 0.15022661690685782
3720000000.0 -0.07019480501016083 0.1740290277184542
3740000000.0 -0.1581826070676179 -0.08047563985898362
3760000000.0 -0.16214472924586967 0.05058952524316541
3780000000.0 -0.05547171185101663 0.15230426120574028
3800000000.0 0.04622854858774787 0.1537061522899742
3820000000.0 0.15685836042360515 0.02964888423884144
3840000000.0 0.10365279277858074 -0.11726151159650729
3860000000.0 0.10403924834463445 -0.11976462687481368
3880000000.0 -0.12562808798643668 -0.09965060576051836
3900000000.0 -0.10619906588981651 0.1197177896033856
3920000000.0 0.15779804364622474 0.007362766447531394
3940000000.0 0.024982157294292907 -0.15729566631737948
3960000000.0 0.016583662663333096 0.16386486538315445
3980000000.0 0.00010330146495574851 0.1674385444893721
4000000000.0 -0.1616422749125231 0.03449431363103812
