!Created with skrf (http://scikit-rf.org).
# Hz S RI R 50.0 
!freq ReS11 ImS11
400000000.0 -0.5292700412882623 0.6964044374650622
420000000.0 0.665142880014432 0.5674723760167893
440000000.0 0.2393096811489919 -0.8111538005413222
460000000.0 -0.7756567504485048 -0.1649345302801354
480000000.0 -0.26630377849581766 -0.6666115601325401
500000000.0 -0.39916367629661254 0.4029324330048804
520000000.0 0.17132687388862694 0.43227088029836763
540000000.0 0.2897378344355567 0.26834412465750535
560000000.0 -0.2892493623743939 0.20194917090162506
580000000.0 0.1315300756731037 -0.29375196078040355
600000000.0 -0.023970576482202497 -0.31873461027848693
620000000.0 -0.08310678721663317 0.32014251184195897
640000000.0 -0.10285637486823944 0.342572717768301
660000000.0 -0.02242038567107509 0.3742431779088591
680000000.0 0.0847866864483892 -0.39726165582917927
700000000.0 -0.37291520792245203 -0.2003265458923823
720000000.0 -0.29804874702754836 0.3262111531002501
740000000.0 -0.4416021371804068 0.07773625926487432
760000000.0 0.4028727740001733 -0.1568478294042015
780000000.0 0.2635953702747548 0.3047241456760504
800000000.0 -0.30528400981498827 0.2068151845476046
820000000.0 -0.019876318626006858 0.3101982572856101
840000000.0 -0.2311329201481549 -0.09840822120587137
860000000.0 0.03706614198374554 -0.1933020750741628
880000000.0 -0.03227292370161792 0.1414420674447626
900000000.0 0.06171012942754329 -0.05974942838202214
920000000.0 -0.0059255095043658215 -0.04585657177054558
940000000.0 0.03294995523067911 -0.01270705633617001
960000000.0 0.04111956442824202 -0.024878216650825426
980000000.0 0.033279586405964595 0.047177006417935985
1000000000.0 -0.0701509282230023 -0.000632359402964305
1020000000.0 0.03182490601035539 -0.07872694356828872
1040000000.0 0.05977954377442659 0.07823242364623202
1060000000.0 -0.1167085024080227 -0.07237671063318508
1080000000.0 -0.10671407074751701 -0.10916894950617675
1100000000.0 -0.14820106815055115 -0.09160861382022271
1120000000.0 -0.011893624856178519 0.19337393231436673
1140000000.0 -0.1172313230020425 0.19701744644982502
1160000000.0 -0.03733931019485374 0.262075591587613
1180000000.0 -0.29592349300204146 0.08940485728499514
1200000000.0 -0.3033359395114639 -0.15972206651090154
1220000000.0 0.29974415730251946 -0.23382532711912227
1240000000.0 -0.15330727341049694 0.37533921169989154
1260000000.0 -0.019609294415746242 -0.4333970762823467
1280000000.0 -0.21790971211034732 0.3889310156357385
1300000000.0 0.24099371294417188 -0.3831048970070217
1320000000.0 -0.24154055545952866 -0.3754840657403758
1340000000.0 -0.3485735508404536 -0.2619926659602428
1360000000.0 0.05865876007334278 -0.42799093029472696
1380000000.0 -0.08795089467967555 -0.419447523743793
1400000000.0 -0.39685129056559537 0.13075668408626104
1420000000.0 0.01813871278024058 0.3986554590539454
1440000000.0 0.371739199403126 0.0021758451276186795
1460000000.0 0.2466529670590447 -0.2327278374642085
1480000000.0 0.07086456547628035 -0.3017302705622653
1500000000.0 -0.08684477572201584 -0.2659815390359023
1520000000.0 -0.2386333133824439 0.08599170754884405
1540000000.0 0.019704963429626517 0.2304260740020949
1560000000.0 -0.18595665484281115 0.08499088805056793
1580000000.0 -0.1634180566434606 -0.08298666523184937
1600000000.0 0.08821035402472369 0.12307627533181936
1620000000.0 -0.001315949264368749 -0.12231619293567693
1640000000.0 -0.07286073699480164 -0.06323869189393211
1660000000.0 0.0753057660726065 -0.0024954313800871265
1680000000.0 0.049438960975986726 -0.008588395829319069
1700000000.0 0.012402165536280848 0.029668409001731
1720000000.0 0.020025601066040403 0.001234002703626338
1740000000.0 -0.028599147984654478 0.006813715523753354
1760000000.0 0.021942812083709077 0.046843838471639775
1780000000.0 0.027141061525014068 -0.0786387668292775
1800000000.0 0.11654881354066357 0.02817632124463156
1820000000.0 0.1480866059961734 -0.02123698825676442
1840000000.0 0.17719449483738947 0.04788767689710519
1860000000.0 -0.20030801132741566 0.06337246094515374
1880000000.0 0.2156683889879511 0.1035079647528935
1900000000.0 0.05004952912075453 -0.26829625884683306
1920000000.0 -0.29957418035898487 0.019458844149563788
1940000000.0 -0.2153319416756862 0.24982247670723925
1960000000.0 -0.0015795045083791957 0.3577346965903782
1980000000.0 0.3699865378614154 0.08793206061857432
2000000000.0 0.40299618811896537 -0.023215314488795404
2020000000.0 0.05856913550552194 -0.42038589020567196
2040000000.0 -0.41305643956804367 -0.1475704141240598
2060000000.0 -0.11020835223914256 0.43091293993671165
2080000000.0 0.44372394013718663 -0.04579798435439094
2100000000.0 -0.0818028912031489 -0.4301720737094133
2120000000.0 -0.41831527125399637 -0.06766051717891486
2140000000.0 -0.29115730318360217 0.28673141244485556
2160000000.0 -0.38677358411614543 0.013147138255703935
2180000000.0 -0.3628011322843526 0.05876008170448427
2200000000.0 -0.2506837408124376 0.24303152408883746
2220000000.0 -0.3196325915259193 -0.09844472366583291
2240000000.0 -0.29241602795125393 -0.16101880635912272
2260000000.0 -0.23965863950103597 -0.2383950364902644
2280000000.0 -0.344900852653153 -0.048708711467834225
2300000000.0 -0.03959851860467063 0.360751903149583
2320000000.0 0.3854942819409717 -0.031151778080658277
2340000000.0 -0.1328041561812756 -0.39694524127420244
2360000000.0 -0.08533380852861579 0.4502495277047563
2380000000.0 0.26818414596286855 -0.4258423402137064
2400000000.0 -0.30463694719803996 0.46117122172233027
2420000000.0 0.15088239981746526 -0.585141131016097
2440000000.0 0.21631802229823674 0.6175878208331345
2460000000.0 -0.6194627347375432 -0.31687402736059667
2480000000.0 0.7284535928781013 -0.02714415521114362
2500000000.0 -0.7471425147904804 0.07996333895947656
2520000000.0 0.7631762238497489 -0.04107989529870903
2540000000.0 -0.7461729443569635 -0.1820347274045507
2560000000.0 0.5118669352712216 0.5687877681345184
2580000000.0 0.019995573665579174 -0.7525826501430866
2600000000.0 -0.5368310696079895 0.49693548139148536
2620000000.0 0.7010802535978251 -0.053853283358498455
2640000000.0 0.4935717201072127 -0.4495701538320322
2660000000.0 -0.6235393667513808 0.00827060127507494
2680000000.0 0.44967718071604884 0.35969282820329573
2700000000.0 -0.09672040479950118 -0.5185810654774612
2720000000.0 -0.24160755885934077 0.4139622340334657
2740000000.0 0.4331604723630082 -0.03387093535406524
2760000000.0 -0.33429455347252063 -0.21212639691748256
2780000000.0 0.22089960003242162 0.2936214606780445
2800000000.0 -0.3024462399373948 -0.16624757317544797
2820000000.0 0.21845811084861744 -0.24665474306955226
2840000000.0 0.21577728974164834 0.23346067329340012
2860000000.0 -0.20820840356133177 0.23322954665697834
2880000000.0 -0.26389881560568984 -0.15773674890373532
2900000000.0 0.27774622675765204 -0.12018787692810254
2920000000.0 -0.29535133326559454 -0.047277658221508756
2940000000.0 -0.14384113689950873 0.2610494844838357
2960000000.0 -0.13242167007010436 0.26792632090553553
2980000000.0 -0.2827905968456658 0.10785707373128463
3000000000.0 -0.13160670702802196 -0.27657270724364186
3020000000.0 0.21247558700491714 -0.23011469677528348
3040000000.0 0.16763305628198302 0.26533058587874103
3060000000.0 -0.2932858966965889 -0.11552253533896746
3080000000.0 0.27431422193516464 -0.14972690595548668
3100000000.0 -0.08754859709640735 0.29716627412026736
3120000000.0 -0.24354501536603612 -0.18272346551702687
3140000000.0 0.1082979352988686 -0.2717877504318612
3160000000.0 -0.2020516093636586 0.18240441807079405
3180000000.0 -0.14150684196883045 -0.20872767064045017
3200000000.0 0.21316065486173238 -0.06612601489615319
3220000000.0 -0.14401934765889773 0.1272092867960793
3240000000.0 0.15927839321673426 -0.0255104957490749
3260000000.0 0.060942813439435264 -0.11609159063233587
3280000000.0 0.0871791568863453 -0.05974173712069499
3300000000.0 0.001063900514804179 -0.08421101549388714
3320000000.0 -0.01270199375060517 0.06244526428231136
3340000000.0 0.010231609396664683 0.0433613368733796
3360000000.0 0.005796474256616947 0.024392013133879276
3380000000.0 0.012970046699510317 -0.009261292047563374
3400000000.0 -0.027761535518692527 0.0069694393456655465
3420000000.0 0.04009871810570596 0.02247476136000156
3440000000.0 0.05011003386509287 -0.03092915887750277
3460000000.0 0.06467835318306042 -0.009242431599989736
3480000000.0 -0.06403514589363613 -0.029134877161082297
3500000000.0 -0.07461265637184776 0.014233745716300083
3520000000.0 0.0687673654633451 0.04891905935253538
3540000000.0 0.06396752332738237 0.07706333713135631
3560000000.0 0.10330345889732555 -0.056231615147429255
3580000000.0 -0.13735378689584848 -0.004622574217234999
3600000000.0 -0.14289980283717707 -0.07023930964876962
3620000000.0 -0.17136410877326885 0.03521867790665629
3640000000.0 -0.12288843034124365 0.14125891053959697
3660000000.0 -0.025142287725540027 0.1946461616249257
3680000000.0 0.035556232599488154 0.1943803167324553
3700000000.0 0.11188037911637294 0.15859401822987435
3720000000.0 -0.09009889474470041 0.1647014913836126
3740000000.0 -0.11983967003217691 -0.13028736741258498
3760000000.0 -0.16928630257016014 -0.0156105995924196
3780000000.0 -0.08780097210546212 0.13679372320004618
3800000000.0 0.006816158268004203 0.16138917491564092
3820000000.0 0.15182281499212996 0.051497228463414375
3840000000.0 0.0999941737437427 -0.12154917641024453
3860000000.0 0.11646575712967043 -0.1078805559017522
3880000000.0 -0.09847665902891559 -0.12524867799311518
3900000000.0 -0.14899545451804988 0.05726808780039921
3920000000.0 0.10784751926155112 0.11588343592429501
3940000000.0 0.12022824379329475 -0.1042796674547803
3960000000.0 -0.09958732751183229 0.1331694677924614
3980000000.0 -0.09849470213804837 0.13675988225877742
4000000000.0 -0.16497861983767168 -0.019240219835290128
