!Created with skrf (http://scikit-rf.org).
# Hz S RI R 50.0 
!freq ReS11 ImS11
400000000.0 -0.5415285600046694 0.6856132731334594
420000000.0 0.6321006167513996 0.6033553252994966
440000000.0 0.16599652692075828 -0.8278897835557296
460000000.0 -0.7743545893063494 -0.16814135883237372
480000000.0 -0.31506242449556654 -0.6454284854265225
500000000.0 -0.36596493675477954 0.4347001231862729
520000000.0 0.16342878526255983 0.436072723285028
540000000.0 0.32378863291752735 0.22628265314634838
560000000.0 -0.23063982322300922 0.2668076881237279
580000000.0 0.0951390689664959 -0.30850386472958063
600000000.0 -0.14311278573689454 -0.2874819079844428
620000000.0 -0.03467138599170893 0.3290166570643237
640000000.0 -0.13143319413439944 0.334233975583638
660000000.0 -0.05795546700000484 0.37117610841550897
680000000.0 0.255000646412672 -0.3159876730546675
700000000.0 -0.27156427020347834 -0.3236176356780922
720000000.0 -0.3907139041823804 0.203074856404949
740000000.0 -0.4424116181415317 -0.06735641740208771
760000000.0 0.4320666709301125 0.0027048091444180403
780000000.0 0.1931625999891878 0.3538083459927356
800000000.0 -0.30907812208641705 0.20067143214792135
820000000.0 -0.011082825949534076 0.3122152119554852
840000000.0 -0.24871774886668646 0.04471861857481424
860000000.0 -0.12996152666258903 -0.15050227583654915
880000000.0 0.10902781024504651 0.10087484104011381
900000000.0 -0.035593890174975634 -0.0831063447512205
920000000.0 0.01749246439746964 -0.045703891012403984
940000000.0 0.02557354359839626 0.02285973841088766
960000000.0 0.03698079857636379 0.030174299417542294
980000000.0 0.056249879686691984 -0.009116385451872986
1000000000.0 -0.027290822069121604 0.062397000169115965
1020000000.0 -0.06925831292222524 -0.04756085728500348
1040000000.0 0.08751907461481613 -0.04555120182640783
1060000000.0 -0.11743394127559997 0.07359443201739793
1080000000.0 -0.15112817429406936 -0.03355004740020214
1100000000.0 -0.17549592265482186 0.02322309941430765
1120000000.0 0.019941513192694618 0.19525837681930786
1140000000.0 -0.15339148606612324 0.17257521831825984
1160000000.0 -0.10951539483653874 0.24221591130357548
1180000000.0 -0.31042515618530464 -0.0008229259626801599
1200000000.0 -0.2066067671176533 -0.2743306759347229
1220000000.0 0.3615666799832306 -0.11857920760864284
1240000000.0 -0.28374492223187303 0.2891700228743309
1260000000.0 0.11771718127548467 -0.41678004546643616
1280000000.0 -0.31968285250743633 0.30974826713648757
1300000000.0 0.28554452789065143 -0.3498498354674973
1320000000.0 -0.2231286117267287 -0.385667863770945
1340000000.0 -0.34715330099995634 -0.26282662492568915
1360000000.0 0.03608874887445205 -0.42994740935535136
1380000000.0 -0.11534389285302561 -0.4127649367755785
1400000000.0 -0.3791605568710243 0.17650576355252845
1420000000.0 0.06208073414336209 0.39430280224183156
1440000000.0 0.3682098668107875 -0.06192638372432288
1460000000.0 0.13293373654332039 -0.3129730959529358
1480000000.0 -0.04134258651294702 -0.3073619794958222
1500000000.0 -0.16064687322312268 -0.23064471894327995
1520000000.0 -0.2313552421575981 0.10602232290636333
1540000000.0 -0.047926967733768235 0.22685451146553445
1560000000.0 -0.19902749493548177 -0.0485679091382173
1580000000.0 -0.06385268351362286 -0.1717357393455075
1600000000.0 -0.03365829986513377 0.14763467597342836
1620000000.0 0.09907346066069622 -0.07220152017249826
1640000000.0 0.028871867355015422 -0.09208320911859366
1660000000.0 -0.02224420279255215 0.07077351857331189
1680000000.0 0.045323084587238556 0.021050044161495956
1700000000.0 0.02757978986685489 0.016833141778531634
1720000000.0 0.015607071160141008 0.013375218543521404
1740000000.0 0.02911951936889584 -0.0035823055081805333
1760000000.0 -0.051198483911205024 0.002938315921917059
1780000000.0 0.08228747442147469 0.010096157867455925
1800000000.0 0.028748710323150264 0.11555561035305692
1820000000.0 0.11437212896787453 0.09610509467061813
1840000000.0 0.12270626765597699 0.13528834326831035
1860000000.0 -0.20967398669715473 -0.007401322480309193
1880000000.0 0.20386478321823914 0.12638393879232904
1900000000.0 0.04326206702825112 -0.27007228108478876
1920000000.0 -0.2925638885756305 0.07039194922370393
1940000000.0 -0.1458800815509237 0.2962214643918591
1960000000.0 0.11361417374610704 0.33916199491001886
1980000000.0 0.3773412554371367 -0.0466860693861786
2000000000.0 0.3739061850002892 -0.1514215275763106
2020000000.0 0.033030035742791515 -0.4225219443010787
2040000000.0 -0.396921414490299 -0.18690410183884246
2060000000.0 -0.1891874003142776 0.4020834371963498
2080000000.0 0.44317857433035773 0.04786220465759968
2100000000.0 0.034140039178052126 -0.4378067915164496
2120000000.0 -0.3886734818145486 -0.1738146212152909
2140000000.0 -0.3525807728929182 0.21105837948909745
2160000000.0 -0.3861739925298318 -0.05217889220181176
2180000000.0 -0.37035380056784295 -0.002557076689662235
2200000000.0 -0.27486043096993446 0.21814508047407033
2220000000.0 -0.3099996949134528 -0.129225036135663
2240000000.0 -0.3036568496801624 -0.1372929129706873
2260000000.0 -0.2143299145239725 -0.25929531732181454
2280000000.0 -0.3329316232533347 -0.10044221999772264
2300000000.0 -0.12739383813136923 0.3393602084319024
2320000000.0 0.38042121815692115 0.06580011947847386
2340000000.0 -0.01854696075928761 -0.41758054340427475
2360000000.0 -0.14065638424497837 0.4357712941465248
2380000000.0 0.30101951484442696 -0.40325022115822207
2400000000.0 -0.34871696483992254 0.42940022335846284
2420000000.0 0.19051395866402998 -0.573537826569079
2440000000.0 0.17485564714194948 0.6309763966921799
2460000000.0 -0.6123798438456914 -0.3314988845719147
2480000000.0 0.7290145846248367 -0.03473782908598403
2500000000.0 -0.7374761055256362 0.1520417087397422
2520000000.0 0.7632158185243876 -0.06064930076342394
2540000000.0 -0.7270876934536146 -0.2538983395786177
2560000000.0 0.45378774695015706 0.6183615839086772
2580000000.0 0.2435034720144884 -0.7140889326416369
2600000000.0 -0.6480479054785143 0.3418963280625464
2620000000.0 0.6870678097768085 0.15308288622696972
2640000000.0 0.5990227895923843 -0.29753273482110704
2660000000.0 -0.6100786329252601 -0.13158495092092062
2680000000.0 0.41311040637140245 0.4025223067598959
2700000000.0 -0.027503785077304686 -0.5272705001475397
2720000000.0 -0.32101623597877765 0.35539635868613545
2740000000.0 0.43022267388803415 0.05633596548611224
2760000000.0 -0.2997565369070206 -0.2582458651890053
2780000000.0 0.21346529651909452 0.29878070589741856
2800000000.0 -0.2934723520398742 -0.18009343045788026
2820000000.0 0.24858353799437052 -0.2162655122887875
2840000000.0 0.17795214131949888 0.26537518404513694
2860000000.0 -0.21968728655028552 0.22512680808978916
2880000000.0 -0.2564095609646637 -0.1740026325475576
2900000000.0 0.29221051003871135 -0.08714486172274875
2920000000.0 -0.29488082358735335 -0.06315797994968077
2940000000.0 -0.16315347558942236 0.25144528739505856
2960000000.0 -0.11178337702789463 0.2789966885199081
2980000000.0 -0.30027911483516906 0.05235355739258504
3000000000.0 -0.12050432698088895 -0.2827130568001177
3020000000.0 0.266637969094116 -0.1640651976411155
3040000000.0 0.04006004148882061 0.3112644818486045
3060000000.0 -0.23285672793185294 -0.2119876932428259
3080000000.0 0.3105970910475198 -0.040485375378596554
3100000000.0 -0.24779684398657442 0.18567466989331993
3120000000.0 -0.17666844664259765 -0.2478398085968844
3140000000.0 0.16729768744897536 -0.2408536606024493
3160000000.0 -0.2176745732122762 0.16420758737684907
3180000000.0 -0.14107208328498663 -0.2092118733500497
3200000000.0 0.16996135443107424 -0.1444986189495873
3220000000.0 -0.047483904473853616 0.18588841144521492
3240000000.0 0.07300992362570739 -0.1434758892210252
3260000000.0 -0.05543558313144797 -0.1172112233759129
3280000000.0 0.034988154132301774 -0.09786533166953856
3300000000.0 -0.01102851380227975 -0.08163699255541243
3320000000.0 -0.03710286161863783 0.05022550109055944
3340000000.0 -0.02751871424004625 0.034362234136108775
3360000000.0 -0.025730099140486455 0.004167586415393069
3380000000.0 0.01443587733237062 0.010025604025303593
3400000000.0 -0.019980406675554434 0.020505838627745507
3420000000.0 -0.013194276084079902 -0.04354065323118241
3440000000.0 -0.0578446227480973 0.008375316803328176
3460000000.0 -0.044201225221713374 0.04935412716518163
3480000000.0 0.061954838038266284 -0.03590525445559722
3500000000.0 -0.004681901965790595 -0.07677030543035025
3520000000.0 0.041844602544108926 0.07335155928454218
3540000000.0 0.024831519404210075 0.09617202637454597
3560000000.0 0.10891878398666562 0.03959190433425632
3580000000.0 -0.12462525076571263 -0.05350420602452978
3600000000.0 -0.08522942597270679 -0.13253290413812657
3620000000.0 -0.16147404370217108 -0.0636009496958339
3640000000.0 -0.18450642505972703 0.02066534556240195
3660000000.0 -0.12582567257561586 0.15008419930542397
3680000000.0 -0.05908213080066907 0.18769983435598447
3700000000.0 0.07408317787271762 0.17928598286956354
3720000000.0 -0.08218895380636897 0.1681741201278682
3740000000.0 -0.16306993466144934 -0.06756492741515234
3760000000.0 -0.16028729146653398 0.05249782722114999
3780000000.0 -0.0569889550447918 0.14994427602337165
3800000000.0 0.021654122876062602 0.15746886354534245
3820000000.0 0.15016585087691836 0.04895460253232056
3840000000.0 0.11935759726484654 -0.09844664731424949
3860000000.0 0.12053381490537858 -0.10170288955704922
3880000000.0 -0.1275377663764864 -0.0952871293881706
3900000000.0 -0.10112077798410528 0.12327461487030306
3920000000.0 0.156829453242903 -0.014075392352278452
3940000000.0 -0.007144892414669309 -0.157393727123928
3960000000.0 -0.005243317246364903 0.16348328700661047
3980000000.0 -0.012490213888685658 0.1652184666885442
4000000000.0 -0.16064128058343266 0.030802759976600123
