! Created with skrf (http://scikit-rf.org).
# Hz S RI R 50.0 
!freq ReS11 ImS11
400000000.0 -0.6755767153174373 0.5371520675385036
420000000.0 0.05623694185877299 0.866263777858622
440000000.0 0.8392098246803354 -0.0297101977126772
460000000.0 0.03738926781520285 -0.8032056690211233
480000000.0 0.19872769445146957 -0.703975825363258
500000000.0 -0.1565240286656249 0.5507683693184714
520000000.0 -0.3642398500087527 0.3036103643280813
540000000.0 0.22589682410603468 -0.34900668407554053
560000000.0 -0.32558206068725304 0.124427752246181
580000000.0 0.2785540970365784 -0.1694685924559081
600000000.0 -0.29393235258144274 -0.12077372152915292
620000000.0 0.18657460675278795 0.27467820391665004
640000000.0 -0.1986979316021134 0.2932172058542844
660000000.0 -0.29456797459552436 0.23109436962926305
680000000.0 0.13511257689773312 -0.38063025982881504
700000000.0 -0.41540040057102173 -0.09706772714062709
720000000.0 -0.2781679538943677 0.33884177101458335
740000000.0 -0.44136816983903127 0.03386758885167682
760000000.0 0.42308552027478424 0.07945913752413572
780000000.0 0.14127174574343662 0.3773370026968004
800000000.0 -0.352078946197811 0.12256018239214454
820000000.0 0.1050211303194874 0.2988490637195476
840000000.0 -0.21063015125692885 0.1455324043189332
860000000.0 -0.12716917756217946 -0.15707444373108273
880000000.0 -0.1548039199814218 -0.03890355902120826
900000000.0 -0.045655797326723015 0.06575803749311011
920000000.0 -0.017381473017836838 -0.04367838603716977
940000000.0 -0.011941571283358217 -0.04486094637915198
960000000.0 -0.05328112586919108 -0.014302714184786507
980000000.0 0.0012646808301649648 0.06685381571175204
1000000000.0 0.020286629633680966 -0.06543213946205687
1020000000.0 -0.011602842455415015 0.08127116821815386
1040000000.0 -0.0006838772503595024 0.08630482517456045
1060000000.0 -0.11976642012060158 0.03501037553176489
1080000000.0 0.14059973582947435 0.007188529184600128
1100000000.0 0.1525506028247572 -0.06933074546552023
1120000000.0 -0.014164593638067281 -0.18911284959174995
1140000000.0 -0.12682880477326552 -0.18959820745743208
1160000000.0 -0.1734900595399843 -0.21029134849548842
1180000000.0 -0.26860339069018985 -0.16203876698951533
1200000000.0 -0.1977663162167858 -0.28981115288500237
1220000000.0 0.36497478015067286 -0.12245747955096184
1240000000.0 -0.07403946705419642 0.4077958834125212
1260000000.0 -0.13550604290933435 -0.4189194755979915
1280000000.0 0.23238059342344464 0.3893267531218188
1300000000.0 -0.05321798215955822 -0.4541197825177267
1320000000.0 -0.38281343524460265 0.2308764875278776
1340000000.0 -0.3876238594600458 0.1981686901066481
1360000000.0 -0.3575039060328873 -0.22898068043465433
1380000000.0 -0.36690711708500384 -0.2126827186768767
1400000000.0 -0.2135256720167411 0.3473414125895169
1420000000.0 -0.09009990602591017 0.3761954204335279
1440000000.0 0.07157667455068811 0.35488866247537926
1460000000.0 0.1606919168528317 0.2944321769648317
1480000000.0 0.2104532570687315 0.22878542574187682
1500000000.0 0.2796323223806612 0.07102527573440705
1520000000.0 -0.22770244382594018 -0.13931591063209914
1540000000.0 0.05941551801942519 0.23728821745608408
1560000000.0 0.001308067151363311 0.21665960777899454
1580000000.0 0.08604848688690866 0.1697926031209973
1600000000.0 -0.14701585267129402 0.05828555479133299
1620000000.0 0.029376644501639827 -0.11884358163839473
1640000000.0 -0.09525792336100244 0.014395445197458442
1660000000.0 -0.0678399308632764 -0.02247414365661805
1680000000.0 0.027376854329107348 0.03732841698551054
1700000000.0 0.0009626641064947203 0.02564642550910482
1720000000.0 -0.00031580110896048223 -0.023570936293883023
1740000000.0 -0.0350239330930177 -0.023246049590398384
1760000000.0 0.043559367575303314 0.049304806375973315
1780000000.0 -0.004953926233612156 0.09423007478825204
1800000000.0 0.09275098498976272 -0.08447624903076721
1820000000.0 0.13173365215753577 0.0761091931346919
1840000000.0 -0.1662135834189626 0.0745375857516914
1860000000.0 0.20595831781101984 -0.0230632066020205
1880000000.0 0.06032126723638138 -0.22629389588793905
1900000000.0 -0.23087613363643686 -0.1303017164104735
1920000000.0 -0.2905780355792925 0.05115555276695686
1940000000.0 -0.3100730268280392 0.09333398881144764
1960000000.0 -0.28975132789421143 0.20435033646609305
1980000000.0 0.09068817198577779 0.37184016716717666
2000000000.0 0.31690439842024887 0.2616796492989377
2020000000.0 0.26781335999672296 -0.341477243617084
2040000000.0 -0.38529103583385044 -0.23609656028088782
2060000000.0 0.24677668278952603 0.38578978771969985
2080000000.0 0.13631006161601597 -0.43573155818885123
2100000000.0 -0.44589879966193885 -0.04349098474869375
2120000000.0 0.03653478618804173 0.42862901161738304
2140000000.0 -0.24375165960933273 0.32775827836879795
2160000000.0 0.03973381201511389 0.3853148623642597
2180000000.0 -0.03951680767760069 0.36046475138055756
2200000000.0 -0.21688738519565 0.2712974122039818
2220000000.0 -0.32611918668263246 -0.07281115776362271
2240000000.0 -0.2124174497172011 -0.26362148359068427
2260000000.0 -0.27497481827709835 -0.21136376156078493
2280000000.0 -0.35740950228503415 0.045948352705193506
2300000000.0 0.3089007681513278 0.22114503414722214
2320000000.0 -0.10149201808592559 -0.3939559338840133
2340000000.0 0.0313994858772998 0.4366780181644485
2360000000.0 0.03704471837059479 -0.47482715432480127
2380000000.0 0.021628388553355873 0.5172573832188615
2400000000.0 -0.0754039647541358 -0.5599034749482997
2420000000.0 0.3533550663184844 0.4998355931914492
2440000000.0 -0.6175904308750164 -0.22189580553857863
2460000000.0 0.6745808267105932 -0.1588808179684149
2480000000.0 -0.5883120525194386 0.4163079960864599
2500000000.0 0.6673129865338423 -0.31905531711194784
2520000000.0 -0.7301496417467038 0.1643814864593559
2540000000.0 0.7219359542840946 0.1986196324590016
2560000000.0 -0.3068427202121113 -0.6749681132736077
2580000000.0 -0.35687215797419924 0.6313605277585888
2600000000.0 0.7001674051295057 -0.016479159783679195
2620000000.0 -0.35113507038246544 -0.5684582255626783
2640000000.0 -0.4579343538562252 -0.43209471921738857
2660000000.0 -0.26513020506367474 0.5209026749208739
2680000000.0 0.489866025974093 0.22489835676264164
2700000000.0 0.1433989053181564 -0.4750856058737628
2720000000.0 -0.4318604687281141 0.14068781325663796
2740000000.0 0.32362429136976356 0.26118740993405887
2760000000.0 -0.2521151696286637 -0.28837148226965315
2780000000.0 0.3513457034511384 0.05226057372444084
2800000000.0 -0.13361513466263503 0.30299527022347045
2820000000.0 -0.31037459796916184 -0.030670690247133876
2840000000.0 0.03416968806156884 -0.292761249363502
2860000000.0 0.2356621550902518 0.161423767102892
2880000000.0 -0.2784865662496926 0.026830625749236777
2900000000.0 0.27663891742083957 0.006787026972643037
2920000000.0 0.11565181339409605 -0.2530485913085862
2940000000.0 -0.19397879954312308 -0.20759861082784611
2960000000.0 -0.20754813100810654 -0.1992686130539362
2980000000.0 -0.01774175634375026 -0.29781932156966034
3000000000.0 0.19169477674260352 -0.23974569925581266
3020000000.0 0.3089214219603525 -0.05028756524414895
3040000000.0 0.13706319437563735 0.28308086140694977
3060000000.0 -0.20473663135937345 0.24006718255852744
3080000000.0 -0.1881692575462277 -0.24768467487863713
3100000000.0 0.30074575684306726 -0.03760294708432886
3120000000.0 -0.01903063335135657 0.29029882731544104
3140000000.0 -0.11997873114957405 -0.2481600327869341
3160000000.0 -0.18878143962560986 0.17277969927744646
3180000000.0 0.15467286406460637 -0.17731898710523183
3200000000.0 -0.1639601108965675 0.13160284478509965
3220000000.0 0.17995337537280323 -0.03934688904395474
3240000000.0 0.022147380825564143 -0.1584319181158082
3260000000.0 -0.050111937438026 -0.12778344018566237
3280000000.0 0.008839992357021391 0.11631288814557247
3300000000.0 -0.09371451967926073 0.00992333944489089
3320000000.0 0.06986366589765032 -0.004401022905903359
3340000000.0 0.011245238579669426 0.043120971896268186
3360000000.0 0.025756808508817463 -0.00020799275587689192
3380000000.0 -0.026320590859065355 -0.0017540523977479937
3400000000.0 0.0393845579218355 -0.003013465424483771
3420000000.0 0.028473557861311605 0.04535422386694369
3440000000.0 0.05894254815935064 0.004588401071720243
3460000000.0 -0.049413459090340534 0.02465909506406215
3480000000.0 -0.05131330552845277 0.006078296793754321
3500000000.0 -0.056195489169415726 -0.009982280858217923
3520000000.0 0.07343864458913045 -0.02060973511204515
3540000000.0 -0.08393774901798319 -0.055000525360708236
3560000000.0 -0.01586822166911619 -0.12236017229246791
3580000000.0 -0.01126636452048908 -0.14574096252810445
3600000000.0 -0.15307415231957655 0.06956487926681053
3620000000.0 0.1788390501724956 0.007155478689831212
3640000000.0 0.1576630127343462 -0.09937317339026494
3660000000.0 0.07352815423069232 -0.17251133439977476
3680000000.0 0.15825669772868795 -0.09370177973389367
3700000000.0 0.03609159033090767 0.1739829480711353
3720000000.0 0.009415766573833636 -0.1717425679698499
3740000000.0 -0.08643998347135406 0.14405960108370194
3760000000.0 -0.010148010595288831 0.16762461357325562
3780000000.0 0.1392014550544121 -0.09404017060332291
3800000000.0 -0.16962688506958587 -0.011065615951897097
3820000000.0 0.13312893134114653 -0.1038342651487216
3840000000.0 -0.10940718889695303 0.11895861296164201
3860000000.0 0.13618512911169653 0.06999058600759273
3880000000.0 0.13528487957951854 0.054455829897654816
3900000000.0 0.004836343935523421 0.13921454133727848
3920000000.0 -0.11377673092286636 -0.08677323235346797
3940000000.0 -0.06524453275944334 -0.13801745494280662
3960000000.0 0.14453102596556477 0.08551096864993865
3980000000.0 0.03297660457463495 -0.17537057541124274
4000000000.0 -0.12631996477242793 0.12622607404825692
