! Created with skrf (http://scikit-rf.org).
# Hz S RI R 50.0 
!freq ReS11 ImS11
400000000.0 -0.6848437728828392 0.5254710277758954
420000000.0 0.014321106023063714 0.8679875778316817
440000000.0 0.8398659970528461 -0.016662808810394385
460000000.0 0.05275044511983966 -0.8022583710889926
480000000.0 0.21267422893736782 -0.699885604566952
500000000.0 -0.18959274210101476 0.540230089821142
520000000.0 -0.3723873086676077 0.29350406890210645
540000000.0 0.2502362109470477 -0.33169249084901836
560000000.0 -0.33251344633957913 0.10575010311383508
580000000.0 0.23971395000025333 -0.2219351865857382
600000000.0 -0.2782641016234233 -0.15394395860655932
620000000.0 0.15890627432904014 0.29202802756409635
640000000.0 -0.20893012991517954 0.28702242602595096
660000000.0 -0.3012853677514547 0.22239666746684097
680000000.0 0.14048292077349536 -0.3782849171725198
700000000.0 -0.40987130953081585 -0.11750156889623047
720000000.0 -0.29404400159785987 0.3253112981047941
740000000.0 -0.4433335845374565 -0.02452764570722777
760000000.0 0.4200544597639164 0.0934065176350369
780000000.0 0.1619516986087673 0.36857344372844997
800000000.0 -0.3330511490751564 0.1665125583005887
820000000.0 0.13301601703213897 0.2876151853924437
840000000.0 -0.2100929642677335 0.14640778317050876
860000000.0 -0.12897216394998756 -0.15557530820134968
880000000.0 -0.15608090252983403 -0.03069132569553305
900000000.0 -0.051397375100262585 0.06127055465269948
920000000.0 0.01863048691450881 -0.043188992172658765
940000000.0 -0.016075247845425637 -0.04319197065532113
960000000.0 -0.05426585747354255 -0.003775259479290951
980000000.0 0.010557683455503616 0.06579330283889873
1000000000.0 0.007570141978002577 -0.06751393743915819
1020000000.0 0.005179551146174662 0.0815714743390273
1040000000.0 0.005663863213651044 0.08624831781851404
1060000000.0 -0.11528572244758428 0.048503670520275106
1080000000.0 0.1400501574106629 0.017618090477681925
1100000000.0 0.16150981452649413 -0.04555889347721593
1120000000.0 0.01025419157589536 -0.18944637192943398
1140000000.0 -0.10943684632074546 -0.20045148804609952
1160000000.0 -0.15571860496220372 -0.22411472120777418
1180000000.0 -0.2596438495847279 -0.17653833476573252
1200000000.0 -0.17808871502584717 -0.30226651658673515
1220000000.0 0.37018833450063443 -0.10522557851086849
1240000000.0 -0.08573463224727652 0.405485123338877
1260000000.0 -0.11705567299256422 -0.42417504641310433
1280000000.0 0.23091671668323735 0.3900815336194367
1300000000.0 -0.0589487854109844 -0.4531539343150264
1320000000.0 -0.36860860082885644 0.2530936652358524
1340000000.0 -0.3932706015052924 0.18643961961294805
1360000000.0 -0.35840466746838506 -0.22719758796599504
1380000000.0 -0.37284279769051654 -0.20137810470653034
1400000000.0 -0.22224809450193475 0.3422522302775475
1420000000.0 -0.10140595445584293 0.3735494734339133
1440000000.0 0.0864450924058123 0.35191947056668965
1460000000.0 0.18266847353840712 0.28165732276681177
1480000000.0 0.23080471242354966 0.2085851875520859
1500000000.0 0.28306920206794167 0.058182340894456064
1520000000.0 -0.225215385880601 -0.14470560389984027
1540000000.0 0.06720641901653114 0.23573525521051333
1560000000.0 0.000313077040751006 0.216801142894971
1580000000.0 0.078330221373827 0.17369960324864275
1600000000.0 -0.13668624777070287 0.07999214636576556
1620000000.0 0.05463540143601889 -0.10963988577729968
1640000000.0 -0.09597814536826099 -0.0035229393913729836
1660000000.0 -0.06904092138433415 -0.017371168941147916
1680000000.0 0.0396120860230371 0.023261032393173554
1700000000.0 0.010969969437785283 0.02405558332729591
1720000000.0 -0.011415175509998847 -0.021142042922804364
1740000000.0 -0.04222551933230271 0.0023766978069022925
1760000000.0 0.044799441036142904 0.048269127448305436
1780000000.0 0.0010308635180053232 0.09404226679841897
1800000000.0 0.09363771660316356 -0.0830296017564119
1820000000.0 0.13282978296802153 0.07302386473995465
1840000000.0 -0.16508588871710697 0.07517518133221587
1860000000.0 0.20504982409744318 -0.022830277071455508
1880000000.0 0.06587989874323369 -0.2241959985039278
1900000000.0 -0.22149606317403975 -0.14450071742148354
1920000000.0 -0.2927755777928433 0.03407682687474709
1940000000.0 -0.3112970991070427 0.08895301648465512
1960000000.0 -0.2918426479091136 0.20178048579365812
1980000000.0 0.09940574041762289 0.370009623076313
2000000000.0 0.34636989652997213 0.22125063426330271
2020000000.0 0.282312411907344 -0.3302437342189246
2040000000.0 -0.413249431018384 -0.18350579095665098
2060000000.0 0.2295353337158284 0.3969688019522284
2080000000.0 0.17313978503267138 -0.42309021432729815
2100000000.0 -0.44469290899926117 -0.05598504704894867
2120000000.0 0.024773265414317208 0.4294307150275451
2140000000.0 -0.278983477428298 0.2985572940606979
2160000000.0 -0.02813946022656758 0.3862805427144819
2180000000.0 -0.09043781954222964 0.35117897901266903
2200000000.0 -0.25264880707182014 0.23792992998532034
2220000000.0 -0.31700311949768023 -0.1052799304820182
2240000000.0 -0.1892079754879169 -0.2805128292747324
2260000000.0 -0.25314743870782197 -0.23637895439733675
2280000000.0 -0.3575410225196842 0.04208225607812869
2300000000.0 0.3091150143173034 0.22000811224600764
2320000000.0 -0.09673904836278024 -0.3946276275187374
2340000000.0 0.025111068560446512 0.43638722788648593
2360000000.0 0.03762288476084692 -0.47412422593022985
2380000000.0 0.026233241862110717 0.5166539730457959
2400000000.0 -0.06424381816294983 -0.5609346274311078
2420000000.0 0.3500098903331049 0.5021198106726676
2440000000.0 -0.6114167491532911 -0.23887254689701193
2460000000.0 0.6789559550547085 -0.14067424870948797
2480000000.0 -0.6143989550357849 0.3781452452067537
2500000000.0 0.6858613903880757 -0.2790495844591313
2520000000.0 -0.7455622339929583 0.07632550986067928
2540000000.0 0.6749422713583868 0.32696332956299823
2560000000.0 -0.27666256489141683 -0.6884693666335795
2580000000.0 -0.4711430748651764 0.5523913615969936
2600000000.0 0.700851734281625 0.008437635057910531
2620000000.0 -0.3499319619031188 -0.5698385130627341
2640000000.0 -0.37677462089045954 -0.5048274946832727
2660000000.0 -0.3382577735338104 0.47681935334258563
2680000000.0 0.4739527004252486 0.25719494188763464
2700000000.0 0.1891358748256141 -0.45899336422068354
2720000000.0 -0.4430335196330907 0.10052369848815347
2740000000.0 0.3261639038908192 0.25825105050585456
2760000000.0 -0.2555333357890932 -0.2854347950856413
2780000000.0 0.3532648154184171 0.03547545877303961
2800000000.0 -0.11921120620591749 0.30867696680125256
2820000000.0 -0.3116052921702092 -0.005912277671834236
2840000000.0 0.0011584155655571886 -0.2949055144115092
2860000000.0 0.25106446966892026 0.13640272538870363
2880000000.0 -0.2797755156495037 0.019683506695384913
2900000000.0 0.27697590123937516 0.01321944138427272
2920000000.0 0.1299313096545726 -0.2470162940434969
2940000000.0 -0.18397761410660954 -0.2178343655659894
2960000000.0 -0.18245017637772368 -0.2235818799679378
2980000000.0 0.01178232276691285 -0.2995163416575501
3000000000.0 0.20942437605399988 -0.2261039070427137
3020000000.0 0.31383551469559806 -0.006933247096758558
3040000000.0 0.14296328616218934 0.2809657168856586
3060000000.0 -0.2748970583458176 0.15559761909754805
3080000000.0 -0.13899749318662677 -0.27868113200237915
3100000000.0 0.3019145739205946 -0.023213850011516896
3120000000.0 -0.12088329703816275 0.2640516563116214
3140000000.0 -0.038941754735533025 -0.27234321768857755
3160000000.0 -0.22631674210947744 0.11844277253787774
3180000000.0 0.1817029620376395 -0.14909601948351908
3200000000.0 -0.1882731496970134 0.09265079277348665
3220000000.0 0.18372928072909067 -0.017236818408405435
3240000000.0 0.032683566436741335 -0.1560273065482376
3260000000.0 -0.044843883574280284 -0.12933373914292276
3280000000.0 0.009189777046668816 0.11621616837793515
3300000000.0 -0.07562235919090776 0.055825740126363294
3320000000.0 0.05530581273078454 -0.04253890335364265
3340000000.0 0.04066056598957805 0.01685385708104677
3360000000.0 0.0014492093421320392 -0.025369453421559343
3380000000.0 -0.024226571139510485 0.011914732060752367
3400000000.0 0.038984963166694954 0.008758324618405767
3420000000.0 0.024165153608694662 0.048261453760761276
3440000000.0 0.05059334916828115 0.031030033746694715
3460000000.0 -0.054481395805151246 -0.008654540778570877
3480000000.0 -0.0313872682445473 -0.04085513889629955
3500000000.0 -0.02717760412516815 -0.050230173963540535
3520000000.0 0.06000572803804786 0.0475752744374492
3540000000.0 -0.05951809957654757 -0.08141323185281232
3560000000.0 0.03987880183071989 -0.11710737009907887
3580000000.0 0.03327481139439447 -0.1425053682680142
3600000000.0 -0.16498881205108773 0.03207457006859844
3620000000.0 0.1735175134384075 0.043544430618608236
3640000000.0 0.17293966242244144 -0.06852563403093419
3660000000.0 0.0870320454005499 -0.16566105159049863
3680000000.0 0.1718156579099945 -0.06405707297576889
3700000000.0 0.015144157867389619 0.17623001113712122
3720000000.0 0.03191454950459643 -0.16817028969528147
3740000000.0 -0.10029625484733194 0.13422576452433047
3760000000.0 -0.0234173869565934 0.16585195755774054
3780000000.0 0.135671843853547 -0.09828639500906979
3800000000.0 -0.16906113227625005 0.011973206629017324
3820000000.0 0.11972516533594604 -0.1181099942014768
3840000000.0 -0.08430558025832391 0.13726840344317354
3860000000.0 0.1450176789759028 0.046585192624611874
3880000000.0 0.13764892265221826 0.045415632527906515
3900000000.0 0.01531771974318638 0.13772121827613804
3920000000.0 -0.11503356272607526 -0.08354528523274904
3940000000.0 -0.06598504294420633 -0.13745059580699523
3960000000.0 0.1518469081025789 0.07155094768944503
3980000000.0 0.020317133883477785 -0.1775714165254155
4000000000.0 -0.11904974882538123 0.13368026723271603
