! Created with skrf (http://scikit-rf.org).
# Hz S RI R 50.0 
!freq ReS11 ImS11
400000000.0 -0.6781230380320542 0.5316193676507683
420000000.0 -0.014978767983248166 0.8676924255318512
440000000.0 0.8403990486110786 0.03031605832685737
460000000.0 -0.00985820495415633 -0.8049414845646649
480000000.0 0.17335815728293155 -0.7096361596710782
500000000.0 -0.3361021209281465 0.46233336515728457
520000000.0 -0.3664437685679937 0.30425563544344414
540000000.0 0.0852278674084481 -0.40728335479410455
560000000.0 -0.3328669580302073 0.0983060918439117
580000000.0 0.31683297851992104 -0.08428759047774656
600000000.0 -0.3187564618002503 -0.010394779039868783
620000000.0 0.17815528482377732 0.2788298058315379
640000000.0 -0.2289155128336246 0.27062175032947083
660000000.0 -0.3262068874895995 0.18562490915428373
680000000.0 0.1596289499574634 -0.37187672262036714
700000000.0 -0.41644953600260226 -0.0915295528398827
720000000.0 -0.32444870422783534 0.29413773031246376
740000000.0 -0.44304225206858194 -0.010534579071305127
760000000.0 0.42811642675319644 0.0386956402433488
780000000.0 0.16186852348801467 0.3695151940149363
800000000.0 -0.3385885253390284 0.15537462021546555
820000000.0 0.11807122917745014 0.2939316108897956
840000000.0 -0.22383723745427173 0.12362805549770652
860000000.0 -0.12504175943721135 -0.15878479123415615
880000000.0 -0.1526414708047034 -0.0438063154870768
900000000.0 -0.052368064216541034 0.06085755572712113
920000000.0 0.018851972370323794 -0.04253683222155286
940000000.0 0.01561388706809359 -0.042565780105083655
960000000.0 -0.042346268795739876 -0.03449723574802693
980000000.0 0.038335754807591584 0.05422526583658228
1000000000.0 0.006296065877356321 -0.06717788604288658
1020000000.0 -0.0032893361570212913 0.081812433424691
1040000000.0 -0.01724808192337215 0.0848332905519897
1060000000.0 -0.11668136467151351 0.04534261758790285
1080000000.0 0.138896211031562 0.026047974761754047
1100000000.0 0.1661561830656943 -0.023787896162198608
1120000000.0 -0.00821323363285684 -0.18994958262311484
1140000000.0 -0.11297786567680121 -0.19894926322664974
1160000000.0 -0.1660915682418161 -0.21660403800615974
1180000000.0 -0.26407142863671745 -0.17018128779184488
1200000000.0 -0.17932832194536857 -0.30188190346397015
1220000000.0 0.3727647648338214 -0.09542066380532324
1240000000.0 -0.0836402930181137 0.4058927844263784
1260000000.0 -0.11815283545936042 -0.42365120917804167
1280000000.0 0.22344297239866154 0.39400383390073
1300000000.0 -0.07261167144194217 -0.4507837050913402
1320000000.0 -0.3781028473865077 0.23767925050629163
1340000000.0 -0.3854871353084082 0.2011320084375427
1360000000.0 -0.3640689182688319 -0.2176699011763202
1380000000.0 -0.36666070931442135 -0.21263442132433777
1400000000.0 -0.2162970432615509 0.34584271192351335
1420000000.0 -0.0895801168758459 0.3766084778491726
1440000000.0 0.10739585522457877 0.34623650309559306
1460000000.0 0.1793287780726757 0.2840050075444414
1480000000.0 0.22087776209009238 0.21927229688174263
1500000000.0 0.28637776200079035 0.03882753776421174
1520000000.0 -0.2386485570974178 -0.12086513747781757
1540000000.0 0.07038612670304314 0.23479557966337025
1560000000.0 0.002839071350479494 0.2170740958574927
1580000000.0 0.05968913257543399 0.18093528700867118
1600000000.0 -0.15511180097388527 0.03338012432543712
1620000000.0 0.06831295440909188 -0.10159391507138266
1640000000.0 -0.09546157590204672 -0.005634416663871198
1660000000.0 -0.07018943437383722 -0.011251981486564968
1680000000.0 0.03596478129814628 0.027518295592925887
1700000000.0 0.023792456120116233 0.009408751184764193
1720000000.0 -0.019385680105857245 -0.014467228747609837
1740000000.0 -0.04118390626969041 0.011055049242481706
1760000000.0 0.048636755095978056 0.04454435982990096
1780000000.0 -0.012168746150678962 0.0932410536603436
1800000000.0 0.09837534385849353 -0.0771679324738391
1820000000.0 0.12760195489683965 0.08150657036648247
1840000000.0 -0.1706723296037297 0.05992696721762368
1860000000.0 0.20608608555026697 -0.00619590144298708
1880000000.0 0.0731319195735573 -0.22143135749534407
1900000000.0 -0.2221972709301674 -0.1428725002600847
1920000000.0 -0.29327123525908916 0.030614742123728462
1940000000.0 -0.3131579925472139 0.08161590176221324
1960000000.0 -0.28535682845038124 0.21090432615951585
1980000000.0 0.11582982713267563 0.365331923289569
2000000000.0 0.35067734245841836 0.21480109062938713
2020000000.0 0.26339542772128166 -0.34570387113905315
2040000000.0 -0.4088881779423035 -0.19387115484748998
2060000000.0 0.23630033183970287 0.3932650988649258
2080000000.0 0.1878370604332631 -0.41709154597202774
2100000000.0 -0.44540023129411177 -0.05188484858280584
2120000000.0 0.029844094666190736 0.4294507246729349
2140000000.0 -0.3121687803312193 0.26432887040406766
2160000000.0 -0.036019953566316536 0.38587220657144317
2180000000.0 -0.11090765688390218 0.345566109843622
2200000000.0 -0.25644872179923683 0.23406336336649078
2220000000.0 -0.3086539611393237 -0.12826346721648912
2240000000.0 -0.1728648192657561 -0.29089026708067156
2260000000.0 -0.26293200593828675 -0.22567757611360198
2280000000.0 -0.3579407600901889 0.0354094378140206
2300000000.0 0.28938499581723914 0.24446050050257398
2320000000.0 -0.09430052017530281 -0.39476668497439776
2340000000.0 -0.01894165935807791 0.4358269974056721
2360000000.0 0.06991760370184874 -0.46970527039629556
2380000000.0 -0.0057808524390804165 0.5167370450655563
2400000000.0 -0.04455886620097447 -0.5623320564968209
2420000000.0 0.3406582573407342 0.5079975206253627
2440000000.0 -0.5882017577971551 -0.29101582819463634
2460000000.0 0.6828746823786536 -0.12087292035596255
2480000000.0 -0.6470371766318325 0.31982151074922743
2500000000.0 0.6797250153473524 -0.2935147275423394
2520000000.0 -0.7445942645435124 0.08607881705381142
2540000000.0 0.6855032096585776 0.30439976207132247
2560000000.0 -0.24031680267602046 -0.7024940211108816
2580000000.0 -0.5332276218813756 0.4935516378546332
2600000000.0 0.6926251097445106 0.11078862796625961
2620000000.0 -0.2178505226240591 -0.6329009104460186
2640000000.0 -0.3902325780900972 -0.4952770518329082
2660000000.0 -0.352321722899978 0.4674169558069745
2680000000.0 0.40430084819293366 0.35716482106406355
2700000000.0 0.24566052269977448 -0.4314293262659671
2720000000.0 -0.44619855003872444 0.08635339925839859
2740000000.0 0.32885927003989135 0.25495720438822195
2760000000.0 -0.2512674225214682 -0.28914747840030985
2780000000.0 0.3501272138978133 0.05821113666740175
2800000000.0 -0.12645479793979458 0.3061127459019253
2820000000.0 -0.31181255426766585 -0.003541861300865902
2840000000.0 0.00024347281690670927 -0.29492622076377434
2860000000.0 0.24258294523409585 0.15137238885422954
2880000000.0 -0.27727696331162927 0.045174175548204444
2900000000.0 0.27746255038473544 0.005060266916935765
2920000000.0 0.1380280415140522 -0.24330638849514494
2940000000.0 -0.18113277921126045 -0.22128681584710366
2960000000.0 -0.19182474421360168 -0.2164243706830513
2980000000.0 0.002820446037986054 -0.29984522090042437
3000000000.0 0.20666343908391735 -0.22870850685012878
3020000000.0 0.3114411038791882 -0.043598193860418126
3040000000.0 0.13811939592391356 0.28394230968887413
3060000000.0 -0.2575063582481737 0.18347494281464286
3080000000.0 -0.10875762632253363 -0.2920537591141364
3100000000.0 0.3002911440658729 0.04243186021699393
3120000000.0 -0.11259684755703113 0.26788425470429866
3140000000.0 -0.015163696293602187 -0.27510866132934303
3160000000.0 -0.2315359198418588 0.10851344359839
3180000000.0 0.19997525575749872 -0.12255290644458113
3200000000.0 -0.19274507632160634 0.08293041468575588
3220000000.0 0.1838984282137131 0.007497968362919945
3240000000.0 0.052472704374566866 -0.1505377411356589
3260000000.0 -0.037127330645095165 -0.13149118758116785
3280000000.0 0.005499307233606571 0.11573604154961208
3300000000.0 -0.08051783812241242 0.04772516556390813
3320000000.0 0.04606929320198015 -0.05142322436517209
3340000000.0 0.04230198690578803 -0.011396628643190843
3360000000.0 -0.025676439847839044 -0.005388051071142029
3380000000.0 -0.012778441296728305 0.024536803892214267
3400000000.0 0.015427264202119676 0.03741161641940665
3420000000.0 -0.02893310927692374 0.04585328873535114
3440000000.0 0.04099703020455665 0.04334435450012612
3460000000.0 -0.03843085429679309 -0.03945156477648748
3480000000.0 0.0066841634944594785 -0.05163439419348835
3500000000.0 0.015684104645027154 -0.05526768526716119
3520000000.0 0.05359334968056235 0.055872544506599786
3540000000.0 -0.051224574821112576 -0.0882077915694012
3560000000.0 0.03837251471424579 -0.11874919596204893
3580000000.0 0.07913264080599589 -0.1233289881374829
3600000000.0 -0.1678087807986763 -0.012521843928802207
3620000000.0 0.15497304091326672 0.08890734167261378
3640000000.0 0.1837527900038826 -0.025637651377171822
3660000000.0 0.1171929612150226 -0.14576737345537955
3680000000.0 0.17977203281250298 -0.03588891336662951
3700000000.0 -0.023148170622289393 0.17507046378259872
3720000000.0 0.0725173958641843 -0.15498013436068708
3740000000.0 -0.1239824986059858 0.11210808954084305
3760000000.0 -0.0632160756282692 0.15457318315329183
3780000000.0 0.1503775138868195 -0.07340739577793942
3800000000.0 -0.16884617932438015 -0.011513553596053171
3820000000.0 0.12892731342574323 -0.1071192343970335
3840000000.0 -0.07709194848690587 0.1399304268643722
3860000000.0 0.13941039981471537 0.059138843658210295
3880000000.0 0.1333586559525089 0.05521848713127521
3900000000.0 -0.00479808904278453 0.13767653620594467
3920000000.0 -0.09447978934331133 -0.10578831522216627
3940000000.0 -0.047871823058169304 -0.14446654287431202
3960000000.0 0.14781148333244654 0.07772476546681502
3980000000.0 0.027613348176439376 -0.17614923039155983
4000000000.0 -0.12043221599315085 0.13168921516212048
