! Created with skrf (http://scikit-rf.org).
# Hz S RI R 50.0 
!freq ReS11 ImS11
400000000.0 -0.6788235690020382 0.532799150199043
420000000.0 0.028353895023296355 0.8677641128015141
440000000.0 0.8397151128164106 -0.023432255205208294
460000000.0 0.03584681234408761 -0.8028831772602423
480000000.0 0.23917387947802338 -0.6911829977160956
500000000.0 -0.18609360703052238 0.541861581873047
520000000.0 -0.36197107082800134 0.30683217061023066
540000000.0 0.2188503605717042 -0.35291626412295535
560000000.0 -0.3409996611107035 0.07446227403059574
580000000.0 0.2288834309106729 -0.23432571797422946
600000000.0 -0.31277246869989184 -0.05317317884766024
620000000.0 0.13599569237237116 0.3019616802325447
640000000.0 -0.21056380328935642 0.2858767007628881
660000000.0 -0.2922911674866974 0.23469168474064578
680000000.0 0.13370147536501217 -0.3806939480014709
700000000.0 -0.40567738643170353 -0.13117906948887056
720000000.0 -0.28131861840978545 0.3363866140239715
740000000.0 -0.4411064754570913 0.04186143170788455
760000000.0 0.4231915074978245 0.0757646640014015
780000000.0 0.154577520212588 0.37205281819385344
800000000.0 -0.34749282959122707 0.13474159169488387
820000000.0 0.12872037288265012 0.2893846709515862
840000000.0 -0.20910604579203845 0.1478795931310301
860000000.0 -0.12774865635744967 -0.15650098277365906
880000000.0 -0.15389765641535283 -0.04121617514422626
900000000.0 -0.06454993885237761 0.04759099081056681
920000000.0 -0.0038813359833702477 -0.04661807626069623
940000000.0 -0.02234394945401468 -0.04049225674952877
960000000.0 -0.054518184707965996 -0.005935450207835476
980000000.0 -0.0011023467541480991 0.06678343910318937
1000000000.0 0.01058961504540926 -0.06754955754878704
1020000000.0 -0.005239278951154559 0.08192902872199262
1040000000.0 0.0030108785537927107 0.08649884827486827
1060000000.0 -0.11824495814772017 0.040612742250221774
1080000000.0 0.13995458658977342 0.014875536927748026
1100000000.0 0.16059687487908922 -0.04731129162437069
1120000000.0 0.0010874178125382546 -0.18984802396131273
1140000000.0 -0.11661681809896218 -0.1964041972583552
1160000000.0 -0.16975039447997287 -0.2132820945216744
1180000000.0 -0.2593316400493229 -0.1762930260660948
1200000000.0 -0.17242273996796148 -0.3052237036408118
1220000000.0 0.3731589900334176 -0.09399520799990091
1240000000.0 -0.07165955844004275 0.4081998921409528
1260000000.0 -0.12050306105737543 -0.4231820467088086
1280000000.0 0.23392430724239435 0.38843413525988646
1300000000.0 -0.06426312397546041 -0.452484985722067
1320000000.0 -0.3754956579638835 0.24211803146632802
1340000000.0 -0.3875198400103289 0.1977967030381118
1360000000.0 -0.35789686228340756 -0.22855862013337175
1380000000.0 -0.3643795445593424 -0.21676148742207937
1400000000.0 -0.21703438104976164 0.3450712769347323
1420000000.0 -0.09856620151988772 0.3740180669182687
1440000000.0 0.0813203701070387 0.3531115470966007
1460000000.0 0.16824322741585288 0.2906637326703391
1480000000.0 0.20319316346789182 0.23565496650045395
1500000000.0 0.2806202116444936 0.06887178269201344
1520000000.0 -0.233385966994957 -0.13050752830340037
1540000000.0 0.07578432428256042 0.23301175025303034
1560000000.0 0.005494401260847328 0.21669268352594437
1580000000.0 0.08556547253428443 0.1703504562709642
1600000000.0 -0.1489069995103842 0.05327498254956141
1620000000.0 0.039192741501477994 -0.11557183052308691
1640000000.0 -0.09586846575817912 0.004872292364885374
1660000000.0 -0.06976278560927791 -0.01653654793039218
1680000000.0 0.02154402287120027 0.040244325668579765
1700000000.0 0.012739079079081794 0.022144819987676246
1720000000.0 -0.004500701589065418 -0.023522661791059343
1740000000.0 -0.039359478377396846 0.01534293452974843
1760000000.0 0.05518528009294581 0.0361735792103958
1780000000.0 -0.0020621774437474547 0.09424717491242357
1800000000.0 0.09145304415015586 -0.08564502246591266
1820000000.0 0.1316838525477244 0.07532097892569062
1840000000.0 -0.16910188522346412 0.06599597351165022
1860000000.0 0.20644553631133625 -0.012101913700571667
1880000000.0 0.07040447665498549 -0.2228177597237613
1900000000.0 -0.2198955313222454 -0.1471838061752649
1920000000.0 -0.2918816441211631 0.04259876069763918
1940000000.0 -0.31101384872155874 0.09055753721899264
1960000000.0 -0.28886361468194 0.205704924231973
1980000000.0 0.1008604658536861 0.3694119578167528
2000000000.0 0.3273953683251966 0.2486359268686468
2020000000.0 0.2714026606017769 -0.33918930291106414
2040000000.0 -0.41927902513297505 -0.16885730560442694
2060000000.0 0.25280384401791234 0.38216098515958363
2080000000.0 0.1468426793188693 -0.4326733361157385
2100000000.0 -0.44395297131107414 -0.06164818792408509
2120000000.0 0.026972317950936023 0.4294370672704948
2140000000.0 -0.2589861386541228 0.31603650069339817
2160000000.0 -0.00013201134150818883 0.38723020136869407
2180000000.0 -0.08347765988225733 0.35288506586102875
2200000000.0 -0.24265438799199598 0.24845981979009998
2220000000.0 -0.31409389533027987 -0.1141514452526885
2240000000.0 -0.19315066314052112 -0.27781555565244515
2260000000.0 -0.26605200178205085 -0.22231784825859285
2280000000.0 -0.35705055524406637 0.048783741421955774
2300000000.0 0.2999549779041625 0.23238305143765958
2320000000.0 -0.09152512758401393 -0.3960977964737652
2340000000.0 0.011189322974368001 0.43720932257123307
2360000000.0 0.0537549223659981 -0.47261899599090185
2380000000.0 0.03488627862526171 0.5166315215934616
2400000000.0 -0.07727109742959234 -0.5595211697122981
2420000000.0 0.3580704031791723 0.49654490163092624
2440000000.0 -0.6129050161371015 -0.23508163918946753
2460000000.0 0.6805817085827357 -0.13290654685596973
2480000000.0 -0.5982898056922745 0.40245051814088845
2500000000.0 0.6425725311080462 -0.3664980286346992
2520000000.0 -0.7319004527863994 0.15754989556371268
2540000000.0 0.7094869699348627 0.2405237252104876
2560000000.0 -0.30595681805482805 -0.6754128910082208
2580000000.0 -0.45837121700181027 0.5623406573472901
2600000000.0 0.6993324687383335 0.03592699535282985
2620000000.0 -0.37255786309321515 -0.5550046667042177
2640000000.0 -0.47216024082102687 -0.4168456781653256
2660000000.0 -0.28678067416920044 0.5095342910577378
2680000000.0 0.47534370795321085 0.25400538728171546
2700000000.0 0.17331547741486925 -0.46487989445056993
2720000000.0 -0.4350137421725816 0.13062753037053448
2740000000.0 0.34155896457414486 0.23747440154007443
2760000000.0 -0.25312334495531835 -0.2875682680382586
2780000000.0 0.35108687794322735 0.052990800587410326
2800000000.0 -0.11096027979634847 0.3118734126211559
2820000000.0 -0.31120139840035566 -0.012284243592272608
2840000000.0 0.018163479347013452 -0.29403290541531846
2860000000.0 0.2307619108507165 0.16810921075957122
2880000000.0 -0.2778810868597593 0.03224012119381979
2900000000.0 0.27623338647194906 0.017426457201506044
2920000000.0 0.14265140526905098 -0.239325104643139
2940000000.0 -0.17347950096850845 -0.2257306424609159
2960000000.0 -0.1848122517761328 -0.22107966299093668
2980000000.0 -0.00608040090928223 -0.2988087127569624
3000000000.0 0.18974019562712444 -0.24176657004668142
3020000000.0 0.3110077361256509 -0.03898314304108588
3040000000.0 0.1794357685313428 0.2587003759221239
3060000000.0 -0.2505188322517023 0.19192352554280787
3080000000.0 -0.16844289740313326 -0.2614113432796216
3100000000.0 0.296884354449438 -0.060261058232704195
3120000000.0 -0.06166787849194184 0.28402926241848797
3140000000.0 -0.09222991238378622 -0.25940998793157427
3160000000.0 -0.21277682587367994 0.1412625017976674
3180000000.0 0.18813894853550814 -0.1402424110868874
3200000000.0 -0.17676607524661242 0.1137452113432904
3220000000.0 0.18182184804193524 -0.029653327574491906
3240000000.0 0.036176786463573404 -0.1555512187863439
3260000000.0 -0.04179008343674378 -0.1306572107362149
3280000000.0 0.017524073801271627 0.11531859717471005
3300000000.0 -0.0844835688614382 0.041313306831723746
3320000000.0 0.05818914543201675 -0.03830936760102048
3340000000.0 0.03348580079086406 0.02863964832720384
3360000000.0 0.005643514237750744 -0.025365356689526292
3380000000.0 -0.013055603963856346 0.023347043025311816
3400000000.0 0.037208596822762265 0.01428258766275807
3420000000.0 0.017942716979825933 0.05066206818909346
3440000000.0 0.059259460629933744 -0.0025019613837096335
3460000000.0 -0.05246209104299197 -0.015517721764850364
3480000000.0 -0.03813741911727487 -0.0347342538850355
3500000000.0 -0.03746378481098414 -0.04294061258870528
3520000000.0 0.06881431759837112 0.03326725288181962
3540000000.0 -0.07326763894794558 -0.07002981107639983
3560000000.0 0.0048048139796835 -0.12382710771864996
3580000000.0 0.015014926197248077 -0.14537839918752268
3600000000.0 -0.15176958966414347 0.0727857321919976
3620000000.0 0.17453246694782454 0.036723474916091604
3640000000.0 0.16977420760821837 -0.07489191315227219
3660000000.0 0.06821945296730993 -0.17448338710256198
3680000000.0 0.16722865797513928 -0.07527528869775967
3700000000.0 0.01761613988569791 0.17594667467337372
3720000000.0 0.023307785718092302 -0.16940362681775298
3740000000.0 -0.0968088785221316 0.13687809231854217
3760000000.0 -0.019470821472911924 0.16639400341080832
3780000000.0 0.13607105792003005 -0.09820542846303869
3800000000.0 -0.16950898831402958 0.0071321822783790125
3820000000.0 0.1242545743043332 -0.11375002564885414
3840000000.0 -0.07417872036550059 0.14251303735516518
3860000000.0 0.14811557549855064 0.03482795056321786
3880000000.0 0.1400154854572623 0.038533016471121444
3900000000.0 0.011755037443823639 0.1380813363447722
3920000000.0 -0.11486534925965326 -0.08423933775156368
3940000000.0 -0.07809489323801663 -0.13103009939830645
3960000000.0 0.15269464727541526 0.06968338735717164
3980000000.0 0.021013278399416344 -0.1776892999727311
4000000000.0 -0.11766566546675657 0.1347946741015808
