! Created with skrf (http://scikit-rf.org).
# Hz S RI R 50.0 
!freq ReS11 ImS11
400000000.0 -0.2841108625643466 0.8114468337520105
420000000.0 -0.09581829335058942 0.8511808116079936
440000000.0 0.6862703249797774 0.461633928997685
460000000.0 0.6934108798216826 -0.3778779434969512
480000000.0 0.229440904222564 0.6752203838851494
500000000.0 0.587475011869497 0.06972603239208057
520000000.0 0.20730164580372534 -0.4733530829228464
540000000.0 0.45786049779354027 0.020181172109534826
560000000.0 -0.23903920872588794 0.30791156398169395
580000000.0 0.13432646990780528 -0.32967964381341647
600000000.0 -0.12749695313353887 -0.33677851968715705
620000000.0 0.34980993879565014 0.14110978552662684
640000000.0 -0.042988368578068856 -0.39566705194218343
660000000.0 -0.38644535782580536 -0.1389458320624697
680000000.0 -0.08566017900631182 -0.4129236279815777
700000000.0 -0.30405557922569704 0.29812266927629744
720000000.0 -0.1772655574088815 0.3746984222525473
740000000.0 0.3250309833933565 -0.2429853249110467
760000000.0 -0.19756489407979194 -0.33747683909437215
780000000.0 0.237772031642494 0.2689264283915869
800000000.0 0.23475126367039098 -0.22316423814912992
820000000.0 -0.24443019459903884 0.1326851828045685
840000000.0 -0.22963698955552772 0.06772476144330368
860000000.0 -0.20739485089653809 0.025427573821100318
880000000.0 0.14829985084386815 -0.05592923497454904
900000000.0 -0.00204968686960801 0.10762197271402445
920000000.0 -0.013213923668998047 -0.07419164275012664
940000000.0 -0.04070051841500922 0.025719911409621873
960000000.0 -0.04684001124254363 -0.02149563791124908
980000000.0 -0.04166662927447209 -0.05543414351731182
1000000000.0 0.039216658449757365 -0.07374353452308739
1020000000.0 0.07166721234721471 -0.07869251916599183
1040000000.0 0.11704962161702899 0.033109805751438626
1060000000.0 0.15680097304385388 -0.0019285759089325454
1080000000.0 0.17420142845622144 -0.00552963613723756
1100000000.0 -0.14309550882302413 -0.13489729199335804
1120000000.0 0.10319851202781408 0.1920984642514792
1140000000.0 0.014701239203161265 -0.24998486544303228
1160000000.0 -0.22998221285239945 -0.16308178329231107
1180000000.0 -0.09453403505808923 -0.30038525210918066
1200000000.0 0.22855014665331955 -0.2554988012623482
1220000000.0 -0.2399073200112385 0.27270265637078456
1240000000.0 0.3853893382540278 0.01278136546380102
1260000000.0 -0.0742676436308732 -0.40248202521688076
1280000000.0 -0.3434554717179616 0.25541262643646556
1300000000.0 0.2632619065721468 0.35213858425245015
1320000000.0 0.4027274914926151 -0.1773309565588915
1340000000.0 0.4019705003088394 -0.17905833927357465
1360000000.0 0.37873459787736713 -0.22104117020927563
1380000000.0 0.05853524275310053 -0.43376377097120566
1400000000.0 -0.3804523414583242 -0.18938110624193863
1420000000.0 -0.0345495817466991 0.40575106218504176
1440000000.0 0.374989712487521 0.07607130231186761
1460000000.0 -0.007692427532100677 -0.3529689087526359
1480000000.0 -0.32093086401192084 -0.002582691322320748
1500000000.0 0.013402533849073682 0.28653513550795234
1520000000.0 0.15284744806664644 0.20523065381636627
1540000000.0 -0.19128201485595372 -0.11964105970203438
1560000000.0 0.11270600480517241 -0.15443388380539974
1580000000.0 0.0887740924421252 0.13573697471124002
1600000000.0 0.13293804284896887 -0.00832683557121741
1620000000.0 0.09891253845147727 -0.026569990145610525
1640000000.0 -0.049188847300616526 0.06078215431079303
1660000000.0 -0.016317943981789457 -0.05258732648492706
1680000000.0 0.0038840917698269475 0.0346024605388962
1700000000.0 -0.009964434144522968 -0.019089388595042365
1720000000.0 0.006320423328060674 0.0037464427962451497
1740000000.0 0.013965687490018504 -0.007609137696838187
1760000000.0 -0.016214711478368227 -0.026831142287286492
1780000000.0 0.02146837061753237 -0.056485315182682044
1800000000.0 -0.06203953388109177 0.07009611540109487
1820000000.0 0.022780482126974515 0.1240948047926287
1840000000.0 0.09884077947962859 -0.13151883711175202
1860000000.0 -0.093767999049819 0.18132233134533796
1880000000.0 0.1021029827218356 -0.22095934123605226
1900000000.0 -0.10224182871505348 0.2656093280483197
1920000000.0 0.058614537908699124 -0.3145452436325139
1940000000.0 -0.30307888723338283 0.17614786732274978
1960000000.0 0.3326749520714932 0.17922039262493691
1980000000.0 0.02500305414206278 -0.3972587111202853
2000000000.0 -0.3726456143655804 -0.18538559918695893
2020000000.0 -0.17031822563565077 0.39259595167392963
2040000000.0 0.1750545834132421 0.39607687509108985
2060000000.0 0.4320173576743785 -0.03826980358770086
2080000000.0 0.324359832089073 -0.281347857775939
2100000000.0 0.22409472520860219 -0.35974551827745427
2120000000.0 0.022084543789596383 -0.41522975256983086
2140000000.0 -0.29429824744888894 -0.2791495458357883
2160000000.0 0.08234494932158384 -0.38235459676700634
2180000000.0 -0.17191451141397887 -0.3336430609337255
2200000000.0 -0.331243203509751 -0.1472637550528086
2220000000.0 -0.30489508867108234 0.1760807349038124
2240000000.0 -0.08310199643707619 0.3370793882684445
2260000000.0 0.14043034904090196 0.3172716733111975
2280000000.0 0.30414592649664446 0.17466466704670214
2300000000.0 0.2142232702367029 -0.29458196280702525
2320000000.0 -0.31564386400169886 -0.22578961833231284
2340000000.0 -0.18330286170157775 0.377526433505202
2360000000.0 0.45266606700645756 -0.08985790739564928
2380000000.0 -0.5091145463588912 0.011810575046946048
2400000000.0 0.5593389016644018 -0.03218318004217496
2420000000.0 -0.514902920491582 0.3297172942121301
2440000000.0 0.22421365482096786 -0.6196856366772148
2460000000.0 0.2733969571229423 0.6420814771057073
2480000000.0 -0.5639639037130898 -0.45895796568203484
2500000000.0 0.5147760982633504 0.5411831160766873
2520000000.0 -0.40911899840212 -0.6355575519913387
2540000000.0 0.13799829232134275 0.7437757398305052
2560000000.0 0.4253378198499423 -0.6180924746366494
2580000000.0 -0.7347760197403791 0.008593909250124026
2600000000.0 0.4369944354644744 0.5608580828973123
2620000000.0 0.19566312980285036 -0.652148641241552
2640000000.0 -0.11074003314875644 -0.6342997096653529
2660000000.0 -0.4326800236026993 0.416574121487415
2680000000.0 0.5384514013447953 0.1309718193816742
2700000000.0 -0.25519850736832994 -0.43962372817140616
2720000000.0 -0.12140527033348947 0.44404184395390384
2740000000.0 0.3544765692198598 -0.2211284517686404
2760000000.0 -0.3781632173317289 0.018461002178889692
2780000000.0 0.34544237713884346 -0.040308668919264865
2800000000.0 -0.31028049389344875 0.08931708180742935
2820000000.0 0.10702507631270326 -0.2865349925260547
2840000000.0 0.19252865436243422 0.2231968181290089
2860000000.0 -0.28480266104371815 0.05644240808383107
2880000000.0 0.09428469594426064 -0.2739574200655202
2900000000.0 -0.036688308518608354 0.28956486374228674
2920000000.0 0.19892937525922066 -0.21895039284033252
2940000000.0 -0.2989372579149033 -0.04133756343803215
2960000000.0 -0.15843765293257797 0.2595631247425542
2980000000.0 -0.18147215418384327 0.2484175305620287
3000000000.0 -0.30613980612854585 0.04864475293451992
3020000000.0 -0.16393974629336505 -0.26454347443913906
3040000000.0 0.2899578399775713 -0.10649360370543
3060000000.0 -0.20224309452325637 0.2303965091243826
3080000000.0 0.13088988513829033 -0.27221173494790124
3100000000.0 0.03208206154256659 0.2951900761836711
3120000000.0 -0.06253181040112903 -0.28152229508185267
3140000000.0 0.19344106915620793 0.20164959412158412
3160000000.0 -0.2624319729173818 -0.04440227389941326
3180000000.0 0.09001050922426262 0.2333409872574605
3200000000.0 -0.20955153471616217 0.08991791368448719
3220000000.0 -0.09672577027955888 -0.17770535527011816
3240000000.0 0.16228228780891404 -0.05877701241943387
3260000000.0 -0.07209334851785723 0.1200606069020037
3280000000.0 0.023563347181119874 -0.10556464108335914
3300000000.0 -0.002823680186364498 0.07866175137408649
3320000000.0 0.0481130503046841 0.01576354790289822
3340000000.0 0.027239099218671164 0.0004372459399204143
3360000000.0 -0.0053091983807171585 0.007457164397751919
3380000000.0 0.00478066669471138 0.0045604349659926205
3400000000.0 -0.017397787913372067 0.009430825427902557
3420000000.0 0.0037697440269863275 0.032709521269892204
3440000000.0 0.044618220670265836 -0.005408762426460639
3460000000.0 -0.007329056833151169 -0.05342773632370891
3480000000.0 0.06318305557878762 0.012488709232401895
3500000000.0 0.06406209084619285 -0.04437885955112314
3520000000.0 -0.0817490705281783 -0.04363744794315005
3540000000.0 0.10677850885138745 0.010986000206761022
3560000000.0 -0.11338284250292523 0.040974448282107216
3580000000.0 0.13136227320836058 -0.03204726246102728
3600000000.0 0.05338848442116819 0.14463305418878916
3620000000.0 -0.0012072691440863522 0.16674523526274454
3640000000.0 -0.17095265025256934 0.04655318335227936
3660000000.0 -0.18666880723900833 0.015853132738431683
3680000000.0 -0.1737348907407156 -0.07880385777734208
3700000000.0 -0.1274026514735032 -0.14251170615168535
3720000000.0 0.034876494935331015 -0.18626245788372797
3740000000.0 0.10491441492359035 -0.15329105740210897
3760000000.0 -0.10354520117235579 0.14580566319826468
3780000000.0 0.13049316964047342 -0.10896257714054408
3800000000.0 -0.1180509920504602 -0.10964708044783998
3820000000.0 -0.1476301500870853 0.04177508329559822
3840000000.0 -0.10716637995521068 -0.1011241680943992
3860000000.0 0.14719923395937437 0.005065383984840551
3880000000.0 0.15180762256429786 -0.02868900148838877
3900000000.0 -0.07467991464625048 -0.1398807795947649
3920000000.0 -0.05578095040283014 0.1538588868925732
3940000000.0 -0.02628796298053258 -0.16626027234557414
3960000000.0 0.15890151299447572 -0.06919615046314007
3980000000.0 0.0668543495359913 -0.16077920857880362
4000000000.0 -0.03666194022674205 -0.1641563806842543
