! Created with skrf (http://scikit-rf.org).
# Hz S RI R 50.0 
!freq ReS11 ImS11
400000000.0 -0.33200267968966907 0.7919586625124326
420000000.0 -0.054494143799680636 0.8536373669305002
440000000.0 0.7335041894891013 0.3801290726025072
460000000.0 0.6797955121828733 -0.39972844918486566
480000000.0 0.19301713633953577 0.6857845657303191
500000000.0 0.5887915030814945 0.06756491515794157
520000000.0 0.1831400126945083 -0.4818921596348591
540000000.0 0.45723587431819934 -0.022301155285183626
560000000.0 -0.25230538308457406 0.294644951198795
580000000.0 0.2131480984171233 -0.28705403852736416
600000000.0 -0.22399983972087872 -0.2813494454126713
620000000.0 0.32122403216170875 0.1995365707660641
640000000.0 0.01072572960422834 -0.39847288318095503
660000000.0 -0.3907097982313575 -0.12677243476200253
680000000.0 -0.025979254354877433 -0.42130785333953064
700000000.0 -0.4094318523964927 0.11573171029804052
720000000.0 -0.237876485900611 0.33934374030087927
740000000.0 0.38610539257707743 -0.125144452690817
760000000.0 -0.17826264211687934 -0.34741981271504785
780000000.0 0.24952389834369065 0.2566332903848834
800000000.0 0.21758083888733104 -0.23696858845976088
820000000.0 -0.246825186864567 0.12550908423503807
840000000.0 -0.18800825576036279 0.14702710519579557
860000000.0 -0.18444139921718453 0.0954117198802725
880000000.0 0.14153852071774192 -0.07310512208338273
900000000.0 0.06677325234843706 0.08587706824656142
920000000.0 -0.017978532279369717 -0.07594519308770782
940000000.0 -0.04395925756584817 -0.022869925079878516
960000000.0 0.016058458255418934 -0.048645243441780596
980000000.0 0.014422479777033186 -0.06620635649295549
1000000000.0 0.05463628864348329 -0.05951069379874943
1020000000.0 -0.019605861135901563 -0.10279586679078417
1040000000.0 0.11305131712552109 -0.043497788216556664
1060000000.0 0.11852978493171949 -0.1032439874690428
1080000000.0 0.1693996569236941 -0.04742025755848655
1100000000.0 -0.19884327186930817 -0.005396344575855447
1120000000.0 0.15355216792420992 0.1588746254016843
1140000000.0 0.017184261471045025 -0.2528722463084786
1160000000.0 -0.13214078919788605 -0.251812742947647
1180000000.0 0.02961100785161151 -0.31451703644034984
1200000000.0 0.3264919466289495 -0.10970754142587107
1220000000.0 -0.3216843779230432 0.17098290929543503
1240000000.0 0.3362218187058556 0.19201921264831803
1260000000.0 0.08743458485391721 -0.40007501135774964
1280000000.0 -0.39400322825043554 0.16705829322566204
1300000000.0 0.16293813022477077 0.40739397717826253
1320000000.0 0.4101522199217413 -0.15683352200028441
1340000000.0 0.42063915851176586 -0.12580225457183172
1360000000.0 0.3654448728821764 -0.2409641594132587
1380000000.0 -0.0007255581350139981 -0.43659655793571134
1400000000.0 -0.4083875980153524 -0.11598116318814139
1420000000.0 0.06048493527094726 0.4025813984806325
1440000000.0 0.3825647846710762 -0.009376866133999118
1460000000.0 -0.0570892920061186 -0.3486296326951885
1480000000.0 -0.2868518102949008 0.14532216639028106
1500000000.0 0.05090318418116314 0.28412088108287203
1520000000.0 0.19735560744712174 0.16509533302109078
1540000000.0 -0.2049483133720716 -0.09807342253820771
1560000000.0 0.13493877365537785 -0.13858334656339805
1580000000.0 0.05551852130260435 0.154355853589754
1600000000.0 0.13282351133479128 0.01845285367820376
1620000000.0 0.09622007127994395 0.037492428937726405
1640000000.0 -0.07628657700764585 -0.019074177317588016
1660000000.0 0.044287213418269876 -0.03186697205567068
1680000000.0 -0.020864459680044523 0.027331702747584116
1700000000.0 0.00284874880426147 -0.0206982366004865
1720000000.0 -0.0059252692246226 -0.0031624159462506495
1740000000.0 -0.011604598116472176 -0.010925649489632358
1760000000.0 0.029716695864868803 -0.009497819460382409
1780000000.0 0.05403678309623975 -0.026102084289221606
1800000000.0 -0.09292080552223753 0.010313549428384418
1820000000.0 -0.03735650714845996 0.11997810816339675
1840000000.0 0.12869244917405417 -0.10224682313679746
1860000000.0 -0.13423681351344388 0.1527481407470592
1880000000.0 0.14023609209143792 -0.1986541724082469
1900000000.0 -0.0996557484648037 0.2664675102821294
1920000000.0 0.056573595361433235 -0.3142044069347174
1940000000.0 -0.28423836756093673 0.20445259092336676
1960000000.0 0.3437626652695688 0.1558064637522418
1980000000.0 -0.0026897131849311097 -0.3980550847765328
2000000000.0 -0.3748012360532163 -0.18119401463886822
2020000000.0 -0.13809063847075212 0.4059871970930947
2040000000.0 0.27385272539152417 0.3359837444872724
2060000000.0 0.4230998389778861 -0.10044631644021164
2080000000.0 0.2953299555475999 -0.31293625411406356
2100000000.0 0.15277580228996832 -0.39667124796407416
2120000000.0 -0.023066327506545005 -0.4168529245797247
2140000000.0 -0.29581168085982135 -0.2799090084488629
2160000000.0 0.06718047335876717 -0.38716282987414313
2180000000.0 -0.12521956479791604 -0.3554163289187501
2200000000.0 -0.3109949940944307 -0.18943432521247597
2220000000.0 -0.32989044148010765 0.12565739746176174
2240000000.0 -0.12404101407425988 0.3251301572131321
2260000000.0 0.06448551232190228 0.3418169649170984
2280000000.0 0.27967245639894917 0.2127558951778225
2300000000.0 0.2591744579053449 -0.257431154938638
2320000000.0 -0.27731341735825227 -0.2713119163708023
2340000000.0 -0.2200478030341144 0.35682953989051236
2360000000.0 0.45428284522403967 -0.07914173979486802
2380000000.0 -0.5085854717320396 0.006345950546856153
2400000000.0 0.559703601354509 -0.02063577921551297
2420000000.0 -0.518521802509337 0.3247244026299493
2440000000.0 0.15599680528850607 -0.6404630660359877
2460000000.0 0.3191564479500408 0.6209092916475415
2480000000.0 -0.5841174939098107 -0.43495008855797396
2500000000.0 0.5966800427881882 0.45038258578585333
2520000000.0 -0.47011227330867505 -0.5937587442468109
2540000000.0 0.12116587301754439 0.7488960510185889
2560000000.0 0.4399154001775852 -0.6095154198408926
2580000000.0 -0.7267500010594726 -0.11839190727801098
2600000000.0 0.352181093812849 0.6185390062196237
2620000000.0 0.2216755801161736 -0.6441536317916428
2640000000.0 0.043433167634728674 -0.6424350922927123
2660000000.0 -0.4896980956951499 0.34633941540551755
2680000000.0 0.49417061797092465 0.24648942029451798
2700000000.0 -0.16338334643685407 -0.47971913495484997
2720000000.0 -0.16379797453872252 0.4284028362092568
2740000000.0 0.35052421380617244 -0.22397612395673108
2760000000.0 -0.3736207506997028 0.04947101591746408
2780000000.0 0.3355888652793707 -0.0868863585285717
2800000000.0 -0.2922260165108616 0.13596993566532345
2820000000.0 0.04231851524918079 -0.30305764465999213
2840000000.0 0.2383288937091766 0.1751787809532841
2860000000.0 -0.28162143621589586 0.07669223976396858
2880000000.0 0.09176483462367208 -0.2759120239840014
2900000000.0 -0.04546396515696245 0.28920105609496227
2920000000.0 0.24998819290979804 -0.16059641946963743
2940000000.0 -0.276381791839209 -0.12359581349317811
2960000000.0 -0.2106017654512033 0.21977780495232582
2980000000.0 -0.24838510780438058 0.1822516095383041
3000000000.0 -0.30111365515637856 -0.07838074835202662
3020000000.0 -0.10530231402260429 -0.2928361889157602
3040000000.0 0.30321706177711755 0.05458114761290028
3060000000.0 -0.2605549625374531 0.15906055106432665
3080000000.0 0.18406543921992546 -0.23926315717927765
3100000000.0 -0.02130553314824207 0.29494310125821255
3120000000.0 0.005534911733868834 -0.28715711690809487
3140000000.0 0.16180247650763305 0.22664764840697943
3160000000.0 -0.26099193808115473 -0.04736062998329521
3180000000.0 0.09901134466621626 0.22867092932358563
3200000000.0 -0.20510281701377742 0.09884986073445011
3220000000.0 -0.1160382156195154 -0.16564119442455133
3240000000.0 0.12992717356488767 -0.11363263178974956
3260000000.0 -0.021351117776816888 0.13836528413914279
3280000000.0 0.022855012818403082 -0.10594629148003035
3300000000.0 0.006685713035406929 0.07933841323518986
3320000000.0 0.047827514870902116 -0.018214633935532725
3340000000.0 0.023809611603181305 -0.014224041130752778
3360000000.0 -0.009368258834438597 -0.00014337111117415692
3380000000.0 -0.005380834018891248 0.0011550175212976408
3400000000.0 -0.009307111316954464 -0.01638674022915728
3420000000.0 -0.015539557828104112 0.02775358013981836
3440000000.0 0.042795858026794587 0.009187375045714317
3460000000.0 0.012632699166505487 -0.05176833149179342
3480000000.0 0.04119232543990171 0.04910536025371086
3500000000.0 0.07692555509361156 -0.005622878364754201
3520000000.0 -0.06610212215463501 -0.06399110336387376
3540000000.0 0.1002786235414216 0.03599416948742498
3560000000.0 -0.12024716909368832 0.006023533131926481
3580000000.0 0.13461565710809834 0.006256026369102216
3600000000.0 0.007660595685089016 0.15325261784230884
3620000000.0 -0.05732057466399901 0.15555976853069045
3640000000.0 -0.16921908195391083 0.0531968828867128
3660000000.0 -0.18686135560189857 0.0035352908782118452
3680000000.0 -0.14407851562894178 -0.12443545396251611
3700000000.0 -0.09134753435702288 -0.16705719468846253
3720000000.0 0.07258828380121889 -0.17477599138120992
3740000000.0 0.1484161518709478 -0.11037394080587268
3760000000.0 -0.13808802929221065 0.11204243295856434
3780000000.0 0.14924390606332405 -0.08074237553788442
3800000000.0 -0.10746380545110198 -0.11922220231685243
3820000000.0 -0.14921066633407595 0.03408862292752762
3840000000.0 -0.10202928235141304 -0.10440890503530835
3860000000.0 0.1463509490940518 0.002549800888143242
3880000000.0 0.1443285477168924 -0.05223291651052171
3900000000.0 -0.0595521581195897 -0.14519890777743646
3920000000.0 -0.07069839449441047 0.14606382825937542
3940000000.0 -0.022496157427558162 -0.16568307781393074
3960000000.0 0.16659702660949235 -0.042115125973984334
3980000000.0 0.04024051744175442 -0.1684392283413574
4000000000.0 -0.04404730297702794 -0.161315038018428
