! Created with skrf (http://scikit-rf.org).
# Hz S RI R 50.0 
!freq ReS11 ImS11
400000000.0 -0.36007723938861297 0.7811376067747139
420000000.0 -0.11073979516208798 0.8498459382932617
440000000.0 0.6792593279365465 0.4719700504598571
460000000.0 0.7170174567933154 -0.33110405408762966
480000000.0 0.15813299303183026 0.6950877913261819
500000000.0 0.582645373262157 0.11019019475716653
520000000.0 0.14102084567521672 -0.49624480149443106
540000000.0 0.4575711270431628 -0.02583252618707083
560000000.0 -0.2824584518562131 -0.26618088952421054
580000000.0 0.18746493082446367 -0.3030258378203716
600000000.0 -0.21053762674471785 -0.29036045494126245
620000000.0 0.33378280088287376 0.17481396281487063
640000000.0 0.01259227513953715 -0.39756731808929
660000000.0 -0.39030258026186265 -0.12730252771879766
680000000.0 -0.0891479228421837 -0.41241302547756636
700000000.0 -0.32764697030951084 0.272044335763723
720000000.0 -0.2101749458760816 0.35802877834466323
740000000.0 0.3356403343491783 -0.2280458681101029
760000000.0 -0.16450489859944498 -0.35589329243828854
780000000.0 0.2718063883575561 0.2349360135868582
800000000.0 0.25788730354205674 -0.19427544963969548
820000000.0 -0.26028185973369683 0.09859247044781912
840000000.0 -0.22037593171400585 0.0935364792571319
860000000.0 -0.20719333155038716 0.01646913665048092
880000000.0 0.15381237220387814 -0.03665125001320681
900000000.0 0.0034565726014133768 0.10772702376750973
920000000.0 0.003025699071257804 -0.07591914942595845
940000000.0 -0.038656922360302125 0.028439503426392107
960000000.0 -0.051127425076784166 -0.0017057033993314575
980000000.0 -0.03653151103028233 -0.059218663903597084
1000000000.0 0.06252840320563162 -0.05385995109577195
1020000000.0 0.06613877700447413 -0.08330509401362385
1040000000.0 0.12024285775475552 0.023477230888405226
1060000000.0 0.15631489567207182 0.0171251537808006
1080000000.0 0.17257364040313344 0.027224696869897428
1100000000.0 -0.1588214100879392 -0.11654440693155155
1120000000.0 0.11800997399966061 0.18324210641389466
1140000000.0 0.07664956348217764 -0.2384730083648863
1160000000.0 -0.12631599396471818 -0.2511688366742261
1180000000.0 -0.029674437679852415 -0.31270489064362017
1200000000.0 0.2516865499156067 -0.23182919049131145
1220000000.0 -0.25199592521469416 0.26087746637992204
1240000000.0 0.38497212355392074 0.022725780267454608
1260000000.0 -0.05471298953919965 -0.40531982703665453
1280000000.0 -0.34455359500477784 0.252342343089597
1300000000.0 0.27676739436225894 0.34179045607102626
1320000000.0 0.3864229502244369 -0.21191499773854508
1340000000.0 0.39464441788721677 -0.19502648462756586
1360000000.0 0.3574306095923315 -0.25509875887183114
1380000000.0 0.025700618484378338 -0.43676430866905575
1400000000.0 -0.4009211205738811 -0.14157578053824654
1420000000.0 -0.01641414453711562 0.40735255885761223
1440000000.0 0.3750883993082567 0.07314833454041847
1460000000.0 0.02541076806971773 -0.35222143244998405
1480000000.0 -0.3215922508466711 0.007686880374565094
1500000000.0 -0.03865724546044347 0.28436370704752867
1520000000.0 0.11091740350201076 0.23074569129657682
1540000000.0 -0.17334563587610266 -0.14432009935761358
1560000000.0 0.165731318856835 -0.09530911870019014
1580000000.0 0.024615972546659027 0.1604564499999035
1600000000.0 0.12169781368695243 0.05265891555768755
1620000000.0 0.10183160711059806 0.006085855403210669
1640000000.0 -0.06155538474296859 0.04798865202773573
1660000000.0 -0.037619955268189856 -0.03893936426165657
1680000000.0 0.017626258998841265 0.0294860190056072
1700000000.0 -0.018747187343241087 0.009993908973478564
1720000000.0 0.005260682898532464 -0.004519369933215064
1740000000.0 0.013326283243816475 0.006073610363306501
1760000000.0 -0.00398347706125634 -0.03053351189617748
1780000000.0 0.010303836217824972 -0.05813580966192098
1800000000.0 -0.07654987669727267 0.0531557793949327
1820000000.0 -4.126152967574017e-05 0.12542269374956647
1840000000.0 0.10140611136789596 -0.12934930744090464
1860000000.0 -0.09448569831639872 0.1806709815009951
1880000000.0 0.11534509139387825 -0.2144467346666473
1900000000.0 -0.1172024558951306 0.2594779499773672
1920000000.0 0.06349173030119784 -0.3136630250537983
1940000000.0 -0.30748349288975363 0.1686842536427906
1960000000.0 0.32978339242413796 0.18522681894614818
1980000000.0 0.024851950298073938 -0.3972863248606151
2000000000.0 -0.3737025705999504 -0.18287558998246406
2020000000.0 -0.17346792547151996 0.3913560595469974
2040000000.0 0.21385249263068423 0.37663822059430196
2060000000.0 0.43140893625067367 -0.04633813820841995
2080000000.0 0.2947561946628051 -0.31255161777110907
2100000000.0 0.16532711706129496 -0.39121554398329295
2120000000.0 0.0006581680957555494 -0.41643561872502816
2140000000.0 -0.2881836348432051 -0.2870213563774865
2160000000.0 0.06502319880422937 -0.3864963451812461
2180000000.0 -0.1467086541118208 -0.34679183266721775
2200000000.0 -0.32000302086565685 -0.17346345310755232
2220000000.0 -0.3319017806048114 0.12118470469260527
2240000000.0 -0.1327348073424462 0.32240822612136305
2260000000.0 0.10255260845965844 0.33245859006383344
2280000000.0 0.28830593920175895 0.2017446786803745
2300000000.0 0.25770009566799246 -0.26013528999300756
2320000000.0 -0.2593241283671064 -0.28932273203600095
2340000000.0 -0.23471800552356312 0.3485448628070248
2360000000.0 0.46070826484395133 -0.03421122854315745
2380000000.0 -0.5090060044355528 -0.02185728413456342
2400000000.0 0.560166002901162 -0.00950962536143412
2420000000.0 -0.5237888818973531 0.3159002323985163
2440000000.0 0.2051110340841733 -0.6262762318479648
2460000000.0 0.2798590093934264 0.6392933836013617
2480000000.0 -0.5696595912074198 -0.45228567342268156
2500000000.0 0.5888294397940731 0.45888658458747406
2520000000.0 -0.4964181201995398 -0.5706667880771318
2540000000.0 0.1642336224974796 0.7394252726618472
2560000000.0 0.3849520840581074 -0.6447385783002947
2580000000.0 -0.7356201431442708 0.002195734562472919
2600000000.0 0.4605761643363607 0.5423961556995677
2620000000.0 0.2301526708785737 -0.6419721577812653
2640000000.0 -0.13107079035494906 -0.6318003486815071
2660000000.0 -0.4343733363362268 0.41536893750197973
2680000000.0 0.5294878762649702 0.16422028739581862
2700000000.0 -0.2169146323117191 -0.45927864661869716
2720000000.0 -0.14420299150402988 0.4375734403886924
2740000000.0 0.35175453850365773 -0.22553712176255047
2760000000.0 -0.3787528258947477 0.007446053336997464
2780000000.0 0.3464340675250591 -0.03357617072266458
2800000000.0 -0.3110040351053307 0.08812744548615736
2820000000.0 0.13444279208065832 -0.2755553265201721
2840000000.0 0.17464914491576333 0.23810196858629087
2860000000.0 -0.28980001683095624 0.02722222469307178
2880000000.0 0.12208987545347734 -0.2628323880064501
2900000000.0 -0.058069992486082 0.2859991299256068
2920000000.0 0.2421215522626043 -0.1703365596077042
2940000000.0 -0.2887761852081756 -0.08947144535381739
2960000000.0 -0.1635474239078161 0.25561019483242525
2980000000.0 -0.21845315716741903 0.21585445868433054
3000000000.0 -0.30931876706103467 0.026601764314679862
3020000000.0 -0.14828705755098778 -0.27369371787160784
3040000000.0 0.3037347224770031 -0.052793170381239776
3060000000.0 -0.16752258528827088 0.25614309429023735
3080000000.0 0.1312251300908814 -0.27213518842172674
3100000000.0 0.0438963820571058 0.29372789041814684
3120000000.0 -0.0855449394328124 -0.2750514234501001
3140000000.0 0.17504654331433744 0.21778558530538064
3160000000.0 -0.255698847082794 -0.0748240908329871
3180000000.0 0.11832604119808293 0.22061380600497096
3200000000.0 -0.2034661680759227 0.10225557025056373
3220000000.0 -0.10847956743585238 -0.17052509349500905
3240000000.0 0.13998724501849344 -0.10148489365741745
3260000000.0 -0.031017265715719847 0.13612142016912732
3280000000.0 -0.0034927140236998768 -0.10746676797066416
3300000000.0 -0.04598429195329942 0.06393685191500376
3320000000.0 0.037479792785996724 0.03363615409052978
3340000000.0 0.014906356518127377 -0.02255068652864907
3360000000.0 -0.0006295997686395589 0.008917210104568266
3380000000.0 0.0062962532994394 0.002540635931517444
3400000000.0 0.017659126583255857 0.009936878689953712
3420000000.0 0.03266618719568849 -0.006504761953205358
3440000000.0 -0.0042759785353765085 -0.04555878244002986
3460000000.0 -0.01804840211787629 -0.05102318375262183
3480000000.0 0.05880382706759296 -0.02791757472567889
3500000000.0 0.030910028700036278 -0.07208470949491273
3520000000.0 -0.08285624795470337 -0.042623267968754874
3540000000.0 0.10757896122906867 -0.015113899564381635
3560000000.0 -0.10606460047322418 0.059934509223620924
3580000000.0 0.13211067481480154 -0.034264652164679325
3600000000.0 -0.026307643625932263 0.15186300399504615
3620000000.0 -0.0767787514178083 0.14794423847111798
3640000000.0 -0.1782886090485496 -0.002235498593765424
3660000000.0 -0.1860121775212428 -0.027920450142661056
3680000000.0 -0.12086447041867557 -0.14971982681302035
3700000000.0 -0.05921469744820319 -0.18269298425275368
3720000000.0 0.1254707143070374 -0.1436664114366258
3740000000.0 0.17986180283626693 -0.047185458603639145
3760000000.0 -0.1651741901824618 0.06780960900300013
3780000000.0 0.16305180396556537 -0.04889070814312917
3800000000.0 -0.03554969435527751 -0.15663337116326229
3820000000.0 -0.14511368399854124 -0.04769568723399253
3840000000.0 -0.041665310955579966 -0.13999406400833928
3860000000.0 0.13316311093317917 0.06015989510060748
3880000000.0 0.1483492105187834 0.040158167358504644
3900000000.0 0.009109821266133225 -0.15639303282188044
3920000000.0 -0.12384674389813148 0.10362574008232778
3940000000.0 0.030500954292112605 -0.16275426492924994
3960000000.0 0.16402662097308524 -0.04730849777134837
3980000000.0 0.045787981178299124 -0.1655039327606746
4000000000.0 -0.04771454775546169 -0.1587316157740881
