! Created with skrf (http://scikit-rf.org).
# Hz S RI R 50.0 
!freq ReS11 ImS11
400000000.0 -0.324567387183299 0.7958038014518607
420000000.0 -0.08962032201624857 0.8521557016507624
440000000.0 0.6963860000339992 0.44657852597100434
460000000.0 0.6996133994794688 -0.3655817090256504
480000000.0 0.22278284755868322 0.6774360000794548
500000000.0 0.5873755315267479 0.07505003131194331
520000000.0 0.2114192362840975 -0.4719365935630039
540000000.0 0.4577751198899178 -0.0010631893244759292
560000000.0 -0.2656546925501537 0.2823567248647805
580000000.0 0.16840603521564948 -0.31433615013724986
600000000.0 -0.17629818971930009 -0.31269144021154965
620000000.0 0.3460722690279463 0.15034351990245634
640000000.0 -0.01093370433687645 -0.39707337338472537
660000000.0 -0.4048169457270098 -0.06406255684479842
680000000.0 -0.09495318062546265 -0.4113409028178434
700000000.0 -0.3621257537714754 0.22383023963759538
720000000.0 -0.1901095626216711 0.3677585461191338
740000000.0 0.3527094562361576 -0.20041788760015675
760000000.0 -0.18266728346526512 -0.3460597841229217
780000000.0 0.25795980725806406 0.2497433923219641
800000000.0 0.2404111342087397 -0.2155099216768468
820000000.0 -0.2641743559791685 0.08559023045672863
840000000.0 -0.23242312382340188 0.05683743437789141
860000000.0 -0.2078251766626911 0.004414399293266002
880000000.0 0.1551671598449448 -0.030020321022567225
900000000.0 0.021521532896018623 0.10467810028970032
920000000.0 -0.010727186073552202 -0.0747891822746336
940000000.0 -0.025352012502050165 0.041248865220728057
960000000.0 -0.0444996049309305 -0.02629831934465662
980000000.0 -0.008700941629856122 -0.06916361411623188
1000000000.0 0.06250068787854983 -0.05406648229179989
1020000000.0 0.0759307982096382 -0.07403077055354093
1040000000.0 0.11643571317044726 0.035562580272136816
1060000000.0 0.1563796668500655 0.013661632577629151
1080000000.0 0.17458918030270007 0.00233656247476088
1100000000.0 -0.16835338563090102 -0.10156846232722631
1120000000.0 0.1468602714954955 0.16124374457755133
1140000000.0 -0.01600357219315795 -0.24963921027398306
1160000000.0 -0.21205219114535606 -0.18474434862332217
1180000000.0 -0.09350098422211524 -0.2998815024367557
1200000000.0 0.20473184458281796 -0.2752089626294455
1220000000.0 -0.2370615456283158 0.2758055447708088
1240000000.0 0.38583951825638874 0.018810616544448867
1260000000.0 -0.0841939340922872 -0.4004010019816728
1280000000.0 -0.33773622854649343 0.262466340389414
1300000000.0 0.23947512352235936 0.36906475004771055
1320000000.0 0.39974129137504105 -0.18568854423151315
1340000000.0 0.40747167338900425 -0.16752326711466867
1360000000.0 0.3708644894518129 -0.23467440409975138
1380000000.0 0.015816467531935902 -0.43719577414820177
1400000000.0 -0.3782463457005555 -0.1943181513988103
1420000000.0 -0.032967922093045526 0.40596265910934687
1440000000.0 0.36329142794616015 0.1187612639274286
1460000000.0 0.043670069708079864 -0.35003807048712643
1480000000.0 -0.32074806498586866 0.003226300804500262
1500000000.0 -0.008014084732093687 0.28650814924721446
1520000000.0 0.15336642675104165 0.20417705765378336
1540000000.0 -0.20743781497816208 -0.08708275633401388
1560000000.0 0.11644849032290577 -0.15142641912184382
1580000000.0 0.1046554044231317 0.12313862045921396
1600000000.0 0.12552528989920644 -0.04368646287637977
1620000000.0 0.07193698635060056 -0.07306588053474282
1640000000.0 -0.02552395988953244 0.07454001772139969
1660000000.0 -0.046192967527256365 -0.030251423819533028
1680000000.0 0.034927488194595804 0.00753325866774802
1700000000.0 -0.018688230145122716 -0.011191945300713144
1720000000.0 0.0002478450788363616 -0.007541878654718875
1740000000.0 -0.007784408037822545 -0.012818779590707425
1760000000.0 -0.009946197987270746 0.029526997691100267
1780000000.0 -0.028247123573654487 -0.05310565515600668
1800000000.0 -0.04422783626798099 0.08343118443377345
1820000000.0 0.041381723315414946 0.11964212522804622
1840000000.0 0.08208316539380164 -0.14352641732776783
1860000000.0 -0.08434090608828117 0.18645756543899167
1880000000.0 0.11172533437751114 -0.21739628773913347
1900000000.0 -0.1207070682263847 0.25814122649605054
1920000000.0 0.101774268134509 -0.3032543118884659
1940000000.0 -0.31127585485337766 0.1615119077506797
1960000000.0 0.3235731169418506 0.1953305151637118
1980000000.0 0.03141949919339122 -0.396585673082561
2000000000.0 -0.34798899910933934 -0.2275670367317361
2020000000.0 -0.1594898258334648 0.39645154529673365
2040000000.0 0.2317810199837036 0.36457648451569474
2060000000.0 0.4294683998032728 -0.0568530159485116
2080000000.0 0.2841157562899819 -0.32071661931120665
2100000000.0 0.12790855810087062 -0.40347525450514266
2120000000.0 -0.05072357212179376 -0.41248217181713226
2140000000.0 -0.34451113904380803 -0.213546349225774
2160000000.0 0.06285641461032036 -0.3864257245038334
2180000000.0 -0.19030523230956414 -0.32377781586749504
2200000000.0 -0.34138963235365577 -0.12369269390746826
2220000000.0 -0.30874440979446255 0.16987097954787578
2240000000.0 -0.05995818485118891 0.3430056730826048
2260000000.0 0.14858495389518186 0.3148277676894604
2280000000.0 0.30906001317911935 0.1675533543109907
2300000000.0 0.2265600603415397 -0.28726191671485435
2320000000.0 -0.2941361050121193 -0.25366593290493067
2340000000.0 -0.20830456185573504 0.3645638080017431
2360000000.0 0.4557672801090752 -0.07344232204330832
2380000000.0 -0.5081930629366325 -0.027078870163116442
2400000000.0 0.5598269261656824 -0.012666112987953983
2420000000.0 -0.5368899212356454 0.2920932911533067
2440000000.0 0.21719960330478907 -0.6217022434650838
2460000000.0 0.24139331481376325 0.6545879004223614
2480000000.0 -0.5806820816684922 -0.437579646562617
2500000000.0 0.6014219294923051 0.44175218007234063
2520000000.0 -0.4840555512933582 -0.5804792412806051
2540000000.0 0.12914799676036787 0.7461167918132506
2560000000.0 0.3909045008206062 -0.6404274649830519
2580000000.0 -0.7341480360415167 -0.04213737810295713
2600000000.0 0.433613568185814 0.5634472762347302
2620000000.0 0.2003966779372075 -0.6506017542503143
2640000000.0 -0.05661314506343848 -0.64131142165707
2660000000.0 -0.4698181122584074 0.37292313671807786
2680000000.0 0.524817669558481 0.1741679384203836
2700000000.0 -0.21671107169055373 -0.45861942633580355
2720000000.0 -0.12028567809337938 0.443399622703049
2740000000.0 0.3475346938206767 -0.22999893762245718
2760000000.0 -0.37689120365270234 0.030957738516293246
2780000000.0 0.3403874270085142 -0.0697016085616989
2800000000.0 -0.30613813154647357 0.10246395697464813
2820000000.0 0.08150309356999978 -0.29486433636720055
2840000000.0 0.20659343220231868 0.2113165913065713
2860000000.0 -0.28939148377695484 0.02997208178569649
2880000000.0 0.13223202628956263 -0.2580651954084235
2900000000.0 -0.07706633038365533 0.2810276818556923
2920000000.0 0.24135555728900632 -0.17091887104331405
2940000000.0 -0.28698458814331235 -0.09137020546083853
2960000000.0 -0.13983655483047083 0.26860377907191824
2980000000.0 -0.1924558296395554 0.2386297867856822
3000000000.0 -0.3081510555353679 0.03169708519694502
3020000000.0 -0.17947519132064474 -0.25378830668274704
3040000000.0 0.2881451188675111 -0.10776197584313062
3060000000.0 -0.18595697831265276 0.24216394504472608
3080000000.0 0.0914187965671839 -0.2880444719733199
3100000000.0 0.02716764437954723 0.2948477748885584
3120000000.0 -0.11796878670866391 -0.2627654826419259
3140000000.0 0.20354800703065593 0.191099832751372
3160000000.0 -0.26623801161001415 -0.010468767731139044
3180000000.0 0.14632243278332224 0.203525926886485
3200000000.0 -0.2010709183852256 0.10964848032586527
3220000000.0 -0.111194060306307 -0.17010577466259874
3240000000.0 0.1428365161784813 -0.09932370209208072
3260000000.0 -0.07015619895918467 0.12241554514744633
3280000000.0 0.039701358819852255 -0.10160005650627087
3300000000.0 -0.06718532865785633 0.043636888778196464
3320000000.0 0.00838538764135178 0.05079119841106856
3340000000.0 0.018462359007496116 0.020934511375694353
3360000000.0 0.00825415327222241 0.004677538662301911
3380000000.0 0.0045132753011004 -0.0030678762935058717
3400000000.0 0.008074805768756865 0.017020183983642835
3420000000.0 0.018760360573681585 0.026028308483126962
3440000000.0 -0.013385289740678572 -0.04245555748934462
3460000000.0 -0.038678554071484225 -0.03739128035679876
3480000000.0 0.06235079111095817 -0.016125009333369834
3500000000.0 0.026513633632531862 -0.07306361582959997
3520000000.0 -0.08714121964184253 -0.03018405543843649
3540000000.0 0.10531482273509567 -0.019422804779207967
3560000000.0 -0.10932002839292337 0.0516981497662626
3580000000.0 0.1251478754534839 -0.05189214819971587
3600000000.0 0.054544202119807046 0.1447525043050695
3620000000.0 -0.004049736059340558 0.16684717380148725
3640000000.0 -0.16260194172663645 0.07307861325762638
3660000000.0 -0.18589065278962608 0.027832548759882177
3680000000.0 -0.16785860155442148 -0.09239100763723852
3700000000.0 -0.11391676566556683 -0.15391611891793525
3720000000.0 0.06358517026212841 -0.17943444619124554
3740000000.0 0.14256558382416532 -0.11969872172634385
3760000000.0 -0.13701119831741257 0.11478595461750642
3780000000.0 0.1531229537336857 -0.0758463795578524
3800000000.0 -0.11004375709506414 -0.11868545336215867
3820000000.0 -0.15152870706102262 0.0267485578273831
3840000000.0 -0.08466525219106875 -0.12037662619071984
3860000000.0 0.1468733167445522 0.01217868432989522
3880000000.0 0.15112424886447526 -0.03266521908324725
3900000000.0 -0.041524081250254655 -0.15257107112156723
3920000000.0 -0.08913388704490977 0.1368533468492044
3940000000.0 0.012199278586063922 -0.16796331648025054
3960000000.0 0.17294503359306623 -0.0060917526571296395
3980000000.0 0.08889734599349557 -0.1499170156759482
4000000000.0 0.0024209682015447673 -0.16811841163857524
