! Created with skrf (http://scikit-rf.org).
# Hz S RI R 50.0 
!freq ReS11 ImS11
400000000.0 -0.3168173279160724 0.8011802076617884
420000000.0 -0.10469059381415591 0.8501022932964671
440000000.0 0.735175681312261 0.37972655247867965
460000000.0 0.6826415668993385 -0.3953273779113212
480000000.0 0.17817290319293708 0.690113173336737
500000000.0 0.5905767048583571 0.04662441341673347
520000000.0 0.17583373318777698 -0.4839728054924213
540000000.0 0.45413499081233416 0.05188956253739415
560000000.0 -0.32001561200479944 0.22145249970384112
580000000.0 0.22612460017741165 -0.2785110134092312
600000000.0 -0.19358338243274403 -0.30337185926629695
620000000.0 0.3710175006350832 0.06389738209995137
640000000.0 -0.03731505955147172 -0.39566347625472553
660000000.0 -0.384839976522172 -0.14017720523646285
680000000.0 -0.07605502365482703 -0.4156095690117695
700000000.0 -0.3197675654929264 0.2810203565628557
720000000.0 -0.20308046477811556 0.3613297473429216
740000000.0 0.3574533760098104 -0.19181287908457195
760000000.0 -0.23539076657281865 -0.3134102067560751
780000000.0 0.25937419867894496 0.24828555345484982
800000000.0 0.24161712565112833 -0.2150028576412849
820000000.0 -0.25655970433342656 0.10742460067277596
840000000.0 -0.2293545440873359 0.06953413100059691
860000000.0 -0.20620009112845641 0.02221558914573161
880000000.0 0.15738873802830505 -0.017865242112794583
900000000.0 0.029873448724418307 0.10272758898586756
920000000.0 0.0030464860224626907 -0.07549702137558174
940000000.0 -0.010883717143256512 0.04738402286199373
960000000.0 -0.050829800040736214 -0.01259194119065364
980000000.0 -0.008342677668371457 -0.06957555141785574
1000000000.0 0.028432296232094322 -0.07757050528035721
1020000000.0 0.07524476812395585 -0.07413135542692731
1040000000.0 0.12166367911365529 -0.00046456554026700584
1060000000.0 0.15692972263977523 0.005457586954411501
1080000000.0 0.17222639304421472 0.023113079684202606
1100000000.0 -0.16735457549830687 -0.10248554324504314
1120000000.0 0.1421015069299033 0.16516388027440715
1140000000.0 -0.013881300026666446 -0.25030329427559145
1160000000.0 -0.20384054821459394 -0.19478985244501665
1180000000.0 -0.09780807715636337 -0.2989268157609771
1200000000.0 0.2159786318220256 -0.265718221704579
1220000000.0 -0.23457563313139274 0.27835204537940345
1240000000.0 0.386524033326934 -0.008120941180683712
1260000000.0 -0.06031433033239502 -0.40552560387367037
1280000000.0 -0.3414878281035887 0.25831118509487994
1300000000.0 0.2751913164082257 0.34339170950428755
1320000000.0 0.37226436473959784 -0.23500461145411916
1340000000.0 0.40186669053799 -0.17989045363533898
1360000000.0 0.36159322616879547 -0.2491445162567584
1380000000.0 0.013406025601784305 -0.43746524532198067
1400000000.0 -0.38447075383800944 -0.18145329427303436
1420000000.0 -0.011354132371243183 0.4072448491661032
1440000000.0 0.37519257508292514 0.0701633322885887
1460000000.0 -0.012247699705579786 -0.3516717764736773
1480000000.0 -0.3200320985431838 0.004558649384184653
1500000000.0 -0.011515903396103923 0.28541400679291745
1520000000.0 0.13087229153500163 0.21931629580654322
1540000000.0 -0.21399489888036533 -0.06905882172543934
1560000000.0 0.09506759173056732 -0.1650852192799855
1580000000.0 0.08437679157246847 0.1380737819983118
1600000000.0 0.11007735331165835 -0.0737941784422843
1620000000.0 0.08921041010045351 -0.050209950553857303
1640000000.0 -0.03901828381979047 0.06841348439087089
1660000000.0 -0.048763990293164375 -0.026324525677026735
1680000000.0 0.032604481538008635 0.0152212858148271
1700000000.0 -0.02220104771491088 0.0034336933975753965
1720000000.0 -0.0008501949247925984 0.007749088572137869
1740000000.0 -0.014713730578154546 0.002384749860639009
1760000000.0 -0.023210947853006002 0.021021353046151665
1780000000.0 -0.011784125071217353 -0.0591686119937473
1800000000.0 -0.04611967487220003 0.08249913148059496
1820000000.0 0.04688865265289478 0.11764936255915812
1840000000.0 0.06768000816062683 -0.15060572038771516
1860000000.0 -0.07120824410133468 0.19138040836566658
1880000000.0 0.12552000010383857 -0.20948431359127861
1900000000.0 -0.10581621020440603 0.26512183335566114
1920000000.0 0.08275061503464891 -0.3098600035863518
1940000000.0 -0.3128569236120371 0.15921324317187024
1960000000.0 0.3205668040802517 0.20010598889582967
1980000000.0 0.05086675697555484 -0.39436867428463174
2000000000.0 -0.35189028081207346 -0.22076462291927554
2020000000.0 -0.23955700623276005 0.3540304692216811
2040000000.0 0.2284647951108263 0.36668031571205384
2060000000.0 0.4281220722908748 -0.06545966198794906
2080000000.0 0.27466173990850534 -0.32865914164857535
2100000000.0 0.153338134987516 -0.3936370287308956
2120000000.0 -0.05245586699947954 -0.4115605554081708
2140000000.0 -0.3277762207195711 -0.2362377910743341
2160000000.0 -0.02165807080257729 -0.3895095294004485
2180000000.0 -0.23954486539710895 -0.28726876996843914
2200000000.0 -0.35622644777346335 -0.06101335078517915
2220000000.0 -0.24689556929549747 0.24923527418703223
2240000000.0 0.02125772437101348 0.3457758467185937
2260000000.0 0.22751383210459214 0.2608288074965737
2280000000.0 0.339586508782743 0.08803041360860163
2300000000.0 0.1559137099655702 -0.3295198519417253
2320000000.0 -0.3438333432291052 -0.18039307377855096
2340000000.0 -0.13353142235729626 0.3970883132728477
2360000000.0 0.43093578378720304 -0.1648457522873527
2380000000.0 -0.504979757630641 0.0633291579557164
2400000000.0 0.5553975353021946 -0.07202715738155831
2420000000.0 -0.5172072676287137 0.32641566851268966
2440000000.0 0.19163614290408335 -0.6306072170531892
2460000000.0 0.2830846499501315 0.637813323042857
2480000000.0 -0.5750619114688794 -0.4446896535764282
2500000000.0 0.6039889384606361 0.43792468453324557
2520000000.0 -0.47199236798142846 -0.5899128378634451
2540000000.0 0.12046505455527298 0.7469161976953973
2560000000.0 0.3895627134365579 -0.6404572063679372
2580000000.0 -0.7339174291686251 -0.005291797821196464
2600000000.0 0.4591678188677464 0.5406839448339927
2620000000.0 0.20784468695616853 -0.6464610565131528
2640000000.0 -0.0787211301949503 -0.6372726212637281
2660000000.0 -0.441107249703171 0.4037128832016575
2680000000.0 0.5358546656385372 0.12881680779398322
2700000000.0 -0.24157161859425785 -0.44340181228651787
2720000000.0 -0.08814949772607696 0.44858901498952747
2740000000.0 0.3142632593048788 -0.27053349621049366
2760000000.0 -0.36680059652771163 0.08350308164231494
2780000000.0 0.3224333225475451 -0.12531396285925914
2800000000.0 -0.27291009172510416 0.16984270827933312
2820000000.0 0.046627273716076466 -0.3013597513539888
2840000000.0 0.22622083433001333 0.18822490986223359
2860000000.0 -0.2830981651540195 0.06549383884544917
2880000000.0 0.10560381617288876 -0.2695942344825343
2900000000.0 -0.010774431687858419 0.291423695087891
2920000000.0 0.21061389051334523 -0.20764617685352588
2940000000.0 -0.2983298972426149 -0.04541765362322421
2960000000.0 -0.1594799796817033 0.25784070957780253
2980000000.0 -0.2381358593497734 0.1937027558274612
3000000000.0 -0.3093225687224285 0.017568040994515546
3020000000.0 -0.14203055882066623 -0.27617392290549564
3040000000.0 0.28963630601352514 -0.1042007805817621
3060000000.0 -0.21653767407955493 0.21475208672021212
3080000000.0 0.12706615530768994 -0.2741857974458562
3100000000.0 0.022604755515893808 0.295573467253921
3120000000.0 -0.07046773466544219 -0.2792412787099103
3140000000.0 0.1790888172678761 0.21427404806410832
3160000000.0 -0.25914117180334556 -0.062270216294442626
3180000000.0 0.09928074228768767 0.23020210649715567
3200000000.0 -0.21614822119966656 0.07400084282593555
3220000000.0 -0.049472439125604235 -0.19667937750150322
3240000000.0 0.1702774374902766 -0.03433620322485552
3260000000.0 -0.10965219381170432 0.08837346911035213
3280000000.0 0.06940944929556908 -0.08313891132311213
3300000000.0 -0.07174040991748319 -0.03449267771140716
3320000000.0 -0.016132198647589985 0.04916600067431704
3340000000.0 -0.017372560879035992 0.02141050274398371
3360000000.0 0.00625166614354987 0.006235266441640135
3380000000.0 -0.006047537391357016 -0.0012757212824431989
3400000000.0 0.0054762676074357666 0.01810594357489719
3420000000.0 -0.028122414781823722 -0.01607084156648021
3440000000.0 -0.04447818022795222 -0.0013463861189832514
3460000000.0 -0.050015102492189725 0.01930996862354423
3480000000.0 0.002613311631852225 -0.06435949288895094
3500000000.0 -0.010540200280767971 -0.07685146061541429
3520000000.0 -0.09217499422389112 -0.007941859477564522
3540000000.0 0.0729890150250384 -0.07889405231522316
3560000000.0 -0.030679742185354443 0.11743420301469529
3580000000.0 0.06848149822137567 -0.117371025586505
3600000000.0 0.08496958058175183 0.12925149693534133
3620000000.0 0.045449396507901745 0.16149437611705741
3640000000.0 -0.12136911938033598 0.13144369103715026
3660000000.0 -0.16719616439822496 0.0879688290909822
3680000000.0 -0.1871767686225469 -0.04784955423140747
3700000000.0 -0.13946616207247767 -0.13373926961689367
3720000000.0 0.03461125570346579 -0.18871796332329022
3740000000.0 0.1428209517382696 -0.12073172765533743
3760000000.0 -0.14350696700726379 0.10787894024422247
3780000000.0 0.1512211844802448 -0.08128830651824458
3800000000.0 -0.10664131482916712 -0.12256561822230633
3820000000.0 -0.15410305400929833 -0.012165709983988336
3840000000.0 -0.09573649610557576 -0.11279080994477861
3860000000.0 0.14569000770636142 -0.026070837392777064
3880000000.0 0.15098817658038524 -0.03702785846921511
3900000000.0 -0.07562482574611681 -0.13957646612048508
3920000000.0 -0.0812395923856612 0.14271116189097152
3940000000.0 -0.02963086860790624 -0.16646875395624644
3960000000.0 0.1607240887082733 -0.06686715754048293
3980000000.0 0.06882901295680974 -0.16125595730852707
4000000000.0 -0.001698866175150728 -0.16971553931229086
