! Created with skrf (http://scikit-rf.org).
# Hz S RI R 50.0 
!freq ReS11 ImS11
400000000.0 -0.3724189615249056 0.7731075524933152
420000000.0 -0.1417219199582797 0.8436831796413196
440000000.0 0.7276781667071041 0.39051207250701475
460000000.0 0.6802892921441487 -0.3987036137515211
480000000.0 0.17449577301218624 0.6909019453255508
500000000.0 0.5883351677363631 0.07200573301920708
520000000.0 0.17365290395683577 -0.48562276897048645
540000000.0 0.4566758811977362 0.030930548201535537
560000000.0 -0.2699479430126024 0.28031512567779476
580000000.0 0.19756274173471441 -0.29857289150637834
600000000.0 -0.20423483416465307 -0.2954481078691771
620000000.0 0.37300628468221564 0.0565032794539162
640000000.0 -0.012038579093148063 -0.3980395868890752
660000000.0 -0.40039826069679596 -0.09115008070698694
680000000.0 -0.04238152995015457 -0.4204653349340891
700000000.0 -0.37831789937036153 0.19453561570360542
720000000.0 -0.260288003627124 0.3225794527723171
740000000.0 0.3772171259458988 -0.15096502119156674
760000000.0 -0.22222595725851366 -0.32191928868989733
780000000.0 0.26892002554537237 0.23744939272264307
800000000.0 0.22852483635760487 -0.22804236655318313
820000000.0 -0.2500946217187119 0.12045659636679956
840000000.0 -0.2058457671644279 0.12124483115188953
860000000.0 -0.17700431864332353 0.10820026540162925
880000000.0 0.13157600227740346 -0.09023078333696619
900000000.0 0.07653530944308369 0.07778324317433687
920000000.0 0.0013691602319059987 -0.07774424320382335
940000000.0 -0.026802850906330954 -0.04168739165557415
960000000.0 0.04442077068837839 -0.026437027706773284
980000000.0 0.037015374992514546 -0.05782505846977855
1000000000.0 0.03953049289750145 -0.07042565757015266
1020000000.0 0.005521900019534549 -0.10364367821757683
1040000000.0 0.08780620098123812 -0.08272947973863881
1060000000.0 0.1163756229705478 -0.1056400010452809
1080000000.0 0.16036588532849005 -0.07210120597592361
1100000000.0 -0.19524515987586544 -0.036883532882268574
1120000000.0 0.14952597560800523 0.1623022814076848
1140000000.0 0.026091586859335266 -0.25191841522350017
1160000000.0 -0.14024423657616675 -0.24758645473028756
1180000000.0 0.028214681997801496 -0.3159790915450886
1200000000.0 0.3076963887765974 -0.15515347570631666
1220000000.0 -0.3360389107546078 0.1431243289784883
1240000000.0 0.34192736168243276 0.1811649346834969
1260000000.0 0.09840788044191438 -0.397961460648909
1280000000.0 -0.3978297732816602 0.15626693140864995
1300000000.0 0.19608163977223367 0.3924600124260426
1320000000.0 0.40592631135707097 -0.16683144988071605
1340000000.0 0.41965898841220745 -0.12754246003622263
1360000000.0 0.35834587376898686 -0.2513564926989069
1380000000.0 -0.02420615318565827 -0.4360067536215315
1400000000.0 -0.4107037450340494 -0.10724708931680389
1420000000.0 0.0901134604535341 0.3967357905718541
1440000000.0 0.38072036802582127 -0.036232715374900575
1460000000.0 -0.10117292549445422 -0.3381764209195507
1480000000.0 -0.3054505490334462 0.10042390671888256
1500000000.0 0.073300825269181 0.27840215467549423
1520000000.0 0.18735651155263194 0.17646081446186143
1540000000.0 -0.22391736062997988 -0.040579475029648523
1560000000.0 0.09892856231478096 -0.16593419256362493
1580000000.0 0.07838591650655649 0.14393612985005927
1600000000.0 0.13007259810687608 0.034299711522634516
1620000000.0 0.09691414662424475 0.03621445803004978
1640000000.0 -0.07026797429342525 -0.03533760848068553
1660000000.0 0.051578292606171985 -0.017155209995567983
1680000000.0 -0.017379318116193667 0.029516145148151443
1700000000.0 0.005194966827666545 -0.020184555149846732
1720000000.0 0.0050135114904338845 -0.0042918570975768984
1740000000.0 -0.014401399031735974 -0.0063160063187037785
1760000000.0 0.03168896250994555 -0.00488096447658448
1780000000.0 0.05875032255068347 -0.011787042580759546
1800000000.0 -0.09163525498000637 0.019874474966396067
1820000000.0 0.000993783889374383 0.1256714416506387
1840000000.0 0.10146245805025603 -0.12881819530112934
1860000000.0 -0.1016175246473175 0.17556472415116436
1880000000.0 0.1239173719142158 -0.2090735396876366
1900000000.0 -0.10419245459659057 0.26465650421223696
1920000000.0 0.04314019135952541 -0.31695988182763385
1940000000.0 -0.28169458465780706 0.20900426727823715
1960000000.0 0.350050973897878 0.14324471174412812
1980000000.0 -0.01134944661996597 -0.3983251074394782
2000000000.0 -0.3808817604473355 -0.1682794835155397
2020000000.0 -0.1920560201338587 0.38346740925950906
2040000000.0 0.23608192870457412 0.3636321159952107
2060000000.0 0.43436884852438506 -0.019347951649761615
2080000000.0 0.3310822463332481 -0.2743291200992133
2100000000.0 0.19671641047954352 -0.37562524063450364
2120000000.0 0.03662790329226841 -0.41459213681791834
2140000000.0 -0.2899441682148823 -0.2833878403148234
2160000000.0 0.10242173904793649 -0.3777976855282432
2180000000.0 -0.17011666267569703 -0.33448940291585716
2200000000.0 -0.3301370637023595 -0.14891337558277043
2220000000.0 -0.30053339339491947 0.1814123038362084
2240000000.0 -0.0884981367068927 0.33475338071579586
2260000000.0 0.17105043129134062 0.30098863519119806
2280000000.0 0.31931276941405984 0.14299971382294396
2300000000.0 0.1762194322408167 -0.31832563383917223
2320000000.0 -0.32133390245831694 -0.21607902309899774
2340000000.0 -0.14985613280646626 0.3911890400367369
2360000000.0 0.43267207138993663 -0.15823836161520285
2380000000.0 -0.5026213631989221 0.0767920264293711
2400000000.0 0.5534898770217717 -0.08480047772509532
2420000000.0 -0.49548000770567474 0.35831948634999766
2440000000.0 0.16957676060325802 -0.6373374884700739
2460000000.0 0.27300560318458766 0.6427342546518292
2480000000.0 -0.5622505214387137 -0.46241066402067843
2500000000.0 0.5507407900251369 0.5047294344058518
2520000000.0 -0.43871625859597924 -0.6163068178816031
2540000000.0 0.05795545727866415 0.7556944724362197
2560000000.0 0.4465927455519778 -0.6028689614662455
2580000000.0 -0.7271865024018476 -0.10762698368577132
2600000000.0 0.37171804578546297 0.6056866182368574
2620000000.0 0.34051866476919623 -0.5883987138843504
2640000000.0 0.026084660558551617 -0.6418271313967271
2660000000.0 -0.48506894547229723 0.34960398545748134
2680000000.0 0.5174412231941674 0.18983615173243115
2700000000.0 -0.21053106412355904 -0.45856955600374527
2720000000.0 -0.12312511569421906 0.44042525202972116
2740000000.0 0.3323526537306806 -0.24765939679589527
2760000000.0 -0.3665630813013969 0.083252182115808
2780000000.0 0.31765727945902605 -0.13585787551773892
2800000000.0 -0.2563232621257813 0.19349409252028987
2820000000.0 0.0009648548038868267 -0.30505432341293104
2840000000.0 0.2517616308978684 0.15329953219074177
2860000000.0 -0.2522602327174148 0.14482113667761656
2880000000.0 0.06476486922619105 -0.28313510149727406
2900000000.0 -0.002205538794094099 0.29221935564592305
2920000000.0 0.19595079675604982 -0.22275941283831802
2940000000.0 -0.29368789010577834 -0.07319912760015695
2960000000.0 -0.20565034638603263 0.22479894452977603
2980000000.0 -0.258005718880536 0.1691034808323174
3000000000.0 -0.3070634582621578 -0.05299495511640424
3020000000.0 -0.09947000728256984 -0.2959940327303382
3040000000.0 0.30941464786173795 -0.00561766369615197
3060000000.0 -0.27393050712988826 0.1373606814009255
3080000000.0 0.2273947909729553 -0.19938959062635694
3100000000.0 -0.13935438429881455 0.26128367873336644
3120000000.0 0.03482367961622115 -0.2859003062117005
3140000000.0 0.0816846183087037 0.26646565818072204
3160000000.0 -0.2104528328937798 -0.16124876971181004
3180000000.0 0.03432525003870646 0.24708134357015768
3200000000.0 -0.22703345369914216 0.013422765631696768
3220000000.0 -0.03755525817691315 -0.1979999103153428
3240000000.0 0.16451966585438693 -0.04956586054884786
3260000000.0 -0.0898192596146575 0.10579850974865154
3280000000.0 0.05928606654277002 -0.08978444638178097
3300000000.0 -0.03983324808857224 0.06816277049810943
3320000000.0 0.047401840015171864 -0.01738516663231107
3340000000.0 0.004166196308614751 -0.026927858041754845
3360000000.0 -0.0034683819323095707 -0.008016858869915775
3380000000.0 0.003678066788824613 0.005383297906476005
3400000000.0 -0.018870166424771403 0.005240057432924349
3420000000.0 0.020027111100664494 0.02571794353202158
3440000000.0 0.03875473043417422 -0.021815982941306492
3460000000.0 0.017311962074353572 -0.05023699236922291
3480000000.0 0.06303439177997319 -0.009965219992879703
3500000000.0 0.05228394323888423 -0.0571183115757502
3520000000.0 -0.09069715847522358 -0.01713080225323535
3540000000.0 0.10719224360027241 -0.007096176167477985
3560000000.0 -0.11450453492228801 0.03832009138349728
3580000000.0 0.12735747434091466 -0.045213836494261514
3600000000.0 -0.01124388884819598 0.15340843537216203
3620000000.0 -0.02918600472625429 0.16339667094914462
3640000000.0 -0.16694834412214568 0.06135362362043051
3660000000.0 -0.18677462673763862 0.015289249203575113
3680000000.0 -0.17628872475250928 -0.07663660216787062
3700000000.0 -0.1144113545765861 -0.15408953895526212
3720000000.0 0.0557720723641545 -0.1824635924648611
3740000000.0 0.12645282384055304 -0.13645470880519073
3760000000.0 -0.13766543723369892 0.11486684797953754
3780000000.0 0.1472905326897594 -0.08619898641705083
3800000000.0 -0.11700222368451164 -0.11075908662426477
3820000000.0 -0.15096601171698615 0.029643664882288562
3840000000.0 -0.1337357584601585 -0.060213241291485156
3860000000.0 0.14123859385305784 -0.040960162497723746
3880000000.0 0.14439594342066764 -0.05311341835636635
3900000000.0 -0.05653745205627074 -0.14711495098653074
3920000000.0 -0.06670149322419291 0.1480595353298502
3940000000.0 -0.010794511441849121 -0.167527340018327
3960000000.0 0.13839560789512945 -0.10230641279969774
3980000000.0 0.054360333527915625 -0.1653274704468057
4000000000.0 0.026051574694852624 -0.16693956461828294
