! Created with skrf (http://scikit-rf.org).
# Hz S RI R 50.0 
!freq ReS11 ImS11
400000000.0 -0.34696582668931675 0.786064662929716
420000000.0 -0.12963448017048007 0.8461737457350327
440000000.0 0.6964329937864933 0.446271503491277
460000000.0 0.6756988978785673 -0.40787863508235395
480000000.0 0.16871220273813078 0.6929548898430907
500000000.0 0.590735289357081 0.0576708569436515
520000000.0 0.12933584692680314 -0.49988272585098786
540000000.0 0.4552299404198217 -0.03775834381809969
560000000.0 -0.2805266885943571 0.26790895998573777
580000000.0 0.22646001964381376 -0.277680425139515
600000000.0 -0.19066895156546151 -0.30443920028719224
620000000.0 0.36446160169211056 0.09566121720487718
640000000.0 0.0013318370092454447 -0.39713266716625517
660000000.0 -0.40944204644966364 -0.014473060616184585
680000000.0 -0.1320922106296316 -0.4007675465203619
700000000.0 -0.3353677634085922 0.2613613839666568
720000000.0 -0.23209158798887228 0.34365761157802077
740000000.0 0.3800877758130119 -0.1424240519223786
760000000.0 -0.2405268728839824 -0.31059350375920325
780000000.0 0.28137120707091146 0.2236564814567878
800000000.0 0.24890603770360678 -0.206871658328712
820000000.0 -0.2576236892542768 0.10291534531254405
840000000.0 -0.2326993885257759 0.05625520525245723
860000000.0 -0.20669701285714379 0.012723128275989109
880000000.0 0.1541278793098042 -0.03646306438720844
900000000.0 0.0052071835097532194 0.10684855569522497
920000000.0 -0.0030865285991768217 -0.07547076881358783
940000000.0 -0.023676339015017832 0.04310873517188446
960000000.0 -0.051246223277519765 0.010076321427842061
980000000.0 0.006569687768295752 -0.07007221900256407
1000000000.0 0.06518335375803165 -0.049799115447471294
1020000000.0 0.051909858678219845 -0.09097289933710503
1040000000.0 0.11851160969944627 0.025079760542374856
1060000000.0 0.15622159774960678 -0.006703736953187927
1080000000.0 0.1743124974621714 -0.0029495927042226156
1100000000.0 -0.15955332407264006 -0.1149263477670216
1120000000.0 0.15137295109209256 0.15708663959390454
1140000000.0 -0.024516872793903053 -0.24934971877750178
1160000000.0 -0.2145255854591249 -0.18182766810858927
1180000000.0 -0.10657545592927593 -0.29594237654927247
1200000000.0 0.2400863437281271 -0.24462813594900729
1220000000.0 -0.25484431331274077 0.2594168088197039
1240000000.0 0.38758093428107787 -0.0030124155393818916
1260000000.0 -0.018980329079665934 -0.4099349247824294
1280000000.0 -0.34628371006823266 0.25127912683487175
1300000000.0 0.25159792930343433 0.36128893359754405
1320000000.0 0.4107775798964045 -0.15701430414013842
1340000000.0 0.4077591541989659 -0.16374149182297285
1360000000.0 0.3731254957077159 -0.23169657130409596
1380000000.0 0.058260932942225716 -0.4332629457947578
1400000000.0 -0.39974165043484805 -0.1429563689327682
1420000000.0 -0.007210477284786921 0.4071629591576319
1440000000.0 0.3773894204424999 0.05410112750042541
1460000000.0 -0.041174489925820505 -0.34986364878436493
1480000000.0 -0.31946814274381824 0.02287068018418604
1500000000.0 0.03950778355443213 0.28315476533696887
1520000000.0 0.1827456801970069 0.17759788082193295
1540000000.0 -0.21627225408411485 -0.06294231744768594
1560000000.0 0.08569824277602875 -0.1712440203702244
1580000000.0 0.12427314005785581 0.10482353215895343
1600000000.0 0.12707690222313836 -0.03958256036539961
1620000000.0 0.09249551075676092 -0.045009579197917635
1640000000.0 -0.06258851093527654 0.047390771031866424
1660000000.0 -0.03853383484125604 -0.03961719230325302
1680000000.0 0.015112163433877617 0.03210726190050374
1700000000.0 -0.003904258139231715 -0.021462200583309204
1720000000.0 0.006952329131355627 -0.002289758478358529
1740000000.0 -0.014192802584339732 -0.005255943925205015
1760000000.0 -0.02942831459973698 -0.008898204212260388
1780000000.0 -0.040299688796393916 -0.04403083668437878
1800000000.0 -0.005050041783187102 0.09425923086645223
1820000000.0 0.05357423971380609 0.11425551477278861
1840000000.0 0.06658985747317304 -0.15082995546894107
1860000000.0 -0.08731124618618466 0.18456071878968247
1880000000.0 0.10945153985107166 -0.21815998435099698
1900000000.0 -0.08555092661415455 0.2724152809991359
1920000000.0 0.07194360496296186 -0.31229884553517884
1940000000.0 -0.30462040767262133 0.17397158189387602
1960000000.0 0.32387405335178954 0.19465604875433126
1980000000.0 0.06646296973010808 -0.39232005709453033
2000000000.0 -0.34436364547074105 -0.23331151907945546
2020000000.0 -0.23345301605125823 0.3580224331922102
2040000000.0 0.2007998442107959 0.38235621940143455
2060000000.0 0.43154542684164243 -0.031452309339276695
2080000000.0 0.30900855409981587 -0.2956657074538334
2100000000.0 0.18547126488491805 -0.3798986296296725
2120000000.0 -0.02653366434774887 -0.41377064749442827
2140000000.0 -0.3495527687143156 -0.2019641458743041
2160000000.0 0.023090826372906614 -0.38889546029914734
2180000000.0 -0.24318476410111556 -0.28489391511097956
2200000000.0 -0.35912135929788536 -0.04444259554911812
2220000000.0 -0.23099852067815901 0.2647356757783727
2240000000.0 -0.008845669213324117 0.34696292292552133
2260000000.0 0.2227129166396592 0.26625355721024957
2280000000.0 0.3409223731177018 0.08374519645745938
2300000000.0 0.15099654882955066 -0.3318423345812585
2320000000.0 -0.34803363512356983 -0.17206674211058381
2340000000.0 -0.17586617144343464 0.3809243335386966
2360000000.0 0.447457820633618 -0.11089236142298366
2380000000.0 -0.5079796590292088 0.029951221463060815
2400000000.0 0.5583781510391106 -0.04293810024493237
2420000000.0 -0.5255521357769016 0.31207429155346145
2440000000.0 0.22136957715055142 -0.6203465439335342
2460000000.0 0.2287062563995274 0.659022318628392
2480000000.0 -0.5533920307485375 -0.47103564591944475
2500000000.0 0.5343671862415865 0.5207287531993354
2520000000.0 -0.4069524877443127 -0.6363665738406488
2540000000.0 0.1212587267538322 0.7463828500745265
2560000000.0 0.38048045550522913 -0.6459552607032752
2580000000.0 -0.7338790152524579 0.019418045073306536
2600000000.0 0.45977274777466026 0.5419070851189451
2620000000.0 0.16803575535761767 -0.6589706127933732
2640000000.0 -0.12965529719007843 -0.6293667386281572
2660000000.0 -0.4214059594829275 0.42506250813792334
2680000000.0 0.5400731908243892 0.11600906523713685
2700000000.0 -0.2762333507604514 -0.42410395402335455
2720000000.0 -0.1133391868414588 0.4439589810433405
2740000000.0 0.3453705337280169 -0.23062414969560896
2760000000.0 -0.37365616211628405 0.04520344787693297
2780000000.0 0.3351599555368513 -0.08548068769333107
2800000000.0 -0.2839148498222705 0.15020485559896118
2820000000.0 0.03381060038477239 -0.3026255873910105
2840000000.0 0.23910558294735104 0.17072377772685984
2860000000.0 -0.2716987670364267 0.10108410080497551
2880000000.0 0.06665036576251018 -0.281446850026483
2900000000.0 -0.006637664877876055 0.29089906295833723
2920000000.0 0.1837179722221889 -0.2314202352230695
2940000000.0 -0.30219385089637363 0.0001256588435747802
2960000000.0 -0.15200879910439066 0.26439124857862956
2980000000.0 -0.2091209189076319 0.226177699408714
3000000000.0 -0.29497277934166327 0.10014691363344562
3020000000.0 -0.1832384788685636 -0.25260699067889303
3040000000.0 0.28797354907204525 -0.11205079917605738
3060000000.0 -0.19280171729387138 0.2376737809467228
3080000000.0 0.1408912332707359 -0.26755652131450697
3100000000.0 -0.00026950385197153497 0.2971441553496621
3120000000.0 -0.025653196214086085 -0.28695399860712795
3140000000.0 0.13103375592311395 0.24630001243973396
3160000000.0 -0.24271625496097726 -0.10865109652395173
3180000000.0 0.060797279272683635 0.24258184993005238
3200000000.0 -0.2254230389781064 0.03334630043958793
3220000000.0 -0.051033497083740664 -0.1955147667767781
3240000000.0 0.16870515432088945 -0.03853538354352037
3260000000.0 -0.10393870809505527 0.09401690850222094
3280000000.0 0.0700463245583568 -0.08255809820730914
3300000000.0 -0.07966687357422143 0.00010846472219627153
3320000000.0 -0.007000203192770263 0.050779395869276114
3340000000.0 0.02719692637194734 0.005655816707080573
3360000000.0 0.008236507659403858 0.005422836516910375
3380000000.0 0.0018357526695253036 0.005397026457296873
3400000000.0 0.018190458247272716 -0.004229273921879398
3420000000.0 -0.003607550754134866 -0.03156735069252557
3440000000.0 -0.04261725854870667 -0.012134970862799957
3460000000.0 -0.053075207976417314 0.0005782111553157028
3480000000.0 0.011195301798942318 -0.06256366209852805
3500000000.0 -0.05081771781055334 -0.058237344742368254
3520000000.0 -0.05837284439660892 0.07183257705043845
3540000000.0 0.05303577318065205 -0.09347940293475256
3560000000.0 -0.032825585397761946 0.11631949609243496
3580000000.0 0.07940787229889323 -0.10955219251440962
3600000000.0 0.10865350904422656 0.10953935359873125
3620000000.0 0.04075807082851147 0.1623122049917346
3640000000.0 -0.16631547730825738 0.06199537982654333
3660000000.0 -0.16830401839619388 0.08382204898579868
3680000000.0 -0.18801847360086457 -0.041861591834786535
3700000000.0 -0.15004436289229625 -0.12023452312679815
3720000000.0 0.020210138937763647 -0.19086545722151915
3740000000.0 0.1237779809151638 -0.1402645543211735
3760000000.0 -0.13361665177142376 0.12052915663035757
3780000000.0 0.15013431878235772 -0.08386597765463213
3800000000.0 -0.10260226394772234 -0.1260345484144911
3820000000.0 -0.15247381117252284 0.02708176360069956
3840000000.0 -0.10136432330443812 -0.1078731884361782
3860000000.0 0.14798560590736604 0.009071718588722842
3880000000.0 0.1540847553905733 0.020487400045341043
3900000000.0 -0.031892444939144324 -0.15566024449749968
3920000000.0 -0.1069437421897968 0.12424940809658577
3940000000.0 0.030645398443436115 -0.16603457878758593
3960000000.0 0.17253677648717392 0.023845806178138307
3980000000.0 0.14566437978530264 -0.09820020414376188
4000000000.0 0.1495164044295747 -0.07932894054567403
