! Created with skrf (http://scikit-rf.org).
# Hz S RI R 50.0 
!freq ReS11 ImS11
400000000.0 -0.33513768436430086 0.7913099754040953
420000000.0 -0.0611642397208111 0.8534450193073693
440000000.0 0.736070243034962 0.37537157692723827
460000000.0 0.6747303832816439 -0.4082040706474277
480000000.0 0.17484061111694957 0.6912966944191511
500000000.0 0.5923245024600947 0.022938018912885223
520000000.0 0.1541654775310197 -0.4914738709395027
540000000.0 0.45542113281580926 0.03349591101964103
560000000.0 -0.3160935286943717 0.22787974921266158
580000000.0 0.17284781451619122 -0.31468871935428666
600000000.0 -0.21758376811766356 -0.28739066769653654
620000000.0 0.36290960937508193 0.10376037096189891
640000000.0 -0.011873876933960985 -0.39863550404811077
660000000.0 -0.38424831827252803 -0.14538205934868326
680000000.0 -0.03530627820372603 -0.4213265900399615
700000000.0 -0.3703789931395295 0.20906747780244708
720000000.0 -0.2459222928601282 0.3332774648406221
740000000.0 0.3874460473228475 -0.12027343073513573
760000000.0 -0.1853510769568598 -0.344308847759483
780000000.0 0.2527649610959243 0.2532883646048714
800000000.0 0.22777630223792794 -0.22752537132135447
820000000.0 -0.23529591613163595 0.14661579677629982
840000000.0 -0.19881529417545313 0.13231411563662485
860000000.0 -0.18400940383670097 0.09609206767639135
880000000.0 0.14009102067154344 -0.07590849795120817
900000000.0 0.0687700242446829 0.08375764100159351
920000000.0 -0.011298530164425323 -0.07658055171318269
940000000.0 -0.04976074110779082 -0.0016198062825246752
960000000.0 0.03397801691237522 -0.038593560211288895
980000000.0 0.0420186379433104 -0.053971809107424586
1000000000.0 0.03523194146049592 -0.0722703470661747
1020000000.0 0.009615346071650608 -0.10367651266422306
1040000000.0 0.07925345034278568 -0.09115648836755594
1060000000.0 0.1252012277361401 -0.09501986703614947
1080000000.0 0.1593574332984868 -0.07343705474700422
1100000000.0 -0.1911029349489632 -0.05400416380107272
1120000000.0 0.1660292997328271 0.14590472590684647
1140000000.0 0.014056227827165443 -0.25332607422205206
1160000000.0 -0.1555595402197241 -0.2386241465676375
1180000000.0 0.04063210427059594 -0.3144955798247917
1200000000.0 0.3137219502836192 -0.1420078636447046
1220000000.0 -0.34025784175710494 0.1327587886843441
1240000000.0 0.3424373306824545 0.1806506682762823
1260000000.0 0.09332345791111632 -0.39935899029524646
1280000000.0 -0.40749512250189596 0.13053666933864674
1300000000.0 0.18861108304242868 0.396637091371227
1320000000.0 0.40501617101147847 -0.1688699993685999
1340000000.0 0.41296875441796516 -0.14898948424652872
1360000000.0 0.3542812611467358 -0.25717582111314075
1380000000.0 -0.029749696174795254 -0.43545867659468357
1400000000.0 -0.4067912414734902 -0.12067206959186569
1420000000.0 0.07954610901918445 0.39904929368648334
1440000000.0 0.38137102061964334 -0.023121248352890363
1460000000.0 -0.10369610293279981 -0.33706159116277007
1480000000.0 -0.29240476052455544 0.1338767783808873
1500000000.0 0.0915718135918813 0.27283301263259385
1520000000.0 0.2040091000791783 0.1569749118294897
1540000000.0 -0.22041816065897138 -0.05515732922806234
1560000000.0 0.10813099082128673 -0.1598815089987273
1580000000.0 0.0803064408001847 0.1427853083666953
1600000000.0 0.13341335241833138 0.015893704068743526
1620000000.0 0.09563364203153517 0.039884408659302956
1640000000.0 -0.07430788236922949 -0.027421637916407046
1660000000.0 0.04456319345739514 -0.032542525365882286
1680000000.0 -0.031344129703357294 -0.01484953925004636
1700000000.0 0.015894640304272362 -0.014428855455348005
1720000000.0 -0.0021549031826640372 0.006710844044020985
1740000000.0 -0.014491882426606813 0.00527063233829714
1760000000.0 0.025563519361361958 -0.01920335040110343
1780000000.0 0.060124248039131585 -0.007120300638124275
1800000000.0 -0.09372110797783519 0.009214872638922554
1820000000.0 -0.023736709467141036 0.12384735707611609
1840000000.0 0.10547388909778681 -0.1259688098084104
1860000000.0 -0.10994120640621216 0.17045820685261187
1880000000.0 0.13644705509449973 -0.20130734670085482
1900000000.0 -0.11299620990130065 0.260964799869747
1920000000.0 0.05888060170744396 -0.3144356297361907
1940000000.0 -0.28855399170761536 0.1992800082451775
1960000000.0 0.35043361024679726 0.141498794406793
1980000000.0 -0.022416743696000656 -0.3972757563833291
2000000000.0 -0.3823725403788296 -0.16391640525296527
2020000000.0 -0.19053746063577678 0.3835920537120185
2040000000.0 0.25882783249154756 0.34745961933157365
2060000000.0 0.4246195319478245 -0.09243641177725352
2080000000.0 0.28082936942980896 -0.32544364445978363
2100000000.0 0.18852986933106744 -0.38017104263655227
2120000000.0 -0.006925801323497229 -0.41626312532668114
2140000000.0 -0.280339699585129 -0.29293292089555556
2160000000.0 0.06378702923385265 -0.3861259993433439
2180000000.0 -0.16932018650990344 -0.33470635236936247
2200000000.0 -0.3380652791274827 -0.12914099307330526
2220000000.0 -0.3033299165287034 0.1763760141369146
2240000000.0 -0.03702411419403925 0.34364778938757656
2260000000.0 0.17959261422098907 0.295427398760108
2280000000.0 0.3313293941449874 0.11316468951956708
2300000000.0 0.15104628232821718 -0.3310397850036095
2320000000.0 -0.3397593380710571 -0.18533645455135894
2340000000.0 -0.11915446962346045 0.4009764294260587
2360000000.0 0.4264009531073219 -0.17359827992856872
2380000000.0 -0.4987539973905356 0.09852893422865674
2400000000.0 0.553888340427888 -0.08081453033706501
2420000000.0 -0.4950734791312555 0.35915560460389023
2440000000.0 0.1642140296614787 -0.6388593889425763
2460000000.0 0.3018782911686351 0.630189312047438
2480000000.0 -0.5397576880555554 -0.4895517520983286
2500000000.0 0.5450338192718147 0.5123212595188193
2520000000.0 -0.4775686019738637 -0.5873667804580552
2540000000.0 0.09536658090276978 0.7519390484849011
2560000000.0 0.47443571479138547 -0.5821629045270313
2580000000.0 -0.7301291950581471 -0.08450103490542477
2600000000.0 0.31613640102079227 0.6358027601610813
2620000000.0 0.2785234337957383 -0.6197614951020286
2640000000.0 0.05360768870769439 -0.6396530128288986
2660000000.0 -0.5083654788214694 0.31388776366839033
2680000000.0 0.5198839120895796 0.18014587476770677
2700000000.0 -0.18844884227919753 -0.46710256958728125
2720000000.0 -0.13222101889384294 0.436155660643661
2740000000.0 0.31574354147921174 -0.2669301780070928
2760000000.0 -0.36132460658872245 0.09946426790648853
2780000000.0 0.31056000724050814 -0.14990148389975055
2800000000.0 -0.24340331352299943 0.20892901139549716
2820000000.0 -0.030009375642103864 -0.303127653150372
2840000000.0 0.26686449522277633 0.12381162596133716
2860000000.0 -0.2698696454165084 0.1093670177011227
2880000000.0 0.06026606999636111 -0.284331047836193
2900000000.0 0.03448345649600491 0.2904832354748089
2920000000.0 0.22466819451980669 -0.19473335549534654
2940000000.0 -0.2957782787996508 -0.06777446021488852
2960000000.0 -0.18132776315640908 0.24521155005351697
2980000000.0 -0.27189963019902846 0.14525871640943697
3000000000.0 -0.3052090816658949 -0.06071380631792012
3020000000.0 -0.08033010571750081 -0.3012481774652174
3040000000.0 0.30667062404431805 0.035073372053546825
3060000000.0 -0.25916862828896114 0.1618811219528165
3080000000.0 0.20876852209769134 -0.2187268583057777
3100000000.0 -0.12147166230333864 0.27038824681113033
3120000000.0 0.0004410280022299421 -0.28773040854952525
3140000000.0 0.10021586778887491 0.25994388475713637
3160000000.0 -0.2259177418301114 -0.13939085530921183
3180000000.0 0.025515597834177818 0.24789957202708543
3200000000.0 -0.2255130384449146 0.027342660713690653
3220000000.0 -0.01796982780749487 -0.20088242125255953
3240000000.0 0.17106919793924052 -0.022457891061206138
3260000000.0 -0.09378677867871221 0.10352535664259788
3280000000.0 0.031084045948073402 -0.10234365492089784
3300000000.0 -0.07479940650743847 0.023849204386490075
3320000000.0 0.014403392524979868 0.048825023313776375
3340000000.0 0.02691397217212083 0.001248771012969706
3360000000.0 -1.822139339372828e-05 0.008477181587059505
3380000000.0 -0.005852655110870362 -0.0022241763419462014
3400000000.0 0.012355201322031372 -0.014587784926315408
3420000000.0 0.031332350577479004 -0.009662773771161539
3440000000.0 -0.013959949545445242 -0.04290961108784293
3460000000.0 -0.015791613455377596 -0.05149632501105018
3480000000.0 0.05434725139607102 -0.03530878143125082
3500000000.0 0.05190433094134963 -0.05806593278955754
3520000000.0 -0.07163782864899808 -0.058792657199884614
3540000000.0 0.10682118435940739 -0.011886064419086184
3560000000.0 -0.11142854906513494 0.04698238900710718
3580000000.0 0.12462618761819405 -0.05272914299311356
3600000000.0 0.0377012784385996 0.14993729757630378
3620000000.0 -0.016593392400284127 0.16627160114114078
3640000000.0 -0.1694059177269729 0.05289204152766568
3660000000.0 -0.18582332266488835 0.026788273867389578
3680000000.0 -0.16456183811625652 -0.0989593150699404
3700000000.0 -0.11266715534527699 -0.1555363987704721
3720000000.0 0.05529697456967942 -0.18238323609917415
3740000000.0 0.1451654826473768 -0.11615993369666373
3760000000.0 -0.13824893903933658 0.11214238054450082
3780000000.0 0.14566884301538646 -0.08790265201918544
3800000000.0 -0.12263162203933593 -0.10447272603858224
3820000000.0 -0.1530956678509747 0.006379202034239595
3840000000.0 -0.1112618518537178 -0.0956759162662401
3860000000.0 0.1406429809611203 -0.04167992754610158
3880000000.0 0.13932198485284555 -0.0654050326485775
3900000000.0 -0.09509782063587527 -0.12572751292832404
3920000000.0 -0.06384715730208969 0.14954074075178905
3940000000.0 -0.0318695551981735 -0.16525061847652536
3960000000.0 0.15389307909776168 -0.07827495475468955
3980000000.0 0.04526111426524583 -0.16836754704848933
4000000000.0 -0.013537171677902804 -0.1681417038327799
