! Created with skrf (http://scikit-rf.org).
# Hz S RI R 50.0 
!freq ReS11 ImS11
400000000.0 -0.35380581745302525 0.7845678797615241
420000000.0 -0.10943224043509119 0.8498256944045363
440000000.0 0.6578030416898194 0.5014124690642623
460000000.0 0.7115565769517249 -0.3409974579610738
480000000.0 0.16022901164516898 0.6942126700641387
500000000.0 0.5843215060222792 0.10029853955044106
520000000.0 0.16246248834514787 -0.48887761755017584
540000000.0 0.45779898798209345 0.008388245444084955
560000000.0 -0.279113813610496 -0.27027669461751835
580000000.0 0.203414425286667 -0.2935554695282104
600000000.0 -0.17884534600224455 -0.310945119235401
620000000.0 0.32077103339289537 0.197565295675226
640000000.0 0.0035863891313479253 -0.39702785384749295
660000000.0 -0.40030620393250566 -0.08855348041494815
680000000.0 -0.09518597842241369 -0.4110319180034773
700000000.0 -0.33916389984537887 0.2574809329613649
720000000.0 -0.20542991896107987 0.36040041358653147
740000000.0 0.3543676810487233 -0.19799624208364236
760000000.0 -0.165691459196213 -0.3556774066860256
780000000.0 0.27001107169920324 0.23663723506360088
800000000.0 0.2422403860680008 -0.21335556237328748
820000000.0 -0.25481701300982107 0.11255122876061739
840000000.0 -0.2204194099592947 0.09389364549969913
860000000.0 -0.20611578792269175 0.028650818260722296
880000000.0 0.15673050422534252 -0.023102483238338203
900000000.0 -0.00031840372476969265 0.10741325223903665
920000000.0 -0.005324038065056305 -0.07574840989285997
940000000.0 -0.03653093054956417 0.031041322771829617
960000000.0 -0.05075822607965358 0.0077486723942655185
980000000.0 -0.021716330829968232 -0.06627969239106644
1000000000.0 0.06859785136703167 -0.045659098566301765
1020000000.0 0.0654952594094105 -0.08295262768250045
1040000000.0 0.12069043084586435 0.017208099209005828
1060000000.0 0.15630842836771444 -0.009692273781145634
1080000000.0 0.17452654947708715 -0.005909711601042938
1100000000.0 -0.1737287637327323 -0.09268518632411213
1120000000.0 0.14360644638329018 0.16393704747565988
1140000000.0 0.016571489064312266 -0.2503202171178327
1160000000.0 -0.14923211287539545 -0.23860238410737666
1180000000.0 -0.03978563559440304 -0.3120143124918835
1200000000.0 0.2589131051866692 -0.2239233413771263
1220000000.0 -0.26255816281430994 0.25065780332044074
1240000000.0 0.3862380891411755 0.012612093796978278
1260000000.0 -0.036511174112826374 -0.40844051957770605
1280000000.0 -0.34867629849888193 0.2480674485180914
1300000000.0 0.26238972079989903 0.35321733737358213
1320000000.0 0.3961822821829155 -0.19342214063129423
1340000000.0 0.3990675073096563 -0.18584243809723397
1360000000.0 0.3645191241980752 -0.24462058877927353
1380000000.0 0.031778763715589464 -0.4360539227905026
1400000000.0 -0.39763036470742297 -0.14925437955514365
1420000000.0 -0.007432787213752887 0.4069649174706781
1440000000.0 0.37663904440030427 0.06055943787450526
1460000000.0 -0.014671701474552762 -0.352184799520482
1480000000.0 -0.3183774163660351 0.03948412116737222
1500000000.0 -0.007866761916762235 0.28608892661866164
1520000000.0 0.15185032901450105 0.20531061802258624
1540000000.0 -0.19704299001975853 -0.10862623891833807
1560000000.0 0.11287134912067334 -0.15337613907089734
1580000000.0 0.0974276379258689 0.12969756302497926
1600000000.0 0.13261101833817981 -0.00010527924488378447
1620000000.0 0.08390811654020876 -0.05855688348580241
1640000000.0 -0.055541535662859035 0.05569519679920968
1660000000.0 -0.046404202471697666 -0.030120560434952086
1680000000.0 0.03567733683496726 6.811594659980365e-05
1700000000.0 0.0029251652249156095 0.02226305297647198
1720000000.0 0.007359966483761349 0.001965020214360552
1740000000.0 -0.013665041172386228 -0.0073189241076464856
1760000000.0 -0.026803743075967158 0.016736223839600953
1780000000.0 -0.03584015535705438 -0.04780828938555671
1800000000.0 -0.03346628095166711 0.08797678960747961
1820000000.0 0.027717771210631816 0.1229534898144873
1840000000.0 0.06278646496067797 -0.15296366547970217
1860000000.0 -0.07880639853287064 0.18890951462729272
1880000000.0 0.11493395268185798 -0.21504051706467803
1900000000.0 -0.11026336549315663 0.26334606919264875
1920000000.0 0.07106102009118916 -0.31240206776416585
1940000000.0 -0.3131420801997979 0.15849246685403856
1960000000.0 0.31937486782813573 0.20286146327958338
1980000000.0 0.07367879372917369 -0.39139131689320195
2000000000.0 -0.34601929899628114 -0.23127540410466876
2020000000.0 -0.19172270455463464 0.3824025734664279
2040000000.0 0.2529952747196274 0.35053476888965757
2060000000.0 0.42939071433871967 -0.05668733032185202
2080000000.0 0.27963575593779294 -0.3245345182990965
2100000000.0 0.16111246497479628 -0.3915151380470083
2120000000.0 -0.03303270674872768 -0.41407149286738737
2140000000.0 -0.3158982483121487 -0.253073236194363
2160000000.0 -0.0010647241516524549 -0.39088970914257504
2180000000.0 -0.20544363521684228 -0.31424856343672164
2200000000.0 -0.3567379518468536 -0.0659125153343908
2220000000.0 -0.3011796831695877 0.18244481743437577
2240000000.0 -0.015542755810013747 0.34689444796888474
2260000000.0 0.19088429201981658 0.2894532244074473
2280000000.0 0.3274046042649724 0.12671776551678746
2300000000.0 0.15997346033438284 -0.32819867125293933
2320000000.0 -0.3372732250632644 -0.19190566082419777
2340000000.0 -0.1603346236553002 0.3876812313730715
2360000000.0 0.44368892985145236 -0.12652685365827365
2380000000.0 -0.5064445153105142 0.0538390565419724
2400000000.0 0.5579443645325245 -0.04855639418513658
2420000000.0 -0.5173500969480593 0.32564104944423766
2440000000.0 0.17352644534445158 -0.6354618630829492
2460000000.0 0.29140165328751666 0.6340193466675712
2480000000.0 -0.5614411363396574 -0.462467342048551
2500000000.0 0.6041381096924313 0.4380346471521775
2520000000.0 -0.5024595784584746 -0.5649811103973245
2540000000.0 0.17007269162274394 0.7380899226706981
2560000000.0 0.35477448377328563 -0.6612287667168845
2580000000.0 -0.7346983588653315 0.008290358212394548
2600000000.0 0.45195657264679745 0.5483201392026653
2620000000.0 0.18089684088731575 -0.655611595857502
2640000000.0 -0.0682184619865174 -0.6392644843621637
2660000000.0 -0.4556269847258574 0.38803864666411836
2680000000.0 0.5263432378910103 0.1647086241632276
2700000000.0 -0.21107810956202555 -0.45956181031618065
2720000000.0 -0.1348020083240902 0.4380790225456776
2740000000.0 0.3399744864985025 -0.23782416676913418
2760000000.0 -0.37421641688177293 0.03246380948687214
2780000000.0 0.3394165232782285 -0.06405185269338087
2800000000.0 -0.29052924343488973 0.13620947645406653
2820000000.0 0.04177925777966354 -0.3013089398710977
2840000000.0 0.2264900581773442 0.18766533807262115
2860000000.0 -0.26940193319680944 0.10694803485276157
2880000000.0 0.03300823294097093 -0.28705415379147775
2900000000.0 0.04931110481977485 0.28678422536039333
2920000000.0 0.16692624147356544 -0.24391687852672767
2940000000.0 -0.302341670064495 0.0014486010839897282
2960000000.0 -0.12431910291091242 0.27776650722953916
2980000000.0 -0.181291939837118 0.24849694984364948
3000000000.0 -0.30569145996007047 0.06032234777263284
3020000000.0 -0.20391599098162544 -0.23688192613669035
3040000000.0 0.271903751045914 -0.1479981922491955
3060000000.0 -0.19293356370241008 0.23856503649483618
3080000000.0 0.14917048718962256 -0.2638069428599753
3100000000.0 -0.05392816534320444 0.2927377603289349
3120000000.0 -0.0784084357686518 -0.2781185082729064
3140000000.0 0.13566326892107552 0.2449146057988097
3160000000.0 -0.2412807356327497 -0.11288932192517324
3180000000.0 0.07146313426974588 0.24012548681695517
3200000000.0 -0.22795713802479242 0.010962041155362779
3220000000.0 -0.02345013720652388 -0.20100968300039174
3240000000.0 0.17188405966752543 -0.022091009140033275
3260000000.0 -0.10135631673391192 0.09675973054536352
3280000000.0 0.06949704132190425 -0.08253747074714722
3300000000.0 -0.07585305039910356 0.0208674157828711
3320000000.0 -0.026297454688779216 0.04396394839476546
3340000000.0 -0.010839823764729944 0.025730959782011984
3360000000.0 0.007160154561668428 -0.00586902253371576
3380000000.0 -0.005604964411273718 0.001838090321315526
3400000000.0 -0.006061713439277378 -0.01805612765986088
3420000000.0 0.004802661344088267 -0.031882053257883174
3440000000.0 -0.006748602707121334 -0.04357599477211143
3460000000.0 -0.05296340476437099 0.003844917111850135
3480000000.0 0.02734772931789429 -0.05829899937018783
3500000000.0 0.003583113854106472 -0.07743235817113964
3520000000.0 -0.09169394209830467 -0.009321813894818188
3540000000.0 0.09024649929939231 -0.05699810960171039
3560000000.0 -0.08166508008916605 0.08861137798890645
3580000000.0 0.11443490784574283 -0.07212356953999682
3600000000.0 0.054115848405766956 0.14461478443139245
3620000000.0 -0.0009862155037028595 0.16712185218082604
3640000000.0 -0.1672507630340677 0.0618497899207303
3660000000.0 -0.18345281535122163 0.04320066351214585
3680000000.0 -0.1616442684617255 -0.10397880931214182
3700000000.0 -0.0992639039485265 -0.164563833792156
3720000000.0 0.06552785240056798 -0.17992767558679487
3740000000.0 0.15411194509173107 -0.10519716643088477
3760000000.0 -0.16244379272982212 0.07731370186599228
3780000000.0 0.16382629797380582 -0.04928675793680236
3800000000.0 -0.05357574987109068 -0.1531302520351166
3820000000.0 -0.15472214422573974 -0.010154986285533725
3840000000.0 -0.053972923303763055 -0.13756302862398678
3860000000.0 0.14747490722407586 0.0142013564380159
3880000000.0 0.1509043647524104 0.036707576652652375
3900000000.0 -0.015606957497675579 -0.15771752977304923
3920000000.0 -0.1329512794920423 0.09552260431663022
3940000000.0 0.06364789802787382 -0.15627195112324002
3960000000.0 0.17220123394532996 0.020655056691356883
3980000000.0 0.10025599862623778 -0.1423526436635415
4000000000.0 0.034284499414151584 -0.16475972147135357
