! Created with skrf (http://scikit-rf.org).
# Hz S RI R 50.0 
!freq ReS11 ImS11
400000000.0 -0.35324018814144814 0.7851385298449743
420000000.0 -0.1419571154143077 0.8447514218732726
440000000.0 0.6978903892492831 0.4431027727537523
460000000.0 0.7088986172013372 -0.34567659949458956
480000000.0 0.13358309471387694 0.699988220741962
500000000.0 0.590804026776901 0.04587231769870155
520000000.0 0.1815374265326643 -0.48275150569610414
540000000.0 0.4570653701001971 -0.03738504681156352
560000000.0 -0.28287805089631485 -0.26601247237538833
580000000.0 0.213696753282549 -0.2855869207811411
600000000.0 -0.1631625540128087 -0.32002051439206497
620000000.0 0.32383976988249474 0.19185867254064828
640000000.0 0.02534897161564569 -0.39594165357975
660000000.0 -0.3962089178270573 -0.10481581835600541
680000000.0 -0.10616340358734419 -0.40824160979963076
700000000.0 -0.33538344318416263 0.26248583885801785
720000000.0 -0.18716376267312465 0.3693956860246504
740000000.0 0.3628817384341236 -0.1821883944612155
760000000.0 -0.17390500058856834 -0.3514800958889219
780000000.0 0.26100385882603444 0.24667908624109844
800000000.0 0.24262127658718777 -0.21382229349042844
820000000.0 -0.2606627538721928 0.09767251713831347
840000000.0 -0.2177387141440098 0.100996134551449
860000000.0 -0.20397617604164683 0.038415058216361875
880000000.0 0.157778727979099 -0.015804711172602095
900000000.0 0.017603294230551018 0.10613547590757849
920000000.0 0.014305684734941688 -0.07446817349018285
940000000.0 -0.01964809772875573 0.043523491542381866
960000000.0 -0.05068388789102769 0.009224214288831783
980000000.0 -0.020476749554513323 -0.06707362878926273
1000000000.0 0.06915249075944872 -0.04546205728042538
1020000000.0 0.08029530848084304 -0.06892949388201407
1040000000.0 0.12114361570229275 0.01292088529798461
1060000000.0 0.15668921803662522 0.0018365433971614426
1080000000.0 0.1740599699493485 -0.011026117491405463
1100000000.0 -0.17732372104761832 -0.08491910379743825
1120000000.0 0.14795077161631934 0.15992807368968914
1140000000.0 0.0015484113781111329 -0.25064973417212816
1160000000.0 -0.1572693122481787 -0.2332645061819653
1180000000.0 -0.06538291027158534 -0.3076603941021832
1200000000.0 0.2346582079683584 -0.24963137943729155
1220000000.0 -0.22957293567716217 0.28175942993863734
1240000000.0 0.38659435963035194 -0.0005788654552800062
1260000000.0 -0.05051542117842013 -0.4070262573165337
1280000000.0 -0.34314912254702157 0.25596207824211353
1300000000.0 0.26803655240112834 0.3491869009572944
1320000000.0 0.3958182548172156 -0.1942366131394752
1340000000.0 0.4056289935974852 -0.17146052628765002
1360000000.0 0.36393474795870784 -0.24602484612489467
1380000000.0 0.05279414930074189 -0.4341479554422921
1400000000.0 -0.39026281896636444 -0.16799424093278328
1420000000.0 -0.030239926358634237 0.4059712761687062
1440000000.0 0.37428067061465636 0.07232941048240178
1460000000.0 -0.005683520436850055 -0.35224828770950045
1480000000.0 -0.31935539796646406 0.025650172806264904
1500000000.0 -0.010530191696631956 0.28582991905973887
1520000000.0 0.13575185299943063 0.21636069281669537
1540000000.0 -0.20541783115544915 -0.09113777215221228
1560000000.0 0.10428014008297048 -0.1592329507129892
1580000000.0 0.09135587922220707 0.13384930644487097
1600000000.0 0.12747739367380545 -0.0358145961442545
1620000000.0 0.07502555095167086 -0.06977799960590958
1640000000.0 -0.04544206656174953 0.064493395108085
1660000000.0 -0.04400336372356578 -0.03361691602191198
1680000000.0 0.03379112716054057 -0.011727991727716642
1700000000.0 0.003794376295608749 0.022594031910663316
1720000000.0 0.003124334485683783 -0.007288806432698452
1740000000.0 -0.015501040522084172 0.001953970537028984
1760000000.0 -0.026520096445711842 0.016480548621230228
1780000000.0 -0.04412276748682178 -0.03998444624525396
1800000000.0 -0.025624579737264067 0.09032225156576909
1820000000.0 0.031165271926925572 0.12228197180554636
1840000000.0 0.06045904893854389 -0.15404682147574877
1860000000.0 -0.06896010848820862 0.19324954463736413
1880000000.0 0.12608206653658846 -0.20930070867704212
1900000000.0 -0.10905957640754918 0.2637635020112219
1920000000.0 0.09424586899505955 -0.30614361462473894
1940000000.0 -0.31664388755526274 0.1511499185237872
1960000000.0 0.3134841506677512 0.21139848510040216
1980000000.0 0.06540346396073261 -0.3924205128454786
2000000000.0 -0.33501601048476803 -0.24631048708730696
2020000000.0 -0.16200289143058144 0.39535541056421336
2040000000.0 0.22157283286926316 0.37100461201220747
2060000000.0 0.4296679749407533 -0.05074794454009927
2080000000.0 0.27458950742552474 -0.32829715785149227
2100000000.0 0.1730525550417867 -0.38627125606431467
2120000000.0 -0.058417116878495635 -0.4106937829888576
2140000000.0 -0.3344219960081468 -0.22727773188083497
2160000000.0 0.015820624898604602 -0.3902098056886789
2180000000.0 -0.24420556744363117 -0.2845436873235467
2200000000.0 -0.35853816506650354 -0.05401697494051177
2220000000.0 -0.2550797814203443 0.24223287239538613
2240000000.0 0.005943214804622722 0.34710403713549376
2260000000.0 0.20137183723577626 0.28243082655289864
2280000000.0 0.3395871065748542 0.09115989127075179
2300000000.0 0.16631320805978933 -0.32532233441879366
2320000000.0 -0.33662840277161843 -0.19338984586213886
2340000000.0 -0.16819648450520072 0.3843595967276563
2360000000.0 0.44427091851372963 -0.1254786792070659
2380000000.0 -0.5083951401032542 0.028112066977824677
2400000000.0 0.5595795592946776 -0.018767605897182918
2420000000.0 -0.5325403648116097 0.29964537123300267
2440000000.0 0.21609103348323833 -0.6218001797007152
2460000000.0 0.24903501845167228 0.6516766863926285
2480000000.0 -0.5678697363612673 -0.45347375074434965
2500000000.0 0.5689709069971484 0.48241693493711385
2520000000.0 -0.490672991884756 -0.575087038825172
2540000000.0 0.16806488125517013 0.738253648517413
2560000000.0 0.37626261811496375 -0.6489751560336572
2580000000.0 -0.7305090208515492 0.07755665568626068
2600000000.0 0.43769744339511135 0.5600977697176965
2620000000.0 0.1932071221308515 -0.6521641673530718
2640000000.0 -0.11992523277509883 -0.6320256304628652
2660000000.0 -0.4251960390446745 0.42196367128622264
2680000000.0 0.5389522232124954 0.12120259321895897
2700000000.0 -0.2443005946695679 -0.4439174605107004
2720000000.0 -0.12090494215217784 0.4430176758767343
2740000000.0 0.3466649526214155 -0.2294115115283512
2760000000.0 -0.37571779431665775 0.021578521319140974
2780000000.0 0.3417772927102611 -0.054129199427816146
2800000000.0 -0.2986881824614254 0.11813214013502386
2820000000.0 0.06223702260145637 -0.2981395645407254
2840000000.0 0.2248851251377557 0.1888460741173612
2860000000.0 -0.2722511773690156 0.09882002917841125
2880000000.0 0.05051867838833173 -0.2841646265213719
2900000000.0 0.029717199309166265 0.2892019379200833
2920000000.0 0.1809524061940687 -0.23334843805581973
2940000000.0 -0.30175793860290495 -0.007609757238017363
2960000000.0 -0.10706647080565275 0.2844027545470975
2980000000.0 -0.17339722894407783 0.25453975256207156
3000000000.0 -0.2922775614099765 0.10471629350896534
3020000000.0 -0.23678887928904202 -0.2033527789444943
3040000000.0 0.26058169758056 -0.16692376664209846
3060000000.0 -0.15676675922517241 0.26380327772772205
3080000000.0 0.10264661777116449 -0.2852590247442727
3100000000.0 0.06315399627506108 0.29128176588109317
3120000000.0 -0.10971844327066171 -0.26768576723208704
3140000000.0 0.17486788533082712 0.21930753376467962
3160000000.0 -0.2522872979073264 -0.08766088259359242
3180000000.0 0.10398361072242131 0.22916758293629044
3200000000.0 -0.2276933753781324 0.02504683392226205
3220000000.0 -0.03985361165389826 -0.19992656482440913
3240000000.0 0.17297655726540653 -0.02062380239455084
3260000000.0 -0.11040139602576253 0.08801274275344531
3280000000.0 0.10024116423568862 -0.04270979616339107
3300000000.0 -0.0794644853863612 0.0051324878049709465
3320000000.0 -0.0475591835605833 0.021395680374450124
3340000000.0 -0.028638780180476425 -0.00027240447411161066
3360000000.0 -0.007757592268697004 0.0063880607095822385
3380000000.0 -0.004390418338518686 0.0028303557183813714
3400000000.0 -0.01763758885958845 0.004227638182969184
3420000000.0 -0.012117725730604755 -0.029262772661720744
3440000000.0 -0.024488036941838574 -0.036229523961722424
3460000000.0 -0.04329169593240796 0.0300285812259186
3480000000.0 0.028519565128522228 -0.05689393216486447
3500000000.0 0.0020407685017177343 -0.07691596106390383
3520000000.0 -0.09003933411464818 0.019219354671462505
3540000000.0 0.08049156662003817 -0.06949778678491833
3560000000.0 -0.06978426355701968 0.09769826111536568
3580000000.0 0.10251909627397666 -0.08747780955598546
3600000000.0 0.0893327500870325 0.12562654627776312
3620000000.0 0.016670990180594304 0.16589835486279325
3640000000.0 -0.15826869505979196 0.08192652156002159
3660000000.0 -0.17517652628055463 0.06927576083629397
3680000000.0 -0.17516446166605923 -0.07906137313315229
3700000000.0 -0.12373187551903539 -0.14696885592585268
3720000000.0 0.03713354864679768 -0.18750604713353117
3740000000.0 0.13613473938117743 -0.12788856051462447
3760000000.0 -0.13994200419992603 0.11309527007466345
3780000000.0 0.1565635532727468 -0.07033796191371097
3800000000.0 -0.08028159470690034 -0.1414860804850192
3820000000.0 -0.1550597721105138 0.004257270277565242
3840000000.0 -0.08145149766968579 -0.12378696204199097
3860000000.0 0.14815236347630348 -0.013086012849829146
3880000000.0 0.15566727805148595 0.009466526701421696
3900000000.0 -0.03969339627004145 -0.15371935376560117
3920000000.0 -0.12106471012340132 0.11125972251422284
3940000000.0 0.051768511145050246 -0.16183407755180546
3960000000.0 0.1727097008203146 0.024130657515055443
3980000000.0 0.1187451451294378 -0.12873580192758458
4000000000.0 0.061621086893030565 -0.15781951982050618
