! Created with skrf (http://scikit-rf.org).
# Hz S RI R 50.0 
!freq ReS11 ImS11
400000000.0 -0.2754433512412764 0.815534109394842
420000000.0 -0.07146168386081703 0.8540661815094394
440000000.0 0.7193837163117655 0.40799298220338165
460000000.0 0.6999838518765121 -0.365216152792837
480000000.0 0.18296496327773618 0.6885401902044719
500000000.0 0.5861743116055202 0.08445093875013573
520000000.0 0.15699789338508846 -0.4910789917139604
540000000.0 0.45606663141702236 0.03261758016287824
560000000.0 -0.26806225805174533 0.28220082563696414
580000000.0 0.22882994288179667 -0.2733818957136351
600000000.0 -0.14250559804738303 -0.33047493393341
620000000.0 0.36238310124352496 0.10226447555648722
640000000.0 -0.007181349245146695 -0.3981197390108347
660000000.0 -0.40183492699700313 -0.08310920154548693
680000000.0 -0.08128200116366166 -0.4144447114142328
700000000.0 -0.3532693798464928 0.2369316896081332
720000000.0 -0.15847337132192207 0.38365502335701457
740000000.0 0.3525177456834532 -0.20187806221665444
760000000.0 -0.1726943770467324 -0.35186319051535647
780000000.0 0.2547996527342191 0.25325575057101773
800000000.0 0.2599459926556197 -0.19080955598591529
820000000.0 -0.25142553495055014 0.11950386687553188
840000000.0 -0.22454800861096325 0.0838472790187754
860000000.0 -0.2076293214709598 0.011576024281064861
880000000.0 0.15827263930057253 -0.001673033311164154
900000000.0 0.0076380547014522045 0.10675065897187898
920000000.0 -0.0030134571520012204 -0.07530225505918113
940000000.0 -0.023688760981505436 0.04209804510402306
960000000.0 -0.050339288845844446 0.013095573900503001
980000000.0 -0.005586315895843939 -0.06963341786480527
1000000000.0 0.06676429026689706 -0.049906716636319674
1020000000.0 0.0514269085456643 -0.09203995093442002
1040000000.0 0.11902230715865804 0.022051871612942746
1060000000.0 0.15694376631870116 0.006558430351645922
1080000000.0 0.1725698529371674 0.022866032846720574
1100000000.0 -0.15668574587405282 -0.1189902269510093
1120000000.0 0.1503987887192592 0.15765560912380328
1140000000.0 -0.02239634333413187 -0.24894473950796603
1160000000.0 -0.19981774608370392 -0.1981647855408393
1180000000.0 -0.06427548006809106 -0.3077369805138509
1200000000.0 0.23276498830471826 -0.2513465121425718
1220000000.0 -0.25048858831288795 0.26345664969774524
1240000000.0 0.3847625069626216 0.03285873079957487
1260000000.0 -0.07306172800793947 -0.40326845822536916
1280000000.0 -0.31637050715476545 0.28844260518261466
1300000000.0 0.2691230411007479 0.3481755865595383
1320000000.0 0.3809442070428809 -0.22186533262233865
1340000000.0 0.39447111884325464 -0.19611259646487797
1360000000.0 0.3858994409008529 -0.2087221289227375
1380000000.0 0.08146145437218304 -0.4299440231491739
1400000000.0 -0.37007439576473516 -0.20882247593352102
1420000000.0 -0.03517362752500565 0.4056252034700566
1440000000.0 0.3657467621592773 0.11145000456793086
1460000000.0 0.011725551943397415 -0.3524063364235155
1480000000.0 -0.31297245289146236 0.06980729106720641
1500000000.0 -0.032615650312420245 0.2843162915919118
1520000000.0 0.1300392889742734 0.22028293519453784
1540000000.0 -0.20767509050113248 -0.08581657515476208
1560000000.0 0.10878736595439019 -0.156933764817477
1580000000.0 0.08300077802542945 0.13911363560411272
1600000000.0 0.11173032229543038 -0.07149146396271505
1620000000.0 0.0845222427071444 -0.05779480853968211
1640000000.0 -0.011850462882048031 0.07768984596774567
1660000000.0 -0.04755108373495677 -0.027812265142696517
1680000000.0 0.032859004741083636 0.01294761872629969
1700000000.0 -0.007923049293730382 0.020507305591971132
1720000000.0 -0.004645318399425472 -0.0057707572696638525
1740000000.0 0.013225331628156213 -0.007751136072086079
1760000000.0 -0.029696055940364247 -0.009094826333399883
1780000000.0 -0.00982708797394143 -0.059273070761465735
1800000000.0 -0.04537281164847957 0.0825204182536255
1820000000.0 0.0389620426155578 0.1200127133229882
1840000000.0 0.08500964168308345 -0.1415481340326372
1860000000.0 -0.08881790684838589 0.18407128801865405
1880000000.0 0.11160880838099808 -0.2166724358842437
1900000000.0 -0.12016802795446575 0.2582774602000767
1920000000.0 0.06651232993341093 -0.3130994008615644
1940000000.0 -0.3081896667882823 0.16710521382532328
1960000000.0 0.3319722303698 0.18068876436090703
1980000000.0 0.027116192914246308 -0.3967914162645986
2000000000.0 -0.3725455935576716 -0.18453255560786228
2020000000.0 -0.1803698276571186 0.3876655572821827
2040000000.0 0.20836624963131065 0.37884124064886493
2060000000.0 0.4307102426477199 -0.04699201009809156
2080000000.0 0.29957151964292345 -0.306876367980212
2100000000.0 0.16695931339594075 -0.38882290497359245
2120000000.0 -0.0723404400902601 -0.4092634541994865
2140000000.0 -0.3397068684760561 -0.22161834383642687
2160000000.0 0.03545994411207863 -0.38954176126294826
2180000000.0 -0.21730772280202443 -0.30642887403524316
2200000000.0 -0.34806350241101786 -0.10224184413561647
2220000000.0 -0.26610972352244233 0.23161231879886487
2240000000.0 -0.038856471879897825 0.34570844654143645
2260000000.0 0.15737834379356525 0.30967986120149876
2280000000.0 0.31795449326277586 0.15073432361394282
2300000000.0 0.19192651127401747 -0.3108280008347796
2320000000.0 -0.3096007327947553 -0.23404608498757212
2340000000.0 -0.19285810312976656 0.3728842097478562
2360000000.0 0.45072521739697263 -0.09999455976786019
2380000000.0 -0.5085396143587944 0.026433169255948585
2400000000.0 0.5577382302046885 -0.050081300110227885
2420000000.0 -0.5168103923794225 0.32616592959132457
2440000000.0 0.18969276797064896 -0.6305340930387486
2460000000.0 0.29677086180172174 0.631314342226876
2480000000.0 -0.5841545299155948 -0.4323383992700824
2500000000.0 0.6030396113043632 0.4385568124722851
2520000000.0 -0.482083844657339 -0.5819496658191625
2540000000.0 0.12806541549602107 0.7458494902019953
2560000000.0 0.4218743851234197 -0.6199981681734547
2580000000.0 -0.734151429742726 0.012623516483577667
2600000000.0 0.44154292805767764 0.5563418714306094
2620000000.0 0.21524814970865946 -0.6446679921902245
2640000000.0 -0.09942293900161711 -0.6353896347513003
2660000000.0 -0.4584797105971425 0.3859917898625569
2680000000.0 0.5304105687515305 0.1554655952161341
2700000000.0 -0.24281019327567388 -0.444772202803585
2720000000.0 -0.11643311713166615 0.4439593610844266
2740000000.0 0.35717542232800464 -0.21308052607762118
2760000000.0 -0.3762794182961727 0.024990361047261978
2780000000.0 0.3416136362674927 -0.05985642638130885
2800000000.0 -0.29718132675048914 0.12450850075799999
2820000000.0 0.09431572621008387 -0.2905106297666551
2840000000.0 0.21481238000182373 0.2006849857587641
2860000000.0 -0.2872585986049197 0.04268899208871088
2880000000.0 0.1209012660251619 -0.26285573713115395
2900000000.0 -0.04159380662035742 0.2883642463707471
2920000000.0 0.21313918322869138 -0.20444427762521716
2940000000.0 -0.29370663428719496 -0.0669340575904772
2960000000.0 -0.1669223292479061 0.2529620870431506
2980000000.0 -0.18785457876526448 0.24302847702804106
3000000000.0 -0.3063180707234286 0.04604276185816666
3020000000.0 -0.1507203013212682 -0.27235462498126367
3040000000.0 0.29062097687860355 -0.10533895180357365
3060000000.0 -0.17572861565066855 0.25136693146406314
3080000000.0 0.10668185105585172 -0.2828060068952289
3100000000.0 0.0013942829674084638 0.29726291215229755
3120000000.0 -0.04597300079989786 -0.2854189906741219
3140000000.0 0.16689771903906853 0.22421874510429163
3160000000.0 -0.25937871365688847 -0.06071683087684878
3180000000.0 0.08975368248026594 0.23354627155647015
3200000000.0 -0.22103993030332586 0.05766013575121824
3220000000.0 -0.05872711649456557 -0.19399888574695912
3240000000.0 0.17042016762406367 -0.030780661353764394
3260000000.0 -0.08662100367042214 0.10994269415313966
3280000000.0 0.05228408346267321 -0.09425760110675087
3300000000.0 -0.05455361246055688 0.05689615766409124
3320000000.0 0.017913665921698886 0.047897261154680494
3340000000.0 0.011231322687614731 0.02510757528514757
3360000000.0 0.00659594734336657 -0.005489519258078583
3380000000.0 0.0036218601646497307 -0.004826196770672648
3400000000.0 0.019306695546276814 5.9090781948677844e-05
3420000000.0 0.032383920540498275 -0.0028948916716273333
3440000000.0 0.024261780581969795 -0.03776740974874666
3460000000.0 -0.015096119147979975 -0.0508838666102806
3480000000.0 0.06188684439956931 -0.015590352558573217
3500000000.0 0.022037617714995184 -0.07389482497244652
3520000000.0 -0.09126197285302533 0.01307072256869561
3540000000.0 0.09984466919398406 -0.03781230205400322
3560000000.0 -0.080406935232445 0.08959886610656012
3580000000.0 0.10465488532000458 -0.08484216659107728
3600000000.0 0.061702754560275644 0.14089463980270778
3620000000.0 0.029166299766114172 0.16375527165882653
3640000000.0 -0.13871315949747484 0.1118336783484962
3660000000.0 -0.1694311251393638 0.08146322686018138
3680000000.0 -0.18794952016962824 -0.039610918717044814
3700000000.0 -0.14167395729412888 -0.1283616060900106
3720000000.0 0.028844069491224852 -0.18894172543128046
3740000000.0 0.13315428015893913 -0.12999441969257863
3760000000.0 -0.12553540938424582 0.1281514034670255
3780000000.0 0.13911394866706736 -0.09911180779216218
3800000000.0 -0.09011413250496289 -0.13490731423788124
3820000000.0 -0.15082919908122377 -0.033203905031386524
3840000000.0 -0.07917618639270359 -0.12440916299957411
3860000000.0 0.14714974930036828 0.013522602872799265
3880000000.0 0.1538987996792198 -0.011985834959064781
3900000000.0 -0.033598827031621877 -0.15435242665750237
3920000000.0 -0.10743252327514925 0.1229587795170762
3940000000.0 -0.010583210499617779 -0.16785059365924493
3960000000.0 0.17217473102476458 -0.012218930235214418
3980000000.0 0.11967124323755313 -0.12518574664597198
4000000000.0 0.08802398390567129 -0.14188490592603273
