! Created with skrf (http://scikit-rf.org).
# Hz S RI R 50.0 
!freq ReS11 ImS11
400000000.0 -0.32232946804652934 0.7975034766191239
420000000.0 -0.0748083255506094 0.8535569605571821
440000000.0 0.6895448682670946 0.45759978767494314
460000000.0 0.6923905890702213 -0.3788904758010162
480000000.0 0.1722756298508981 0.6918191587087712
500000000.0 0.5815500113014742 0.11552203251059263
520000000.0 0.21881823205468134 -0.4669581679652089
540000000.0 0.45769180860493364 -0.00402151147629109
560000000.0 -0.253895822816172 0.2948599073163069
580000000.0 0.2307589455792226 -0.27251431151809663
600000000.0 -0.19937114371562248 -0.2988008570411845
620000000.0 0.3663174097347884 0.08898562685530571
640000000.0 0.0015616566917227499 -0.3976574563431361
660000000.0 -0.4049889805993748 -0.0633703686319633
680000000.0 -0.04441201334028211 -0.4196551523615391
700000000.0 -0.3637248348364261 0.21996320317830087
720000000.0 -0.15888275105726443 0.38253751510030803
740000000.0 0.3448945306248502 -0.21367741466427612
760000000.0 -0.17589893384575675 -0.34959909495279345
780000000.0 0.2673156793697572 0.23961832263897928
800000000.0 0.23819012524938182 -0.21830093419792218
820000000.0 -0.2641638350413548 0.08642329250146097
840000000.0 -0.22676036405611324 0.07697954531906649
860000000.0 -0.20571839671632403 0.03125491509763899
880000000.0 0.15830158099891783 -0.0017841585104845245
900000000.0 0.013012429836747613 0.10631356807347532
920000000.0 -0.0037440372339529147 -0.07573184141477445
940000000.0 -0.026388307523636727 0.040985126081379566
960000000.0 -0.044057931008715336 -0.026781656228501278
980000000.0 0.0005552302035385052 -0.0697815069674439
1000000000.0 0.04760680853836278 -0.06718690551645959
1020000000.0 0.07213019947513619 -0.07805487561711189
1040000000.0 0.11685370765909676 0.035510589023756735
1060000000.0 0.15655581674003632 0.007894132384752277
1080000000.0 0.17408690384192418 0.011551700069501208
1100000000.0 -0.17589477505123252 -0.08827414132544159
1120000000.0 0.134164162011264 0.17178965438699886
1140000000.0 0.007744200668409335 -0.2505436859371286
1160000000.0 -0.2053233216815913 -0.19308309600409704
1180000000.0 -0.09619862599223461 -0.2987928080772491
1200000000.0 0.19907706318675011 -0.27904212774014003
1220000000.0 -0.21867523656496066 0.2905599123845227
1240000000.0 0.38555324463402224 0.02543449575150627
1260000000.0 -0.07369773967016334 -0.40291618749258856
1280000000.0 -0.34558962802664556 0.25155439489547354
1300000000.0 0.2617931023723449 0.3530933395110529
1320000000.0 0.3940905230183873 -0.1955424417516349
1340000000.0 0.4100999772044034 -0.16014807222102606
1360000000.0 0.37141083569344663 -0.2332605972734514
1380000000.0 0.035145564741527864 -0.43599772945823434
1400000000.0 -0.37635347025450394 -0.19744988873297992
1420000000.0 -0.0023856458805239233 0.4071587790338141
1440000000.0 0.3735355681980619 0.0831153494200109
1460000000.0 0.029407382226167122 -0.3520803911055956
1480000000.0 -0.3191078655868006 0.03309245298020843
1500000000.0 0.0030346495405600697 0.28628079628986197
1520000000.0 0.15348208516415793 0.2044343364773941
1540000000.0 -0.20697012447486737 -0.08889764250859629
1560000000.0 0.11824724957678867 -0.15015462837180657
1580000000.0 0.08897077185984238 0.13524704062028522
1600000000.0 0.1312143579230371 -0.021662517687093902
1620000000.0 0.09759032178945792 -0.030361728199991455
1640000000.0 -0.026605818208513866 0.07388421528930689
1660000000.0 -0.04266635040923829 -0.03479937512531
1680000000.0 0.03542452324470024 0.001359742999282073
1700000000.0 -0.02182090174422633 0.0030796197103066664
1720000000.0 0.006258569923757062 -0.0042888904620987465
1740000000.0 0.00746380555443065 -0.013253908156352972
1760000000.0 -0.030865298750538592 0.0032703668009088044
1780000000.0 -0.024240932019818383 -0.05509946186149397
1800000000.0 -0.03981092806761211 0.084945299760817
1820000000.0 0.05112825780922257 0.11560753786978073
1840000000.0 0.07947340393933341 -0.14505236730647145
1860000000.0 -0.10426176138717011 0.17618517834784106
1880000000.0 0.11762173839754524 -0.2141889279415132
1900000000.0 -0.09443525259187334 0.26883800011686704
1920000000.0 0.07285069039520876 -0.3116174609944149
1940000000.0 -0.30669836501413067 0.17035518190277044
1960000000.0 0.3264677893270922 0.1898870869355932
1980000000.0 0.02784066260407852 -0.3968617657315826
2000000000.0 -0.36684212074057415 -0.19500365381418705
2020000000.0 -0.1997344379918868 0.37836728661083113
2040000000.0 0.25713034182664524 0.34733184041996923
2060000000.0 0.43040248977533624 -0.05105099152110579
2080000000.0 0.29947454528626866 -0.3067242633143177
2100000000.0 0.16265142130772703 -0.39091595271862406
2120000000.0 -0.07714135404325075 -0.4087104496401455
2140000000.0 -0.3300037099811222 -0.23668952739425053
2160000000.0 0.011938007811283785 -0.3916172004716693
2180000000.0 -0.18558199516299853 -0.327011863083295
2200000000.0 -0.32987428804550745 -0.15191473787257384
2220000000.0 -0.29555053215236177 0.19209727135986684
2240000000.0 -0.07220379708593444 0.3405264783295784
2260000000.0 0.10940951082702066 0.3303525420841583
2280000000.0 0.300424327904606 0.1826944246190535
2300000000.0 0.2358916485244751 -0.279221782408154
2320000000.0 -0.29050696669542303 -0.2574411034254892
2340000000.0 -0.22513279988385826 0.35373634982375607
2360000000.0 0.45555302461514646 -0.07093950412042806
2380000000.0 -0.5087287000189304 -0.003374728120842282
2400000000.0 0.5595726547015658 -0.014353327279730927
2420000000.0 -0.5341000020376683 0.29710003548471686
2440000000.0 0.18261272112459656 -0.6328406410156305
2460000000.0 0.2954867513897922 0.6318679311833704
2480000000.0 -0.5738788507537839 -0.44679739347864394
2500000000.0 0.5939201962227876 0.4526574619278108
2520000000.0 -0.472553140667215 -0.5905055156732143
2540000000.0 0.12053702597085486 0.7479140274494269
2560000000.0 0.39441277934956476 -0.6387562433712578
2580000000.0 -0.7303463171050686 -0.08821800722631849
2600000000.0 0.4161933539855265 0.576630312125525
2620000000.0 0.26778403904361303 -0.626082272071169
2640000000.0 -0.06891741272306422 -0.6402252295651756
2660000000.0 -0.49873006728249436 0.332844273490546
2680000000.0 0.5107464235293415 0.21084640841106106
2700000000.0 -0.1886603840011491 -0.4705777967030288
2720000000.0 -0.13779435647377447 0.43781846975512706
2740000000.0 0.34501928203006965 -0.23296678769309384
2760000000.0 -0.3739577875923109 0.05114190253140297
2780000000.0 0.3380472589118559 -0.07781026118434037
2800000000.0 -0.30246442612727675 0.11228361283526989
2820000000.0 0.07297121185532697 -0.29729180223907864
2840000000.0 0.2187148665424898 0.19886357408275224
2860000000.0 -0.2796463280470421 0.07991771246951071
2880000000.0 0.10222491166315498 -0.27147920823741406
2900000000.0 -0.04556497727586461 0.28802438076509085
2920000000.0 0.21332356705944716 -0.20470163669222255
2940000000.0 -0.2929785319597265 -0.07149895011627787
2960000000.0 -0.14923236964494657 0.26421068682827065
2980000000.0 -0.21493150650771914 0.21946202540769494
3000000000.0 -0.30974408014428995 0.019781860910998678
3020000000.0 -0.15588919956626343 -0.2691294657083355
3040000000.0 0.29201185622948755 -0.09736251728386634
3060000000.0 -0.20372942763031443 0.22768169164342897
3080000000.0 0.12051926655337562 -0.2772306419767128
3100000000.0 0.01225648381061492 0.29620918750701875
3120000000.0 -0.046134095544130595 -0.28412123968150443
3140000000.0 0.1862209366930929 0.20813546175324021
3160000000.0 -0.26186554355000574 -0.04731982570863284
3180000000.0 0.10498063037479585 0.2271538184561625
3200000000.0 -0.20372116390203707 0.10380055705337124
3220000000.0 -0.10762607933029246 -0.17212771056494558
3240000000.0 0.15149079440833485 -0.08437816484300095
3260000000.0 -0.05581166205162702 0.12897015093545006
3280000000.0 0.057002951756534526 -0.09247919849806627
3300000000.0 -0.05364289977229311 0.05893106344318598
3320000000.0 0.01948956439597278 0.0474369914727459
3340000000.0 -0.004838456156104276 0.027392138317047753
3360000000.0 -0.008544888288334988 0.003626226777810227
3380000000.0 -0.005099632986421001 -0.002281862238504567
3400000000.0 0.008019630712042081 0.017213103422533887
3420000000.0 0.02344113085181707 0.022155248883628888
3440000000.0 0.004256041084262768 -0.04440824072907022
3460000000.0 0.0005508619651791159 -0.053572722063163374
3480000000.0 0.06468700405723786 -0.0018780020987214747
3500000000.0 0.05177427690055924 -0.05839640661609248
3520000000.0 -0.08100998616825836 -0.04480201301806973
3540000000.0 0.1047554018953971 -0.02397846963004229
3560000000.0 -0.11443024175546258 0.03905398310308192
3580000000.0 0.12790268397432114 -0.04385925292125006
3600000000.0 0.02069913669741872 0.15308804567431641
3620000000.0 -0.0357360845698611 0.16256274463503761
3640000000.0 -0.16980813395664213 0.05298721843876976
3660000000.0 -0.18681796249550453 0.017404715308922198
3680000000.0 -0.1614811130502673 -0.10231630343498282
3700000000.0 -0.09555134029738276 -0.16536474990645864
3720000000.0 0.06885320924096666 -0.17717152824595658
3740000000.0 0.14985530526500698 -0.10992005350884977
3760000000.0 -0.1365503686514823 0.11486705998943052
3780000000.0 0.15478556283265263 -0.0718863622572703
3800000000.0 -0.09999232974992707 -0.12679646163932812
3820000000.0 -0.15206579957623412 0.02048346466499451
3840000000.0 -0.08043424417398386 -0.12270144207299105
3860000000.0 0.14453984321318716 0.027411752300054056
3880000000.0 0.1519705312069599 -0.027181630986739338
3900000000.0 -0.03816607337693214 -0.15285201654967373
3920000000.0 -0.07485001988456423 0.1446445083393782
3940000000.0 0.0033612865182360376 -0.1678980008317523
3960000000.0 0.17170765327161858 -0.01647852841389008
3980000000.0 0.04301577596579468 -0.16827765940259837
4000000000.0 -0.06982354180662288 -0.15259155004999808
