! Created with skrf (http://scikit-rf.org).
# Hz S RI R 50.0 
!freq ReS11 ImS11
400000000.0 -0.2656392891395075 0.8194828801660524
420000000.0 -0.08247512735964242 0.8530846493622257
440000000.0 0.7393260333747825 0.36957100457259817
460000000.0 0.7059488996354993 -0.35233396215780427
480000000.0 0.20656976731457694 0.6822913089286226
500000000.0 0.5906799579141969 0.03830439220120881
520000000.0 0.24537093053274422 -0.4513163931798923
540000000.0 0.45841022088624506 -0.022174902003945427
560000000.0 -0.28152319378937696 0.266755412599526
580000000.0 0.2678895574217115 -0.23808719537166576
600000000.0 -0.22274209998629896 -0.2804156995174126
620000000.0 0.3220385970139559 0.1960815103175297
640000000.0 -0.08713955880198482 -0.3885526657138856
660000000.0 -0.4005088482331443 -0.07904145709609417
680000000.0 -0.04338128159479674 -0.4210882943960336
700000000.0 -0.2614045754579408 0.33529407011484097
720000000.0 -0.21948300010079816 0.34975449125575947
740000000.0 0.3453012722879049 -0.21714006286387771
760000000.0 -0.20957883359281226 -0.32935477407465424
780000000.0 0.23104048511795724 0.2754009140944179
800000000.0 0.22403005166868203 -0.23064673415179182
820000000.0 -0.27353620713909865 0.0519995735067872
840000000.0 -0.20322610010269293 0.12746920426548305
860000000.0 -0.20130764157503084 -0.0482386913744602
880000000.0 0.15337133726079272 0.044079706244721344
900000000.0 0.03138971869203306 0.10198101684452097
920000000.0 0.00035537975905621357 -0.0755877488339091
940000000.0 -0.04848011137047865 0.006377571238787317
960000000.0 -0.049659083825084264 0.015135501661300137
980000000.0 -0.006259663534769097 -0.0690514332777192
1000000000.0 0.06737234047868293 -0.04898036306828957
1020000000.0 0.05781397600448568 -0.08775829582798408
1040000000.0 0.10370766123420541 0.06225075528148519
1060000000.0 0.1536337311569451 0.032871030666630996
1080000000.0 0.17364355521517455 -0.008560634085719093
1100000000.0 -0.14954617200299206 -0.12760841771981815
1120000000.0 0.16082194990273208 0.14687982001482527
1140000000.0 -0.014284140018836374 -0.24963041660342025
1160000000.0 -0.2094898633596083 -0.18801653731824744
1180000000.0 -0.10472847026083591 -0.29624728874062023
1200000000.0 0.2415802484404888 -0.2429773353473043
1220000000.0 -0.20959781169535996 0.29708699096789354
1240000000.0 0.3849830783971778 0.02601944135601495
1260000000.0 -0.09063009853862537 -0.40039066783301885
1280000000.0 -0.3215124267934349 0.2816251517191499
1300000000.0 0.25821140633690187 0.35697886706237086
1320000000.0 0.38877428507134315 -0.20667517007618497
1340000000.0 0.40994289679303697 -0.16069806014658364
1360000000.0 0.3762623384842964 -0.22505449762757643
1380000000.0 0.09302422688279244 -0.42692524713941765
1400000000.0 -0.3796431169486231 -0.1922958443660239
1420000000.0 -0.028278918553341314 0.40600659604040995
1440000000.0 0.37076185886208973 0.09303285185297237
1460000000.0 -0.019989853102518617 -0.3519501369963476
1480000000.0 -0.32003294224361467 0.008949332757617752
1500000000.0 0.0031081754683302 0.28676371843555054
1520000000.0 0.12630191399829252 0.22196489539262212
1540000000.0 -0.19877374652430407 -0.10539396267665806
1560000000.0 0.11511597546681526 -0.15251189172005952
1580000000.0 0.06021255929445883 0.15067363287945112
1600000000.0 0.117897332501525 -0.062204265639368705
1620000000.0 0.09272512050309725 -0.04277469853302628
1640000000.0 -0.043243222331799655 0.06558879277220367
1660000000.0 -0.047656530021811604 -0.027420508500886075
1680000000.0 0.014329485325694368 0.03213770665435219
1700000000.0 0.01123624197468408 0.019393196224768046
1720000000.0 0.007111461214493192 -0.00012949015751155527
1740000000.0 -0.0012068691015323476 -0.015184026493008812
1760000000.0 -0.02726190950225874 -0.015259966546611672
1780000000.0 -0.029376826351782757 -0.05227288209047712
1800000000.0 -0.06697044609310969 0.06513661766964926
1820000000.0 0.053005644327081915 0.11552716070896347
1840000000.0 0.05861929224598963 -0.15359510879540608
1860000000.0 -0.0778148094347443 0.18934029985232484
1880000000.0 0.08217594821865878 -0.22939215728756354
1900000000.0 -0.1192116986648254 0.25909934954720887
1920000000.0 0.07467095327713326 -0.31159346190961673
1940000000.0 -0.31316228025469367 0.15825482567891097
1960000000.0 0.3183314426030937 0.2045488875706715
1980000000.0 0.049010208816694316 -0.395238553113531
2000000000.0 -0.3354406061318599 -0.24594893858524283
2020000000.0 -0.20444253175745639 0.3759613731651819
2040000000.0 0.20181046037425296 0.3823979310233675
2060000000.0 0.43345219270973223 -0.011232218605031909
2080000000.0 0.3105568783043726 -0.295067058149601
2100000000.0 0.20901978843749594 -0.36770545270277555
2120000000.0 -0.08650388330799928 -0.4058087688893231
2140000000.0 -0.29945827456682506 -0.2723826347016383
2160000000.0 0.03397466352302892 -0.3892931794151525
2180000000.0 -0.22473310096318072 -0.29992021745526104
2200000000.0 -0.3420929201781672 -0.11876762971679664
2220000000.0 -0.2746998254168957 0.2203776800070708
2240000000.0 -0.03595709453309441 0.3455918130646328
2260000000.0 0.1874743779549156 0.2928007964530227
2280000000.0 0.32033185028765937 0.14409280827568002
2300000000.0 0.1892621817664297 -0.3124429715251444
2320000000.0 -0.3305144876267149 -0.20432139557215115
2340000000.0 -0.19579025874356118 0.3719810993904456
2360000000.0 0.45130977634174707 -0.09983405688216179
2380000000.0 -0.5092988081231511 -0.009760718212176694
2400000000.0 0.5598514648066122 -0.023473776350831314
2420000000.0 -0.5221415684039772 0.31801658839732794
2440000000.0 0.20654850948291217 -0.6255223574626279
2460000000.0 0.27677962183932087 0.6400218202012795
2480000000.0 -0.5669820111599364 -0.45448770693253077
2500000000.0 0.5785359664756884 0.4704851084922027
2520000000.0 -0.49235537372515065 -0.5721246809419664
2540000000.0 0.21070833627929292 0.7257631501237914
2560000000.0 0.38046188911556844 -0.64610278541474
2580000000.0 -0.7347181775164435 0.009351321611754386
2600000000.0 0.4630396825550202 0.5390043045160774
2620000000.0 0.10238604551309385 -0.6731193643169653
2640000000.0 -0.1292108245658618 -0.6307231758852356
2660000000.0 -0.3687149917836286 0.4740550518655052
2680000000.0 0.5489359250132533 0.07532427024234346
2700000000.0 -0.2604157421268093 -0.43646975078383926
2720000000.0 -0.1042506327271528 0.4487180576564225
2740000000.0 0.332711771657047 -0.25242780399476716
2760000000.0 -0.37866207169754396 0.011111013805532153
2780000000.0 0.3456875292406556 -0.03953840498916077
2800000000.0 -0.31619643179361956 0.06490453172290522
2820000000.0 0.11190271689767275 -0.284826499876058
2840000000.0 0.19461953322386338 0.22067500832338993
2860000000.0 -0.28857041462676464 0.03038915416688187
2880000000.0 0.08646131967468161 -0.2760747539279173
2900000000.0 -0.055088059846294404 0.28602338852813675
2920000000.0 0.21398623372726483 -0.20401288135992093
2940000000.0 -0.2998167384901356 -0.025609570313561283
2960000000.0 -0.17071345537616228 0.25071791545330635
2980000000.0 -0.15287921433141194 0.2658328293053082
3000000000.0 -0.30234162149373617 0.06730978388337328
3020000000.0 -0.206239988472111 -0.23246559762236071
3040000000.0 0.26485465552892423 -0.1565855475816353
3060000000.0 -0.17666112127619077 0.24983930002202534
3080000000.0 0.06366628469222267 -0.29486736134549574
3100000000.0 0.03583982183511516 0.2940530174583288
3120000000.0 -0.14213455310789203 -0.25130332436413144
3140000000.0 0.2211739833844429 0.17067564839201957
3160000000.0 -0.266437575793703 -0.008881710847257107
3180000000.0 0.15350684617633034 0.1977775218874594
3200000000.0 -0.19887753509443776 0.11208747698923277
3220000000.0 -0.1240415874864496 -0.1607498523983652
3240000000.0 0.14889765433794466 -0.08873820897793885
3260000000.0 -0.05317550251768241 0.13020036193098505
3280000000.0 0.023662448733122485 -0.10623494102878772
3300000000.0 -0.03156926874704086 0.07308267899681664
3320000000.0 0.03182039854942934 0.041018746729294155
3340000000.0 0.01461874243505349 0.023857073743967984
3360000000.0 0.004417297455050456 -0.008481880574585023
3380000000.0 -0.004856413510980713 -0.003141883735186304
3400000000.0 0.018892500139909715 -0.00307476814989301
3420000000.0 0.03159895283984694 0.0074459966602407465
3440000000.0 0.01126869372176752 -0.04290563914973889
3460000000.0 -0.024291155802230017 -0.04710845376521874
3480000000.0 0.05094726766339947 -0.03865758668772626
3500000000.0 0.026156791788878846 -0.07306275499438103
3520000000.0 -0.09098212401275153 0.015179532386559226
3540000000.0 0.09333610159910061 -0.052549819663234014
3560000000.0 -0.06453475998541641 0.10170434843161089
3580000000.0 0.10644227389002095 -0.0823783161969169
3600000000.0 0.1314659231516938 0.08160341580111467
3620000000.0 0.04527070322876007 0.1603074253850889
3640000000.0 -0.1481686297255105 0.0970472310448937
3660000000.0 -0.17077605108208657 0.07813773401817818
3680000000.0 -0.19062345439420247 -0.019098454599891516
3700000000.0 -0.1566089991165253 -0.11075175240646065
3720000000.0 0.002841631773650245 -0.19100558798818498
3740000000.0 0.07533735599083508 -0.17074143916227907
3760000000.0 -0.08040630172109804 0.16071561738483675
3780000000.0 0.1048637210403452 -0.13516294465225845
3800000000.0 -0.13308722619804997 -0.09295465795555258
3820000000.0 -0.14964362444284762 0.03953804090226867
3840000000.0 -0.12759367285817025 -0.07531745458299281
3860000000.0 0.14755256735660077 -0.01569331010870138
3880000000.0 0.14572013389080649 -0.05351060176122271
3900000000.0 -0.08192798344249304 -0.13668984432013814
3920000000.0 -0.053587797171484784 0.15518777277209853
3940000000.0 -0.017509605242258783 -0.16889056127693028
3960000000.0 0.14846165293422153 -0.08981753115439593
3980000000.0 0.10070102432893735 -0.1429303902309245
4000000000.0 0.035829447498306084 -0.16488861281330314
