! Created with skrf (http://scikit-rf.org).
# Hz S RI R 50.0 
!freq ReS11 ImS11
400000000.0 -0.34358108878055704 0.7876163027839621
420000000.0 -0.11251688750473351 0.8480470460639871
440000000.0 0.6988079654946301 0.44050004977223767
460000000.0 0.6905426310821822 -0.38060906992898247
480000000.0 0.18745893009373293 0.686625759932684
500000000.0 0.5839586585185212 0.09756773821788779
520000000.0 0.1476417045933182 -0.4927411567924663
540000000.0 0.45706593354080155 0.021465904047074966
560000000.0 -0.2933959361098405 -0.2542633628958997
580000000.0 0.18888251164427586 -0.30370545511406727
600000000.0 -0.20126993790515252 -0.2985756493601956
620000000.0 0.3275149536690166 0.1897028700788531
640000000.0 0.029948696863969653 -0.39722990533049957
660000000.0 -0.3736542081854696 -0.17281823022847
680000000.0 -0.047950717344858444 -0.41953952047523496
700000000.0 -0.3850713485136136 0.18216859710694688
720000000.0 -0.25373761714320725 0.32791929193114344
740000000.0 0.38019877824477566 -0.14137389556715155
760000000.0 -0.13100519920477774 -0.3688570232815462
780000000.0 0.274850304476719 0.22907369102910943
800000000.0 0.2322513444220055 -0.2224637499700418
820000000.0 -0.23066562906782978 0.15487729622459917
840000000.0 -0.19099658995043473 0.1432887871236554
860000000.0 -0.1839968398120118 0.09692438183452937
880000000.0 0.10961360739543509 -0.11517680058075506
900000000.0 0.05104385377347375 0.09646585865549974
920000000.0 -0.0013835577574767368 -0.07780611524412961
940000000.0 -0.03834334724438049 -0.029408646131666865
960000000.0 0.019508501903493652 -0.04703673922764759
980000000.0 0.007618879545070432 -0.0679381724780951
1000000000.0 0.06290725491436636 -0.05058030704940057
1020000000.0 0.013897354671737928 -0.10377158963054726
1040000000.0 0.08507975307003383 -0.08638764466474322
1060000000.0 0.11676560860152875 -0.10529409208559797
1080000000.0 0.1425205444053971 -0.1035335674996315
1100000000.0 -0.1952365709381907 -0.037649410327866784
1120000000.0 0.1579570163338589 0.15410271087817035
1140000000.0 0.06416955555635713 -0.24536503555110747
1160000000.0 -0.06642454901969098 -0.2759311911737974
1180000000.0 0.07363923368824997 -0.30815338720689656
1200000000.0 0.3223077325104053 -0.12087898974183137
1220000000.0 -0.3342960481718413 0.1450839551829538
1240000000.0 0.3590304938908632 0.14404296940544264
1260000000.0 0.1105330738959101 -0.394698454295886
1280000000.0 -0.39952474809262406 0.15170393181137237
1300000000.0 0.1808465225037655 0.40022705626235583
1320000000.0 0.40947548071461487 -0.16032014320583207
1340000000.0 0.4084411924253748 -0.16049738605318337
1360000000.0 0.3580850818260647 -0.2522447318760561
1380000000.0 -0.008935113181554313 -0.4360723054537145
1400000000.0 -0.41103846652541276 -0.10520466855529495
1420000000.0 0.05581783078234911 0.4030519147599996
1440000000.0 0.3807415342907427 -0.024265726633466565
1460000000.0 -0.100259381976426 -0.33879758549248784
1480000000.0 -0.3080113492336551 0.09332279712241072
1500000000.0 0.07529967365570678 0.2778061615831917
1520000000.0 0.1862043487828123 0.1779185505571347
1540000000.0 -0.2141425358040585 -0.07591057066877932
1560000000.0 0.11018777485732244 -0.1578794323699707
1580000000.0 0.03293757823703592 0.16104925071367324
1600000000.0 0.12728488976295738 0.042508886349132594
1620000000.0 0.10068254820163289 0.023713389653496533
1640000000.0 -0.06842910164791093 -0.03974731334172105
1660000000.0 0.0458722104605903 -0.029716868248124993
1680000000.0 -0.03458140619045538 0.0024817675826442286
1700000000.0 0.010084598267021738 -0.018684919159425842
1720000000.0 0.00618827933779562 -0.003174159513302559
1740000000.0 -0.01514142174746989 0.006026694979512771
1760000000.0 0.030126854717845597 -0.011111708353149908
1780000000.0 0.04782254399176483 -0.036152823123319834
1800000000.0 -0.09281632368434282 -0.010093525646142826
1820000000.0 -0.05239635269654951 0.11450317649530625
1840000000.0 0.11972719836128581 -0.1128321836596995
1860000000.0 -0.11894474576692528 0.16541218402800628
1880000000.0 0.12987844137573 -0.20528868825575147
1900000000.0 -0.09996755753775441 0.26608681016996194
1920000000.0 0.04966003893851656 -0.3154667740701145
1940000000.0 -0.29414982863830835 0.18996217875303598
1960000000.0 0.34996673096994857 0.143075122121803
1980000000.0 -0.00483212217851154 -0.3983108790569784
2000000000.0 -0.38793737469562567 -0.15152712570516233
2020000000.0 -0.15097636196065062 0.4013194602099372
2040000000.0 0.28155171703416165 0.3299999411585847
2060000000.0 0.4280253387664674 -0.07589377286523773
2080000000.0 0.2872760993053248 -0.32017758068419194
2100000000.0 0.16212785552551254 -0.3929752948367418
2120000000.0 -0.0671796128137919 -0.41161513934353006
2140000000.0 -0.28116032520576933 -0.2933429382742729
2160000000.0 0.07003853188570751 -0.38580870145178964
2180000000.0 -0.14208666777051068 -0.3484856481988919
2200000000.0 -0.30880026948978695 -0.19179437880800176
2220000000.0 -0.33222693354650806 0.11630577610598468
2240000000.0 -0.11525284756356385 0.32750679885726036
2260000000.0 0.1280488545058349 0.3216951505644538
2280000000.0 0.30666202608661686 0.1695749750211559
2300000000.0 0.20259383503584574 -0.30275082905009515
2320000000.0 -0.3220426428683759 -0.21455885455482107
2340000000.0 -0.1555181477657964 0.3887619033626565
2360000000.0 0.43889854863665656 -0.13991169734731967
2380000000.0 -0.5054255701414327 0.05643404005650388
2400000000.0 0.5508593091556981 -0.10049837264539932
2420000000.0 -0.4818008394713672 0.3765335510096777
2440000000.0 0.17093919189342613 -0.6369296130799241
2460000000.0 0.3072806478617854 0.6276158728741613
2480000000.0 -0.590219894769388 -0.42632748514983715
2500000000.0 0.5558613431947017 0.5000302520069227
2520000000.0 -0.46072842968477995 -0.6014118084691218
2540000000.0 0.11792332481220341 0.7493413353926339
2560000000.0 0.4214346203772086 -0.6218520916284179
2580000000.0 -0.7268044582881228 -0.11171871911783447
2600000000.0 0.3667114013022287 0.6090037618535376
2620000000.0 0.26235289659451466 -0.6274377656290511
2640000000.0 0.02924470303476638 -0.6419812848423407
2660000000.0 -0.5006579869041694 0.3266118639690717
2680000000.0 0.5212927361290234 0.17850285366443094
2700000000.0 -0.1773405834983242 -0.47272187825643674
2720000000.0 -0.15812460692777608 0.4291861064549664
2740000000.0 0.34345613407341197 -0.23095458907787117
2760000000.0 -0.37252893274011156 0.04085380361206769
2780000000.0 0.32937796735215197 -0.10192941873736563
2800000000.0 -0.26737922272288217 0.1771120615328278
2820000000.0 -0.005451763384671372 -0.3044998539190684
2840000000.0 0.2662048364758349 0.12511817544598244
2860000000.0 -0.2322825553620391 0.17430376827545763
2880000000.0 0.01925346216020487 -0.28974992237026975
2900000000.0 0.0611349770928346 0.2858148125807636
2920000000.0 0.2009075298720367 -0.2191449378353955
2940000000.0 -0.2993180097455045 -0.0520629649963921
2960000000.0 -0.16870837369162273 0.2546111246904307
2980000000.0 -0.2420637250736866 0.19220480396468717
3000000000.0 -0.31033979534004197 -0.033956223775957965
3020000000.0 -0.09731040374878412 -0.29749829645011683
3040000000.0 0.30279733157217487 0.06454320097315
3060000000.0 -0.2548040868427108 0.17121966270756617
3080000000.0 0.24405988305221654 -0.17853076952919755
3100000000.0 -0.09075870801897172 0.28309995921120645
3120000000.0 0.03980412591603563 -0.2849694910128767
3140000000.0 0.04243568024763708 0.2752342695907891
3160000000.0 -0.20830990420780288 -0.1638002526386514
3180000000.0 0.013928939674623548 0.248521800314258
3200000000.0 -0.22605027772501596 -0.014210117239532616
3220000000.0 -0.023086290443145065 -0.1992626168403982
3240000000.0 0.16815605223304053 -0.03380231236507991
3260000000.0 -0.07854382104139425 0.11400117691452635
3280000000.0 0.017777420974581085 -0.104668033952934
3300000000.0 -0.044344258842124284 0.06308368747684279
3320000000.0 0.04063999063138511 0.028542515555919058
3340000000.0 0.013229831546566661 -0.02316625710873802
3360000000.0 0.0010987670361811872 0.007995562300188467
3380000000.0 -5.384543490699397e-05 0.007236005755902316
3400000000.0 -0.019885565125530243 0.002037728740952215
3420000000.0 0.008561457858637987 0.032267421167039005
3440000000.0 0.04489354465864719 0.0052566208682396235
3460000000.0 -0.02344525010935705 -0.04886656069853997
3480000000.0 0.06503832115270708 0.003813873293293671
3500000000.0 0.0659188805083258 -0.04220861277822433
3520000000.0 -0.0692961919582502 -0.062132411664018665
3540000000.0 0.10700984122013157 0.006685753168762702
3560000000.0 -0.11899400701779864 0.020424460739229704
3580000000.0 0.13455428880624162 -0.014909547511278414
3600000000.0 0.008194675286842125 0.15459236532843262
3620000000.0 -0.06332848672457804 0.15427231270041758
3640000000.0 -0.1777233202811832 -2.132446402843452e-05
3660000000.0 -0.1878848118443413 -0.009733386162713539
3680000000.0 -0.13526012309288435 -0.13576458085234497
3700000000.0 -0.06004182110175652 -0.18155002491640274
3720000000.0 0.08684163372219705 -0.16940891333486532
3740000000.0 0.16256873187366314 -0.08866086031396334
3760000000.0 -0.16128059445673232 0.0766317630094748
3780000000.0 0.1627628027647851 -0.048435636349519
3800000000.0 -0.0673667269572899 -0.14610022743963563
3820000000.0 -0.15347002318701727 0.0006680006328229416
3840000000.0 -0.07164351021533777 -0.12745310473516686
3860000000.0 0.14658375174986094 -0.0034996625975150567
3880000000.0 0.1536697036648469 0.001169711623456791
3900000000.0 -0.04385218966629182 -0.15049699302049302
3920000000.0 -0.10778918053897037 0.12117243862925636
3940000000.0 0.03396602140849717 -0.1635604260631094
3960000000.0 0.16990044439319218 -0.025365299008401895
3980000000.0 0.05996875743497284 -0.1619805396328054
4000000000.0 -0.004846927648461419 -0.16701886417445244
