! Created with skrf (http://scikit-rf.org).
# Hz S RI R 50.0 
!freq ReS11 ImS11
400000000.0 -0.25899477645639934 0.8210094053154509
420000000.0 -0.10005665291566797 0.8511625158579863
440000000.0 0.6826003807619105 0.4677427561116579
460000000.0 0.702816383242215 -0.3609771349000611
480000000.0 0.19249596428005858 0.6860312681947305
500000000.0 0.582217221004912 0.11099921827612114
520000000.0 0.13939238895377903 -0.49745884825377196
540000000.0 0.4555854398898402 -0.040048172076069886
560000000.0 -0.2551272950326039 0.29346865362131164
580000000.0 0.1861406857904804 -0.3040350898888082
600000000.0 -0.15529504625260007 -0.32405206845005347
620000000.0 0.33477051587849815 0.1724609869512376
640000000.0 0.013655918792149902 -0.39799408862803626
660000000.0 -0.3856175964196937 -0.14269964374417532
680000000.0 -0.07592616845344531 -0.4151257765221972
700000000.0 -0.35936925544379195 0.2275054387461819
720000000.0 -0.17708851202944303 0.3755051807424652
740000000.0 0.32711538734162826 -0.2397643139939427
760000000.0 -0.14902441907186045 -0.362134926030282
780000000.0 0.251955602475503 0.2564401510454644
800000000.0 0.24840063021345127 -0.20639534912882268
820000000.0 -0.2537111970821423 0.11397049825692142
840000000.0 -0.2265047346262617 0.0768748921032118
860000000.0 -0.20755244845495208 -0.014851102034975859
880000000.0 0.15865728055004177 -0.007484811644100149
900000000.0 0.013304154925390456 0.10634758093011448
920000000.0 0.008323903800863291 -0.07539295137381223
940000000.0 -0.017397435723760284 0.04528349084108668
960000000.0 -0.05124070479769785 0.010161415548008151
980000000.0 -0.005188499987016844 -0.07024699990135859
1000000000.0 0.06006788896063621 -0.05782458013581665
1020000000.0 0.06998037513697052 -0.07951748391678816
1040000000.0 0.12141888690754447 -0.0020007248017704284
1060000000.0 0.15662309126412985 -0.010235612590282004
1080000000.0 0.1727477843823499 0.020481353733389013
1100000000.0 -0.15027163735291676 -0.12737608997109412
1120000000.0 0.1465458216848478 0.16090613656984046
1140000000.0 -0.016365936784800188 -0.249309079854854
1160000000.0 -0.17195358501190564 -0.2226981287062887
1180000000.0 -0.057922426538664175 -0.3094185232621487
1200000000.0 0.20200948397288349 -0.2765869702214499
1220000000.0 -0.23794588935995015 0.275325047272571
1240000000.0 0.3859449948713694 0.011705941489632023
1260000000.0 -0.09294433351348318 -0.39869095441874786
1280000000.0 -0.3143897087402067 0.29015634728270706
1300000000.0 0.2830357203532745 0.33696910041888667
1320000000.0 0.3842257275525846 -0.2158117460784069
1340000000.0 0.40120366548395925 -0.18141546523250088
1360000000.0 0.38595407984622876 -0.20880104825379417
1380000000.0 0.056634196354686216 -0.4340116149822365
1400000000.0 -0.36479521561628636 -0.21842915612301886
1420000000.0 -0.0253251356323916 0.4063851717793958
1440000000.0 0.36982985937750773 0.09626094542673816
1460000000.0 0.006280335870856549 -0.35251562661472763
1480000000.0 -0.319505554494567 0.03055170996225915
1500000000.0 -0.019922507134755376 0.28585882497478643
1520000000.0 0.13752735274898983 0.21580843526064852
1540000000.0 -0.20208240083540094 -0.09947041456791261
1560000000.0 0.10165808286457258 -0.16190921730577718
1580000000.0 0.09204116977195571 0.13340152536937963
1600000000.0 0.1177445161736199 -0.06119525898226242
1620000000.0 0.09612432937410827 -0.0350436702824235
1640000000.0 -0.019258843865948883 0.07646780553191745
1660000000.0 -0.04098335022022573 -0.03659608966205084
1680000000.0 0.02132882512603711 0.0279366278841107
1700000000.0 0.006539783827549229 0.021178160834398517
1720000000.0 0.005313479022955428 -0.005184437062428458
1740000000.0 0.01222598573427524 0.009263857381047192
1760000000.0 -0.026261248896595608 -0.016804651355258982
1780000000.0 0.015563387009853975 -0.057903652862849916
1800000000.0 -0.0627786394685664 0.07013273672016322
1820000000.0 0.02572019956147172 0.12379136615391832
1840000000.0 0.0942176159725092 -0.13526668460061864
1860000000.0 -0.09187815143470543 0.18210758315368133
1880000000.0 0.12124010025209253 -0.21123931816216834
1900000000.0 -0.12251108585893694 0.25684100484199485
1920000000.0 0.06762364766985864 -0.3125311194767125
1940000000.0 -0.30865094341475535 0.1660129041940361
1960000000.0 0.33875052529535093 0.167291392150434
1980000000.0 0.011732527242015319 -0.3974387482220574
2000000000.0 -0.3765631419139521 -0.17630131072233665
2020000000.0 -0.15152533562301587 0.4000882562210406
2040000000.0 0.21049939136376067 0.3781346978147388
2060000000.0 0.4251010186746245 -0.08483225030163181
2080000000.0 0.28636088720963615 -0.3196906221326417
2100000000.0 0.16087795715448422 -0.39188964024720785
2120000000.0 -0.022453725097553737 -0.41543580165171373
2140000000.0 -0.31306750228184144 -0.25860140678585203
2160000000.0 0.05347991649765956 -0.38787747702714415
2180000000.0 -0.18818117407742832 -0.32533944915877294
2200000000.0 -0.3394217143094627 -0.12944927121562175
2220000000.0 -0.29353132377126095 0.19570577065306505
2240000000.0 -0.0860178729332808 0.3374086965525735
2260000000.0 0.12738100083384835 0.3233349687835624
2280000000.0 0.3010645527389038 0.18184326472515938
2300000000.0 0.21227561346393162 -0.29712987387146983
2320000000.0 -0.3030503800638368 -0.24235328342655438
2340000000.0 -0.2069976088017267 0.36506007416500774
2360000000.0 0.4504327111253003 -0.10099069142796625
2380000000.0 -0.5091445935630128 0.011877840251560596
2400000000.0 0.5582036755674197 -0.046649694408271374
2420000000.0 -0.5298814666858496 0.30499665087490724
2440000000.0 0.21157294583563133 -0.6239700282592455
2460000000.0 0.28095529088408755 0.6384681846946789
2480000000.0 -0.5716627364264187 -0.4494414910648017
2500000000.0 0.5943343247383893 0.4509515717623372
2520000000.0 -0.48554653584778495 -0.5792440253547195
2540000000.0 0.14105674154228556 0.7437990790326113
2560000000.0 0.4201505004810103 -0.6216352372003738
2580000000.0 -0.7342438522452256 -0.028436762971932334
2600000000.0 0.43362064697089775 0.5631296150527909
2620000000.0 0.25393546171165166 -0.631247412746198
2640000000.0 -0.06856286019611119 -0.6399495925160374
2660000000.0 -0.47124642921286536 0.3713652823534059
2680000000.0 0.520416677241899 0.18786093990035913
2700000000.0 -0.21943791370349275 -0.4571905426491861
2720000000.0 -0.11786132094215916 0.4443033542247888
2740000000.0 0.34548512277853916 -0.23326869067333852
2760000000.0 -0.3759428533402413 0.037504844318378555
2780000000.0 0.3439789074430394 -0.0483738156492149
2800000000.0 -0.30333042927073917 0.10984531196797312
2820000000.0 0.1027233480913109 -0.28807640922968847
2840000000.0 0.2099968614044252 0.20643098035130894
2860000000.0 -0.28606532232045023 0.04925633853189725
2880000000.0 0.12583501499675498 -0.26074342739681783
2900000000.0 -0.03299660842182555 0.2893402388850875
2920000000.0 0.2029202853220956 -0.21452649038100471
2940000000.0 -0.29056317194638764 -0.07987439066067442
2960000000.0 -0.1802544251766152 0.2438156570098021
2980000000.0 -0.20522390725945094 0.2279957167890698
3000000000.0 -0.3061712732786711 0.04682087494745317
3020000000.0 -0.14557523597197897 -0.2754770332599535
3040000000.0 0.2802418892769506 -0.13057043594263443
3060000000.0 -0.2031233659414934 0.229699562091884
3080000000.0 0.11753791813623099 -0.2785574057288416
3100000000.0 0.020602316524619097 0.29667794185430896
3120000000.0 -0.04014250962930858 -0.2861571791078602
3140000000.0 0.15751914475598675 0.2309892736678621
3160000000.0 -0.250583802171487 -0.08993579155667356
3180000000.0 0.059725019924268694 0.24260208537490674
3200000000.0 -0.22233457660869071 0.05298274746365016
3220000000.0 -0.06342672682522935 -0.19229999093080138
3240000000.0 0.1671885489997386 -0.04427719209338521
3260000000.0 -0.06912721462154173 0.12140521951771224
3280000000.0 0.00990824488311196 -0.10709792436706053
3300000000.0 -0.049378003688323686 0.06127013876900823
3320000000.0 0.036336354961341445 0.035600578366443536
3340000000.0 0.024173078354729666 -0.012971487887593168
3360000000.0 0.007563312571107276 0.0039896376456328
3380000000.0 0.00493209339925942 0.0038621445659339773
3400000000.0 -0.019191415906579756 0.0029199594045745034
3420000000.0 0.020937632106904896 0.02508220258369067
3440000000.0 0.036195710155763394 -0.027221689350856237
3460000000.0 0.016819053730972013 -0.050604228688856646
3480000000.0 0.058859234010294956 0.024458667868259034
3500000000.0 0.05906166875352133 -0.04978288150112579
3520000000.0 -0.08471966196353642 -0.03638792829599777
3540000000.0 0.10536660545095518 0.018711080702902835
3560000000.0 -0.09832083706087541 0.07035285540197349
3580000000.0 0.11605453329531773 -0.06862521131177071
3600000000.0 0.007007476242537164 0.15306592938128
3620000000.0 -0.009363511528027476 0.16533701938029927
3640000000.0 -0.1617071417672021 0.07343631790724559
3660000000.0 -0.1789691998139509 0.05456718597503855
3680000000.0 -0.17688095465812914 -0.07329630204764559
3700000000.0 -0.12898879619272305 -0.14036349562544087
3720000000.0 0.03312576997660743 -0.18776822896720088
3740000000.0 0.13017109820859302 -0.13226352216820775
3760000000.0 -0.11925659994052175 0.13328947323081192
3780000000.0 0.13190575547991154 -0.10718279818504092
3800000000.0 -0.10271822151672223 -0.12446041928891277
3820000000.0 -0.15261853800473835 -0.019720487183932982
3840000000.0 -0.09368543489209323 -0.1131120736757741
3860000000.0 0.147017262511932 -0.0033444857157741265
3880000000.0 0.15216684272739514 -0.021175983418881206
3900000000.0 -0.05840242057834499 -0.145844882920566
3920000000.0 -0.09756153301550859 0.13037631840327055
3940000000.0 -0.028254148941892303 -0.16511622744937374
3960000000.0 0.16416521886907082 -0.05191096588493471
3980000000.0 0.08547018800956593 -0.15012964610787566
4000000000.0 0.0431983675593178 -0.16090086647850493
