! Created with skrf (http://scikit-rf.org).
# Hz S RI R 50.0 
!freq ReS11 ImS11
400000000.0 -0.32617649395808196 0.7947858715896426
420000000.0 -0.08480467842406242 0.850672706812126
440000000.0 0.7284430196099502 0.38988169168205417
460000000.0 0.6737067137345482 -0.409384697359957
480000000.0 0.17052069638494907 0.6920424366210272
500000000.0 0.5905962908022495 0.04810210280342346
520000000.0 0.19013835967482057 -0.4791420991462813
540000000.0 0.4579166021549626 -0.016844729979577495
560000000.0 -0.2883956617715415 -0.2600704290781341
580000000.0 0.17536934834984302 -0.3106942378137861
600000000.0 -0.19468624082951932 -0.3027006409262263
620000000.0 0.3397939283561297 0.1631514907099807
640000000.0 0.03709960164921182 -0.39640880294471625
660000000.0 -0.393313670502306 -0.11974099680958374
680000000.0 -0.050407664134969166 -0.41917535863700767
700000000.0 -0.37252735513884394 0.2063548639061368
720000000.0 -0.2246946362259193 0.34810529992818917
740000000.0 0.36407826723683956 -0.17826802432490202
760000000.0 -0.16599848821492572 -0.35451482239544446
780000000.0 0.259897612065205 0.2469891458690698
800000000.0 0.24507945834577252 -0.210039549395088
820000000.0 -0.24822505638371214 0.123612282667335
840000000.0 -0.1938109919463806 0.14081768620780138
860000000.0 -0.18076963675139357 0.10204550322645249
880000000.0 0.11973730456331899 -0.1050819292401358
900000000.0 0.07957263515283049 0.07414204455256428
920000000.0 0.008492038784047112 -0.07727208837795206
940000000.0 -0.04264336606415527 -0.024059117016815672
960000000.0 0.013027880727080903 -0.0491585686335488
980000000.0 0.043035507048555834 -0.05323498759558081
1000000000.0 0.05376408080861806 -0.060043690004808824
1020000000.0 0.02203714032092143 -0.10183023073628628
1040000000.0 0.09381289521212864 -0.07635209002036626
1060000000.0 0.11536669165203552 -0.10653518598855763
1080000000.0 0.15844578403331497 -0.07555982734076194
1100000000.0 -0.1944145268955416 -0.04013995664523998
1120000000.0 0.15174792223080438 0.15937336308037733
1140000000.0 0.035086140451233726 -0.2505969910329956
1160000000.0 -0.10028976715730502 -0.2656780455941971
1180000000.0 0.042310152661830205 -0.31398261046020753
1200000000.0 0.31470415483361186 -0.14070546775778478
1220000000.0 -0.33070447494984445 0.15412061299279387
1240000000.0 0.3644987231812025 0.13187962348057325
1260000000.0 0.09704321854902656 -0.39832845478444506
1280000000.0 -0.40555576215996836 0.1346358974092178
1300000000.0 0.17808093461337615 0.4017171460208455
1320000000.0 0.423280314421134 -0.11899527241393898
1340000000.0 0.41346223517283015 -0.1475590743545682
1360000000.0 0.35938409290581474 -0.2500582551903974
1380000000.0 -0.002772108480867817 -0.4360589201925736
1400000000.0 -0.413064839198123 -0.09603450996193032
1420000000.0 0.06871123645764424 0.4008244466974344
1440000000.0 0.38032175878389934 -0.03153468971466448
1460000000.0 -0.10405645842470994 -0.3374650575069891
1480000000.0 -0.2974364612930832 0.1224355435036225
1500000000.0 0.10739451918470133 0.26719169801922604
1520000000.0 0.20065441345569426 0.16143588312986662
1540000000.0 -0.2194967565708512 -0.06114595095053978
1560000000.0 0.12211611265440978 -0.15024481804688733
1580000000.0 0.03891717826849315 0.16023702966544012
1600000000.0 0.11928566177465756 0.06272867741223177
1620000000.0 0.08302259496162476 0.06224860543321574
1640000000.0 -0.056675250898036864 -0.05499845544139975
1660000000.0 0.05409949397461432 -0.007461675844966488
1680000000.0 -0.030730125394350313 -0.014383839688557125
1700000000.0 -0.0013224717534339643 0.0203333115849474
1720000000.0 0.0050033464822044375 -0.0037076668436804372
1740000000.0 0.0030663760288749875 -0.015547961587741764
1760000000.0 0.030123437513886728 0.009421835491007197
1780000000.0 0.056111681566584456 -0.020546386776498178
1800000000.0 -0.09255351453189226 0.015144671287217887
1820000000.0 -0.06102331562055182 0.10966170506059725
1840000000.0 0.12496237133979897 -0.10572796018789143
1860000000.0 -0.12577124473581328 0.15922038931690122
1880000000.0 0.13398610775350145 -0.20195807374758593
1900000000.0 -0.09362188491660872 0.2677650261346689
1920000000.0 0.05168852153782811 -0.31494749154719837
1940000000.0 -0.2820450288066926 0.20753087353867086
1960000000.0 0.34562448697436005 0.15271409420157034
1980000000.0 -0.007051041116233532 -0.39855739678213903
2000000000.0 -0.37089035750773125 -0.1909045801561885
2020000000.0 -0.16329985199202982 0.3965339218976983
2040000000.0 0.2620989368481565 0.3452391706162101
2060000000.0 0.427143407642321 -0.0789269560550851
2080000000.0 0.2913808618874108 -0.31594967395742657
2100000000.0 0.18134675309322418 -0.3842537229738762
2120000000.0 0.0017985525472023402 -0.4170598851168477
2140000000.0 -0.2823572715700108 -0.2919135193287199
2160000000.0 0.10676572141701705 -0.3767492753983436
2180000000.0 -0.13728992350893585 -0.3498865408723157
2200000000.0 -0.31373709983137404 -0.182327053168824
2220000000.0 -0.3289651078789232 0.12489680325940589
2240000000.0 -0.13439401058177672 0.3201499179891686
2260000000.0 0.12548425755316764 0.32311691132171055
2280000000.0 0.29910047546923757 0.18230559980588146
2300000000.0 0.21827965712843922 -0.29126272028389066
2320000000.0 -0.3111455436691692 -0.23038640267962127
2340000000.0 -0.18668736872292332 0.3749634822219543
2360000000.0 0.44771726799676353 -0.10905938530630406
2380000000.0 -0.5080255812991856 0.020161996100656974
2400000000.0 0.5571704243859085 -0.05788054363974373
2420000000.0 -0.49338889552433896 0.36156754457565576
2440000000.0 0.19024245939440132 -0.6316903455964313
2460000000.0 0.2694239210699973 0.6447495102619172
2480000000.0 -0.5652409406510368 -0.4591849600724565
2500000000.0 0.5913991873754033 0.4572770767026203
2520000000.0 -0.4423790963453921 -0.6142976541506595
2540000000.0 0.13917155018239477 0.7447924732304583
2560000000.0 0.4405110793363353 -0.6087114506181175
2580000000.0 -0.7289227795126586 -0.10010995438962017
2600000000.0 0.37919486658756246 0.6023577195580782
2620000000.0 0.29888011820930516 -0.6122764057497713
2640000000.0 -0.014070332160677178 -0.6432162995895139
2660000000.0 -0.4861658195619016 0.34992860495642764
2680000000.0 0.5125473493346232 0.20587759336949615
2700000000.0 -0.22810522260918226 -0.45192636040190914
2720000000.0 -0.15298221322700603 0.431916893643533
2740000000.0 0.3361098531295001 -0.24386176941980833
2760000000.0 -0.36832781025489925 0.07750751236006591
2780000000.0 0.3264403838244702 -0.11448582399646096
2800000000.0 -0.27098128857584336 0.1734356413138932
2820000000.0 0.0021211866196803445 -0.3055235983611223
2840000000.0 0.2536711610528758 0.15064011566855331
2860000000.0 -0.2664329892269383 0.11847728813295037
2880000000.0 0.07100022644961278 -0.2820224411929146
2900000000.0 -0.015039531227695132 0.29202752593172543
2920000000.0 0.21807055333813777 -0.20205458924827246
2940000000.0 -0.29421004511854587 -0.07521971475618994
2960000000.0 -0.20870970075970993 0.22372631246013167
2980000000.0 -0.26148822380150943 0.16353822436508408
3000000000.0 -0.3112794779822602 -0.018643767201630485
3020000000.0 -0.07623418813569555 -0.30272097119328917
3040000000.0 0.30892376140789485 0.0004889883453052471
3060000000.0 -0.26415694865623063 0.15394976077630687
3080000000.0 0.22384219372950537 -0.20249437156916908
3100000000.0 -0.10214437114043692 0.27793710745580963
3120000000.0 0.04570407199447931 -0.28334601387364905
3140000000.0 0.08496668728829412 0.26433245508526726
3160000000.0 -0.22326489980712771 -0.1416641713559625
3180000000.0 0.0612018020553233 0.2411844275150289
3200000000.0 -0.2227022843724686 0.04055446594693585
3220000000.0 -0.07244177762544345 -0.18718367280211276
3240000000.0 0.14730280453671518 -0.08818634123310394
3260000000.0 -0.017696330041117585 0.1376384251253588
3280000000.0 -0.03745887913431765 -0.10020833900355959
3300000000.0 -0.013301825344317137 0.07733803655510056
3320000000.0 0.02505015157401176 -0.043795471183118946
3340000000.0 -0.01326933182153902 0.023910579874774938
3360000000.0 0.00955518089355009 -0.0020378767095339694
3380000000.0 0.0009615742186243558 0.006649757267204679
3400000000.0 0.019126338718370446 0.0007885935604022107
3420000000.0 -0.016191532407059603 0.02779135931736279
3440000000.0 0.043155394424279805 -0.012107185243506381
3460000000.0 0.04758485707925667 -0.023680945479164647
3480000000.0 0.047047171833366104 0.043268191406725956
3500000000.0 0.06802714369435063 -0.03666569441294373
3520000000.0 -0.05123277011641418 -0.07678084846876923
3540000000.0 0.10387977874772802 0.02607818725926631
3560000000.0 -0.11645142620392028 0.03173509594777327
3580000000.0 0.1345538924845311 0.008248465056499886
3600000000.0 -0.048216402358523015 0.14531864231160763
3620000000.0 -0.08008063640706306 0.14522500791691534
3640000000.0 -0.17287664630759925 -0.03617943822649476
3660000000.0 -0.18567132755810373 -0.015890864038440276
3680000000.0 -0.15542147963722022 -0.11114200038453481
3700000000.0 -0.09625459473373602 -0.1646718894262555
3720000000.0 0.06285672775300179 -0.1798077495947777
3740000000.0 0.1525513696805706 -0.10543802643934164
3760000000.0 -0.1408610732711223 0.10933812988241431
3780000000.0 0.1544022316216355 -0.0711236636385091
3800000000.0 -0.09114574042350751 -0.13245063714618718
3820000000.0 -0.14916139838160833 0.03475217174142689
3840000000.0 -0.10924241623621281 -0.09694837504486105
3860000000.0 0.1456225311660381 -0.013020142830493044
3880000000.0 0.15333310105016404 0.0022522419537648534
3900000000.0 -0.05143217960577889 -0.14825670131914948
3920000000.0 -0.06880819300801543 0.14657045764294832
3940000000.0 -0.03151985990618779 -0.1638949329949529
3960000000.0 0.16236677574356723 -0.056494029163020466
3980000000.0 0.055060593603557195 -0.1646349997259932
4000000000.0 -0.007952352791650215 -0.16758485820629007
