! Created with skrf (http://scikit-rf.org).
# Hz S RI R 50.0 
!freq ReS11 ImS11
400000000.0 -0.27615541543267713 0.8161315239490742
420000000.0 -0.10621711364810445 0.8500759105975113
440000000.0 0.6958226185596835 0.447257775108988
460000000.0 0.7180032257644139 -0.3293668676384054
480000000.0 0.2445365986204759 0.6704077893881876
500000000.0 0.5916890857971666 0.018401656594287958
520000000.0 0.19986071499349164 -0.47569205184852187
540000000.0 0.4596575224822027 -0.009156624985507731
560000000.0 -0.2752860667429111 -0.27608486164393903
580000000.0 0.24074832589184186 -0.2604894883174069
600000000.0 -0.12484512417276433 -0.33731362236988366
620000000.0 0.36807922214925326 0.08204335873962036
640000000.0 0.09944976330694114 -0.3861683284276175
660000000.0 -0.40701050777206743 -0.05288441680005627
680000000.0 -0.09152981317018198 -0.4118534017317992
700000000.0 -0.3570654426257973 0.23004370939647253
720000000.0 -0.15734959549719696 0.3834121560290815
740000000.0 0.36515717913642376 -0.1782764021679832
760000000.0 -0.16946621744489038 -0.35273942654554086
780000000.0 0.2348665475508871 0.270907670044682
800000000.0 0.2035861399791347 -0.2503102362172321
820000000.0 -0.2493155386167837 0.12286957694188318
840000000.0 -0.2334091185579769 0.05164094479908757
860000000.0 -0.2070735296866104 0.025802069086769967
880000000.0 0.15375060776692603 -0.03376587613096953
900000000.0 -0.024217706428288365 0.10445205893708995
920000000.0 -0.007859435290639477 -0.07594010781920145
940000000.0 -0.04423649509373035 -0.018837148208313927
960000000.0 -0.05198819680505838 -0.00041067113739023654
980000000.0 -0.003903710166379113 -0.06961664634657468
1000000000.0 0.06544342639639894 -0.05163165722033663
1020000000.0 0.04059853534598693 -0.09707252366802648
1040000000.0 0.11787670104049708 0.027491990809148135
1060000000.0 0.15666764226671118 0.00020946919915356725
1080000000.0 0.17454711347672489 -0.003516704829483732
1100000000.0 -0.1629954578976938 -0.10950024422043879
1120000000.0 0.15902777511889338 0.1488465373329757
1140000000.0 -0.03993458374777191 -0.24667878264207932
1160000000.0 -0.18536380805032665 -0.21123116918408325
1180000000.0 -0.07618361750617686 -0.3047947254969395
1200000000.0 0.23539680576033528 -0.249268561212415
1220000000.0 -0.2355958276077704 0.27611450713959085
1240000000.0 0.3848672880356304 0.03137825170966414
1260000000.0 -0.07285974765420253 -0.40328799662487674
1280000000.0 -0.33979264319262714 0.25979405242062603
1300000000.0 0.2718662709877879 0.3460551313167059
1320000000.0 0.39179523621795126 -0.20232004039224846
1340000000.0 0.39788895360785537 -0.18839113184108014
1360000000.0 0.36821362735409063 -0.2383870613783202
1380000000.0 0.09706574603161097 -0.4264792896023381
1400000000.0 -0.3805518593872478 -0.18951766841640422
1420000000.0 -0.04347554814838224 0.40502821445399173
1440000000.0 0.3716955988400647 0.08905409735032067
1460000000.0 -0.013211395362543652 -0.35276574380645787
1480000000.0 -0.32065167705467346 0.014077195899903628
1500000000.0 -0.022986694718346495 0.2858735771203448
1520000000.0 0.13541088807261384 0.21710705026499602
1540000000.0 -0.20782845713759526 -0.0864047255494685
1560000000.0 0.15032476429960473 -0.11791140520276289
1580000000.0 0.07885592069275445 0.14160292962927096
1600000000.0 0.13289774243470248 -0.0067978616115120585
1620000000.0 0.08792849134939273 -0.05304425370182888
1640000000.0 -0.03944396563082958 0.06776642531324976
1660000000.0 -0.03100792129244599 -0.04545310483878892
1680000000.0 0.02846302722126556 0.020293940074645484
1700000000.0 -0.009984332358470129 0.019428266675905127
1720000000.0 0.0041379646825469366 -0.006015112874076522
1740000000.0 0.012128425565981347 -0.009431142687610073
1760000000.0 -0.02991899887132008 -0.008048625089552912
1780000000.0 -0.002137175392134477 -0.059808905476190694
1800000000.0 -0.05807299007057798 0.07333559061681931
1820000000.0 0.024433967729474333 0.12424376801630618
1840000000.0 0.06408458042323732 -0.1518834019239924
1860000000.0 -0.07533176025985279 0.18973409834413954
1880000000.0 0.10360277710353773 -0.22038413245772948
1900000000.0 -0.11410926290902353 0.261273984361208
1920000000.0 0.07992336982085001 -0.3100641701900235
1940000000.0 -0.31444918412225986 0.1552083522888699
1960000000.0 0.33097138595190906 0.18326105619577318
1980000000.0 0.03493266989600758 -0.39639094391140106
2000000000.0 -0.36496181396334454 -0.19900484123172596
2020000000.0 -0.189182225030981 0.3838920106023931
2040000000.0 0.17322684926196147 0.3970156926389693
2060000000.0 0.43126384399467554 -0.043809121916763054
2080000000.0 0.3170340732954092 -0.28908253345383894
2100000000.0 0.2066076478355783 -0.3695036955449939
2120000000.0 0.006556776163838262 -0.4150967227381974
2140000000.0 -0.30664166558534217 -0.2648620663845463
2160000000.0 0.08132217723773226 -0.3820652809862895
2180000000.0 -0.19478070243237308 -0.321079230474973
2200000000.0 -0.34912034620018306 -0.09645126500329644
2220000000.0 -0.30560716045543607 0.17436340147829912
2240000000.0 -0.0641420434047613 0.3419552110520878
2260000000.0 0.18551908522964128 0.29347263991287137
2280000000.0 0.3096995239899867 0.16495872045261864
2300000000.0 0.2024973972062994 -0.30399733578742016
2320000000.0 -0.32486999788174914 -0.2126382678596859
2340000000.0 -0.21154831650696812 0.36247155487558336
2360000000.0 0.4556498910223472 -0.07441818886447833
2380000000.0 -0.5090340310003144 0.0011444683593685137
2400000000.0 0.5599910361052362 -0.0007274814781902091
2420000000.0 -0.5465131579125785 0.2737516965348706
2440000000.0 0.21689764602672593 -0.6218805799777177
2460000000.0 0.24339725233721113 0.6537518477316391
2480000000.0 -0.5356677634716787 -0.49149499210690006
2500000000.0 0.5698169616370707 0.4815181950925869
2520000000.0 -0.46105916353401183 -0.5980849810421899
2540000000.0 0.11130948330974548 0.7478693230532817
2560000000.0 0.4159101632203172 -0.6243898186178227
2580000000.0 -0.7344461747476121 -0.025906780134359847
2600000000.0 0.4473942097703846 0.5525314713352009
2620000000.0 0.20101547494101024 -0.6508000244727933
2640000000.0 -0.14893808141241455 -0.6268490884523125
2660000000.0 -0.4411756947239603 0.40784409108925546
2680000000.0 0.5335787089287541 0.14936123796777964
2700000000.0 -0.2165731810194572 -0.4599819818696313
2720000000.0 -0.14621398438382294 0.4370099255045075
2740000000.0 0.34005515886232535 -0.24311316948280237
2760000000.0 -0.37863519009299823 0.009521879744065898
2780000000.0 0.3479535674415842 -0.009236808208862541
2800000000.0 -0.3096585557946109 0.09185078484598407
2820000000.0 0.09535077593885077 -0.2903786996811416
2840000000.0 0.19614378971602034 0.2202452942921226
2860000000.0 -0.28076999248323725 0.07323112172669104
2880000000.0 0.10523982755583962 -0.2699772941328324
2900000000.0 -0.04084208764149458 0.2885319790938558
2920000000.0 0.1910883199799057 -0.22556835616373191
2940000000.0 -0.299817779478935 -0.0308115905620203
2960000000.0 -0.18604168325164896 0.2398285500515359
2980000000.0 -0.1829260727358247 0.24645346766223436
3000000000.0 -0.30483117884092864 0.06134037133519691
3020000000.0 -0.14509468147086135 -0.2749431254943256
3040000000.0 0.29716725275428735 -0.08268290249621972
3060000000.0 -0.1807929805473312 0.24713423065839307
3080000000.0 0.1002682061951371 -0.28445997273166973
3100000000.0 0.009841950754692352 0.2965726010281123
3120000000.0 -0.11835275820819002 -0.26344683756901305
3140000000.0 0.20771565149049034 0.1867838901824631
3160000000.0 -0.26467966898830264 -0.027461208924576874
3180000000.0 0.11359833886335025 0.22269582149255063
3200000000.0 -0.19900004886639178 0.1116323342718511
3220000000.0 -0.1001257570592762 -0.17591281438131706
3240000000.0 0.15581979413885905 -0.07623185124894495
3260000000.0 -0.05148346494043901 0.13053339356009197
3280000000.0 0.002327431355142235 -0.10806187093846645
3300000000.0 -0.04141581531263584 0.0678475777078498
3320000000.0 0.04524070631478735 0.024314626530698623
3340000000.0 0.023779431124710333 -0.013857073609270047
3360000000.0 -0.008988824534379047 0.0034851880548602654
3380000000.0 -0.005629683866165018 0.002322552344500892
3400000000.0 0.004010887353839907 0.019164683875737887
3420000000.0 0.005455927357724324 0.031944209630853766
3440000000.0 0.036509575410835396 -0.025695190387532024
3460000000.0 -0.010912277559544397 -0.05228278633864673
3480000000.0 0.06427705797768515 0.000672047878619273
3500000000.0 0.039933180653728 -0.06695405065257994
3520000000.0 -0.08950827126718863 -0.022977672937325624
3540000000.0 0.1072660084444933 -0.0005280199736581642
3560000000.0 -0.08664844554922779 0.08409271146801367
3580000000.0 0.10614777677271856 -0.08410554799449563
3600000000.0 0.08350463953273167 0.12976859460115484
3620000000.0 0.011087154839858275 0.1661591100974915
3640000000.0 -0.14822052099211863 0.09851204788337482
3660000000.0 -0.18425735438057214 0.032092457616500945
3680000000.0 -0.18012999578721653 -0.06402813238753885
3700000000.0 -0.13512510895382604 -0.13571695442582243
3720000000.0 0.03299208090324682 -0.18754870233980483
3740000000.0 0.10663451101548772 -0.15265299388456272
3760000000.0 -0.10074204320187356 0.14847522727549647
3780000000.0 0.12304915258155363 -0.11791693513757473
3800000000.0 -0.11429024796588762 -0.11426484955743975
3820000000.0 -0.14815308782385622 0.04123690735598514
3840000000.0 -0.11734756337825591 -0.08999831808357892
3860000000.0 0.1475339536527733 0.004521434491734619
3880000000.0 0.15329802146859287 -0.022113740875909414
3900000000.0 -0.053011616444581224 -0.1498392229252046
3920000000.0 -0.057313240559458224 0.15338824987882368
3940000000.0 -0.024669304570298055 -0.1667015370531227
3960000000.0 0.160089437417285 -0.06676874571649168
3980000000.0 0.08694708178869687 -0.1512269913560893
4000000000.0 -0.01358775091636828 -0.16762685204595015
