! Created with skrf (http://scikit-rf.org).
# Hz S RI R 50.0 
!freq ReS11 ImS11
400000000.0 -0.3298223201677604 0.7953889285931859
420000000.0 -0.1512275787711708 0.843312821834942
440000000.0 0.6838536813397961 0.46490543351830654
460000000.0 0.704884078745696 -0.3539221818097064
480000000.0 0.183522673886588 0.6885961729034732
500000000.0 0.5915998879967407 0.029225397693616414
520000000.0 0.2016770277201893 -0.4739598006400589
540000000.0 0.4560140871309562 0.02937511284193739
560000000.0 -0.2968750354588666 0.25084813581606047
580000000.0 0.1673823810587345 -0.31529643185840023
600000000.0 -0.15196301045023475 -0.3245385941266671
620000000.0 0.3643437232542554 0.09741180378320485
640000000.0 -0.045538162363598145 -0.3945649984723781
660000000.0 -0.40282328625091834 -0.07494266060027249
680000000.0 -0.0880483153873619 -0.41289150320940676
700000000.0 -0.3218770702366727 0.2789604355608164
720000000.0 -0.18492258653717403 0.3703581834177658
740000000.0 0.36737551025169624 -0.17439593772826764
760000000.0 -0.19426891094946172 -0.3411229747290213
780000000.0 0.28130147633358465 0.2239206437117302
800000000.0 0.26030812223239913 -0.19162667660279825
820000000.0 -0.27054885720787336 0.06400717218890849
840000000.0 -0.22965982351822545 0.06695669643142134
860000000.0 -0.2060868522543218 0.020134470249043905
880000000.0 0.15809764820641115 -0.008948068490967541
900000000.0 0.018376013120821665 0.10568898116711069
920000000.0 -0.007358472013761103 -0.07534741825341176
940000000.0 0.010519855925002118 0.047354812281937796
960000000.0 -0.04967796313705098 0.016337660236272658
980000000.0 -0.008903127414327623 -0.06994978897068388
1000000000.0 0.058744851102049425 -0.058233519327276675
1020000000.0 0.06081131499986943 -0.08586295542696443
1040000000.0 0.11964263153713485 0.02117728661506037
1060000000.0 0.15485656702817271 0.026859358740706284
1080000000.0 0.173973733433417 0.014785344012086837
1100000000.0 -0.17339372166407302 -0.0917786101433572
1120000000.0 0.1276961253672525 0.17596646520894024
1140000000.0 0.0615583253861751 -0.24224698337625947
1160000000.0 -0.17511018113484017 -0.22044846875318086
1180000000.0 -0.07105645444055593 -0.30667705145824603
1200000000.0 0.226772925477998 -0.25702482875379506
1220000000.0 -0.274982098032222 0.2381601982705332
1240000000.0 0.38238220862678723 0.0564049454751287
1260000000.0 -0.03987251094744339 -0.407858565485387
1280000000.0 -0.34634363105900096 0.2516466495175944
1300000000.0 0.2965469412183063 0.3246759502878475
1320000000.0 0.3913265656527763 -0.20171574858285785
1340000000.0 0.4045497455517518 -0.17358547077143865
1360000000.0 0.3524272109355373 -0.26210027433321387
1380000000.0 0.020173033007517185 -0.43694841894479924
1400000000.0 -0.3890647375495853 -0.17116202413920828
1420000000.0 -0.0014667056370847669 0.40736560580723385
1440000000.0 0.3772132381062444 0.06427216452044295
1460000000.0 0.021475494871806347 -0.35189054359486754
1480000000.0 -0.3207759836160143 0.008356242910883736
1500000000.0 -0.025066540986621352 0.2851944586518806
1520000000.0 0.12198741370551464 0.22444338084799953
1540000000.0 -0.19610513260671847 -0.11047524979971284
1560000000.0 0.11436770019239732 -0.15337925344962097
1580000000.0 0.07355885422255372 0.14429464582379045
1600000000.0 0.12482718301292568 -0.0445809046406773
1620000000.0 0.0980749892826408 -0.028872714115356524
1640000000.0 -0.06934384902942108 0.03604582020763378
1660000000.0 -0.03019200596706867 -0.04539890082960628
1680000000.0 0.030897075628903092 -0.01625189614285468
1700000000.0 -0.0037591246735637213 0.021434003824402442
1720000000.0 -0.003548366628939175 -0.0061117701128836485
1740000000.0 0.013677665872694597 0.005073696360701809
1760000000.0 -0.0011131488325172379 -0.030951556948420306
1780000000.0 0.006138496337050127 -0.0592919396720968
1800000000.0 -0.05253156764118061 0.07744057114346398
1820000000.0 0.06933031526323724 0.10532258207439342
1840000000.0 0.05405467971639057 -0.15533465097741955
1860000000.0 -0.07274757748021611 0.19009274422502595
1880000000.0 0.1184577762943765 -0.21330058794996895
1900000000.0 -0.11045708155919769 0.2630862378168988
1920000000.0 0.08126980234084649 -0.3099795292789784
1940000000.0 -0.30692178623256056 0.17033825511728926
1960000000.0 0.33075458443918854 0.18335005388587342
1980000000.0 0.045472884949038964 -0.39549339185896015
2000000000.0 -0.3556225034752649 -0.21601808573006634
2020000000.0 -0.23106079198001095 0.360601927456588
2040000000.0 0.20322696666765735 0.3820221216800992
2060000000.0 0.4333254689195422 0.015515998697748818
2080000000.0 0.31955895920415145 -0.28555239820860556
2100000000.0 0.18395301399894215 -0.38076777377663595
2120000000.0 -0.02716515664220499 -0.41417754161148745
2140000000.0 -0.2948079608115271 -0.27733967291932476
2160000000.0 0.05956384364601893 -0.3864949319295303
2180000000.0 -0.21199389478502315 -0.30983543333393787
2200000000.0 -0.35213308018585987 -0.08683397986482223
2220000000.0 -0.2666754848331701 0.2298009964728234
2240000000.0 -0.05201644949817145 0.34334587814899187
2260000000.0 0.17173569824778245 0.3022437197947141
2280000000.0 0.32310047502810785 0.1390885447127277
2300000000.0 0.19950013533194283 -0.3060077124104622
2320000000.0 -0.2990258274539121 -0.24868230558382054
2340000000.0 -0.22972195150229932 0.3514733650782026
2360000000.0 0.4581355496684124 -0.056581145130806254
2380000000.0 -0.5094578659756352 -0.003405067099495386
2400000000.0 0.560255361906334 0.0012291554362794273
2420000000.0 -0.5467127051890173 0.27387588279616204
2440000000.0 0.23863141739013977 -0.6139155885157627
2460000000.0 0.22438402898976165 0.6602181151958665
2480000000.0 -0.561981402050817 -0.46003869613377973
2500000000.0 0.532605216348709 0.5220888233545472
2520000000.0 -0.4428946392694706 -0.6118465093480291
2540000000.0 0.14180509257062934 0.7432265015165176
2560000000.0 0.38240902750230693 -0.6446704992481695
2580000000.0 -0.7345610052794216 0.0272961332028351
2600000000.0 0.4143756449621977 0.577748650315781
2620000000.0 0.15854565048201513 -0.661990287375957
2640000000.0 -0.1257228542055851 -0.6317697299502688
2660000000.0 -0.41182376518904734 0.43688865171425106
2680000000.0 0.5496477175296763 0.06910071633942319
2700000000.0 -0.2759260469470118 -0.426304387494102
2720000000.0 -0.09818386768181808 0.44989542639147684
2740000000.0 0.3303184285830399 -0.2552020157374871
2760000000.0 -0.37782943186884943 0.02329497818643301
2780000000.0 0.34380496130568344 -0.05248502585469217
2800000000.0 -0.3057794036522119 0.10467320400543456
2820000000.0 0.10316969385406233 -0.288223327513949
2840000000.0 0.17844099779269756 0.23486609733536917
2860000000.0 -0.2908877873598912 -0.00731555612421568
2880000000.0 0.15168175024639066 -0.24680697870596563
2900000000.0 -0.07920675584099672 0.2799513968574792
2920000000.0 0.2318476570443474 -0.18212817955879046
2940000000.0 -0.2861954057234163 -0.0927657669586042
2960000000.0 -0.16588764182987448 0.2534322703957023
2980000000.0 -0.21061659169498467 0.2217859255686244
3000000000.0 -0.30724947184648266 0.0480168458411515
3020000000.0 -0.1792056656916773 -0.25502624511333
3040000000.0 0.26845967273647836 -0.15274584119978993
3060000000.0 -0.19075576687368198 0.2387798918708154
3080000000.0 0.12159551739347088 -0.27634021359187294
3100000000.0 0.03786513871175882 0.29392903934705694
3120000000.0 -0.09236648173511373 -0.27261484891833737
3140000000.0 0.2076266983370121 0.1866924601125001
3160000000.0 -0.2627422399103069 -0.04198287310427316
3180000000.0 0.1478777251236774 0.20229742380056578
3200000000.0 -0.2001463012972496 0.11089674285709868
3220000000.0 -0.11041324571966303 -0.16985427556964897
3240000000.0 0.1483017149506502 -0.09101934518985505
3260000000.0 -0.05772469863041005 0.1284704711159601
3280000000.0 0.01804527641158621 -0.1076162937522702
3300000000.0 -0.059072927934594684 0.054514951415962784
3320000000.0 0.048688570020988794 0.01824571480516507
3340000000.0 0.028666652256320934 4.545767041657522e-05
3360000000.0 -0.003753744001636032 -0.008861062922207393
3380000000.0 0.0052313122624445905 -0.0012056891059416981
3400000000.0 0.018094300810063683 0.0040728790049739776
3420000000.0 0.017547591345557847 -0.026601657683811918
3440000000.0 0.013424294887526169 -0.041732391321037524
3460000000.0 -0.036119558987194114 -0.0383693469014838
3480000000.0 0.029414777465825034 -0.05627856126901526
3500000000.0 0.022877389237994632 -0.07314754402819199
3520000000.0 -0.08851595914648007 -0.0223032447517457
3540000000.0 0.09426025099868415 -0.05042849049056591
3560000000.0 -0.09502867721975354 0.0735906449140032
3580000000.0 0.10577510283916441 -0.08379635430475238
3600000000.0 0.05893880531359815 0.14222876910628016
3620000000.0 0.01654690630968057 0.16522506045823862
3640000000.0 -0.16076661843594225 0.07514044875058615
3660000000.0 -0.177848513750806 0.061017492739117746
3680000000.0 -0.188982719945772 -0.03742298610143087
3700000000.0 -0.14630646240192033 -0.12535560746593088
3720000000.0 0.03790217956793308 -0.18719065850243213
3740000000.0 0.11692159602217522 -0.1458626937574459
3760000000.0 -0.13171640783850086 0.12248536846336938
3780000000.0 0.13772636565663585 -0.1019465037328786
3800000000.0 -0.1250956858374191 -0.1029205598343998
3820000000.0 -0.1484550575245789 0.04257810528168413
3840000000.0 -0.11836164177310386 -0.08870009415247748
3860000000.0 0.14643234070599767 -0.024423409762884693
3880000000.0 0.15510224202109776 -0.008576300742483766
3900000000.0 0.002059491206384011 -0.15911154980173572
3920000000.0 -0.11647242256685518 0.11517154313090394
3940000000.0 0.05350178813011397 -0.1604074593464379
3960000000.0 0.1736371630967037 0.0026726044918165834
3980000000.0 0.13853142031489252 -0.10650462162763483
4000000000.0 0.13339943807165608 -0.10406666623908838
