!Created with skrf (http://scikit-rf.org).
# Hz S RI R 50.0 
!freq ReS11 ImS11
400000000.0 -0.5947225681766714 0.6359547809325994
420000000.0 0.49187914120148646 0.7215264967582613
440000000.0 0.5372400658283332 -0.6492530903931624
460000000.0 -0.42355426235243476 -0.6748511636064718
480000000.0 0.4693188744185572 -0.5473427138871217
500000000.0 -0.5357859786822811 0.2495349448635002
520000000.0 0.481175927708526 -0.12966587834537927
540000000.0 -0.07505823386105663 0.3914499312874161
560000000.0 -0.31785390438737937 0.13148271326804917
580000000.0 0.2113604881881636 -0.24562199134071536
600000000.0 -0.2710410328860917 -0.18442941508940586
620000000.0 0.31538333586850137 -0.13054649694773232
640000000.0 0.312442619693193 -0.18213312356599146
660000000.0 0.35603066841153874 -0.12554672026222322
680000000.0 -0.1483589987085986 0.3758466700618421
700000000.0 0.18059920084164147 0.3736901299938559
720000000.0 0.4221700296691007 0.03997736286404817
740000000.0 -0.29559067116141546 0.3016110181480881
760000000.0 0.39944456142046697 0.08968460268392217
780000000.0 -0.35079992370520113 0.15040023736160432
800000000.0 0.32628220913967987 -0.13567213978037262
820000000.0 0.18818585696151635 0.24269150726930683
840000000.0 -0.22141287642801225 -0.14095828128834587
860000000.0 -0.11237850067324814 -0.18709361942475855
880000000.0 0.020772848360975656 0.16670874564833055
900000000.0 -0.07607982450052164 0.07859028073181461
920000000.0 0.06833064249655604 -0.006247377798585444
940000000.0 0.026962595083950488 0.03690011784937593
960000000.0 -0.003850558368614643 0.05456264563532405
980000000.0 -0.0684369548168863 -0.014530665448498988
1000000000.0 -0.014133366123685109 0.0807307948246113
1020000000.0 -0.025467861689333782 0.0933641471534827
1040000000.0 0.04723832922896166 -0.09607681372250532
1060000000.0 -0.11561862640955638 -0.08185685079106518
1080000000.0 0.15003264223218604 -0.0578064346650873
1100000000.0 -0.13739802480633567 -0.12463411661725818
1120000000.0 0.05585046775715656 0.20106631883427845
1140000000.0 0.24344320356574908 -0.007362049688007708
1160000000.0 0.0827230766382315 -0.26217189619591097
1180000000.0 0.30183618219741687 -0.08373803725882575
1200000000.0 0.3104132521787685 0.14013881305808876
1220000000.0 -0.3659569430612814 0.04891211875652523
1240000000.0 0.3563472509494696 0.15852887693990828
1260000000.0 -0.14775571251161515 -0.38711647961748297
1280000000.0 -0.42187070102872803 0.07471988776144237
1300000000.0 0.3447298878358178 0.2734815591299813
1320000000.0 0.43662981822898095 0.06872633286989334
1340000000.0 0.43845021882851926 -0.055679554063217694
1360000000.0 0.44133915677580055 0.0641634685622429
1380000000.0 0.18344965236778624 -0.40366930618535407
1400000000.0 -0.42619904332449376 0.09064828843021662
1420000000.0 0.36816509811820397 0.19234168052906161
1440000000.0 -0.049463892365926 -0.38044427639680006
1460000000.0 -0.34721828440538166 0.009406574238299817
1480000000.0 -0.10516818113279988 0.2926063777194192
1500000000.0 -0.0198461151230842 0.27384821624691597
1520000000.0 -0.13879178261702743 0.20177896632039535
1540000000.0 0.21842921330523093 -0.008885291553647366
1560000000.0 -0.1861490450527702 0.03036152728092972
1580000000.0 0.14655439311869492 -0.0822417011997276
1600000000.0 0.06238488157737386 -0.12455521781368581
1620000000.0 -0.015617197192824844 -0.11332486489334499
1640000000.0 0.08760408588625149 -0.023575411206945257
1660000000.0 0.03873393422079465 0.05663569794525873
1680000000.0 0.03884361288805278 -0.03098056500000647
1700000000.0 0.013645396569991775 0.03249407546571293
1720000000.0 -0.014605567898179666 -0.0040607662687150645
1740000000.0 -0.0049495278825664535 -0.002507696885608697
1760000000.0 -0.0066048367995542034 -0.027727026504796987
1780000000.0 -0.05862632923767842 0.021830836494712163
1800000000.0 0.03046388100284119 0.09394124507826118
1820000000.0 -0.008194793746045518 -0.13474630103749005
1840000000.0 0.14849445060752853 -0.09470556444403644
1860000000.0 0.024611652141510187 0.21222484293724328
1880000000.0 -0.1663401836881137 -0.1906648181283912
1900000000.0 0.2805035303744136 0.09059083121421234
1920000000.0 -0.3099927392607588 0.09636414610998363
1940000000.0 0.3103945057606478 0.16774165736733324
1960000000.0 0.05112979215813053 -0.37254896211033034
1980000000.0 -0.3878976975245873 -0.054578196680185195
2000000000.0 -0.3856157879676656 0.13459150424836347
2020000000.0 -0.13345207292721825 0.39993649386970875
2040000000.0 0.1006838868701249 0.4197001830635575
2060000000.0 0.4339230616992698 0.042040147469986695
2080000000.0 0.28196229203759227 -0.3316112732506469
2100000000.0 -0.04402999612676312 -0.4273301718734252
2120000000.0 -0.3113774593643801 -0.28346076725217384
2140000000.0 -0.40677441236187406 -0.051363564028520686
2160000000.0 -0.18985452637174777 -0.3476629684082633
2180000000.0 -0.35973495062019073 -0.13198653582817407
2200000000.0 -0.27689780640092404 0.24840335132542504
2220000000.0 0.07428622943575058 0.3540822355998894
2240000000.0 0.3494566205755648 0.07686108778229328
2260000000.0 0.3048580914762052 -0.18708108792394892
2280000000.0 0.01609549865161865 -0.36236696448907635
2300000000.0 -0.36728788382558886 0.08144396355341911
2320000000.0 0.12193701288295009 0.37892798099476355
2340000000.0 0.37243272795067056 -0.21323671337916644
2360000000.0 -0.4600371242336953 -0.09407003567263185
2380000000.0 0.45705699723754223 0.24263634465844602
2400000000.0 -0.5514713575236599 -0.12906716490275996
2420000000.0 0.5391145421370958 -0.2948021534361724
2440000000.0 -0.26366313115394424 0.6019498179021069
2460000000.0 -0.2136640255417402 -0.6576858976774542
2480000000.0 0.4308315048721764 0.5725652003068088
2500000000.0 -0.29819465450831945 -0.667532901078983
2520000000.0 0.06653387211461916 0.7346574672516606
2540000000.0 0.3795838164790879 -0.6298776162089982
2560000000.0 -0.7261485177537822 0.038995907720083274
2580000000.0 0.3156683700800512 0.6358932062279347
2600000000.0 0.45728083742136694 -0.5093523536960514
2620000000.0 -0.6229206056810042 -0.1995217066732162
2640000000.0 -0.6161871644840533 -0.04622340953448986
2660000000.0 0.272878327023232 0.5041284477162402
2680000000.0 0.29649519546788333 -0.4360471971736486
2700000000.0 -0.4794832109756698 -0.020658097247313732
2720000000.0 0.2422149739635682 0.3579191269130631
2740000000.0 0.28447977771458055 -0.2635648528617369
2760000000.0 -0.32599539737332306 -0.12613186288490844
2780000000.0 0.02132714058792553 0.3213604092901456
2800000000.0 0.10735508900525363 -0.2815878076004533
2820000000.0 0.10559068321637063 0.27070041672149914
2840000000.0 -0.2765666758706757 -0.06726070855670664
2860000000.0 0.0032208216008784638 -0.2854436339696608
2880000000.0 0.23891831054400892 -0.16018130967785726
2900000000.0 0.13859897593457526 0.25439485983783666
2920000000.0 -0.15405227002264593 -0.2482827613898536
2940000000.0 -0.045935315661770594 0.2911682753058987
2960000000.0 0.283187145335818 0.0834051064934143
2980000000.0 0.2627267345658647 0.13581815161266753
3000000000.0 -0.05629308871925526 0.29046547992713323
3020000000.0 -0.26384930550016483 -0.13348480780021954
3040000000.0 0.29143868554504665 0.03727914641842442
3060000000.0 -0.2874476466073287 -0.0677191310026847
3080000000.0 0.29125586236384293 0.03889004721512138
3100000000.0 -0.2856263426600721 -0.05973394355750533
3120000000.0 0.25168255832840886 -0.14161448095298587
3140000000.0 -0.04400743110336172 0.27770023362504775
3160000000.0 -0.21474536007983291 -0.1589877942074746
3180000000.0 0.12578090470230505 0.2180212908995331
3200000000.0 -0.17697948688489532 0.14283726299638386
3220000000.0 -0.1886571836635281 -0.06516600360278611
3240000000.0 0.08684194055262244 -0.14323487745093225
3260000000.0 -0.01464879230839545 0.13217420571888228
3280000000.0 0.09899788975870431 -0.009237219268742406
3300000000.0 0.06063386994640261 0.03576663357726897
3320000000.0 -0.043599688438953614 -0.01582242935689098
3340000000.0 0.024159430875348168 -0.009647127599502021
3360000000.0 -0.001426449847435489 -0.01128003329586593
3380000000.0 0.005895798072966833 0.0013038322086337617
3400000000.0 0.010900179664721898 -0.012987633742478643
3420000000.0 0.02692069890523085 0.010811246874282874
3440000000.0 -0.0031064809108555264 0.03933376934080639
3460000000.0 0.036370032355765566 -0.03353345065188286
3480000000.0 0.03222163887210336 0.05371595431524546
3500000000.0 0.03246958957341641 -0.0704888161824983
3520000000.0 -0.0704163006168562 -0.05790433362786833
3540000000.0 0.10566703260788114 0.010885470146521085
3560000000.0 -0.09518917046595561 0.07463709743237865
3580000000.0 0.05546768134342045 -0.12268725064166464
3600000000.0 0.1502863995801108 0.013745257588529144
3620000000.0 0.09756559432136169 0.129299067234986
3640000000.0 -0.1550652796562723 0.07230502814243894
3660000000.0 -0.09674411559531143 -0.1528423888945862
3680000000.0 0.12467948717908066 -0.13831997557347936
3700000000.0 0.18592593542620106 -0.032109358460635944
3720000000.0 0.08320979730866988 0.1719061942392473
3740000000.0 -0.05017510641171206 0.18148246306859736
3760000000.0 -0.029480130214123657 -0.18216860887979516
3780000000.0 0.17174605075936408 0.034520107670874045
3800000000.0 -0.12282955262008469 -0.11248982844352251
3820000000.0 -0.046500315824939645 0.14830410248318457
3840000000.0 -0.12423148473548923 0.07268087303838579
3860000000.0 0.13540303626480396 0.04396913535194521
3880000000.0 -0.09025407042082392 0.11721962347805942
3900000000.0 -0.021357256280489886 0.15808071955274555
3920000000.0 0.016793971781210556 -0.1679066427700721
3940000000.0 0.16152441253012054 -0.06945497881936685
3960000000.0 0.15381845169199432 -0.09504739587022737
3980000000.0 -0.16590811291072247 -0.0693367628596874
4000000000.0 -0.16824250993855214 0.02187748911118514
