!Created with skrf (http://scikit-rf.org).
# Hz S RI R 50.0 
!freq ReS11 ImS11
400000000.0 -0.5691832989797844 0.6617259891129671
420000000.0 0.49668890506120705 0.7179646839306508
440000000.0 0.5449036861256555 -0.6430893202193041
460000000.0 -0.42678503756574976 -0.6725763397323055
480000000.0 0.4595295573503671 -0.5553477012234455
500000000.0 -0.539902751473184 0.23934227075253683
520000000.0 0.48554767047358444 -0.11239049960252417
540000000.0 -0.055302025226180544 0.3948548685453938
560000000.0 -0.31301267669840277 0.142164245839227
580000000.0 0.2169546767127528 -0.2405468232963838
600000000.0 -0.26968742609447993 -0.1881272655568154
620000000.0 0.3187769337371755 -0.12345719751429736
640000000.0 0.3375759250463031 -0.128995684540209
660000000.0 0.3457491246067319 -0.1511135196129251
680000000.0 -0.12636724394847573 0.3830228316501631
700000000.0 0.16649437302389802 0.3805511363964468
720000000.0 0.42331021186103907 0.022376363629191418
740000000.0 -0.30649010138583893 0.28930863675003304
760000000.0 0.39353563788331225 0.11064217212106638
780000000.0 -0.33584676164321187 0.17999877585091068
800000000.0 0.3136951333213537 -0.16272632750674645
820000000.0 0.19659828045277938 0.23565290880772666
840000000.0 -0.2326817940495732 -0.12091302750692166
860000000.0 -0.12164186840987093 -0.18134414969311174
880000000.0 0.035162990355786204 0.16438442640843431
900000000.0 -0.08503704131252114 0.06911828036137713
920000000.0 0.06788299952709477 0.01037697967456423
940000000.0 0.022734211495921027 0.03892524978940874
960000000.0 0.003074667548859503 0.05467896303583633
980000000.0 -0.06987763169436287 -3.505187612458414e-05
1000000000.0 -0.0012662081252843916 0.08162021519751438
1020000000.0 -0.022545820388660463 0.09385026212237892
1040000000.0 0.02513198580330558 -0.10398129249466756
1060000000.0 -0.10904006872474761 -0.0906237032906439
1080000000.0 0.14633492196092424 -0.06768379158443305
1100000000.0 -0.14239189623253218 -0.11981248932023529
1120000000.0 0.023715232519525214 0.2072290522087539
1140000000.0 0.24353398444974714 -0.0011501822985210497
1160000000.0 0.10604100548424941 -0.25303340338389146
1180000000.0 0.2955177884832105 -0.10210522921129311
1200000000.0 0.30271755032062664 0.15568748836368712
1220000000.0 -0.36537162834692427 0.05392560187884379
1240000000.0 0.3493143169561389 0.1732530692098865
1260000000.0 -0.15255447996800026 -0.3851875611477154
1280000000.0 -0.422884914573 0.06687633636171474
1300000000.0 0.3652383226317876 0.24541218447098778
1320000000.0 0.43576100979033355 0.07354881404200483
1340000000.0 0.43746323135781684 -0.062321901413991194
1360000000.0 0.4430466464052894 0.051853826050261266
1380000000.0 0.1994793367676445 -0.3960891071040544
1400000000.0 -0.42507819687474546 0.09596374575450983
1420000000.0 0.36149090277714097 0.20555002335925388
1440000000.0 -0.04018815335900783 -0.3816486240019706
1460000000.0 -0.34464530745857125 -0.045012393154421314
1480000000.0 -0.13854250204752747 0.2782477700874886
1500000000.0 -0.04394996020849436 0.2708147518259155
1520000000.0 -0.16758241663402565 0.17849892999014438
1540000000.0 0.21804890863558843 -0.01138283521792488
1560000000.0 -0.183551500803137 0.04133784842416917
1580000000.0 0.1469984408982441 -0.08086566925890906
1600000000.0 0.01744803993612282 -0.13789909279417178
1620000000.0 -0.0381259141504152 -0.10757683030329247
1640000000.0 0.08006386634711385 -0.04248112655695834
1660000000.0 0.05961622386689809 0.03364448449377595
1680000000.0 0.019403218754519155 -0.046645605746183975
1700000000.0 0.032568203437804935 0.013797191828764478
1720000000.0 0.01294061210012373 0.008188008394430877
1740000000.0 -0.00517174954592441 0.001963282804893631
1760000000.0 -0.004387921894096454 -0.02816165089569801
1780000000.0 -0.040357983684725256 0.04796489426686927
1800000000.0 0.052109314447239284 0.08428316954954859
1820000000.0 -0.027999330479205903 -0.13213366245684932
1840000000.0 0.12677081775444443 -0.1227929958289187
1860000000.0 0.0282807386809097 0.21200896674585373
1880000000.0 -0.18470842982612912 -0.17399455025254948
1900000000.0 0.28026954444854146 0.09142951572898136
1920000000.0 -0.3106465303720805 0.0950258220067104
1940000000.0 0.3085131837478244 0.17071349937446484
1960000000.0 0.05972524278972239 -0.37131227959277635
1980000000.0 -0.38465409938717166 -0.0727704835297335
2000000000.0 -0.3872847851309761 0.12767272461586815
2020000000.0 -0.11088032546633966 0.40603045846647895
2040000000.0 0.06616652044656801 0.42581108057917466
2060000000.0 0.43488182690929145 0.021645553373477226
2080000000.0 0.2816054026419909 -0.33149001422341196
2100000000.0 -0.05790990962179199 -0.425212924817719
2120000000.0 -0.2975971588928614 -0.29775563925087417
2140000000.0 -0.4044200469228648 -0.06652765053262431
2160000000.0 -0.1871552217223514 -0.3492536853226128
2180000000.0 -0.36687572258877105 -0.11393084097506946
2200000000.0 -0.27483312105905544 0.2512099280342878
2220000000.0 0.04569014093060388 0.35884229237755366
2240000000.0 0.3490499245474513 0.08118133369361853
2260000000.0 0.3168638751682196 -0.16538696814383777
2280000000.0 0.05649981124255875 -0.3579556575740686
2300000000.0 -0.3743208717562429 0.03536196381645724
2320000000.0 0.08097295043066001 0.3894188866436005
2340000000.0 0.3839026842102075 -0.19156197822884916
2360000000.0 -0.44932856505820784 -0.13484724314828778
2380000000.0 0.4408466301986397 0.2702370368750052
2400000000.0 -0.5480792285453502 -0.14168148594911634
2420000000.0 0.5482442776572067 -0.2768876088796014
2440000000.0 -0.26315779626021757 0.6019496206372843
2460000000.0 -0.18056744755403709 -0.6678434306934709
2480000000.0 0.3960376798037294 0.5973725246109831
2500000000.0 -0.2809732512726269 -0.6757232136493285
2520000000.0 0.018886385002798135 0.7379189086694443
2540000000.0 0.39552437434943033 -0.6207100758776294
2560000000.0 -0.7280169814910312 -0.010000192142273932
2580000000.0 0.3005275223523979 0.6445594624403482
2600000000.0 0.4708520989990821 -0.49937811668932097
2620000000.0 -0.5976291255234424 -0.2675400590253981
2640000000.0 -0.6150982879983062 -0.07054651198927613
2660000000.0 0.22486083825091047 0.5278695183428609
2680000000.0 0.30550781949091493 -0.43029472183007655
2700000000.0 -0.4782683742914343 -0.042665806522179286
2720000000.0 0.23073996539072303 0.3657713582709392
2740000000.0 0.3019678630991097 -0.24401383762119783
2760000000.0 -0.3224516268521102 -0.1356713869533641
2780000000.0 0.035744020241625075 0.32011904015954423
2800000000.0 0.08877202682234306 -0.2880512408870516
2820000000.0 0.14598101217767523 0.25169153418253437
2840000000.0 -0.2798144337543262 -0.05639433531599225
2860000000.0 -0.0015842176017435725 -0.28677211166104527
2880000000.0 0.24592880410681162 -0.15146206126500483
2900000000.0 0.10054507734183947 0.27250333993194215
2920000000.0 -0.13333642010945862 -0.2599318295621215
2940000000.0 -0.08925115052795823 0.28054572115421145
2960000000.0 0.2608093759749271 0.138447631910504
2980000000.0 0.21629198948642916 0.20009210205822664
3000000000.0 -0.10925439859154729 0.2743072934824622
3020000000.0 -0.23698771638329677 -0.1757110523966316
3040000000.0 0.289220646434651 0.04767951666487381
3060000000.0 -0.2797931747126099 -0.08961255910093227
3080000000.0 0.28799232588176055 0.054440380578670455
3100000000.0 -0.28994938430780615 0.02443793633895817
3120000000.0 0.23958434417737165 -0.15783654134050498
3140000000.0 -0.012799669291583955 0.2794352079474038
3160000000.0 -0.24005721334949076 -0.11475020979824874
3180000000.0 0.17789868431872313 0.1775371290651946
3200000000.0 -0.12755860870004473 0.18817422020272212
3220000000.0 -0.19394925684997188 -0.048369185011290644
3240000000.0 0.08230276109610643 -0.14601305121265126
3260000000.0 0.024754596946938805 0.13132963827396055
3280000000.0 0.08982585164050767 -0.04509267814089273
3300000000.0 0.0537065758612163 0.04647263900753764
3320000000.0 -0.023304574868687658 -0.041461907044602925
3340000000.0 0.02340997034610062 0.015255710334060308
3360000000.0 0.009108793353470772 -0.009175090566967137
3380000000.0 -0.006010289841180686 0.0025965698871672585
3400000000.0 -0.015283036226521277 0.006169289538304184
3420000000.0 0.028153482326212276 -0.0052547155359321225
3440000000.0 0.024821048499655864 0.030089403892871604
3460000000.0 0.03138069799357492 -0.037397957575671374
3480000000.0 0.04241452479142522 0.044040470073954854
3500000000.0 -0.031125288591510987 -0.07051094758972176
3520000000.0 -0.09063913327488131 0.0040211345759069055
3540000000.0 0.07887763693537364 -0.07173871205485834
3560000000.0 -0.03370883023794691 0.11599800834739463
3580000000.0 -0.030151695835978265 -0.13171056939966397
3600000000.0 0.14516896146532332 -0.042511129827148365
3620000000.0 0.11902388626459476 0.10951474267362316
3640000000.0 -0.13804076775053206 0.10203398085474215
3660000000.0 -0.13582803940416624 -0.12104056983741251
3680000000.0 0.10935306760920348 -0.15239830401301416
3700000000.0 0.1837603878322297 -0.0480284650192101
3720000000.0 0.0914403148864076 0.16928615342324876
3740000000.0 -0.013598174797977633 0.18862733060820994
3760000000.0 -0.03279465214987714 -0.18303222519384346
3780000000.0 0.1616132406953827 0.07026572314940574
3800000000.0 -0.097996289876239 -0.13509878033141456
3820000000.0 -0.10709664430886563 0.11321160154645123
3840000000.0 -0.1441154756682723 0.0040087936688923305
3860000000.0 0.10058353899019282 0.10151669991501559
3880000000.0 -0.14524906935284335 0.033670622769572014
3900000000.0 -0.11392984549890231 0.113662934701774
3920000000.0 0.09388696810743175 -0.14082949386205254
3940000000.0 0.17577388506129443 -0.011961113520769237
3960000000.0 0.17645832862968103 -0.04227926558045562
3980000000.0 -0.13608656027752494 -0.11728077386643145
4000000000.0 -0.16946293138631652 -0.012190986292321074
