!Created with skrf (http://scikit-rf.org).
# Hz S RI R 50.0 
!freq ReS11 ImS11
400000000.0 -0.6275664090216472 0.6050638588440252
420000000.0 0.4516080724179594 0.7475231022451397
440000000.0 0.6070025957507349 -0.5852468849397195
460000000.0 -0.4110384873871482 -0.6832046954407356
480000000.0 0.4561371596223748 -0.5577855573672442
500000000.0 -0.5341856022717025 0.25176447533339513
520000000.0 0.48954828465365846 -0.09367803147752281
540000000.0 -0.024501681732914903 0.39846203137215946
560000000.0 -0.30256074683380163 0.16356364803698478
580000000.0 0.22907830203482227 -0.22906043910269133
600000000.0 -0.2561580529665145 -0.2063262145869416
620000000.0 0.28946012845746205 -0.18167232896644553
640000000.0 0.3324349517904712 -0.1413922296557459
660000000.0 0.35166231366392486 -0.13619714851735898
680000000.0 -0.1722466040426366 0.3657159943450668
700000000.0 0.12703838730299552 0.39496278495572323
720000000.0 0.4192139087518114 0.06284285266062725
740000000.0 -0.29996374002806175 0.2952235000802445
760000000.0 0.3986778881214304 0.09150268088514095
780000000.0 -0.3461822848580095 0.1600518696580661
800000000.0 0.31877042568906216 -0.15198117427402938
820000000.0 0.20705068184458034 0.22641481246249848
840000000.0 -0.2455238216883432 -0.09358311445338442
860000000.0 -0.14261656624156377 -0.1661366560103489
880000000.0 0.03499247417412558 0.1654185766197226
900000000.0 -0.08788789453046399 0.06674999370223693
920000000.0 0.05934569068763641 0.03506641465655838
940000000.0 -0.014181565719443465 0.043105645010556436
960000000.0 -0.030656742944342542 0.04467936485353625
980000000.0 -0.06638971599151833 -0.021223263194382756
1000000000.0 0.008610384028621399 0.08075753913926352
1020000000.0 -0.0018416764901924398 0.09633895289283548
1040000000.0 -0.00040111345097580843 -0.10708500590501703
1060000000.0 -0.13202087425235953 -0.05314359436921603
1080000000.0 0.15061186011995556 -0.05904008435495368
1100000000.0 -0.14010285027181954 -0.1233059435756565
1120000000.0 0.008810298250207306 0.20921434030653313
1140000000.0 0.24439255683271727 -0.0052060541372826235
1160000000.0 0.13403883921818027 -0.24022040980070092
1180000000.0 0.30770618466351857 -0.05910590481796737
1200000000.0 0.28721015568626257 0.18310568041616565
1220000000.0 -0.36883262801433614 0.004306014010147503
1240000000.0 0.3222589551674619 0.21815534127408392
1260000000.0 -0.10731501783899533 -0.39946726295414947
1280000000.0 -0.42634979279644614 0.03178799445619065
1300000000.0 0.3396616093414787 0.2787530596265189
1320000000.0 0.4337455137483424 0.08216871063946153
1340000000.0 0.436798192678952 -0.06276182779868192
1360000000.0 0.442812033283529 0.05163234026565267
1380000000.0 0.15680807192643212 -0.4147365496781275
1400000000.0 -0.42059539313315625 0.1143776988370088
1420000000.0 0.3770575455954765 0.17669916555597714
1440000000.0 -0.07649827100068589 -0.3769750238920918
1460000000.0 -0.3480309718756199 0.016505379048327513
1480000000.0 -0.09842187436547564 0.2962888228916965
1500000000.0 -0.027099793968555684 0.2741962209893774
1520000000.0 -0.1406960811313433 0.20228614378428886
1540000000.0 0.2190989036378043 0.012136096962157804
1560000000.0 -0.18937479995822576 -0.009939326473029917
1580000000.0 0.16555636608354388 -0.03086646869405434
1600000000.0 0.11472678565514148 -0.07913137561713267
1620000000.0 0.04421946728446414 -0.10488742493289845
1640000000.0 0.08440421155746305 0.03096576754193227
1660000000.0 0.031446216409159115 0.059767328866931084
1680000000.0 0.03950484969028072 -0.02837661049616454
1700000000.0 0.02090395625727212 0.026646520602167077
1720000000.0 -0.0010387797654978679 -0.015050427096998623
1740000000.0 0.0023123942608172516 -0.005441137528158268
1760000000.0 0.026658978163200838 0.008654899676518597
1780000000.0 -0.058560003650287226 0.01884593690863922
1800000000.0 0.024901531517260243 0.09426304106837491
1820000000.0 -0.005314714498038068 -0.13367993793972124
1840000000.0 0.12553510771581722 -0.12146173087227286
1860000000.0 0.050212979947875325 0.20658916492621676
1880000000.0 -0.19745921799605637 -0.15723149702131228
1900000000.0 0.29111130251533507 0.04176377209716848
1920000000.0 -0.29030072662359224 0.14516866145178742
1940000000.0 0.3252332736317471 0.13752415741332955
1960000000.0 0.029057198037085567 -0.3754281239649286
1980000000.0 -0.3882832200966259 -0.05656523968428205
2000000000.0 -0.39075338275473276 0.1202146958725903
2020000000.0 -0.14533163308829294 0.39649953998900417
2040000000.0 0.08240806113216578 0.4245351464049994
2060000000.0 0.43141394588281917 0.0676134369665236
2080000000.0 0.3127988653580335 -0.30318374943902476
2100000000.0 -0.02328015674375577 -0.4290356510444434
2120000000.0 -0.2779899448642627 -0.31635932498387725
2140000000.0 -0.39212879068514506 -0.12037426257401211
2160000000.0 -0.16445942497955196 -0.3605917192075092
2180000000.0 -0.3384217455396437 -0.17974853035208802
2200000000.0 -0.3102775265520964 0.20473263951465415
2220000000.0 0.029365152076724195 0.3600502544890575
2240000000.0 0.3386083599040169 0.11327024744903857
2260000000.0 0.3260659816796694 -0.1447348055724614
2280000000.0 0.07069442826710717 -0.35482356064083215
2300000000.0 -0.37310060440279114 0.038662476101993366
2320000000.0 0.12315711710759074 0.3775205166551367
2340000000.0 0.3688186726817219 -0.21715147927489648
2360000000.0 -0.46307894934891175 -0.07210935078396977
2380000000.0 0.4775073426632897 0.19782310051908872
2400000000.0 -0.560603844930695 -0.08090740563506775
2420000000.0 0.5322057361417546 -0.3082576480285484
2440000000.0 -0.22358305625131203 0.6190172994158986
2460000000.0 -0.19693228460524703 -0.6641899332813006
2480000000.0 0.42304350591902706 0.580137443929225
2500000000.0 -0.3462008408451601 -0.6459698196463969
2520000000.0 0.031606563701927104 0.7384539482594858
2540000000.0 0.48386387124488867 -0.5560206696399025
2560000000.0 -0.7258412989087001 -0.059191434566860816
2580000000.0 0.20539399072520167 0.68032401267019
2600000000.0 0.5194545926365908 -0.4469427396322103
2620000000.0 -0.5970674627227901 -0.26577406269904
2640000000.0 -0.6134673861908319 -0.0708708794423253
2660000000.0 0.1834275379500215 0.5425372393523203
2680000000.0 0.32147296805065473 -0.4167995202087239
2700000000.0 -0.47756791528687387 -0.0384967794514637
2720000000.0 0.23296771149352266 0.3631930191334014
2740000000.0 0.2690321823673581 -0.27834589324812054
2760000000.0 -0.33343708015192464 -0.10345674626031376
2780000000.0 0.07854882185930602 0.31184726848512884
2800000000.0 0.05727327137125971 -0.2957118124017332
2820000000.0 0.15556357985370073 0.24560136399935412
2840000000.0 -0.2827469080271641 -0.040835323234662414
2860000000.0 -0.022784094339359736 -0.285708793573747
2880000000.0 0.2616261922047036 -0.12290888709829226
2900000000.0 0.0853933911019331 0.27855344646635577
2920000000.0 -0.09280559269229943 -0.27826377931072094
2940000000.0 -0.11831604843401285 0.27053352370427625
2960000000.0 0.2476251865443913 0.16168447994343618
2980000000.0 0.21134103809877794 0.20730900908433902
3000000000.0 -0.13244422783577478 0.26373372302018827
3020000000.0 -0.24420006738892983 -0.16491566773699928
3040000000.0 0.285609193752953 0.06357200922222023
3060000000.0 -0.273554550596416 -0.10663839311646725
3080000000.0 0.2736009812829718 0.10415046419074955
3100000000.0 -0.2664605261004065 -0.11375928952487377
3120000000.0 0.27125169935436577 -0.09340174416590857
3140000000.0 -0.07885174828971596 0.2682968347077933
3160000000.0 -0.2143830677443254 -0.15719687580290584
3180000000.0 0.15834924274503911 0.19401691657241615
3200000000.0 -0.1417864705880397 0.17714640694523306
3220000000.0 -0.19857653901691014 -0.014431725713868328
3240000000.0 0.020497945508165374 -0.1658759196566633
3260000000.0 0.07583368862647458 0.10964793913985939
3280000000.0 0.07662183013246927 -0.06504824790372374
3300000000.0 0.059162562873930784 -0.039368044782690396
3320000000.0 -0.03320867726478554 0.03309485424701812
3340000000.0 -0.02678184706426701 0.002264218103699372
3360000000.0 0.0025595012760440627 0.011140676732098523
3380000000.0 0.00429381815367093 -0.002087981533443206
3400000000.0 0.013338583071110206 -0.009778234490542135
3420000000.0 -0.00459775562938202 0.027813053522559354
3440000000.0 -0.030820421871500067 0.022757176691077154
3460000000.0 0.04514180811068816 0.01760717285044239
3480000000.0 -0.008140028266242766 0.06118742816491303
3500000000.0 0.0698870444577375 -0.029366494500863875
3520000000.0 -0.008520785520967961 -0.08981064291854612
3540000000.0 0.0883189276060193 0.0574434945757557
3560000000.0 -0.11943316906907758 0.006392572769013894
3580000000.0 0.10862483814825279 -0.07767197286005705
3600000000.0 0.12311546785023464 0.08529372182822909
3620000000.0 0.05436701575078692 0.1509991080254283
3640000000.0 -0.16423545650006696 0.04159538827646468
3660000000.0 -0.09872981578906413 -0.14983457111970547
3680000000.0 0.10599268549376878 -0.1519295792155828
3700000000.0 0.1800271143786716 -0.05377368903404636
3720000000.0 0.09820036504267532 0.162580129150604
3740000000.0 0.0070040307618944855 0.18645970623312316
3760000000.0 -0.07226784877938765 -0.16847355348663617
3780000000.0 0.17367957048900434 0.013939682071286787
3800000000.0 -0.1519940384841785 -0.06541886038530582
3820000000.0 -0.01729181488378613 0.15387363488222502
3840000000.0 -0.09675867029784413 0.1049680191128555
3860000000.0 0.13572160564410599 0.03857183573632087
3880000000.0 -0.0880733963312228 0.11756565232761342
3900000000.0 -0.02305419906234483 0.15679290457926331
3920000000.0 -0.007025353586440716 -0.16749803159669613
3940000000.0 0.16182093355573873 -0.06781389030695359
3960000000.0 0.11931229277589811 -0.13551578676693843
3980000000.0 -0.16520893718443416 -0.0719666239268151
4000000000.0 -0.16233321743663223 0.054019924142701174
