!Created with skrf (http://scikit-rf.org).
# Hz S RI R 50.0 
!freq ReS11 ImS11
400000000.0 -0.5634441836777526 0.666798815501911
420000000.0 0.47965954630591967 0.7296455135298835
440000000.0 0.5627687372696306 -0.6284497596683475
460000000.0 -0.45136057319038453 -0.6572241651568229
480000000.0 0.4675416708605487 -0.548100865504994
500000000.0 -0.5677723511578348 0.15785594973105818
520000000.0 0.4819428636328035 -0.13480034745511188
540000000.0 -0.004256431605808916 0.396992546780039
560000000.0 -0.3297219081772272 0.09785150029935541
580000000.0 0.21842080757587942 -0.23910868830723964
600000000.0 -0.2750470635263021 -0.1832407761461803
620000000.0 0.32430420687888056 -0.10480220476600378
640000000.0 0.32801565383069864 -0.15183631976190012
660000000.0 0.36358876058144274 -0.10149662797381546
680000000.0 -0.12715785555109235 0.3827591801861604
700000000.0 0.14184809956125488 0.3901162641200619
720000000.0 0.4149203749538699 0.0864614003603128
740000000.0 -0.316575510545313 0.2780400064618029
760000000.0 0.39685431531194165 0.09591698542176223
780000000.0 -0.33673533859267435 0.17884962263775148
800000000.0 0.31381081943308464 -0.16237927929294188
820000000.0 0.19422104557240288 0.23747753293105636
840000000.0 -0.21188554815695168 -0.15465163210045627
860000000.0 -0.0988610075386392 -0.19480651947435243
880000000.0 0.02360440284216886 0.1666858661692091
900000000.0 -0.08639499316130064 0.06750110737567258
920000000.0 0.05463874294983687 0.041734012872610984
940000000.0 0.022152041776068093 0.03919301312318987
960000000.0 0.00010424222950573454 0.05443256029781772
980000000.0 -0.06931279195228512 -0.0007715957650450275
1000000000.0 0.006385728701455101 0.0813426064072509
1020000000.0 0.005705604347959777 0.09642355671699929
1040000000.0 0.018720904747366204 -0.10529044566416401
1060000000.0 -0.12403460804620818 -0.06867932283829634
1080000000.0 0.14798684758516528 -0.0647335576728578
1100000000.0 -0.1352845973050293 -0.1278582392972453
1120000000.0 0.003418750622968769 0.2088654814509255
1140000000.0 0.24335910463521737 0.01382902173940542
1160000000.0 0.13472639282912824 -0.23861493242132412
1180000000.0 0.3031355539945479 -0.07677793991473839
1200000000.0 0.28735254197184773 0.18240899187362927
1220000000.0 -0.36574569637017496 0.05019177276949195
1240000000.0 0.34368129416629944 0.18376623723054708
1260000000.0 -0.1311137550919317 -0.39281259013504344
1280000000.0 -0.4210697594442753 0.07667414497655788
1300000000.0 0.3487844183967253 0.2678848289265198
1320000000.0 0.4343866765867871 0.08042669963230137
1340000000.0 0.4352254243269421 -0.07568944975899586
1360000000.0 0.4431827326607183 0.04917688479086101
1380000000.0 0.18860736987797766 -0.4014038725939045
1400000000.0 -0.42361337923028225 0.10227632547261896
1420000000.0 0.3683827647193655 0.1932823384764541
1440000000.0 -0.05768170408850632 -0.37956700653468134
1460000000.0 -0.3463031729749328 -0.032850800930496124
1480000000.0 -0.12701933490651612 0.2839325161739038
1500000000.0 -0.03539936020510633 0.2722225126843759
1520000000.0 -0.15704937741556088 0.1879552710634796
1540000000.0 0.21842904206465635 -0.004617176987518725
1560000000.0 -0.18620778730463441 0.02890857984534865
1580000000.0 0.14251752908778642 -0.08875662088427445
1600000000.0 0.0584130657052193 -0.12623977680676315
1620000000.0 -0.013217436844967855 -0.11320835068329457
1640000000.0 0.08410150110410372 -0.0328146936692454
1660000000.0 0.060836330121632164 0.03138544580507608
1680000000.0 0.044503843194102576 -0.02305497879432423
1700000000.0 0.019498286585796987 0.028815668567049126
1720000000.0 0.011107676442280723 0.010121268700280156
1740000000.0 0.005543302153712239 0.001025311475963563
1760000000.0 -0.011404187301826844 -0.026006741161355887
1780000000.0 -0.05196893828594748 0.034674129599961065
1800000000.0 0.03206084872705889 0.09338040550404828
1820000000.0 -0.020017021812642567 -0.13337750249200384
1840000000.0 0.13148870632901438 -0.11734231307613162
1860000000.0 0.028451157943056797 0.21169583564357805
1880000000.0 -0.1854684170647022 -0.17281555401321969
1900000000.0 0.28184381211439324 0.08572250539898962
1920000000.0 -0.3080492253976171 0.10359829026807701
1940000000.0 0.3160897988185262 0.1562442379694756
1960000000.0 0.05238781744328509 -0.3726160132765951
1980000000.0 -0.3849422195228494 -0.07323262125654806
2000000000.0 -0.3973517287874055 0.09491452558600369
2020000000.0 -0.13652476369887656 0.3985231781731397
2040000000.0 0.08662765404243153 0.4224827282880238
2060000000.0 0.43575568036510726 0.008336011121754503
2080000000.0 0.29076960613387626 -0.323915113866459
2100000000.0 -0.0405005976023749 -0.4274076628121801
2120000000.0 -0.2866295584097272 -0.3086568890918162
2140000000.0 -0.3983453319435273 -0.09709924672417339
2160000000.0 -0.1728303937130349 -0.356734480473826
2180000000.0 -0.35743513015281425 -0.1406684949055932
2200000000.0 -0.2911452095421492 0.23221030090699457
2220000000.0 0.035492405201172306 0.3599063116122292
2240000000.0 0.34644026578820425 0.08977761162226468
2260000000.0 0.3141743790832691 -0.17055350781852904
2280000000.0 0.049020531130535026 -0.3589869936115705
2300000000.0 -0.3714006189205499 0.0594737526005192
2320000000.0 0.09252552941816244 0.3868908555433427
2340000000.0 0.3714590339788467 -0.2147180788068119
2360000000.0 -0.45730654973776386 -0.10552292152367361
2380000000.0 0.45157103976884005 0.2517174475140242
2400000000.0 -0.555611358800115 -0.10939353929476897
2420000000.0 0.5368342356428344 -0.2991712521784285
2440000000.0 -0.24232760216888707 0.6109808312613711
2460000000.0 -0.20393343600272523 -0.6615307170176564
2480000000.0 0.40117672222761414 0.594620564088267
2500000000.0 -0.3444113870005345 -0.6458990903802881
2520000000.0 0.043040437539614444 0.7372227636696028
2540000000.0 0.41092903707673895 -0.6109739650288861
2560000000.0 -0.7277559064205027 0.020921809644512613
2580000000.0 0.2303839701927617 0.6729583216683244
2600000000.0 0.46818569687600675 -0.501408747908255
2620000000.0 -0.6066705868363758 -0.24559217792756474
2640000000.0 -0.6113944640233223 -0.0950606417276267
2660000000.0 0.19810237970942332 0.5378285530562511
2680000000.0 0.35576283644736667 -0.38875993843509193
2700000000.0 -0.4722065546019816 -0.08241526649298947
2720000000.0 0.2155421514347616 0.37406202723185666
2740000000.0 0.2897375784113422 -0.2574299563274325
2760000000.0 -0.33085376087434454 -0.1117403855952888
2780000000.0 0.05386777063856348 0.31687284030175167
2800000000.0 0.07001884904105661 -0.2929138047782402
2820000000.0 0.1559042217593548 0.2454581755847737
2840000000.0 -0.2829223857785918 -0.03694522445639956
2860000000.0 -0.025691125354558086 -0.2854870556338206
2880000000.0 0.2454200896110225 -0.1522692925732267
2900000000.0 0.10096767552525848 0.2725028094598391
2920000000.0 -0.13385392319692915 -0.2602202081063434
2940000000.0 -0.07219317275200171 0.28567676043891616
2960000000.0 0.2479149413633456 0.16116790863784242
2980000000.0 0.18190724045756815 0.2321949377427369
3000000000.0 -0.1288817254591309 0.26564528461740405
3020000000.0 -0.23025568091402324 -0.18401437295831388
3040000000.0 0.2834872679872589 0.07278529346345408
3060000000.0 -0.2800148118848209 -0.08987533951061719
3080000000.0 0.2855266628585971 0.06603485211793461
3100000000.0 -0.27602543591135964 -0.08989964701521323
3120000000.0 0.25071026561809745 -0.13880052391136508
3140000000.0 -0.028933137547337808 0.2782264694613332
3160000000.0 -0.23789501053725653 -0.1181536614419208
3180000000.0 0.14333942027885066 0.2051983457007628
3200000000.0 -0.15066773619441945 0.16945306872857913
3220000000.0 -0.19363009042833493 -0.04772461594025687
3240000000.0 0.07746698492711913 -0.1479885841919407
3260000000.0 0.0344654458331597 0.12866947867571682
3280000000.0 0.08806404946773794 -0.04770298022732138
3300000000.0 0.0666621947941669 0.02341367326650432
3320000000.0 -0.03576493252225645 -0.030829759637215827
3340000000.0 0.02747334479512752 0.00011760987360728397
3360000000.0 0.0027103256706776857 -0.012285456772798558
3380000000.0 0.006062452852341755 -0.0017548949397095989
3400000000.0 -0.004877050001641144 -0.01581741082542281
3420000000.0 0.014768602252178001 0.02455634189397566
3440000000.0 0.007893824702873926 0.038179685248288596
3460000000.0 0.032300620853516676 -0.036700476066525246
3480000000.0 0.02492363552083726 0.056029941363645204
3500000000.0 -0.02263468032761822 -0.07375314009833375
3520000000.0 -0.08466230333245141 0.03433237304452581
3540000000.0 0.09419555928375016 -0.04919473660407938
3560000000.0 -0.04753848057175251 0.11128602645588535
3580000000.0 -0.022881406992607278 -0.13331577754882573
3600000000.0 0.14931439728968 -0.02320405243609215
3620000000.0 0.1109965744907609 0.11742991469817492
3640000000.0 -0.15266563935082952 0.07847190565600938
3660000000.0 -0.12283816862816692 -0.133343410088948
3680000000.0 0.12068960862858524 -0.14285756478722444
3700000000.0 0.18461712031359898 -0.04281744969896302
3720000000.0 0.0746786656807423 0.17676239190138515
3740000000.0 -0.032381158114412445 0.18620989902107676
3760000000.0 -0.028401110114243604 -0.1834122037155088
3780000000.0 0.15936687468208452 0.07402970555772503
3800000000.0 -0.10070693479492325 -0.13257217878637753
3820000000.0 -0.11143372326454046 0.10829610969805384
3840000000.0 -0.14384805645523843 0.004453600353924452
3860000000.0 0.10505329754515771 0.09616501091974251
3880000000.0 -0.13728123544745235 0.056382246636187947
3900000000.0 -0.10888768377260483 0.11769190786202251
3920000000.0 0.07984366962491653 -0.14855114523175605
3940000000.0 0.1731813851577249 -0.02924578118323908
3960000000.0 0.16656939214712846 -0.07045560458479203
3980000000.0 -0.13469292817551248 -0.11858311750318684
4000000000.0 -0.16713149152120876 -0.030208788115417086
