!Created with skrf (http://scikit-rf.org).
# Hz S RI R 50.0 
!freq ReS11 ImS11
400000000.0 -0.6088564462187379 0.6206779375479117
420000000.0 0.5016916331407091 0.7128414469396136
440000000.0 0.5560348470761672 -0.6325447090187722
460000000.0 -0.45634570938645513 -0.6534438162494429
480000000.0 0.4316962984647338 -0.576792355202308
500000000.0 -0.5363155505896379 0.2461792381492836
520000000.0 0.48802124744432895 -0.10347708545843004
540000000.0 -0.02733355283973649 0.39749593391215843
560000000.0 -0.3159353165954813 0.1353348361610242
580000000.0 0.2179019079017841 -0.24020086986189923
600000000.0 -0.29492083901014843 -0.14632167546887045
620000000.0 0.2941368336893333 -0.17395506746828876
640000000.0 0.3402686668952985 -0.12518392667966347
660000000.0 0.37062212005571343 -0.07736298619142663
680000000.0 -0.1949737057686466 0.35433061488971807
700000000.0 0.08297592453816763 0.4067097827480039
720000000.0 0.41333983315495854 0.09388498468121716
740000000.0 -0.3382345223583294 0.25179091312495666
760000000.0 0.3876356757041819 0.12870888819994838
780000000.0 -0.3548464728869006 0.13695793730131164
800000000.0 0.3128424827350767 -0.1626077777362451
820000000.0 0.22820106005230312 0.2045204430856046
840000000.0 -0.24432947264921526 -0.09611521003792574
860000000.0 -0.15902763777717477 -0.14978829163052973
880000000.0 0.07939271171202195 0.1493461340974409
900000000.0 -0.040818217567243506 0.10334926959992442
920000000.0 0.047328841133006845 0.05221900431966395
940000000.0 -0.04305211336735145 -0.014338301020575612
960000000.0 -0.05045632803922391 -0.015818005868616866
980000000.0 -0.06560759021507404 -0.016525907751079517
1000000000.0 0.04478879517242503 0.06628266310772522
1020000000.0 0.06859248336286076 0.0663853338306057
1040000000.0 -0.06725913031861916 -0.08279363355282894
1060000000.0 -0.13988310598182968 0.026253240349647843
1080000000.0 0.0902445207676432 -0.13517870051906755
1100000000.0 -0.1810252538445013 -0.04981156399208534
1120000000.0 0.06919441681743987 0.19976024285265648
1140000000.0 0.24543104546965078 0.024168838587320888
1160000000.0 0.1798764980128002 -0.21123556645740352
1180000000.0 0.31322062201002326 0.03635952178468838
1200000000.0 0.2134052830838061 0.2675998289250244
1220000000.0 -0.3517263206563689 -0.11600921451235689
1240000000.0 0.2599642483851374 0.2911554251347817
1260000000.0 -0.012816893111772271 -0.4139201267591604
1280000000.0 -0.42706279116069945 -0.02830158109688
1300000000.0 0.317708179701408 0.3033571262313829
1320000000.0 0.424646753996697 0.11846899773131145
1340000000.0 0.43901260312327206 -0.03995742736641753
1360000000.0 0.44235158534616276 0.04728819625614371
1380000000.0 0.14335953772848634 -0.4188087776342128
1400000000.0 -0.4089564383401696 0.14937431114109037
1420000000.0 0.3928918556834167 0.135857720444145
1440000000.0 -0.12841352952150836 -0.36211127242537866
1460000000.0 -0.33679210485614225 0.08936573859304278
1480000000.0 -0.03392794936377157 0.3103790821237582
1500000000.0 0.04158780638921163 0.2731446874908804
1520000000.0 -0.1334241956070344 0.20815747173894605
1540000000.0 0.218305582460085 -0.03309316779339478
1560000000.0 -0.190381994257981 0.010080787703789404
1580000000.0 0.16943457483968483 -0.013618389370500953
1600000000.0 0.11113439423248413 -0.08643571499631088
1620000000.0 0.08197220711290656 -0.08113402155473061
1640000000.0 0.04571847475055195 0.07845858303906257
1660000000.0 -0.041480729517284425 0.053873468773786515
1680000000.0 0.04365157116332957 0.021029753661967358
1700000000.0 -0.003967022301146715 0.033469069009692314
1720000000.0 0.012131082920605002 -0.006505441412607537
1740000000.0 -0.007060635461447724 -6.180432680888263e-05
1760000000.0 0.003430423296919283 0.029183431647556428
1780000000.0 -0.026652797239882817 -0.05663609164169852
1800000000.0 -0.055334776908865034 0.08137587439217767
1820000000.0 0.06923677425953961 -0.11495463775465048
1840000000.0 0.17074061683882027 -0.038705670587707394
1860000000.0 -0.008959357253192284 0.2122706813107714
1880000000.0 -0.15446062724745682 -0.19909661029691925
1900000000.0 0.28055959759241067 0.08708063605487056
1920000000.0 -0.29938795132023055 0.12384371594639122
1940000000.0 0.3315315340029819 0.11958350585325277
1960000000.0 -0.00726906325750976 -0.375805118284812
1980000000.0 -0.3920573260387207 -0.0035528821683349214
2000000000.0 -0.36318648936209974 0.18879508558814637
2020000000.0 -0.06262552743921888 0.41802882852523066
2040000000.0 0.10175776150170543 0.4208353328722284
2060000000.0 0.4372343491810984 -0.0030526772912903752
2080000000.0 0.2755918701126519 -0.33920572047449227
2100000000.0 -0.022107024645319124 -0.4305041987584883
2120000000.0 -0.28540036094971727 -0.3120184407865635
2140000000.0 -0.397032957432753 -0.10795421401095828
2160000000.0 -0.11598719043596727 -0.3802492038096045
2180000000.0 -0.3150862593530626 -0.21983770220616825
2200000000.0 -0.3316709996080123 0.16984420379372142
2220000000.0 -0.02118820639329372 0.36135317966861363
2240000000.0 0.32619649062136274 0.14622192744990398
2260000000.0 0.33768783240347194 -0.11683622673942996
2280000000.0 0.07177226140487102 -0.3551675371031109
2300000000.0 -0.3722686084253763 0.05012063970745365
2320000000.0 0.09611491712901839 0.38563432204724835
2340000000.0 0.3601242831663668 -0.233141673360253
2360000000.0 -0.4621133065117269 -0.08115874765394111
2380000000.0 0.476309292412127 0.20163405957254138
2400000000.0 -0.5562482549059564 -0.10811910938343756
2420000000.0 0.5327454585346628 -0.3072844699189067
2440000000.0 -0.20722139188315908 0.6242711780421436
2460000000.0 -0.23247465871319442 -0.6524276653754135
2480000000.0 0.4576641395020199 0.552932621958513
2500000000.0 -0.3584082362104277 -0.6384369989911465
2520000000.0 0.02795657012576001 0.7384695215791579
2540000000.0 0.45695081976990776 -0.5779089669960731
2560000000.0 -0.7277234385067025 -0.006294133168355008
2580000000.0 0.2137814017827514 0.6777123739960255
2600000000.0 0.5112451548433937 -0.4555129639190239
2620000000.0 -0.6068773871582146 -0.24295351538262727
2640000000.0 -0.614387634739135 -0.06473208677353073
2660000000.0 0.17658150808494458 0.5449809811977747
2680000000.0 0.33177523565868383 -0.4091776148233483
2700000000.0 -0.47378472899881674 -0.07212749621918021
2720000000.0 0.21597270653814168 0.37332058934605733
2740000000.0 0.29242582387332355 -0.253400907664722
2760000000.0 -0.32608222961068867 -0.12348969444914536
2780000000.0 0.04344866021897448 0.31869254151571064
2800000000.0 0.07431793107099005 -0.291912547319188
2820000000.0 0.14542484532829356 0.2515280946430047
2840000000.0 -0.2821206162156628 -0.04221234163013185
2860000000.0 -0.013823482898205739 -0.28617403170417616
2880000000.0 0.2401755076127781 -0.16038562842856105
2900000000.0 0.11998281657209715 0.2650240493322532
2920000000.0 -0.12252562990436354 -0.266569431785133
2940000000.0 -0.09751165204638385 0.2794910466299108
2960000000.0 0.2635960842185897 0.13484161414209722
2980000000.0 0.20583848755385573 0.2128592579169814
3000000000.0 -0.13900500366037782 0.26054675603572275
3020000000.0 -0.24328868020110558 -0.1675789474513218
3040000000.0 0.2781182932234035 0.09273573663224038
3060000000.0 -0.2580102700270081 -0.14187941677651178
3080000000.0 0.26340025512835885 0.1287059635053595
3100000000.0 -0.2610710874983856 -0.128239524452728
3120000000.0 0.27015004684048033 -0.09788739033960789
3140000000.0 -0.08392909216342263 0.26696303448629255
3160000000.0 -0.19614027332150666 -0.17991093061023528
3180000000.0 0.1331870417537678 0.21231167024216632
3200000000.0 -0.15234851735674135 0.1673214118598207
3220000000.0 -0.19532613338806232 -0.03516175707051999
3240000000.0 0.037433406364898544 -0.1626739994326756
3260000000.0 0.05426056125223247 0.12096534250264308
3280000000.0 0.06563294676478482 -0.07421161055256228
3300000000.0 0.06218210396515683 -0.03267522355334011
3320000000.0 -0.027637647328094442 0.037387295541673186
3340000000.0 -0.02596198216839774 0.002752053158522098
3360000000.0 -0.0005327403049904323 -0.01119814037323403
3380000000.0 -0.0010709553486124971 0.005179164349380866
3400000000.0 -0.012207067487246528 0.010307794247641678
3420000000.0 -0.018835259149474273 0.02096589428105803
3440000000.0 -0.03415160154366258 -0.017718010641556193
3460000000.0 0.036123064631291904 0.03257704765462657
3480000000.0 -0.025319257835021796 0.0563896206169088
3500000000.0 0.07628421845584782 0.005758696144007583
3520000000.0 -0.05279567401134702 -0.07397951347070905
3540000000.0 0.09913446193249797 0.03705354882091579
3560000000.0 -0.11732420270376935 0.025414773492306465
3580000000.0 0.11052934984454614 -0.07445257350416865
3600000000.0 0.1371354641059042 0.05999133620501052
3620000000.0 0.047130044068782455 0.15351179629379166
3640000000.0 -0.16489636881885794 0.04173028158591078
3660000000.0 -0.058544246911971125 -0.1700954378357893
3680000000.0 0.14577630484839613 -0.11395695590611228
3700000000.0 0.186458972421318 -0.01826271603934828
3720000000.0 0.08014593016734262 0.17190792683994582
3740000000.0 -0.04490256812498154 0.18126556332232002
3760000000.0 -0.05250738840535319 -0.17538553074887409
3780000000.0 0.1738323969992092 0.00311878969201108
3800000000.0 -0.14622764867990656 -0.07708863780079621
3820000000.0 -0.02638802144900867 0.1523267280909643
3840000000.0 -0.09522233491606537 0.10627693200516966
3860000000.0 0.14072735405662268 -0.0038144324724529183
3880000000.0 -0.051429874757889044 0.13710506687141574
3900000000.0 0.03744752459344191 0.15374602340964996
3920000000.0 -0.04788503931611987 -0.1603083149447985
3940000000.0 0.11603333180919645 -0.13046879732134867
3960000000.0 0.07168417845744067 -0.1647169965838179
3980000000.0 -0.16974203644388655 0.05692122721477238
4000000000.0 -0.08793617048723731 0.14493523727752883
