!Created with skrf (http://scikit-rf.org).
# Hz S RI R 50.0 
!freq ReS11 ImS11
400000000.0 -0.6189523643279234 0.6153313841438734
420000000.0 0.47661537992975045 0.7318296592508832
440000000.0 0.5675881317902144 -0.6227459690767104
460000000.0 -0.41451197704210224 -0.6813498633326194
480000000.0 0.48373326356141794 -0.5344010956789345
500000000.0 -0.5344590369169158 0.2507556136529039
520000000.0 0.48836745173931995 -0.10107078321413317
540000000.0 -0.055756540532159456 0.3944652879759912
560000000.0 -0.31790026684640665 0.13127690361008748
580000000.0 0.21208420771701783 -0.24535322211909294
600000000.0 -0.28336327693960717 -0.16710887136730762
620000000.0 0.31858581905753 -0.12151992579071279
640000000.0 0.3322987588280875 -0.14199607625173755
660000000.0 0.3625673308000717 -0.10685627482647594
680000000.0 -0.18019042881161818 0.3613108796774728
700000000.0 0.12068249884718925 0.3968873840616887
720000000.0 0.41292966469652237 0.09454601305369016
740000000.0 -0.3113205959102095 0.28433617527888105
760000000.0 0.3974929120158155 0.09467997442964672
780000000.0 -0.350550162276765 0.14947282712473328
800000000.0 0.3159481292402673 -0.15775551534799498
820000000.0 0.21454754788953775 0.21923850781093943
840000000.0 -0.23963720201117755 -0.10721784700984187
860000000.0 -0.12975506838447456 -0.17595407153292775
880000000.0 0.02947353467679336 0.1661877056694877
900000000.0 -0.09221019074355945 0.05998658501297969
920000000.0 0.06862855151579447 0.005859397538107169
940000000.0 0.0022631917067607336 0.04527081279314383
960000000.0 -0.037603425107836576 0.0386732198999791
980000000.0 -0.06682716291220317 -0.01802866901568884
1000000000.0 0.016868110079245706 0.0793410655577949
1020000000.0 0.026189421559404368 0.09272060364277306
1040000000.0 -0.013286208366232073 -0.10627629748473527
1060000000.0 -0.1293290165835264 -0.05957350800179392
1080000000.0 0.14706289156065142 -0.06768439694711405
1100000000.0 -0.12238960725266675 -0.1408765045921401
1120000000.0 -0.011362349967373878 0.20908528535646376
1140000000.0 0.24286041113196474 0.02636337774158769
1160000000.0 0.1221405215067526 -0.24679592751026685
1180000000.0 0.30879770795194983 -0.05340484690587567
1200000000.0 0.2789414983825431 0.1954487532757038
1220000000.0 -0.36875536463943626 -0.011026047669064584
1240000000.0 0.3273067783788498 0.2107690187994014
1260000000.0 -0.11954390329030715 -0.39598185356817167
1280000000.0 -0.42435982558558144 0.052922506255464255
1300000000.0 0.34001265059885677 0.278591718867841
1320000000.0 0.43201396716272944 0.0907361635045596
1340000000.0 0.4373521533104531 -0.059468209182263955
1360000000.0 0.44337759642398283 0.046643703640545424
1380000000.0 0.16159338873462398 -0.41299900524153865
1400000000.0 -0.42037867324535044 0.11622415590532922
1420000000.0 0.3808612071103446 0.16807314360389666
1440000000.0 -0.07991613047474054 -0.37629493281494725
1460000000.0 -0.34832953223099095 0.012256531753014685
1480000000.0 -0.08618890954428571 0.300046269707346
1500000000.0 -0.016879380584052847 0.2751711647927532
1520000000.0 -0.1326504342119065 0.20746162253328052
1540000000.0 0.21951822931884193 -0.0004413193058610636
1560000000.0 -0.18947807962462654 -0.005946638244689748
1580000000.0 0.16606743531099152 -0.02732020340522169
1600000000.0 0.11703596897281406 -0.07554088554540711
1620000000.0 0.05514593015266587 -0.09950577579326414
1640000000.0 0.08682407722491986 0.023275359337249127
1660000000.0 0.03483790606426729 0.057894339092090456
1680000000.0 0.03355908567988417 -0.03524943085659048
1700000000.0 0.0309563093100686 0.014337243392007431
1720000000.0 0.007220767196493682 -0.01330651258862513
1740000000.0 0.0007830606542476292 -0.005914819112053633
1760000000.0 0.02695697702042758 0.00853072161255457
1780000000.0 -0.059206497503136966 0.016798114282030537
1800000000.0 0.030690663800373826 0.09275189216622132
1820000000.0 -0.0015927796116468938 -0.13378041396748905
1840000000.0 0.13569909690934495 -0.10999051568840774
1860000000.0 0.04952955861025659 0.20683582701044675
1880000000.0 -0.1875000790644472 -0.1687791706605836
1900000000.0 0.29010892666877575 0.048456490821290644
1920000000.0 -0.29000785651824695 0.1458784296988425
1940000000.0 0.32844580688168906 0.12992081509355513
1960000000.0 0.020965065762880777 -0.376047965607522
1980000000.0 -0.3896816881864776 -0.04592937409999085
2000000000.0 -0.3873827169462566 0.13076248423457293
2020000000.0 -0.11502937471400428 0.40640251005710953
2040000000.0 0.04325138811180369 0.4304535974516566
2060000000.0 0.43324544484462757 0.0534542470322469
2080000000.0 0.3463765030631098 -0.2645090909160802
2100000000.0 -0.008896021406243017 -0.4297156505385718
2120000000.0 -0.27242330359302175 -0.3213586939235153
2140000000.0 -0.39593395964455924 -0.10806366198286604
2160000000.0 -0.16153460034338213 -0.3622094859171175
2180000000.0 -0.3419678429529957 -0.17369985534164611
2200000000.0 -0.3088881824282299 0.20772018446637788
2220000000.0 0.027450673126593987 0.3602717272784756
2240000000.0 0.32675150762776617 0.1442935279990061
2260000000.0 0.3210119510349729 -0.15619452045787885
2280000000.0 0.07131795950651441 -0.3547106516751975
2300000000.0 -0.37341284521732315 0.035057155412224726
2320000000.0 0.12047525932673242 0.37862803880598606
2340000000.0 0.37130844153592923 -0.2133690265445002
2360000000.0 -0.46229326110089186 -0.07704128237045917
2380000000.0 0.4757840631771785 0.20218189508768036
2400000000.0 -0.5622719677999635 -0.06997100386441313
2420000000.0 0.5230926378261559 -0.3235101713572058
2440000000.0 -0.2183217361926628 0.6208898686092401
2460000000.0 -0.2008535444258892 -0.6633257082779478
2480000000.0 0.43819382214862196 0.5687178613222131
2500000000.0 -0.264890511084597 -0.6838378076706828
2520000000.0 0.014737356849310128 0.7390413408972943
2540000000.0 0.4544507895096003 -0.58028820780985
2560000000.0 -0.7271301776904355 -0.04012195982548348
2580000000.0 0.22375154061492197 0.6745995863761525
2600000000.0 0.5137081140801611 -0.45371404306507973
2620000000.0 -0.574892340590751 -0.31078570756280494
2640000000.0 -0.6096380396668495 -0.09863174933445983
2660000000.0 0.1951092083267284 0.5387259458887221
2680000000.0 0.33966740307703197 -0.4024084715459835
2700000000.0 -0.47752238230053323 -0.04152902112800785
2720000000.0 0.22894082303895427 0.3659999215633102
2740000000.0 0.28921120058384914 -0.25738229836012877
2760000000.0 -0.3274201151602867 -0.12119441229087143
2780000000.0 0.05976615337015303 0.31617508867261096
2800000000.0 0.05236861264169896 -0.2966042143764591
2820000000.0 0.1455659279739597 0.25169335917539326
2840000000.0 -0.28009212306701237 -0.05653514426795626
2860000000.0 -0.016715108912856647 -0.28637054824704405
2880000000.0 0.2563187538923405 -0.13342084071529725
2900000000.0 0.0777251557663853 0.28058856211178873
2920000000.0 -0.08344107896845274 -0.28101852904222846
2940000000.0 -0.09923982642593261 0.2780795160366236
2960000000.0 0.253066199999768 0.15314537476443515
2980000000.0 0.2142323799087595 0.2045660317777615
3000000000.0 -0.13377963020401173 0.26350330273645517
3020000000.0 -0.24326689471782093 -0.16698592002253002
3040000000.0 0.27146429832782826 0.1092866232740498
3060000000.0 -0.2667245265118048 -0.12285594825261881
3080000000.0 0.2760797454248281 0.09822411980593575
3100000000.0 -0.27716771644183075 -0.0853860212109489
3120000000.0 0.2712041920343044 -0.09295773446612692
3140000000.0 -0.07220513832936518 0.27017352985569293
3160000000.0 -0.205389514226836 -0.16890383232385678
3180000000.0 0.16469124816354985 0.18870047358344316
3200000000.0 -0.13418697253477102 0.18279598518449985
3220000000.0 -0.19833696520075927 -0.014853048125727625
3240000000.0 0.016519169411217734 -0.16614745035440587
3260000000.0 0.07729406905609115 0.10854377120168333
3280000000.0 0.07068017012305726 -0.07131042957854442
3300000000.0 0.05636860439117721 -0.0433798840505016
3320000000.0 -0.035005440735877594 0.031167758764823084
3340000000.0 -0.02635020592066078 0.005838594814156917
3360000000.0 -0.011211076401215008 0.00048169468494773076
3380000000.0 0.0046996023143635705 0.0010357276297458925
3400000000.0 0.014349670457754255 0.007461731010432247
3420000000.0 0.004373885051942073 0.027629884219978484
3440000000.0 -0.028148088630460137 0.026173687383425612
3460000000.0 0.04232700802215669 0.023531469087476695
3480000000.0 -0.023085760864146748 0.05702515129143228
3500000000.0 0.06901770430764984 -0.03163241670282876
3520000000.0 0.0027628311586904448 -0.09006020989855382
3540000000.0 0.0776714052141784 0.07075046567965661
3560000000.0 -0.11918589759741986 -0.009926306348862353
3580000000.0 0.10512910180409686 -0.08262858347825124
3600000000.0 0.13107684037740597 0.07279280807166726
3620000000.0 0.04468600923693605 0.1543450302598525
3640000000.0 -0.16245270997346775 0.04883601455908793
3660000000.0 -0.09228193644737401 -0.15411428811794697
3680000000.0 0.11100633373619716 -0.14801260059136706
3700000000.0 0.17997298466841521 -0.053487986976868594
3720000000.0 0.09867286367979579 0.1621196903339968
3740000000.0 0.013774660938158116 0.18615503029461705
3760000000.0 -0.08201691479585145 -0.16399640231085394
3780000000.0 0.17430431030756502 0.004991018708281751
3800000000.0 -0.14873902466293684 -0.07260096894241909
3820000000.0 -0.028387117173054192 0.1523917781148931
3840000000.0 -0.1105296705046621 0.09078610294407406
3860000000.0 0.13193198854317326 0.05066586625578801
3880000000.0 -0.0999948827092087 0.10804741626949904
3900000000.0 -0.04974595099693198 0.15084573364328818
3920000000.0 -0.013186521251069108 -0.167099322725862
3940000000.0 0.1573497301934382 -0.07665057847686797
3960000000.0 0.11087139511881246 -0.1421972676174732
3980000000.0 -0.1784270520483791 -0.02321237273145361
4000000000.0 -0.11133614624589247 0.13010349121598658
