!Created with skrf (http://scikit-rf.org).
# Hz S RI R 50.0 
!freq ReS11 ImS11
400000000.0 -0.5859594770548664 0.6466140654759224
420000000.0 0.5075183756189033 0.710485543620069
440000000.0 0.5384493334127047 -0.6484533056337659
460000000.0 -0.42497670557266576 -0.6743418911395996
480000000.0 0.4717152403399547 -0.5454555143586991
500000000.0 -0.5356955627480761 0.24936651724748357
520000000.0 0.4841214575349435 -0.11826976331969134
540000000.0 -0.05789021053945817 0.3943557845393516
560000000.0 -0.31701544731341885 0.1331789729932387
580000000.0 0.216308241893359 -0.24119503149438482
600000000.0 -0.2734522512285711 -0.18122469941997021
620000000.0 0.31422257977569096 -0.13281186226285116
640000000.0 0.3143866090932303 -0.17866148315378752
660000000.0 0.3551121057274375 -0.12826911703534455
680000000.0 -0.14108687027861716 0.3785771816796515
700000000.0 0.1651326833078256 0.38073660016451455
720000000.0 0.42127181207466013 0.048090800059583785
740000000.0 -0.2870219707797795 0.3080563895271944
760000000.0 0.3989739524067616 0.09085135753185311
780000000.0 -0.35149780363213656 0.14788086716968318
800000000.0 0.3225870338784912 -0.14376648921099539
820000000.0 0.19394980423350558 0.23802975201190793
840000000.0 -0.21849990754320842 -0.14548399245610127
860000000.0 -0.09611015138547685 -0.1957155965696932
880000000.0 0.008790322443792178 0.16755922904231704
900000000.0 -0.06957547052637923 0.08416773428653494
920000000.0 0.06772579025017174 -0.010512212330561061
940000000.0 0.027553629247986256 0.03649277212500753
960000000.0 -0.012002117844574667 0.053098089343397596
980000000.0 -0.06714834810835807 -0.018725635954061157
1000000000.0 -0.006074679814259273 0.08142112562936732
1020000000.0 -0.01795215473325678 0.09506447198766564
1040000000.0 0.03456163432226531 -0.10135319160402369
1060000000.0 -0.11710819226720967 -0.07984315238290797
1080000000.0 0.15284228498678082 -0.05035164568669657
1100000000.0 -0.1515542361248776 -0.10709187314550345
1120000000.0 0.03913053732984588 0.20501019033897064
1140000000.0 0.24351340819179476 -0.012189474498974201
1160000000.0 0.10478794755888467 -0.25405034502726553
1180000000.0 0.30398846430523163 -0.07518820823086848
1200000000.0 0.299096048629388 0.1626157680051355
1220000000.0 -0.3673672627337602 0.036680747099088154
1240000000.0 0.35488704355459516 0.16181480017197625
1260000000.0 -0.13874743666649247 -0.3903679903085015
1280000000.0 -0.42185671230670435 0.07485768030528565
1300000000.0 0.3451829847174023 0.2728378137195306
1320000000.0 0.4366304929696633 0.06826592861920891
1340000000.0 0.43843640500499687 -0.05486695299508361
1360000000.0 0.44240981161778276 0.05599855531258549
1380000000.0 0.17551554237828965 -0.4071813135822301
1400000000.0 -0.42454556230543183 0.09851914394663629
1420000000.0 0.3698099861140162 0.18963633940947272
1440000000.0 -0.06662564840375122 -0.3779386806408183
1460000000.0 -0.347325333468464 0.015258546615310438
1480000000.0 -0.06862901775764457 0.30356151383497
1500000000.0 -0.0152308083172726 0.27434980603124504
1520000000.0 -0.15483112467812868 0.1901046452060614
1540000000.0 0.21901386421249966 0.00895634246953373
1560000000.0 -0.1852346896090643 0.0362503398600282
1580000000.0 0.14972931640434659 -0.07647370270387398
1600000000.0 0.056142108172122965 -0.12736862938687224
1620000000.0 -0.005045356685432365 -0.1142391029173195
1640000000.0 0.08858065700310797 -0.019791243789174084
1660000000.0 0.04317670597394967 0.05334917935666865
1680000000.0 0.03782331187617527 -0.031870839396096265
1700000000.0 0.011022841675688335 0.033043289126928214
1720000000.0 -0.008743625472562971 0.012212536338793132
1740000000.0 0.005638178391606293 7.689345126890324e-05
1760000000.0 0.02214368828749678 -0.017666532639049257
1780000000.0 -0.06161405173219239 0.00934637150273571
1800000000.0 0.023042419516012217 0.09599783542940316
1820000000.0 0.0014812936048841313 -0.13483763411156557
1840000000.0 0.1501879967443808 -0.09170599633447707
1860000000.0 0.018324425691611065 0.21268863629682336
1880000000.0 -0.16697772069830444 -0.19007531457148252
1900000000.0 0.2808641574216387 0.08893875479431938
1920000000.0 -0.30987358052641156 0.09641219902175717
1940000000.0 0.31369662379725244 0.16146839896769188
1960000000.0 0.04377412003709469 -0.37340904380205386
1980000000.0 -0.3886493088502975 -0.04884915207142477
2000000000.0 -0.3850164585797869 0.13678635816776327
2020000000.0 -0.1202059277273863 0.4042897525827596
2040000000.0 0.13384319836825376 0.4102778127694974
2060000000.0 0.435202111317601 0.027182121635653846
2080000000.0 0.2699164968459844 -0.34159681549882465
2100000000.0 -0.06632661730816687 -0.4245052681695872
2120000000.0 -0.32771973535454685 -0.26478958583192735
2140000000.0 -0.4052468077902523 -0.06518674554085066
2160000000.0 -0.16954027098387153 -0.3584995324785475
2180000000.0 -0.34949753301626973 -0.1581471777792751
2200000000.0 -0.2948446846821148 0.22748826140942396
2220000000.0 0.056067235034787874 0.35765251790369523
2240000000.0 0.34636566494486787 0.09109288860803998
2260000000.0 0.3248171647588019 -0.14986885975074807
2280000000.0 0.0435703821840039 -0.36011541195274993
2300000000.0 -0.3722022099512106 0.05468255860278786
2320000000.0 0.10024009735105781 0.38525562301524896
2340000000.0 0.3724523807660636 -0.21370851643977842
2360000000.0 -0.45511107416318053 -0.11531353249847742
2380000000.0 0.4485493783539221 0.257626109406016
2400000000.0 -0.5529352130249222 -0.12275261686192859
2420000000.0 0.5291515972707943 -0.31179111968329687
2440000000.0 -0.2400574765737815 0.6116621255261564
2460000000.0 -0.21375273303215228 -0.6577711037865676
2480000000.0 0.45176576077877695 0.5560608358075597
2500000000.0 -0.37569519119652645 -0.6270548037449359
2520000000.0 0.07929907505877795 0.7335513021367683
2540000000.0 0.39059558050330534 -0.623448478544795
2560000000.0 -0.7244654859074525 0.06386376629704069
2580000000.0 0.2655829655170855 0.6588801344285492
2600000000.0 0.4681193358212249 -0.4996884555745007
2620000000.0 -0.6233539360220934 -0.19846854957045876
2640000000.0 -0.6129965155100826 -0.08026925764847304
2660000000.0 0.2279134845328203 0.5263569614338288
2680000000.0 0.30215541519707334 -0.43258344052356235
2700000000.0 -0.47798243811775454 -0.04617280780237334
2720000000.0 0.2142607088350681 0.3753402102654923
2740000000.0 0.3059026610246889 -0.23833395095759982
2760000000.0 -0.31725164162575115 -0.14641152943310526
2780000000.0 0.00543442080676161 0.3219644671369054
2800000000.0 0.12257649349514824 -0.27539376641034824
2820000000.0 0.10834374616608754 0.2697475484642438
2840000000.0 -0.2754656582302185 -0.07197138631046836
2860000000.0 0.014743595219703235 -0.2852332448540806
2880000000.0 0.23299951496801946 -0.16857894909425744
2900000000.0 0.14027742064221166 0.25367923550776755
2920000000.0 -0.16321165097922483 -0.2422400994919861
2940000000.0 0.0016175569102364002 0.2945654813038123
2960000000.0 0.28557603788586544 0.0756936711445098
2980000000.0 0.25097421441303197 0.1563467832248329
3000000000.0 -0.07665452713569298 0.2860470813774826
3020000000.0 -0.26070617364336407 -0.13929146118085328
3040000000.0 0.29395380725589637 0.0028689326951042236
3060000000.0 -0.2880843863651992 -0.06523000020534864
3080000000.0 0.291327686623235 0.03685574919804361
3100000000.0 -0.2880542759407752 -0.04610043000564589
3120000000.0 0.26144261253355083 -0.12149213617887593
3140000000.0 -0.05051837912441645 0.27641559014975214
3160000000.0 -0.20519721927587511 -0.17045483116042418
3180000000.0 0.12053332886875627 0.22054835915056228
3200000000.0 -0.1605291793960425 0.1612436873346353
3220000000.0 -0.19349368620752302 -0.049178837838916245
3240000000.0 0.06532438078528463 -0.15420168925257252
3260000000.0 0.007297217908459294 0.13298045036156714
3280000000.0 0.0993700546955985 -0.0087010939610461
3300000000.0 0.06344098127060303 0.031083641953209822
3320000000.0 -0.04457156657258753 -0.013337259735996799
3340000000.0 0.019604429174493777 -0.017399648168548804
3360000000.0 -0.011271427773988825 0.002887568767571137
3380000000.0 -0.004465323018267208 0.004133232924049515
3400000000.0 0.01586286009157415 -0.0049895598752583235
3420000000.0 0.0215140383327292 0.019033073104109947
3440000000.0 -0.010338101994044587 0.037693654181803836
3460000000.0 0.04480598984950482 -0.020383520174866304
3480000000.0 0.007590521808892634 0.06165988577606438
3500000000.0 0.03290935877804995 -0.0700570524256407
3520000000.0 -0.09133216239373332 -0.008240766203294671
3540000000.0 0.10378215488584987 0.022446505386379267
3560000000.0 -0.09587623941102853 0.07378419775207573
3580000000.0 0.05907807639122511 -0.12081537743153208
3600000000.0 0.1500057953099339 0.015315289035373289
3620000000.0 0.08543323979337952 0.1373374700647991
3640000000.0 -0.152482315905187 0.07834583626875354
3660000000.0 -0.08324787165224415 -0.1602107888415604
3680000000.0 0.1326008485255591 -0.130687420781002
3700000000.0 0.1863642189169172 -0.028727001115453517
3720000000.0 0.08865820270266389 0.168909516113009
3740000000.0 -0.04754903276161409 0.18165536919856964
3760000000.0 -0.03696524895091085 -0.1804519556807239
3780000000.0 0.1719797270425407 0.031782460519604844
3800000000.0 -0.12539989336831395 -0.10881860022701066
3820000000.0 -0.060489683876521705 0.14305078097910942
3840000000.0 -0.12517775818931104 0.07037424582112323
3860000000.0 0.1364769882510054 0.0380703662200014
3880000000.0 -0.09615876317264958 0.11179438789116862
3900000000.0 -0.0026238966985411075 0.15919203655836428
3920000000.0 0.004588103297407976 -0.16820022625590347
3940000000.0 0.1551683590578757 -0.08217535309667685
3960000000.0 0.14438888341111578 -0.10859790176216705
3980000000.0 -0.1685594764830281 -0.06253129706614426
4000000000.0 -0.16822327766525175 0.02159407950324022
