!Created with skrf (http://scikit-rf.org).
# Hz S RI R 50.0 
!freq ReS11 ImS11
400000000.0 -0.5871835559732638 0.6437370286650128
420000000.0 0.49076681244966497 0.7219320185941134
440000000.0 0.5828789993685385 -0.6098150032908719
460000000.0 -0.4288852269945324 -0.6717712790932547
480000000.0 0.4504512644843689 -0.5626356739122556
500000000.0 -0.5265737699294631 0.26688641380480627
520000000.0 0.49020931254426314 -0.08767358918289736
540000000.0 -0.043092844112219794 0.3965847333698717
560000000.0 -0.31614053338468023 0.1366512472189201
580000000.0 0.21931891317233732 -0.23802460941000383
600000000.0 -0.25269447994486965 -0.21076828941447015
620000000.0 0.31247764591046995 -0.13968403210642946
640000000.0 0.3369586283840928 -0.1300672957729111
660000000.0 0.34895063471890775 -0.14282925350455247
680000000.0 -0.13292507870393197 0.3810765689361736
700000000.0 0.1383847786117825 0.39118026795673144
720000000.0 0.42189888501611844 0.04224688876664926
740000000.0 -0.2953734568654417 0.2999897787110263
760000000.0 0.39819399585568604 0.09081318286747755
780000000.0 -0.33530972427447586 0.18058683577176107
800000000.0 0.3090648513627967 -0.1712447955133471
820000000.0 0.1942287398736294 0.23769680281924405
840000000.0 -0.21886864999752986 -0.14484949322774993
860000000.0 -0.10611043862202131 -0.19092103753021727
880000000.0 0.009291499756651401 0.1680018023069873
900000000.0 -0.08972664534338101 0.06277199494892341
920000000.0 0.06031251286124526 0.03255223309921031
940000000.0 0.030506962441710268 0.033514821323766916
960000000.0 0.011667622056120389 0.05315733166307693
980000000.0 -0.06918509896814687 0.007831977057868426
1000000000.0 0.0029172039296836236 0.08151623329309687
1020000000.0 -0.004443842757475808 0.09647816517939149
1040000000.0 0.018281249023632623 -0.1055052047708529
1060000000.0 -0.1184037498819961 -0.07792897369575998
1080000000.0 0.15266502316875522 -0.05202798479907148
1100000000.0 -0.13442592864927885 -0.12881545889167595
1120000000.0 0.00315440603568254 0.20864749716266384
1140000000.0 0.2388660324553747 0.047349419151183646
1160000000.0 0.14702495634775184 -0.23134249137372873
1180000000.0 0.30176325752747 -0.08194582915125244
1200000000.0 0.2879296439050273 0.18114139058452536
1220000000.0 -0.3678381408208623 0.03257889254060493
1240000000.0 0.34328358004574455 0.1848279743450479
1260000000.0 -0.14790618646656853 -0.38695024010879414
1280000000.0 -0.42167444345887545 0.0743353348535776
1300000000.0 0.36332493097478297 0.24824229507902487
1320000000.0 0.43567801736174916 0.0735686532051244
1340000000.0 0.43637044581234347 -0.06946142635382174
1360000000.0 0.44420618702035547 0.04079789061658894
1380000000.0 0.18989850414009893 -0.4008214705987112
1400000000.0 -0.42516203913801814 0.09676870430241981
1420000000.0 0.37086711069317196 0.18837572222036722
1440000000.0 -0.053229458660069326 -0.3802398428974679
1460000000.0 -0.3467994199796746 -0.026080127377201234
1480000000.0 -0.12787778213076137 0.2834338124338621
1500000000.0 -0.050966162858385594 0.26977331736553295
1520000000.0 -0.17352917540619442 0.1732148431793585
1540000000.0 0.217781146843394 -0.019357710422339577
1560000000.0 -0.18668378523582568 0.026715769584097073
1580000000.0 0.1507217469633614 -0.07414727732274973
1600000000.0 0.039439166431370534 -0.13344309596278356
1620000000.0 -0.025159870116027213 -0.11137589691350255
1640000000.0 0.08866538139682453 -0.01773335666862342
1660000000.0 0.04571645548948205 0.05047175304886078
1680000000.0 0.018999401800713255 -0.046421536817375576
1700000000.0 0.02370635925771264 0.02582461587241843
1720000000.0 0.0076383237636650815 0.012906839815806153
1740000000.0 -0.005650636221843231 -0.001526975926075245
1760000000.0 0.02375566335701983 -0.015845762748131893
1780000000.0 -0.05818044714549478 0.022975511988761604
1800000000.0 0.02607670901832337 0.09509901529495333
1820000000.0 -0.01198702136211558 -0.13452191830221533
1840000000.0 0.13908621136544383 -0.10786449989672589
1860000000.0 0.024533127660116963 0.21194764210599912
1880000000.0 -0.18172973390828248 -0.17621556373637826
1900000000.0 0.28506395354991854 0.07326581496434888
1920000000.0 -0.3046541486145837 0.11231621088445382
1940000000.0 0.3184907872369571 0.15188565072544596
1960000000.0 0.031792080504931146 -0.3748840857753373
1980000000.0 -0.3876461605936162 -0.05737475950109732
2000000000.0 -0.3845545820569822 0.13712350678711924
2020000000.0 -0.11099304425161298 0.4067347707669776
2040000000.0 0.06643156702815756 0.4267387939120368
2060000000.0 0.4358573775464321 0.01407196094875415
2080000000.0 0.30209380177674966 -0.3137613560426248
2100000000.0 -0.03311142639419873 -0.42828731234564527
2120000000.0 -0.26104372658216096 -0.3307580318728433
2140000000.0 -0.3937498296848123 -0.11428377966475858
2160000000.0 -0.1573061775212097 -0.36374617362123784
2180000000.0 -0.3508589793681668 -0.15605103012015478
2200000000.0 -0.2993686948032222 0.22106497831250424
2220000000.0 0.03049689835963718 0.3602634868679925
2240000000.0 0.34710101423869905 0.08588919688317279
2260000000.0 0.3079940113973897 -0.18152893834880793
2280000000.0 0.0296094072462579 -0.3611599273656019
2300000000.0 -0.3697957870434489 0.06869106939494045
2320000000.0 0.11182259707405356 0.38194121889979843
2340000000.0 0.3598141726679717 -0.2340910576696339
2360000000.0 -0.46165889287409795 -0.08578429499660044
2380000000.0 0.4622360714946711 0.2324730430169517
2400000000.0 -0.5594043190690828 -0.09015929956151915
2420000000.0 0.5344425979323608 -0.30429276126359406
2440000000.0 -0.24033237052810372 0.6122354093279311
2460000000.0 -0.22759102470220607 -0.6538916632941466
2480000000.0 0.43749923524352513 0.5682541955015793
2500000000.0 -0.3854206800147096 -0.6222000353117383
2520000000.0 0.054189467001816455 0.7365102485735733
2540000000.0 0.3884092345493198 -0.6252149610691575
2560000000.0 -0.727298902964349 0.03048407424932517
2580000000.0 0.24808085577078218 0.666382031920732
2600000000.0 0.45748786883353254 -0.5110942735131833
2620000000.0 -0.6120839458503924 -0.23097102967261063
2640000000.0 -0.6143034506652983 -0.07131319290897922
2660000000.0 0.20691089267547758 0.5343829728561842
2680000000.0 0.3302233726176357 -0.4102528192849813
2700000000.0 -0.4738260336530359 -0.07244862929865095
2720000000.0 0.20963726703338328 0.37721369389804066
2740000000.0 0.28860405945715606 -0.25835180383127165
2760000000.0 -0.32671957199349566 -0.12222836057842036
2780000000.0 0.04344382781703509 0.31841048545410494
2800000000.0 0.0794627424074907 -0.29022655602746844
2820000000.0 0.15968783170319914 0.2427665793082908
2840000000.0 -0.28223858927695666 -0.04102310146416498
2860000000.0 -0.03148235546937427 -0.28478613282981374
2880000000.0 0.24182362306699898 -0.15787390494677228
2900000000.0 0.11115850082046783 0.26835147083144834
2920000000.0 -0.1499776661355185 -0.2506392462696218
2940000000.0 -0.05812377911920668 0.2887036197939329
2960000000.0 0.25997333841876596 0.1408717604146883
2980000000.0 0.19785225863513153 0.21883581832459542
3000000000.0 -0.1218644669129229 0.26870244511899194
3020000000.0 -0.23586817315543598 -0.17679403582279699
3040000000.0 0.2807236307400898 0.08311067654917952
3060000000.0 -0.2770138394351982 -0.09848692447916968
3080000000.0 0.2820697763973668 0.07980258149139458
3100000000.0 -0.2712527663434766 -0.1040454399522376
3120000000.0 0.25789474565132176 -0.12556658030851683
3140000000.0 -0.04444335627690101 0.2760044237789219
3160000000.0 -0.22346852592878358 -0.1435072134635019
3180000000.0 0.14011834668842837 0.2075610970946967
3200000000.0 -0.1521303957878312 0.16808592377453627
3220000000.0 -0.18695442003133553 -0.06824433201235806
3240000000.0 0.0955851488004606 -0.13658738481240287
3260000000.0 0.02426206891661848 0.13057945027344217
3280000000.0 0.08822793499894882 -0.046457215568468796
3300000000.0 0.06793924969887405 0.017493736810093027
3320000000.0 -0.042450325267001994 -0.019249871033346078
3340000000.0 0.02667695763936791 -0.003446866600923987
3360000000.0 -0.011839982141160832 -0.001578957775557299
3380000000.0 -0.0019843565436728407 -0.005476964003180589
3400000000.0 0.01644736920496377 -0.0007400145536792121
3420000000.0 0.019142537513491847 0.021954735124429928
3440000000.0 -0.03162636052559411 0.02252678699431392
3460000000.0 0.047344817414435116 -0.012890021633737475
3480000000.0 0.03904119288659391 0.04801767761294103
3500000000.0 0.02822239258700495 -0.07136664177139264
3520000000.0 -0.07957318442840203 -0.04371942480846601
3540000000.0 0.10483303645459649 -0.015590815651736896
3560000000.0 -0.07374700440013449 0.095703194906842
3580000000.0 0.04137418876537302 -0.12793495784741057
3600000000.0 0.14963834161648684 0.014310820965035963
3620000000.0 0.08679620239221002 0.13568524173075405
3640000000.0 -0.1606069933104181 0.05776836843150907
3660000000.0 -0.11575344311514672 -0.13906304848915443
3680000000.0 0.12060398981377086 -0.14232651862793022
3700000000.0 0.18400001913944905 -0.04328998311284196
3720000000.0 0.08489501420489741 0.1714748481039514
3740000000.0 -0.01963435415696939 0.1875114603437987
3760000000.0 -0.04583539209251543 -0.17923350154608625
3780000000.0 0.1696911962304082 0.043613918543229484
3800000000.0 -0.11080030053585908 -0.12364068232445417
3820000000.0 -0.09041480152258931 0.12625033936714225
3840000000.0 -0.14142661911015347 0.02510042169206552
3860000000.0 0.12111695170478866 0.0746407475401279
3880000000.0 -0.1284803126387285 0.0736718435651437
3900000000.0 -0.08960715419960052 0.13267535669307512
3920000000.0 0.04524370194113903 -0.1623779464595716
3940000000.0 0.16325741933443358 -0.06491912786917474
3960000000.0 0.14294854722960718 -0.11081839970117505
3980000000.0 -0.17295760366956314 -0.047950106384161244
4000000000.0 -0.14909699040801502 0.08179530408598568
