!Created with skrf (http://scikit-rf.org).
# Hz S RI R 50.0 
!freq ReS11 ImS11
400000000.0 -0.6333804556282278 0.5978422948180152
420000000.0 0.47783371420938575 0.7309758556945469
440000000.0 0.5755985252164623 -0.6152914986420757
460000000.0 -0.45039628160406653 -0.6574634572972086
480000000.0 0.4624517793482494 -0.5524684397677918
500000000.0 -0.5408478300008823 0.2372335823244632
520000000.0 0.48445795753809406 -0.11779004202815913
540000000.0 -0.03329263542364015 0.39690904550330225
560000000.0 -0.31718373309049264 0.13286424030849447
580000000.0 0.22987883211476498 -0.2287028657690163
600000000.0 -0.2764273764026347 -0.17781784115416976
620000000.0 0.2992284854809785 -0.16347696614747312
640000000.0 0.33133802943366836 -0.14387306771423483
660000000.0 0.3620037257845086 -0.10896622122022032
680000000.0 -0.17456636031756437 0.3641586357049114
700000000.0 0.12479259363549876 0.39573750782118045
720000000.0 0.4173380522015799 0.0724971517582002
740000000.0 -0.30448746178777275 0.2914341414944082
760000000.0 0.39882461362798105 0.08987298264469148
780000000.0 -0.35000433918925833 0.15144721393399033
800000000.0 0.3246409191131034 -0.1395706287290249
820000000.0 0.20534133023433124 0.22806444510307458
840000000.0 -0.2353609256994852 -0.11599118179961854
860000000.0 -0.13371736477463939 -0.17297136425039467
880000000.0 0.04248675929643267 0.16337696497005352
900000000.0 -0.08081100832214759 0.07483169636017428
920000000.0 0.06562244652573093 0.021410255302829324
940000000.0 0.002726346595670978 0.04533870237251794
960000000.0 -0.033637694682901384 0.042507133335338516
980000000.0 -0.0653016844880979 -0.023616415386539566
1000000000.0 0.0054620095617851985 0.08098683545370956
1020000000.0 0.0077580370433274 0.09599657893027055
1040000000.0 0.0009660746527888482 -0.10698904184605545
1060000000.0 -0.13002509183188662 -0.05734115569224495
1080000000.0 0.14944977006950894 -0.061798806617235656
1100000000.0 -0.14391295082565103 -0.11866866642490048
1120000000.0 0.01917306581672207 0.20847388832770808
1140000000.0 0.24185343236513765 0.03529164992143525
1160000000.0 0.13040191897342338 -0.24215311801743472
1180000000.0 0.3039518397350518 -0.07645805736156865
1200000000.0 0.2795766969215658 0.19440385867957588
1220000000.0 -0.3683656008158309 -0.019095826227108124
1240000000.0 0.3204721624824975 0.22111397985680153
1260000000.0 -0.11989417619781037 -0.39594922845723185
1280000000.0 -0.4262451679858033 0.03552468738310359
1300000000.0 0.3289403618086292 0.29132975219690604
1320000000.0 0.43268593172009223 0.08799573282967964
1340000000.0 0.43943263731192 -0.041051887204406105
1360000000.0 0.44210590115461584 0.055649893593416246
1380000000.0 0.15733818503300467 -0.41451895110435044
1400000000.0 -0.4230632985438568 0.10583041880781728
1420000000.0 0.38251098179127674 0.16378722049608224
1440000000.0 -0.07351423839446124 -0.37739983621099693
1460000000.0 -0.3481784994157929 0.010330223643525758
1480000000.0 -0.10826843442566945 0.2928291412866722
1500000000.0 -0.028254680332266312 0.2740164646136311
1520000000.0 -0.13656045984797807 0.20468479844313361
1540000000.0 0.2183690910477667 0.021613031291781926
1560000000.0 -0.18932829026744669 0.003026485490217492
1580000000.0 0.16260626041623394 -0.04332161269816862
1600000000.0 0.11946346519733701 -0.0718109667522574
1620000000.0 0.04997405224907842 -0.10228458000021479
1640000000.0 0.08171878272921179 0.03723522171647075
1660000000.0 0.042869824377310385 0.052383592283916654
1680000000.0 0.02273698541345072 -0.04323823570754855
1700000000.0 0.024890202062258265 0.02301402961066289
1720000000.0 0.0039333232176862465 -0.014575140877912496
1740000000.0 -0.005275772262728264 0.002749483083128363
1760000000.0 0.014697533067847011 0.02399302989007024
1780000000.0 -0.05803347649634945 0.02070249256176462
1800000000.0 0.02811521716133551 0.09341096264265489
1820000000.0 -0.002387022320974166 -0.13388139502569452
1840000000.0 0.12501861996408445 -0.12208928157110871
1860000000.0 0.05575547958454082 0.20534498335854975
1880000000.0 -0.1968892197983611 -0.15805700923910065
1900000000.0 0.29161194100190235 0.0397077149978428
1920000000.0 -0.2914402640175487 0.14327898897192834
1940000000.0 0.32715367098093295 0.13343724669133356
1960000000.0 0.027625720514676842 -0.3757238765620169
1980000000.0 -0.38931323586432187 -0.04851893175552576
2000000000.0 -0.3908678618970214 0.12019440058184898
2020000000.0 -0.12416808804220576 0.4036404076423397
2040000000.0 0.04067749492080202 0.4306158874224975
2060000000.0 0.4278906392455388 0.08785990328452359
2080000000.0 0.31268863456847523 -0.30349689411119796
2100000000.0 -0.0006505399988795094 -0.4297829585124855
2120000000.0 -0.29085703835541016 -0.3046880448573061
2140000000.0 -0.38664576573191417 -0.138297760516214
2160000000.0 -0.10505161458197647 -0.38257030747921733
2180000000.0 -0.3448826397523641 -0.16796576955182216
2200000000.0 -0.3003140641251716 0.21978492966770166
2220000000.0 0.03365156790192214 0.35994809535872513
2240000000.0 0.3341565678682795 0.12701748373782157
2260000000.0 0.32746184685559615 -0.1420023044068398
2280000000.0 0.08166162999570373 -0.35262097082810573
2300000000.0 -0.3735557412280724 0.0369675735432136
2320000000.0 0.11316669563262395 0.38113202668743157
2340000000.0 0.3627400852954393 -0.22848192265759773
2360000000.0 -0.4635883056320747 -0.07227729653367741
2380000000.0 0.4728326318081469 0.20928723850605396
2400000000.0 -0.5644700566390197 -0.05244259051473619
2420000000.0 0.5234022829560762 -0.3235179976761574
2440000000.0 -0.2062605349622673 0.6250899280232818
2460000000.0 -0.22158585018781513 -0.6564120891963525
2480000000.0 0.4168454036994973 0.5846382746426674
2500000000.0 -0.3317586589783359 -0.653370601698251
2520000000.0 0.060970832805756374 0.7362103207027318
2540000000.0 0.43819643772719213 -0.5921925234566019
2560000000.0 -0.72766081715911 -0.017052279889669408
2580000000.0 0.30051267412713994 0.6437830738672793
2600000000.0 0.4948172658734987 -0.4737293238693526
2620000000.0 -0.5972263689695687 -0.26511866880924395
2640000000.0 -0.6147073823721343 -0.05930491440344369
2660000000.0 0.22642372211997072 0.5263171718480004
2680000000.0 0.32255433455806876 -0.4159219959922189
2700000000.0 -0.4789309409074959 -0.015756993901233415
2720000000.0 0.2350489585820073 0.3620638481142928
2740000000.0 0.286403877488363 -0.26054515598999706
2760000000.0 -0.3264169032459273 -0.1238079490405367
2780000000.0 0.054724590481361676 0.3170491742079327
2800000000.0 0.07043119485138652 -0.29278785860938283
2820000000.0 0.13338024676701216 0.2583385219928155
2840000000.0 -0.2799288227099685 -0.05628437488678923
2860000000.0 -0.0178084987533941 -0.28584475099015083
2880000000.0 0.2583752069724441 -0.1288373790519613
2900000000.0 0.08174618167604653 0.2794896334897722
2920000000.0 -0.10864901935380443 -0.27212027002988604
2940000000.0 -0.11001606300835459 0.273800473777328
2960000000.0 0.25808821794293374 0.14349636513440833
2980000000.0 0.21640563667991564 0.20130025472751925
3000000000.0 -0.12001113995430161 0.26953198226687997
3020000000.0 -0.23842551101620807 -0.17325062901538257
3040000000.0 0.26731807206361574 0.11873992047737894
3060000000.0 -0.2630834489455551 -0.13047018602034766
3080000000.0 0.2786740839049032 0.08995610151370997
3100000000.0 -0.28327081056876025 -0.06204760753806578
3120000000.0 0.267779965179477 -0.10262392042734761
3140000000.0 -0.08098198827904125 0.26779310403741624
3160000000.0 -0.21168193357111392 -0.16071565989886297
3180000000.0 0.16825995496263385 0.18570150649863562
3200000000.0 -0.1311380832210316 0.18512493708997055
3220000000.0 -0.19879333786448244 -0.010576575664667054
3240000000.0 0.005555238828832979 -0.1668176822548193
3260000000.0 0.07554567445677965 0.1096435868857105
3280000000.0 0.09153347965841382 -0.041621658390936726
3300000000.0 0.059042137243521906 -0.0395004595437063
3320000000.0 -0.02244424409326128 0.04116911156734037
3340000000.0 -0.026900620582991995 -0.002340302936714147
3360000000.0 0.0034714480709495416 -0.010781724052872782
3380000000.0 0.0007227200060359632 -0.004681191223704909
3400000000.0 0.012596646181585366 0.009990112472649441
3420000000.0 0.01419037474062731 0.024112333992889517
3440000000.0 -0.034989777783501125 0.014851819585987969
3460000000.0 0.048413073267146674 -0.0002884851215197221
3480000000.0 -0.008618119624841662 0.06075661974945475
3500000000.0 0.06986421773471674 -0.028863135722866508
3520000000.0 -0.01717851038191228 -0.08843897251941786
3540000000.0 0.08461513594976681 0.06212313374222017
3560000000.0 -0.11932875527621228 0.0064365856344041844
3580000000.0 0.10767563538239122 -0.07874498069784898
3600000000.0 0.1377750679869186 0.05942672315404609
3620000000.0 0.059485901377635174 0.14914967603716342
3640000000.0 -0.16460568212317772 0.03819162097127267
3660000000.0 -0.09223161012491075 -0.1537706368640464
3680000000.0 0.10322033145014987 -0.1539755036568529
3700000000.0 0.17895646406002405 -0.057716477764465396
3720000000.0 0.09340976189555643 0.16477200412537524
3740000000.0 -0.0005283850478745465 0.1867669496178331
3760000000.0 -0.07717001648130511 -0.16621361883101085
3780000000.0 0.17362920043547414 0.01635641440908371
3800000000.0 -0.1475443635403497 -0.07479640981466393
3820000000.0 -0.019559756849483814 0.15339775865086608
3840000000.0 -0.10465842834535931 0.09757710479470455
3860000000.0 0.13303677577761847 0.047882274539613294
3880000000.0 -0.08516980059411738 0.1200800649761033
3900000000.0 -0.02706223056259756 0.156440504288723
3920000000.0 -0.017071134762302095 -0.1669422058453783
3940000000.0 0.15173248779806628 -0.08767070281500346
3960000000.0 0.0964168517203375 -0.15263652287867902
3980000000.0 -0.17931754118727247 -0.016417181367818934
4000000000.0 -0.12772015592612151 0.11407196331708715
