!Created with skrf (http://scikit-rf.org).
# Hz S RI R 50.0 
!freq ReS11 ImS11
400000000.0 -0.5558088385170578 0.6731891215981303
420000000.0 0.478462145348653 0.7301464550556281
440000000.0 0.5672996656071115 -0.6244324163145666
460000000.0 -0.45972265546257607 -0.6522329450870037
480000000.0 0.4689368862889383 -0.5467061895366968
500000000.0 -0.5708391047861654 0.1438242259984123
520000000.0 0.48373179906543706 -0.13349615310559754
540000000.0 0.03630814900341285 0.39557052589798164
560000000.0 -0.3399829640480683 0.051190936104853334
580000000.0 0.24113593617706347 -0.21618167680122777
600000000.0 -0.2982191352078312 -0.14347199716748021
620000000.0 0.3207521124910093 -0.11252160410007848
640000000.0 0.33598550445258096 -0.13325943513361374
660000000.0 0.3664231074798119 -0.09064213617390496
680000000.0 -0.14296979146407265 0.37763759197994534
700000000.0 0.15824931198656497 0.38324238303492236
720000000.0 0.41345283097700225 0.09103752368051864
740000000.0 -0.30199859860883504 0.2931484777549321
760000000.0 0.3995862521628034 0.08324463809000895
780000000.0 -0.33985906391213033 0.17342060698774164
800000000.0 0.3183360241667222 -0.15322332704475336
820000000.0 0.20106180819273278 0.23186236267014212
840000000.0 -0.2202934989902291 -0.14241416384628416
860000000.0 -0.11078697718820954 -0.18845950553636767
880000000.0 0.017077458694276515 0.16767699342584197
900000000.0 -0.09346969499372715 0.05789203688228455
920000000.0 0.05764576343613925 0.037166529238887774
940000000.0 0.017304634030652064 0.04133796997646193
960000000.0 -0.00920007685551869 0.05362395846991789
980000000.0 -0.06885497583681367 0.008610179877906821
1000000000.0 0.011536112275040535 0.08097108173835585
1020000000.0 -0.006823630227740189 0.09639888612165862
1040000000.0 0.01905596370827519 -0.10517654083495462
1060000000.0 -0.10520037801770603 -0.09505465328638929
1080000000.0 0.14172463724209555 -0.07740763803112333
1100000000.0 -0.13786227180765742 -0.12513026138913724
1120000000.0 0.018861942340662775 0.20775824421033043
1140000000.0 0.24228191360579357 0.02491033683516171
1160000000.0 0.1165565843302057 -0.24827263246260486
1180000000.0 0.29812438179948486 -0.09489360941927653
1200000000.0 0.29436581051761795 0.17114833668020143
1220000000.0 -0.3676439336709683 0.03417846785356918
1240000000.0 0.34409025926209064 0.183197527642031
1260000000.0 -0.13824423554552653 -0.39029516811550685
1280000000.0 -0.42254218471675653 0.06793403052386203
1300000000.0 0.3557997357287099 0.2585738425886011
1320000000.0 0.43686352243099197 0.06580072719668824
1340000000.0 0.43540518449800397 -0.0743075753762862
1360000000.0 0.4437844911739694 0.04348688385999571
1380000000.0 0.18649799426025887 -0.4023646182856395
1400000000.0 -0.4227112070942972 0.10587838648678799
1420000000.0 0.36704484999270165 0.19581683233478708
1440000000.0 -0.05963175137499782 -0.3792024585504845
1460000000.0 -0.3461518861677962 -0.03404971860775774
1480000000.0 -0.14025319282438972 0.2776220987204044
1500000000.0 -0.04405009927870818 0.27088901733298065
1520000000.0 -0.16236762015734824 0.18334407719245832
1540000000.0 0.21847997848815334 -0.001510270220014745
1560000000.0 -0.18618256756776994 0.028102549805598755
1580000000.0 0.14649072541134697 -0.08207615154663156
1600000000.0 0.04596834244648615 -0.13125581718655938
1620000000.0 -0.03227971825644784 -0.10935885367345352
1640000000.0 0.08361217195948237 -0.034105937618837595
1660000000.0 0.06139930211205442 0.03020915640701401
1680000000.0 0.04417507701036297 -0.023664910446038245
1700000000.0 0.011768422039170185 0.03293854783838474
1720000000.0 0.004735846311465544 0.014272066318363258
1740000000.0 0.0015154539666446326 -0.005400134052760036
1760000000.0 -0.01593940502916691 -0.023586623585452646
1780000000.0 -0.05059122152491013 0.036876795270905295
1800000000.0 0.042999153208966065 0.08907273628380977
1820000000.0 -0.030059996066612728 -0.1318138774258295
1840000000.0 0.12492558274474898 -0.12441138018248125
1860000000.0 0.03903022373513624 0.21027090982251534
1880000000.0 -0.17957060156144966 -0.17877677326010516
1900000000.0 0.28383600215669813 0.07930892070242304
1920000000.0 -0.3102193771720095 0.09699934321444914
1940000000.0 0.3100755739268241 0.16795795703192976
1960000000.0 0.05935997421224379 -0.37149536906628305
1980000000.0 -0.38531145837567193 -0.07032799179779091
2000000000.0 -0.38852940362408517 0.1242563535250936
2020000000.0 -0.15114447166944794 0.39313851459783944
2040000000.0 0.1062087826409497 0.4177587288565666
2060000000.0 0.43305048193546664 0.04986256973941409
2080000000.0 0.30759471025387836 -0.3077907412851709
2100000000.0 -0.05257869604399535 -0.42595847433679507
2120000000.0 -0.3050147732198649 -0.29005917539460035
2140000000.0 -0.3982247019009325 -0.09694953764570771
2160000000.0 -0.19513970411844025 -0.34481834049206955
2180000000.0 -0.3647085589823815 -0.11955111785614199
2200000000.0 -0.27718684811318994 0.24836524077032296
2220000000.0 0.04335545475508159 0.3590621052626158
2240000000.0 0.34931912988218844 0.07930614549130739
2260000000.0 0.3125085312898979 -0.1738281717538788
2280000000.0 0.059950532159610964 -0.357313743832188
2300000000.0 -0.373000094299727 0.048465796452681335
2320000000.0 0.0875519902806254 0.38814961994332126
2340000000.0 0.37101026111012336 -0.21607509922962256
2360000000.0 -0.45592767851231314 -0.11180357245650603
2380000000.0 0.45039273843974825 0.2539063699503447
2400000000.0 -0.556389636201469 -0.10562104531037672
2420000000.0 0.5289963440168228 -0.3121955822523852
2440000000.0 -0.24099115083616754 0.6115178355188226
2460000000.0 -0.20320972073534396 -0.6614808043357122
2480000000.0 0.4313969943555331 0.572194629186392
2500000000.0 -0.29123494371956077 -0.6714968674433287
2520000000.0 0.017261422825162753 0.7380050000940133
2540000000.0 0.3858924375478007 -0.6267507937099325
2560000000.0 -0.7279786210011443 0.007857152521773917
2580000000.0 0.2941680883530198 0.6473495813073632
2600000000.0 0.4549959568189558 -0.5134147384074526
2620000000.0 -0.5980823020325655 -0.26565676283347944
2640000000.0 -0.6137051663117243 -0.07891346038463182
2660000000.0 0.21105903953728367 0.5330446585877862
2680000000.0 0.3390502587330374 -0.4036794924519992
2700000000.0 -0.4761987478933282 -0.05833824387009487
2720000000.0 0.22196573705051742 0.3705632498522581
2740000000.0 0.3024521477093917 -0.24260909279969411
2760000000.0 -0.32326056033840816 -0.13285630739656595
2780000000.0 0.040873071799690054 0.319246467949184
2800000000.0 0.08106175970705995 -0.28994612657459184
2820000000.0 0.14453758471698663 0.2522826901028291
2840000000.0 -0.28152401515886444 -0.046369985223334555
2860000000.0 -0.04829707067082727 -0.2821051318146368
2880000000.0 0.2442616946790019 -0.15378657216770553
2900000000.0 0.10224235524252831 0.2719783442875349
2920000000.0 -0.159815118183359 -0.24453812911676406
2940000000.0 -0.0540911208236374 0.2892644892214273
2960000000.0 0.2525436016008365 0.15291128336593984
2980000000.0 0.18194590627291202 0.23232350704847018
3000000000.0 -0.11824109287270933 0.27027894646950634
3020000000.0 -0.23762377532379766 -0.17382555190920412
3040000000.0 0.2790307114027296 0.08819353788047357
3060000000.0 -0.2708168324457133 -0.11393891927188472
3080000000.0 0.28763931301245754 0.055511426243982795
3100000000.0 -0.2906678976905876 0.0020308256227673993
3120000000.0 0.2535291768667105 -0.13387731092079708
3140000000.0 -0.016017372962468468 0.2793417243766642
3160000000.0 -0.24761292919818587 -0.09665118785981369
3180000000.0 0.15571618347386895 0.19635186840640964
3200000000.0 -0.13957427581661078 0.1793118694943822
3220000000.0 -0.19509528260090456 -0.044067147116754614
3240000000.0 0.07607998831901688 -0.14907499411777866
3260000000.0 0.019437768038389112 0.13205870591534893
3280000000.0 0.09875458682887273 -0.019397783976976876
3300000000.0 0.06816896634062025 0.019383147245992167
3320000000.0 -0.03244605546483951 -0.034368081079493594
3340000000.0 0.017112830810986284 0.022024028441819297
3360000000.0 0.01280209009445156 0.0019421988554465803
3380000000.0 -0.006126425726409113 0.0015618668524209935
3400000000.0 0.0003816288608986418 0.016759405717202962
3420000000.0 0.027294422853045425 -0.008993354568718878
3440000000.0 0.008023442567551484 0.03797168541458573
3460000000.0 0.004274532284487673 -0.04885939279767259
3480000000.0 0.05524226207306966 0.027217717550770498
3500000000.0 -0.009554060473028897 -0.07583934128938832
3520000000.0 -0.09059738240271338 -0.006362563445708609
3540000000.0 0.09562447887766307 -0.045219031776565076
3560000000.0 -0.04727615301153107 0.1110534341034413
3580000000.0 -0.018014519899231453 -0.13358868410938407
3600000000.0 0.1500999914899995 -0.014168857314051219
3620000000.0 0.12110620711224708 0.10705758318056527
3640000000.0 -0.14570115710155018 0.09030962464270594
3660000000.0 -0.13757076421996148 -0.11884913545769746
3680000000.0 0.10154192485908951 -0.15736457425454384
3700000000.0 0.1826295996893112 -0.051425857908394594
3720000000.0 0.0886831648992137 0.17045844393384604
3740000000.0 -0.017071340678090588 0.1883828399551634
3760000000.0 -0.03406965211957236 -0.1823611930473036
3780000000.0 0.16490225612081383 0.06099509159853215
3800000000.0 -0.11160822759436918 -0.12378302816438198
3820000000.0 -0.09601734526311913 0.12218770332427295
3840000000.0 -0.14256088111171403 0.02027303334575559
3860000000.0 0.13092570116598587 0.055188842178219934
3880000000.0 -0.13061826348876387 0.07107661834160803
3900000000.0 -0.09461278546626622 0.1297467827171972
3920000000.0 0.0520796322197014 -0.16061375279686824
3940000000.0 0.16796111878003675 -0.05249512760947431
3960000000.0 0.15512284540044058 -0.09300331240826736
3980000000.0 -0.16244454263277755 -0.07685114938976957
4000000000.0 -0.16587082124666494 0.03770494987653362
