!Created with skrf (http://scikit-rf.org).
# Hz S RI R 50.0 
!freq ReS11 ImS11
400000000.0 -0.5420217888132565 0.6846574475364229
420000000.0 0.42779704608251273 0.7589098992979278
440000000.0 0.6795355653623752 -0.50400368322567
460000000.0 -0.5284658933016871 -0.606810102371446
480000000.0 -0.3548777020168786 -0.6380263142383243
500000000.0 0.16511998929611624 0.5496368923330271
520000000.0 0.36544676901690903 0.30947802203724023
540000000.0 -0.3830875519608783 -0.11847444078110506
560000000.0 -0.2159363155437907 0.2626430610633382
580000000.0 0.13396344372869995 -0.2854341537232496
600000000.0 -0.26594749911392607 -0.16993102434837953
620000000.0 0.1736038610248002 0.277565696190164
640000000.0 0.13010829215852307 0.33315644692012447
660000000.0 0.34041185699878646 0.15343511153330264
680000000.0 -0.21012503045543693 -0.34200274609234216
700000000.0 -0.3993172890777138 0.11686717229320956
720000000.0 -0.19031503815031733 0.387626730661083
740000000.0 -0.35250045540122443 -0.2611000710889003
760000000.0 0.34222572091779024 0.25945016040298874
780000000.0 -0.03157328877055783 0.3988975975902866
800000000.0 -0.3204850905951861 -0.18447208604014287
820000000.0 -0.3102067604141989 0.046578494701278714
840000000.0 0.012499225017363407 -0.2583355005685355
860000000.0 0.0367655661284388 -0.20091089577919669
880000000.0 0.1498625721606352 0.014222284530424508
900000000.0 -0.011419503945048494 -0.0827244535611885
920000000.0 -0.01755824279701734 0.04338877016791524
940000000.0 -0.0153914029002639 0.032018272009615725
960000000.0 -0.04787557727103464 -0.0033832080879907266
980000000.0 0.006449051243468326 0.060160741834710006
1000000000.0 -0.07101263103325096 -0.002004921617897288
1020000000.0 0.07400756588324836 -0.043058000226610854
1040000000.0 0.08478617410848936 0.05011664339260587
1060000000.0 -0.09679236277427045 -0.09688547078947313
1080000000.0 -0.08441669472491442 -0.1265929263322266
1100000000.0 -0.11070877619942038 -0.13505473976406296
1120000000.0 -0.0663652836775014 0.18116082529710162
1140000000.0 -0.17272737939048724 0.1498722154020773
1160000000.0 -0.0840071479917473 0.251137811895026
1180000000.0 -0.2951723911768088 0.09423394217769925
1200000000.0 -0.32943889927651837 -0.09293956155672875
1220000000.0 0.27786990983929205 -0.2585663101983775
1240000000.0 -0.13089955779087797 0.3839326205843308
1260000000.0 -0.06515231933380775 -0.42804835916396466
1280000000.0 -0.1979560745358697 0.3991511477484945
1300000000.0 0.2142614756041954 -0.39908823260695775
1320000000.0 -0.32238610176106275 -0.3126957964992227
1340000000.0 -0.42345252591737975 -0.11246363643696602
1360000000.0 -0.13518482404085017 -0.41048313663274394
1380000000.0 -0.18252499614680373 -0.3875165833308776
1400000000.0 -0.38641348922970636 0.1592524939248109
1420000000.0 0.07252593949971635 0.39228724536541004
1440000000.0 0.37091799045275997 -0.008540152469287469
1460000000.0 0.2349277253600829 -0.243774791078983
1480000000.0 -0.03610807716159782 -0.30643433842129336
1500000000.0 -0.006068630880392653 -0.2797452190887488
1520000000.0 -0.2534325673786248 -0.01873346273611692
1540000000.0 -0.0702181313889723 0.22022318026881033
1560000000.0 -0.20021501264465077 -0.039900323308199606
1580000000.0 -0.05990694151917905 -0.172433173986957
1600000000.0 -0.06624304698370295 0.13574451188271194
1620000000.0 0.12281422117663084 0.006653724497893933
1640000000.0 0.09022696644194746 -0.03951906014014438
1660000000.0 -0.07344418463756351 -0.022593257989595803
1680000000.0 -0.014816917929898359 -0.051398925045102066
1700000000.0 -0.011718125747303862 -0.03250805603993357
1720000000.0 0.004640608365012892 -0.01813585444194263
1740000000.0 -0.02255749060063028 -0.006512250365931823
1760000000.0 -0.01568393584818198 -0.043415014141818496
1780000000.0 0.03421340106495683 0.07208853739320169
1800000000.0 -0.1083680479300978 0.04525093696788338
1820000000.0 -0.054756868550209226 0.14314779983736803
1840000000.0 0.0008766973316524326 0.18889748400168924
1860000000.0 -0.2151569425950433 -0.03943151004537143
1880000000.0 0.24591523868176282 0.029478698509172674
1900000000.0 -0.1802520966981864 -0.21496874636493227
1920000000.0 -0.0900031838669097 0.29223829142369023
1940000000.0 0.18385919325151226 0.27697682133458634
1960000000.0 0.3430073438424256 0.10582246209321924
1980000000.0 0.22413867243198007 -0.3062011978401944
2000000000.0 0.2037278019833106 -0.34614977189660995
2020000000.0 -0.24011444269156781 -0.3452236009681966
2040000000.0 -0.4341858355009653 -0.024237315692225196
2060000000.0 -0.056725965588940816 0.43925511229195985
2080000000.0 0.4468462355577317 -0.006437063099556509
2100000000.0 0.05721921135444721 -0.43893596332268686
2120000000.0 -0.4110235554875695 -0.13072677195165974
2140000000.0 -0.26537671974735205 -0.32310386811668956
2160000000.0 -0.370076684770387 0.14755130416680112
2180000000.0 -0.24435554526115594 0.28978690003379626
2200000000.0 0.04285835750756033 0.3588549441116489
2220000000.0 -0.052198846375115675 0.3404107538928473
2240000000.0 -0.11759111336347625 0.31970992486334937
2260000000.0 -0.26860390432193526 0.21187378565658838
2280000000.0 -0.22009386941825282 0.27524714036727543
2300000000.0 0.272252264373383 0.25110195670495233
2320000000.0 0.05403622228648986 -0.39316936864059954
2340000000.0 -0.38087290872739277 0.19645815547460455
2360000000.0 0.4557290549073427 -0.11179250010084554
2380000000.0 -0.5050004022789794 0.09725411710282131
2400000000.0 0.5214779525029227 -0.21021148121229216
2420000000.0 -0.3573450135941732 0.4944514718652141
2440000000.0 -0.025222068639767177 -0.6547876563229543
2460000000.0 0.5041791086857641 0.47537828605347837
2480000000.0 -0.6720449379566628 -0.2646306636635967
2500000000.0 0.6886080617517937 0.2722039507236843
2520000000.0 -0.6441591005620957 -0.3853660626672025
2540000000.0 0.34404996969874413 0.66853604435813
2560000000.0 0.16227687445127412 -0.7281427665911296
2580000000.0 -0.6751032034275943 0.28162201785776964
2600000000.0 0.5994233098168302 0.37757775253934706
2620000000.0 -0.09285537468219131 -0.6725558397186088
2640000000.0 -0.2981293243579962 -0.5698701414260109
2660000000.0 -0.22722446349852787 0.5544344446064218
2680000000.0 0.5355737124470928 -0.134351651592478
2700000000.0 -0.38719020098324586 -0.3233078173761722
2720000000.0 -0.06729062182496727 0.4523264250860256
2740000000.0 0.4114328221516762 -0.04263365228495693
2760000000.0 -0.25840274783432915 -0.2733674798495845
2780000000.0 0.025787997387599803 0.3473104161602032
2800000000.0 -0.01647779973784191 -0.32650972208074375
2820000000.0 0.2858614480198005 0.12927944145017153
2840000000.0 -0.1955874252045567 0.2346803065114446
2860000000.0 -0.2903193088580086 -0.08217849429543031
2880000000.0 -0.053822471378168625 -0.29448164007321626
2900000000.0 0.2943229290166984 -0.03539880168693085
2920000000.0 -0.29043040248349533 0.04942911259077606
2940000000.0 0.1522643671700186 0.2493713515923347
2960000000.0 0.21735082530391697 0.19422664776091528
2980000000.0 -0.023066214524502228 0.29172881093957925
3000000000.0 -0.29000682650857007 -0.05694863613273065
3020000000.0 0.22540845576960852 -0.1995510596794118
3040000000.0 -0.024281988362035874 0.30231797202827976
3060000000.0 -0.14534339530498863 -0.2701010649031869
3080000000.0 0.2988459861836715 0.06718086520963919
3100000000.0 -0.2810806897002287 0.11938271895215645
3120000000.0 -0.031139584340371593 -0.30074608928526175
3140000000.0 0.2819402116533478 -0.08086404977981522
3160000000.0 -0.2669596183028939 0.06880995259598433
3180000000.0 -0.12874587169076743 -0.2216055130197433
3200000000.0 0.08806136946685278 -0.20867630702796555
3220000000.0 0.09494385797392323 0.16860800786695818
3240000000.0 -0.043808275496655995 -0.15355400426726512
3260000000.0 -0.10127515411894884 -0.07450331247633524
3280000000.0 0.09668080954797857 -0.020202084337021205
3300000000.0 -0.03264432148246237 0.06953000869265756
3320000000.0 -0.020889723493935117 -0.05539343938161127
3340000000.0 -0.022389288437881932 -0.03741697165812889
3360000000.0 -0.02296618146865631 0.012536564631482483
3380000000.0 -0.011284049999450886 0.0036998269672900716
3400000000.0 0.01985639790142353 0.0031530010685062396
3420000000.0 0.03866714621285919 -0.00910699120605652
3440000000.0 0.018682726050096837 -0.05212650234304676
3460000000.0 -0.05589357589651076 -0.033879981871917805
3480000000.0 0.02950847542625485 -0.06663942267821396
3500000000.0 -0.008155213226575295 0.07924315808454271
3520000000.0 -0.0703681130061942 0.04887742536608145
3540000000.0 -0.08797822587071047 0.039180450074123754
3560000000.0 -0.10757550028953489 -0.022830576776393018
3580000000.0 -0.1233424949983833 0.03225487458099862
3600000000.0 -0.01683875281815688 -0.14956815619037195
3620000000.0 0.027899375349330357 -0.16563095045409623
3640000000.0 0.04528745309474405 -0.17792412540824892
3660000000.0 -0.14978106949826794 -0.12611340377145155
3680000000.0 -0.19832853114861818 0.02212387806439753
3700000000.0 -0.06947351534228904 0.18549603382150956
3720000000.0 -0.0890262379131255 0.1703556813219173
3740000000.0 -0.17702325995178225 0.035314300784525035
3760000000.0 -0.01459639171143649 0.16874827686724153
3780000000.0 0.10759633849948488 0.11679601161039378
3800000000.0 0.004530499023211784 0.15507502015429697
3820000000.0 0.008225409719165088 0.15400164586912812
3840000000.0 0.08947061336813594 0.12492112065360138
3860000000.0 0.04730861579386186 0.15075906097342887
3880000000.0 0.060009735109600074 -0.1508177316905058
3900000000.0 -0.1430270247352479 0.07854863251589451
3920000000.0 0.10775488336670637 -0.12079444925615347
3940000000.0 -0.1458426816202614 0.06685590700468792
3960000000.0 0.1579056852620177 -0.0385149046607581
3980000000.0 0.16057272507325174 0.02958986549287508
4000000000.0 -0.11866227662014636 0.10777742118832201
