!Created with skrf (http://scikit-rf.org).
# Hz S RI R 50.0 
!freq ReS11 ImS11
400000000.0 -0.524041526353704 0.7018345134445392
420000000.0 0.41624792918566667 0.765438537174208
440000000.0 0.6858408870084223 -0.4957066510705196
460000000.0 -0.5133552366885918 -0.620230599322353
480000000.0 -0.356010738177079 -0.6373596663240261
500000000.0 0.17213511195522477 0.5462204432925183
520000000.0 0.36020431726339863 0.3169882470184645
540000000.0 -0.39672610450651796 -0.04988392729435567
560000000.0 -0.2420870251768811 0.23779673669046877
580000000.0 0.16827812622820157 -0.2685893902227667
600000000.0 -0.3083321884919468 -0.06626142395380291
620000000.0 0.11991598614378383 0.30361103446964854
640000000.0 0.12163521623421396 0.33731390053116594
660000000.0 0.35236814403871486 0.12309466860629499
680000000.0 -0.1723746155152987 -0.3620330193470271
700000000.0 -0.40648671557638905 0.08871036598627766
720000000.0 -0.1918510225257345 0.3862567234126586
740000000.0 -0.3519399345142311 -0.260615010139978
760000000.0 0.3214273536257903 0.28398473055435897
780000000.0 -0.015625377555515102 0.3999348187129116
800000000.0 -0.3242540030577283 -0.17854519465512902
820000000.0 -0.30594433852062997 0.06925664304117317
840000000.0 0.02057116067572753 -0.2579273217309073
860000000.0 0.049630722834519726 -0.19813616473043916
880000000.0 0.1497889821193985 0.01715358795744011
900000000.0 -0.015745689750739436 -0.08232702446789887
920000000.0 -0.019895851050981773 0.04259147583435985
940000000.0 -0.015129174364678019 0.03178715838208428
960000000.0 -0.04723110287040655 0.007494036882899656
980000000.0 0.03347936387912719 0.049862018519594535
1000000000.0 -0.06690331918187922 0.02402972441297484
1020000000.0 0.051665511433458516 -0.06808983424254406
1040000000.0 0.09016992214569704 0.04019629802400093
1060000000.0 -0.0868040078354601 -0.10646486036665759
1080000000.0 -0.09070140085819169 -0.1223914503447835
1100000000.0 -0.09269538320225977 -0.14810362364984558
1120000000.0 -0.08194367256582553 0.17490815866997864
1140000000.0 -0.18102897704701842 0.14015749508277414
1160000000.0 -0.10576784395182434 0.24258494817911783
1180000000.0 -0.2978582536607615 0.08484539690847263
1200000000.0 -0.3161395312111092 -0.1300771344435432
1220000000.0 0.30351230216830444 -0.22739511984775873
1240000000.0 -0.13627837899616216 0.3818351436539799
1260000000.0 -0.057927134313137625 -0.4289688410401377
1280000000.0 -0.1924409353154144 0.40184052327015796
1300000000.0 0.21930240041183124 -0.39631851392448497
1320000000.0 -0.32556263394479756 -0.3093076587447509
1340000000.0 -0.42623752507792156 -0.10138592819952251
1360000000.0 -0.143000724668685 -0.4078698752143677
1380000000.0 -0.19257673534114386 -0.38263971747878334
1400000000.0 -0.37637754419065317 0.18124940200993628
1420000000.0 0.08682810030220649 0.38937055358247646
1440000000.0 0.37123706382751365 -0.011422990742704489
1460000000.0 0.22902853774757378 -0.249949274779441
1480000000.0 -0.018399089180931014 -0.3082833175913216
1500000000.0 -0.008018258450707624 -0.2793411676256748
1520000000.0 -0.25409785663200674 -0.007098321138194141
1540000000.0 -0.08619275543204619 0.2144142554683726
1560000000.0 -0.1952513394729312 -0.059708747959517985
1580000000.0 -0.010182648113531737 -0.18256536678274163
1600000000.0 -0.056531088774759694 0.14006443910511812
1620000000.0 0.12293571941064718 0.0032992270894550268
1640000000.0 0.08275881967106265 -0.0536111202336204
1660000000.0 -0.07080741029897598 -0.02973721326680005
1680000000.0 0.0007063941269035953 -0.0531635072722195
1700000000.0 -0.030871691457761197 -0.016416877075114987
1720000000.0 -0.005808432717918419 -0.017990851985218364
1740000000.0 -0.018811931638707906 -0.014334656324388345
1760000000.0 -0.01836339945048202 -0.04242364071382868
1780000000.0 0.005218608320253244 0.07932056519384012
1800000000.0 -0.11527437263697371 0.02107234354636598
1820000000.0 -0.06463486865549847 0.13888278327888373
1840000000.0 -0.016769797469985602 0.1878445267313711
1860000000.0 -0.21219100067010419 -0.05220890382912746
1880000000.0 0.24529183216908795 0.03364506522942205
1900000000.0 -0.18923284062710855 -0.20698163616968956
1920000000.0 -0.08196871875335446 0.29453073979758077
1940000000.0 0.1974542036274804 0.2675647436137704
1960000000.0 0.3481950682607211 0.08799279188947357
1980000000.0 0.2043924393155531 -0.32006179078822145
2000000000.0 0.1859118027166916 -0.35639094925610487
2020000000.0 -0.2467187696340987 -0.3405584088613251
2040000000.0 -0.43092336054196867 -0.06044503926375091
2060000000.0 -0.0674123815844146 0.43762546799711494
2080000000.0 0.4468824320953424 0.012819759989085033
2100000000.0 0.07243893049901202 -0.43691999127620756
2120000000.0 -0.4119841526614181 -0.12810129349750765
2140000000.0 -0.28404965119418246 0.30730968146538357
2160000000.0 -0.3821633514056733 0.11380120667720432
2180000000.0 -0.25649125224000074 0.27921008487810245
2200000000.0 0.04915921864297583 0.35798067266785843
2220000000.0 -0.09238722375058109 0.3319473481692252
2240000000.0 -0.15067559655553672 0.30510328446460405
2260000000.0 -0.2828000132583184 0.19128118163359215
2280000000.0 -0.21417356991003306 0.27952156682233736
2300000000.0 0.2638273888301979 0.2592534774447832
2320000000.0 0.07249050584527213 -0.3893761980084807
2340000000.0 -0.3775163007032837 0.20219883885840434
2360000000.0 0.45778183361074903 -0.1023677132352399
2380000000.0 -0.5062395150696368 0.08826231025224278
2400000000.0 0.5089161848995324 -0.23882118260328242
2420000000.0 -0.3206428512163522 0.5192586025906549
2440000000.0 -0.041105820660040024 -0.6545115944174983
2460000000.0 0.5263333384065626 0.45110416931202857
2480000000.0 -0.6847289292332548 -0.23102302265617358
2500000000.0 0.6842271012505995 0.28445302130872707
2520000000.0 -0.6369052493405912 -0.39831887835261487
2540000000.0 0.39186933315471767 0.6418106938674748
2560000000.0 0.16776059361056753 -0.7267764461708923
2580000000.0 -0.7048939395216246 0.19546934153472492
2600000000.0 0.5694841680387293 0.4210015533143588
2620000000.0 -0.052808764424304974 -0.6769543599829211
2640000000.0 -0.24895550490040166 -0.5927038145871881
2660000000.0 -0.27765212920686233 0.5305234559561893
2680000000.0 0.5387144804773546 -0.1183563286988997
2700000000.0 -0.3690838666889563 -0.34304716452934414
2720000000.0 -0.056974365780024266 0.45311563437018987
2740000000.0 0.41006440070082945 -0.04862576807664149
2760000000.0 -0.25234077644736247 -0.27803808452479656
2780000000.0 0.034899782013513146 0.34627651540008003
2800000000.0 -0.03457150292022794 -0.32499367286910363
2820000000.0 0.29271829441079283 0.11246372746804963
2840000000.0 -0.1786964803645863 0.2477247386641219
2860000000.0 -0.29159633552048225 -0.07929710245359564
2880000000.0 -0.07332246290302652 -0.2904343105900933
2900000000.0 0.29563507648773124 -0.02614135195952431
2920000000.0 -0.2953068540649884 0.017076641517671375
2940000000.0 0.13203450459171967 0.26175289561248977
2960000000.0 0.19693447191243768 0.2154302556947827
2980000000.0 -0.04863494004067938 0.2896085288910816
3000000000.0 -0.2782903752837972 -0.09983831500322214
3020000000.0 0.24309020463962255 -0.17705361464995018
3040000000.0 -0.054171139359800176 0.29785839851856005
3060000000.0 -0.09130051213884106 -0.2924568450681202
3080000000.0 0.28711169552638016 0.10671609413475133
3100000000.0 -0.2913819796271075 0.09083102450552119
3120000000.0 0.004324148926011486 -0.30204257512032195
3140000000.0 0.2911637536509374 -0.03478294988016578
3160000000.0 -0.26850594053208704 0.06242934367278904
3180000000.0 -0.11804443063592494 -0.22700807937680445
3200000000.0 0.1122566047629346 -0.19621491043101735
3220000000.0 0.08005428739088258 0.17591390616303204
3240000000.0 -0.04706573752058244 -0.1521645436371724
3260000000.0 -0.1040439172719991 -0.06926219439881244
3280000000.0 0.0969078923804809 -0.015865300833053424
3300000000.0 -0.006672203618359391 0.07581937772713797
3320000000.0 -0.03253611635473783 -0.04850697835202173
3340000000.0 -0.02117613586886279 -0.037263446184686445
3360000000.0 -0.016911278418710943 0.019701097421281438
3380000000.0 0.007831765189923762 0.009317861983967666
3400000000.0 0.0195487799310775 0.006068646990437496
3420000000.0 0.038875660554877234 0.009213236962415699
3440000000.0 0.043793945706527365 -0.03398041863897821
3460000000.0 -0.020143575955654778 -0.062357491091679054
3480000000.0 0.05436123864878898 -0.04943372163836809
3500000000.0 -0.03729122952110019 0.07069305475864612
3520000000.0 -0.08503311480410986 -0.00721672008963365
3540000000.0 -0.09618433996355284 0.006096732289146927
3560000000.0 -0.10141594728965907 -0.04234951565473438
3580000000.0 -0.12712968607955927 0.007218217012767517
3600000000.0 0.03012508416506335 -0.14693536227955858
3620000000.0 0.05038143160603656 -0.16014312920485366
3640000000.0 0.08337369869844923 -0.16316064239743475
3660000000.0 -0.12104719110522638 -0.1534900266333646
3680000000.0 -0.19937786085477152 0.004608183495798675
3700000000.0 -0.08018749074143662 0.1806148059046007
3720000000.0 -0.0953255332611173 0.1661814936017322
3740000000.0 -0.17599946510728703 0.03929071734669449
3760000000.0 -0.015740092810975274 0.16842630503908465
3780000000.0 0.11322429275544009 0.1104937000312291
3800000000.0 0.0052384848063465935 0.15419021992269968
3820000000.0 0.006443938119878601 0.15338956668872503
3840000000.0 0.06678489772629854 0.13816691821085209
3860000000.0 0.02461695649169225 0.15568898838627795
3880000000.0 0.07172927841768 -0.1458274392773724
3900000000.0 -0.13654394047879287 0.08878382992633324
3920000000.0 0.08349833707905592 -0.1383715460041619
3940000000.0 -0.1406918349753876 0.07707684137842034
3960000000.0 0.15564553525849564 -0.04793668168982647
3980000000.0 0.16263068382620302 0.012104440665023352
4000000000.0 -0.1268825354772 0.0974517338057542
