!Created with skrf (http://scikit-rf.org).
# Hz S RI R 50.0 
!freq ReS11 ImS11
400000000.0 -0.5188075494750882 0.7048614343633633
420000000.0 0.41282143868339244 0.7672005541470953
440000000.0 0.6686687934726628 -0.5183891377595591
460000000.0 -0.5290937862932151 -0.6059930354908646
480000000.0 -0.3610992871112313 -0.6343626987027672
500000000.0 0.16762113286981808 0.548696971543144
520000000.0 0.380038094222107 0.2918585104136256
540000000.0 -0.3866509804112055 -0.10431604535526597
560000000.0 -0.22739312173949097 0.25217603877073425
580000000.0 0.14775225810972126 -0.2792264500226485
600000000.0 -0.2830367489824764 -0.14030885895867357
620000000.0 0.17888250186732882 0.27292234065144527
640000000.0 0.1416740405476141 0.3285157264839699
660000000.0 0.3371011806590688 0.1609257878399549
680000000.0 -0.22199759992358195 -0.33455627301754715
700000000.0 -0.39870699987006913 0.11913951164217156
720000000.0 -0.18903759468861564 0.3880926254154918
740000000.0 -0.35655694168445634 -0.2551390868574856
760000000.0 0.3484955821707255 0.250714827575001
780000000.0 -0.0225829780402916 0.3995172848849239
800000000.0 -0.3227809396842719 -0.18070164936092403
820000000.0 -0.30735894778248246 0.06115164490390035
840000000.0 0.022279129890520274 -0.25726163468019714
860000000.0 0.0534447314229635 -0.19667369290034067
880000000.0 0.14932342213598912 0.016259242404491614
900000000.0 -0.011065446865834945 -0.08254742546464792
920000000.0 -0.006640319338938809 0.04624531518433277
940000000.0 -0.006490672664837505 0.03478226257140024
960000000.0 -0.04775305712026825 0.001991583890291277
980000000.0 0.011372476205625853 0.05914108418729246
1000000000.0 -0.0707510811777494 0.0018248409147813643
1020000000.0 0.06999049933201484 -0.0491867009169169
1040000000.0 0.08371189191629583 0.051875543608903424
1060000000.0 -0.09052804860037589 -0.10280751266758309
1080000000.0 -0.08475272461335208 -0.126083965445068
1100000000.0 -0.09790088970514355 -0.14456752195847544
1120000000.0 -0.07342476405214374 0.17818035341394126
1140000000.0 -0.17935521172876298 0.14168011389097443
1160000000.0 -0.08613075010825649 0.25034079235855855
1180000000.0 -0.2865428353316149 0.11839172801537036
1200000000.0 -0.3253727353051494 -0.1051677494078846
1220000000.0 0.27325281936468254 -0.26330381957441884
1240000000.0 -0.11755730122395733 0.3882838825342564
1260000000.0 -0.08386417736658762 -0.4246842298957634
1280000000.0 -0.1859459562509881 0.4050421519317592
1300000000.0 0.20002345987468992 -0.40652310402099123
1320000000.0 -0.322466054889265 -0.3127428254610529
1340000000.0 -0.42389206242869687 -0.11151872851642924
1360000000.0 -0.12681236627600972 -0.41323648024837006
1380000000.0 -0.1763542373275423 -0.39053660390072187
1400000000.0 -0.38628512765701645 0.15968587494739947
1420000000.0 0.06146542911334844 0.3942614174811894
1440000000.0 0.3708765208157387 -0.003290082095460181
1460000000.0 0.24673638188162367 -0.23216261641824765
1480000000.0 -0.05038984815541709 -0.3042064553809959
1500000000.0 -0.001881741229787261 -0.27956846030460414
1520000000.0 -0.2531594520326498 -0.0186552840983554
1540000000.0 -0.06198839405781475 0.22236626622604633
1560000000.0 -0.20206194014385018 -0.026642963616429968
1580000000.0 -0.0567784258414783 -0.17340696339762368
1600000000.0 -0.0224472714598697 0.14917696900474858
1620000000.0 0.11833667057701285 -0.033857556512148196
1640000000.0 0.0655110792564708 -0.07379975502878486
1660000000.0 -0.07710396471226288 -0.0023808189025253334
1680000000.0 -0.02208721829831123 -0.048953771299050146
1700000000.0 -0.023620209556726023 -0.025969444604593276
1720000000.0 0.010872094177829186 -0.015585463718447296
1740000000.0 -0.01947598157477147 0.012435779298183602
1760000000.0 -0.030712784613163083 -0.03406248566444998
1780000000.0 0.05203981153975763 0.06034548172432055
1800000000.0 -0.10127373578925736 0.0593342213478393
1820000000.0 -0.03029305517979237 0.15056729344325892
1840000000.0 0.01028870573213415 0.18887122983227136
1860000000.0 -0.21676732087241152 -0.03184808066399792
1880000000.0 0.24573921931008724 0.03330549608576079
1900000000.0 -0.1804739987436168 -0.2150506008027402
1920000000.0 -0.09577588727131026 0.29056640967754505
1940000000.0 0.17079770149981535 0.2852951577463382
1960000000.0 0.3375729752226471 0.12233291845769882
1980000000.0 0.24646395223373785 -0.28871983198434875
2000000000.0 0.22240229993624558 -0.33449017245510876
2020000000.0 -0.22586364264378428 -0.354436894654906
2040000000.0 -0.43233986295318133 -0.04374003146999065
2060000000.0 -0.06730527765324858 0.43738753261617624
2080000000.0 0.4463904979996956 0.011146782274104263
2100000000.0 0.04916882874929591 -0.43948225623181925
2120000000.0 -0.4185204032926037 -0.10263577969733728
2140000000.0 -0.2514625000982496 -0.33354873688102804
2160000000.0 -0.3634232297315937 0.1623536533941241
2180000000.0 -0.1782176104249113 0.33397161087157384
2200000000.0 0.08867635893147874 0.3501664426432222
2220000000.0 -0.074536397081456 0.3366937561159689
2240000000.0 -0.14188092890831547 0.30945021740807016
2260000000.0 -0.26784983217469516 0.21267200503850064
2280000000.0 -0.20093105269569286 0.28986504050843215
2300000000.0 0.2874575470225965 0.234470435717444
2320000000.0 0.044654639966835434 -0.3942884006510102
2340000000.0 -0.38022246579781743 0.19803985779247685
2360000000.0 0.45599957801761143 -0.11184864479760313
2380000000.0 -0.509073077816854 0.07094791555216831
2400000000.0 0.5211135850090207 -0.21018195615750518
2420000000.0 -0.34138768089336874 0.505151528592174
2440000000.0 -0.007808052987739748 -0.6550192896385746
2460000000.0 0.5150251588985107 0.4628325412799752
2480000000.0 -0.6836809459415075 -0.23139013796790975
2500000000.0 0.7048968958075768 0.22624407342884717
2520000000.0 -0.6411213383163363 -0.389950123535982
2540000000.0 0.4293363214350348 0.61681531428515
2560000000.0 0.16993904120696504 -0.7262660268012127
2580000000.0 -0.6729154400621807 0.28639541907316746
2600000000.0 0.59554726392499 0.38300247140208793
2620000000.0 -0.015552582167492052 -0.6784210416422563
2640000000.0 -0.2953887512567228 -0.5710166106348479
2660000000.0 -0.24515318041673814 0.5463825673322402
2680000000.0 0.5397102921460054 -0.11369775580145616
2700000000.0 -0.3847125214107435 -0.32569696563181927
2720000000.0 -0.05467043732830748 0.45363460104978337
2740000000.0 0.411833872534586 -0.03445277205060576
2760000000.0 -0.25918015655168425 -0.2719535882614903
2780000000.0 0.029698130806404325 0.34682509332481476
2800000000.0 -0.02347272493051906 -0.3259697014481379
2820000000.0 0.29192000617221225 0.1147532346736251
2840000000.0 -0.17082551366914991 0.2531958298702054
2860000000.0 -0.2923435369887835 -0.0743905664474386
2880000000.0 -0.06827720338266483 -0.29140798747042684
2900000000.0 0.29661990406118816 -0.010586421112468132
2920000000.0 -0.2913527609487883 0.04549768151104255
2940000000.0 0.12219330459218819 0.26561762717669823
2960000000.0 0.21268153146773722 0.19938260284225706
2980000000.0 -0.03268165852132039 0.2921297566488289
3000000000.0 -0.28082909218277624 -0.08993890684934798
3020000000.0 0.22891983087243392 -0.19469313851277673
3040000000.0 0.008701314709061748 0.3024365465588079
3060000000.0 -0.16711866692771335 -0.25666381287514367
3080000000.0 0.2998993389571257 0.06092866455768553
3100000000.0 -0.27425707389930476 0.13321376841425564
3120000000.0 -0.05716899571678374 -0.29661435560386307
3140000000.0 0.2759011223063916 -0.09926191056539513
3160000000.0 -0.2484376498991106 0.12000629976124297
3180000000.0 -0.13783909321778734 -0.21560244906976775
3200000000.0 0.08945624250086529 -0.20792470652305073
3220000000.0 0.09186471233524372 0.17062758241643172
3240000000.0 -0.04449592460790152 -0.15385043719758873
3260000000.0 -0.09471649872871751 -0.0829919998392677
3280000000.0 0.09840365033699817 -0.012236165121987698
3300000000.0 -0.040544851674760844 0.06597252491664228
3320000000.0 -0.015218069077347138 -0.05765356903542423
3340000000.0 0.0006616025826285708 -0.04408408862557576
3360000000.0 -0.02654549524121844 -0.0003674482255016763
3380000000.0 0.010401921551018548 -0.005130649688621758
3400000000.0 0.0068423813127288366 -0.018298416180372378
3420000000.0 0.010627499596826209 -0.03789410859641361
3440000000.0 -0.033672263795362214 -0.043666865541086716
3460000000.0 -0.0638768977469574 0.0141754446586612
3480000000.0 -0.012169404601294355 -0.07213766827894405
3500000000.0 0.03296334487630663 0.07256501194022741
3520000000.0 -0.04555101322438836 0.07259040264322453
3540000000.0 -0.07737073439658167 0.057463962352080185
3560000000.0 -0.10993576210047526 0.008619706658931458
3580000000.0 -0.10885876391976022 0.0678108179791436
3600000000.0 -0.052803666192882945 -0.14162773266629386
3620000000.0 0.027681174358726923 -0.16562819434329673
3640000000.0 0.022411994540296295 -0.182661707619744
3660000000.0 -0.16436393714081907 -0.10733449032362967
3680000000.0 -0.19581616919610623 0.042067889284318614
3700000000.0 -0.06334759503365457 0.1880423093568907
3720000000.0 -0.09859489217825192 0.16504716181109366
3740000000.0 -0.1800282316355906 0.018010638465422092
3760000000.0 -0.04243807118451405 0.16458105592025543
3780000000.0 0.08790093084066866 0.13296909014130925
3800000000.0 -0.00844223036370663 0.1552444817872248
3820000000.0 -0.01479893398850481 0.15375718556815418
3840000000.0 0.06047457365198063 0.14214126653772294
3860000000.0 0.010241043502577535 0.15825809518450415
3880000000.0 0.07914156671388081 -0.14217962142999307
3900000000.0 -0.1487562426988335 0.06710618843953362
3920000000.0 0.11227255741304751 -0.11684110855065741
3940000000.0 -0.1528811118128729 0.049331676824055266
3960000000.0 0.16154098799060973 -0.022007365618255947
3980000000.0 0.16333438933582162 -0.0013574923100223148
4000000000.0 -0.08450639769358004 0.13631170948401747
