!Created with skrf (http://scikit-rf.org).
# Hz S RI R 50.0 
!freq ReS11 ImS11
400000000.0 -0.5534027707243571 0.6734416604047017
420000000.0 0.43727211264517446 0.7521285061549491
440000000.0 0.6433771642143961 -0.5488262147976002
460000000.0 -0.5478324846945073 -0.5877561701116714
480000000.0 -0.3715852332550433 -0.6279706538117324
500000000.0 0.1644884483065855 0.5497701906100075
520000000.0 0.4022081649705535 0.2598703988819757
540000000.0 -0.39819945440111276 -0.044744512964778396
560000000.0 -0.23425461769652778 0.24424853540899286
580000000.0 0.11694641480925587 -0.2950176580121265
600000000.0 -0.30320211835157196 -0.09158376518125882
620000000.0 0.17348007114210223 0.2777881117544808
640000000.0 0.0756937611326382 0.35100531125058365
660000000.0 0.31289288220624567 0.2060049588052034
680000000.0 -0.15040351680755631 -0.3719236181020726
700000000.0 -0.41397862152711024 0.03735390804344324
720000000.0 -0.2705713971337281 0.3353727863078244
740000000.0 -0.2894269056585062 -0.32908352700045884
760000000.0 0.3044976317873673 0.30147293270598424
780000000.0 -0.06658298444345985 0.3938988839236646
800000000.0 -0.3310686786778379 -0.1639557697778879
820000000.0 -0.3033124520877035 0.081729927489368
840000000.0 -0.06769446390654017 -0.25020457249573563
860000000.0 -0.06198942233058808 -0.1962198352330313
880000000.0 0.1361484090448284 -0.06945193449041191
900000000.0 -0.03294149683654394 -0.08004097855405556
920000000.0 -0.04792874254860208 0.010943623593132959
940000000.0 0.00015774412533182519 -0.034805224691969304
960000000.0 -0.03374751185064097 -0.031828197330946814
980000000.0 0.04239900831575834 0.040829644401191995
1000000000.0 -0.014326675943000647 0.06805506505135261
1020000000.0 -0.020672967087069796 -0.0818710386980918
1040000000.0 0.06459888114007328 -0.07373056512520407
1060000000.0 -0.13688359099060823 0.013260246051091412
1080000000.0 -0.14912239965938745 -0.03649066071082556
1100000000.0 -0.16206687662956662 -0.07122900849892291
1120000000.0 -0.01855513861209309 0.19472658759291578
1140000000.0 -0.1680082774675953 0.15916980225854305
1160000000.0 -0.1626711568421719 0.21162764848436724
1180000000.0 -0.311603122351145 -0.01564629339104546
1200000000.0 -0.24627982115224878 -0.23930189179603603
1220000000.0 0.36454538694455657 -0.10873495743415627
1240000000.0 -0.27793068386438036 0.296186328793222
1260000000.0 0.042497076670266004 -0.43092957648622826
1280000000.0 -0.2935387846930874 0.3346921833513111
1300000000.0 0.2990129462407675 -0.33932868117255605
1320000000.0 -0.29246170732199395 -0.3397169323209712
1340000000.0 -0.42343836075475344 -0.10859313279360917
1360000000.0 -0.15148660462386604 -0.40367430526647463
1380000000.0 -0.22422366963136445 -0.3638545603718006
1400000000.0 -0.3538774507720896 0.22126923774063864
1420000000.0 0.1411768391383377 0.3729374656090392
1440000000.0 0.36157324072259156 -0.08425760520114382
1460000000.0 0.17119864863747025 -0.2930292043850526
1480000000.0 -0.08037247311545939 -0.2990278749455885
1500000000.0 -0.07429926316332734 -0.27095951432834997
1520000000.0 -0.2526528801342649 0.038506531652051215
1540000000.0 -0.06426133048198389 0.22380778449593483
1560000000.0 -0.19704489083293233 -0.058924044022690865
1580000000.0 0.015813536613612476 -0.18355425703170197
1600000000.0 -0.10903985719016142 0.10617968395473448
1620000000.0 0.09626091549714089 0.07805193542664869
1640000000.0 0.08298676569286227 0.053303575725146574
1660000000.0 0.009889295732184306 -0.07519922776185371
1680000000.0 0.038316374420560524 -0.03531585178801451
1700000000.0 -0.022677478272767327 -0.024916265140791982
1720000000.0 0.005055856286764937 0.01779925902818711
1740000000.0 -0.022946920948245256 -0.00914223889623979
1760000000.0 0.046751738082352015 0.003140033578527489
1780000000.0 -0.06014356331260315 0.05224952703664671
1800000000.0 -0.10354374754640312 -0.053577757786675256
1820000000.0 -0.11934967522170792 0.09475825663468436
1840000000.0 -0.056872207731291376 0.1789727662431491
1860000000.0 -0.20806610698231154 -0.064484539598007
1880000000.0 0.24620620147967912 0.021436348230014494
1900000000.0 -0.20843741245659556 -0.18723535286679824
1920000000.0 -0.0429563690822583 0.30266499476821274
1940000000.0 0.2371901905724829 0.23327763760156583
1960000000.0 0.3589517279371996 0.02088609378879942
1980000000.0 0.16387788917637108 -0.3432163268894513
2000000000.0 0.14179751106091387 -0.3767957744738046
2020000000.0 -0.27971772592172195 -0.31496389082594745
2040000000.0 -0.4332766305314012 -0.04712670874499964
2060000000.0 -0.07895365931930722 0.4364118046870186
2080000000.0 0.4469926010631251 0.01998340387725065
2100000000.0 0.11994437691910043 -0.4268062578949843
2120000000.0 -0.3770153836898655 -0.21085427343285612
2140000000.0 -0.322458731928078 0.2674987637442549
2160000000.0 -0.3938008116449884 0.06486620950650195
2180000000.0 -0.28629567633246733 0.2486948031448891
2200000000.0 -0.005570875343992482 0.3613932098722108
2220000000.0 -0.10697371475973215 0.3272189162692439
2240000000.0 -0.1532208561012827 0.3028687718956641
2260000000.0 -0.2722897173499107 0.20486660606894722
2280000000.0 -0.19252082658057776 0.29376226379679404
2300000000.0 0.2892291862125145 0.22989348967451956
2320000000.0 0.034271665660337056 -0.394138215445221
2340000000.0 -0.3682921350944248 0.21761654335128833
2360000000.0 0.44736076455030455 -0.14186177083932813
2380000000.0 -0.4970853301891256 0.13346615162424924
2400000000.0 0.5007330258434605 -0.25701785950383105
2420000000.0 -0.2868846238335212 0.5394843638628201
2440000000.0 -0.08641457605515643 -0.650971829666611
2460000000.0 0.5157664940995663 0.4647212214991489
2480000000.0 -0.6869700983614856 -0.22594313253506457
2500000000.0 0.7034986937712396 0.23389603793043973
2520000000.0 -0.6434011571790256 -0.38864924611480245
2540000000.0 0.31978948216016007 0.681008289217417
2560000000.0 0.212931619587744 -0.7147914963120284
2580000000.0 -0.714894832251308 0.15281734691220145
2600000000.0 0.6004512626100122 0.3744222346193886
2620000000.0 -0.027818670771871473 -0.6776545681614705
2640000000.0 -0.23432809803091417 -0.5974831918865847
2660000000.0 -0.2793077059011436 0.5280115618162118
2680000000.0 0.5423733007323372 -0.09145264943706193
2700000000.0 -0.3728806035760154 -0.3367397967364338
2720000000.0 -0.056823307670011036 0.4517485698674948
2740000000.0 0.4052524505824821 -0.07316675604032555
2760000000.0 -0.28620930192475724 -0.24170988532621215
2780000000.0 0.06286465881590421 0.34124125803618177
2800000000.0 -0.05939155287369594 -0.32081948809454697
2820000000.0 0.3047309877042665 0.07316384561614439
2840000000.0 -0.16142832456876643 0.2596515322489029
2860000000.0 -0.2983515068779549 -0.05083642479710805
2880000000.0 -0.08934554601405759 -0.28704774294197305
2900000000.0 0.2968044451614804 -0.027100676281211197
2920000000.0 -0.29535738254152644 0.025832134009261386
2940000000.0 0.13035328175537328 0.2634222248212875
2960000000.0 0.16263668472245493 0.24346624687356935
2980000000.0 -0.10044715460257397 0.2761278086589656
3000000000.0 -0.254420350630149 -0.15132371786819238
3020000000.0 0.27759033665248456 -0.11620694117303819
3040000000.0 -0.10670847867188106 0.2836562489041501
3060000000.0 -0.03860812665978366 -0.30373731773905344
3080000000.0 0.22641860262368962 0.20493687536671096
3100000000.0 -0.30404263336069465 -0.00926351225812364
3120000000.0 0.08830291630467346 -0.287561758011934
3140000000.0 0.29080286690600854 0.02445891484436045
3160000000.0 -0.27385812261330744 -0.005644276600322752
3180000000.0 -0.09504611084057367 -0.23622866018863317
3200000000.0 0.09693513819125557 -0.20274610093271736
3220000000.0 0.11359823015803527 0.15478507977626027
3240000000.0 -0.09997923486552382 -0.12214650870500272
3260000000.0 -0.12374192860052081 0.004548928950666108
3280000000.0 0.053710692249932454 -0.08033647415028482
3300000000.0 0.046384981903528105 0.05848068605772919
3320000000.0 -0.056268885246901976 -0.011140349954308524
3340000000.0 -0.041957342685754455 0.006346546482895573
3360000000.0 0.025960676938947557 0.00045937416885071094
3380000000.0 0.013059522069013136 -0.00201209906174894
3400000000.0 -0.012136923148864219 -0.016963631795073687
3420000000.0 -0.03621118012285293 0.016480382349844315
3440000000.0 0.023958979351329242 0.04954779076578722
3460000000.0 0.04190282527519298 -0.05030115782149883
3480000000.0 0.06198576778039462 0.038420839893147776
3500000000.0 -0.07518973166998312 0.025984105585543996
3520000000.0 -0.08510387654480342 -0.005874425433559708
3540000000.0 -0.09290202784395378 -0.02266832117307589
3560000000.0 -0.08689906943994798 -0.06576522050599504
3580000000.0 -0.12077717120891104 -0.036016121863837514
3600000000.0 0.04728440716201176 -0.14150597291050396
3620000000.0 0.07104039156924377 -0.15074687317814728
3640000000.0 0.11615577780012745 -0.139989875179555
3660000000.0 -0.10390598576023977 -0.16411828474277887
3680000000.0 -0.19805338366097883 -0.012317574091143882
3700000000.0 -0.0909313082917899 0.17470666050518704
3720000000.0 -0.07184894496703442 0.1769304384193031
3740000000.0 -0.16870379231172805 0.061744949195484046
3760000000.0 0.03646666281454572 0.16430407254523954
3780000000.0 0.14386553564175114 0.06308861471388698
3800000000.0 0.054182636936980035 0.1431372703773311
3820000000.0 0.03837195011262402 0.14749687587869756
3840000000.0 0.09611300571691081 0.11814294300620391
3860000000.0 0.06490202195665216 0.14268497375698314
3880000000.0 0.013954310711979357 -0.16087305496826326
3900000000.0 -0.09932904160860909 0.12898696745742663
3920000000.0 0.026745074979586107 -0.159243997707213
3940000000.0 -0.07669531693343722 0.14047386957861427
3960000000.0 0.10713735926353779 -0.12157977884583233
3980000000.0 0.1383229006799147 -0.0850204698844694
4000000000.0 -0.02722733031572639 0.15677246739760917
