!Created with skrf (http://scikit-rf.org).
# Hz S RI R 50.0 
!freq ReS11 ImS11
400000000.0 -0.5552363557782134 0.6746223857552492
420000000.0 0.42259432658382423 0.7620590400664744
440000000.0 0.6375153358160778 -0.5556227077215457
460000000.0 -0.5447616801683518 -0.591358744679839
480000000.0 -0.3652674103792851 -0.6321937335708143
500000000.0 0.17782108036421365 0.5458750576078224
520000000.0 0.3913222634807621 0.27535311685129316
540000000.0 -0.3974063995212285 -0.04693073524348709
560000000.0 -0.22664587129982194 0.25291426179067644
580000000.0 0.13573697606731128 -0.28606377827548696
600000000.0 -0.2982359731898485 -0.10454781610409704
620000000.0 0.2162049948589776 0.24445454373780193
640000000.0 0.1872832043344583 0.3046426658821275
660000000.0 0.35055419494527545 0.1286673079904771
680000000.0 -0.19921499821753955 -0.3473293357245634
700000000.0 -0.4022300461107336 0.1011070892746319
720000000.0 -0.25155640866393064 0.3491268876311635
740000000.0 -0.31211896657082056 -0.30715660950499807
760000000.0 0.28380963516935104 0.32191347398121173
780000000.0 -0.1210564213360984 0.3822089562441502
800000000.0 -0.2839831063480023 -0.2384503258959513
820000000.0 -0.31504597666421735 0.011645785864115799
840000000.0 -0.015081421168462283 -0.26016983355430195
860000000.0 -0.004085700114539341 -0.20666792283182597
880000000.0 0.1463453509322556 -0.0439298971031609
900000000.0 -0.07618877529868137 -0.038418005163943975
920000000.0 0.03366451705799161 0.034584365346861885
940000000.0 0.012872749297321089 0.03477449237268763
960000000.0 -0.04160012769777859 0.026543336568121013
980000000.0 0.03725988115958344 0.0484978398552588
1000000000.0 -0.04584593132196123 0.054632324861210856
1020000000.0 -0.0035514601390006077 -0.0855390158088398
1040000000.0 0.09831104830652529 -0.009686745034584105
1060000000.0 -0.1259107137890989 -0.05509731499428836
1080000000.0 -0.08339945139461662 -0.1283356406557092
1100000000.0 -0.12762171899285005 -0.12032809478271295
1120000000.0 -0.026151062301870916 0.19173020725911083
1140000000.0 -0.16117647392625273 0.16216420311360596
1160000000.0 -0.07486746335929653 0.2531076182070574
1180000000.0 -0.29354092465107595 0.09422972706539895
1200000000.0 -0.3029019836295949 -0.1557695904968199
1220000000.0 0.32101780140965874 -0.20002270021413496
1240000000.0 -0.19877950877408052 0.35234388951262946
1260000000.0 -0.05351057894663153 -0.42918062181775074
1280000000.0 -0.22452786851178785 0.3852811451625315
1300000000.0 0.25720907302359897 -0.37324668779285025
1320000000.0 -0.3064808024524398 -0.3290559744645267
1340000000.0 -0.4321861847592763 -0.07499620962080697
1360000000.0 -0.1755494760779832 -0.3949445415674004
1380000000.0 -0.21839110962849229 -0.36832289372270366
1400000000.0 -0.36530206820997735 0.2033165599545421
1420000000.0 0.10119747399623101 0.3859807873613275
1440000000.0 0.3712388872576081 0.00029523121546108313
1460000000.0 0.22715360171754517 -0.2517354387405597
1480000000.0 -0.08162639426579524 -0.2978828081466249
1500000000.0 -0.013736226126802592 -0.2793809573707575
1520000000.0 -0.2525540356747613 -0.02567969718435304
1540000000.0 -0.11618708224035607 0.1995692966426177
1560000000.0 -0.1621639004618099 -0.12280961534283853
1580000000.0 0.052434094884273676 -0.17401364348814893
1600000000.0 -0.12790152466722066 0.07918403348295967
1620000000.0 0.09731851220247667 0.07409992251429323
1640000000.0 0.09760729088921812 0.004645411884074217
1660000000.0 -0.05295613577236643 -0.0543988108999378
1680000000.0 -0.023880921554145985 -0.04746250946049722
1700000000.0 -0.03328907228822216 -0.010416629153049204
1720000000.0 0.018567193931981935 -0.006702089825490721
1740000000.0 0.01579910465160473 0.01709608121146123
1760000000.0 0.04438434771613956 0.007400464272800351
1780000000.0 -0.006113851162042553 0.07825929926262244
1800000000.0 -0.11452429374690204 -0.019226824699763233
1820000000.0 -0.07437728821693554 0.13294221956659896
1840000000.0 -0.010382427470480921 0.18805384307348255
1860000000.0 -0.21344808489017872 -0.04510678653165728
1880000000.0 0.2480814158684262 0.0005753243412900492
1900000000.0 -0.21081368773933276 -0.18672184943154116
1920000000.0 -0.0563529623886565 0.3019934527237137
1940000000.0 0.22058723423240248 0.25112574889884287
1960000000.0 0.35679121074880327 0.04991025644332545
1980000000.0 0.17888183897705404 -0.33624402204226733
2000000000.0 0.18129814447700968 -0.35967836528224173
2020000000.0 -0.24056503030203774 -0.3451597880637474
2040000000.0 -0.42694822526235066 -0.08174107511095899
2060000000.0 -0.13364559203324386 0.4212719929793895
2080000000.0 0.43148313996099913 0.10945605338992018
2100000000.0 0.18435967704448167 -0.40033413547567076
2120000000.0 -0.3726477779819667 -0.2140098685742353
2140000000.0 -0.32989078318674425 0.25595587599054426
2160000000.0 -0.3893269542608155 0.08517932813421707
2180000000.0 -0.25968415792547966 0.27652133405617
2200000000.0 0.05614428212557591 0.35729585407920156
2220000000.0 -0.021277192714661386 0.3439222297696039
2240000000.0 -0.056559534082577995 0.3350325356414976
2260000000.0 -0.20034970950418404 0.2754852416835728
2280000000.0 -0.1635408514641487 0.31036704471190363
2300000000.0 0.2958318358761219 0.22032778486241641
2320000000.0 0.07070096256277197 -0.38924776336000416
2340000000.0 -0.3652768832296359 0.22385272165513584
2360000000.0 0.4564739260739486 -0.11201305814845681
2380000000.0 -0.5069980612619598 0.09161664623203108
2400000000.0 0.5142180737629126 -0.23058719936831412
2420000000.0 -0.3180197328525702 0.5225477255195475
2440000000.0 -0.06538751938792609 -0.6533211614599193
2460000000.0 0.5145319453211014 0.4655549283994471
2480000000.0 -0.6901317622797433 -0.2138267170692503
2500000000.0 0.718624945333445 0.1791070462519288
2520000000.0 -0.6757515355834932 -0.3280635247482254
2540000000.0 0.37792109657579 0.6497835025587768
2560000000.0 0.12295278588875871 -0.7352118439974406
2580000000.0 -0.6585870389198714 0.3167124976800101
2600000000.0 0.6132080702575678 0.3525438801562147
2620000000.0 -0.11890492198424851 -0.6668981630102849
2640000000.0 -0.32831038805696644 -0.5518348781373046
2660000000.0 -0.209432592042569 0.5601323167250263
2680000000.0 0.5288632047162111 -0.15688530606408455
2700000000.0 -0.3765470317717031 -0.33370546441325183
2720000000.0 -0.0436800894645695 0.45320123407062995
2740000000.0 0.4113423407952386 -0.021385367242153556
2760000000.0 -0.24895159383312251 -0.27943867320113297
2780000000.0 0.02281596452142055 0.34601375819603525
2800000000.0 -0.01204706814324215 -0.3258433485732255
2820000000.0 0.27186362369318356 0.15443768393071827
2840000000.0 -0.18147102375184282 0.24510694731200883
2860000000.0 -0.2934786582299948 -0.0702688939780067
2880000000.0 -0.07661062503944398 -0.2901361876392426
2900000000.0 0.29607907039792536 -0.03508123489741787
2920000000.0 -0.2926225926781223 0.04692681284250143
2940000000.0 0.16824987915870682 0.24035935374566605
2960000000.0 0.23466470030592398 0.17382572391955717
2980000000.0 -0.04721634023147384 0.2899345454991336
3000000000.0 -0.2762350310103332 -0.10441122997150416
3020000000.0 0.23598109219486463 -0.18493964062023882
3040000000.0 -0.05178567642724593 0.29686612409866797
3060000000.0 -0.05868050294970232 -0.29951303532621454
3080000000.0 0.26893559790098015 0.14503233342887806
3100000000.0 -0.30067889665919 0.047095467943374165
3120000000.0 0.07126675877367349 -0.2929797884703858
3140000000.0 0.29185882493286913 -0.022549653042979272
3160000000.0 -0.2725920642761476 0.03500962218120668
3180000000.0 -0.10792718179036177 -0.2316447455829699
3200000000.0 0.07209103951070839 -0.2144069672210754
3220000000.0 0.14969614995466793 0.12189428761926935
3240000000.0 -0.1219965076609601 -0.10202924479091133
3260000000.0 -0.12248759253004204 0.022937583111731823
3280000000.0 0.052947219421387984 -0.08099434694349195
3300000000.0 -0.004249836318270353 0.07489512907944718
3320000000.0 -0.034821931662085234 -0.044882858992820546
3340000000.0 0.026293179032761738 -0.032948828086038634
3360000000.0 -0.010680616336511036 -0.02398454119737338
3380000000.0 -0.0008048215601512658 0.012278094044287353
3400000000.0 -0.017972759229002738 -0.006376081852201788
3420000000.0 -0.0015295684733121033 0.03781117616673446
3440000000.0 0.051061374372126773 -0.016888220079380054
3460000000.0 0.008667438887375672 -0.06453373689696842
3480000000.0 0.07076269605236064 -0.01742422045623209
3500000000.0 -0.05903173301772889 0.05377945134115264
3520000000.0 -0.0753110802237668 0.04105584255289001
3540000000.0 -0.09418935373769663 -0.013820494005532319
3560000000.0 -0.10852809759254013 -0.003658945693669185
3580000000.0 -0.12021804529480253 0.03437118998742597
3600000000.0 -0.0030423355789510496 -0.14829764629236244
3620000000.0 0.08205498381416773 -0.1439901986960777
3640000000.0 0.07545960693634454 -0.1657804807805691
3660000000.0 -0.11129878644229253 -0.15959892111775248
3680000000.0 -0.19841970578777035 0.011307083540742769
3700000000.0 -0.09650712598437013 0.17151130882219556
3720000000.0 -0.06888623776907554 0.17820458701587868
3740000000.0 -0.13703687376560977 0.11596874526601315
3760000000.0 0.11825983598420127 0.12037212594062956
3780000000.0 0.15300723853062287 -0.038133718251176354
3800000000.0 0.08571720618065706 0.12701896432638973
3820000000.0 0.04048869046956469 0.14682552873618948
3840000000.0 0.0612252721947273 0.1391598864552769
3860000000.0 0.004760508585264669 0.15780521049344243
3880000000.0 0.08192037188254252 -0.14160811974558576
3900000000.0 -0.08955696562410422 0.13883130324006734
3920000000.0 0.029909438119506863 -0.16117076418764317
3940000000.0 -0.08080859503072987 0.14016386496267264
3960000000.0 0.08395883910931913 -0.14120950920037567
3980000000.0 0.1559068944076792 -0.05176171983338416
4000000000.0 -0.04536258349377562 0.1542542818228215
