!Created with skrf (http://scikit-rf.org).
# Hz S RI R 50.0 
!freq ReS11 ImS11
400000000.0 -0.5332309043093976 0.6944643595781199
420000000.0 0.4144047342024428 0.7652120162473159
440000000.0 0.6554387819173133 -0.5324894543009518
460000000.0 -0.5455266853809941 -0.5912322053215638
480000000.0 -0.4048871128170352 -0.6069481771745003
500000000.0 0.17752722821438252 0.5447064047691775
520000000.0 0.3389301144360459 0.3384871231841837
540000000.0 -0.40027116962846737 -0.02929591357704171
560000000.0 -0.14269288233334537 0.3078166994278968
580000000.0 0.16032799997567476 -0.27248882946365915
600000000.0 -0.2667870965497869 -0.17250004991180423
620000000.0 0.21712070387341204 0.24599714212375695
640000000.0 0.10194984511707589 0.34386120767909545
660000000.0 0.2977686214157588 0.22737559374925578
680000000.0 -0.0846832627935906 -0.39362576645069447
700000000.0 -0.41572136133699517 0.023445853537321683
720000000.0 -0.28646549009541333 0.32252397144370826
740000000.0 -0.3033605456840888 -0.3148544870337329
760000000.0 0.3239509580783626 0.28120315893797254
780000000.0 -0.022494679300597065 0.39852553173012734
800000000.0 -0.3299955304268594 -0.16553773505991487
820000000.0 -0.29419363433631024 0.10688397729237781
840000000.0 -0.07746409585514001 -0.246643443586639
860000000.0 -0.06902567683976832 -0.19295395847526922
880000000.0 0.14474533580575405 -0.047545940527553746
900000000.0 0.010368306078066393 -0.08527674811518915
920000000.0 -0.04429978815473467 -0.018286927469801432
940000000.0 -0.004778018823252026 -0.03458223015022401
960000000.0 -0.024713601269002173 -0.03943158877179784
980000000.0 -0.008973033671724447 0.057528711449862366
1000000000.0 -0.048556337201818664 0.04925705300187065
1020000000.0 0.011713140096295633 -0.08311699559197876
1040000000.0 0.07966045405932637 -0.05665236706383252
1060000000.0 -0.13590327474467423 0.020283278435750264
1080000000.0 -0.1395831966111961 -0.06436883349268809
1100000000.0 -0.1398081911174639 -0.1082982447221478
1120000000.0 -0.04193346265577871 0.19083538372840914
1140000000.0 -0.18687451638553745 0.13703663158375767
1160000000.0 -0.14040343716687403 0.22785751827869605
1180000000.0 -0.308815174754658 0.050961585373907964
1200000000.0 -0.2865913385105533 -0.1916372738721733
1220000000.0 0.353619851752115 -0.14177986546908308
1240000000.0 -0.2413410726736312 0.32673495499138916
1260000000.0 0.008827776823843555 -0.4331150343559535
1280000000.0 -0.2922287384788672 0.3356762857703933
1300000000.0 0.29244813143728937 -0.34512401483491284
1320000000.0 -0.24707133834544842 -0.3737883455116039
1340000000.0 -0.41017231904492246 -0.15024669920701905
1360000000.0 -0.12337075658842876 -0.4129472732990574
1380000000.0 -0.19300897180408028 -0.3814120191964256
1400000000.0 -0.3567038017639318 0.21642760389994847
1420000000.0 0.12358731995235417 0.3792205464287655
1440000000.0 0.3628476072407198 -0.07890069904563697
1460000000.0 0.17293597182565165 -0.2918278555332246
1480000000.0 -0.14457969592534545 -0.2733654972603622
1500000000.0 -0.09665422721098352 -0.2642274798424853
1520000000.0 -0.2422184399348946 0.08261866099508991
1540000000.0 -0.039893332262869695 0.22959422242055902
1560000000.0 -0.20363419646737824 -0.028735968525280427
1580000000.0 -0.029232592822672494 -0.18162390180789026
1600000000.0 -0.08303845625721909 0.12704128103567391
1620000000.0 0.11201762006875475 0.05228422730215434
1640000000.0 0.09682530923316954 0.016627757777230665
1660000000.0 -0.027948224595039803 -0.07047370510152652
1680000000.0 0.008301649494477887 -0.05136017121481806
1700000000.0 -0.014600897995570737 0.03075722867953594
1720000000.0 0.018130297624678916 0.006246573460193901
1740000000.0 -0.021744121610348253 -0.01263817939317145
1760000000.0 0.030679362089106 -0.03572711051856336
1780000000.0 -0.01244262393151779 0.07839124409670183
1800000000.0 -0.11623106304685987 -0.011823212302687945
1820000000.0 -0.06617265951127448 0.13734694436850153
1840000000.0 -0.018408588971163934 0.18675927987810417
1860000000.0 -0.21618998102230574 -0.020928587156492342
1880000000.0 0.24639727216809187 -0.006778403395394408
1900000000.0 -0.22041726547751023 -0.17217386165844276
1920000000.0 -0.036154569927814795 0.303145439733117
1940000000.0 0.22336292735561455 0.24632049090915534
1960000000.0 0.3539372172090962 0.06165556452192192
1980000000.0 0.21701441097277827 -0.3125197992277864
2000000000.0 0.19865799463826586 -0.3505276225537641
2020000000.0 -0.253755741987317 -0.3369240065985867
2040000000.0 -0.4282885867064772 -0.0838614212201377
2060000000.0 -0.10450637657791176 0.43148968448504177
2080000000.0 0.4445857914602928 0.05529286166905372
2100000000.0 0.10189387593017638 -0.4314066693377144
2120000000.0 -0.39949080157947836 -0.16349012485475334
2140000000.0 -0.29697889134417715 0.2932503837267265
2160000000.0 -0.3766988915047463 0.1275185412803439
2180000000.0 -0.2561083812766786 0.2780528561993235
2200000000.0 0.03512863855404794 0.35844647392474205
2220000000.0 -0.13033619170050526 0.31771541817209603
2240000000.0 -0.1598068240780682 0.29841542785968667
2260000000.0 -0.25721708189656095 0.2223972731319634
2280000000.0 -0.1883368372664502 0.2963983152313401
2300000000.0 0.2951383844889369 0.22216148160668
2320000000.0 0.029182262598349742 -0.39489859071849454
2340000000.0 -0.345899743764496 0.2526284307955948
2360000000.0 0.4416821258210986 -0.15795844263552
2380000000.0 -0.491678144839343 0.1485240073285556
2400000000.0 0.4928430729292507 -0.2709393777434709
2420000000.0 -0.27794902374765024 0.5438957582397488
2440000000.0 -0.021330500017331805 -0.6561387462919072
2460000000.0 0.4754539304442397 0.5061001529013064
2480000000.0 -0.6452391527202732 -0.3280110489701017
2500000000.0 0.6515159229927527 0.35548784200550876
2520000000.0 -0.6044993943259457 -0.4470200872763447
2540000000.0 0.2580837780556283 0.7070151592038303
2560000000.0 0.26534436528241406 -0.6971477808612891
2580000000.0 -0.7148605810039439 0.15464002274083197
2600000000.0 0.5180672064537611 0.4810310776709831
2620000000.0 0.08614342184807915 -0.6710681752970746
2640000000.0 -0.2926214660137926 -0.5701721603351577
2660000000.0 -0.2623845583452756 0.5353379525446857
2680000000.0 0.5364458000436849 -0.11983304894443352
2700000000.0 -0.39704000147242874 -0.3078702105000121
2720000000.0 -0.068971967286026 0.44941010432013745
2740000000.0 0.40974892309532324 -0.030257398668049627
2760000000.0 -0.3038544304117471 -0.21888385384426345
2780000000.0 0.1052122115469434 0.33081992296292606
2800000000.0 -0.09140230964878951 -0.31342932537582663
2820000000.0 0.30927109385340124 0.05258657077469892
2840000000.0 -0.11412167243948444 0.2835211042907495
2860000000.0 -0.2980705324519898 -0.04807128257408834
2880000000.0 -0.062410858274336324 -0.2942283426672698
2900000000.0 0.29783526207153266 -0.016916717981061546
2920000000.0 -0.29659313723175806 -0.014757080741173495
2940000000.0 0.03885468360041565 0.2914241947830589
2960000000.0 0.1457530818004188 0.2539525893975676
2980000000.0 -0.13641461252341724 0.26118948495100713
3000000000.0 -0.23460551097734753 -0.18118991509566618
3020000000.0 0.2642397510142018 -0.1443796780851354
3040000000.0 -0.10988999787009486 0.28213606076575337
3060000000.0 -0.049334079638456936 -0.3021085382623659
3080000000.0 0.2324594729399959 0.19827404170232288
3100000000.0 -0.3035910219994229 -0.009966729962634376
3120000000.0 0.07626369362040916 -0.29089190980223695
3140000000.0 0.2912097373986449 -0.018707250299973017
3160000000.0 -0.27330748004417615 0.004662167642180257
3180000000.0 -0.09173942607765392 -0.2365940703892594
3200000000.0 0.12095594545188176 -0.18830411799409125
3220000000.0 0.109455763277212 0.15732439614588212
3240000000.0 -0.09974255409276625 -0.1221614668596086
3260000000.0 -0.1211093891902357 -0.028331469122465713
3280000000.0 0.05911955519740834 -0.07816674570986523
3300000000.0 0.02077921347721711 0.07302498911570819
3320000000.0 -0.05785470637909963 0.002084465409301343
3340000000.0 -0.022891371784970783 0.035481232470886415
3360000000.0 0.021487061774934195 0.014571815464335247
3380000000.0 0.006822148655392151 -0.011257665806318018
3400000000.0 -0.02081707559293656 -0.001179990097479216
3420000000.0 -0.010188813912505276 0.03866006316719884
3440000000.0 0.03329350714588386 -0.04301970191548865
3460000000.0 -0.04585886029204715 -0.046165150548684905
3480000000.0 0.0653757779621799 -0.031183715249253438
3500000000.0 -0.07380886171487128 0.027873945932873907
3520000000.0 -0.07128849025697119 -0.046517417388121714
3540000000.0 -0.061500043816630094 -0.07353710177853937
3560000000.0 -0.06048471774170681 -0.0902503736263175
3580000000.0 -0.12497308087677805 -0.024139363653880933
3600000000.0 0.03349815127052606 -0.14565647879626606
3620000000.0 0.08731009368323113 -0.14233633168405777
3640000000.0 0.02392420557803105 -0.1814887706223629
3660000000.0 -0.14360312989965765 -0.1322652507883552
3680000000.0 -0.19000981670563938 0.05587685179967883
3700000000.0 -0.03554014811214487 0.19315910576493198
3720000000.0 -0.05852887089896762 0.18134588008213637
3740000000.0 -0.16306025321145148 0.07380584940602532
3760000000.0 0.04159640622746172 0.16302357364980283
3780000000.0 0.14423023064994805 0.06381292716681589
3800000000.0 0.04988922687376833 0.14633097274203732
3820000000.0 0.032235395120857734 0.15026297124753976
3840000000.0 0.08210870897461095 0.12967967611355455
3860000000.0 0.07926391025437979 0.13672457582372258
3880000000.0 0.02073522688858072 -0.16092520090949136
3900000000.0 -0.07519544012757935 0.14415739933161403
3920000000.0 0.06993195617391158 -0.14575231964310986
3940000000.0 -0.11435617059494067 0.11156837510448793
3960000000.0 0.13575311992876735 -0.09272020563971427
3980000000.0 0.16366743606062883 0.01622195248044012
4000000000.0 -0.10644428394704353 0.12106757744084785
