!Created with skrf (http://scikit-rf.org).
# Hz S RI R 50.0 
!freq ReS11 ImS11
400000000.0 -0.5122738145965954 0.7125142434380431
420000000.0 0.402603624310301 0.7733522760019164
440000000.0 0.6723083443755599 -0.5131538778608233
460000000.0 -0.5292354462215949 -0.6062522425979958
480000000.0 -0.3785106367972314 -0.6239318622368927
500000000.0 0.14764896465999433 0.5540069703558984
520000000.0 0.353665381187226 0.3226792897187486
540000000.0 -0.39035349440313427 -0.091722513936614
560000000.0 -0.1957185245270857 0.27755307019078174
580000000.0 0.15027892495641654 -0.2775415860244609
600000000.0 -0.2520647894524616 -0.19109269161077153
620000000.0 0.1747091434564441 0.2763876040845777
640000000.0 0.14192205104478972 0.328483180722779
660000000.0 0.33165200191517785 0.17215777410050337
680000000.0 -0.161272555892809 -0.3682579919530163
700000000.0 -0.4097875699622128 0.07357107034644156
720000000.0 -0.2237997504225558 0.36909677549284686
740000000.0 -0.35688585117568367 -0.25411185745390236
760000000.0 0.3561527512896466 0.24054650269810618
780000000.0 -0.005722558067703535 0.40023048250730425
800000000.0 -0.31814869329122053 -0.18867676705409991
820000000.0 -0.3099651254932331 0.047149557540232555
840000000.0 -0.007985035760604471 -0.2581900678997102
860000000.0 0.013622613790941866 -0.2039148601415703
880000000.0 0.1500125266147528 0.017140883888683827
900000000.0 0.022498496824380564 -0.08079244864756259
920000000.0 -0.029646194745993035 0.03575922261075408
940000000.0 -0.008096897872378607 0.03479615173093617
960000000.0 -0.04813505252939571 0.0005223601200900485
980000000.0 -0.019635100750202417 0.05711291911558347
1000000000.0 -0.06969237100749864 -0.0130988485072285
1020000000.0 0.08231739106071877 -0.02306405504004548
1040000000.0 0.08030133910692024 0.056964263617086806
1060000000.0 -0.09468603823223974 -0.09914044437771585
1080000000.0 -0.06718801240678261 -0.13681451315250712
1100000000.0 -0.08571979702915886 -0.15226199777453012
1120000000.0 -0.08058469044801506 0.17529346037886873
1140000000.0 -0.18194612533111196 0.1390976168240031
1160000000.0 -0.07114492675056859 0.255362654543609
1180000000.0 -0.2698371551527342 0.15366655557752143
1200000000.0 -0.335878124190061 -0.06919724942901129
1220000000.0 0.2747971246025237 -0.262191207735262
1240000000.0 -0.1101381280689927 0.3902791209396468
1260000000.0 -0.11195180304283801 -0.4182085289736162
1280000000.0 -0.21345896189356212 0.39074618967533714
1300000000.0 0.2347946030101897 -0.3872808377307081
1320000000.0 -0.283494153607733 -0.3478856305564514
1340000000.0 -0.4156762837230426 -0.1369339312511171
1360000000.0 -0.11748179123200884 -0.41554955362127644
1380000000.0 -0.17662888064111892 -0.39015190409919354
1400000000.0 -0.37859481978277065 0.176593303522105
1420000000.0 0.06295869267558306 0.3940877589439443
1440000000.0 0.37119228854306396 -0.0010834642599367613
1460000000.0 0.23646385574641274 -0.2425510034954157
1480000000.0 -0.07936209783280139 -0.2978666582039166
1500000000.0 -0.02590313519749394 -0.27860365216222666
1520000000.0 -0.25347552346800356 0.021580535714609116
1540000000.0 -0.08504774008898323 0.21544131096936467
1560000000.0 -0.2037839177284368 -0.003920988151091304
1580000000.0 -0.03779191404250604 -0.1783637649938454
1600000000.0 -0.03852922133679853 0.14542210578511727
1620000000.0 0.12255407777793222 -0.004230417837930323
1640000000.0 0.07436353743729551 -0.06365541732559858
1660000000.0 -0.07644056577040248 -0.0037400038040021357
1680000000.0 -0.04492583412356286 -0.028665849139728777
1700000000.0 -0.032559039915784196 0.011997591738652957
1720000000.0 -0.0037050915450542363 -0.019011119778423395
1740000000.0 -0.013470978932862275 -0.019558526196143452
1760000000.0 -0.0255039217663628 -0.03832345306706023
1780000000.0 0.062386162584422145 0.04831144705611548
1800000000.0 -0.10012296442973112 0.06025381966974613
1820000000.0 0.003890118448464252 0.15295568162320594
1840000000.0 0.03728274273090068 0.18469326517315784
1860000000.0 -0.2178660706293345 0.002403484332866973
1880000000.0 0.24672211158739563 -0.018086985023051567
1900000000.0 -0.21556395747484425 -0.1794551688245154
1920000000.0 -0.06322128110209672 0.29925710454112414
1940000000.0 0.1888049379832273 0.274118743046559
1960000000.0 0.3408054418768481 0.11387821189850103
1980000000.0 0.24748684947133237 -0.28859716263260843
2000000000.0 0.23430715700631438 -0.327201262407633
2020000000.0 -0.2158150056360997 -0.36165816676966867
2040000000.0 -0.420887578346427 -0.11248887734800299
2060000000.0 -0.11754697396762191 0.42718653552559827
2080000000.0 0.44409136958897577 0.050579430820079915
2100000000.0 0.0760701115287979 -0.4356289126115856
2120000000.0 -0.4037575699958929 -0.1497393458750011
2140000000.0 -0.2564913198466436 0.3280501582516334
2160000000.0 -0.3521409789748601 0.1828234426879361
2180000000.0 -0.20381104987815857 0.3177038242403396
2200000000.0 0.09480462381334297 0.3473503181320937
2220000000.0 -0.07981565717124356 0.3341218908937638
2240000000.0 -0.132137329931881 0.31208833433481564
2260000000.0 -0.24759697293562719 0.23428178762605154
2280000000.0 -0.16842027429809103 0.30928874816739965
2300000000.0 0.3098244668182012 0.20329732698170988
2320000000.0 0.02242286911085689 -0.39603267164670364
2340000000.0 -0.3653835557265975 0.22345602015014854
2360000000.0 0.44229793840102677 -0.15656509142484687
2380000000.0 -0.49511546079101826 0.1378132744951536
2400000000.0 0.49947529375935174 -0.25794592205370526
2420000000.0 -0.29959544769999097 0.5318278111158316
2440000000.0 -0.06482829411476018 -0.6527992275171963
2460000000.0 0.47830486566985675 0.5025424557444073
2480000000.0 -0.6681423077810972 -0.27564324372998217
2500000000.0 0.7095485376594439 0.21377116929969694
2520000000.0 -0.6361207194085178 -0.40019666494504963
2540000000.0 0.33151757758211403 0.6751059896082922
2560000000.0 0.1924493344541422 -0.7203643343141671
2580000000.0 -0.7110405178544301 0.1706683528528591
2600000000.0 0.5989655550949717 0.3752726191513794
2620000000.0 -0.06079423443314233 -0.6742889148382863
2640000000.0 -0.3032665345050939 -0.5648239187620427
2660000000.0 -0.22067444001827036 0.5541494444850535
2680000000.0 0.5301602556728401 -0.14691659446211294
2700000000.0 -0.3905168628950895 -0.3165731101989031
2720000000.0 -0.06738041662191666 0.45003625933215324
2740000000.0 0.40915650105396695 -0.0419769635944275
2760000000.0 -0.3010868316038605 -0.22343585867372287
2780000000.0 0.08323084161107071 0.3371114528716915
2800000000.0 -0.0718354528955912 -0.31856701492779793
2820000000.0 0.30461004774114453 0.07417313773678902
2840000000.0 -0.12108331324749508 0.28017296819057985
2860000000.0 -0.2972500868441768 -0.050069893209663104
2880000000.0 -0.07161933946084416 -0.2910283522048651
2900000000.0 0.2971186028437131 -0.013358337412922385
2920000000.0 -0.2956081458111639 -0.01975689793104811
2940000000.0 0.09156404832879958 0.2784051934528772
2960000000.0 0.19049513405081972 0.2207941038466727
2980000000.0 -0.09280906521550983 0.27862201473383746
3000000000.0 -0.2656236711444053 -0.13033361707339566
3020000000.0 0.21323726225675121 -0.21184209780631008
3040000000.0 -0.03628702321473481 0.3001645071735921
3060000000.0 -0.11127119915355545 -0.2851470180516108
3080000000.0 0.27764431563871084 0.12841374885136497
3100000000.0 -0.29860755664109406 0.05694449989285976
3120000000.0 0.03472742729716231 -0.2989376603716436
3140000000.0 0.2855235235478499 -0.0631565429564073
3160000000.0 -0.2682161124266755 0.0585613526452067
3180000000.0 -0.11954090951888954 -0.2248284933829359
3200000000.0 0.11939061342403608 -0.1902047526010701
3220000000.0 0.09434818823355026 0.1678525693970504
3240000000.0 -0.07854642300585725 -0.1378315765264117
3260000000.0 -0.10297036096392975 -0.07157973540289427
3280000000.0 0.09357184674183709 -0.03207060959544941
3300000000.0 -0.019308847070998014 0.07445041640555303
3320000000.0 -0.037991375877560817 -0.04460595818823262
3340000000.0 -0.032724095346434584 -0.027596367836950554
3360000000.0 -0.021656886975076745 -0.013837488611961414
3380000000.0 0.003927623578082681 0.011229019495730568
3400000000.0 0.01754456031782408 0.010281318830531022
3420000000.0 0.039740237301818124 0.0017876145978222042
3440000000.0 -0.0400758865452815 -0.03690690823351224
3460000000.0 -0.06188632825388536 0.021321886682057416
3480000000.0 0.013253472351039786 -0.0714760914141073
3500000000.0 -0.030644586121913172 0.07317534275958718
3520000000.0 -0.08527240824093343 -0.0012461865227827705
3540000000.0 -0.09161926160194332 -0.029252394536566067
3560000000.0 -0.09842754712232656 -0.047591640842210535
3580000000.0 -0.12749205847271336 0.004791649374459008
3600000000.0 -0.0177447342644718 -0.1492433232941119
3620000000.0 0.030331907776671996 -0.16534934247840233
3640000000.0 0.0015657227938950782 -0.18373679642798513
3660000000.0 -0.1622462991070769 -0.10983203289620826
3680000000.0 -0.1829531349426066 0.07887565618214928
3700000000.0 -0.03161812724775976 0.19517533968617787
3720000000.0 -0.05631553598146472 0.1826738448440106
3740000000.0 -0.17063114760198744 0.057475777498913166
3760000000.0 0.005467518254365969 0.16908279925385025
3780000000.0 0.14014643749707978 0.07439937751760561
3800000000.0 0.01341036425452563 0.15558104698157993
3820000000.0 0.0066713038683929695 0.1547920049496
3840000000.0 0.0679757684924795 0.13884106397176246
3860000000.0 0.05812875990390003 0.14812346928834919
3880000000.0 0.057223229068281346 -0.15300840589842696
3900000000.0 -0.10666713927103402 0.12429315075241427
3920000000.0 0.1036549803826595 -0.12523037190039385
3940000000.0 -0.15220383794140319 0.051492231501553826
3960000000.0 0.15965249951331087 -0.042433907497083055
3980000000.0 0.1490921673414086 0.07064422176286142
4000000000.0 -0.13085736681228172 0.09537763704139944
