!Created with skrf (http://scikit-rf.org).
# Hz S RI R 50.0 
!freq ReS11 ImS11
400000000.0 -0.5229009992303476 0.7004237465267333
420000000.0 0.45010665628532087 0.7446825970174397
440000000.0 0.6339637295778076 -0.5586368450683222
460000000.0 -0.54751102398433 -0.5893150179285588
480000000.0 -0.37884956289351546 -0.6238506755481071
500000000.0 0.1426760249150538 0.555318031852974
520000000.0 0.3536420017902611 0.32237857662707586
540000000.0 -0.38913978623061807 -0.09630569962072588
560000000.0 -0.19445831260250324 0.27860681553972455
580000000.0 0.12073310854398032 -0.292104482297631
600000000.0 -0.2796913316944673 -0.14937459303210412
620000000.0 0.16036871056002894 0.28621380714027145
640000000.0 0.08606278484009064 0.3487468839317594
660000000.0 0.29393741653335737 0.23326616959760316
680000000.0 -0.08574095799322612 -0.39358966199565865
700000000.0 -0.4162229788640438 -0.017123483127169842
720000000.0 -0.2694347353870919 0.337328835496375
740000000.0 -0.3336239196126294 -0.28379532173115046
760000000.0 0.33773723749306517 0.26433199575918925
780000000.0 -0.025342462549442047 0.39824750004744747
800000000.0 -0.3352476785385821 -0.15337531456379225
820000000.0 -0.2845612356212648 0.12902042985829337
840000000.0 -0.10443806641296713 -0.23634873205880738
860000000.0 -0.06998582854999981 -0.19231770272189702
880000000.0 0.14202139640180886 -0.05426849602062944
900000000.0 0.0008787532074656043 -0.08561442757261706
920000000.0 -0.010869295208612089 -0.047168690818049794
940000000.0 0.021644203103165834 -0.026640821088135112
960000000.0 -0.009772197813967305 -0.04448106131076523
980000000.0 0.025527446763379473 0.05178362525761678
1000000000.0 -0.04131608600850191 0.05537547891060267
1020000000.0 -0.012965493209057093 -0.08332208431720674
1040000000.0 0.07597707507216302 -0.06251464496861385
1060000000.0 -0.1369122272068654 0.015014231784549392
1080000000.0 -0.13479930547846863 -0.07405350392987713
1100000000.0 -0.14764594502725573 -0.09748531747493364
1120000000.0 -0.05398275026187664 0.18791969135238887
1140000000.0 -0.2058908966478535 0.10655640162247053
1160000000.0 -0.17211948441038435 0.20499118096068752
1180000000.0 -0.3124915311596356 -0.0004784229308260972
1200000000.0 -0.267738843013628 -0.21677419703821557
1220000000.0 0.3620000099366295 -0.11876046306856772
1240000000.0 -0.20961278147397958 0.34852571641427116
1260000000.0 0.042081683031137386 -0.43097597448396013
1280000000.0 -0.2985808851536532 0.329723944261728
1300000000.0 0.29132933663527616 -0.3454529179331378
1320000000.0 -0.279624707765025 -0.3501239454167238
1340000000.0 -0.41346521088394705 -0.1413383645516715
1360000000.0 -0.1261935332620707 -0.41212756949348023
1380000000.0 -0.20313631093216136 -0.37632940123181835
1400000000.0 -0.35693844298526967 0.21663615043777595
1420000000.0 0.13909504670147224 0.3737892416364736
1440000000.0 0.3641812498044666 -0.07239728531034491
1460000000.0 0.17081011652905392 -0.2930744856982993
1480000000.0 -0.1235685682900097 -0.2834630602464549
1500000000.0 -0.08913756073165807 -0.26670982479749983
1520000000.0 -0.25185037797575605 0.04449774333977384
1540000000.0 -0.050936054189269366 0.2273665361449636
1560000000.0 -0.20200954248270012 -0.03959131231689284
1580000000.0 -0.010674940820336102 -0.1839016197988146
1600000000.0 -0.08349636587232319 0.12739704014977626
1620000000.0 0.11435511148681067 0.048224501539289415
1640000000.0 0.08827275228931718 0.043881853536667945
1660000000.0 -0.0048451829207999016 -0.07538793832089083
1680000000.0 0.006546697159987477 -0.051157596136067476
1700000000.0 -0.027503746253693496 0.019802844943843597
1720000000.0 0.014569643691994595 0.012266348079817038
1740000000.0 -0.025159618631865513 -0.0016365062419486079
1760000000.0 0.028909947270084863 -0.03706580238143849
1780000000.0 -0.012393333556688167 0.07877334801242904
1800000000.0 -0.11642818457267455 -0.012523921222384223
1820000000.0 -0.08895490545534242 0.12330230021665158
1840000000.0 -0.003698326110672723 0.1876129279265807
1860000000.0 -0.21634716572260607 -0.02175683831688593
1880000000.0 0.24623125368966287 -0.011748348792995023
1900000000.0 -0.2108295777797891 -0.1838983832334344
1920000000.0 -0.05405112491372261 0.30042210534002356
1940000000.0 0.20945124125535292 0.25805463222099767
1960000000.0 0.35221453240227285 0.07030240362054671
1980000000.0 0.20405503601944835 -0.32085759610414694
2000000000.0 0.2079719115880754 -0.3453287019726487
2020000000.0 -0.23813925543708442 -0.34879892447694366
2040000000.0 -0.4302786759582862 -0.07555965124590444
2060000000.0 -0.10156235345197676 0.4330659270718805
2080000000.0 0.44632287418647465 0.04034342982372347
2100000000.0 0.12109931849572383 -0.42665277348739505
2120000000.0 -0.39189981856165984 -0.180840339214515
2140000000.0 -0.30759560769974265 0.2823996673990825
2160000000.0 -0.3929431515462896 0.05948084125393313
2180000000.0 -0.2664890659112687 0.2669814464300751
2200000000.0 -0.0012765274259598086 0.3594580901687368
2220000000.0 -0.1509709071951204 0.30796259368253304
2240000000.0 -0.17224947582608452 0.29202302306263134
2260000000.0 -0.2663513151784559 0.21247022398253118
2280000000.0 -0.19031486553153443 0.2958906851238166
2300000000.0 0.2942857836255113 0.2240945523480398
2320000000.0 0.01094958955057937 -0.39593426899860074
2340000000.0 -0.3512120467242358 0.24508103451738716
2360000000.0 0.4379521889218114 -0.16847525060676483
2380000000.0 -0.49588181834525186 0.13649976081274878
2400000000.0 0.5063649809059704 -0.24456047643474849
2420000000.0 -0.30781533948649265 0.5271342797432488
2440000000.0 -0.0631454993796678 -0.6529367498253288
2460000000.0 0.4944644212408883 0.48694889770911565
2480000000.0 -0.668235424254469 -0.27708540687305133
2500000000.0 0.7037098539469485 0.23494682981875215
2520000000.0 -0.6436587390812177 -0.38854971093067875
2540000000.0 0.37779624157906655 0.6508196033052939
2560000000.0 0.23475636191750127 -0.7084705433335766
2580000000.0 -0.7228628780207107 0.11253219415726205
2600000000.0 0.5788818783936034 0.4073556236624641
2620000000.0 0.024038703053759814 -0.6776261144282762
2640000000.0 -0.20916167367538205 -0.6066522869555301
2660000000.0 -0.3162256410943877 0.5066511776795055
2680000000.0 0.5465660233422831 -0.060285836333096664
2700000000.0 -0.3495749414084846 -0.3606364889339741
2720000000.0 -0.09518277561450793 0.4446372357776073
2740000000.0 0.4092018288949818 -0.03808324120863985
2760000000.0 -0.30026513011823885 -0.22359264159068035
2780000000.0 0.08918783925609876 0.33541979120534604
2800000000.0 -0.09451080248390736 -0.31243831904987174
2820000000.0 0.3117521640634224 0.032789204167967746
2840000000.0 -0.08420189886074156 0.29373539099136403
2860000000.0 -0.3024453745870566 -0.015004577269768733
2880000000.0 -0.0991419312083351 -0.28433291891588613
2900000000.0 0.29810169098294487 -0.014203279903365184
2920000000.0 -0.29534852468149897 -0.032464572221910466
2940000000.0 0.03905265413748635 0.29128563485388514
2960000000.0 0.12347378051633245 0.26526690551044596
2980000000.0 -0.17161130818283865 0.23935513984651288
3000000000.0 -0.18888997359381235 -0.2280557633174806
3020000000.0 0.2855835096451147 -0.09560809910362025
3040000000.0 -0.14220700013068371 0.2663380026992857
3060000000.0 0.004000863246003588 -0.3063487681767905
3080000000.0 0.24055311963529008 0.18891981997210022
3100000000.0 -0.3033966793006912 -0.013656864797521753
3120000000.0 0.057602194305296076 -0.2949278823021388
3140000000.0 0.29077635409471925 -0.013645269182717329
3160000000.0 -0.2726206098589213 0.01658019195102662
3180000000.0 -0.11080137962588504 -0.22748359873645077
3200000000.0 0.11597547428896954 -0.190843642646838
3220000000.0 0.11255263089376999 0.15433293119973931
3240000000.0 -0.0780926688994958 -0.13715744650730763
3260000000.0 -0.11787344357697585 -0.03965096192086579
3280000000.0 0.07087074932723794 -0.06777155216290928
3300000000.0 0.044723551369256986 0.061921440371658615
3320000000.0 -0.0356009199352851 0.046641768593553165
3340000000.0 0.004513079984053511 0.04327098196682043
3360000000.0 -0.010598361180717076 -0.024363206297935206
3380000000.0 0.013562897317648056 -0.001958006547858312
3400000000.0 -0.02095452298564955 0.0003813389157050251
3420000000.0 0.008470006555068712 0.03889860745288731
3440000000.0 0.03178068344820654 -0.04434531755665661
3460000000.0 -0.04969276694953363 -0.04198052305079464
3480000000.0 0.0490686392334244 -0.05255711183599746
3500000000.0 -0.07141443197623032 0.032135910406024086
3520000000.0 -0.08346011068938042 -0.01380327600380897
3540000000.0 -0.0686480634199302 -0.06529742144161764
3560000000.0 -0.07177290492319434 -0.08141432468474297
3580000000.0 -0.12611070169503968 0.015704310238096316
3600000000.0 -0.017564667362870018 -0.14866292746769177
3620000000.0 0.0659426468757827 -0.15321778852039683
3640000000.0 0.03337266499194031 -0.17973720959898543
3660000000.0 -0.15283014907746298 -0.12077082098573035
3680000000.0 -0.18495023516785417 0.07039544602437976
3700000000.0 -0.017319572848952802 0.19569191401854114
3720000000.0 -0.054473066563025446 0.18233907255919826
3740000000.0 -0.17428976688292327 0.04247661748090752
3760000000.0 0.007138691404870314 0.1691080452307672
3780000000.0 0.1273491807479914 0.0933918087657427
3800000000.0 0.015678381916756218 0.15424310078912534
3820000000.0 -0.003179987007863077 0.15360084520452982
3840000000.0 0.09551967211276317 0.11999267606208298
3860000000.0 0.0978383720348215 0.1234999907296645
3880000000.0 0.02382906907837614 -0.15982190275086516
3900000000.0 -0.11096363544911561 0.11880308055814862
3920000000.0 0.08154669265607568 -0.13913046409420535
3940000000.0 -0.1436964451825781 0.0692938459588123
3960000000.0 0.1397061518037211 -0.08201364451421506
3980000000.0 0.1545363969010163 -0.05084794008826108
4000000000.0 -0.03216881127693805 0.15656322681267024
