!Created with skrf (http://scikit-rf.org).
# Hz S RI R 50.0 
!freq ReS11 ImS11
400000000.0 -0.527188844802238 0.6992680301819033
420000000.0 0.4173287666707051 0.7652895592062725
440000000.0 0.6871536055239237 -0.4941097600321999
460000000.0 -0.5231718457762623 -0.6112190194886246
480000000.0 -0.33759962480683486 -0.6474352085380163
500000000.0 0.18812967593563573 0.5417845984848347
520000000.0 0.3963214810389448 0.2685549585415859
540000000.0 -0.38086803724579127 -0.1254150649427888
560000000.0 -0.20538803630909522 0.270128227584823
580000000.0 0.11921570719997972 -0.2924312115269566
600000000.0 -0.28313339969855333 -0.14068332855018165
620000000.0 0.19489832109623248 0.2633400777946469
640000000.0 0.12196944537072073 0.33630526170509895
660000000.0 0.33801376488869345 0.15775989450543557
680000000.0 -0.200490469431163 -0.347099697202812
700000000.0 -0.3965052039493363 0.12441472313751463
720000000.0 -0.20216400129507756 0.3808619700077539
740000000.0 -0.3378993981518763 -0.2786951317565345
760000000.0 0.32981035071405385 0.27463408667101724
780000000.0 -0.03941313632433447 0.3983855530074095
800000000.0 -0.33002213487834015 -0.1676914336440857
820000000.0 -0.3105558574340673 0.04674573923417394
840000000.0 -0.0012081827132668932 -0.258950113334652
860000000.0 0.027864979860573447 -0.2030712061274865
880000000.0 0.1513797046468024 0.0014949156746834782
900000000.0 -0.022824575320422997 -0.08130806278371894
920000000.0 -0.0030593036447368956 0.04696208341889316
940000000.0 -0.004009007999704099 0.035118119344517036
960000000.0 -0.04529829288057849 0.016843624011942313
980000000.0 0.047299009749114225 0.038134763203273116
1000000000.0 -0.06374271122516552 0.03198443298230231
1020000000.0 0.06394327551597177 -0.057223621204782645
1040000000.0 0.08856101826172995 0.04360139750260006
1060000000.0 -0.09319873513991406 -0.10079364330399199
1080000000.0 -0.09172023476880929 -0.12155978060501636
1100000000.0 -0.09713592234058377 -0.14561400187181617
1120000000.0 -0.06991683695737766 0.18005128610674825
1140000000.0 -0.17674391161976394 0.1454333281666704
1160000000.0 -0.0983956454733145 0.24575803295203466
1180000000.0 -0.29786867484875684 0.08516266203042663
1200000000.0 -0.31425614052811907 -0.13400939863871977
1220000000.0 0.3076434002620957 -0.22116317527639884
1240000000.0 -0.16171096720955774 0.3717506946979544
1260000000.0 -0.04397579020816855 -0.43045624760710277
1280000000.0 -0.2123542591664462 0.39150150563540215
1300000000.0 0.2205159726790514 -0.39570351649910035
1320000000.0 -0.3216916527485537 -0.3134464256836247
1340000000.0 -0.42703344664267273 -0.09793165491467097
1360000000.0 -0.14047830830601585 -0.4085849975775258
1380000000.0 -0.19502832860284938 -0.38100361412829487
1400000000.0 -0.3775492295286882 0.17920145463302636
1420000000.0 0.0904339735484167 0.38869988569169966
1440000000.0 0.36879343615933624 -0.03939359185343526
1460000000.0 0.22800886659325723 -0.25099117732630927
1480000000.0 -0.042850919306023784 -0.3059293902279832
1500000000.0 -0.02015951186765951 -0.2789122329575036
1520000000.0 -0.254196393658702 0.0034347757957881226
1540000000.0 -0.08783510520224287 0.21406558331752198
1560000000.0 -0.19006392500249947 -0.07545367255439812
1580000000.0 0.0017113869308812665 -0.18314085965058882
1600000000.0 -0.06337466127047801 0.13723766751559704
1620000000.0 0.1221361810550371 0.01605910428480574
1640000000.0 0.09685549347853752 -0.017251719294085692
1660000000.0 -0.059126339125351174 -0.04904080549856886
1680000000.0 -0.002567572136394428 -0.05301792807331596
1700000000.0 -0.025444213364105114 -0.023150358452971392
1720000000.0 -0.017045561925806123 -0.008144952710980964
1740000000.0 -0.013200746310126854 -0.019930772875304988
1760000000.0 0.017617262660179767 -0.04283916365054934
1780000000.0 -0.016982308180798617 0.07744917858956916
1800000000.0 -0.1164723545319039 -0.008005325339278243
1820000000.0 -0.07934435672514216 0.1304868426718089
1840000000.0 -0.0298309230737152 0.18577241392702967
1860000000.0 -0.21231291573507413 -0.051127725497700685
1880000000.0 0.24471423573819012 0.03563037498446478
1900000000.0 -0.19690406439406583 -0.19973015487748524
1920000000.0 -0.06425553879058736 0.29904574802283757
1940000000.0 0.21709477975574448 0.2519838929837717
1960000000.0 0.3546079648022715 0.058973815075888
1980000000.0 0.17919303580828336 -0.3350645953155491
2000000000.0 0.16488495360447078 -0.36686264362864784
2020000000.0 -0.26603627642312583 -0.3260625573619057
2040000000.0 -0.4344559828011869 -0.024398062713097118
2060000000.0 -0.06456066678808639 0.43816438529366
2080000000.0 0.4453378856645107 0.041004305240470655
2100000000.0 0.10089058508709547 -0.43129777931917107
2120000000.0 -0.3882893974124217 -0.18860726223266777
2140000000.0 -0.2960716111136335 0.29573594588296476
2160000000.0 -0.38753886394229065 0.09429157572332365
2180000000.0 -0.26764364757973946 0.26860527558929576
2200000000.0 0.04009032917327038 0.3591004048351339
2220000000.0 -0.07088083162339603 0.3373916531053943
2240000000.0 -0.14569379790839349 0.30702970972761845
2260000000.0 -0.2798994946910672 0.19498799233583805
2280000000.0 -0.2211242242549281 0.2731273005916054
2300000000.0 0.268607542099439 0.2536969176471281
2320000000.0 0.06467168361087698 -0.39030544406720624
2340000000.0 -0.3766223046853359 0.20323505994165747
2360000000.0 0.4568257273482057 -0.10672147783133837
2380000000.0 -0.5042031580899042 0.10072558720935541
2400000000.0 0.49049619991660676 -0.27542177377968513
2420000000.0 -0.3073896401103929 0.5273472113643448
2440000000.0 -0.05716700483978974 -0.6535851485805653
2460000000.0 0.5090647181412933 0.47112818095495157
2480000000.0 -0.6730508037034406 -0.2643385089788217
2500000000.0 0.6858481764967712 0.2812163959428948
2520000000.0 -0.6338429607463109 -0.4036417272243298
2540000000.0 0.32851734500397894 0.6768456328944168
2560000000.0 0.18691227356664286 -0.7223448842332297
2580000000.0 -0.6850491676540362 0.2567451162169672
2600000000.0 0.5779894490256987 0.4096203124152568
2620000000.0 -0.04565346444899179 -0.677166577270155
2640000000.0 -0.2534495450351992 -0.5906486046716324
2660000000.0 -0.27513962292610344 0.5314683794477782
2680000000.0 0.5440756354837719 -0.08763173045910015
2700000000.0 -0.3742138157857008 -0.3367485998561012
2720000000.0 -0.08499380414499565 0.44833372249703884
2740000000.0 0.41209573251922205 -0.021528644296431376
2760000000.0 -0.24880130953030244 -0.28060448489456763
2780000000.0 0.0297352742880819 0.34620001861056926
2800000000.0 -0.023503220178843185 -0.32551612021814164
2820000000.0 0.29496058280747295 0.10592836891356722
2840000000.0 -0.16286391610065915 0.2581330252435889
2860000000.0 -0.29547813368946785 -0.06097209583804447
2880000000.0 -0.08229590716322928 -0.28838803317274014
2900000000.0 0.29611238612125373 -0.029789889072809144
2920000000.0 -0.29215616032295527 0.04713348738296444
2940000000.0 0.12946336369743405 0.2633090527898052
2960000000.0 0.1924579497662753 0.22036923508006837
2980000000.0 -0.04629118308797786 0.2905120143459518
3000000000.0 -0.275787410776638 -0.10752153188800563
3020000000.0 0.2548011199684341 -0.160494429713093
3040000000.0 -0.09849321969497235 0.2869271170761792
3060000000.0 -0.095504616544746 -0.2913681308139533
3080000000.0 0.2600394605892768 0.161090031772747
3100000000.0 -0.2999532401477611 0.05496831781184255
3120000000.0 0.03694079938175773 -0.2996113546674223
3140000000.0 0.2926085373526781 -0.004407119238090656
3160000000.0 -0.27472035520962834 0.013985060149580286
3180000000.0 -0.09879378951111564 -0.23574605483657846
3200000000.0 0.1047251105780091 -0.20002648844615425
3220000000.0 0.092097120232907 0.16951123555862763
3240000000.0 -0.06126882375720757 -0.14648878824976436
3260000000.0 -0.11587677498941408 -0.045729567075181034
3280000000.0 0.0864693268982093 -0.04503400250692651
3300000000.0 -0.0014937006977124114 0.07527999157756303
3320000000.0 -0.04253892554968647 -0.0390873765224302
3340000000.0 -0.01773090238712376 -0.038573866234658125
3360000000.0 0.0037593908680723692 0.02542517955461659
3380000000.0 0.0087089137831517 -0.009119573941838734
3400000000.0 0.011217538517139955 0.017380000841448973
3420000000.0 0.025047534552967352 0.03142707725210844
3440000000.0 0.05559355572351836 0.00043673089578555985
3460000000.0 0.01049848217397032 -0.0650019089284417
3480000000.0 0.07185261601098573 -0.01589415946170814
3500000000.0 -0.05246501130062691 0.0605252573377186
3520000000.0 -0.08509088384604614 -0.008814191422923712
3540000000.0 -0.09404097087829874 -0.020022866658694356
3560000000.0 -0.1044225978480431 -0.03403443591904724
3580000000.0 -0.1267218380134324 -0.007955014642848193
3600000000.0 0.05457510693381995 -0.13958815046368642
3620000000.0 0.0721005667489797 -0.15104191662426666
3640000000.0 0.08454579959025486 -0.16239426605413051
3660000000.0 -0.11295749835370984 -0.15937058352943173
3680000000.0 -0.19917356446198492 -0.00923637307482451
3700000000.0 -0.08780677247855759 0.1770032646679964
3720000000.0 -0.09966616025840078 0.16345912100057652
3740000000.0 -0.17446765689296642 0.04523442052137347
3760000000.0 0.001702463354259271 0.16860174147540874
3780000000.0 0.1234206437919387 0.09852657934588967
3800000000.0 0.02226249832216118 0.1521794533648721
3820000000.0 0.008097783236821284 0.15284174141477058
3840000000.0 0.07252830416515305 0.13444319963884646
3860000000.0 0.032464148532625005 0.1538304006746997
3880000000.0 0.05602570250323792 -0.15174506305019478
3900000000.0 -0.13154677405426038 0.09598290065812498
3920000000.0 0.06726100032554544 -0.1469491365566199
3940000000.0 -0.1252504163180525 0.09947943314740976
3960000000.0 0.13673570265644716 -0.08623758312145256
3980000000.0 0.15832219514839777 -0.03618254839850858
4000000000.0 -0.0674983792833656 0.14412020863781522
