!Created with skrf (http://scikit-rf.org).
# Hz S RI R 50.0 
!freq ReS11 ImS11
400000000.0 -0.5459034198939698 0.6820443709367972
420000000.0 0.4509531837342674 0.7456093763111339
440000000.0 0.6506105144616168 -0.5396497318794523
460000000.0 -0.5495049789806835 -0.5874801790597264
480000000.0 -0.36996165080876736 -0.6298039329540768
500000000.0 0.18262888580852626 0.5438605854109386
520000000.0 0.3694795086319302 0.3049895963136543
540000000.0 -0.3913942796105898 -0.08913791101990441
560000000.0 -0.14589118684465346 0.30787957640325947
580000000.0 0.1587078446249766 -0.2713481998717123
600000000.0 -0.2651283698123332 -0.17357911318815367
620000000.0 0.2610152386056214 0.1982012354539553
640000000.0 0.2120033088596984 0.2864450262311863
660000000.0 0.3480263759147301 0.13481231178873912
680000000.0 -0.19408758646321975 -0.3504528955944031
700000000.0 -0.3959274001969811 0.12411959040721232
720000000.0 -0.2510704356143865 0.3485488872797869
740000000.0 -0.2905581726737506 -0.3271846477979874
760000000.0 0.2748000191462423 0.32968551066889923
780000000.0 -0.13845159684130165 0.376529411175968
800000000.0 -0.26300713187488717 -0.2621036727150756
820000000.0 -0.315380021787459 -0.007977805585632344
840000000.0 0.019071252140119843 -0.2600839463830229
860000000.0 -0.007963153773793575 -0.2067735438514954
880000000.0 0.14582059912898052 -0.04701525300395966
900000000.0 -0.07938071378211294 -0.03274753397992328
920000000.0 0.03626427967805826 0.032058084770139196
940000000.0 -5.282146610818989e-05 0.03709870475380939
960000000.0 -0.04467115297030144 0.021745276049875816
980000000.0 0.04410478919364958 0.04240140928104711
1000000000.0 -0.05557228781005689 0.04487344939923899
1020000000.0 -0.008643210377897139 -0.0855208881489364
1040000000.0 0.09854075250507348 0.0017735630960154678
1060000000.0 -0.11685971507262072 -0.07252856916687662
1080000000.0 -0.08219695341589009 -0.12920732546753705
1100000000.0 -0.1291150848493075 -0.11889142050901512
1120000000.0 -0.010430603774055972 0.19347105736891118
1140000000.0 -0.1363528522940735 0.1837630850770982
1160000000.0 -0.05113339319987549 0.25889341615610745
1180000000.0 -0.2862289525602114 0.11426568151575948
1200000000.0 -0.3145510241269849 -0.13065971117320563
1220000000.0 0.3128297222991505 -0.21197262173958933
1240000000.0 -0.20403993651800606 0.34932142883533357
1260000000.0 -0.013431091549895535 -0.4322400533594061
1280000000.0 -0.2529397359456224 0.36736401754495535
1300000000.0 0.26638933964715883 -0.36695381112690567
1320000000.0 -0.3030657000469551 -0.3326254900585366
1340000000.0 -0.4309264922712982 -0.08229102403680626
1360000000.0 -0.1803490278421696 -0.3928584013628732
1380000000.0 -0.2326433630629023 -0.35950518928619196
1400000000.0 -0.3611043007700647 0.21026611071865595
1420000000.0 0.0961142467981645 0.38730210847042196
1440000000.0 0.37093516721475944 -0.017628694802725914
1460000000.0 0.22557195617157907 -0.2529168510816052
1480000000.0 0.01789981681375803 -0.3084324645994612
1500000000.0 -0.01694287623053995 -0.27927920066425777
1520000000.0 -0.2534605261267334 0.009631904730945481
1540000000.0 -0.10580825120600369 0.20505888308520145
1560000000.0 -0.16525107024531535 -0.11846981743278805
1580000000.0 0.07480961056258564 -0.1660089685144387
1600000000.0 -0.11446254745409888 0.0977380906629304
1620000000.0 0.10894026135472905 0.056085545776242675
1640000000.0 0.09784290371674229 0.005933776225621994
1660000000.0 -0.03124447873011147 -0.06919406153309984
1680000000.0 -0.002552988256616955 -0.053347299727023546
1700000000.0 -0.03290208918317853 -0.013303252110313028
1720000000.0 0.019641432857469294 -0.00031655529343752785
1740000000.0 0.02318301867596319 -4.767761926286207e-05
1760000000.0 0.04081639373806602 0.018857927338007223
1780000000.0 -0.02600292378631433 0.07428549676392367
1800000000.0 -0.10912232052171658 -0.03992921314501154
1820000000.0 -0.0913476271110713 0.12189470867952569
1840000000.0 -0.033651772784271276 0.18506359530925523
1860000000.0 -0.2129719086153206 -0.04726317507978443
1880000000.0 0.24680649547176992 0.024637840560911915
1900000000.0 -0.19968136571797698 -0.1983590627203215
1920000000.0 -0.059377202403505344 0.301345493802129
1940000000.0 0.23251855854544115 0.23990294630795256
1960000000.0 0.35752873907016514 0.0444228435971722
1980000000.0 0.17122984155676887 -0.3403152545940711
2000000000.0 0.15417189686413893 -0.3720409019014277
2020000000.0 -0.26604720218858524 -0.32581853977348607
2040000000.0 -0.43239086960958045 -0.042326989725213454
2060000000.0 -0.09325458138748066 0.4318030717778786
2080000000.0 0.43385722178163955 0.09974871129635857
2100000000.0 0.18584379855841696 -0.3995040499004111
2120000000.0 -0.3652173900507461 -0.2268645641083203
2140000000.0 -0.3321886497358406 0.2535246891610663
2160000000.0 -0.3926571692813669 0.07038089571538474
2180000000.0 -0.27100839275389976 0.2661038624101141
2200000000.0 0.07886863604046901 0.35348967155497585
2220000000.0 0.01160709677572224 0.3445770456750211
2240000000.0 -0.04970245570413532 0.3359343998951526
2260000000.0 -0.1911468282289268 0.28192186824930954
2280000000.0 -0.15443173311156522 0.31476872015316154
2300000000.0 0.3020708012838958 0.2118913010832939
2320000000.0 0.07643446303687886 -0.3877891139720709
2340000000.0 -0.37320442404697274 0.20990508663591842
2360000000.0 0.45826785637737205 -0.10422058811677519
2380000000.0 -0.5069950171534727 0.09039906115662878
2400000000.0 0.518650708463227 -0.22037976195052947
2420000000.0 -0.2988203835185635 0.5333290366456592
2440000000.0 -0.060182718914768216 -0.6539168194899273
2460000000.0 0.5249239601406556 0.45395167935358793
2480000000.0 -0.6732227979937846 -0.26389495791517786
2500000000.0 0.6888621135656315 0.2739577969491298
2520000000.0 -0.6664745276650047 -0.34618791398807347
2540000000.0 0.35196092252493694 0.6645701215091802
2560000000.0 0.12652262325739816 -0.7350043240789311
2580000000.0 -0.6649154662698588 0.3035146149418819
2600000000.0 0.6278990762283778 0.3261337293068692
2620000000.0 -0.03643804602686193 -0.6766600652899888
2640000000.0 -0.3348812696871867 -0.5480940081911266
2660000000.0 -0.19876017248401787 0.5639338909715035
2680000000.0 0.540627027292349 -0.10841171160092826
2700000000.0 -0.4093436277406735 -0.29291412250845783
2720000000.0 -0.056434045043076135 0.451760121397376
2740000000.0 0.4117421896677341 -0.004747437134478029
2760000000.0 -0.2442152007672148 -0.28356348404034015
2780000000.0 0.023946330355292707 0.3458257085894591
2800000000.0 -0.012233569845596653 -0.32570412138864796
2820000000.0 0.2689867442467115 0.15996377589143146
2840000000.0 -0.1878228103176972 0.2408158035406724
2860000000.0 -0.2928921199645788 -0.07389074933430927
2880000000.0 -0.061710837822854615 -0.2941291233945486
2900000000.0 0.29149466643037386 -0.06434168083533368
2920000000.0 -0.29488915198209287 0.0365488099941547
2940000000.0 0.15897104590184566 0.2467947411935815
2960000000.0 0.2371753742723055 0.1711931538402737
2980000000.0 -0.038462943742800675 0.2916851981242779
3000000000.0 -0.2735501731410034 -0.11157240419753557
3020000000.0 0.26033072186662926 -0.1495866495030757
3040000000.0 -0.07764754499059547 0.2918273199461072
3060000000.0 -0.070191078681557 -0.2975536119382898
3080000000.0 0.261799300410439 0.15810373511169895
3100000000.0 -0.3044550616965733 0.0020608025445680938
3120000000.0 0.0958648716938069 -0.2858984715545561
3140000000.0 0.2929204061717251 0.006470311373555919
3160000000.0 -0.27472250200895854 0.006121481877314595
3180000000.0 -0.0799359085797724 -0.24306068200458106
3200000000.0 0.09572458441904169 -0.20487814313783098
3220000000.0 0.14529942774756405 0.12704799607569137
3240000000.0 -0.12164779402447246 -0.10188896412663277
3260000000.0 -0.11149003462380008 0.054776520662788784
3280000000.0 0.038280653259117975 -0.08829477149480101
3300000000.0 -0.012913201145232468 0.07328165128239011
3320000000.0 -0.026184102039225946 -0.0495000936864967
3340000000.0 0.034274706081761724 -0.023374329898587266
3360000000.0 0.004856167037361213 -0.02527643882401981
3380000000.0 0.0033512964367787648 0.011576818107812685
3400000000.0 -0.019068129452088186 0.00173200799600583
3420000000.0 -0.018031170272360224 0.03372093581634377
3440000000.0 0.052829794792448315 0.012025573902863587
3460000000.0 0.02773914145578357 -0.059261419911450106
3480000000.0 0.06913396168668516 0.02540532397412446
3500000000.0 -0.06603799682801786 0.04635626602038983
3520000000.0 -0.08122185466343812 0.028998646175142882
3540000000.0 -0.09616626686781737 -0.001874412535718743
3560000000.0 -0.10867198479170692 0.009838785777315198
3580000000.0 -0.12236681765801274 0.027502687746570054
3600000000.0 0.01437884839088286 -0.1475830759502835
3620000000.0 0.10456004174344911 -0.12870788463624738
3640000000.0 0.10546281552308288 -0.14834805348054583
3660000000.0 -0.07761211281137564 -0.1789975257602725
3680000000.0 -0.19265680418517628 -0.04911930410652306
3700000000.0 -0.1305640704707047 0.14794056565336405
3720000000.0 -0.10252527222954097 0.16162099680950237
3740000000.0 -0.14867968455460515 0.10151339213415025
3760000000.0 0.12237577470350064 0.11596060538995356
3780000000.0 0.15538256777933315 -0.026248366112327823
3800000000.0 0.08035640650158354 0.1298650209012652
3820000000.0 0.018973884023630733 0.14981126066738057
3840000000.0 0.021983701795952958 0.14983803289693842
3860000000.0 -0.040965722788251974 0.15220011476667375
3880000000.0 0.09956285432728275 -0.1294378387041953
3900000000.0 -0.11489144499026392 0.11863049212117824
3920000000.0 0.023128751098930447 -0.1621912171848727
3940000000.0 -0.050333741230075245 0.15343141604938818
3960000000.0 0.06190970225146647 -0.15142516876085635
3980000000.0 0.14840313723740312 -0.0683143012045031
4000000000.0 -0.026135997577744527 0.1572186315158372
