!Created with skrf (http://scikit-rf.org).
# Hz S RI R 50.0 
!freq ReS11 ImS11
400000000.0 -0.5496473546624678 0.6789895912068381
420000000.0 0.4313826193787834 0.7569875940780764
440000000.0 0.6392273228695622 -0.5540244299225305
460000000.0 -0.5441545288325532 -0.5919212190585602
480000000.0 -0.36801229784070466 -0.6307119935121822
500000000.0 0.17185217565693967 0.5476321704147159
520000000.0 0.38726165547490626 0.28159931622627643
540000000.0 -0.39841130866527374 -0.04480919121762873
560000000.0 -0.2280417981188685 0.2508215513067698
580000000.0 0.13580482041162387 -0.2863919930303561
600000000.0 -0.2929799841658405 -0.11760477603349666
620000000.0 0.21544368567048378 0.24447211066603508
640000000.0 0.1782967050384619 0.30975773177487964
660000000.0 0.3507306480890011 0.12877776402292654
680000000.0 -0.1870776260936141 -0.35421606926240085
700000000.0 -0.40470211927465616 0.09316215225886952
720000000.0 -0.2413530598235415 0.3564519526143935
740000000.0 -0.3144539413872008 -0.3047843914776593
760000000.0 0.29716892011924534 0.30979771103571146
780000000.0 -0.10141815804110726 0.38753627249800393
800000000.0 -0.288405479288461 -0.23275544647608293
820000000.0 -0.3144694685425502 0.0177200319388633
840000000.0 0.007091827946515187 -0.2599950416185332
860000000.0 0.008842880832028445 -0.20594831362470203
880000000.0 0.14889613299992216 -0.03203212501098961
900000000.0 -0.05408996987349633 -0.06578537636766188
920000000.0 0.01897479214249738 0.04412612287429036
940000000.0 -0.009170449406139708 0.0351367845526485
960000000.0 -0.04847644466738899 0.0013253181047135566
980000000.0 0.037032720676673604 0.04796791892410208
1000000000.0 -0.04130801036967388 0.05776854676423291
1020000000.0 0.010255251885896143 -0.08481434587192219
1040000000.0 0.09824846519883863 -0.010300156280398227
1060000000.0 -0.12079136320844522 -0.06578619745132828
1080000000.0 -0.08614678992173612 -0.12635668076126044
1100000000.0 -0.10207658051127703 -0.14262477725004588
1120000000.0 -0.04683145822050533 0.1875870486705389
1140000000.0 -0.17281876903470741 0.14994827383557066
1160000000.0 -0.09123180684670815 0.24799804201223874
1180000000.0 -0.2925173662275769 0.09890338275016754
1200000000.0 -0.3171884291456171 -0.12577977631689305
1220000000.0 0.30390711634438294 -0.22572958608875468
1240000000.0 -0.1601129710027649 0.37172221715857706
1260000000.0 -0.05212709264632405 -0.4293018340413532
1280000000.0 -0.2245415279530156 0.384959448883961
1300000000.0 0.24037836785188985 -0.3840273869458123
1320000000.0 -0.3137116377016025 -0.3217406303975914
1340000000.0 -0.43146438401703385 -0.0771366612943181
1360000000.0 -0.17307960149014512 -0.3958036647380378
1380000000.0 -0.22066947957931893 -0.3671202622911197
1400000000.0 -0.35834938533289046 0.21511398795989584
1420000000.0 0.10331053204783955 0.3856066647866946
1440000000.0 0.3714882327445913 2.2486665182886184e-05
1460000000.0 0.23524021722418662 -0.24442489981226992
1480000000.0 0.030231072737825822 -0.30775234382898575
1500000000.0 -0.003801872748625387 -0.2792720696058439
1520000000.0 -0.25301775409141875 -0.01977307516457684
1540000000.0 -0.11220891048853236 0.20177979130244472
1560000000.0 -0.16430878363124446 -0.12004564427882433
1580000000.0 0.031666085165559535 -0.17895306862917285
1600000000.0 -0.12863468647641166 0.07819558190637838
1620000000.0 0.12043639727898137 0.021270936750759774
1640000000.0 0.0963147520138168 -0.016303609993864543
1660000000.0 -0.06157896953823026 -0.0445156609147465
1680000000.0 -0.045446619164123125 -0.027835596485861338
1700000000.0 -0.03357781895988034 -0.01026068946083583
1720000000.0 0.01934657348059827 -0.004019372331315522
1740000000.0 0.013271677476795748 0.01935727357117033
1760000000.0 0.03729577264765288 -0.02519463089079836
1780000000.0 0.012747666093027582 0.07753859381565707
1800000000.0 -0.11643870383726035 0.0016873249068428077
1820000000.0 -0.05538240670073088 0.1421888604286002
1840000000.0 -7.689596631500771e-05 0.18844302804156116
1860000000.0 -0.2162161727029858 -0.03020153432866479
1880000000.0 0.24790932641558105 0.0013436593370898036
1900000000.0 -0.2092125479869432 -0.1882430704801079
1920000000.0 -0.06797798169825742 0.2992771615652041
1940000000.0 0.21337557398338294 0.2568003186161399
1960000000.0 0.352357789210703 0.07440863971902713
1980000000.0 0.19691860361905456 -0.32583342752777095
2000000000.0 0.19999833475337664 -0.3494758915447103
2020000000.0 -0.23039962739898243 -0.3520647151844448
2040000000.0 -0.42505640870935113 -0.09092567568663786
2060000000.0 -0.12961952094011056 0.4226752729531332
2080000000.0 0.4323572876446728 0.10693836869177317
2100000000.0 0.18354501943212367 -0.4008942169663656
2120000000.0 -0.38778021595031315 -0.1851305151157312
2140000000.0 -0.32420886464643645 0.26288806018095257
2160000000.0 -0.38128870072280613 0.11428823589065686
2180000000.0 -0.2611125371558032 0.27479845619351384
2200000000.0 0.06409389418182095 0.35535199328244416
2220000000.0 -0.020137511497435236 0.3433975979890636
2240000000.0 -0.09170380732961485 0.3266192218470559
2260000000.0 -0.22510085408112396 0.2557920627564469
2280000000.0 -0.16317518844896198 0.31097192363263415
2300000000.0 0.29872814091489636 0.21747384881690904
2320000000.0 0.064758749455731 -0.39051270224366996
2340000000.0 -0.3831390817604123 0.19063597265722898
2360000000.0 0.45888504126150775 -0.09918190591459129
2380000000.0 -0.5071654429731941 0.08795291802330212
2400000000.0 0.5177765590874868 -0.22082329764478986
2420000000.0 -0.31684065215230184 0.5222114785327914
2440000000.0 -0.07510662442786882 -0.6518589900840437
2460000000.0 0.49446297137688194 0.4865296817306096
2480000000.0 -0.6746373217885593 -0.25839809407974873
2500000000.0 0.7150577307288504 0.19226167473597344
2520000000.0 -0.6663459582709133 -0.3465733622837967
2540000000.0 0.35936060838298023 0.6602709733437451
2560000000.0 0.14798861966215948 -0.7307898430793078
2580000000.0 -0.6468311228479713 0.34009217019945676
2600000000.0 0.6369025797052091 0.30849641719795806
2620000000.0 -0.06665870612548931 -0.6743569358497288
2640000000.0 -0.2911374089065971 -0.5726257995937132
2660000000.0 -0.20585617719461702 0.5616972489040276
2680000000.0 0.5354061440711626 -0.134267070125228
2700000000.0 -0.3720354015985795 -0.3392768037231577
2720000000.0 -0.06728580068592212 0.45058047797049305
2740000000.0 0.4112185831296813 -0.029134427293763428
2760000000.0 -0.25711825116391973 -0.2726386074407507
2780000000.0 0.03967521771886585 0.34504095958288755
2800000000.0 -0.024744126516235455 -0.32534297828896225
2820000000.0 0.27297276813200155 0.15359390164749118
2840000000.0 -0.1846900157393908 0.24333183460736876
2860000000.0 -0.29099690902991815 -0.08164941824873714
2880000000.0 -0.06519509582900486 -0.2930353257649353
2900000000.0 0.296334650606091 -0.03168580500156436
2920000000.0 -0.29655682238297937 0.012941318810002125
2940000000.0 0.1624890968871669 0.24412701804171857
2960000000.0 0.2109539701356275 0.20209011294626278
2980000000.0 -0.05527049891094623 0.2886099618991342
3000000000.0 -0.2741578989004717 -0.10889006228105992
3020000000.0 0.23386022238180035 -0.1868532606855881
3040000000.0 -0.006988779252049654 0.3009810285465747
3060000000.0 -0.11129680336934084 -0.28412548528405596
3080000000.0 0.2767465510431484 0.12998939930090223
3100000000.0 -0.29279307589525055 0.08389719572069275
3120000000.0 0.020395840461373514 -0.3008077739294604
3140000000.0 0.29022561184920087 -0.03892034281346245
3160000000.0 -0.2705218239204729 0.049063796906155296
3180000000.0 -0.13891724629688032 -0.2152157045314847
3200000000.0 0.06479453108863102 -0.21672933149842585
3220000000.0 0.15027135454253432 0.1215562151928614
3240000000.0 -0.1132872450373062 -0.11204135108507901
3260000000.0 -0.12395634167346599 0.018589221303332012
3280000000.0 0.06868346955541292 -0.06960186706014737
3300000000.0 -0.021853943251529933 0.07279956223028862
3320000000.0 -0.02915545081713238 -0.04979869048578671
3340000000.0 0.022502076305055477 -0.03663853676383549
3360000000.0 -0.009136944018520976 -0.024942183756471822
3380000000.0 -0.011709607846024045 0.0041602725007002135
3400000000.0 -0.01406636101804759 0.012467607971559776
3420000000.0 0.011818089938991813 0.03581585207508855
3440000000.0 0.04540558674630147 -0.028563286865207777
3460000000.0 -0.04490622354261611 -0.0470355031770542
3480000000.0 0.05561642163308495 -0.046857721240244635
3500000000.0 -0.04852715644643426 0.062957123285033
3520000000.0 -0.07123196042480096 0.047489608720957074
3540000000.0 -0.09443205204472038 0.015963240042229543
3560000000.0 -0.10874449092684828 0.003502412691241435
3580000000.0 -0.1077383195400782 0.0654067285216468
3600000000.0 -0.010623964753400805 -0.1483085176587442
3620000000.0 0.07007887186649715 -0.15069555065285556
3640000000.0 0.06610078129447619 -0.16984473826873134
3660000000.0 -0.1211691531668259 -0.15262925398017585
3680000000.0 -0.196394436975091 0.03147612639633642
3700000000.0 -0.07995630642618866 0.18003429867762283
3720000000.0 -0.061892063475118886 0.18070305164642275
3740000000.0 -0.14918825417753923 0.10047862938022334
3760000000.0 0.10681123214569294 0.13048693923412535
3780000000.0 0.1575487899566588 -0.014123223695376249
3800000000.0 0.06984605748292265 0.13705778262737564
3820000000.0 0.02959952677773909 0.1501625225177224
3840000000.0 0.06410252423511643 0.13869786250680638
3860000000.0 0.028780252536938795 0.15542060611750044
3880000000.0 0.04875071087392945 -0.15578605461554282
3900000000.0 -0.07926107355156488 0.14459389597540476
3920000000.0 0.017644349637727406 -0.16269424642305044
3940000000.0 -0.07522049705992387 0.14299593712635303
3960000000.0 0.07365248440326555 -0.14710561408702807
3980000000.0 0.1430293363271235 -0.08081314029930456
4000000000.0 0.008177906023535396 0.16073125172228095
