!Created with skrf (http://scikit-rf.org).
# Hz S RI R 50.0 
!freq ReS11 ImS11
400000000.0 -0.5377745027675492 0.688606152015085
420000000.0 0.4324386101106058 0.7572420119538849
440000000.0 0.6489293991288992 -0.5431082568311077
460000000.0 -0.5322059863201202 -0.6034259810653706
480000000.0 -0.3751833011520684 -0.6260738322112718
500000000.0 0.12393268537116223 0.5601567991957015
520000000.0 0.34843008865116004 0.32810253581528825
540000000.0 -0.3936498293820033 -0.07560399879314358
560000000.0 -0.21762642989886527 0.2608639451410922
580000000.0 0.153164250814159 -0.276916959171256
600000000.0 -0.2691726017865274 -0.16650152091581458
620000000.0 0.17168838863169159 0.2780349094576005
640000000.0 0.12209463053735359 0.3367623300029572
660000000.0 0.3201840779694191 0.19370075757820374
680000000.0 -0.17391018923173696 -0.3624941098678245
700000000.0 -0.40906964389174394 0.07695911802683376
720000000.0 -0.20314030495119123 0.3809647186937514
740000000.0 -0.3689001763233728 -0.23812907263549413
760000000.0 0.3668073743542974 0.22346916058010155
780000000.0 -0.009087584245032915 0.3999019509603951
800000000.0 -0.3276025386473135 -0.17096582361604837
820000000.0 -0.3005732272044149 0.08788024348911105
840000000.0 -0.03191625813280339 -0.2565152312430189
860000000.0 0.0245462296051561 -0.20286689007149047
880000000.0 0.14904284500550763 0.022072702318801943
900000000.0 0.03518057876328282 -0.07565445609774663
920000000.0 -0.03862873550449656 0.025524423451946596
940000000.0 -0.014045590680049761 0.032281689309443834
960000000.0 -0.04751795420699565 0.00047264607420056145
980000000.0 0.007150196453825608 0.059461140919134424
1000000000.0 -0.07046539392061188 0.005124656795887972
1020000000.0 0.06158034950010146 -0.05964911428079553
1040000000.0 0.09069082678590021 0.03994062944956454
1060000000.0 -0.10448650104352086 -0.08925412156053036
1080000000.0 -0.0728502624599068 -0.13374228632727989
1100000000.0 -0.09190456137321572 -0.14891704905563533
1120000000.0 -0.07199603279429084 0.1789870733823262
1140000000.0 -0.18582516507715172 0.13411856969480931
1160000000.0 -0.1284507896123686 0.23184907281356812
1180000000.0 -0.2992094093032239 0.08212411115455526
1200000000.0 -0.3183741958748607 -0.1264316190473293
1220000000.0 0.2955410443268767 -0.2384536960856347
1240000000.0 -0.12785025486178692 0.3851807103798129
1260000000.0 -0.10224224092809789 -0.42065025017954827
1280000000.0 -0.21537041101170676 0.3897784255314939
1300000000.0 0.24280486109739993 -0.38195218541199855
1320000000.0 -0.30639236399104197 -0.3282563552223314
1340000000.0 -0.41866259281833546 -0.12840558054832582
1360000000.0 -0.11159130744353644 -0.41741743584140373
1380000000.0 -0.17684317453599266 -0.39017065709201254
1400000000.0 -0.37767944230493916 0.17895187715813698
1420000000.0 0.07444015733719406 0.39214615897457805
1440000000.0 0.370944723327099 -0.015062440437598343
1460000000.0 0.21970473117755793 -0.2577213338093848
1480000000.0 -0.0856184520703209 -0.2963818053863358
1500000000.0 -0.03478282351937655 -0.27805046301273945
1520000000.0 -0.2545529130782377 -0.002278718250309043
1540000000.0 -0.06763800491039272 0.22151564445626612
1560000000.0 -0.20194329093210614 -0.032817892467005394
1580000000.0 -0.05233830898327538 -0.17512981220919663
1600000000.0 -0.07460099797209545 0.1317971692208207
1620000000.0 0.12050797900448487 -0.02696379146993544
1640000000.0 0.09758755819630109 -0.01273593365773009
1660000000.0 -0.06425322561931684 -0.04110868712036574
1680000000.0 -0.03420904958108682 -0.03966924824691021
1700000000.0 -0.034282189604458405 0.00016937157267183327
1720000000.0 -0.01865806729704252 -0.004161899662222017
1740000000.0 -0.024267199754183937 -0.001016714465600058
1760000000.0 0.0008946605837149578 -0.046342802896325086
1780000000.0 0.033892840210279995 0.07191816453570377
1800000000.0 -0.1126209343039328 0.03305549284287048
1820000000.0 -0.05454431888219727 0.14247705358883836
1840000000.0 0.014438721120813968 0.18755932388218985
1860000000.0 -0.21767327419130833 -0.009993379671798995
1880000000.0 0.24680487624991146 -0.007493158134578402
1900000000.0 -0.2069689193155614 -0.18894070113722955
1920000000.0 -0.07269644685997959 0.29662359287352547
1940000000.0 0.19216067711669763 0.2712048960694407
1960000000.0 0.3461438528473272 0.09535117537977787
1980000000.0 0.225765112016898 -0.30573737181694965
2000000000.0 0.2198889780955853 -0.3374479835633445
2020000000.0 -0.23442104846926923 -0.3505185628146585
2040000000.0 -0.42711830001672035 -0.09060583822933069
2060000000.0 -0.09286376457031788 0.43426103765582275
2080000000.0 0.43837711034721905 0.09092077757801877
2100000000.0 0.0823150112114845 -0.43508315153825905
2120000000.0 -0.4016341131479687 -0.15624225519395563
2140000000.0 -0.2882062559258427 0.3015094119881898
2160000000.0 -0.37335985331416377 0.1348987747268002
2180000000.0 -0.2664979940024036 0.26684125100161804
2200000000.0 0.0024136142131634636 0.35947511720578507
2220000000.0 -0.10635622979884529 0.32586820665325233
2240000000.0 -0.14650052207526915 0.3063841411441369
2260000000.0 -0.2714856606819102 0.20628655954792505
2280000000.0 -0.19778286541650816 0.2912350898069104
2300000000.0 0.2846901150176758 0.23644988104492315
2320000000.0 0.04090600586430094 -0.39397982521232944
2340000000.0 -0.34028206578756276 0.2610467534267894
2360000000.0 0.4412609629803619 -0.16060752680079066
2380000000.0 -0.49599370943499677 0.1359760139535625
2400000000.0 0.5172657368539739 -0.22040532334247392
2420000000.0 -0.30809528405782755 0.5266589660398081
2440000000.0 -0.03336419365349786 -0.6549280282718093
2460000000.0 0.5127442248894761 0.467118439447401
2480000000.0 -0.670993517058466 -0.2697080828369509
2500000000.0 0.6933343155186656 0.2640229687756935
2520000000.0 -0.6498695189018937 -0.3775510261780218
2540000000.0 0.3107352727881505 0.6855222261167135
2560000000.0 0.20952725731747435 -0.7165563645223233
2580000000.0 -0.6840189495522935 0.25955094523177924
2600000000.0 0.5632006856246101 0.4291478098918062
2620000000.0 0.07468956088390284 -0.6743159112713077
2640000000.0 -0.23778132019145154 -0.5967565309507928
2660000000.0 -0.2763866835394543 0.5304622841232349
2680000000.0 0.5484777839519012 -0.048488962293744504
2700000000.0 -0.39098134231568893 -0.3168763413307136
2720000000.0 -0.0737332468801258 0.4498535823694116
2740000000.0 0.41081406472392445 -0.02697364949989008
2760000000.0 -0.27679482409020606 -0.2527579723607027
2780000000.0 0.052691722599727736 0.34345351282501085
2800000000.0 -0.07007444417412363 -0.31886382452382855
2820000000.0 0.3070073148608892 0.0620547161658518
2840000000.0 -0.11992176700811563 0.28079158100034024
2860000000.0 -0.3007094546081564 -0.023495045896338114
2880000000.0 -0.08985242427891077 -0.2867520122249586
2900000000.0 0.2964028380528856 -0.025504667618728445
2920000000.0 -0.2956605938475152 0.00814075596988975
2940000000.0 0.07485344108149515 0.28322545790087295
2960000000.0 0.16504677649267036 0.24104962929070012
2980000000.0 -0.11492758261145283 0.2709394566403566
3000000000.0 -0.23855939778790783 -0.17444114443229677
3020000000.0 0.2641765158826532 -0.14398690912297948
3040000000.0 -0.10554481670096465 0.282950059748631
3060000000.0 -0.031626639809205936 -0.3050129912008093
3080000000.0 0.26889323617246286 0.14708535445413717
3100000000.0 -0.29821394705498433 0.06367827742300633
3120000000.0 0.03897390382664178 -0.29901663979553
3140000000.0 0.28948160320397137 -0.03932088021623638
3160000000.0 -0.2736283380670897 0.011115841171911976
3180000000.0 -0.10297565125507471 -0.23224286305507694
3200000000.0 0.12138663368905676 -0.18883208332434936
3220000000.0 0.08820122696847718 0.17050808242937984
3240000000.0 -0.04291660626319123 -0.152527946324549
3260000000.0 -0.0894835650848085 -0.08729900518853374
3280000000.0 0.09545272173824176 -0.024032483936680445
3300000000.0 0.0002987718292864248 0.07668050629584579
3320000000.0 -0.05899822849702463 -8.114601089653947e-05
3340000000.0 -0.03750297111436551 0.02240879323211235
3360000000.0 0.02521792585336472 -0.007370706253960632
3380000000.0 0.009583143709533115 0.00859213130744729
3400000000.0 0.019428748974702155 0.00711895057153923
3420000000.0 0.035975741181036774 -0.017051974860194562
3440000000.0 0.00369368335456256 -0.05464586038670183
3460000000.0 -0.06388600404301621 -0.013929433793241915
3480000000.0 0.005123952561862795 -0.07238371633836217
3500000000.0 -0.04882974113166684 0.06148949805555769
3520000000.0 -0.08376794193303044 -0.012168668396197027
3540000000.0 -0.0878952407006925 -0.03689742651283882
3560000000.0 -0.09384296543885881 -0.05557757023984403
3580000000.0 -0.11968750962530271 0.0440783051775786
3600000000.0 -0.03698177416472101 -0.14561679293540175
3620000000.0 0.03378907218476764 -0.1637826632716229
3640000000.0 0.003041479994900022 -0.1833071266649858
3660000000.0 -0.1648588751665553 -0.10515155371812872
3680000000.0 -0.1798965281111381 0.08338098591744675
3700000000.0 -0.006114432023273058 0.19686749624444772
3720000000.0 -0.04365552797827267 0.18597033154054773
3740000000.0 -0.17324674332001094 0.04931835924533613
3760000000.0 0.015166232078043856 0.16914444178629554
3780000000.0 0.12465249154250245 0.09835542305338572
3800000000.0 0.012412459067534562 0.15530300696454605
3820000000.0 0.0024149972789349744 0.1542747145733275
3840000000.0 0.0879367831234048 0.1266345175079664
3860000000.0 0.09009206099228959 0.13025921732315246
3880000000.0 0.03854708456307572 -0.15787723303512682
3900000000.0 -0.126062177445545 0.10413722082649562
3920000000.0 0.10976385828694205 -0.11917926879034092
3940000000.0 -0.1557945797896473 0.03802935461331714
3960000000.0 0.15848470936209622 -0.038355966891699116
3980000000.0 0.16353394751638212 -0.0014787985070351774
4000000000.0 -0.08670917237832988 0.13509494969027114
