! Created with skrf (http://scikit-rf.org).
# Hz S RI R 50.0 
!freq ReS11 ImS11
400000000.0 -0.6864977373948111 0.5211533783578322
420000000.0 0.018290771052155555 0.8680043068782364
440000000.0 0.8396214251396062 0.005905467383732588
460000000.0 0.06960943491776582 -0.8013662059016132
480000000.0 0.19908446645958927 -0.7036627026696635
500000000.0 -0.16145881130484918 0.5494388782353172
520000000.0 -0.3751448570379164 0.2897620117584879
540000000.0 0.23200433023301345 -0.345532469652436
560000000.0 -0.32783298805373434 0.12098368343596087
580000000.0 0.23351670735408597 -0.22801822381961293
600000000.0 -0.27302029333252387 -0.16208017649601522
620000000.0 0.18283971802502438 0.27724295178250186
640000000.0 -0.20801896237598644 0.28726321203690663
660000000.0 -0.2936535877536441 0.23210913165194202
680000000.0 0.16363476388033676 -0.3700697130983076
700000000.0 -0.4174343962138554 -0.08541959875737586
720000000.0 -0.2817282186001029 0.3360736438528253
740000000.0 -0.44227026539814723 0.021585800104505205
760000000.0 0.4218479070796482 0.08645520185633425
780000000.0 0.16475268462469891 0.36732606739883505
800000000.0 -0.3404268281867406 0.15211038735319893
820000000.0 0.12183060790093547 0.29223286997153897
840000000.0 -0.20709969385970856 0.1503261098098639
860000000.0 -0.12479139526280696 -0.15893140653779392
880000000.0 -0.15351937127677845 -0.038941376527838155
900000000.0 -0.05295413139191803 0.059418043683013795
920000000.0 -0.001711873537953511 -0.04680410437739942
940000000.0 -0.021307935213645178 -0.04061846684830808
960000000.0 -0.054161432259858235 -0.00800652617348875
980000000.0 0.01900917457034303 0.06387370636038897
1000000000.0 0.04322614203760281 -0.05267689161734793
1020000000.0 -0.01394613551223684 0.08060579253296711
1040000000.0 -0.021352923467801682 0.08380385469386584
1060000000.0 -0.12031760604582012 0.034487840618887475
1080000000.0 0.1367184392460527 0.034726936496871974
1100000000.0 0.16666384279522972 -0.017454253724620908
1120000000.0 -0.005378471651106605 -0.18961918272560735
1140000000.0 -0.11074401394398518 -0.19952563408622265
1160000000.0 -0.1801598295815402 -0.20468986921240664
1180000000.0 -0.2712250648605227 -0.15793595921266204
1200000000.0 -0.2043271993287841 -0.2858114331537614
1220000000.0 0.3629343986434134 -0.12782121320953715
1240000000.0 -0.06536149200446097 0.40939188735338183
1260000000.0 -0.1429914698412274 -0.4163627617338775
1280000000.0 0.23809362278730287 0.3856819489375778
1300000000.0 -0.09105680590305104 -0.4478312438131237
1320000000.0 -0.37462999165681354 0.24379994742062777
1340000000.0 -0.39198686018950385 0.18849426005100736
1360000000.0 -0.34915865756654557 -0.24126542719799815
1380000000.0 -0.365131715977863 -0.21495299243585464
1400000000.0 -0.23065710228122768 0.33683099878097345
1420000000.0 -0.08715132059449983 0.37718471578708596
1440000000.0 0.08955244052287009 0.35104017902821977
1460000000.0 0.16945458768398372 0.2895516790060108
1480000000.0 0.24730165675724736 0.18848332403837953
1500000000.0 0.28607520101319495 0.040997577857845864
1520000000.0 -0.24152002269235795 -0.11464845634273078
1540000000.0 0.07777139531941996 0.2319525315824116
1560000000.0 -0.046079273454432114 0.2117164838759012
1580000000.0 0.07732999471116458 0.1738931983336065
1600000000.0 -0.1449498742803953 0.06296294489447282
1620000000.0 0.05825081913667759 -0.10744940299657645
1640000000.0 -0.09594664356974354 -0.005202264103932347
1660000000.0 -0.07140163334119451 -0.0020471581113206457
1680000000.0 0.037978379281823654 0.02586131265757658
1700000000.0 0.023321304944807688 0.010351896622479179
1720000000.0 -0.02109879379265497 -0.011163464641663274
1740000000.0 -0.030044706953916894 0.029563516798410728
1760000000.0 0.025416287258589562 0.0602384982731746
1780000000.0 -0.003304039640859462 0.09416935150364046
1800000000.0 0.08483529602201174 -0.09246267084696877
1820000000.0 0.12860202719899222 0.08022572376091666
1840000000.0 -0.17051640238412838 0.06245578156201285
1860000000.0 0.20598133335050572 -0.019352178404102877
1880000000.0 0.06702921636523453 -0.22406614065468308
1900000000.0 -0.223021567724331 -0.14271772271118766
1920000000.0 -0.29171019974505463 0.043843474799057286
1940000000.0 -0.31209095695558964 0.08624524787898878
1960000000.0 -0.2911606044558369 0.20278696952658773
1980000000.0 0.09191237590088651 0.37189239477975766
2000000000.0 0.34600915499154083 0.22150245422500853
2020000000.0 0.2585302054502485 -0.34900100666767453
2040000000.0 -0.39281325655458926 -0.22391623424215312
2060000000.0 0.2510164713232827 0.3833050550209374
2080000000.0 0.12088719439448722 -0.44056292785333867
2100000000.0 -0.44712774969586794 -0.026755336457769893
2120000000.0 0.03237355431152996 0.4288097772546384
2140000000.0 -0.25541211060712654 0.3187914987210644
2160000000.0 0.00046122115926545856 0.38734729877989077
2180000000.0 -0.06419793006443746 0.35686139715398385
2200000000.0 -0.24446614508134965 0.24658040811506318
2220000000.0 -0.32304278984581847 -0.08573817662012036
2240000000.0 -0.21029653373940674 -0.26528982896893527
2260000000.0 -0.270003921119325 -0.21746676299847753
2280000000.0 -0.35728054067219955 0.04652439600018371
2300000000.0 0.3080329472744745 0.22172650463568208
2320000000.0 -0.1087315868854296 -0.3918576054944887
2340000000.0 0.02569295164329973 0.4367628235028946
2360000000.0 0.042333091252584984 -0.4739876463100132
2380000000.0 -0.006753673350519373 0.5173821076140399
2400000000.0 -0.05158467221041029 -0.5623747739584776
2420000000.0 0.341345636374775 0.5077456423904839
2440000000.0 -0.5901206450735853 -0.2869239446579324
2460000000.0 0.6794056453625616 -0.13599126199838754
2480000000.0 -0.6114944859417544 0.3815836715381495
2500000000.0 0.6858509117425263 -0.2770304362850689
2520000000.0 -0.7450496849003141 0.07076943539330191
2540000000.0 0.7069907431494674 0.2471355406541559
2560000000.0 -0.2805882949943797 -0.6863827221231745
2580000000.0 -0.411973582767875 0.5970931778101451
2600000000.0 0.6998622463362492 0.03069306845544375
2620000000.0 -0.3189985289341647 -0.5873590598552091
2640000000.0 -0.4597090831279263 -0.4308383171346361
2660000000.0 -0.30820236613290164 0.49705185227535115
2680000000.0 0.47907542498457845 0.24798818680725476
2700000000.0 0.16047193320351097 -0.4700671690877607
2720000000.0 -0.4386648666661018 0.11984910832644007
2740000000.0 0.3175708356046232 0.2692093195975385
2760000000.0 -0.23385051510721921 -0.3036547181990606
2780000000.0 0.35030971270128636 0.059696241808102284
2800000000.0 -0.13522825517142828 0.3022445305922175
2820000000.0 -0.3101670419140051 -0.033156402445433476
2840000000.0 0.02826724327709761 -0.29356183019913024
2860000000.0 0.23195166892460267 0.16665953120604285
2880000000.0 -0.278320369915697 0.02942597278319539
2900000000.0 0.27562332228760417 0.028279584972832023
2920000000.0 0.12754375454248018 -0.24792957115720404
2940000000.0 -0.17001217447136646 -0.22851619249449498
2960000000.0 -0.19430018398995783 -0.2126182267730318
2980000000.0 -0.025658052424812946 -0.2980785790877253
3000000000.0 0.20345705729504204 -0.23072648070765514
3020000000.0 0.30460484643893654 -0.07483806444012425
3040000000.0 0.15827346745245277 0.27253060727232076
3060000000.0 -0.2704548055402084 0.16286812018798022
3080000000.0 -0.15680061786036664 -0.26903934908022964
3100000000.0 0.2995075057208977 -0.04803873305815683
3120000000.0 -0.09221406384991533 0.2756677546192161
3140000000.0 -0.08609511192590781 -0.26174649539983946
3160000000.0 -0.2181637956088174 0.13327558825325395
3180000000.0 0.17731967400464796 -0.1544615558579491
3200000000.0 -0.17104756413708389 0.12183083481821874
3220000000.0 0.18164339842219726 -0.031189073737532512
3240000000.0 0.03897524311418999 -0.15444448511421405
3260000000.0 -0.05414402521253308 -0.12584747214189052
3280000000.0 0.003079832018820882 0.11625474704078499
3300000000.0 -0.07570328981081605 0.05553274097310638
3320000000.0 0.06419512698329645 -0.027316779033732978
3340000000.0 0.03196160724935434 0.030491253054137933
3360000000.0 0.004159384180645019 -0.02543749065455764
3380000000.0 -0.026781639984651343 0.0017994374354774704
3400000000.0 0.03775034410708919 0.01235655980031597
3420000000.0 0.012251410341726202 0.05239381467932882
3440000000.0 0.05161257969417175 0.02824050523225299
3460000000.0 -0.05472079404985828 0.007347803610898382
3480000000.0 -0.04941126549652635 -0.0154749681299523
3500000000.0 -0.03513016599528265 -0.0446820168483177
3520000000.0 0.05792804545710121 0.04914225857273075
3540000000.0 -0.04509391095730977 -0.08961363849185917
3560000000.0 0.0016380963318356227 -0.12327384492275201
3580000000.0 0.022069985024350158 -0.1441925330749659
3600000000.0 -0.15806828441457155 0.05711430918752763
3620000000.0 0.17563056147376127 0.031042880970038895
3640000000.0 0.16085552014059903 -0.09308802963282699
3660000000.0 0.05202325923295494 -0.18023921198002893
3680000000.0 0.15667454564919403 -0.09612654216746298
3700000000.0 0.04026756727710509 0.1725048352254049
3720000000.0 0.007192648119846969 -0.17088025161219095
3740000000.0 -0.07509993857096206 0.15032003961514515
3760000000.0 -0.014864281135310438 0.16706735756273677
3780000000.0 0.13208462035697957 -0.10389103482784985
3800000000.0 -0.16915681141239045 0.015346781969097736
3820000000.0 0.12259141736677516 -0.11540732990527161
3840000000.0 -0.07850825695283158 0.14043369933636554
3860000000.0 0.14326527987897336 0.0527092364311253
3880000000.0 0.13952741975574504 0.0410666537223595
3900000000.0 0.006537706224270478 0.13885714863467427
3920000000.0 -0.1101573337770143 -0.09079639376263965
3940000000.0 -0.06928516476538274 -0.13595942256588323
3960000000.0 0.14116648897561185 0.09049484275539131
3980000000.0 0.042261444083582206 -0.17368488724077083
4000000000.0 -0.14717548832141086 0.10134996203868035
