! Created with skrf (http://scikit-rf.org).
# Hz S RI R 50.0 
!freq ReS11 ImS11
400000000.0 -0.6906466018428626 0.5225221445632837
420000000.0 0.23835786030008846 0.8323722166605245
440000000.0 0.778837447712609 -0.3099239636339686
460000000.0 0.22886648880647986 -0.7531917946044616
480000000.0 0.5890295884765314 -0.417563390369972
500000000.0 -0.41227437942198075 -0.3840564991197638
520000000.0 -0.43147530720405847 -0.23134102974012705
540000000.0 -0.008756243323037373 -0.4102259373905541
560000000.0 -0.34560311116295767 -0.12330240707943063
580000000.0 0.11720723150425286 -0.29783529777949075
600000000.0 -0.040719398878525014 -0.3259983593191487
620000000.0 0.2769369876857681 -0.18509353064057288
640000000.0 -0.33014848275092606 0.10959315345177488
660000000.0 -0.27974513545484125 0.2627482224252162
680000000.0 0.13906385599315846 -0.37835867429200204
700000000.0 -0.4203167583075419 0.1250611093363808
720000000.0 0.04373657359929353 0.4366163264653236
740000000.0 -0.41371784058667427 0.18031803547273528
760000000.0 0.1003697961266989 -0.419944180686981
780000000.0 0.26263291610694967 0.303506665209609
800000000.0 -0.1245286586666032 0.3417841953417114
820000000.0 -0.22616886897202262 0.20146626150755262
840000000.0 0.20487736077940344 -0.1511760448679154
860000000.0 -0.0507033007091875 -0.1972120816579511
880000000.0 -0.09570216419565486 -0.11896006809557326
900000000.0 0.023376669968645205 -0.07298566948565653
920000000.0 -0.01797618527037158 0.040519495671581925
940000000.0 0.015339474426077276 0.04813773048713329
960000000.0 -0.05300078247510205 -0.0262967091935978
980000000.0 -0.06247852401652521 -0.008352426598782771
1000000000.0 0.003510118121724029 -0.06805414145593604
1020000000.0 0.044985984849489825 0.05531478778199019
1040000000.0 -0.03270406652592061 -0.0714619615858263
1060000000.0 0.09889291647398135 0.056462954569351555
1080000000.0 0.11760152862353508 -0.07062681148178801
1100000000.0 -0.02485390648591558 -0.16100362771687818
1120000000.0 -0.1759600905501256 -0.08895812547880298
1140000000.0 0.23242026360941645 -0.06366048549357217
1160000000.0 -0.028919442772736944 -0.28260375094146356
1180000000.0 -0.2830570846809596 0.16290444183819974
1200000000.0 -0.3528128810615257 -0.05107119620231616
1220000000.0 -0.06340340299269509 -0.3852442025875803
1240000000.0 0.23397354152136285 0.33766207390245256
1260000000.0 -0.32900535133659264 -0.28828412198698417
1280000000.0 0.32764068230199267 0.3011974005532835
1300000000.0 -0.030823990644075122 -0.4504458733969311
1320000000.0 -0.3868721050707235 0.21018203012534817
1340000000.0 -0.42250878182969276 -0.0836712371052225
1360000000.0 -0.25034911156180195 -0.3418666552744205
1380000000.0 -0.2832478397884976 -0.31236456762722664
1400000000.0 -0.3420580744217121 0.2152844167813928
1420000000.0 -0.30699060941756284 0.23508702399713183
1440000000.0 0.017847493886787358 0.36525675497597443
1460000000.0 0.02769310387175235 0.3380292286113664
1480000000.0 0.2006286688180077 0.2479858951110128
1500000000.0 0.2912279611589603 -0.05711093755383281
1520000000.0 -0.2694258934735388 0.04289372323453328
1540000000.0 0.20877109708233535 0.1417849604955312
1560000000.0 0.20482092698286974 0.08250681596054342
1580000000.0 0.1419106557585156 -0.127049046093201
1600000000.0 0.12494531436648791 0.0958184279143577
1620000000.0 -0.11178190361004925 0.042774748889518446
1640000000.0 0.051680624411868464 0.0731374586648804
1660000000.0 0.035344657446079376 -0.05391072230626946
1680000000.0 0.03549793550061676 -0.008994903827151622
1700000000.0 -0.010309469470855979 -0.012803255203730803
1720000000.0 -0.02212132471365715 0.007611611773267232
1740000000.0 0.018507662249164804 -0.0380892556181541
1760000000.0 0.04384124497319341 -0.04757613588552797
1780000000.0 -0.04141185079322562 -0.07847324999922735
1800000000.0 0.04901010530896472 -0.1109495424076268
1820000000.0 0.14692778642910112 0.026737933739523597
1840000000.0 -0.16159474122806286 0.06854887056934805
1860000000.0 0.17190893021480286 -0.10393134357884926
1880000000.0 0.13023929758258604 -0.18249987868017367
1900000000.0 0.14723972726093054 -0.20801542292029768
1920000000.0 0.012277153781346658 -0.2859989941358365
1940000000.0 0.12188518475681695 -0.29653237822638395
1960000000.0 -0.23262732552997759 -0.2717319371555351
1980000000.0 -0.2970949058290712 0.25165075700607054
2000000000.0 0.2280993714039451 0.35174638619550463
2020000000.0 0.25707600529604396 -0.35982788091724804
2040000000.0 -0.4357451799866621 0.14337064612074035
2060000000.0 0.43328688433327717 0.1595268609274303
2080000000.0 -0.14955302534759543 -0.43317324001245233
2100000000.0 -0.35221969382786916 0.27338143001323395
2120000000.0 0.16179653480470635 0.3930862050977377
2140000000.0 -0.24161424292571276 0.31920684720004133
2160000000.0 -0.27386405763253174 0.26382779311680576
2180000000.0 -0.34559145663862 -0.09537310317354708
2200000000.0 -0.17810739518758875 -0.29617273953090223
2220000000.0 0.25592304633957214 -0.22194429506818453
2240000000.0 0.22180436254544464 -0.26100546529530727
2260000000.0 0.0374789373957512 -0.35030742087181505
2280000000.0 -0.33783036067293193 -0.13490462648400217
2300000000.0 0.14021158046034154 0.35565216284249906
2320000000.0 0.03336284114154553 -0.40581904261525625
2340000000.0 -0.23706610711777237 0.36394472846344367
2360000000.0 0.33069252433935725 -0.3333820694774194
2380000000.0 -0.48132612719610673 0.17430135721291423
2400000000.0 0.5388691488585194 -0.15135646678430684
2420000000.0 -0.49652729649012645 0.3533902895161396
2440000000.0 0.22623487324540106 -0.6162422869533645
2460000000.0 0.15758529686761946 0.6773833708984162
2480000000.0 -0.4873107922056556 -0.538190643854497
2500000000.0 0.534079683698601 0.5210530544785327
2520000000.0 -0.4749399047884199 -0.5892012199687712
2540000000.0 0.12992628310531223 0.7472246525262056
2560000000.0 0.35801877235612545 -0.6619305002919496
2580000000.0 -0.7375041659388654 0.03237274945296866
2600000000.0 0.4960878223794463 0.5132051614457136
2620000000.0 0.150540178092473 -0.6659001069632547
2640000000.0 -0.1232809364110547 -0.6336617229468411
2660000000.0 -0.4755710770737937 0.3659873010683435
2680000000.0 0.3937887809815894 0.3920495847356575
2700000000.0 0.1641412666185959 -0.48706746047231736
2720000000.0 -0.3636910974432245 0.3005783345667203
2740000000.0 0.4302620579492659 -0.04650543482574827
2760000000.0 -0.3810466596011169 0.11477003649168695
2780000000.0 0.07024195409873875 -0.35799328876246755
2800000000.0 0.2697252781538402 0.20020771947533947
2820000000.0 -0.19971529150251427 0.24063949985516223
2840000000.0 -0.05856592699703731 -0.28827358517593754
2860000000.0 0.12059682472325234 0.2559525125962999
2880000000.0 -0.15452441846824974 -0.2306824138323186
2900000000.0 -0.05463495115897061 0.268660713342342
2920000000.0 0.12151042981285007 0.2530053578397675
2940000000.0 0.28316044319526323 -0.06538431814250024
2960000000.0 0.2357591536760115 -0.1838978476283409
2980000000.0 0.06071015977232789 -0.30548848125825145
3000000000.0 0.024878581498891716 -0.3178504909406434
3020000000.0 0.027889795833379097 -0.32130716348829746
3040000000.0 0.21930257246374601 -0.23354343236913655
3060000000.0 0.23740434580703207 0.20917092502974183
3080000000.0 -0.30167178228999764 0.0577107798976623
3100000000.0 0.1777230008503104 -0.23867844625220266
3120000000.0 0.0021152104709368873 0.2838531841979137
3140000000.0 -0.051901065946038764 -0.26416187581608563
3160000000.0 -0.18992559710646076 -0.1642750207457843
3180000000.0 0.08741090872191681 0.2168647614759436
3200000000.0 0.04971783132015468 -0.20833685551063633
3220000000.0 -0.1432753728803449 0.13000396174604523
3240000000.0 0.12771469548658 -0.11682732741337341
3260000000.0 -0.0457446403142757 0.14350155153407898
3280000000.0 -0.0363050633141946 0.11903500711411939
3300000000.0 0.08718927932421082 0.0421440167764887
3320000000.0 0.050720282649385585 0.046082002607276976
3340000000.0 -0.0006638967064000884 0.03858796429453507
3360000000.0 -0.0012801380682305305 -0.024136236305161686
3380000000.0 0.012595606977255284 -0.028517117690026943
3400000000.0 0.043602963328037044 0.007250293311015653
3420000000.0 -0.02223320066982032 0.048434810417861275
3440000000.0 0.036134461514371184 -0.035599327768599184
3460000000.0 -0.02584571792183775 0.03447013592293872
3480000000.0 0.00984254592029089 0.04211556194960533
3500000000.0 0.053575237361963 -0.026691060221311912
3520000000.0 0.0838933248877863 -0.029969235092280472
3540000000.0 -0.012291547625660159 -0.1154976018855981
3560000000.0 -0.13552590135110185 0.023720418910737076
3580000000.0 -0.0027072716398336845 0.15394508592927167
3600000000.0 0.1050777540055403 -0.13501940546740737
3620000000.0 -0.10685898717421716 -0.13760925579512648
3640000000.0 -0.11711437621035023 -0.13429437097131852
3660000000.0 0.1048660991912076 -0.14274518864974273
3680000000.0 0.03356310959379439 0.1730024770687878
3700000000.0 -0.03515372940054032 -0.16984579687320384
3720000000.0 -0.16393498145684154 0.06142582120836094
3740000000.0 0.08767707055488999 -0.15431271841112434
3760000000.0 -0.14787390995228622 0.10439745567840031
3780000000.0 -0.07375065987800442 -0.1655624052960769
3800000000.0 0.16918670431316943 -0.0495600446122858
3820000000.0 0.007778278197768487 0.16714839927751993
3840000000.0 0.15229239268890263 -0.013274604090804243
3860000000.0 0.12537664060566633 0.06563761456457727
3880000000.0 -0.07794072678053852 -0.11431809968878985
3900000000.0 0.07044480592471576 0.12057739048996202
3920000000.0 -0.14813450293562738 -0.01949020560636929
3940000000.0 0.1529430958822472 0.06713309159081372
3960000000.0 0.16544683206803926 0.07786070274517937
3980000000.0 -0.17012962517385777 0.08654153481241342
4000000000.0 0.1612825509571159 -0.09149545463367156
