! Created with skrf (http://scikit-rf.org).
# Hz S RI R 50.0 
!freq ReS11 ImS11
400000000.0 -0.7130287474780952 0.49266724523778327
420000000.0 0.2905591058187086 0.8151393754790582
440000000.0 0.7864528892520781 -0.2884828862172646
460000000.0 0.2237029850926637 -0.7547439563737813
480000000.0 0.5752840341861408 -0.43623572136626615
500000000.0 -0.4315662771170576 -0.3623503566524179
520000000.0 -0.4270225099009116 -0.23799700507376556
540000000.0 0.002390312409967422 -0.41149958590139646
560000000.0 -0.3555584017813942 -0.09171815512789701
580000000.0 0.15311520452393157 -0.2797203402309055
600000000.0 0.02493989163946693 -0.3272401503608394
620000000.0 0.2886057990827533 -0.16500430834276572
640000000.0 -0.339831500111875 0.0697101113266484
660000000.0 -0.26042202509996537 0.28042647119844044
680000000.0 0.07816569783958675 -0.39466160797149835
700000000.0 -0.40655122947499567 0.1630610982504049
720000000.0 0.07184471548659646 0.43307664742798996
740000000.0 -0.42395428096835797 0.15746045396136757
760000000.0 0.08687683168673926 -0.4231884533097388
780000000.0 0.26365358168058617 0.3023976068822559
800000000.0 -0.15027550057420297 0.3321373012290525
820000000.0 -0.23042083587398424 0.19749994988347827
840000000.0 0.2170172454467379 -0.13287853052248944
860000000.0 -0.03799279272174809 -0.20006543839029284
880000000.0 -0.10503124997561088 -0.1112170766858891
900000000.0 0.004967219979941204 -0.07683503841888044
920000000.0 -0.0046204029268261506 0.04403788061464029
940000000.0 0.0004777785658426019 0.05093655421175078
960000000.0 -0.05749132256395746 0.01696837859447286
980000000.0 -0.06150429957292056 0.015542830600691863
1000000000.0 0.007038446744026378 -0.06777324124039252
1020000000.0 0.05632584479552427 0.04392637727639639
1040000000.0 -0.01314299807911257 -0.07730290953442633
1060000000.0 0.09592199070648322 0.06136574347317378
1080000000.0 0.12332713184819344 -0.05989525026134955
1100000000.0 -0.05390492747011543 -0.15387406543120724
1120000000.0 -0.17905751620021323 -0.08221612974464253
1140000000.0 0.2247371290501543 -0.08706475261971516
1160000000.0 -0.02010683733907121 -0.28315979630938076
1180000000.0 -0.27378110709593406 0.1775767626150167
1200000000.0 -0.352535013219073 -0.05146297848215325
1220000000.0 -0.06279590730531792 -0.38535878819680114
1240000000.0 0.2530420403285446 0.32374124952102157
1260000000.0 -0.3321923164454107 -0.28426446989411885
1280000000.0 0.3343830414530131 0.29408238725329205
1300000000.0 -0.03482332395906855 -0.45044430824380377
1320000000.0 -0.38218911979784664 0.21864310413112065
1340000000.0 -0.42311712229305004 -0.08092697804858046
1360000000.0 -0.257032222923477 -0.33675068411256004
1380000000.0 -0.2815779544167476 -0.31352218716158475
1400000000.0 -0.3344405900760159 0.22735717484713622
1420000000.0 -0.31122878478697885 0.2302565149526028
1440000000.0 0.017401727361846836 0.36486169098263493
1460000000.0 0.03290855510522699 0.33722985952063056
1480000000.0 0.17011370445261745 0.2697500248922774
1500000000.0 0.2868489445996412 -0.07311681429027192
1520000000.0 -0.26807435261327905 0.04688102350925152
1540000000.0 0.20507795608038779 0.14553468736250008
1560000000.0 0.18063290637296373 0.1267249228942717
1580000000.0 0.15381861005344238 -0.11190354237494964
1600000000.0 0.10233879484524647 0.11891554497956128
1620000000.0 -0.10899695373962687 0.049173221224233676
1640000000.0 0.06589798000195209 0.06043546143073491
1660000000.0 9.771603104887068e-05 -0.06437940339128094
1680000000.0 0.03251474833519747 -0.018849567248074864
1700000000.0 0.01213000692317495 0.012980878253309989
1720000000.0 0.01758365421406203 -0.01400276689836814
1740000000.0 0.03141061762087023 0.026531435746379357
1760000000.0 0.03770009114107918 -0.05170215045694694
1780000000.0 -0.0792212662617221 -0.039048243238689294
1800000000.0 0.020552874841899646 -0.11960410924168124
1820000000.0 0.14981900237534831 -0.005030040772722022
1840000000.0 -0.12815522034571983 0.12204440268981576
1860000000.0 0.1483067992925654 -0.137686308714635
1880000000.0 0.08226154261550377 -0.20979199047364602
1900000000.0 0.1210561971795983 -0.22558386083869666
1920000000.0 -0.013311869101836137 -0.2870604010927148
1940000000.0 0.11195496271844423 -0.30104477766300475
1960000000.0 -0.2242389336311034 -0.27831614537409227
1980000000.0 -0.3190319722566518 0.22248427252690783
2000000000.0 0.1944304479119109 0.3708112167329042
2020000000.0 0.3157684149453988 -0.30903303600930143
2040000000.0 -0.45314466657940455 0.06714482430240842
2060000000.0 0.40518107728660396 0.21872872960378947
2080000000.0 -0.10965763116328345 -0.44393167363538344
2100000000.0 -0.345936500315597 0.2793875787246636
2120000000.0 0.2073774051596541 0.37016334798929684
2140000000.0 -0.1954967051100599 0.34882421140158343
2160000000.0 -0.23469461378135997 0.2981940855831126
2180000000.0 -0.3581522684167303 -0.0001942669044293936
2200000000.0 -0.22885628627798926 -0.2578776238598494
2220000000.0 0.20066241287806436 -0.2715747696091262
2240000000.0 0.20325505885073397 -0.27536466899908185
2260000000.0 0.037377654078384066 -0.3499144773116771
2280000000.0 -0.34885147131374517 -0.10527083497654996
2300000000.0 0.15356330176547756 0.35037794825256885
2320000000.0 0.03301018811565218 -0.4063764609949352
2340000000.0 -0.25398681213615765 0.3531555448861508
2360000000.0 0.3447094217163845 -0.3202418212700133
2380000000.0 -0.47582297153585557 0.19118890778773215
2400000000.0 0.5363110327671762 -0.16185327750866485
2420000000.0 -0.503932203120033 0.34310257132193217
2440000000.0 0.22175575611170767 -0.617792232188323
2460000000.0 0.21748045847452896 0.6601415912790457
2480000000.0 -0.47988794048617744 -0.5443051986858257
2500000000.0 0.5670843944188496 0.48335794371516133
2520000000.0 -0.43361599457630934 -0.6201264685791753
2540000000.0 0.14539960651790695 0.7440832472887443
2560000000.0 0.34483882632952245 -0.667854154580954
2580000000.0 -0.7342403929929171 0.06217639775208768
2600000000.0 0.5425240841046634 0.46191929453789327
2620000000.0 0.10233499419193182 -0.6740369556657972
2640000000.0 -0.19073375098188738 -0.6152817712649898
2660000000.0 -0.4584614982449484 0.3860719887925435
2680000000.0 0.43440111956479915 0.34608792277370215
2700000000.0 0.15864545217215353 -0.48808684901493665
2720000000.0 -0.3910137184063158 0.26275089050633993
2740000000.0 0.4310525829922817 -0.03567559884011407
2760000000.0 -0.384425274260997 0.10060581782436956
2780000000.0 0.07956682787754496 -0.35592006575462515
2800000000.0 0.26146989018900463 0.2107107049960205
2820000000.0 -0.20433427717782165 0.23687751875184382
2840000000.0 -0.058736968063227264 -0.28754822012950265
2860000000.0 0.14149893596331195 0.24444141569073996
2880000000.0 -0.14125508657103916 -0.23823978016172484
2900000000.0 -0.08988524321835238 0.2584491848249037
2920000000.0 0.08321566034041727 0.267864344178908
2940000000.0 0.285304491633369 -0.05334196328061564
2960000000.0 0.23596259834310895 -0.18242411465443648
2980000000.0 0.07511787993181493 -0.3014576941937844
3000000000.0 0.003222985781598788 -0.31901602559509284
3020000000.0 0.08076511954780217 -0.3121374196790429
3040000000.0 0.23683298519017523 -0.21411787788702805
3060000000.0 0.2292591922912746 0.21586125227469358
3080000000.0 -0.29616972882826725 0.07683526923529291
3100000000.0 0.14429167773527532 -0.2595369044813722
3120000000.0 -0.0013511697911506942 0.2826224129510909
3140000000.0 -0.06789002878078286 -0.26006947834240196
3160000000.0 -0.22590633617488742 -0.11013794547358566
3180000000.0 0.1421123855682549 0.18560178252563111
3200000000.0 -0.04615109522046432 -0.2086864716912175
3220000000.0 -0.06401295548759847 0.18346116551986152
3240000000.0 0.08626386293668348 -0.15039267333761663
3260000000.0 0.02481445667245762 0.1492458330256012
3280000000.0 -0.037967497323256154 0.12026452186881872
3300000000.0 0.09093206635772298 0.03668563756047141
3320000000.0 0.028698908252042552 0.06347912267255465
3340000000.0 -0.03792583692637547 -0.010954105039799681
3360000000.0 -0.0007577381642687813 0.023185165473780633
3380000000.0 -0.009196875493099417 0.02780909530491202
3400000000.0 0.04122726000133739 -0.006839749412816833
3420000000.0 0.04505213193111219 0.02553780234113273
3440000000.0 -0.03555192501311487 -0.03459931032405628
3460000000.0 0.04261930546669422 -0.005563956373919313
3480000000.0 0.039341173280194514 -0.014368025705582776
3500000000.0 -0.018537221087858623 -0.05526401726754496
3520000000.0 0.018118378293960225 -0.08544331723603926
3540000000.0 -0.048480495294770665 -0.10319289975522662
3560000000.0 -0.09444165638976292 0.09871138305021777
3580000000.0 0.11678592872102157 0.09946066586782992
3600000000.0 0.06939110082492836 -0.15567711342894386
3620000000.0 -0.17492626704261607 -0.013032951075757993
3640000000.0 -0.16376293486943835 -0.07135359482133165
3660000000.0 0.009672169948261027 -0.17785255042553394
3680000000.0 0.10074659325856732 0.14594093366991248
3700000000.0 -0.11039592320227423 -0.13435949458771726
3720000000.0 -0.13761642679831587 0.10872126149071491
3740000000.0 0.0255277134776915 -0.17628053622077794
3760000000.0 -0.10860851346936652 0.14500266559799713
3780000000.0 -0.13415630957117297 -0.12298038002895827
3800000000.0 0.147861985192227 -0.09901825997542892
3820000000.0 0.01054846982369709 0.1690006989376242
3840000000.0 0.13788942764507303 -0.06934076663866603
3860000000.0 0.13610481021276574 0.046408935535045055
3880000000.0 -0.11034770458630483 -0.08591776502522525
3900000000.0 0.10622406755713133 0.09154023449838145
3920000000.0 -0.1446154960173855 0.040236681384501906
3940000000.0 0.16684998400085985 0.01175930721300758
3960000000.0 0.18358663935103864 0.001660593549019867
3980000000.0 -0.11195210202867385 0.1555484035137231
4000000000.0 0.09283975830186482 -0.1596294139048477
