! Created with skrf (http://scikit-rf.org).
# Hz S RI R 50.0 
!freq ReS11 ImS11
400000000.0 -0.7066106954475921 0.5019114763217808
420000000.0 0.2844265279761015 0.8175557324769926
440000000.0 0.799094864071226 -0.25277348744045935
460000000.0 0.2237449054229984 -0.7559406821856256
480000000.0 0.5572344658326509 -0.4590483171488268
500000000.0 -0.42570600985658996 -0.3679569987321788
520000000.0 -0.40874428018795234 -0.2695699846181435
540000000.0 -0.010379799925592827 -0.41119061587269734
560000000.0 -0.3608984720802602 -0.06412747610733259
580000000.0 0.1382070717844027 -0.2870056398534848
600000000.0 0.00816652111510493 -0.32892940003439747
620000000.0 0.26398425341543946 -0.20372426301760327
640000000.0 -0.3307216545773738 0.10752522619802467
660000000.0 -0.27988462455169216 0.2621771407849695
680000000.0 0.14576961923284623 -0.3760788502692675
700000000.0 -0.41884877856238917 0.13027556898175227
720000000.0 0.04488814491748196 0.43682580288524175
740000000.0 -0.4230743972656076 0.15650079819063015
760000000.0 0.07657321433958657 -0.4252535861050766
780000000.0 0.24738176758800037 0.3152676323540482
800000000.0 -0.12268845790723043 0.3427484165480786
820000000.0 -0.21961190260910757 0.20875115363462202
840000000.0 0.19669760727019475 -0.16128456318992213
860000000.0 -0.0423915888806729 -0.19928568834017366
880000000.0 -0.09566586070155877 -0.1189082709362779
900000000.0 0.00010743736937419106 -0.07670341305148845
920000000.0 0.005968639812145671 0.043746817169062056
940000000.0 -0.000283503423326315 0.050962860165905115
960000000.0 -0.05890237714973405 -0.010074953741932124
980000000.0 -0.06300076667697202 -0.0011218041073318055
1000000000.0 0.02460725863556757 -0.06358930892505758
1020000000.0 0.04923138659516663 0.051445564521078624
1040000000.0 -0.040477646674166166 -0.06715066594519514
1060000000.0 0.10083204079335209 0.05265887141359663
1080000000.0 0.11841271429786077 -0.0693160023064031
1100000000.0 -0.05629990256798171 -0.1529824188852345
1120000000.0 -0.18457089689348358 -0.0688808463617423
1140000000.0 0.23070378115958945 -0.0695319139695367
1160000000.0 -0.018252542533205164 -0.28361000508984063
1180000000.0 -0.27672518957192377 0.1734124469938066
1200000000.0 -0.3538622652122842 -0.042144160615269245
1220000000.0 -0.049005624258995184 -0.38733506917519994
1240000000.0 0.23966181240397472 0.3335055912337092
1260000000.0 -0.3284180027869123 -0.28864062415230024
1280000000.0 0.3224412313710021 0.3065571539996017
1300000000.0 -0.03544706747536447 -0.45009641564285896
1320000000.0 -0.388001711854092 0.20795055069062227
1340000000.0 -0.4223801516302535 -0.0843398339673254
1360000000.0 -0.2525235112664135 -0.34032028251981244
1380000000.0 -0.2786525871706978 -0.3163745387883099
1400000000.0 -0.3391789325096393 0.22000673353469485
1420000000.0 -0.312951542100719 0.2277389948602107
1440000000.0 0.019534414725736166 0.3651756727889527
1460000000.0 0.025503038220501893 0.3382237569042323
1480000000.0 0.19327598024672774 0.2538945298978513
1500000000.0 0.293281020712167 -0.0451843395766728
1520000000.0 -0.2718964762984283 0.02010794985593565
1540000000.0 0.20223216876990294 0.14983370767501097
1560000000.0 0.1956675038062403 0.10202923469493645
1580000000.0 0.144359501150863 -0.12405276675268355
1600000000.0 0.10995455907889437 0.1126729522411214
1620000000.0 -0.11415047396221195 0.036386773133318784
1640000000.0 0.04901220426383127 0.0751137857832559
1660000000.0 0.02292236755929211 -0.06045180674536541
1680000000.0 0.036389707046453 -0.004591819234674488
1700000000.0 -0.01207550396329853 -0.011001766904192852
1720000000.0 -0.022944132458992794 -0.0017949015054650615
1740000000.0 0.029849976321057174 -0.029535512091397566
1760000000.0 0.05269036511186914 -0.03737032883971898
1780000000.0 -0.05039353533637976 -0.07297884220267806
1800000000.0 0.06269996517323592 -0.10367425673166787
1820000000.0 0.1471483242941897 0.02712221874106626
1840000000.0 -0.16047046677294832 0.07223966177289988
1860000000.0 0.17024699108093397 -0.10766933659839549
1880000000.0 0.13596126738009034 -0.17857987113475898
1900000000.0 0.1401157331421968 -0.2131037636434061
1920000000.0 0.010965278758069429 -0.2863180148267133
1940000000.0 0.12165212322342198 -0.29664425024339747
1960000000.0 -0.23401505598074943 -0.27050939769073423
1980000000.0 -0.30355964650569894 0.24358816581422668
2000000000.0 0.22918295860452595 0.35066885438938106
2020000000.0 0.24620948259938838 -0.36699290127367207
2040000000.0 -0.4515556551048116 0.0798066463331361
2060000000.0 0.425773045015703 0.17821144729380461
2080000000.0 -0.17170658062734398 -0.4247866552065951
2100000000.0 -0.34175046118806884 0.2859184203828235
2120000000.0 0.16648254517597144 0.39097888119191326
2140000000.0 -0.24111603544204194 0.31953304179548875
2160000000.0 -0.24873309523173956 0.28761564139423523
2180000000.0 -0.3561713859090428 -0.040859057324948676
2200000000.0 -0.19385988104804242 -0.28615315593747576
2220000000.0 0.22550938678783722 -0.2523566986349763
2240000000.0 0.22346555183697692 -0.2602690034503924
2260000000.0 0.029944871846190154 -0.35121990371300726
2280000000.0 -0.3459457511057249 -0.1143540842243202
2300000000.0 0.12700293337229301 0.36059448876094846
2320000000.0 0.026798114359912764 -0.4068635472423867
2340000000.0 -0.26183906826123254 0.3469828849637778
2360000000.0 0.3473610933563798 -0.3163138349089183
2380000000.0 -0.48601984447906277 0.16160514588313288
2400000000.0 0.5424715902319713 -0.1381713151698945
2420000000.0 -0.5001145650387814 0.3483170264094106
2440000000.0 0.21408867457589714 -0.6202976284460097
2460000000.0 0.18312597410545994 0.6706876345738578
2480000000.0 -0.5014589375228442 -0.5244300015950218
2500000000.0 0.5614558496796858 0.4906735946182155
2520000000.0 -0.48864137750867565 -0.577651409118661
2540000000.0 0.18465537400060827 0.7351953552324502
2560000000.0 0.32423800366761885 -0.678870266949754
2580000000.0 -0.7354813040521707 0.061643395651333435
2600000000.0 0.5291946949236521 0.4788713012031253
2620000000.0 0.10166528899614247 -0.675318795223048
2640000000.0 -0.17880895041928943 -0.6202605760828881
2660000000.0 -0.46759544410412457 0.37611816015015714
2680000000.0 0.43560076070329895 0.3451968112774447
2700000000.0 0.13326323375673937 -0.496537305792962
2720000000.0 -0.38647800293826867 0.27074108741714115
2740000000.0 0.43060122497483905 -0.0422762442735621
2760000000.0 -0.386722278957735 0.09266765310080238
2780000000.0 0.08032144095717016 -0.3557683886098627
2800000000.0 0.26854669092286854 0.20138633168009157
2820000000.0 -0.21280113384455315 0.22901493333533415
2840000000.0 -0.07272086295309174 -0.2842388887543269
2860000000.0 0.13423376788407057 0.24870414134208238
2880000000.0 -0.1550685259657939 -0.22998551365348516
2900000000.0 -0.054318749983841376 0.26854740434668944
2920000000.0 0.11006791875985224 0.2581051385970833
2940000000.0 0.2806803923663127 -0.07431125529247654
2960000000.0 0.22543533923068743 -0.19618179962555388
2980000000.0 0.07734892744653629 -0.3017059037019776
3000000000.0 -0.0020406470166554856 -0.31867980461117656
3020000000.0 -0.003759642646367287 -0.3222511281381669
3040000000.0 0.23527849191638098 -0.21640822233226323
3060000000.0 0.23769795253107437 0.20830013707059383
3080000000.0 -0.2971126549552848 0.07862274824655248
3100000000.0 0.1374072781599834 -0.2635729659862261
3120000000.0 -0.030479884059563547 0.2818614708893948
3140000000.0 -0.036462589019429434 -0.2666829249900758
3160000000.0 -0.20503619511306656 -0.14436425034163022
3180000000.0 0.12011478296840535 0.20061178691944614
3200000000.0 0.028775384210209698 -0.21225093177993085
3220000000.0 -0.11057305335842753 0.15946323006290805
3240000000.0 0.10744813369457057 -0.1354937083919387
3260000000.0 -0.027542520058425665 0.14827449863217332
3280000000.0 -0.04830870943806909 0.11503025709048063
3300000000.0 0.08226567198840226 0.05210712371289984
3320000000.0 0.027099822177337217 0.06329536182947015
3340000000.0 -0.027248344378717974 0.02777737377838716
3360000000.0 0.018504487310990008 -0.013428315434852766
3380000000.0 0.028021520636745574 0.012421963043476342
3400000000.0 0.019901755374369067 -0.03940140493415743
3420000000.0 0.003495285389183335 0.0528832589033913
3440000000.0 0.011731308194412322 -0.04923015873510009
3460000000.0 0.020873023853127958 0.03803080990817212
3480000000.0 0.03173743025087812 0.028824136538892764
3500000000.0 -0.0026213827872738583 -0.05949245364877362
3520000000.0 0.06195091343354509 -0.06319162376467026
3540000000.0 -0.05004834996568066 -0.1041528152526169
3560000000.0 -0.12897569363242922 0.04626416311743732
3580000000.0 0.047671974962652776 0.14653045229946304
3600000000.0 0.09940102160145865 -0.1386750943573323
3620000000.0 -0.14617932419374835 -0.09643937839656579
3640000000.0 -0.14024851361828516 -0.11122301056237352
3660000000.0 0.07058107487094062 -0.16304318476950344
3680000000.0 0.06297582272451735 0.165065467734743
3700000000.0 -0.049111709419393405 -0.1668297461637577
3720000000.0 -0.1500194937137727 0.09141623588853978
3740000000.0 0.07283900631276057 -0.1621963040982094
3760000000.0 -0.1480200439081543 0.10548876381441663
3780000000.0 -0.0717207891052772 -0.16682436215505336
3800000000.0 0.1725628205340248 -0.03923115372063722
3820000000.0 -0.02288662243520503 0.16695457211660664
3840000000.0 0.15317877182810394 0.013582762499113837
3860000000.0 0.10612285960287916 0.09537115595550426
3880000000.0 -0.06254905705354542 -0.12413651316873049
3900000000.0 0.047233097356238166 0.13199102533320697
3920000000.0 -0.1472760870617081 -0.02907789188524241
3940000000.0 0.13691313226060406 0.09649162965020307
3960000000.0 0.1492481004756719 0.1059687156881585
3980000000.0 -0.1799979592674192 0.06351701022129623
4000000000.0 0.16987032488881051 -0.07508441104641833
