! Created with skrf (http://scikit-rf.org).
# Hz S RI R 50.0 
!freq ReS11 ImS11
400000000.0 -0.7116064941991533 0.49335527043686545
420000000.0 0.27699208212611354 0.8200982740046033
440000000.0 0.7735912922633617 -0.3219879056211
460000000.0 0.2233660069811611 -0.7540756509420529
480000000.0 0.595891097873618 -0.4079199415480877
500000000.0 -0.43387371977612604 -0.3610113784862297
520000000.0 -0.4548624383510677 -0.17790469360332273
540000000.0 0.03908874004788215 -0.4090534547211403
560000000.0 -0.34958659970182315 -0.11252490477374526
580000000.0 0.12821218736527126 -0.2931857653463402
600000000.0 -0.009076716763133527 -0.3272420754058025
620000000.0 0.3119907986340253 -0.11462385954440396
640000000.0 -0.3391878834221615 0.07552557876363597
660000000.0 -0.23783386839069617 0.2992539768724773
680000000.0 0.09136047477507002 -0.3920114786211771
700000000.0 -0.41374479354396776 0.1429118867669381
720000000.0 0.0832796955196849 0.4312011816268753
740000000.0 -0.40564101283074766 0.19717610819383058
760000000.0 0.10751177617718896 -0.4183813120629679
780000000.0 0.2746004636225743 0.29289726783322206
800000000.0 -0.15107849700579642 0.33155698166118275
820000000.0 -0.2443006816323899 0.18004055696449633
840000000.0 0.21075933591316762 -0.14284230616744822
860000000.0 -0.047250178023482935 -0.19814644856810792
880000000.0 -0.11030604912019007 -0.10602179473776428
900000000.0 0.03032018696262485 -0.07116454333789726
920000000.0 0.0020357872162292327 0.044505410283423086
940000000.0 0.026033288753244045 0.04391583229192975
960000000.0 -0.058684745322268174 0.012028175715329081
980000000.0 -0.06303946809726105 -0.006624212494282721
1000000000.0 0.0007271110446781643 -0.06802220690016146
1020000000.0 0.05289402513613722 0.04813170545598735
1040000000.0 -0.016464649746452103 -0.07657153712680673
1060000000.0 0.0933454819450383 0.06501853180935094
1080000000.0 0.12399861277794987 -0.058201129831750915
1100000000.0 -0.03976139573370261 -0.15813130655678706
1120000000.0 -0.17365738687953422 -0.09301280325964222
1140000000.0 0.22524919439006674 -0.0855547193702935
1160000000.0 -0.017313215416191012 -0.28327077670925227
1180000000.0 -0.26761269342711147 0.18650259412760026
1200000000.0 -0.3543747573605364 -0.038456790555815634
1220000000.0 -0.08216233388624829 -0.3818267712139243
1240000000.0 0.23574458465879372 0.33665267444229263
1260000000.0 -0.339100128859861 -0.27569571243170843
1280000000.0 0.32954159725056853 0.2997621479251279
1300000000.0 -0.06464796031354672 -0.44715730502569256
1320000000.0 -0.3824368737954603 0.21803983719760192
1340000000.0 -0.421024725066368 -0.0914245958169331
1360000000.0 -0.2608561029501229 -0.33406032280765124
1380000000.0 -0.29162381993552 -0.30451339982958425
1400000000.0 -0.3348403642709307 0.2266390121923532
1420000000.0 -0.3058378909158953 0.23711398522256855
1440000000.0 0.0195165190304823 0.36477723015206304
1460000000.0 0.033828891145771846 0.3372404706605636
1480000000.0 0.2011644065363908 0.24710568551032044
1500000000.0 0.28570177419505943 -0.07831756872043653
1520000000.0 -0.26910698488205914 0.04151384252984576
1540000000.0 0.20460419303855967 0.14604794657216888
1560000000.0 0.1913980355405508 0.10991084064958057
1580000000.0 0.14225178170078925 -0.12607255576288737
1600000000.0 0.1043588803497695 0.11721229310192513
1620000000.0 -0.11170825298119705 0.04303735614061297
1640000000.0 0.061315927463159364 0.06504032765914326
1660000000.0 -0.003571687159556571 -0.06428699328392361
1680000000.0 0.036939965953354456 -0.001661456262249998
1700000000.0 0.008243067364712767 0.015677860746421184
1720000000.0 0.02172502281633858 -0.00692247089781604
1740000000.0 0.033683423641048524 0.023711554475029963
1760000000.0 0.04594787473515654 -0.04464318359454508
1780000000.0 -0.06695835637444209 -0.057406963267631124
1800000000.0 0.049757231280676224 -0.11044483872173283
1820000000.0 0.15017659096802574 -0.0032963904485464024
1840000000.0 -0.13397685865106387 0.11576877068568477
1860000000.0 0.1505685711791072 -0.1351469063592738
1880000000.0 0.07389210281246117 -0.2128711941890046
1900000000.0 0.12433572839890568 -0.22410381432263504
1920000000.0 -0.012933363598245316 -0.2869023000447783
1940000000.0 0.0925602316284744 -0.30741325063679753
1960000000.0 -0.2259730097336597 -0.27661125196228675
1980000000.0 -0.3192386472517725 0.22236353093956307
2000000000.0 0.17886089371866012 0.3786712795984039
2020000000.0 0.29779791084926904 -0.3261682565366885
2040000000.0 -0.4518411243673749 0.07510144774454658
2060000000.0 0.4197527223136392 0.18950601232101266
2080000000.0 -0.12983273615801544 -0.43867331320768965
2100000000.0 -0.34985844507928543 0.2745204996825686
2120000000.0 0.22549036978695028 0.3595888461502478
2140000000.0 -0.2398562390553233 0.3202920449830624
2160000000.0 -0.23128670454196432 0.3010522327542839
2180000000.0 -0.3584488478873801 0.004257563274860665
2200000000.0 -0.227744066253029 -0.25884227028725704
2220000000.0 0.18857794257392194 -0.27976947142682773
2240000000.0 0.2157527401416622 -0.2658226462331803
2260000000.0 0.04227472056452577 -0.34931405458890313
2280000000.0 -0.346068347536676 -0.11381214538297112
2300000000.0 0.17922916966649408 0.33837704382553635
2320000000.0 0.02677182109273237 -0.40682065196015155
2340000000.0 -0.23832091362582844 0.3639913918631832
2360000000.0 0.3249833194267879 -0.34096513479658597
2380000000.0 -0.4724856591916295 0.19967322052630962
2400000000.0 0.529939335981668 -0.1816826251302602
2420000000.0 -0.4883088492348764 0.36515318930993124
2440000000.0 0.20704903125342222 -0.6228010316441501
2460000000.0 0.22746425595325534 0.6567607928294381
2480000000.0 -0.5027951163007088 -0.5229658900224997
2500000000.0 0.5589444661538987 0.49268409932437907
2520000000.0 -0.46407088478171343 -0.5970975151049888
2540000000.0 0.2075632905123845 0.7286082723936648
2560000000.0 0.3285837988650422 -0.6759055071387942
2580000000.0 -0.7334652233018457 0.06873088467078474
2600000000.0 0.5530665302081053 0.4489447653431431
2620000000.0 0.08208776448424607 -0.6765593445543416
2640000000.0 -0.2457710037524926 -0.5953151231956894
2660000000.0 -0.4508587537124871 0.3945400207910928
2680000000.0 0.43791393213024205 0.34136141873748377
2700000000.0 0.1700878712544933 -0.48422016619336944
2720000000.0 -0.37899233490110384 0.27963353988169626
2740000000.0 0.430355621886011 -0.04208506528379567
2760000000.0 -0.38286292679858097 0.10627411761093448
2780000000.0 0.06403354215952006 -0.3589053224393152
2800000000.0 0.26485791326251923 0.20601921093288125
2820000000.0 -0.19920635695389874 0.24092567241955487
2840000000.0 -0.06282646818586286 -0.2866987769901934
2860000000.0 0.13727013218871217 0.24686404735853984
2880000000.0 -0.1383062010160832 -0.23993876965301972
2900000000.0 -0.11393208748295593 0.2489092430549578
2920000000.0 0.09364935311963583 0.2644722312094957
2940000000.0 0.28406395443541327 -0.05859710204410366
2960000000.0 0.2354587457835999 -0.1829956528918025
2980000000.0 0.0724640964607951 -0.3018025994246307
3000000000.0 0.009371351276774605 -0.3191154741059932
3020000000.0 0.0640493994094662 -0.3162321884957803
3040000000.0 0.24064117144560002 -0.2093417354300163
3060000000.0 0.23992161245744484 0.20393365882968897
3080000000.0 -0.2956162654946204 0.07979552163473569
3100000000.0 0.08934363564523502 -0.2831798705212123
3120000000.0 -0.035810472853771744 0.2799882631996416
3140000000.0 -0.050621442587212816 -0.26416420844195637
3160000000.0 -0.22220855284201843 -0.11690220942078322
3180000000.0 0.15391810590774882 0.17575676668337473
3200000000.0 -0.0323967901116858 -0.21111744475299868
3220000000.0 -0.07016592947025294 0.1812353299170904
3240000000.0 0.08123293078776792 -0.15322818825402423
3260000000.0 0.01569298681028932 0.15034191283965448
3280000000.0 -0.0570785223877241 0.11238455852961968
3300000000.0 0.08992679799924654 0.03853794525990098
3320000000.0 0.019528132540670387 0.06659137879222896
3340000000.0 -0.030224206636527993 -0.024774499935850545
3360000000.0 0.008249735327829275 0.020900411291127134
3380000000.0 0.020418108455834926 0.020564684809404047
3400000000.0 0.041718420007460275 0.002118844403558823
3420000000.0 0.04753746175550798 0.020645528731232002
3440000000.0 -0.03581867168143068 -0.034784217526394975
3460000000.0 0.042535487755265576 -0.007501063602379563
3480000000.0 0.03303028394524728 -0.026239712835739688
3500000000.0 -0.014787038436531364 -0.05657871322379121
3520000000.0 0.02410649885745838 -0.08381244627803983
3540000000.0 -0.05089874081801639 -0.10211523109649952
3560000000.0 -0.11621672013762961 0.07109447934886184
3580000000.0 0.09909322353546059 0.11679568219317693
3600000000.0 0.060586669090573975 -0.15950531042268465
3620000000.0 -0.1680953122664626 -0.04933682075345691
3640000000.0 -0.16880937442359015 -0.06046012629866412
3660000000.0 0.02410842006371608 -0.1767634204666602
3680000000.0 0.09555592686341625 0.14934696356195767
3700000000.0 -0.10779553105582404 -0.1364690785201767
3720000000.0 -0.12317685910168415 0.12394692762814177
3740000000.0 0.018138466848553813 -0.17698591210336895
3760000000.0 -0.10372031957867935 0.1481357997978559
3780000000.0 -0.13308844068163628 -0.12376970062543269
3800000000.0 0.14613940585685312 -0.10104286665010026
3820000000.0 0.025260939457521253 0.16700069155004904
3840000000.0 0.1390137756375974 -0.06706547474319459
3860000000.0 0.13791929566895492 0.03978831509494125
3880000000.0 -0.114502333036484 -0.08012002951048543
3900000000.0 0.10802922390369928 0.08943668078569829
3920000000.0 -0.1410891850110106 0.051722064865515754
3940000000.0 0.1669332420741373 -0.006259406347576335
3960000000.0 0.18317938254313765 -0.011646554726806639
3980000000.0 -0.10988119290481672 0.15673227772292736
4000000000.0 0.0919618351786715 -0.1602065311258059
