! Created with skrf (http://scikit-rf.org).
# Hz S RI R 50.0 
!freq ReS11 ImS11
400000000.0 -0.6657756423177685 0.5385370501547301
420000000.0 0.07528409147482407 0.8610622669555323
440000000.0 0.8356522771264538 -0.05598319153560736
460000000.0 -0.028022287943745398 -0.8024329693755232
480000000.0 0.1646194721366265 -0.7124632903365586
500000000.0 -0.13861192642375778 0.5556556973349895
520000000.0 -0.3676634338650311 0.30046486101360975
540000000.0 0.24292376927819637 -0.33889011698637445
560000000.0 -0.31205794096328404 0.1569804061534272
580000000.0 0.2496741686936073 -0.2101487219221833
600000000.0 -0.2915714653137003 -0.1268674937686483
620000000.0 0.21590902051880626 0.2531668131594136
640000000.0 -0.19945200052935408 0.29471562138648477
660000000.0 -0.3106110087835226 0.21045251894085126
680000000.0 0.17409810422002228 -0.3651170241269365
700000000.0 -0.4030003266376322 -0.1388877624320005
720000000.0 -0.2987521302923728 0.321708874030064
740000000.0 -0.44189252667514756 -0.03763044730056967
760000000.0 0.417050776093515 0.1053078503855281
780000000.0 0.14588406932712508 0.37482594338531505
800000000.0 -0.33144076518514565 0.16816330413054387
820000000.0 0.16799237730925395 0.26731753034965616
840000000.0 -0.16967875338878216 0.19107448773114222
860000000.0 -0.16892399740136949 -0.11042685334698218
880000000.0 -0.15605125206996417 0.0338911736014213
900000000.0 -0.02937998686537838 0.07596728480843273
920000000.0 0.04738504987904795 -0.007894207702601318
940000000.0 0.04406110490043484 -0.00977276283582917
960000000.0 -0.0338107978331273 -0.04093852641341135
980000000.0 0.02570760077854135 0.05913702796953861
1000000000.0 -0.010862244024450346 -0.06550075531162299
1020000000.0 0.03894942313724193 0.07089875063146364
1040000000.0 0.04601747524231756 0.07204047840623473
1060000000.0 -0.059505737139216516 0.10957573861239356
1080000000.0 0.12740111395183648 -0.06195227506254152
1100000000.0 0.10789394529582738 -0.13040183726811827
1120000000.0 -0.061907551345375615 -0.18196453456112344
1140000000.0 -0.13740303957640201 -0.1851479128770265
1160000000.0 -0.17549434532808947 -0.211756597757351
1180000000.0 -0.23711554472415833 -0.20906867023050626
1200000000.0 -0.144052586503054 -0.3222320841596994
1220000000.0 0.3861597931676893 -0.01880060774001983
1240000000.0 -0.15175949375793973 0.38708439323710664
1260000000.0 -0.009716521984105806 -0.44050496949852025
1280000000.0 0.156502157958954 0.4253418848001484
1300000000.0 -0.024334842068146734 -0.45581429640516824
1320000000.0 -0.38811423419620195 0.22089276964597784
1340000000.0 -0.3985387681843515 0.17270755002433288
1360000000.0 -0.3452277072758873 -0.24625567768633816
1380000000.0 -0.3719873885583007 -0.2022325305789287
1400000000.0 -0.21263861429280323 0.34754529936990514
1420000000.0 -0.05359887136542797 0.38273618269053594
1440000000.0 0.13817033725543004 0.33473800644472934
1460000000.0 0.21235099038332275 0.2604606741530409
1480000000.0 0.2383120002865322 0.20133660400516154
1500000000.0 0.2895414180837737 0.013975163916349781
1520000000.0 -0.2517798138233815 -0.0915133228018553
1540000000.0 0.05029636683805201 0.24099857370959119
1560000000.0 0.018371132100016493 0.21732567733076408
1580000000.0 0.08657773646120559 0.1705298212201115
1600000000.0 -0.15814740019287146 0.015450760750070475
1620000000.0 0.09513924308096049 -0.07727989950008306
1640000000.0 -0.08638215036113833 -0.04193884419400054
1660000000.0 -0.056528971368249074 -0.04372884125755484
1680000000.0 0.018426145173836 0.04142320784137994
1700000000.0 0.017386103025512363 -0.01740173067242071
1720000000.0 0.001577481223569862 0.02413929858003738
1740000000.0 -0.04071699377888538 -0.014295069702034861
1760000000.0 0.021410588456300075 0.06304966828090171
1780000000.0 -0.02783957709812284 0.09015122808925748
1800000000.0 0.10328919884121487 -0.07078291303445473
1820000000.0 0.12511753981829776 0.08562311594816528
1840000000.0 -0.17182444380737139 0.05747507426291116
1860000000.0 0.20646653012743343 -0.001710087371588676
1880000000.0 0.06665974549777802 -0.22399143317844883
1900000000.0 -0.21166688649222498 -0.15870932810530627
1920000000.0 -0.29098494057729435 0.04566622344893549
1940000000.0 -0.3103352165219417 0.09294853049115265
1960000000.0 -0.29772973746307285 0.19337935803708586
1980000000.0 0.08565848137723497 0.37375452910998397
2000000000.0 0.3335913875942122 0.24035455189330393
2020000000.0 0.296227467789829 -0.3177768488574692
2040000000.0 -0.4150158504314397 -0.179287639464999
2060000000.0 0.24103617007476805 0.38969383647809597
2080000000.0 0.19233724412354236 -0.41392625127637156
2100000000.0 -0.44389411983115 -0.05669311177576047
2120000000.0 -0.024678028603650475 0.4290761859821646
2140000000.0 -0.28921799771715695 0.2881969625555396
2160000000.0 -0.0274549398737683 0.3856868880744902
2180000000.0 -0.09804848983950097 0.3486146291435719
2200000000.0 -0.23903692372331997 0.2510520053462557
2220000000.0 -0.31947559007417303 -0.09593410378234128
2240000000.0 -0.21720277162743654 -0.2589949376435851
2260000000.0 -0.27139351687835855 -0.21543392361772856
2280000000.0 -0.35017368198864074 0.07921028698489871
2300000000.0 0.33864241892415897 0.17008087355383694
2320000000.0 -0.13329489108842574 -0.38331519035185246
2340000000.0 0.027690815071307634 0.43549354338376656
2360000000.0 0.057312109043858354 -0.4718067702218182
2380000000.0 -0.014828787426853209 0.5167879640113765
2400000000.0 -0.008432351992190201 -0.5639172946135411
2420000000.0 0.2734952808082587 0.5468636269583083
2440000000.0 -0.5634990447288246 -0.33493094669521195
2460000000.0 0.6912092011262753 -0.04394444661874836
2480000000.0 -0.6585489110852224 0.29249631202837106
2500000000.0 0.6836513597859131 -0.28012804318403883
2520000000.0 -0.746929822405698 0.03436012487707528
2540000000.0 0.6958704418322432 0.2741806886397496
2560000000.0 -0.23087921019021682 -0.704569894426137
2580000000.0 -0.5047221373216221 0.5210536187369257
2600000000.0 0.6953966923771905 0.08636452397010731
2620000000.0 -0.26870820099385473 -0.611869641486197
2640000000.0 -0.39796006044762683 -0.488477379379797
2660000000.0 -0.3130735068875258 0.4945001306298377
2680000000.0 0.4828673019566504 0.2415126605598907
2700000000.0 0.17666126642280064 -0.46479006570272685
2720000000.0 -0.43996487340702256 0.11747342256094366
2740000000.0 0.35376154476362887 0.22107079818358605
2760000000.0 -0.2844031184885342 -0.25798526013411993
2780000000.0 0.3538783188034527 0.035828624046550205
2800000000.0 -0.12292200012132766 0.30815525448979264
2820000000.0 -0.3118908635431212 -0.009200052759414478
2840000000.0 0.032799214979653685 -0.29410577252781156
2860000000.0 0.23170644446408245 0.16871824531611154
2880000000.0 -0.2794784503679807 0.02773849694095052
2900000000.0 0.276080868274067 0.027669496854591615
2920000000.0 0.1347347490138525 -0.24456333009294048
2940000000.0 -0.1736363490052558 -0.2264337144024229
2960000000.0 -0.16939748491728096 -0.23520400516923942
2980000000.0 0.024572040389700015 -0.29877158187377273
3000000000.0 0.22520221387470962 -0.21136985213479204
3020000000.0 0.30751096395955485 0.06852970013944272
3040000000.0 0.1382000393032885 0.28501459745559565
3060000000.0 -0.29180266214258943 0.12168944497420588
3080000000.0 -0.07850148757625093 -0.30085094509360655
3100000000.0 0.30267835006271887 0.011896155939768789
3120000000.0 -0.15279240559085433 0.24546619380896426
3140000000.0 -0.04919157569220994 -0.27046241587230074
3160000000.0 -0.22504426207331324 0.12043196750359168
3180000000.0 0.18353673103439694 -0.145714785622856
3200000000.0 -0.18690083150416897 0.09476319122734068
3220000000.0 0.18376622422196215 -0.012548198835925235
3240000000.0 0.01925176029220885 -0.15753053447398901
3260000000.0 -0.08698578167400037 -0.10581814636194217
3280000000.0 0.059958704909853486 0.10059694689585501
3300000000.0 -0.024154767370829854 0.09195189870060569
3320000000.0 0.02366820132216254 -0.06711410998240325
3340000000.0 0.04310863774339163 0.0155114864638273
3360000000.0 0.026757449593230682 0.0021216366226034316
3380000000.0 0.00359515809426738 -0.026665400120929442
3400000000.0 -0.0014776506006929022 0.03963232350575136
3420000000.0 -0.014824615578783888 0.051045323387184934
3440000000.0 0.025544389742556232 0.052371317886535616
3460000000.0 -0.04946640441347272 -0.021500728904315786
3480000000.0 -0.04835153949475379 -0.015294783536740904
3500000000.0 -0.04606110138402768 -0.03172071078934021
3520000000.0 0.07540248499147659 0.0018031438163442497
3540000000.0 -0.09868904547598316 -0.016277394548887467
3560000000.0 -0.004372075866940294 -0.12319723914429519
3580000000.0 -0.015685439237686834 -0.14384489636762138
3600000000.0 -0.1576872692999959 0.055140034941053066
3620000000.0 0.1722556673998121 0.04252821552474051
3640000000.0 0.1555963368452759 -0.09963477169737821
3660000000.0 0.04429335326161942 -0.1816273994587888
3680000000.0 0.1503863819978943 -0.10445566536235962
3700000000.0 0.06319045518220763 0.16550918254765493
3720000000.0 0.02066125934625888 -0.17138373582305266
3740000000.0 -0.07369797724885349 0.1517756799999917
3760000000.0 0.008448348283126553 0.16858940633156821
3780000000.0 0.13285155177261398 -0.10453209412870218
3800000000.0 -0.16804232570533165 0.025871259259600043
3820000000.0 0.09632475881036293 -0.13887285333372126
3840000000.0 -0.056203166994339186 0.1508926889470107
3860000000.0 0.15218712425189926 0.012889150204174122
3880000000.0 0.13913811859434966 0.041933158392918383
3900000000.0 -0.032698961063558914 0.1346991708006662
3920000000.0 -0.04781989278548233 -0.13505639044360246
3940000000.0 -0.026673878535964098 -0.1508824596460454
3960000000.0 0.1172521830963969 0.12097894774054589
3980000000.0 0.01702907766746897 -0.17900256535066014
4000000000.0 -0.09645065300177062 0.15219786596889617
