! Created with skrf (http://scikit-rf.org).
# Hz S RI R 50.0 
!freq ReS11 ImS11
400000000.0 -0.6593904349184782 0.5538688506918669
420000000.0 0.0950912205491569 0.8613732778596546
440000000.0 0.8369342774323966 -0.06258540750640885
460000000.0 0.009156429819900055 -0.8033051187840229
480000000.0 0.22821288933390563 -0.6953748721106102
500000000.0 -0.14686548262572827 0.5540059454311718
520000000.0 -0.3119461663267959 0.358256635180939
540000000.0 0.24946650077596458 -0.33225272493756247
560000000.0 -0.3462939170686075 0.04428311747621093
580000000.0 0.24812902657935396 -0.2132548069895785
600000000.0 -0.2983759854455429 -0.10595274628969552
620000000.0 0.1660275140171757 0.286779133465529
640000000.0 -0.15933619413404712 0.31716386307033684
660000000.0 -0.2719143246075741 0.2566239789628035
680000000.0 0.0831437160892471 -0.3951786124907748
700000000.0 -0.42315420942210213 -0.048940243662196015
720000000.0 -0.24819109956845342 0.36202748042139443
740000000.0 -0.44311711729283865 0.021064916366596163
760000000.0 0.42099178729904263 0.08813557625296774
780000000.0 0.1327961189513374 0.38046135161182104
800000000.0 -0.3531388026213794 0.1192094216749601
820000000.0 0.057141384176745476 0.31238593640766504
840000000.0 -0.225549680131449 0.12237885702588702
860000000.0 -0.15149002098518596 -0.13158150482583786
880000000.0 -0.0926627131008891 -0.12782333637856952
900000000.0 0.02409767138526885 0.07639232719391663
920000000.0 -0.04418510577418253 -0.016003995266390125
940000000.0 -0.006752436839687094 -0.04590646707106327
960000000.0 -0.05086625796710729 -0.021426397725932942
980000000.0 -0.006341770362707262 0.06661404533066542
1000000000.0 0.04291666759869555 -0.05327533401360538
1020000000.0 -0.028611930851784775 0.07749074056361872
1040000000.0 -0.01812975076321178 0.0848436110288898
1060000000.0 -0.11393304219567156 0.05031621750552604
1080000000.0 0.13942273852294101 -0.014430641613635126
1100000000.0 0.1595766094397794 -0.04903482306366468
1120000000.0 -0.004159761134376013 -0.1888389662809668
1140000000.0 -0.11201908228642102 -0.19833194905386925
1160000000.0 -0.21058758663436905 -0.1731814153868306
1180000000.0 -0.28598026307125257 -0.12977172257903472
1200000000.0 -0.22346956775079954 -0.2713162006996687
1220000000.0 0.35454258982232517 -0.15156606354753113
1240000000.0 -0.04439136253153577 0.4131725701582056
1260000000.0 -0.1325737005599433 -0.4201864439958547
1280000000.0 0.24111804847821303 0.3840499108316766
1300000000.0 -0.061338134063257936 -0.45327748726448963
1320000000.0 -0.3893794129763177 0.22040599024958232
1340000000.0 -0.40522461602372706 0.15914204812435576
1360000000.0 -0.34026463422693115 -0.2540991684010048
1380000000.0 -0.35694971254585284 -0.228017078715529
1400000000.0 -0.23744318106096707 0.3314298761555879
1420000000.0 -0.09352333866270478 0.37514288933086054
1440000000.0 0.11748819980195342 0.34216047158396845
1460000000.0 0.1839398628367383 0.2798710161710187
1480000000.0 0.26412278672728495 0.16292460621631993
1500000000.0 0.2864014406349805 0.03029056119011402
1520000000.0 -0.24593487611043074 -0.10143614370088239
1540000000.0 0.08827313206827943 0.22786359361318884
1560000000.0 -0.04919551611266575 0.2109656274417505
1580000000.0 0.10747623873990535 0.15680452095567646
1600000000.0 -0.14785160245326942 0.05539594589725554
1620000000.0 0.028695111808877478 -0.11897127448235541
1640000000.0 -0.09497588180399576 0.016960848357923778
1660000000.0 -0.0718356091232464 -0.0016821043976015758
1680000000.0 0.007865055298453773 0.04569740620700601
1700000000.0 -0.02519322282468645 0.0033420927388869
1720000000.0 0.011819562637666483 -0.019457556764040436
1740000000.0 -0.032312231429424895 -0.02618320092433527
1760000000.0 0.03727548835273732 0.05392847475279607
1780000000.0 0.0015737451963199357 0.09429090744825337
1800000000.0 0.08703369151196769 -0.09086038583903838
1820000000.0 0.13201565761367257 0.07623493720688977
1840000000.0 -0.16509558831234492 0.07765645718864737
1860000000.0 0.2074249909378082 -0.015559326476718482
1880000000.0 0.04429405110010547 -0.23065021617821638
1900000000.0 -0.23261999053637272 -0.12809785848727054
1920000000.0 -0.2882433194601329 0.06498355207047843
1940000000.0 -0.3038524187717423 0.11334733438488437
1960000000.0 -0.28573844023776834 0.2104396957458057
1980000000.0 0.09770804681888276 0.36988672785189075
2000000000.0 0.3153534991272161 0.2621549763913378
2020000000.0 0.2959421734917658 -0.31590762035639963
2040000000.0 -0.36093464051176827 -0.270700041823105
2060000000.0 0.1881684115216676 0.4164444356201541
2080000000.0 0.2184222028745748 -0.3998817996347111
2100000000.0 -0.44030588379956553 -0.07456720537231369
2120000000.0 -0.029144467749508438 0.4279563460482213
2140000000.0 -0.2908758625040018 0.28631400162425785
2160000000.0 0.010003764549158072 0.38645025107235986
2180000000.0 0.01903247433523887 0.3611636781557616
2200000000.0 -0.1312501495386705 0.320487867146201
2220000000.0 -0.3329762242340919 -0.009945491492625911
2240000000.0 -0.25218990829169674 -0.22469074968019404
2260000000.0 -0.29987960931045465 -0.1720116709917107
2280000000.0 -0.34286429400647994 0.10850247315033566
2300000000.0 0.3354337335654786 0.1771491235930449
2320000000.0 -0.13345976987215488 -0.3844047204308545
2340000000.0 0.07296437963297599 0.43191430323238506
2360000000.0 0.04260357550867468 -0.47447659133947606
2380000000.0 -0.007444295009017036 0.5174044987638525
2400000000.0 -0.041997045941815234 -0.5630527455906715
2420000000.0 0.3219903892426745 0.5199853541585039
2440000000.0 -0.5791837911397297 -0.3074524744902778
2460000000.0 0.6859627510175009 -0.0931320418197235
2480000000.0 -0.6283824453158541 0.3503193438418018
2500000000.0 0.6660921585140418 -0.3178401446516667
2520000000.0 -0.7389977672976554 0.10604632791492793
2540000000.0 0.7157526971656077 0.21365451286519896
2560000000.0 -0.3242262100780471 -0.6650143439810717
2580000000.0 -0.36445690360523314 0.6258689374191151
2600000000.0 0.6990470557480765 -0.028083920883989227
2620000000.0 -0.34051957695439644 -0.5739073061504801
2640000000.0 -0.5131121341256718 -0.364434884412571
2660000000.0 -0.24778673568221593 0.5293357784636926
2680000000.0 0.5078246517417757 0.180945272144228
2700000000.0 0.10440846124664022 -0.4859011167472433
2720000000.0 -0.42401988942421776 0.16517531574753472
2740000000.0 0.3265048374492123 0.258990020572122
2760000000.0 -0.24861974698965242 -0.29189382769996874
2780000000.0 0.3498438808287676 0.06320556769065913
2800000000.0 -0.16115638755942405 0.2898688122584839
2820000000.0 -0.306112214060479 -0.0595299276893901
2840000000.0 0.05647660326193056 -0.2895186327611526
2860000000.0 0.2070613160583915 0.19646067174091797
2880000000.0 -0.279643058276154 0.008304376454437112
2900000000.0 0.27506027895608454 0.030711246404179077
2920000000.0 0.11917151555826161 -0.25114523791801274
2940000000.0 -0.19006674768359014 -0.21135189289978723
2960000000.0 -0.19075995664498546 -0.21610719540607964
2980000000.0 -0.030102432071773228 -0.29626233050586387
3000000000.0 0.2154794321722969 -0.21754060774963516
3020000000.0 0.3095295833569945 -0.04616640663010401
3040000000.0 0.1997623250697733 0.2437435335889138
3060000000.0 -0.2664923048906981 0.16837354688203235
3080000000.0 -0.13015090197850201 -0.28106778813071553
3100000000.0 0.3013480203854436 -0.02318460192179307
3120000000.0 -0.0333592252705171 0.28767632753627637
3140000000.0 -0.12249920536577949 -0.24535674810269373
3160000000.0 -0.20414100334707644 0.15214990702642556
3180000000.0 0.1573815318865183 -0.17384290649085507
3200000000.0 -0.1547494984374566 0.14156931899456732
3220000000.0 0.17141692374011777 -0.06473796381597859
3240000000.0 0.001262653710349567 -0.15903989703037621
3260000000.0 -0.09009122882666451 -0.10233949337475332
3280000000.0 0.047185894971036646 0.10694106426741677
3300000000.0 -0.08451402055561243 0.04320405282083471
3320000000.0 0.07131247544999532 -0.0006079702591517919
3340000000.0 -0.01890188460733052 0.04168121467537012
3360000000.0 0.003361616625189234 0.02652493979990629
3380000000.0 0.022065109821132547 -0.014051389999305965
3400000000.0 -0.012421960580965419 0.0372100725489535
3420000000.0 -0.032181252355000585 0.04216098692796856
3440000000.0 0.042524059753467694 0.039849873649157576
3460000000.0 -0.05037405971851406 0.02138468290254561
3480000000.0 -0.046107310503311426 0.022033026660991533
3500000000.0 -0.03730028150285853 0.042404142236409564
3520000000.0 0.05494685645180204 -0.05126326802178999
3540000000.0 -0.09970874384372733 0.004336448053759145
3560000000.0 -0.018479855347436756 -0.12170608874874934
3580000000.0 -0.039099854085397005 -0.1400204926235574
3600000000.0 -0.1512586597802785 0.0731270675639914
3620000000.0 0.17718479520780758 0.025353596803522185
3640000000.0 0.1451507764914512 -0.11843530566177872
3660000000.0 0.03517351647549655 -0.1859320744144885
3680000000.0 0.12395778276367651 -0.1384740440682663
3700000000.0 0.0904245831873799 0.15518238848523275
3720000000.0 -0.043316540124209296 -0.16832225193402006
3740000000.0 -0.03272752343611343 0.16673855106450505
3760000000.0 0.0818394927875585 0.14906238818813025
3780000000.0 0.0965724035452324 -0.13959366113615113
3800000000.0 -0.1687666888871938 0.03150813341068404
3820000000.0 0.09907778562360783 -0.13960616462867856
3840000000.0 -0.06500973705698417 0.15072513578235544
3860000000.0 0.1477129458726279 0.0496552624944192
3880000000.0 0.14297688837504555 0.04188340448989418
3900000000.0 -0.01635612314068877 0.14105778546796552
3920000000.0 -0.09023859842597845 -0.11262873703419156
3940000000.0 -0.06786641227212242 -0.1389411788449949
3960000000.0 0.12674476539823726 0.1125377524037027
3980000000.0 0.10265545987604113 -0.14920822225056873
4000000000.0 -0.1803426776499027 -0.012442103122438009
