! Created with skrf (http://scikit-rf.org).
# Hz S RI R 50.0 
!freq ReS11 ImS11
400000000.0 -0.710049336024931 0.4957516699612757
420000000.0 0.26556870962112916 0.8242781909856457
440000000.0 0.7842250225573933 -0.2946380940083729
460000000.0 0.23773921525508832 -0.7510938658978132
480000000.0 0.5888038480075306 -0.41906247890706916
500000000.0 -0.4248124417422808 -0.3691876518055507
520000000.0 -0.41935333241947415 -0.2509871973994841
540000000.0 0.025406895382223023 -0.410831616905472
560000000.0 -0.36304556931458054 -0.049578526674891966
580000000.0 0.10826419966901135 -0.2999999655109607
600000000.0 -0.0065884932938824565 -0.32855921421341683
620000000.0 0.28350325955974587 -0.17578358867839244
640000000.0 -0.329481374462259 0.11315576273454833
660000000.0 -0.2692529618522603 0.2722143451872487
680000000.0 0.17116492581021775 -0.36483336426492224
700000000.0 -0.42040017559120685 0.1238791616591957
720000000.0 0.04556940978575415 0.4370467344533807
740000000.0 -0.4303790429788914 0.13708339270050146
760000000.0 0.08273336785723082 -0.4240448401508677
780000000.0 0.2632506880023959 0.3021593917729244
800000000.0 -0.13881053421903816 0.3366234484353302
820000000.0 -0.2283146284371584 0.1991181388686293
840000000.0 0.19261848464415804 -0.16621736285861927
860000000.0 -0.035529659437326035 -0.20093905591126776
880000000.0 -0.1112170400842657 -0.10452394957569065
900000000.0 0.025146351938369962 -0.0725870101113552
920000000.0 0.003328533972845985 0.04408023682898777
940000000.0 0.008412477413342218 0.05009728232665864
960000000.0 -0.058347105084896364 -0.013358478956508029
980000000.0 -0.06216970183204346 0.010294993923504858
1000000000.0 0.016451787398875258 -0.06575229466924776
1020000000.0 0.049375491918215206 0.05151159224253325
1040000000.0 -0.04231343588978974 -0.06597489417907104
1060000000.0 0.09337929801239261 0.06511947492633437
1080000000.0 0.11184908081504866 -0.0791647458328584
1100000000.0 -0.03705212467995051 -0.15863536463728728
1120000000.0 -0.18627647885667592 -0.06452261498168592
1140000000.0 0.23523263769218142 -0.05140633787833286
1160000000.0 -0.03893859526447664 -0.2816437099969595
1180000000.0 -0.2793877025464629 0.16931944901097426
1200000000.0 -0.35298130112259163 -0.049010534982352395
1220000000.0 -0.05842208255131297 -0.3860379451293033
1240000000.0 0.2126769067060578 0.3516963086738208
1260000000.0 -0.32469101749064877 -0.29262675327373183
1280000000.0 0.31632762363669775 0.312951222733851
1300000000.0 -0.027073532901513892 -0.4505467490432429
1320000000.0 -0.39195379829116883 0.19974311176034984
1340000000.0 -0.422009263628384 -0.08666720146582635
1360000000.0 -0.24962805065867144 -0.3424589627299445
1380000000.0 -0.27213353313000904 -0.32214616320831324
1400000000.0 -0.34088215770393243 0.21724291416948252
1420000000.0 -0.30080307105615506 0.2430645211398781
1440000000.0 0.013201387685171598 0.3654466243000088
1460000000.0 0.030265589544043278 0.33790060676421557
1480000000.0 0.19427471531288834 0.2531842431267483
1500000000.0 0.2906780024464954 -0.060772080384983516
1520000000.0 -0.2721017886826431 0.02171983167514494
1540000000.0 0.2142579088211272 0.13185718582492256
1560000000.0 0.20684184530700123 0.07737876831986698
1580000000.0 0.12596273568264796 -0.1425178998746305
1600000000.0 0.10716621685897142 0.11526925602843544
1620000000.0 -0.11008874274402977 0.047400176819635306
1640000000.0 0.051811398090454285 0.07292500657632806
1660000000.0 0.022782134160822424 -0.060374311574027846
1680000000.0 0.03623036151896888 -0.006379168470890973
1700000000.0 -0.004008999136684438 -0.015839578098570572
1720000000.0 -0.020797692963266796 -0.010154093152552095
1740000000.0 0.028326852442493115 -0.03096290348031755
1760000000.0 0.048391005541617994 -0.042915714849247014
1780000000.0 -0.04947587440011004 -0.073111347042093
1800000000.0 0.03920752859509285 -0.11498387356280862
1820000000.0 0.14910705479817846 0.0143836711283093
1840000000.0 -0.1583586524723496 0.07681570859250755
1860000000.0 0.16446518755528527 -0.11616198342826554
1880000000.0 0.12441875339448082 -0.18694080210672503
1900000000.0 0.14875406238320024 -0.20734619257237752
1920000000.0 0.029303785637815976 -0.28497980515357396
1940000000.0 0.11728370078126094 -0.2984904729973321
1960000000.0 -0.22088710918687507 -0.2811686280648317
1980000000.0 -0.3044564843817588 0.24269507448310462
2000000000.0 0.22723185726640982 0.3520846045243569
2020000000.0 0.2685638753784543 -0.3509857825930697
2040000000.0 -0.43869279766741376 0.13363890443253326
2060000000.0 0.4373794157044349 0.147128471034819
2080000000.0 -0.1433491182137438 -0.4352021298119157
2100000000.0 -0.3396097596004459 0.2881034252183142
2120000000.0 0.20408115900554993 0.3726726211310602
2140000000.0 -0.259000033046834 0.30503225172475446
2160000000.0 -0.25544053529420546 0.28148170066418843
2180000000.0 -0.3519951944704185 -0.06857387655091161
2200000000.0 -0.19004503680057475 -0.28859445548542456
2220000000.0 0.2282801103091882 -0.2498538066669334
2240000000.0 0.22065791984445315 -0.2622545347172023
2260000000.0 0.03107741101358631 -0.3511178752594577
2280000000.0 -0.34686416011885723 -0.11166194339531105
2300000000.0 0.14119712642605559 0.3554919011148009
2320000000.0 0.028605646356054688 -0.40667359071590764
2340000000.0 -0.2604772677915447 0.34793443026208026
2360000000.0 0.34432830164028017 -0.3195810915655979
2380000000.0 -0.4863753107261783 0.15991541490316025
2400000000.0 0.5412991966483796 -0.14215145166593324
2420000000.0 -0.5056603342928045 0.34000420646090396
2440000000.0 0.23215379382779064 -0.6136360634389095
2460000000.0 0.1802621116801391 0.6712528908243627
2480000000.0 -0.4890626891262392 -0.5360275358706484
2500000000.0 0.5557394084808336 0.49718739420114805
2520000000.0 -0.4830175114703281 -0.5824552118329391
2540000000.0 0.1445561023247764 0.7444036903129114
2560000000.0 0.33983135068290893 -0.6713676429102405
2580000000.0 -0.7360641998687144 0.05502527462505388
2600000000.0 0.5135246413918234 0.4956882954715889
2620000000.0 0.121766523347577 -0.6719852897323917
2640000000.0 -0.155817836142268 -0.6262917436027541
2660000000.0 -0.48207479428740635 0.3571432307741845
2680000000.0 0.40370197379461004 0.38201289705221914
2700000000.0 0.19044050790438277 -0.477331216008921
2720000000.0 -0.37988372427215944 0.27974195133394
2740000000.0 0.4306042363538259 -0.04003394919980442
2760000000.0 -0.3851814703305955 0.09880918843744492
2780000000.0 0.058376695855095195 -0.35978671266902224
2800000000.0 0.26787559822920876 0.2022901504062406
2820000000.0 -0.20369118459342123 0.23688812462371656
2840000000.0 -0.08149302686915658 -0.2820091243401091
2860000000.0 0.13810096302261515 0.24663794100199563
2880000000.0 -0.16342843666251283 -0.2242783892483227
2900000000.0 -0.08369601278059238 0.26125158254792863
2920000000.0 0.14177547041622382 0.2423445958307574
2940000000.0 0.27859110625731354 -0.081619975285456
2960000000.0 0.23101132584691425 -0.18995997036560416
2980000000.0 0.07528232936507302 -0.30215570206657266
3000000000.0 0.0005911271725606591 -0.31852550527848617
3020000000.0 0.012190607603989692 -0.32213819759711737
3040000000.0 0.24179818727775793 -0.208938823691581
3060000000.0 0.2249612652394162 0.22239579630794343
3080000000.0 -0.29283364462168393 0.09287605302344461
3100000000.0 0.137591557002387 -0.2630794915786842
3120000000.0 -0.03599162168965941 0.28101067023303444
3140000000.0 -0.037041441755598925 -0.2668140726914454
3160000000.0 -0.21095846772229437 -0.13550772637780642
3180000000.0 0.08884829355823087 0.21552548125615578
3200000000.0 0.04806008486305102 -0.2085759774777479
3220000000.0 -0.11872434594606629 0.15296352749218303
3240000000.0 0.10184036053595166 -0.13990280317380624
3260000000.0 -0.033645625293003134 0.146792411685657
3280000000.0 -0.02922319102534271 0.12142093628398731
3300000000.0 0.0883875366596102 0.040340802965305456
3320000000.0 0.04532039668772154 0.05162614639843055
3340000000.0 -0.03348448557078679 0.019231592103083735
3360000000.0 0.021857614012826473 -0.00926188261176644
3380000000.0 0.010473286973171101 -0.028798635321487905
3400000000.0 0.04152560925447914 0.01379607544682604
3420000000.0 -0.021114846528526625 0.04852154286711754
3440000000.0 0.015668877095069828 -0.048186321424765324
3460000000.0 0.019901213974397234 0.038819888212523315
3480000000.0 0.017441802957899696 0.039200450096425185
3500000000.0 0.0009442471585361925 -0.05946433914041763
3520000000.0 0.07133553758847398 -0.052378203331342736
3540000000.0 -0.012678764987618777 -0.11491591625720309
3560000000.0 -0.1310441103713921 0.040790952427090736
3580000000.0 0.026512915939922634 0.15155503641592458
3600000000.0 0.09165471300033697 -0.14437067076695317
3620000000.0 -0.13056108173414233 -0.11728846169834135
3640000000.0 -0.14374641085420292 -0.1060746650784279
3660000000.0 0.08321611467222745 -0.15740374253821193
3680000000.0 0.05498203152913185 0.16774779511390123
3700000000.0 -0.04921160683786469 -0.16676303161776465
3720000000.0 -0.1462603668321216 0.09759717300495584
3740000000.0 0.07437550270447828 -0.1611829167109831
3760000000.0 -0.14496343771438683 0.10913863176215702
3780000000.0 -0.06780379257176827 -0.1684760511012668
3800000000.0 0.1747175917376187 -0.02607871438352993
3820000000.0 -0.033342327127866535 0.16479074035423044
3840000000.0 0.1532950332688884 0.00854000706992499
3860000000.0 0.09531295906626759 0.10549141167560501
3880000000.0 -0.0639153079331906 -0.12270545454802087
3900000000.0 0.05904250468299421 0.12662588989301196
3920000000.0 -0.14657672520624948 -0.031326063243643364
3940000000.0 0.1374607602341274 0.09587382969217358
3960000000.0 0.15755141094226127 0.09334562205835018
3980000000.0 -0.1700052808938318 0.08631440317657513
4000000000.0 0.16040734597354442 -0.09333947065513783
