! Created with skrf (http://scikit-rf.org).
# Hz S RI R 50.0 
!freq ReS11 ImS11
400000000.0 -0.6462419232603173 0.570032941750163
420000000.0 0.10527740778774819 0.8602378590404851
440000000.0 0.837318361341225 -0.06074432253929803
460000000.0 0.04347322303448093 -0.8013652319854838
480000000.0 0.22647397478065973 -0.6958780730613743
500000000.0 -0.18285636425615062 0.5433141700845184
520000000.0 -0.3392656669549643 0.3331692521434847
540000000.0 0.20492460273238547 -0.3617316031632767
560000000.0 -0.3430659993279515 0.06421925501963961
580000000.0 0.24671183671443694 -0.21525707747465278
600000000.0 -0.31240836234451685 -0.05107448393007523
620000000.0 0.17781500174514295 0.2793699610498852
640000000.0 -0.16824099927040614 0.31269636880737495
660000000.0 -0.28153118562467705 0.24660176806193185
680000000.0 0.07140153015261395 -0.3968123429051362
700000000.0 -0.42359408095238044 -0.04562640712233586
720000000.0 -0.2513908697571931 0.3592514495802131
740000000.0 -0.4437133841472403 0.011480019028297579
760000000.0 0.4189037527292476 0.09694826810279755
780000000.0 0.12633403023743608 0.38269263440820206
800000000.0 -0.35916518589847957 0.09965362103623623
820000000.0 0.06732273431555759 0.3103635583783656
840000000.0 -0.22067500938507562 0.1307263259306954
860000000.0 -0.1672589686951653 -0.1110265426572228
880000000.0 -0.09443177629243864 -0.12724420853061558
900000000.0 0.007924658621383219 0.08027563034675077
920000000.0 -0.03005459117788968 -0.03671206143823283
940000000.0 -0.0051280566685418414 -0.04574844339760008
960000000.0 -0.04761687626094667 -0.028667031174038456
980000000.0 -0.007067211139722846 0.06705655625611569
1000000000.0 0.049587125632379686 -0.04761137678537844
1020000000.0 -0.0374646924254514 0.073889790886017
1040000000.0 -0.01780824292483417 0.08497272874153596
1060000000.0 -0.10465495410818981 0.06757282239213694
1080000000.0 0.13971604334950743 -0.010101414496402793
1100000000.0 0.1461032896233969 -0.0803504925301338
1120000000.0 -0.02528385942158531 -0.1873969987410449
1140000000.0 -0.1337368991682625 -0.18465850400411882
1160000000.0 -0.1959154662279833 -0.188893948933758
1180000000.0 -0.2803584633722965 -0.14045494003723635
1200000000.0 -0.2027182430239436 -0.2867572857898573
1220000000.0 0.3525897081033781 -0.15577969091874033
1240000000.0 -0.05189069639450859 0.41205039105057445
1260000000.0 -0.11322645602375318 -0.42569671607446297
1280000000.0 0.23707322250773522 0.3865006399287825
1300000000.0 -0.058614800741775164 -0.45352962169973293
1320000000.0 -0.3746319590329162 0.24486103996332215
1340000000.0 -0.39909233727485166 0.17379306549155815
1360000000.0 -0.3370440386479759 -0.2583861316772051
1380000000.0 -0.36095664715111175 -0.22210765989321568
1400000000.0 -0.21708203584896396 0.3451732861185812
1420000000.0 -0.09379690664844406 0.3751528791413224
1440000000.0 0.09579008704984575 0.34880484458699257
1460000000.0 0.1760438891070867 0.28513097964519796
1480000000.0 0.21240282844064756 0.22631986879991162
1500000000.0 0.28359351848327796 0.050428297367997144
1520000000.0 -0.2304238084145074 -0.133228973714806
1540000000.0 0.07986870334384799 0.23096333225186527
1560000000.0 -0.005533184566868899 0.21599463238876235
1580000000.0 0.09139932049601611 0.16647804719765083
1600000000.0 -0.14343000560711283 0.06617738770073009
1620000000.0 0.0385738191893201 -0.1160495513155733
1640000000.0 -0.09463867787100623 0.0185910414972874
1660000000.0 -0.07166081908403188 -0.00863944942377504
1680000000.0 -0.012420035831892842 0.04500588985956475
1700000000.0 -0.02492077012619482 -0.005136935868086944
1720000000.0 0.01581088396312258 -0.016524262559410786
1740000000.0 -0.04045741474972129 -0.009096752391212005
1760000000.0 0.023882594939621724 0.061004842407651076
1780000000.0 -0.008536993855327154 0.09375651442460155
1800000000.0 0.10328456983126398 -0.07158190326027665
1820000000.0 0.12937689345522338 0.0803934651324233
1840000000.0 -0.1660601928114078 0.07575842885910661
1860000000.0 0.20797671189810446 -0.009968525446897362
1880000000.0 0.03956539967864153 -0.231828268379768
1900000000.0 -0.2367124042628056 -0.1205593612812674
1920000000.0 -0.2848670744334706 0.07851940300173124
1940000000.0 -0.29592415463487615 0.1324098416429013
1960000000.0 -0.27118985044751576 0.2282895249181527
1980000000.0 0.10792977732727754 0.36691563803368443
2000000000.0 0.31986403394404633 0.2561708461909048
2020000000.0 0.3144055473091435 -0.2973404763565415
2040000000.0 -0.39337537896525515 -0.22041611261527924
2060000000.0 0.17744476817625837 0.42160865766114886
2080000000.0 0.20663760493423836 -0.40646245354148147
2100000000.0 -0.43747334123174797 -0.09238126658323088
2120000000.0 -0.012977864165383346 0.4292093459959838
2140000000.0 -0.31083831181516336 0.26520487633905143
2160000000.0 0.0452017346108545 0.3843593851788635
2180000000.0 0.015742154056733147 0.36168719431889973
2200000000.0 -0.14801586595978933 0.31366146554550445
2220000000.0 -0.3275074108475358 -0.06362175567176219
2240000000.0 -0.24430532008879383 -0.23322906137596933
2260000000.0 -0.29940974432844625 -0.17266843283128633
2280000000.0 -0.3471208969565063 0.093274068193398
2300000000.0 0.33082352512932756 0.18533027821220185
2320000000.0 -0.13307347692423044 -0.3845067428726632
2340000000.0 0.07625404370886432 0.431226682191087
2360000000.0 0.03214447024143792 -0.47523615424280796
2380000000.0 0.0035505531697418856 0.5173669861047913
2400000000.0 -0.06526210709337209 -0.5608989128118641
2420000000.0 0.3455880806693959 0.5048133215477293
2440000000.0 -0.6065740441317256 -0.24924966884634692
2460000000.0 0.67756570964402 -0.14191532221182207
2480000000.0 -0.5939114002389493 0.40590749558351874
2500000000.0 0.6706053109168574 -0.3083096977556981
2520000000.0 -0.7251542426085922 0.17766897906491674
2540000000.0 0.7199589135491978 0.19916007483783457
2560000000.0 -0.32514388648285497 -0.6644052771320194
2580000000.0 -0.3549035346567512 0.6309609389552029
2600000000.0 0.6984471222781324 -0.034027188717594525
2620000000.0 -0.4183276213647754 -0.5196463910284713
2640000000.0 -0.5106605715528755 -0.3670979232990525
2660000000.0 -0.22856019936395774 0.5372674579839574
2680000000.0 0.5058178587953732 0.18489212762687607
2700000000.0 0.09983316630965229 -0.48622386962754804
2720000000.0 -0.42278469563267196 0.16649860336583358
2740000000.0 0.3164900768560383 0.27023964371634207
2760000000.0 -0.24068445875099642 -0.29804466852746103
2780000000.0 0.3498978063598657 0.061375181703427796
2800000000.0 -0.15669166718910674 0.2920977064641422
2820000000.0 -0.30633193124570657 -0.05849783719886522
2840000000.0 0.05861469569822544 -0.28947630436445176
2860000000.0 0.21797461858385103 0.18469494346963886
2880000000.0 -0.2791078663766668 0.021639182739994763
2900000000.0 0.27634418617056783 0.015958540806137126
2920000000.0 0.13631936247479468 -0.24265522439997947
2940000000.0 -0.1997570574563789 -0.20203833702648227
2960000000.0 -0.18481681772641276 -0.2208875137615865
2980000000.0 0.02032676887456832 -0.29699603473385294
3000000000.0 0.22735831930906242 -0.20619548103194807
3020000000.0 0.3133157305323965 -0.0006675199167041151
3040000000.0 0.13877136155284495 0.28316409262991027
3060000000.0 -0.285371426457249 0.13339395291939904
3080000000.0 -0.13337256771242284 -0.2796926761650839
3100000000.0 0.3013805853583525 0.019175007464294753
3120000000.0 -0.04212906810636143 0.2867948375949619
3140000000.0 -0.10315435898405692 -0.2542738054701349
3160000000.0 -0.2077591411530709 0.14788165178830331
3180000000.0 0.15957056889230573 -0.171982765018973
3200000000.0 -0.15733869741013212 0.13837581435831012
3220000000.0 0.17444029991113844 -0.055567613404505944
3240000000.0 0.0035658492710844603 -0.1585777523439891
3260000000.0 -0.07503757424428713 -0.11313201286129472
3280000000.0 0.03610010404308455 0.11063098585987993
3300000000.0 -0.08564942818773133 0.039733687398044934
3320000000.0 0.07018740573542194 0.008809567335100167
3340000000.0 -0.024764191946856 0.03809721121375055
3360000000.0 0.01179781405072609 0.02372848048626972
3380000000.0 0.015122936358465972 -0.021628183537446177
3400000000.0 -0.021602983059221627 0.033162696268571996
3420000000.0 -0.044962581966128186 0.028693647730989563
3440000000.0 -0.0012275560475518983 0.05864640334702079
3460000000.0 -0.05461381186396538 0.005860572299783882
3480000000.0 -0.048851770687694765 0.016662483253605625
3500000000.0 -0.03928981062398581 0.041251719084179725
3520000000.0 0.011043901937658406 -0.07500517579680811
3540000000.0 -0.10042812716813115 0.0009617852040607468
3560000000.0 -0.02404671205686404 -0.12148540252231778
3580000000.0 -0.0315822885242226 -0.1426710184888053
3600000000.0 -0.1546079957475045 0.0674327557116387
3620000000.0 0.17589122929712095 0.03752813392563234
3640000000.0 0.16194935679805514 -0.09541744776416516
3660000000.0 0.06812321577335692 -0.17682067053811498
3680000000.0 0.1499857535443761 -0.10966047572003287
3700000000.0 0.05410691464068791 0.17105940976724143
3720000000.0 -0.02753149742084963 -0.17167637449248463
3740000000.0 -0.046457846531348476 0.16257641357442995
3760000000.0 0.05947568091728099 0.15838881227754886
3780000000.0 0.10680974156799633 -0.13072967308794592
3800000000.0 -0.17100699905632555 1.1795471963685516e-05
3820000000.0 0.12149242874273788 -0.11980691319526841
3840000000.0 -0.09573526269567074 0.13271368495231375
3860000000.0 0.13633552706741323 0.0747249726146547
3880000000.0 0.13473849528490828 0.06244290158033763
3900000000.0 -0.010798016876241493 0.1410415189807898
3920000000.0 -0.09037131925533048 -0.1121218304148602
3940000000.0 -0.08201478653466657 -0.1296670064377053
3960000000.0 0.1388300037951893 0.09506692311236858
3980000000.0 0.08364928152883438 -0.1589904581662755
4000000000.0 -0.1782403150482386 0.024273427006353872
