! Created with skrf (http://scikit-rf.org).
# Hz S RI R 50.0 
!freq ReS11 ImS11
400000000.0 0.22641451654244577 0.8432180559259791
420000000.0 0.6084011565178588 0.6088383527092346
440000000.0 0.789299396734191 -0.2521501699574418
460000000.0 0.09326576506740727 -0.7858432895346499
480000000.0 0.45110734341169356 -0.5470926970235789
500000000.0 0.24342980263426156 -0.5072692310892112
520000000.0 -0.01959897721895812 -0.48707845460257193
540000000.0 0.40303520925070735 -0.13111671503488692
560000000.0 -0.30632624837012595 -0.16959245828416739
580000000.0 -0.29595113130159717 0.14552121768032128
600000000.0 0.27755339115216693 0.17231150539593043
620000000.0 0.011946357182233022 -0.34725038273697284
640000000.0 -0.2592375621692592 -0.27857318879342285
660000000.0 -0.40081127779836884 -0.020834957036242635
680000000.0 -0.0034931466205394474 -0.43091203201583184
700000000.0 0.3121061620673848 0.3241435122880518
720000000.0 0.027787961336540518 -0.44779278910193104
740000000.0 0.40240125490618367 -0.17611000136292523
760000000.0 -0.36998568656884206 -0.1885657792517695
780000000.0 0.3224068772995579 -0.20638300620852468
800000000.0 -0.22452150216438288 0.2675585946735111
820000000.0 -0.19593822226378935 0.21614083995949818
840000000.0 0.11092135280488888 0.21027483798051513
860000000.0 -0.13992623302676976 0.1492585125548482
880000000.0 -0.13973157392550725 0.04005748405444298
900000000.0 0.04809507593703691 -0.06318789958111427
920000000.0 0.013110888639594434 -0.04657096561830396
940000000.0 -0.009802222964752503 -0.04109862376169968
960000000.0 -0.055188978866951066 0.004405268317725844
980000000.0 0.06266964531322895 -0.006372213627543631
1000000000.0 -0.06280853683476408 -0.02928717698245609
1020000000.0 0.07012145863346254 0.03554250439813711
1040000000.0 -0.045506006213454055 0.06700526888563545
1060000000.0 -0.11251587991173284 0.03236744796900662
1080000000.0 -0.08269870477337798 0.10251585323384461
1100000000.0 -0.12627867990997138 -0.09417778955996554
1120000000.0 -0.14660648513693175 -0.12043468740449467
1140000000.0 0.10459026165846971 0.21366203682617063
1160000000.0 0.2829677936004175 -0.024110299396728818
1180000000.0 -0.06768433501076443 -0.32349887716660414
1200000000.0 -0.2755496604355472 -0.24261081605117873
1220000000.0 0.1432337204408204 -0.3700108944981766
1240000000.0 0.32540801230732674 0.26321526027412917
1260000000.0 -0.4181381159551409 -0.14013941324690377
1280000000.0 0.4424645304427662 0.08903901602325155
1300000000.0 -0.3739805390322551 -0.25356554449142454
1320000000.0 -0.08485872296528953 0.4312186871808677
1340000000.0 -0.24664646772862822 0.34369052036052533
1360000000.0 -0.3203495657872475 -0.25622361681902234
1380000000.0 -0.045373843669057855 -0.4062459696597849
1400000000.0 -0.1446365895965063 -0.3678691549676253
1420000000.0 -0.04881834477212671 -0.37888232850677467
1440000000.0 -0.23391569386930058 -0.2836995638817785
1460000000.0 -0.3431766765920553 -0.05046079243521253
1480000000.0 -0.14738301689013406 0.2938324320725793
1500000000.0 0.24253317794797735 -0.18676712874757212
1520000000.0 -0.24924513477071855 -0.13324928638631606
1540000000.0 -0.1713922337437114 -0.18883244376374914
1560000000.0 -0.21897154238810498 0.02009127610996701
1580000000.0 0.023251580614868927 0.1862181291613209
1600000000.0 -0.154677413435953 -0.00047798120802816706
1620000000.0 -0.1118692898275746 0.011606456560339156
1640000000.0 0.08041110345516496 -0.024942122722080025
1660000000.0 0.03400503116414815 -0.04886154193746516
1680000000.0 -0.010970778417860353 -0.027871610082932666
1700000000.0 -0.018633919655058166 0.003685775374107617
1720000000.0 0.021228272773854195 0.026676581712057508
1740000000.0 0.04545592895836824 -0.03263670190482881
1760000000.0 -0.0729814265270201 -0.002164576645778273
1780000000.0 0.09095893792173478 -0.019780889128114588
1800000000.0 0.08758800637886631 0.08067411600738633
1820000000.0 0.02693923584370825 -0.129849674866234
1840000000.0 0.1235604600028764 -0.09660476033608285
1860000000.0 0.17595458690796745 -0.023419891184123322
1880000000.0 -0.14570131185606505 0.149599125812481
1900000000.0 -0.22172358949037635 -0.10719787971313582
1920000000.0 -0.2560948079017348 0.13727760189657406
1940000000.0 0.021518993709623745 0.3354028564043314
1960000000.0 0.2686568084918554 -0.2640776233963164
1980000000.0 -0.2972788234783056 0.28011992761178744
2000000000.0 0.43170648037630543 0.053663945384669856
2020000000.0 -0.4336228741078349 -0.13175614332261687
2040000000.0 0.23824525479947467 0.39160056538728183
2060000000.0 0.030960827955515073 -0.4553488434090476
2080000000.0 -0.42245689856982915 0.13422004767710782
2100000000.0 -0.1412709690225535 0.40198989124667744
2120000000.0 -0.0037163707567071163 0.40416928696393545
2140000000.0 -0.2893083742169063 -0.2520351861910991
2160000000.0 -0.03543490477361063 -0.36307951760471124
2180000000.0 0.33028536835340117 -0.12481657231982832
2200000000.0 0.29975108350299057 0.17082006953443435
2220000000.0 0.2666300716699525 0.2235552389398851
2240000000.0 0.22572151467436705 -0.26861813301194837
2260000000.0 -0.22915431639697662 -0.2716298061037704
2280000000.0 -0.16159021599780007 0.32405754532029113
2300000000.0 0.3743640798712147 -0.0003519580796724934
2320000000.0 -0.27453767731258155 -0.2822762562123282
2340000000.0 -0.2449793396448408 0.33937443091822533
2360000000.0 0.4505009616332317 0.05572624890430529
2380000000.0 -0.33972015051144583 -0.36563311667295495
2400000000.0 0.2092240687731608 0.5078675201909677
2420000000.0 -0.3106939917482272 -0.515918375079901
2440000000.0 0.5861823301623881 0.28872759738492765
2460000000.0 -0.6844252381774312 0.1248457644239639
2480000000.0 0.5506054396523887 -0.47776036092092267
2500000000.0 -0.5397307823260163 0.5230453317640452
2520000000.0 0.5919247779024113 -0.48272670209425245
2540000000.0 -0.733111307305484 0.2235029489227017
2560000000.0 0.7073198535334725 0.2818075965956605
2580000000.0 -0.20172306152138314 -0.7190956017923581
2600000000.0 -0.4247206188058291 0.5857680667112112
2620000000.0 0.6914020692491182 0.035663495228034324
2640000000.0 0.6031504002604166 -0.2564590340329991
2660000000.0 -0.4854356038611726 -0.3730026968073599
2680000000.0 -0.06549497117269987 0.5651557766572199
2700000000.0 0.34150789769984574 -0.3996832792355552
2720000000.0 -0.39868450380054304 0.2698567651484769
2740000000.0 0.3398291438245044 -0.27606535001287263
2760000000.0 -0.1419201562283305 0.37040482204714936
2780000000.0 -0.21847552890988883 -0.28780773693009026
2800000000.0 0.32883494878010927 -0.011055747501327418
2820000000.0 -0.20511566463291975 0.22477179035396955
2840000000.0 0.18231481025692028 -0.22301679391995582
2860000000.0 -0.22006981381073448 0.1766913701714006
2880000000.0 0.26999947221417797 -0.07907839180822669
2900000000.0 -0.2652439991397583 -0.10836366400937927
2920000000.0 -0.07253417432553025 0.2896272825012697
2940000000.0 0.28119270296371474 -0.12988775495660257
2960000000.0 -0.1568925990894221 -0.2762331436823826
2980000000.0 -0.3215867438744164 -0.049216136473354946
3000000000.0 -0.3271139592377186 0.034097362047070826
3020000000.0 -0.314679111932489 -0.09489395822832294
3040000000.0 -0.0020150825113418184 -0.3219359845216969
3060000000.0 0.2588188713780593 0.1792093543672228
3080000000.0 -0.2999064640577031 -0.053043666733966204
3100000000.0 0.29009526648739475 0.04878277447608829
3120000000.0 -0.20444672032173464 -0.19519272340560384
3140000000.0 0.0668144013293261 0.2627443176416959
3160000000.0 0.16855419048068743 -0.19421107536399435
3180000000.0 -0.09331095745021545 -0.22697606538785192
3200000000.0 0.1645737633757743 0.1590132950289023
3220000000.0 -0.1559849918691278 0.13847054966942013
3240000000.0 -0.17418813981552536 -0.06320288679600672
3260000000.0 -0.08813344414772972 -0.12920746762858829
3280000000.0 -0.12015310627547869 0.026306434026055644
3300000000.0 -0.006876048400717997 0.08797800202067219
3320000000.0 -0.002049608348060108 0.053007845732837316
3340000000.0 -0.01229587547182259 0.019283733040815522
3360000000.0 -0.012045932845018138 -0.00647994447145609
3380000000.0 0.025914058983093624 0.005471290881043051
3400000000.0 -0.030215084673442832 -0.019159597081339554
3420000000.0 -0.033087350935662715 -0.022295713346281627
3440000000.0 -0.013985031487110578 0.034602463982187054
3460000000.0 -0.037579281651899984 0.007167111326761121
3480000000.0 -0.05262063017907196 -0.014565091115212026
3500000000.0 0.02696865736972779 -0.074293993362699
3520000000.0 0.035681170202769584 -0.10026297970699483
3540000000.0 -0.11382532286072929 0.05557821608269415
3560000000.0 0.009046327212643304 0.13936029818546222
3580000000.0 -0.07345464014881017 0.13104416878092043
3600000000.0 -0.11312170866908193 0.11447450206903464
3620000000.0 -0.13603322692440079 -0.09392321308586647
3640000000.0 0.16950892319296162 -0.0064675707678108485
3660000000.0 -0.15406551815552869 0.08684236379331693
3680000000.0 0.13692482296680714 -0.11997590659953651
3700000000.0 0.07770090916810213 0.17033791079480526
3720000000.0 -0.1536668660689366 0.11781019752253857
3740000000.0 -0.15895002935221417 0.1122475581191689
3760000000.0 -0.15698849974555953 -0.10990319695475671
3780000000.0 0.08705067272494454 -0.16082912813329361
3800000000.0 0.07208728529686921 0.15360144405551737
3820000000.0 0.15378906667174155 -0.013461793792189203
3840000000.0 0.007217307154499828 0.14029158404870806
3860000000.0 0.1350726294586935 0.020758498306991977
3880000000.0 -0.13049303529977313 -0.061217574473776314
3900000000.0 -0.13520851471776166 -0.07602205199922932
3920000000.0 0.07621447716639881 0.14940821748973102
3940000000.0 -0.09155394269693438 0.15298572439768404
3960000000.0 0.12886072357997586 0.13475896445097701
3980000000.0 -0.1729189938598407 -0.0629934047663754
4000000000.0 0.01441989279693454 0.1707692776816964
