! Created with skrf (http://scikit-rf.org).
# Hz S RI R 50.0 
!freq ReS11 ImS11
400000000.0 -0.6758360233755789 0.536570518109032
420000000.0 0.04178763716689342 0.8669686087344944
440000000.0 0.8390731407148341 -0.03247690027323108
460000000.0 0.038667499245897796 -0.8033503534120283
480000000.0 0.192394089303939 -0.7056957762395685
500000000.0 -0.18588062265373126 0.5411635577301789
520000000.0 -0.37479172683536427 0.29053450482171134
540000000.0 0.21943826246361053 -0.35408787059581165
560000000.0 -0.3235980860250976 0.13091191447888548
580000000.0 0.27673881021905566 -0.17261562226402186
600000000.0 -0.28374669908072564 -0.1424579820785422
620000000.0 0.1779354490996849 0.2799646973651022
640000000.0 -0.19991974220734188 0.2924576435823699
660000000.0 -0.2997195141070825 0.22444288316221206
680000000.0 0.14309376394332757 -0.37774402406072877
700000000.0 -0.41266431145564997 -0.10796710611461553
720000000.0 -0.27535091725334393 0.34116813561854975
740000000.0 -0.4437291982493141 0.0005871322975598078
760000000.0 0.42425799391237345 0.07254557787710882
780000000.0 0.14929064676229278 0.37424016877553107
800000000.0 -0.3484605087580165 0.13235684520071708
820000000.0 0.10229647325620847 0.3002101993658735
840000000.0 -0.22676469278119793 0.11851414466736161
860000000.0 -0.10716964113728798 -0.1710777178789601
880000000.0 -0.15005300878180633 -0.051576901654751324
900000000.0 -0.0433401339408873 0.06723815483922867
920000000.0 -0.007001066919831011 -0.046404300588144924
940000000.0 -0.009921933074683361 -0.04512465424980204
960000000.0 -0.052800663704663506 -0.0145311196757436
980000000.0 0.0015920313016265673 0.06645085109197625
1000000000.0 0.0313220219964773 -0.06055855802194354
1020000000.0 -0.01668246450320936 0.08032079992951793
1040000000.0 -0.01530692336391829 0.08487252263586922
1060000000.0 -0.1193565243003755 0.03622052467848206
1080000000.0 0.13994688345296236 0.016919147149519448
1100000000.0 0.1598405072963999 -0.04972963331107788
1120000000.0 -0.006160534442291872 -0.1892044977772501
1140000000.0 -0.12681296106002848 -0.18967653027812614
1160000000.0 -0.17592643740452865 -0.20839759316779896
1180000000.0 -0.27512659415977725 -0.1509313878093929
1200000000.0 -0.2028844546308197 -0.2865931038683501
1220000000.0 0.36380265382503474 -0.12694482179873534
1240000000.0 -0.05242552682489791 0.4112971250968342
1260000000.0 -0.14105382462684324 -0.41709362541144673
1280000000.0 0.23038424790819095 0.3904710022479723
1300000000.0 -0.04416115613927864 -0.4547853125334781
1320000000.0 -0.3801110314128545 0.23567386259167517
1340000000.0 -0.39742482989057953 0.17678522010610148
1360000000.0 -0.3504571923276015 -0.23924508658754634
1380000000.0 -0.36311199427502033 -0.21879721779895334
1400000000.0 -0.2277861972221341 0.3382832799355268
1420000000.0 -0.07681618483045966 0.37868624643295923
1440000000.0 0.08365089342297843 0.35217423042199564
1460000000.0 0.17044177235237237 0.28875100978065166
1480000000.0 0.2168743388494571 0.22229412173823188
1500000000.0 0.2852634600297045 0.040924787164374615
1520000000.0 -0.24195980622994606 -0.11248944623879019
1540000000.0 0.07347289642563386 0.23329111860409907
1560000000.0 0.01233763040238054 0.21615070719982224
1580000000.0 0.09681367078050346 0.16390346419324067
1600000000.0 -0.14235514023347148 0.06940208385218406
1620000000.0 0.030688009442634705 -0.11876481822523836
1640000000.0 -0.09616152365651767 0.003961344484734049
1660000000.0 -0.07001792805158635 -0.01511440543873053
1680000000.0 0.02270026097375326 0.0396044573407646
1700000000.0 -0.00046929228851403873 0.025165131076444913
1720000000.0 -0.01952027473693973 -0.012931007835807919
1740000000.0 -0.027383539685911205 0.03214090146274097
1760000000.0 0.05564492990441197 0.035597386353754736
1780000000.0 0.0025045191330457174 0.09428027047575017
1800000000.0 0.08696289860641625 -0.09094314364689013
1820000000.0 0.12753324475590264 0.08250062953298591
1840000000.0 -0.17041019134639493 0.06373220141023705
1860000000.0 0.20689570970582913 -0.006052012431219528
1880000000.0 0.07073444930941285 -0.22307876070514157
1900000000.0 -0.22044496707622493 -0.1468382104461848
1920000000.0 -0.2925346610144457 0.03863305076376211
1940000000.0 -0.3114756364853295 0.08831567762627081
1960000000.0 -0.29126551068806555 0.20251156538933157
1980000000.0 0.09976390321790335 0.3697932049648626
2000000000.0 0.32587750826786877 0.2505490046912181
2020000000.0 0.2678891785133811 -0.34170770036421183
2040000000.0 -0.39604745236639 -0.21754815444395953
2060000000.0 0.2621479559216101 0.37563546839406353
2080000000.0 0.13458824790049312 -0.4365102457899129
2100000000.0 -0.4448550727056465 -0.053322088576246714
2120000000.0 0.030052286566642522 0.42905504897238483
2140000000.0 -0.24592182248809502 0.3261194310109701
2160000000.0 0.012493433772720289 0.38702610151852473
2180000000.0 -0.057924000038681034 0.35793793923245093
2200000000.0 -0.21985399382108356 0.26867178405005626
2220000000.0 -0.31279913341437016 -0.11712916089612298
2240000000.0 -0.23600443425347123 -0.24224873305727274
2260000000.0 -0.27838175185652364 -0.20677331852769373
2280000000.0 -0.35490483272253426 0.063532659605669
2300000000.0 0.3123202434823673 0.21644325499122516
2320000000.0 -0.10962779882491286 -0.3916922139268443
2340000000.0 0.010786564537824117 0.43745087390829085
2360000000.0 0.03696001561516802 -0.4746379984585563
2380000000.0 0.012511544927624584 0.5175180359345797
2400000000.0 -0.05889701038328372 -0.5615507178999599
2420000000.0 0.3342465252878297 0.5127171462447144
2440000000.0 -0.6022037112166891 -0.2604649861909155
2460000000.0 0.6806504243051592 -0.12979912078764164
2480000000.0 -0.608087600331413 0.38698242250280684
2500000000.0 0.6413774120286582 -0.36777114623861434
2520000000.0 -0.728118860810071 0.17231624045623417
2540000000.0 0.7121312678745028 0.23162090148123787
2560000000.0 -0.3368622513064031 -0.6602665827700055
2580000000.0 -0.43155916143923434 0.5830082209415095
2600000000.0 0.6996400632583817 -0.02897914666990066
2620000000.0 -0.36107536282194247 -0.562615012156435
2640000000.0 -0.46083535488570754 -0.4293236349375935
2660000000.0 -0.27278493761358885 0.5171416510157932
2680000000.0 0.47962392929754283 0.2461595052640249
2700000000.0 0.1567475836443841 -0.4707925614798441
2720000000.0 -0.4339146093038402 0.13479355627704384
2740000000.0 0.3446757857455243 0.23306346691106136
2760000000.0 -0.25582316891596374 -0.2851340925874825
2780000000.0 0.3519855123160632 0.04819071103081893
2800000000.0 -0.1494999976860316 0.29558582824010105
2820000000.0 -0.3095208819540233 -0.03757023587177293
2840000000.0 0.058723598461730475 -0.28926943606113165
2860000000.0 0.22218420593707394 0.17965099548693056
2880000000.0 -0.27983915835070117 0.011981687048695594
2900000000.0 0.27621988610822884 -0.01057497369002056
2920000000.0 0.10185561823161474 -0.25874728053663154
2940000000.0 -0.21315849256675584 -0.18787881819069177
2960000000.0 -0.21972047685994622 -0.18584179424814773
2980000000.0 -0.06475866312797637 -0.29195066412485715
3000000000.0 0.19708865462559583 -0.23435391111141202
3020000000.0 0.30110966179321164 -0.08528030878898195
3040000000.0 0.16892327197162194 0.26547207382236854
3060000000.0 -0.224918340856979 0.2216907616351294
3080000000.0 -0.1632274788522105 -0.26528911056160326
3100000000.0 0.2903294761493199 -0.08800474934465058
3120000000.0 -0.07620121136736449 0.28062485557081013
3140000000.0 -0.08437205502296877 -0.26257232297934185
3160000000.0 -0.21808868326249753 0.1336562632490185
3180000000.0 0.16118989196988553 -0.17153944186361753
3200000000.0 -0.1729933189497189 0.11972290088211814
3220000000.0 0.18312253036972148 -0.025436084991876735
3240000000.0 0.038535188590586 -0.15493940211097842
3260000000.0 -0.03011979899049766 -0.13389986490212255
3280000000.0 -0.021768057189959132 0.1148034763593604
3300000000.0 -0.09226508307169176 0.019533257596106007
3320000000.0 0.0699307695553133 -0.002401797761003469
3340000000.0 0.014481843246148587 0.04174409719444519
3360000000.0 0.02243734160670374 -0.012367165962146981
3380000000.0 -0.016781284336286183 0.020398991544312413
3400000000.0 0.039537169042586244 -0.0005217500851912494
3420000000.0 0.027154133491357448 0.04638052694195028
3440000000.0 0.059454103862446935 -0.002996911447940325
3460000000.0 -0.053426006868161714 0.01327674157860111
3480000000.0 -0.05107827149482658 -0.008059272344508728
3500000000.0 -0.05255751134320853 -0.022139468830559773
3520000000.0 0.07635029562148281 0.003307879819305595
3540000000.0 -0.09137639565323746 -0.0433686026587114
3560000000.0 -0.007014582383547409 -0.12364647845683124
3580000000.0 0.0187056316185507 -0.1449286246184738
3600000000.0 -0.16335959479456455 0.039483339733215994
3620000000.0 0.17489330269000394 0.03656274645807036
3640000000.0 0.1636962973067433 -0.08801472269667532
3660000000.0 0.060873420025601026 -0.17716180566129067
3680000000.0 0.1538069613732518 -0.10076310706015151
3700000000.0 0.05136048315591338 0.16994520548377715
3720000000.0 -0.007876661418102827 -0.17092064088904294
3740000000.0 -0.0760284587017393 0.1500620262335554
3760000000.0 0.007710326295774473 0.16719250633196278
3780000000.0 0.1389138868259353 -0.09501300824431773
3800000000.0 -0.16987251224167663 -0.007899461837393113
3820000000.0 0.13789287154432012 -0.09754118220367251
3840000000.0 -0.10235416329407808 0.12488348910905733
3860000000.0 0.13731713155579583 0.06803915339275295
3880000000.0 0.13768880432655894 0.048401624423127385
3900000000.0 0.003949270043240697 0.13952314376156924
3920000000.0 -0.12169323266184447 -0.07522447562600304
3940000000.0 -0.07301489066496626 -0.13437327600545107
3960000000.0 0.14864753761908267 0.07903511248247175
3980000000.0 0.06349302057365563 -0.16763458192915004
4000000000.0 -0.16249160737258558 0.07544380232740773
