! Created with skrf (http://scikit-rf.org).
# Hz S RI R 50.0 
!freq ReS11 ImS11
400000000.0 0.19337533697482373 0.8520605178679407
420000000.0 0.5967291747748322 0.6208272209939223
440000000.0 0.8016509447843103 -0.20779024124079448
460000000.0 0.07999509744467301 -0.7871121064873976
480000000.0 0.4590518497586241 -0.5393272948209029
500000000.0 0.27446004672492785 -0.49060924570589237
520000000.0 -0.03732954742343226 -0.48674924133815184
540000000.0 0.39079562083798375 -0.16259893393054478
560000000.0 -0.3182981560942144 -0.14159464609769706
580000000.0 -0.3178484022937203 0.09058952888180037
600000000.0 0.29677224056543466 0.14055294830900572
620000000.0 0.016351700982048696 -0.34662118437937484
640000000.0 -0.22484779605861216 -0.30848252995956993
660000000.0 -0.4018479768092987 0.014031111607487424
680000000.0 0.0750245238440675 -0.4239163446271043
700000000.0 0.2381466860591668 0.383177675329095
720000000.0 -0.0288682530487118 -0.44814721683361475
740000000.0 0.39586284116528814 -0.18769339387802444
760000000.0 -0.37679580705831683 -0.17375481695895464
780000000.0 0.31536723713882997 -0.2166436879368326
800000000.0 -0.21051971091465937 0.27907680477844005
820000000.0 -0.19254206121426387 0.21969639034187433
840000000.0 0.16028245582643816 0.17635836220704307
860000000.0 -0.11942697220255608 0.16671258524538912
880000000.0 -0.14576052887152632 -0.007299671145907607
900000000.0 0.07420779211295926 -0.028336814502259777
920000000.0 0.03862492195300251 -0.03011730331088502
940000000.0 -0.031399803309798364 -0.028477077653979027
960000000.0 -0.051454913078578024 0.02016527066731045
980000000.0 0.06340331727932605 -0.005075920751602303
1000000000.0 -0.0689827736803961 -0.012610603360710845
1020000000.0 0.07834430372877144 0.005945419408565138
1040000000.0 0.0023232475324061887 0.08130575238915352
1060000000.0 -0.09637869834562542 0.06622436190646863
1080000000.0 -0.09170857181495062 0.0954946116412819
1100000000.0 -0.12710442127248645 -0.09386649641698934
1120000000.0 -0.13164907703288548 -0.13645459221133135
1140000000.0 0.06619382687719927 0.22864955099086867
1160000000.0 0.2839887536234887 -0.0019187453779562621
1180000000.0 -0.018876053770938015 -0.3296248589378973
1200000000.0 -0.23358373558090384 -0.28238316866821334
1220000000.0 0.20138358774624265 -0.34123014153634657
1240000000.0 0.3033749562402791 0.2889083260257556
1260000000.0 -0.4018238503259485 -0.1807970589342829
1280000000.0 0.4326980038521308 0.12774947886997268
1300000000.0 -0.3639905977436694 -0.2679185544621563
1320000000.0 -0.09224776090638898 0.4295583342202395
1340000000.0 -0.23832434290670595 0.3500766315328026
1360000000.0 -0.32089600670640206 -0.2561390495627863
1380000000.0 -0.0766098560480063 -0.4012984216059071
1400000000.0 -0.13006645112319218 -0.37363266053910354
1420000000.0 -0.07114374328801233 -0.3758513245633838
1440000000.0 -0.2225912950420892 -0.2921003524147815
1460000000.0 -0.34297265773844177 -0.052392637586153715
1480000000.0 -0.1397859842345403 0.29730062870783175
1500000000.0 0.247955102543918 -0.18044418036760831
1520000000.0 -0.22022509884806105 -0.17676799118037617
1540000000.0 -0.13494518686748078 -0.21705004329310126
1560000000.0 -0.218519053534248 0.025563980608921757
1580000000.0 -0.009816734580419578 0.18800418562423468
1600000000.0 -0.1517186485646169 -0.030238916094363116
1620000000.0 -0.1107021832839006 -0.022100343053180926
1640000000.0 0.08336861142565039 -0.010736192475482477
1660000000.0 0.04400049092500144 -0.039786363731565744
1680000000.0 0.0012951080643928132 -0.03053631741632353
1700000000.0 -0.015043962693411198 -0.011992927846371767
1720000000.0 0.005944451686820098 0.03287112800888732
1740000000.0 0.054762451001486315 -0.008032401611812881
1760000000.0 -0.07016218625446854 -0.02110433626324271
1780000000.0 0.09281151445076574 -0.0034431645253732855
1800000000.0 0.060947566717845694 0.10196336843407511
1820000000.0 0.0437627684305362 -0.12512841711749056
1840000000.0 0.11807594128168912 -0.1029836129221596
1860000000.0 0.16847593276863404 -0.05581627526638061
1880000000.0 -0.12356337641117901 0.16828627488823114
1900000000.0 -0.22584719340398202 -0.09806212038822734
1920000000.0 -0.2524978133023289 0.14317216526024212
1940000000.0 0.03988649959643862 0.3331715292349309
1960000000.0 0.2495791361364679 -0.2818778137022658
1980000000.0 -0.27784904802277466 0.29872485507469754
2000000000.0 0.4341579569229934 0.01815235628372026
2020000000.0 -0.4414238571919845 -0.10205379734532646
2040000000.0 0.23481756872587214 0.39385031542339843
2060000000.0 0.036646554788053495 -0.455123537314881
2080000000.0 -0.42539930799911324 0.12747427970637346
2100000000.0 -0.12252549546443638 0.4090274033183407
2120000000.0 0.0150559777181498 0.4047264937946156
2140000000.0 -0.3116273149764091 -0.22458148350297952
2160000000.0 -0.0002498665126234576 -0.36499376982855464
2180000000.0 0.33899793626105246 -0.09913272848148984
2200000000.0 0.28504263977112143 0.1934731751700629
2220000000.0 0.23833910373387934 0.2537946567404299
2240000000.0 0.21195953711166474 -0.2792070357124039
2260000000.0 -0.22023674499308438 -0.2788175584800692
2280000000.0 -0.19161016709927906 0.3066179553048881
2300000000.0 0.3722753715514289 0.030942058043497957
2320000000.0 -0.2719539246436577 -0.2834515427462781
2340000000.0 -0.23953185559902693 0.3424916272300534
2360000000.0 0.4527636885257281 0.027014723426299618
2380000000.0 -0.35433650157150853 -0.3513817389724746
2400000000.0 0.23718680001482675 0.49536199599671205
2420000000.0 -0.32126131198642677 -0.5094711866715077
2440000000.0 0.6021377381736966 0.254344948486144
2460000000.0 -0.6831084555518636 0.13475061856600648
2480000000.0 0.5560399977588951 -0.4733928763079883
2500000000.0 -0.4971343044364734 0.5650174273619787
2520000000.0 0.589743031783885 -0.48642206052152365
2540000000.0 -0.7329914868937154 0.2267799324892408
2560000000.0 0.6938055940365486 0.31490183795229654
2580000000.0 -0.1184975536837502 -0.7381677346057584
2600000000.0 -0.4783059140972201 0.5432033477957344
2620000000.0 0.6897053672679141 0.06756169583317996
2640000000.0 0.6347661779382064 -0.16507118198515064
2660000000.0 -0.4351700128023447 -0.4310194886666713
2680000000.0 -0.1343957291579492 0.5516061041493171
2700000000.0 0.4002816349829631 -0.34011562062225903
2720000000.0 -0.40487396896772776 0.2591280780986603
2740000000.0 0.331473741515994 -0.28536785856413
2760000000.0 -0.12724422388899376 0.3751969192167843
2780000000.0 -0.23264110981425892 -0.276077400574705
2800000000.0 0.3261214790956369 -0.0441683460204857
2820000000.0 -0.1697665596018315 0.2527067005435554
2840000000.0 0.15691174681642867 -0.24192902633658672
2860000000.0 -0.20154945745730787 0.19858879723651407
2880000000.0 0.2668275366915399 -0.09081315233086448
2900000000.0 -0.2594675808999873 -0.12227543155762298
2920000000.0 -0.05379603177209944 0.29365061668664744
2940000000.0 0.2764671134953208 -0.13973019991615304
2960000000.0 -0.16247086563343222 -0.27379046419155095
2980000000.0 -0.3132703511572647 -0.08914626184932942
3000000000.0 -0.32908926125808424 -0.011013490741788803
3020000000.0 -0.30536794553152263 -0.1215440256588363
3040000000.0 -0.024167498195123805 -0.32202418102684005
3060000000.0 0.2890236242877821 0.12796003214015853
3080000000.0 -0.3042416509466522 -0.023989996929065446
3100000000.0 0.2833319830740883 0.08103953397005928
3120000000.0 -0.23714489058112234 -0.15352999301821252
3140000000.0 0.08199188171109019 0.25915831945901585
3160000000.0 0.14822492714208574 -0.21076947372622265
3180000000.0 -0.10427829901987204 -0.22167230269192087
3200000000.0 0.170154137212529 0.15341282539676496
3220000000.0 -0.1723924264816452 0.11744536566824612
3240000000.0 -0.16790236847117268 -0.07884576912586856
3260000000.0 -0.04105796982505964 -0.15060195081021427
3280000000.0 -0.11972582529559715 -0.028891394139096797
3300000000.0 -0.0012352760119854343 0.0885876263267447
3320000000.0 -0.01943903986008222 0.05010620277401153
3340000000.0 -0.022709779173082142 0.002692519422213361
3360000000.0 0.006822467172500093 0.01131133118927847
3380000000.0 0.02115584049589668 0.014642493906533759
3400000000.0 -0.029674447709445096 0.02023476434027824
3420000000.0 0.0001888708438127076 -0.040306710406107095
3440000000.0 -0.020525601085298675 0.03157032416694502
3460000000.0 -0.011836693284120129 0.03668059958331435
3480000000.0 -0.041483735194903754 -0.035999083241682446
3500000000.0 0.015263858112095647 -0.07703512815248983
3520000000.0 0.05339853237445551 -0.09118179343320348
3540000000.0 -0.12537017599514966 0.0050022930261910325
3560000000.0 -0.023453277810856744 0.1372827725935451
3580000000.0 -0.07207124858266578 0.13167999047109338
3600000000.0 -0.1347683262961897 0.08706376625342926
3620000000.0 -0.12251938492172415 -0.11047375756063463
3640000000.0 0.16576088991558177 0.03617476284805732
3660000000.0 -0.17647628573472202 0.007596189385908998
3680000000.0 0.16236701386095093 -0.08178692724649432
3700000000.0 0.05611486611430836 0.17795446658555125
3720000000.0 -0.1742895637922528 0.08152148888653421
3740000000.0 -0.17582515809075672 0.08231696807905127
3760000000.0 -0.14874296469763892 -0.11978550096738924
3780000000.0 0.066333990867157 -0.16889924168679774
3800000000.0 0.06249395621611117 0.1563441818219754
3820000000.0 0.15269531202296305 -0.005630700334300558
3840000000.0 0.008319969757647849 0.13882809437808175
3860000000.0 0.13329193293816283 0.022700691247707138
3880000000.0 -0.11398384266911349 -0.0858828847523193
3900000000.0 -0.1006104183047075 -0.11526901097840424
3920000000.0 0.04993434298298928 0.15856344096908823
3940000000.0 -0.10952080944670207 0.1398319242254251
3960000000.0 0.14511705631763439 0.11514794158188167
3980000000.0 -0.17604308362882212 -0.0537739388621914
4000000000.0 0.017230714190493525 0.17120543578311254
