! Created with skrf (http://scikit-rf.org).
# Hz S RI R 50.0 
!freq ReS11 ImS11
400000000.0 -0.714284608280642 0.49062882130547775
420000000.0 0.2640246903685941 0.8248530015686875
440000000.0 0.7834177097828877 -0.29698534145869815
460000000.0 0.22638786661582358 -0.754488896402024
480000000.0 0.5920145359629592 -0.41460211045627204
500000000.0 -0.4259463345890188 -0.3681093960604098
520000000.0 -0.42291723643898393 -0.24503383242941768
540000000.0 0.024027498663970127 -0.41061662246200914
560000000.0 -0.3601952157093806 -0.0694263972158412
580000000.0 0.08359874326133981 -0.30779552037353475
600000000.0 0.0016170872028263839 -0.3285026969591254
620000000.0 0.2897908569719553 -0.1650512359757954
640000000.0 -0.3277273906233325 0.11799290577125475
660000000.0 -0.26233737788221084 0.2790250256093668
680000000.0 0.15934197469070452 -0.37012007659652396
700000000.0 -0.4216613902429759 0.12003024608362291
720000000.0 0.04421668778569942 0.43709431258623765
740000000.0 -0.4348352192611847 0.12285187841930732
760000000.0 0.09135677732607654 -0.42209948850776224
780000000.0 0.259778542591975 0.30508743730797633
800000000.0 -0.1358499052244887 0.33785207115943633
820000000.0 -0.23097795544242072 0.1958955562673712
840000000.0 0.2079295219750159 -0.14642554609658068
860000000.0 -0.01753694834155585 -0.20290707914560108
880000000.0 -0.10163368771239718 -0.11332662266161116
900000000.0 0.02650511688316703 -0.07188697206581449
920000000.0 0.00518519120216136 0.04386513814909203
940000000.0 -0.0021321034706450657 0.05049660150712544
960000000.0 -0.05723773819192903 -0.016396906807699597
980000000.0 -0.061273637930975226 0.013639793975805746
1000000000.0 0.013169843547639159 -0.06635157103040044
1020000000.0 0.05393583302739723 0.04681037128349192
1040000000.0 -0.04343867908510312 -0.06521852102797428
1060000000.0 0.09702913040633528 0.05940591133569843
1080000000.0 0.11967118440676693 -0.06682186976410628
1100000000.0 -0.03858788402244305 -0.15823791631912848
1120000000.0 -0.1808878680496462 -0.07824508930988362
1140000000.0 0.23156326263304386 -0.06676233872512949
1160000000.0 -0.024340888814912764 -0.2831414606742048
1180000000.0 -0.28201583298732646 0.16485066080081143
1200000000.0 -0.3518149231961994 -0.05641049932184661
1220000000.0 -0.05689432547534167 -0.38623991149747877
1240000000.0 0.22398804987159585 0.3446737760183104
1260000000.0 -0.3221743849739078 -0.29562219517582483
1280000000.0 0.32091000067607595 0.30843286355224026
1300000000.0 -0.026858434975739812 -0.4506606645081077
1320000000.0 -0.3901692106799318 0.20353710524384128
1340000000.0 -0.4221253734592792 -0.08590459891402676
1360000000.0 -0.25132009783317716 -0.3409915797715678
1380000000.0 -0.27773654595535047 -0.31720053748304833
1400000000.0 -0.34160095040249255 0.21617721742476534
1420000000.0 -0.30559188269285753 0.23719520911309233
1440000000.0 0.018276027343971053 0.365144322061341
1460000000.0 0.02891587264522799 0.3381079526045102
1480000000.0 0.20964816070518083 0.2406329287900939
1500000000.0 0.288580821480671 -0.06896456765659435
1520000000.0 -0.272479925872365 0.01808571121902118
1540000000.0 0.21740353107479454 0.12669278208615872
1560000000.0 0.2029126379625531 0.08678146665474838
1580000000.0 0.15127600890258094 -0.11561464028330658
1600000000.0 0.12586149128954974 0.09425260751767918
1620000000.0 -0.11274589527015368 0.04054626511309586
1640000000.0 0.0490859409265339 0.07467932178867297
1660000000.0 0.029693798004501903 -0.057213564932581104
1680000000.0 0.030656994132347314 -0.020644427975771405
1700000000.0 0.0010512400164122142 -0.016813858570801348
1720000000.0 -0.015248291951374865 -0.01804328423812856
1740000000.0 0.028077970336468125 -0.03133328840931458
1760000000.0 0.05710620128810591 -0.030125970260926564
1780000000.0 -0.04986303517472908 -0.07305117490287652
1800000000.0 0.0441791086419455 -0.1129316155075374
1820000000.0 0.1489287974082775 0.014517659470820985
1840000000.0 -0.15738694806066467 0.07847578477559737
1860000000.0 0.1687380375199587 -0.10956957940482674
1880000000.0 0.12475958315751225 -0.18653848755310531
1900000000.0 0.1476071074107642 -0.207952278263199
1920000000.0 0.024581206094096773 -0.285465967800426
1940000000.0 0.11671147475479984 -0.2987553925814355
1960000000.0 -0.2292772813322652 -0.274549847652447
1980000000.0 -0.3074213725905588 0.23914363925262497
2000000000.0 0.19695356431784097 0.37034957393868223
2020000000.0 0.24812719506559255 -0.36577547912959596
2040000000.0 -0.44320449180976196 0.11815646906236864
2060000000.0 0.43224081691935234 0.1618631225505143
2080000000.0 -0.1662642428690238 -0.4268740562856905
2100000000.0 -0.3515992177802342 0.2739197210940229
2120000000.0 0.16900620996072008 0.3899208343682215
2140000000.0 -0.253329748154168 0.3098996427559259
2160000000.0 -0.27148440549669806 0.2664291309627661
2180000000.0 -0.3529578389259947 -0.062906534080649
2200000000.0 -0.18623216859864147 -0.2913076952894006
2220000000.0 0.23756896888941745 -0.24128255438535914
2240000000.0 0.22811433638025244 -0.2562726676761253
2260000000.0 0.044762181156439144 -0.34954386066334275
2280000000.0 -0.34384692533834266 -0.12033766301896343
2300000000.0 0.1432690371185174 0.3547544376718062
2320000000.0 0.03722037923223267 -0.4059458731736293
2340000000.0 -0.2598346246735159 0.3483126549640188
2360000000.0 0.3435919046634301 -0.32027272651004024
2380000000.0 -0.48889018010911006 0.15184520889539702
2400000000.0 0.5422435858991718 -0.13838608602137223
2420000000.0 -0.5010239968427134 0.3467789594479948
2440000000.0 0.2289531517146965 -0.6149947441017939
2460000000.0 0.18583746438338347 0.6699381899209873
2480000000.0 -0.4913774873330322 -0.534260604192978
2500000000.0 0.5563797925806463 0.4967016756339326
2520000000.0 -0.490225477095428 -0.5763835525347628
2540000000.0 0.14369689283584863 0.7447393430477331
2560000000.0 0.3295148443827253 -0.6765592138074452
2580000000.0 -0.7373498315983237 0.04065022428734833
2600000000.0 0.5092030468235123 0.5005358957528047
2620000000.0 0.13914506118358597 -0.6686065405596459
2640000000.0 -0.14153536588419122 -0.6299895586398722
2660000000.0 -0.48003306529941303 0.36018518764759094
2680000000.0 0.4431510085631201 0.33620623135386396
2700000000.0 0.1654532237082205 -0.4867395972803131
2720000000.0 -0.38269735105288866 0.2761728037535964
2740000000.0 0.4316221899975786 -0.030128385541797698
2760000000.0 -0.38623176078170907 0.09492996223020418
2780000000.0 0.06907420607432099 -0.3580380265300676
2800000000.0 0.26702189098536 0.2033459023051478
2820000000.0 -0.20272579450795136 0.2377123579926438
2840000000.0 -0.07538006217523985 -0.28415767520277024
2860000000.0 0.16695701558213688 0.22756136301805713
2880000000.0 -0.15825247273933069 -0.228008593834074
2900000000.0 -0.05622184316314239 0.26837901667658615
2920000000.0 0.14008363058623496 0.2435733085188636
2940000000.0 0.2815048599456904 -0.07256722157997082
2960000000.0 0.22761000269198164 -0.19381923290654168
2980000000.0 0.06937538192340832 -0.3038265650821273
3000000000.0 0.02014873927259171 -0.3183283729288504
3020000000.0 0.043981918484332375 -0.3196243432045874
3040000000.0 0.21282399751525707 -0.23860145155879267
3060000000.0 0.24558250183243063 0.1998379997313357
3080000000.0 -0.29967094742542466 0.06887981076402375
3100000000.0 0.1396717576810705 -0.26228523217804417
3120000000.0 -0.05674421559728578 0.27763625089733485
3140000000.0 -0.02032809061933856 -0.26851016280660106
3160000000.0 -0.20210568813843763 -0.14837067093712605
3180000000.0 0.08638396194957548 0.21639346392344302
3200000000.0 0.05049320329504394 -0.20793820717001565
3220000000.0 -0.13107171514242552 0.14249316402175088
3240000000.0 0.11257256533950345 -0.131450882610502
3260000000.0 -0.03826415932329059 0.14545220686268867
3280000000.0 -0.03897068140019991 0.11845672033524075
3300000000.0 0.08617769830613713 0.04454813067099449
3320000000.0 0.05036321932851144 0.0465270000916049
3340000000.0 -0.015815375378185018 0.03543056543028854
3360000000.0 0.021601104514100015 -0.010728028982658074
3380000000.0 0.017690036612880565 -0.025259587992190437
3400000000.0 0.03500384174191471 0.026490927109236142
3420000000.0 -0.024196693171165816 0.047064465925904284
3440000000.0 0.013317676168610374 -0.04932466858314719
3460000000.0 -0.009122815077684907 0.042024916382586125
3480000000.0 0.02327937201940889 0.03647553758281798
3500000000.0 -0.009356177486166257 -0.05918792248524642
3520000000.0 0.07529278675151499 -0.046973841963152435
3540000000.0 -0.0016380952808004823 -0.11552396529469511
3560000000.0 -0.13113944166577401 0.04136373315068414
3580000000.0 0.03286369813774791 0.15076892034377906
3600000000.0 0.09810301046403512 -0.14008460510238854
3620000000.0 -0.12614553830911432 -0.12166957009858857
3640000000.0 -0.1393346869691237 -0.11201796562706108
3660000000.0 0.09853541225127925 -0.1482106875639062
3680000000.0 0.04660102977586839 0.17037905157923308
3700000000.0 -0.03621044025218951 -0.1701708985006206
3720000000.0 -0.15790838566778814 0.07619776639394446
3740000000.0 0.08470261148373838 -0.15654951952669732
3760000000.0 -0.15167008986759914 0.1002937186634296
3780000000.0 -0.06148393357530971 -0.17114982258446942
3800000000.0 0.17605063205934615 -0.0169801138136876
3820000000.0 -0.016787662176599317 0.1668175786902177
3840000000.0 0.15318057325043746 -0.0006036017619487968
3860000000.0 0.09391706864092214 0.1063959264736377
3880000000.0 -0.04349370511961843 -0.13159325653340342
3900000000.0 0.05290943832148897 0.1295638364349444
3920000000.0 -0.14672917437605762 -0.028713803851769547
3940000000.0 0.14955929160513426 0.07438711370899005
3960000000.0 0.16767791218386774 0.07269782558865648
3980000000.0 -0.1624632951086346 0.09957387052995875
4000000000.0 0.1550956375459367 -0.10132920963281634
