! Created with skrf (http://scikit-rf.org).
# Hz S RI R 50.0 
!freq ReS11 ImS11
400000000.0 0.20196158003869324 0.8513908040034288
420000000.0 0.596143144349191 0.6205066770691379
440000000.0 0.7963878821478889 -0.22611752450334102
460000000.0 0.14327553493597228 -0.7783561956133493
480000000.0 0.459577102497388 -0.5401740526893489
500000000.0 0.14969214238816433 -0.5422263434082623
520000000.0 0.030060689874025385 -0.48631613302645427
540000000.0 0.4087022010676745 -0.1178810996841037
560000000.0 -0.3442210226291784 -0.05871907209297699
580000000.0 -0.3265415238301265 0.05696387750707524
600000000.0 0.31036081476598226 0.09492267738526163
620000000.0 0.049207842520316576 -0.3440673183715364
640000000.0 -0.1845701896430999 -0.33418406912247867
660000000.0 -0.3969681385008623 0.0627263023252525
680000000.0 0.05171131672629873 -0.4279854455516596
700000000.0 0.28795834281706617 0.3453265654443939
720000000.0 0.01732762967196983 -0.44903878693300786
740000000.0 0.4121664119776585 -0.15306765933339997
760000000.0 -0.38582879157240424 -0.1521729126789452
780000000.0 0.33670638363076744 -0.181535889521354
800000000.0 -0.21040177552328904 0.2794428201603277
820000000.0 -0.16497924725746657 0.24079188531599674
840000000.0 0.09333409860877058 0.2189417489596179
860000000.0 -0.07668183694592438 0.19064408072360467
880000000.0 -0.1451965065215347 -0.001707543782309621
900000000.0 0.07500444593814794 -0.026713397814987994
920000000.0 0.005151076729144684 -0.04775378800342881
940000000.0 -0.020544870599351825 -0.037600173668897056
960000000.0 -0.053023712118365735 -0.017438804451993757
980000000.0 0.06365181295264077 -0.000231369309824494
1000000000.0 -0.06485029929373544 -0.02543090197837505
1020000000.0 0.06483328310986193 0.044457184748103756
1040000000.0 -0.008340419406800002 0.08090043005463168
1060000000.0 -0.09958456189320301 0.060634042688897424
1080000000.0 -0.08629835384174524 0.1001669402047447
1100000000.0 -0.1281009105258126 -0.09226633256841188
1120000000.0 -0.12241541940734554 -0.14483602180792504
1140000000.0 0.10319495583173512 0.2147674787022493
1160000000.0 0.2824839701929119 -0.02684397650953716
1180000000.0 -0.02055423323669991 -0.32954098089474704
1200000000.0 -0.25017814872926847 -0.26788276714229714
1220000000.0 0.22528619828451785 -0.3261876796223988
1240000000.0 0.30459137348093085 0.28733525062496823
1260000000.0 -0.4032183978625141 -0.17801878315676234
1280000000.0 0.4338635238323689 0.12387426190344919
1300000000.0 -0.3780049917725645 -0.24836596540663208
1320000000.0 -0.08908580873458488 0.43012791435466635
1340000000.0 -0.24057275566537917 0.3485200432130944
1360000000.0 -0.31273589405155805 -0.2658227391707715
1380000000.0 -0.08455103785479524 -0.4001376048850103
1400000000.0 -0.12142752746626641 -0.37622587894484677
1420000000.0 -0.044863943812394294 -0.37992702805706824
1440000000.0 -0.23217440926567914 -0.2850191675663463
1460000000.0 -0.3417511167700677 -0.05887803936223273
1480000000.0 -0.1572273495839786 0.28830304700211223
1500000000.0 0.2463926879260867 -0.18256408525042175
1520000000.0 -0.22327943542620532 -0.17315948702779982
1540000000.0 -0.1505577782720215 -0.20602383754060502
1560000000.0 -0.21807267689671658 0.02871505476964482
1580000000.0 -0.003304958364893256 0.1882771611403892
1600000000.0 -0.15454019363615737 -0.008932061112757662
1620000000.0 -0.11156942950984754 -0.015675870580962026
1640000000.0 0.08411672379341029 -0.0060275092247105005
1660000000.0 0.035834259596619046 -0.04730994212086351
1680000000.0 0.0023551394924784174 -0.030476502062541697
1700000000.0 -0.01891438367380977 0.0008027455905141864
1720000000.0 0.02091742506869624 0.02611767754196018
1740000000.0 0.05024472279645283 0.022692253387614762
1760000000.0 -0.07259839875315026 -0.00976123767236266
1780000000.0 0.09135565049720272 -0.017956350082764173
1800000000.0 0.06992753141531294 0.09608394231514623
1820000000.0 0.04362330169587906 -0.1251648907826247
1840000000.0 0.12395386815094962 -0.09573638581394871
1860000000.0 0.17254217582147738 -0.04158251170717002
1880000000.0 -0.1283018212588312 0.16502500181306687
1900000000.0 -0.21932931797014998 -0.11222260225041823
1920000000.0 -0.25819396028863184 0.13269108774425464
1940000000.0 0.018048676158857208 0.33520194514475704
1960000000.0 0.25832263170541186 -0.27389234832281495
1980000000.0 -0.2823458826153288 0.29452040162226834
2000000000.0 0.43398461434902497 0.017054541978097783
2020000000.0 -0.4433878919535805 -0.09165260097994785
2040000000.0 0.23648042079749 0.3925726435690132
2060000000.0 0.028874358830062487 -0.4554158721781665
2080000000.0 -0.4229203471604664 0.13451196878763536
2100000000.0 -0.10236132134567505 0.41415409916980694
2120000000.0 0.03533202808925238 0.40323846144460745
2140000000.0 -0.2897699085603369 -0.25205498296275614
2160000000.0 -0.006649599739958183 -0.36507326559724895
2180000000.0 0.3362374417607542 -0.10842195312394473
2200000000.0 0.2906700903546331 0.18512874447232472
2220000000.0 0.2582898534927816 0.23401612974186467
2240000000.0 0.209384122587682 -0.2819553908987123
2260000000.0 -0.21032168667657503 -0.2867896308043309
2280000000.0 -0.1851702578799917 0.3109904126327597
2300000000.0 0.3737689186867273 0.02049503809180399
2320000000.0 -0.2584649417900941 -0.2959099431430344
2340000000.0 -0.24536774491095187 0.33892360344054506
2360000000.0 0.45122877962478486 0.04679251069804689
2380000000.0 -0.34548857998651095 -0.3599563379367592
2400000000.0 0.20587698411207625 0.5089414663413755
2420000000.0 -0.31125239432725854 -0.51549920195647
2440000000.0 0.5786125134297493 0.3040978351496546
2460000000.0 -0.6868348444979022 0.11251594957680737
2480000000.0 0.5559392431611831 -0.4730892011300621
2500000000.0 -0.5033260946423118 0.5589582781089143
2520000000.0 0.5810314774982864 -0.49612432019748903
2540000000.0 -0.7449242309337177 0.18447832793020577
2560000000.0 0.7016119765878325 0.2963377524459002
2580000000.0 -0.1475901336268706 -0.7328978687934152
2600000000.0 -0.44404321021977095 0.5716935811119909
2620000000.0 0.6920152965776017 0.03823211656848827
2640000000.0 0.6300094115096798 -0.18410608342917578
2660000000.0 -0.4639192161756063 -0.40072625216998703
2680000000.0 -0.14160241941430446 0.550262778076828
2700000000.0 0.3886064598564379 -0.35437777012471755
2720000000.0 -0.41049485371470873 0.2511995001538178
2740000000.0 0.33885337265990084 -0.27735425924647006
2760000000.0 -0.14612640539218452 0.3685903259816331
2780000000.0 -0.22123857030271937 -0.2855003030091266
2800000000.0 0.3284961778992408 -0.018664209665726527
2820000000.0 -0.18433198016415153 0.24210441899378252
2840000000.0 0.16455704762576323 -0.23644287049402632
2860000000.0 -0.20845322229526791 0.1909202843221479
2880000000.0 0.2655157213133272 -0.09355415349079901
2900000000.0 -0.2586986292224768 -0.12322038185484001
2920000000.0 -0.04928542084793175 0.2943186025891098
2940000000.0 0.2666743371044943 -0.1576565211259565
2960000000.0 -0.19549128490638865 -0.25104491370494847
2980000000.0 -0.3182412849641568 -0.06737433462901275
3000000000.0 -0.3291099603491815 0.012344208147202189
3020000000.0 -0.31704360722101776 -0.08617372856910872
3040000000.0 -0.03536168350481716 -0.32106539181888866
3060000000.0 0.29476534797551235 0.11427398188445274
3080000000.0 -0.3045096966693664 -0.022105414166154917
3100000000.0 0.2930850190928054 0.03355884858529768
3120000000.0 -0.21824401046523134 -0.17889668248751653
3140000000.0 0.0911240294612622 0.2563451351386996
3160000000.0 0.13433543856075952 -0.22028927703949172
3180000000.0 -0.0895751377161501 -0.22800467576303587
3200000000.0 0.17029952336704093 0.15372720561627082
3220000000.0 -0.1640418480947004 0.12954009850938975
3240000000.0 -0.16086390536048403 -0.0921073556613168
3260000000.0 -0.05373027640818691 -0.1467203212479306
3280000000.0 -0.11678885874082914 -0.039342917721859105
3300000000.0 0.021571572409399237 0.08606743297459245
3320000000.0 -0.0212551875668801 0.049495331711916016
3340000000.0 -0.022730871769486207 -0.0025034903619309953
3360000000.0 0.003602491965468197 -0.012813624635772848
3380000000.0 0.02432534416066543 -0.00944864023901751
3400000000.0 -0.007714428939347012 0.03518781392525714
3420000000.0 -0.014881155886819961 -0.037234952017010436
3440000000.0 -0.03252938476521985 0.018332355127949132
3460000000.0 0.00342839616622561 0.0382926042255188
3480000000.0 -0.03479807216503432 -0.042050147167664045
3500000000.0 -0.023055897241878728 -0.07535924258234823
3520000000.0 0.021683653098372484 -0.10363437625457589
3540000000.0 -0.1190693922135852 0.039986973061752445
3560000000.0 0.012787872584143352 0.13877245532147506
3580000000.0 -0.05849111753613181 0.13828269882191527
3600000000.0 -0.11812347417823994 0.10858873004669654
3620000000.0 -0.13706846836143052 -0.09211959023121816
3640000000.0 0.16906938496132715 0.014414822452627561
3660000000.0 -0.17272822864710335 0.03781004354461839
3680000000.0 0.15377901541828726 -0.097961729804012
3700000000.0 0.06678624798423877 0.17465553513014231
3720000000.0 -0.1712183808400394 0.08928823534129436
3740000000.0 -0.16554554521638729 0.10265204678022341
3760000000.0 -0.14652275886124572 -0.12327998790248611
3780000000.0 0.06226114329694192 -0.17102675030069991
3800000000.0 0.0514522245655901 0.16108536431244722
3820000000.0 0.153162645947745 -0.003198626338078539
3840000000.0 0.007855976093200266 0.1389544055821023
3860000000.0 0.13025007267910582 0.03796369675919958
3880000000.0 -0.10087867536306966 -0.10144873458305871
3900000000.0 -0.08651668168626475 -0.127069940365457
3920000000.0 0.03257721946324034 0.16354983471151732
3940000000.0 -0.10790820423569047 0.14155944906711834
3960000000.0 0.123747065091859 0.13880644253386454
3980000000.0 -0.1736951101142794 -0.061646268122621056
4000000000.0 0.01514104084186574 0.17160658342625904
