! Created with skrf (http://scikit-rf.org).
# Hz S RI R 50.0 
!freq ReS11 ImS11
400000000.0 -0.6986152988659192 0.5087679258558414
420000000.0 0.277408867461251 0.817389880664764
440000000.0 0.7776613163333714 -0.3101199248986635
460000000.0 0.12283574908906525 -0.778101664288022
480000000.0 0.5542607101717366 -0.46058786522199247
500000000.0 -0.3248100283204801 -0.45827412461360373
520000000.0 -0.45994120661994004 -0.17762519588739545
540000000.0 -0.09999921861301354 -0.3953200813342737
560000000.0 -0.3149284990352561 -0.18740951239421147
580000000.0 0.12243707439166901 -0.29574820883497677
600000000.0 -0.18416497090482098 -0.27523320727850636
620000000.0 0.2683236484261906 -0.19662668861267804
640000000.0 -0.34691495382876836 0.03774647064825437
660000000.0 -0.3149760908854091 0.22291692177142686
680000000.0 0.1932639694125997 -0.35515687795152834
700000000.0 -0.43721864530770965 0.028802175225502484
720000000.0 -0.0663484111325787 0.43409697576320355
740000000.0 -0.44418775707215175 0.07775991198598212
760000000.0 0.11416870613895894 -0.4152548957230067
780000000.0 0.24376714352678608 0.3175494197931355
800000000.0 -0.1083715633249397 0.3465121165336874
820000000.0 -0.17305115222827722 0.24798643585867133
840000000.0 0.14527849015757183 -0.20914886255418666
860000000.0 -0.11372144957532943 -0.1690563383561074
880000000.0 -0.14102971432612307 -0.06211112616210298
900000000.0 0.02203569570963415 -0.07594934912516677
920000000.0 -0.04552807148753106 0.005243937483235078
940000000.0 -0.04969440585069305 0.001810832315818197
960000000.0 -0.05440662934155649 -0.020173160925390992
980000000.0 -0.053158685117208324 0.03171301508952652
1000000000.0 -0.02874973792009304 -0.06097138396835733
1020000000.0 0.068881992304917 -0.016752638402754424
1040000000.0 -0.07801550623720414 -0.002790177801877207
1060000000.0 0.11165951037221639 -0.021685091799523368
1080000000.0 0.08286490505192537 -0.11017344081639244
1100000000.0 -0.07009209301199297 -0.14830092645362206
1120000000.0 -0.19250822869991932 -0.04834543072761653
1140000000.0 0.23680799000391894 -0.05018879323782586
1160000000.0 0.001123092608192708 -0.2853039564940197
1180000000.0 -0.3071304511383237 0.11434204723684713
1200000000.0 -0.340534774962068 -0.10720763580519312
1220000000.0 -0.012977220981169149 -0.39043706404213835
1240000000.0 0.19362300315930636 0.36234215365012895
1260000000.0 -0.2971407415834838 -0.3210621434846787
1280000000.0 0.3020076958028159 0.3265340935708109
1300000000.0 -0.01560019459362595 -0.4510383424404082
1320000000.0 -0.3912099373711109 0.2015505167358096
1340000000.0 -0.4209783688840013 -0.08929913346459291
1360000000.0 -0.2566969998850091 -0.3372105265596563
1380000000.0 -0.2907202372437503 -0.30517032493126856
1400000000.0 -0.3350777000782118 0.22661806819364474
1420000000.0 -0.2939305593569697 0.2516598745737908
1440000000.0 0.023786770600016723 0.36480032895134284
1460000000.0 0.04402428202129667 0.33627260673965237
1480000000.0 0.20431881085107223 0.24475984818322258
1500000000.0 0.2918642354122177 -0.05400864752537164
1520000000.0 -0.27165202727437154 0.026551514788704256
1540000000.0 0.17826079164670836 0.17822702942757343
1560000000.0 0.17844976616667668 0.13003993106370168
1580000000.0 0.16652142593119915 -0.09274371240356152
1600000000.0 0.10144476784277191 0.1202634939175679
1620000000.0 -0.11910540555941732 0.010933587409447887
1640000000.0 0.03927158206519699 0.08006659275398555
1660000000.0 0.030278713659178218 -0.056554464462260846
1680000000.0 0.03424862245367049 -0.014423891589268626
1700000000.0 -0.015998250071918265 -0.00462828051173103
1720000000.0 -0.01409336075961097 -0.01832274654383229
1740000000.0 0.041311620483338196 0.006389674298034699
1760000000.0 0.05428203870411759 -0.034241539778486346
1780000000.0 -0.04503268824078407 -0.0761718571141725
1800000000.0 0.04809699364163728 -0.11103575268312241
1820000000.0 0.14800806127355498 0.022172603423822473
1840000000.0 -0.15338045733436467 0.08620144537988628
1860000000.0 0.16085577557914088 -0.12150278329453872
1880000000.0 0.11015331936957645 -0.19562259466181164
1900000000.0 0.10733739437718348 -0.23177117669575423
1920000000.0 -0.022928128828085495 -0.28607832891286183
1940000000.0 0.10880004100930808 -0.3018339457908052
1960000000.0 -0.24008251033757305 -0.26555676512710996
1980000000.0 -0.3077066281397078 0.2384597227266921
2000000000.0 0.21240863026814533 0.36126409609606125
2020000000.0 0.2918261100937086 -0.3319346601752606
2040000000.0 -0.45002361855027967 0.08747116173066292
2060000000.0 0.4132308590283553 0.20499863265362378
2080000000.0 -0.10959294997227069 -0.44453701185982447
2100000000.0 -0.3685241849630405 0.25013486031056265
2120000000.0 0.16697434220382568 0.39040255993311207
2140000000.0 -0.25988025325633024 0.3042286024549681
2160000000.0 -0.2519836838054135 0.28383387026510726
2180000000.0 -0.3550693055235232 -0.045447763732595035
2200000000.0 -0.21574767608959924 -0.26897044874495496
2220000000.0 0.22025440821250186 -0.25675568854133834
2240000000.0 0.19120712713218993 -0.2838728730624536
2260000000.0 0.020296602127659918 -0.35124727948058815
2280000000.0 -0.35505119850474204 -0.08117416745789041
2300000000.0 0.17764494841836503 0.33866103115985635
2320000000.0 0.021981882475395415 -0.40712493363280394
2340000000.0 -0.21532930592907082 0.3782686942692728
2360000000.0 0.3170459672055104 -0.3476433539662751
2380000000.0 -0.47512946233005793 0.1927855377368063
2400000000.0 0.5350762585442653 -0.16650325549610526
2420000000.0 -0.4952094019643979 0.35593717721422896
2440000000.0 0.21845761639820485 -0.6189656119080803
2460000000.0 0.14918587327513433 0.6791694309850422
2480000000.0 -0.46695947295300605 -0.5554236564922502
2500000000.0 0.5445635696054698 0.5089531191849139
2520000000.0 -0.489779966067637 -0.5757986593074261
2540000000.0 0.17168277420216038 0.7379698276560412
2560000000.0 0.3516519501579132 -0.6642239954189478
2580000000.0 -0.7352725780609801 0.055546739015741704
2600000000.0 0.46792325745716246 0.5372941513937817
2620000000.0 0.111696708890391 -0.6724776909004272
2640000000.0 -0.12393862556902537 -0.6324022826425194
2660000000.0 -0.47996158595696203 0.3581023349693062
2680000000.0 0.44456473663040597 0.3321989596199792
2700000000.0 0.1496800645942998 -0.4906612300329086
2720000000.0 -0.37467445528001836 0.28570040993786733
2740000000.0 0.4286561052414672 -0.055377966297108526
2760000000.0 -0.3770606834844742 0.12499085503848044
2780000000.0 0.05552562002606448 -0.3602722077397695
2800000000.0 0.28301145297105984 0.18085698474197692
2820000000.0 -0.19548700996171864 0.243975997621498
2840000000.0 -0.09354404378553194 -0.27825088922264923
2860000000.0 0.17275737324177362 0.22334602299871806
2880000000.0 -0.15126232247010324 -0.23327385581219137
2900000000.0 -0.050139674493447896 0.2699136112124363
2920000000.0 0.10623573623971895 0.25999366620325626
2940000000.0 0.2882546711392835 -0.03848778954992637
2960000000.0 0.2466046769483127 -0.16894124795769988
2980000000.0 0.1029465969418323 -0.293858750626905
3000000000.0 0.0531712219790094 -0.313738632043719
3020000000.0 0.043883839141063426 -0.31887497070476073
3040000000.0 0.2297139214866714 -0.22147695907695206
3060000000.0 0.21465054798014047 0.23086684683456302
3080000000.0 -0.3015148897110663 0.05497859785646908
3100000000.0 0.1787531457446048 -0.2363010486869691
3120000000.0 -0.008735478908652358 0.28242468617278754
3140000000.0 -0.06758529286531446 -0.25985295503084466
3160000000.0 -0.21834650063277178 -0.12252179316119022
3180000000.0 0.1405080142753295 0.18606288376403074
3200000000.0 -0.01299685900893892 -0.2131326526174008
3220000000.0 -0.08971656582664947 0.17092557215860024
3240000000.0 0.0658498695384908 -0.1598118844672425
3260000000.0 0.0016293893891588258 0.1506024784005232
3280000000.0 -0.007641788360632598 0.12453886966503906
3300000000.0 0.09579236698918484 0.020078822304436864
3320000000.0 0.05054168712593093 0.047795302793510595
3340000000.0 -0.026789498696538405 0.02940582882696113
3360000000.0 -0.021843126157157725 0.010737092735731531
3380000000.0 -0.0016662655133320601 0.03011444708534237
3400000000.0 0.029642789564778917 0.031109505959095257
3420000000.0 -0.024799626865034834 0.04566097968386361
3440000000.0 0.005052071470620251 -0.04980449980318107
3460000000.0 -0.011618772107950188 0.040834090068888114
3480000000.0 0.03403455178351112 0.025103265124944468
3500000000.0 0.0036082170262490003 -0.05851651246533581
3520000000.0 0.08434189899938853 -0.02338300156732579
3540000000.0 0.00010191458185690397 -0.11416443059747894
3560000000.0 -0.13196392578926106 0.03347426222216847
3580000000.0 0.0016904638682477655 0.15243590036059215
3600000000.0 0.09266682571558281 -0.1428309480831855
3620000000.0 -0.15188354588927447 -0.08526683478865497
3640000000.0 -0.1265256880082215 -0.12422239351026787
3660000000.0 0.04926868846560667 -0.1705737704628176
3680000000.0 0.07838457119020645 0.15741296230185556
3700000000.0 -0.08506973301779931 -0.15071806565821294
3720000000.0 -0.13707539789866816 0.10841716610353214
3740000000.0 0.04795576218784734 -0.17043821853497357
3760000000.0 -0.12514278607886914 0.1305213343592349
3780000000.0 -0.09118812851215505 -0.15631573458381767
3800000000.0 0.16596147865418903 -0.06028961618578412
3820000000.0 0.013415039037503252 0.16753872944998036
3840000000.0 0.14798836571769375 -0.03982705753368109
3860000000.0 0.13122148317340776 0.0552026095572
3880000000.0 -0.09893441777150995 -0.097259138210091
3900000000.0 0.09635810424967339 0.10162135387425805
3920000000.0 -0.14867860119100887 0.01583856976809232
3940000000.0 0.1562473606664871 0.05906571830845762
3960000000.0 0.16217455772914377 0.0851571328955424
3980000000.0 -0.17427463888463127 0.07845409242305279
4000000000.0 0.17468865422545493 -0.06309780537037588
