! Created with skrf (http://scikit-rf.org).
# Hz S RI R 50.0 
!freq ReS11 ImS11
400000000.0 -0.6648182235114161 0.5444910020481626
420000000.0 0.029651816437736466 0.8660954061189023
440000000.0 0.8379517043686656 -0.04838651612904288
460000000.0 -0.035417583565812906 -0.8021049898584153
480000000.0 0.22366953858644223 -0.6960485400059057
500000000.0 -0.18783663963701938 0.5417851896699213
520000000.0 -0.35633210088318085 0.31370010242897717
540000000.0 0.21730259678779454 -0.3538742760732599
560000000.0 -0.3474332818014163 0.034269730961158096
580000000.0 0.26355057781938335 -0.19489175786024085
600000000.0 -0.2895394362572585 -0.12823935431760267
620000000.0 0.1699766933009534 0.284750740365707
640000000.0 -0.17363793359639573 0.3091346667203036
660000000.0 -0.28575916171382 0.24228507920206296
680000000.0 0.10983844899421855 -0.38897365335215633
700000000.0 -0.42495601660956084 -0.03560893513006687
720000000.0 -0.25281753661513373 0.3584018280007102
740000000.0 -0.442021487992862 0.036118376994664116
760000000.0 0.41986128894150515 0.09611883010224305
780000000.0 0.16146134115733354 0.3703045903942176
800000000.0 -0.33945182031643906 0.15268978341853734
820000000.0 0.10500512095135993 0.29854799651764746
840000000.0 -0.21981789476879446 0.13017816709913366
860000000.0 -0.10651204125867778 -0.17019416227467637
880000000.0 -0.15650603345640374 -0.016785007494353556
900000000.0 -0.031700802279891076 0.07235349175221575
920000000.0 -0.0320861090081106 -0.0342982356134271
940000000.0 -0.036814215093009944 -0.028129677114089698
960000000.0 -0.05407533456167975 -0.008749268825395146
980000000.0 -0.0029599346572537263 0.06644913383034591
1000000000.0 0.05759102594340407 -0.036010675196113166
1020000000.0 -0.05096432878075552 0.06348058390520721
1040000000.0 -0.06297116293949029 0.05848195694624737
1060000000.0 -0.1227340098145105 0.019428368020992834
1080000000.0 0.13716925400772306 0.030299449058497657
1100000000.0 0.15628260780468092 -0.05976682713037025
1120000000.0 -0.03784440084598884 -0.1860699801450253
1140000000.0 -0.15861616712105964 -0.16435437638115127
1160000000.0 -0.20952477264957015 -0.17454433025780777
1180000000.0 -0.28930823382360016 -0.12212369873613933
1200000000.0 -0.22131780243252439 -0.27311915477061666
1220000000.0 0.3619713032966767 -0.13280633248701978
1240000000.0 -0.043585131215538295 0.41301240364758335
1260000000.0 -0.12137951458347568 -0.42373476260942194
1280000000.0 0.228484342719976 0.39205243305227594
1300000000.0 -0.07846316519865756 -0.45042316440927954
1320000000.0 -0.3771904947161843 0.24049024216030263
1340000000.0 -0.4001297861885386 0.17105744033944795
1360000000.0 -0.330740649084439 -0.2660574944253268
1380000000.0 -0.35505322191589256 -0.23123120136423056
1400000000.0 -0.22871424178357352 0.3373707701891791
1420000000.0 -0.10173859115452583 0.3730851368897546
1440000000.0 0.08804971998146385 0.3512379839250413
1460000000.0 0.16876705108560833 0.2896677381399119
1480000000.0 0.21222371011746088 0.22741797501258373
1500000000.0 0.286604373215293 0.035654214828959925
1520000000.0 -0.24361065314538105 -0.10915746724850094
1540000000.0 0.07314629712040531 0.23374635627661483
1560000000.0 0.028642178626471032 0.21495638860627092
1580000000.0 0.11947144767496634 0.14788989805353606
1600000000.0 -0.14564853087317498 0.062383365164945866
1620000000.0 0.05135866740630104 -0.11126049644787213
1640000000.0 -0.09610319332232665 -0.004467893581650798
1660000000.0 -0.07161786397656401 -0.007784051220676116
1680000000.0 0.020532414181043103 0.041188404233846135
1700000000.0 0.024743436326635306 0.0004982302591004919
1720000000.0 -0.013274759667348968 0.019605373152101348
1740000000.0 -0.03152851307707134 0.028844824169100593
1760000000.0 0.060848997546829604 0.02663502179920677
1780000000.0 0.017411657681311095 0.09281486879337497
1800000000.0 0.0783112787045849 -0.09848148983157984
1820000000.0 0.13282635642747628 0.07392269944433785
1840000000.0 -0.16705600654026953 0.07129858901724588
1860000000.0 0.2067879404665123 0.009472845546020002
1880000000.0 0.07407994415937956 -0.22200001708275266
1900000000.0 -0.20454791428204264 -0.16812149973086724
1920000000.0 -0.2934044046075006 0.026824765180308994
1940000000.0 -0.31472522110245504 0.07595935917287011
1960000000.0 -0.3027508285681505 0.18526427466885648
1980000000.0 0.08752503040085374 0.37307912128178067
2000000000.0 0.3329617454985625 0.24071828957685906
2020000000.0 0.27394169574487615 -0.336539010726487
2040000000.0 -0.4044069203962401 -0.20151136322062602
2060000000.0 0.2597357068625121 0.37694990212582835
2080000000.0 0.12340580729162476 -0.43927131275868136
2100000000.0 -0.44650333171817735 -0.02836428499221649
2120000000.0 0.03235439612382165 0.42807112595020375
2140000000.0 -0.27165460042591094 0.3050631698752931
2160000000.0 0.018553228477370183 0.38640316372466177
2180000000.0 -0.0731460492995354 0.3550143681771581
2200000000.0 -0.21660949700441465 0.271109328188024
2220000000.0 -0.31831202675656417 -0.1015302441603849
2240000000.0 -0.22496413703539672 -0.25405178091267533
2260000000.0 -0.26916923012315846 -0.21914979070105794
2280000000.0 -0.35565454625820236 0.05418566497803682
2300000000.0 0.3182100176201102 0.20630855321949965
2320000000.0 -0.11899526550959409 -0.38850457381346504
2340000000.0 0.05013944159577791 0.43437058726024247
2360000000.0 0.05583851812151199 -0.47241237258814156
2380000000.0 -0.022033765280450073 0.5166473796774391
2400000000.0 -0.018934161365070586 -0.5639101465747768
2420000000.0 0.32078856640375464 0.5203457196701916
2440000000.0 -0.575561772791855 -0.31411511335939574
2460000000.0 0.6841056104523952 -0.10792588335525938
2480000000.0 -0.6179410326532291 0.37027937449189835
2500000000.0 0.6754396140653014 -0.2996874420177642
2520000000.0 -0.7422587757994401 0.0887385336190828
2540000000.0 0.7284145963869109 0.1699285938338841
2560000000.0 -0.3151541474582675 -0.6714072431530664
2580000000.0 -0.37861442821532454 0.6191603299674004
2600000000.0 0.7009204532212902 0.026530065233654972
2620000000.0 -0.28932585846963826 -0.6028123941103319
2640000000.0 -0.4594423411510835 -0.43219579909192124
2660000000.0 -0.24301994791406176 0.5332754714485894
2680000000.0 0.5013172615248943 0.20261413907141063
2700000000.0 0.14062119901941827 -0.47766256987349154
2720000000.0 -0.43241531880824524 0.14496349503496295
2740000000.0 0.35531814591059196 0.21955184854409743
2760000000.0 -0.23906108439689053 -0.30050422360053086
2780000000.0 0.34859607276145693 0.06920163002280423
2800000000.0 -0.13771168554521024 0.30109672230599066
2820000000.0 -0.3100487973396633 -0.026220829553458933
2840000000.0 0.024540269757379995 -0.29337947812207377
2860000000.0 0.24047114777934658 0.15333080528607976
2880000000.0 -0.2773198916435019 0.03527336051807687
2900000000.0 0.27585614774849826 -0.011734277412978961
2920000000.0 0.10986605023208915 -0.25567155290355903
2940000000.0 -0.2297290642674596 -0.1678486764210317
2960000000.0 -0.2035183429085088 -0.2057430245343724
2980000000.0 -0.053438473694696995 -0.29474881369819816
3000000000.0 0.17928154693853815 -0.25229895944141967
3020000000.0 0.3100471878560817 -0.05743503749648522
3040000000.0 0.22849672170863178 0.22010404022376875
3060000000.0 -0.24909434728815205 0.1959050424328382
3080000000.0 -0.12074299110449287 -0.28737683198073616
3100000000.0 0.30039190302434843 -0.04309818274489839
3120000000.0 -0.1255533814327669 0.26151147609518455
3140000000.0 -0.04718080304502532 -0.2715248126726453
3160000000.0 -0.23031405929475046 0.11186252983609044
3180000000.0 0.1957164430812522 -0.12997965361038807
3200000000.0 -0.1943169619113292 0.08047874022720794
3220000000.0 0.18241498213614513 0.02702900583866356
3240000000.0 0.06369879511626474 -0.14633068008784295
3260000000.0 -0.05224757967913921 -0.12702879036369813
3280000000.0 0.045424861444376206 0.1079602785126036
3300000000.0 -0.07980277919426124 0.05164854888484355
3320000000.0 0.06185262580918245 -0.03439721854430152
3340000000.0 0.024509387277517496 0.03821281602908676
3360000000.0 0.025852637778860387 -0.004277172527304668
3380000000.0 -0.0035664407068786326 0.026170901786154926
3400000000.0 0.034577457196761814 0.01987199948103961
3420000000.0 0.03120058127185289 0.043653058023300176
3440000000.0 0.05258993483348509 0.026698167283197467
3460000000.0 -0.05002130510758699 0.022269993879163442
3480000000.0 -0.0469366443453545 0.020713860466654414
3500000000.0 -0.05588544916097457 0.009596363435031332
3520000000.0 0.027509226053506346 -0.07151422735967235
3540000000.0 -0.07920301546313407 0.06314777792036363
3560000000.0 -0.06997530204664762 -0.1027678645150265
3580000000.0 -0.06329988079771795 -0.13149980774352701
3600000000.0 -0.1405728889447101 0.09222825440029804
3620000000.0 0.17725389859414561 0.0204042121554017
3640000000.0 0.142284668961938 -0.1193614471903348
3660000000.0 0.042772207530045014 -0.18264785491575142
3680000000.0 0.1551039734538476 -0.09921334403390532
3700000000.0 0.044197189483173055 0.17248366244726823
3720000000.0 0.04634798227790397 -0.1672243814733157
3740000000.0 -0.10824172117217318 0.13027430207523702
3760000000.0 -0.01766157273895362 0.1689544629089481
3780000000.0 0.14940353351497382 -0.08102965689358524
3800000000.0 -0.1705376846868115 -0.007518619156843087
3820000000.0 0.12192911564708056 -0.11803549595287363
3840000000.0 -0.10234570189318579 0.1251784384820562
3860000000.0 0.1448986523941832 0.04856978539714364
3880000000.0 0.09860903219267397 0.10773175776402823
3900000000.0 -0.09674211624355955 0.10017391435961144
3920000000.0 0.022862089370093205 -0.141779723068361
3940000000.0 0.054090488748914554 -0.14394173445869043
3960000000.0 0.0690335609257081 0.15420301945134537
3980000000.0 0.09901115532461438 -0.15052699959857846
4000000000.0 -0.1738071187179239 0.047603558305718496
