! Created with skrf (http://scikit-rf.org).
# Hz S RI R 50.0 
!freq ReS11 ImS11
400000000.0 -0.7170542565362319 0.48643281560154683
420000000.0 0.24327213224219804 0.8310184547823747
440000000.0 0.7783851521964962 -0.3107285335304748
460000000.0 0.21586261474380672 -0.7569865801556229
480000000.0 0.5944528580234774 -0.41034017526675737
500000000.0 -0.41984545753087 -0.3761080085253044
520000000.0 -0.43260603608807435 -0.22907884426548863
540000000.0 0.0011408973900533005 -0.4101043568579239
560000000.0 -0.3340558875366105 -0.15272845089735562
580000000.0 0.12482594401408671 -0.29471451062183457
600000000.0 -0.04917246886084755 -0.32450494291242493
620000000.0 0.2845343633161292 -0.17305735113520684
640000000.0 -0.3206232775190082 0.13625752234997282
660000000.0 -0.2529073734659369 0.2888589758570358
680000000.0 0.13088966595967777 -0.3814894068834729
700000000.0 -0.42573717113535464 0.10598807043559005
720000000.0 0.07229542497989462 0.4333056069072873
740000000.0 -0.4187213426267899 0.16863364918457216
760000000.0 0.11231468630657604 -0.41693181109032107
780000000.0 0.27356613902290644 0.2934614750749083
800000000.0 -0.125483954532387 0.34132069516388913
820000000.0 -0.22426575584436667 0.20321065913064698
840000000.0 0.21325884713823867 -0.13878250178032944
860000000.0 -0.04265270093773012 -0.19889593227235983
880000000.0 -0.09065249974670193 -0.12218978119448654
900000000.0 0.037646206242670364 -0.06666479229381495
920000000.0 -0.01069284064378718 0.042974067294251954
940000000.0 0.01679525684099862 0.047612415281963104
960000000.0 -0.053110203566640965 -0.025555697590506164
980000000.0 -0.061812704591613137 -0.011495484429906189
1000000000.0 0.005505387218009306 -0.06759534755764998
1020000000.0 0.052179789785066454 0.04851177594904318
1040000000.0 -0.036645982175011194 -0.06952085579264744
1060000000.0 0.10164770704796594 0.05130309552292142
1080000000.0 0.12083453310827105 -0.06473199139452014
1100000000.0 -0.030418826286916032 -0.1601030709726702
1120000000.0 -0.16800296665472306 -0.10338690275320205
1140000000.0 0.23998273702143155 -0.022439138548650994
1160000000.0 -0.015875451924990444 -0.2836711536379598
1180000000.0 -0.28815124270214626 0.15399891628211052
1200000000.0 -0.35074288868294984 -0.06386313223817115
1220000000.0 -0.057306669010221745 -0.38622100227952066
1240000000.0 0.22850385502498285 0.3413677442279638
1260000000.0 -0.31675005529782935 -0.30168877283721646
1280000000.0 0.32867318763371073 0.3001138252569289
1300000000.0 -0.059737629508670176 -0.4474634600086015
1320000000.0 -0.38486671854654136 0.21334279298898268
1340000000.0 -0.42240886430613167 -0.08367350622935571
1360000000.0 -0.24788598312870785 -0.3436287588014516
1380000000.0 -0.2857359485556629 -0.30974354728977904
1400000000.0 -0.34194703336915994 0.21550789898461828
1420000000.0 -0.3065984616592168 0.23588508628403482
1440000000.0 0.02256564996122456 0.36516822717400904
1460000000.0 0.03219040215355431 0.33770394529917924
1480000000.0 0.22325358387759903 0.2280085560242512
1500000000.0 0.2917988616597277 -0.05539427622364287
1520000000.0 -0.27119454601174037 0.030677848464544664
1540000000.0 0.21138800661315846 0.13705989610763006
1560000000.0 0.20034504369171058 0.09277672270473984
1580000000.0 0.13070007056684238 -0.13834659578640313
1600000000.0 0.12383223852786335 0.09703914203766324
1620000000.0 -0.1147667352835305 0.0336362423944372
1640000000.0 0.029579684940006387 0.08418872984934128
1660000000.0 0.030308566445352392 -0.056607630736972114
1680000000.0 0.03444954196738462 -0.012135948046644208
1700000000.0 -0.015712132683228366 0.004234137952511448
1720000000.0 -0.023216690056776953 -0.0035566409891599707
1740000000.0 0.03711534077663889 -0.020404219802758083
1760000000.0 0.048605536478901035 -0.0423587727945846
1780000000.0 -0.04861591392206919 -0.07399754607791625
1800000000.0 0.03976242320195129 -0.11454262829309768
1820000000.0 0.14776749943068368 0.02162388120142242
1840000000.0 -0.1592445850336212 0.07372187566484581
1860000000.0 0.17106675896273793 -0.1049139092197886
1880000000.0 0.13695502655601088 -0.17700175876804644
1900000000.0 0.14305924310297133 -0.21083860225466805
1920000000.0 0.014713372996467194 -0.28597439076473585
1940000000.0 0.12351426665948328 -0.2958886707056519
1960000000.0 -0.2276155922508334 -0.27620423005719275
1980000000.0 -0.29814771654198724 0.25074195742433325
2000000000.0 0.23085413795001453 0.3501892261587837
2020000000.0 0.2670853439258295 -0.3528049833734762
2040000000.0 -0.43633360349678224 0.14210787337655595
2060000000.0 0.4313236644150915 0.16500327565991924
2080000000.0 -0.1532248440638177 -0.43176009107231395
2100000000.0 -0.33682228394185765 0.2917904337522872
2120000000.0 0.17485436313743483 0.3872652461405604
2140000000.0 -0.2701605828322723 0.29573880789726004
2160000000.0 -0.28020638784788093 0.257018233574299
2180000000.0 -0.3421395024920546 -0.10734926768725628
2200000000.0 -0.16708933227433126 -0.3027445603580282
2220000000.0 0.27737010180431826 -0.1948589519552861
2240000000.0 0.2236709143064474 -0.25961663306885874
2260000000.0 0.03613017560851301 -0.3506735683614948
2280000000.0 -0.34855501820278306 -0.10541514827080879
2300000000.0 0.13037219383407128 0.35923664212016776
2320000000.0 0.015505208264511126 -0.40722455446483147
2340000000.0 -0.23709946875686064 0.36405276820046195
2360000000.0 0.3248362471693263 -0.33944740770505194
2380000000.0 -0.47971289056973143 0.1785953208064961
2400000000.0 0.5392211586437188 -0.1496302243371981
2420000000.0 -0.4959153016549064 0.3540504082645786
2440000000.0 0.22890032628158316 -0.6150706820150348
2460000000.0 0.16082554071935562 0.6766265621297601
2480000000.0 -0.4588526637566871 -0.5627550188967532
2500000000.0 0.5291735789623873 0.5262056705924163
2520000000.0 -0.45406040955796223 -0.6054506238410392
2540000000.0 0.16563945620663068 0.7401793559673939
2560000000.0 0.36520904134843035 -0.6579171462469623
2580000000.0 -0.7327004347708924 0.08849889434850183
2600000000.0 0.4844633305527508 0.5245200403973517
2620000000.0 0.13203056012471667 -0.6701432476959726
2640000000.0 -0.12252539268610439 -0.6337804230612469
2660000000.0 -0.48853592248669353 0.3482280755225032
2680000000.0 0.4176527443586213 0.36685413472735956
2700000000.0 0.1707750912281501 -0.48470332009292977
2720000000.0 -0.37797147296161177 0.28222454209922454
2740000000.0 0.4312506940598519 -0.032298778124395265
2760000000.0 -0.38227107124589876 0.1087150987093188
2780000000.0 0.07701032516338611 -0.3561077106220669
2800000000.0 0.2652930381586632 0.20564500412242123
2820000000.0 -0.2066287868390553 0.2342863294980963
2840000000.0 -0.08022630497338382 -0.2821243464992047
2860000000.0 0.1524287212224004 0.23745344756015227
2880000000.0 -0.15631453586386976 -0.22934472100065606
2900000000.0 -0.04886750862289974 0.27003338178388375
2920000000.0 0.1215510499164957 0.25320355846917975
2940000000.0 0.2818456895945554 -0.07097683417009876
2960000000.0 0.22510029470097545 -0.19730204172195343
2980000000.0 0.05111259790214386 -0.3078830411217577
3000000000.0 0.022197018407825064 -0.31722110499339673
3020000000.0 0.03377353746434818 -0.3206428009124803
3040000000.0 0.24796043233116713 -0.2021745334309732
3060000000.0 0.22644340653650225 0.22053132425555702
3080000000.0 -0.30347001637697546 0.046783980637555116
3100000000.0 0.20506529942410442 -0.21489697131065283
3120000000.0 -0.03495414732112925 0.28117754654568716
3140000000.0 -0.04010244136621781 -0.26596524437275515
3160000000.0 -0.18696435283765453 -0.16680147302278475
3180000000.0 0.07354866680891872 0.22159087806207828
3200000000.0 0.049693058845218706 -0.20785431270734084
3220000000.0 -0.14191097879475537 0.1312473517973002
3240000000.0 0.11668095273677187 -0.12754062793083126
3260000000.0 -0.03244457367017422 0.14693591022021002
3280000000.0 -0.026144576858844755 0.12162274913641295
3300000000.0 0.09246481986525934 0.028840368220296748
3320000000.0 0.059076450391590936 0.034920188716925475
3340000000.0 0.010218823518326484 0.03758585156237824
3360000000.0 0.0008112609174629949 -0.02440239716978819
3380000000.0 0.020204287148329742 -0.023565583916344172
3400000000.0 0.03470932893964979 0.0271313440231665
3420000000.0 -0.025042345713925548 0.04679984581589566
3440000000.0 0.015201931134629702 -0.04871855327995672
3460000000.0 -0.019611037934445866 0.038127943452973725
3480000000.0 -0.025842058098303 0.033636314790829375
3500000000.0 0.01983086890694136 -0.05668771879077681
3520000000.0 0.08758496239591482 -0.015171113388415581
3540000000.0 0.010253936592320996 -0.1152539398041518
3560000000.0 -0.12624838510879963 0.05547017230955211
3580000000.0 0.036364364762442696 0.15007191046718202
3600000000.0 0.13188327533192448 -0.10784197047540271
3620000000.0 -0.12121805578290921 -0.12553882642689249
3640000000.0 -0.1253690746757495 -0.1266546722813941
3660000000.0 0.0998385116795654 -0.14665053840387715
3680000000.0 0.04015007891540659 0.17187525936599057
3700000000.0 -0.02641506238040231 -0.17170329376120627
3720000000.0 -0.16695544266126297 0.054056096116601685
3740000000.0 0.09785218977450054 -0.1487572450843547
3760000000.0 -0.15922538877937154 0.08813993646140561
3780000000.0 -0.056277595083007496 -0.17235005194715727
3800000000.0 0.17359471382168692 -0.03326182874012526
3820000000.0 -0.02084530749476398 0.16636853396905288
3840000000.0 0.15259867534492652 0.011725527782582556
3860000000.0 0.10212330723608748 0.09813123227072719
3880000000.0 -0.038301182586034536 -0.13283661009669565
3900000000.0 0.029813215942375272 0.13638321953974478
3920000000.0 -0.1380031054234136 -0.058361392848791105
3940000000.0 0.1318641096035615 0.10299308221204909
3960000000.0 0.1433553378257156 0.11422934068434976
3980000000.0 -0.18907056733108746 0.026027553529916623
4000000000.0 0.18294676269709803 -0.027509439399936362
