! Created with skrf (http://scikit-rf.org).
# Hz S RI R 50.0 
!freq ReS11 ImS11
400000000.0 0.1826248732157449 0.8544022032144502
420000000.0 0.628366090724222 0.5880641003852455
440000000.0 0.7806424334589345 -0.2749561902778489
460000000.0 0.14997098154993224 -0.7750747530930089
480000000.0 0.45927060031795247 -0.5408825004541725
500000000.0 0.16424979161132436 -0.5387338877290623
520000000.0 -0.0032314900143481915 -0.48712289348137244
540000000.0 0.4141353619516885 -0.09129941335164433
560000000.0 -0.3291460831095474 -0.12114032968791252
580000000.0 -0.29162075092623996 0.1557308085212955
600000000.0 0.2698638501012814 0.18150216225765606
620000000.0 0.01898050148252588 -0.34721046572698094
640000000.0 -0.2482847128132721 -0.2886531475892581
660000000.0 -0.40009197421268644 0.002557918025044299
680000000.0 0.01798141460183103 -0.4305942934133363
700000000.0 0.3686328525693571 0.2583389092780322
720000000.0 -0.01135292045760885 -0.44854222486465295
740000000.0 0.3987758563187899 -0.18467203583573755
760000000.0 -0.3710073655455177 -0.1866065809280465
780000000.0 0.30457901582496427 -0.23204035275973775
800000000.0 -0.21705152671753217 0.2723296172300231
820000000.0 -0.19542670355689457 0.2171242156843417
840000000.0 0.0807887227038955 0.22402183802631134
860000000.0 -0.12206542703552466 0.16402451126316214
880000000.0 -0.14223016948365375 0.027984057649940417
900000000.0 0.045108616335164047 -0.06499374099892483
920000000.0 0.017602297304839018 -0.04446621900120983
940000000.0 0.0008795387241942959 -0.042405545485994366
960000000.0 -0.05252723555166556 0.017519045815017266
980000000.0 0.05048373472474624 -0.038012235001720095
1000000000.0 -0.06131756183067002 -0.031030918950836744
1020000000.0 0.06402057392735842 0.04598459922259746
1040000000.0 -0.03240345620997544 0.0742394059994823
1060000000.0 -0.10847295366652798 0.042772423359883245
1080000000.0 -0.09223534051379027 0.09491100075870033
1100000000.0 -0.11897572744951518 -0.1039518310562126
1120000000.0 -0.14807419230576774 -0.11800324321227997
1140000000.0 0.11112419284103528 0.21030872152571084
1160000000.0 0.28152236552869614 -0.0392113723516044
1180000000.0 -0.08626719322401673 -0.31901243331555484
1200000000.0 -0.3028899566494353 -0.2070545541263059
1220000000.0 0.12624749449614905 -0.3765817558065394
1240000000.0 0.3298787211997923 0.2582514196171332
1260000000.0 -0.4223589583200185 -0.12593279176686223
1280000000.0 0.44465859378520123 0.08034287178026778
1300000000.0 -0.407376526839944 -0.19724054163027527
1320000000.0 -0.09127070289366271 0.4300906466875484
1340000000.0 -0.25478066259735516 0.3378015640493671
1360000000.0 -0.30063576386306945 -0.28005522579161424
1380000000.0 -0.07850933888162177 -0.4007903616651865
1400000000.0 -0.0864989270267898 -0.3852704989097004
1420000000.0 -0.05899513531440204 -0.3777059637016734
1440000000.0 -0.23197486217814248 -0.2845799821136523
1460000000.0 -0.3430268236772526 -0.04919888216867105
1480000000.0 -0.12218160614645122 0.30436071017567845
1500000000.0 0.2171370412162489 -0.21559471061301552
1520000000.0 -0.258592095041539 -0.11203230503234966
1540000000.0 -0.18929135238754424 -0.17088661332952723
1560000000.0 -0.20205028989853357 0.08481960936612641
1580000000.0 0.08104402956378512 0.16933921543121305
1600000000.0 -0.13769122592105656 0.06955052935790794
1620000000.0 -0.112016540658742 0.014931449486783977
1640000000.0 0.06966466893026191 -0.047974246918317885
1660000000.0 0.04733835453364436 -0.03607288400652034
1680000000.0 0.019244848127982012 -0.023827285288019133
1700000000.0 -0.018237581448490053 -0.0031856278330262716
1720000000.0 0.03264319127727566 0.006490214648640331
1740000000.0 0.036471837113521186 -0.04157534992284426
1760000000.0 -0.04999641520615545 0.054114795814554174
1780000000.0 0.06652022509725725 -0.06547428427002298
1800000000.0 0.1021831382942774 0.06223575950756051
1820000000.0 0.0019459946165694348 -0.13338558020337266
1840000000.0 0.12244128029877335 -0.09894604253232366
1860000000.0 0.17747456905095335 -0.015735886071976235
1880000000.0 -0.15183484195429867 0.14442138091420811
1900000000.0 -0.21111652135665843 -0.12793231644907285
1920000000.0 -0.2648631053432867 0.11968030723728783
1940000000.0 0.008175266762729316 0.3364157285672182
1960000000.0 0.2794397648274242 -0.25268081038023965
1980000000.0 -0.3080854575232696 0.26791994390100526
2000000000.0 0.4328587065917736 0.03788034948811158
2020000000.0 -0.433850792247329 -0.1285873597434668
2040000000.0 0.23831181815608224 0.39082451572945714
2060000000.0 0.03719043108636928 -0.4542228990199725
2080000000.0 -0.40599740528128453 0.17386347830873214
2100000000.0 -0.0833810103805911 0.4167602079123797
2120000000.0 0.04750033217971827 0.4003710236043957
2140000000.0 -0.33618658301647375 -0.1820856324768372
2160000000.0 -0.07044689426694536 -0.3569015047732825
2180000000.0 0.30713992078113994 -0.1723409583483061
2200000000.0 0.32678277411979756 0.10783738313878367
2220000000.0 0.2912395809019015 0.18868334791382216
2240000000.0 0.1439359359244619 -0.3190995089830756
2260000000.0 -0.28047486155160106 -0.21753355533822497
2280000000.0 -0.1026092505729484 0.3467146388612158
2300000000.0 0.36869882723402797 -0.062440658591906506
2320000000.0 -0.32097885719222535 -0.22747153919454136
2340000000.0 -0.18943884249666942 0.37321463696650237
2360000000.0 0.4538476757692864 -0.007761754994069098
2380000000.0 -0.3734671344061149 -0.3312546562793334
2400000000.0 0.2327523168923449 0.4976486119767546
2420000000.0 -0.3165864731102094 -0.5124931329606003
2440000000.0 0.5781271418915244 0.3047438822041574
2460000000.0 -0.688076103585879 0.10306031077604126
2480000000.0 0.5911290039822534 -0.4269417248816236
2500000000.0 -0.5398181057392318 0.5223708623875816
2520000000.0 0.5884126866149397 -0.48600678874036934
2540000000.0 -0.7367087763026184 0.20979436274578467
2560000000.0 0.7091831485022124 0.27509352062105863
2580000000.0 -0.18499321671886032 -0.7225845688581187
2600000000.0 -0.385063456491715 0.6107529753090181
2620000000.0 0.6868595952618769 -0.07602150899570218
2640000000.0 0.5774216985045668 -0.30720288505252136
2660000000.0 -0.5179783338280725 -0.32344399582205036
2680000000.0 0.005539059729457206 0.5672599400564314
2700000000.0 0.30186546614959675 -0.4285661270814886
2720000000.0 -0.3582955569974322 0.31914551958393006
2740000000.0 0.280266917911765 -0.33462764277405355
2760000000.0 -0.07400329330860836 0.3883992879537971
2780000000.0 -0.2580125851983046 -0.25180152116183274
2800000000.0 0.32383274676616286 -0.053636515577077
2820000000.0 -0.17476377224381265 0.2484123229527571
2840000000.0 0.14697134290434574 -0.24753931150027855
2860000000.0 -0.19009713280513874 0.20783861915627883
2880000000.0 0.25854105432478824 -0.11035388657838516
2900000000.0 -0.269249057094315 -0.09756281328126812
2920000000.0 -0.02403253285783904 0.2974811071600052
2940000000.0 0.25948936860411037 -0.16880072492144096
2960000000.0 -0.16649233354952997 -0.2701623592408532
2980000000.0 -0.32275558863748555 -0.04255402015300901
3000000000.0 -0.32504352266184894 0.05058138505923755
3020000000.0 -0.3225339585007355 -0.060673591714894844
3040000000.0 -0.07781798580422547 -0.31199525722512417
3060000000.0 0.26655073516092515 0.16732793696478054
3080000000.0 -0.3029623618761446 -0.03417407799698494
3100000000.0 0.2892883165400992 0.05270316235578216
3120000000.0 -0.18094963419648125 -0.21686952775532367
3140000000.0 0.06782101897126531 0.263041184212513
3160000000.0 0.16536592572055778 -0.1978062078262692
3180000000.0 -0.05965477107020333 -0.237954797671839
3200000000.0 0.1324456573099295 0.18713811779946832
3220000000.0 -0.18502337256395485 0.09669987770580032
3240000000.0 -0.1439233966984674 -0.11705206620178944
3260000000.0 -0.03879003098453934 -0.15136827903644698
3280000000.0 -0.10464510887569102 -0.06478565655510886
3300000000.0 -0.07512588743848983 0.04534589381295096
3320000000.0 -0.05033436633918025 0.014994402016519713
3340000000.0 0.007934520958785609 -0.019918443122424564
3360000000.0 -0.008708612352906858 0.009573995989913608
3380000000.0 -0.021368882108840685 -0.016886386638891134
3400000000.0 0.005646889694159718 0.03608116731890674
3420000000.0 -0.009886052342053172 0.03987615273805127
3440000000.0 0.03368450257770573 0.01801187256245933
3460000000.0 0.038221024563035964 0.008479318410053109
3480000000.0 -0.01896544266072822 0.051144653808605056
3500000000.0 -0.061128308776824965 -0.050446315154355936
3520000000.0 -0.027494883566698457 -0.10278168342077725
3540000000.0 -0.08072128379867495 0.09775778803091188
3560000000.0 0.07320915525735303 0.11923090874588958
3580000000.0 -0.009834520480002265 0.15049901730094395
3600000000.0 -0.07413327162546843 0.14361120108356434
3620000000.0 -0.16146775676313513 -0.03718149351300887
3640000000.0 0.15893965134374116 -0.06122147772274153
3660000000.0 -0.12009713697589447 0.13098514304786596
3680000000.0 0.08880037833294496 -0.16010395087774823
3700000000.0 0.1196501759690666 0.14532485058929898
3720000000.0 -0.12992718530374994 0.14413643753296504
3740000000.0 -0.12385711482508054 0.15140739405388276
3760000000.0 -0.18139585940617206 -0.06447655488340497
3780000000.0 0.039837254252156305 -0.17928633402651162
3800000000.0 0.0892062641358668 0.14554718365617145
3820000000.0 0.15319159945418015 -0.026894278051860027
3840000000.0 0.019108648751754217 0.14058226140566923
3860000000.0 0.1363433901635439 -0.020574823871950473
3880000000.0 -0.1443173331676855 -0.01471176626070127
3900000000.0 -0.15428474194707184 -0.023973025666946954
3920000000.0 0.1261957652055586 0.11244056274018181
3940000000.0 -0.05554056600006187 0.17170111057003082
3960000000.0 0.15781213731388669 0.10142030608536344
3980000000.0 -0.18399543950396477 -0.023815271749574613
4000000000.0 0.032844844300674865 0.1696972756883943
