! Created with skrf (http://scikit-rf.org).
# Hz S RI R 50.0 
!freq ReS11 ImS11
400000000.0 0.22700411339752521 0.8436582051883768
420000000.0 0.6328359329076911 0.5823853521227675
440000000.0 0.7679930528081209 -0.30774838515892594
460000000.0 0.16069189414259746 -0.7717038250358556
480000000.0 0.45822649419582256 -0.5422202477397833
500000000.0 0.16125662942134983 -0.5405229410489113
520000000.0 0.0012683422191679145 -0.48607019045285643
540000000.0 0.42331072824812704 -0.03770907104518373
560000000.0 -0.33279708839307554 -0.11006850639982209
580000000.0 -0.2522464658640995 0.21426968687121525
600000000.0 0.25444800035181614 0.20126477089836844
620000000.0 0.022851438050983268 -0.34653483256700346
640000000.0 -0.23509410102950884 -0.3005188515350382
660000000.0 -0.39658677541698584 0.05582849312454724
680000000.0 -0.01665622599624772 -0.4304004181648813
700000000.0 0.328151302713933 0.30864275868055074
720000000.0 -0.02138943944795287 -0.4487658336124497
740000000.0 0.3941065237163162 -0.19453700257403203
760000000.0 -0.3693942973385457 -0.1906267114664631
780000000.0 0.31666822820910195 -0.215503802814192
800000000.0 -0.2219739000319125 0.268970915160711
820000000.0 -0.211731774771864 0.20082713298853314
840000000.0 0.06683882593662953 0.2277354626985658
860000000.0 -0.08254012223287181 0.18736084067615563
880000000.0 -0.1443075196058746 0.013866224500265078
900000000.0 0.07226563736264392 -0.033465967294899535
920000000.0 0.024175860222052335 -0.04150578220884444
940000000.0 -0.021425636811451584 -0.03688316812250666
960000000.0 -0.03794552829704538 0.04019292519750754
980000000.0 0.06242592601975281 0.011229049494484057
1000000000.0 -0.02580731453641101 -0.06404609196410731
1020000000.0 0.054325806341315654 0.056414442849347386
1040000000.0 -0.045460958527403436 0.06647499157117222
1060000000.0 -0.11421828306822247 0.023406450333193773
1080000000.0 -0.08137516634586849 0.10427776457523781
1100000000.0 -0.13382376287930678 -0.08420854221879165
1120000000.0 -0.15758932080898133 -0.10478993880309394
1140000000.0 0.12343844923924285 0.20395171696182576
1160000000.0 0.27304419177152445 -0.08107321095400816
1180000000.0 -0.10304772124942344 -0.3139940808665094
1200000000.0 -0.29227882906209424 -0.22191917770622124
1220000000.0 0.14750890886719023 -0.369288438009494
1240000000.0 0.3489779698592289 0.23182698739851412
1260000000.0 -0.4204108105066728 -0.131863360485271
1280000000.0 0.43636868408656043 0.11685171494010471
1300000000.0 -0.3822960330737068 -0.2413918517473896
1320000000.0 -0.11470407059028574 0.42424818782563634
1340000000.0 -0.2575303489167691 0.3352480550405323
1360000000.0 -0.2938613874235805 -0.286887009496957
1380000000.0 -0.0679594688689149 -0.402508179099728
1400000000.0 -0.07820440942008954 -0.3873021262698097
1420000000.0 -0.05311065817514447 -0.37864397192343596
1440000000.0 -0.21837326547918767 -0.2950274366904483
1460000000.0 -0.34094398509775287 -0.06282218131858401
1480000000.0 -0.1501961196601596 0.2922484300924852
1500000000.0 0.2199586581720858 -0.2132290277809987
1520000000.0 -0.24754534592018976 -0.13446488740504564
1540000000.0 -0.17270540402517176 -0.1884731694767642
1560000000.0 -0.20318508969467836 0.08309324085617707
1580000000.0 0.044540612213041446 0.18223167131309195
1600000000.0 -0.1479711154602774 0.043079007730754904
1620000000.0 -0.11277650011817425 -0.0008004261516915976
1640000000.0 0.06952256659706006 -0.047708948002009643
1660000000.0 0.04829734325549471 -0.03411532752795132
1680000000.0 0.0015043390719789074 -0.030366065175026408
1700000000.0 0.00410792149605707 0.01812403099756434
1720000000.0 0.0119435685305762 0.031452109156299195
1740000000.0 0.02231144289972195 -0.05098545600650553
1760000000.0 -0.05590158375494649 0.047814798787367316
1780000000.0 0.07110380704475384 -0.06061639663152048
1800000000.0 0.08492344155797638 0.08357781444447174
1820000000.0 0.015277411176878213 -0.13203626915499073
1840000000.0 0.12655900229859507 -0.09221380247466177
1860000000.0 0.17583169897507236 -0.023119790868798916
1880000000.0 -0.15920854520485775 0.13490780140445408
1900000000.0 -0.21276821740405702 -0.12439806788474835
1920000000.0 -0.2597340364840804 0.1303840659934182
1940000000.0 -0.0012027245040095442 0.3363090754591965
1960000000.0 0.2750406541922199 -0.25783662763812787
1980000000.0 -0.30417287967022827 0.27225926541692386
2000000000.0 0.43390688225902646 0.01999891162429068
2020000000.0 -0.4413992483858945 -0.09951337160625291
2040000000.0 0.2350870040100403 0.3928538775788341
2060000000.0 0.0016911220793168508 -0.45593715276087665
2080000000.0 -0.420188224647514 0.1377589306483112
2100000000.0 -0.07320786609393065 0.4186754967340272
2120000000.0 -0.0009996799671818679 0.4030211815196153
2140000000.0 -0.30732946827065155 -0.22774020067282336
2160000000.0 -0.05240368509157182 -0.36034843380525117
2180000000.0 0.3256019594390426 -0.13466006517807655
2200000000.0 0.31093536928733906 0.14758321037964925
2220000000.0 0.2787878948715514 0.20688216752248664
2240000000.0 0.14148999632316928 -0.32083145558463033
2260000000.0 -0.2781579869758069 -0.22142030900013915
2280000000.0 -0.114170421190239 0.3433801659639624
2300000000.0 0.371704058196268 -0.04599627498641469
2320000000.0 -0.28783230679508043 -0.26799734506237255
2340000000.0 -0.2457691574055474 0.3384550993495604
2360000000.0 0.4490511359892818 0.06508764997750141
2380000000.0 -0.32573559383011597 -0.3785239828782905
2400000000.0 0.15774834032174886 0.5263096345355213
2420000000.0 -0.23811189458893395 -0.5532547012985837
2440000000.0 0.5346961428179751 0.3757388032819086
2460000000.0 -0.6953007829120129 0.029900889778870544
2480000000.0 0.5989907996861588 -0.4153398320866792
2500000000.0 -0.5400671227322377 0.5219771671907282
2520000000.0 0.6027092852022835 -0.4672862682051376
2540000000.0 -0.7441750549788647 0.18015581968519695
2560000000.0 0.6939845581991884 0.31182796541815855
2580000000.0 -0.16000241070353108 -0.7291630906046823
2600000000.0 -0.3950876576042023 0.6050390702259979
2620000000.0 0.691501098732853 -0.04120708187547766
2640000000.0 0.5813396250991532 -0.30422522111475375
2660000000.0 -0.5266047356768206 -0.3142637247033144
2680000000.0 -0.010515496470811186 0.5688166600259698
2700000000.0 0.3040149036889859 -0.42979799703809585
2720000000.0 -0.36800857251845326 0.31098328815759346
2740000000.0 0.289466596076582 -0.3298901193687209
2760000000.0 -0.10304006981896946 0.38397860102924114
2780000000.0 -0.22973623110758887 -0.2800729847869269
2800000000.0 0.32916598511041556 -0.00881060650900286
2820000000.0 -0.21113595150616152 0.21951248004294416
2840000000.0 0.19581858849643385 -0.21081006893716703
2860000000.0 -0.2171232798428936 0.18044030003204956
2880000000.0 0.2647705369628525 -0.09478345690731191
2900000000.0 -0.259317149730168 -0.12157425589981481
2920000000.0 -0.07452413867764197 0.28888512939131483
2940000000.0 0.27659687161235397 -0.13937156845788515
2960000000.0 -0.2213814355014384 -0.22691118641826244
2980000000.0 -0.3252944289745388 -0.012517234949977408
3000000000.0 -0.3225787784929701 0.06466910384402591
3020000000.0 -0.3281031125323577 -0.019007302978890767
3040000000.0 -0.06481895801282062 -0.31557667637659753
3060000000.0 0.28795948511229164 0.1294935027835345
3080000000.0 -0.30517926289877184 -0.011061684885137498
3100000000.0 0.293150105917986 0.03144680632312665
3120000000.0 -0.19213788794868103 -0.2069724285273228
3140000000.0 0.11259699549764939 0.2476242781420272
3160000000.0 0.13834251598313646 -0.21818726929132964
3180000000.0 -0.07891337846711986 -0.2325269972626314
3200000000.0 0.1578800440058607 0.1669531349063986
3220000000.0 -0.18501597918749474 0.09670499604570308
3240000000.0 -0.14016302898087424 -0.12200359690766763
3260000000.0 -0.04096986426109182 -0.150506132106932
3280000000.0 -0.11681031450503464 -0.03720805606488565
3300000000.0 -0.001477894718806219 0.08796671358265952
3320000000.0 -0.02997064281999696 0.04276679121995808
3340000000.0 -0.021445221522932118 0.0007868248986163757
3360000000.0 -0.011548966191614357 0.006564960837119976
3380000000.0 0.005087240606600736 -0.026474926247623994
3400000000.0 -0.019948697438577957 0.03142092977389886
3420000000.0 -0.025314562473129056 -0.03165612064752996
3440000000.0 -0.03548302683953939 0.012460797358730007
3460000000.0 -0.02136456322268134 0.03324661163643963
3480000000.0 -0.052805082835474325 -0.015839755198364096
3500000000.0 -0.004141624046427466 -0.07892816727777961
3520000000.0 -0.010134526651831139 -0.10581295009805607
3540000000.0 -0.11188636981766911 0.058915753920344156
3560000000.0 0.06087182979712435 0.12533630779776794
3580000000.0 0.00800254170715486 0.14928826212798652
3600000000.0 -0.0493283658306509 0.1523949912975793
3620000000.0 -0.16506495906872476 -0.006192489358095801
3640000000.0 0.15978873002189092 -0.057548834635686164
3660000000.0 -0.11950969879268147 0.13133653085296337
3680000000.0 0.07159884618652 -0.1683811713449429
3700000000.0 0.13642888641323134 0.12947143219768648
3720000000.0 -0.08379495860156992 0.17517461982911917
3740000000.0 -0.09011143242001146 0.17351072519872326
3760000000.0 -0.18852400337013311 -0.039635413774361104
3780000000.0 0.0007228874460676707 -0.18364395211140577
3800000000.0 0.1499234580892495 0.08089905423573968
3820000000.0 0.13519597467784922 -0.07685945543686673
3840000000.0 0.03887806165551425 0.13645627767678528
3860000000.0 0.13703133749341675 -0.016747635402041702
3880000000.0 -0.14374883911442835 -0.025181335713347682
3900000000.0 -0.1436091429894172 -0.0632858661069531
3920000000.0 0.09157270737026091 0.14346209269111956
3940000000.0 -0.09650215137191676 0.153552990422455
3960000000.0 0.12283984527938785 0.1450522409190661
3980000000.0 -0.1371507800971366 -0.12850526120546582
4000000000.0 -0.1256789896666429 0.12351978387715255
