! Created with skrf (http://scikit-rf.org).
# Hz S RI R 50.0 
!freq ReS11 ImS11
400000000.0 -0.7104314002248246 0.49526308909788275
420000000.0 0.24959659219018676 0.8292969651339154
440000000.0 0.7772906978595837 -0.3140824570221538
460000000.0 0.2211222680712124 -0.75565048279627
480000000.0 0.5906450500416234 -0.41560618948875333
500000000.0 -0.40606045188113915 -0.39094837203228555
520000000.0 -0.43350799028148723 -0.22714325065162164
540000000.0 0.008903850987347606 -0.4102138977131563
560000000.0 -0.34664302558372434 -0.11982152285082472
580000000.0 0.12404856727927498 -0.29488356340271366
600000000.0 -0.04286642508310165 -0.3257524639178906
620000000.0 0.276629100291453 -0.18554586156430838
640000000.0 -0.3293363986743368 0.11197845752461635
660000000.0 -0.2602893587556936 0.28204560699347825
680000000.0 0.12929723717539304 -0.38212097345745666
700000000.0 -0.4243711847025757 0.11009169520927288
720000000.0 0.07091147957956995 0.4332915439679626
740000000.0 -0.42089591280315547 0.16365801885836465
760000000.0 0.10891679282725787 -0.4178484284359758
780000000.0 0.2698341823673787 0.29683765944115725
800000000.0 -0.12062057280181276 0.34306090614427526
820000000.0 -0.22864007244177137 0.19861608013160995
840000000.0 0.20893390864527617 -0.14500761879991095
860000000.0 -0.038030214251148144 -0.19991048944834905
880000000.0 -0.09665869779386214 -0.1178907219583079
900000000.0 0.035296826647058105 -0.0681540926048587
920000000.0 -0.01934888865464704 0.039886945871978254
940000000.0 0.0157032934795433 0.0481264489740048
960000000.0 -0.054457956303379546 -0.02280596174203302
980000000.0 -0.062339037770839045 -0.00862857540289269
1000000000.0 -0.006001011648493319 -0.06762282564203219
1020000000.0 0.053446673386888625 0.04717457356086189
1040000000.0 -0.03638849795699867 -0.06961369591472774
1060000000.0 0.09941244978760802 0.055496602604331854
1080000000.0 0.11951640210275051 -0.06716730591668689
1100000000.0 -0.03647262303039964 -0.15878505673058257
1120000000.0 -0.16856136211495326 -0.10228221052580493
1140000000.0 0.23449961793806112 -0.05586923222553147
1160000000.0 -0.020529509414387352 -0.2834115268945584
1180000000.0 -0.2828458430825846 0.1634202732211256
1200000000.0 -0.35293054213458064 -0.051196110736081796
1220000000.0 -0.06520574438437168 -0.38511957896214655
1240000000.0 0.2306157496336127 0.3400409946771644
1260000000.0 -0.3169273229836877 -0.30136830341301685
1280000000.0 0.32864471424398095 0.3002285833296148
1300000000.0 -0.024218650395119716 -0.45071694325570777
1320000000.0 -0.38885686221923493 0.20637302131675456
1340000000.0 -0.42321553740946893 -0.07954116922080559
1360000000.0 -0.24547561267714652 -0.34531355282948795
1380000000.0 -0.28116164954998296 -0.3140742744804295
1400000000.0 -0.3422270039457357 0.21503861986813294
1420000000.0 -0.3108554792594757 0.23016410060290496
1440000000.0 0.02582208610497927 0.36472094666672833
1460000000.0 0.025502750511534476 0.33828852372491053
1480000000.0 0.19156258890403635 0.25481263893878187
1500000000.0 0.2911626926527748 -0.05764023687115835
1520000000.0 -0.272774060296654 0.014358661703702485
1540000000.0 0.22036531199322484 0.12210687400623738
1560000000.0 0.20480024165018448 0.08218263576133927
1580000000.0 0.15693072190584076 -0.1080775690960306
1600000000.0 0.12435548644199074 0.09670812933914914
1620000000.0 -0.10987731180777621 0.04726407952373
1640000000.0 0.03649001340543863 0.08139741950409632
1660000000.0 0.026595653737562005 -0.05854151933339161
1680000000.0 0.034575088907161995 -0.011867570348524167
1700000000.0 -0.008327019633564348 -0.014479944602872698
1720000000.0 -0.022535495759412077 0.005899207244147964
1740000000.0 0.03594858992982239 -0.021919147536631035
1760000000.0 0.044727741521822253 -0.046542836032135264
1780000000.0 -0.04744052292709301 -0.0747929847969553
1800000000.0 0.05390960143870005 -0.10831963827020287
1820000000.0 0.1482465541450469 0.019412340351278368
1840000000.0 -0.1612172672210869 0.0694382733923443
1860000000.0 0.16922812529500225 -0.10890014555482262
1880000000.0 0.13528342811565697 -0.17845159701626298
1900000000.0 0.1519135744732242 -0.20473709637435084
1920000000.0 0.01780846899232222 -0.2857074511156522
1940000000.0 0.12303276792561459 -0.29621273525785247
1960000000.0 -0.2237022711333174 -0.27928466728435686
1980000000.0 -0.30997941523335615 0.2360947675121843
2000000000.0 0.20811198337680675 0.3641436235483121
2020000000.0 0.25337870597521156 -0.3623463075596167
2040000000.0 -0.43547569981156725 0.14347880622647657
2060000000.0 0.4432472272193044 0.1288023220754047
2080000000.0 -0.14136862565798036 -0.4358733857975091
2100000000.0 -0.34339884649744856 0.28388553080474566
2120000000.0 0.20229226251464555 0.3736836483608772
2140000000.0 -0.27917062456500397 0.2871852755421811
2160000000.0 -0.2714917075148932 0.26619361023348215
2180000000.0 -0.3459476611390863 -0.09467662652089437
2200000000.0 -0.1693054568309985 -0.30141156115741585
2220000000.0 0.2418809038636784 -0.23670864211123663
2240000000.0 0.23517894815460735 -0.2496598137019526
2260000000.0 0.04914058070356888 -0.34890017263921824
2280000000.0 -0.3397276948941189 -0.13046965383124898
2300000000.0 0.12547173358824984 0.3610197711924449
2320000000.0 0.03283350211524249 -0.4061015854332114
2340000000.0 -0.24032305792043915 0.3620224149725319
2360000000.0 0.34122448303095904 -0.32263209609708754
2380000000.0 -0.48617923777220157 0.1600295973698754
2400000000.0 0.5417856581301959 -0.14001961989363185
2420000000.0 -0.49685210739344793 0.35287332194721305
2440000000.0 0.22161750005161193 -0.6177653078859756
2460000000.0 0.1727537746842499 0.6734564146731075
2480000000.0 -0.48905077848909356 -0.5363284589513848
2500000000.0 0.5219161685215441 0.5329549839830655
2520000000.0 -0.46477962879317003 -0.5973603799931295
2540000000.0 0.11574778154953995 0.7496863993261419
2560000000.0 0.3652541218905279 -0.6582693086320547
2580000000.0 -0.7375066453002428 0.03766147707498199
2600000000.0 0.5037347868259597 0.5058415972774155
2620000000.0 0.10215126704633941 -0.6753010513833767
2640000000.0 -0.13306072774610525 -0.6319159388306801
2660000000.0 -0.4954575897313336 0.33891548745131334
2680000000.0 0.4333793665190189 0.3486678193552716
2700000000.0 0.17030701614050664 -0.4851239154487082
2720000000.0 -0.37619024943969065 0.28466128366639154
2740000000.0 0.4307369455930706 -0.040317689865848105
2760000000.0 -0.3795058293169513 0.11895520353096425
2780000000.0 0.06424208509273348 -0.3588650774095433
2800000000.0 0.26947421780987174 0.200391749321703
2820000000.0 -0.1979573939231513 0.24196221665423837
2840000000.0 -0.08743380484954304 -0.279958509441263
2860000000.0 0.16344656482427508 0.2301090302040215
2880000000.0 -0.157545424039193 -0.22892524196054037
2900000000.0 -0.04496922842620967 0.27054114194992696
2920000000.0 0.10266585182658611 0.2619957247774677
2940000000.0 0.28141155829446474 -0.0733380311479805
2960000000.0 0.22329852543008732 -0.19882514518351344
2980000000.0 0.10446923737967927 -0.2938875367443059
3000000000.0 0.05588139088020127 -0.3130817861487555
3020000000.0 0.06114446328491938 -0.3163906025849064
3040000000.0 0.25326694621861007 -0.19532830347253868
3060000000.0 0.2362675312194677 0.21034144610954222
3080000000.0 -0.30134688707294693 0.05909927517709328
3100000000.0 0.15550991411689988 -0.25360039022540515
3120000000.0 -0.0667030579078617 0.27520909889505124
3140000000.0 -0.0428769175485866 -0.26570853590341775
3160000000.0 -0.19342158944121682 -0.1598491301464158
3180000000.0 0.07623221312918706 0.22041008429261597
3200000000.0 0.04951917132127359 -0.20820296357986925
3220000000.0 -0.1271411675923115 0.14643885858111585
3240000000.0 0.11520123169917369 -0.12876869430464072
3260000000.0 -0.03459572996932768 0.14653816415372808
3280000000.0 -0.049218671295189614 0.11458918929626977
3300000000.0 0.09364196804803508 0.024994319397204964
3320000000.0 0.060636788329764546 0.032285562020922476
3340000000.0 -0.010058745526227613 0.03721440523092791
3360000000.0 -0.006079249902200506 -0.022915989265074575
3380000000.0 0.029979736190720425 -0.008623217718278887
3400000000.0 0.04382794900276792 0.004661594314112785
3420000000.0 -0.025386408314327723 0.046695118731764254
3440000000.0 0.03365622492470448 -0.03791809347920589
3460000000.0 0.008750966530596408 0.042930712468557584
3480000000.0 0.005200886357928315 0.04275322308575095
3500000000.0 0.033241523734294086 -0.049801370224024685
3520000000.0 0.07907980319304612 -0.0406693277086396
3540000000.0 -0.0049311289805267396 -0.11579094672471918
3560000000.0 -0.13357137724303422 0.032625383716724285
3580000000.0 0.037626953094688616 0.14977827909213198
3600000000.0 0.09314599962492787 -0.1437690318062893
3620000000.0 -0.12838586046115916 -0.11877229835983132
3640000000.0 -0.13031304779448966 -0.12184878537643792
3660000000.0 0.09596444475606143 -0.1495519153043622
3680000000.0 0.03991531348595003 0.17195463477426723
3700000000.0 -0.031500113420717006 -0.1708699247143615
3720000000.0 -0.162104051939521 0.0661842042344854
3740000000.0 0.08217883466629046 -0.1577286785808872
3760000000.0 -0.15301774333086335 0.09778028051209083
3780000000.0 -0.06817451293053382 -0.16807949688529858
3800000000.0 0.17164844960956588 -0.04087130182813869
3820000000.0 -0.0039707037607389535 0.167328793580889
3840000000.0 0.15183309027622602 -0.017769101167130506
3860000000.0 0.10022723638336582 0.10044817759504616
3880000000.0 -0.06144209424103324 -0.12373957065453041
3900000000.0 0.04613587616575494 0.13212414035653985
3920000000.0 -0.14591472901650343 -0.03346488139250317
3940000000.0 0.13691116074006238 0.09729952162143746
3960000000.0 0.156530077058709 0.0951399238124526
3980000000.0 -0.18099383745083783 0.0604987119789807
4000000000.0 0.18119088428043165 -0.038193894272406756
