! Created with skrf (http://scikit-rf.org).
# Hz S RI R 50.0 
!freq ReS11 ImS11
400000000.0 -0.6973448179644927 0.5147378886801568
420000000.0 0.2710845355977053 0.8220645702701089
440000000.0 0.7912321345270111 -0.2761909097230778
460000000.0 0.19134915942764796 -0.7648858835738946
480000000.0 0.5533119303240069 -0.4632994789173613
500000000.0 -0.36292747285170657 -0.42888123663611044
520000000.0 -0.4207855166437671 -0.25399917533764993
540000000.0 -0.09166238443425977 -0.39997686083259953
560000000.0 -0.33639730897859543 -0.14366252625872614
580000000.0 0.16760109935208825 -0.2716461097360596
600000000.0 -0.06798974403085545 -0.3231444259908088
620000000.0 0.2390337357837926 -0.2305890498184242
640000000.0 -0.33339639915018443 0.09805190768861352
660000000.0 -0.28195906110881636 0.2598049884983552
680000000.0 0.1488080915618481 -0.37503036160759684
700000000.0 -0.4152333606745403 0.1400205803800171
720000000.0 0.03366768492850238 0.4376012633432482
740000000.0 -0.43150966751833025 0.1347088554115928
760000000.0 0.0880847911506248 -0.4229631685798401
780000000.0 0.24385127045414512 0.31847792784537193
800000000.0 -0.12677795327806254 0.3412195371945734
820000000.0 -0.22959678812009118 0.19797928050992575
840000000.0 0.21163619953336935 -0.14172696233405957
860000000.0 -0.04227151905437841 -0.19936044567682856
880000000.0 -0.10547021904131139 -0.1104411670954915
900000000.0 0.01516377614573213 -0.07525439053780009
920000000.0 -0.0040388732420497215 0.044100822154663995
940000000.0 0.016458958809592358 0.04835259046649727
960000000.0 -0.05548440020582895 -0.022174207560271993
980000000.0 -0.06327661778782856 0.0008874281476803283
1000000000.0 0.01871836817220465 -0.06547572701497963
1020000000.0 0.040822848985296104 0.05853796664441248
1040000000.0 -0.030859934433781978 -0.07205980827834566
1060000000.0 0.09616051696883003 0.060580265348634914
1080000000.0 0.11615962935799393 -0.07252568329519204
1100000000.0 -0.04782278447725181 -0.15546228136935597
1120000000.0 -0.18481038441108033 -0.06889539531006464
1140000000.0 0.23220061706408301 -0.06291196293546875
1160000000.0 -0.04927622300930396 -0.2797919830845172
1180000000.0 -0.28104560394208067 0.16618241931483102
1200000000.0 -0.3545614820167876 -0.036417267285173985
1220000000.0 -0.07542322587025013 -0.3830513996702187
1240000000.0 0.22896533641202949 0.3410940023320013
1260000000.0 -0.32237757560613517 -0.2957240241879878
1280000000.0 0.3204033852507624 0.3091463035034172
1300000000.0 -0.031995491978080666 -0.4504496865509343
1320000000.0 -0.3904050499421105 0.20360585501076567
1340000000.0 -0.4219753966137438 -0.08704863582443878
1360000000.0 -0.24873844069002513 -0.3431494718226707
1380000000.0 -0.2795708351581191 -0.31564138613287346
1400000000.0 -0.3457037569554338 0.20959769428686031
1420000000.0 -0.3066541452669038 0.23547074064615703
1440000000.0 0.026391399252370454 0.364560168456841
1460000000.0 0.032840889645395784 0.33729195720252914
1480000000.0 0.19106976139038703 0.2551785495160121
1500000000.0 0.2914249990935285 -0.054869080473162725
1520000000.0 -0.2694860855477516 0.041292066473151645
1540000000.0 0.21642155884030517 0.12839124819731662
1560000000.0 0.2024041171257054 0.08768012785489267
1580000000.0 0.1496377027127179 -0.11786060474113735
1600000000.0 0.0903187975902323 0.1288534685199404
1620000000.0 -0.11941798585080594 0.010771861807582488
1640000000.0 0.04715831042166772 0.07628506145859132
1660000000.0 0.0214427520413383 -0.06100117539632634
1680000000.0 0.03664885518953387 0.0022870853687553647
1700000000.0 0.01506469044102295 -0.007646768534599932
1720000000.0 -0.02296081072714078 -0.0006890102586553325
1740000000.0 0.028505045052226282 -0.030803227136275493
1760000000.0 0.04678122098813074 -0.04461125961881715
1780000000.0 -0.042846855278128614 -0.0779810746876976
1800000000.0 0.07313242886253982 -0.09621594572908071
1820000000.0 0.1461189480632643 0.03339971979167599
1840000000.0 -0.16231329849736337 0.06865427579549362
1860000000.0 0.1702964375413421 -0.108082846162474
1880000000.0 0.11938069605690577 -0.1904096120268995
1900000000.0 0.14044179303237844 -0.21299241285787665
1920000000.0 0.00930701520468483 -0.2863580661497168
1940000000.0 0.10953759244713718 -0.3014130337005809
1960000000.0 -0.23477192839970293 -0.2695822928916618
1980000000.0 -0.30687473205247606 0.23922836306228593
2000000000.0 0.21419138123448372 0.35996182510966096
2020000000.0 0.2682097820437735 -0.35099866742739305
2040000000.0 -0.4399053866401975 0.12856073678795268
2060000000.0 0.4227049014435993 0.18467866809638142
2080000000.0 -0.14221573755347858 -0.43544447686335147
2100000000.0 -0.3456952953443706 0.28125698330205007
2120000000.0 0.2072467229988416 0.3710387635318829
2140000000.0 -0.24378478483201124 0.3179007576459076
2160000000.0 -0.23955533133063756 0.29543250108551095
2180000000.0 -0.3575213925729253 -0.027450926649155532
2200000000.0 -0.21371031926137418 -0.2717124520174703
2220000000.0 0.23806903922485195 -0.24128845758480258
2240000000.0 0.1986719517262481 -0.2793399835460159
2260000000.0 0.016355001600094614 -0.3522999636021632
2280000000.0 -0.3462934357747041 -0.11390105092821823
2300000000.0 0.1395658197951807 0.35638125130899984
2320000000.0 0.038486594815190886 -0.40624640096017084
2340000000.0 -0.2535663947050705 0.35373168667337856
2360000000.0 0.34217590260340536 -0.32252850566026453
2380000000.0 -0.4860016766892828 0.162326863381777
2400000000.0 0.5351121754789362 -0.16492625527198596
2420000000.0 -0.4874016822977067 0.3660611129077629
2440000000.0 0.20708825027176686 -0.6225581419968831
2460000000.0 0.20570477204354268 0.6637715833382135
2480000000.0 -0.5171459935444706 -0.5084621349941036
2500000000.0 0.5843628580128154 0.46246395922124117
2520000000.0 -0.5070922820264482 -0.5610623168037695
2540000000.0 0.1998316615196253 0.7309130476016112
2560000000.0 0.30777673486553847 -0.6861053806116841
2580000000.0 -0.730887779429708 0.10017466918590232
2600000000.0 0.5418817164163645 0.46374761382708163
2620000000.0 0.11683152651248105 -0.6724893718791966
2640000000.0 -0.17847528811152927 -0.619935301421322
2660000000.0 -0.46259748707047227 0.38161946968015964
2680000000.0 0.41771830461149645 0.36639639284562137
2700000000.0 0.16247179195366762 -0.4874178721044466
2720000000.0 -0.36866155721195637 0.29432157446925966
2740000000.0 0.43137033142068926 -0.031560479489571386
2760000000.0 -0.38407426474430667 0.10353339834711055
2780000000.0 0.08167867204664063 -0.35546938560398095
2800000000.0 0.26515771586881304 0.20549352907414276
2820000000.0 -0.20913747658571727 0.23171865257851726
2840000000.0 -0.07236077550688591 -0.28427203882676294
2860000000.0 0.14462601262761715 0.24230695162372942
2880000000.0 -0.16086469369612938 -0.22564276235304803
2900000000.0 -0.07319289918530672 0.2638500432988474
2920000000.0 0.1111624626951335 0.25784287239017517
2940000000.0 0.2766842859296121 -0.08687966960916803
2960000000.0 0.21387137835200232 -0.2077742731686299
2980000000.0 0.07586797858919508 -0.30186706925671025
3000000000.0 0.02292591642804966 -0.3179912320893787
3020000000.0 0.005266207926387597 -0.32226532670099406
3040000000.0 0.2427378655414641 -0.20810366852110487
3060000000.0 0.21632300806700394 0.23025087462437327
3080000000.0 -0.29078949767573287 0.0991079873183536
3100000000.0 0.1023043133989984 -0.27902427715715655
3120000000.0 -0.03429920341034228 0.28118506939520754
3140000000.0 -0.04681979552754973 -0.26534550311264427
3160000000.0 -0.22193337823553666 -0.11747302505408176
3180000000.0 0.10875191782174494 0.20667292507476645
3200000000.0 0.021923911611884065 -0.21305901935911567
3220000000.0 -0.10520058890096412 0.16333893208672115
3240000000.0 0.09852632996461652 -0.14207098138505944
3260000000.0 -0.02962444338585279 0.14767794246429278
3280000000.0 -0.06572314358888 0.10634113347877994
3300000000.0 0.09266140785591517 0.03018951717466472
3320000000.0 0.044116895957211584 0.05329729787903783
3340000000.0 -0.03856371462782596 0.0033572403612280918
3360000000.0 0.02011668418002458 -0.009955087060441669
3380000000.0 0.030324175575572935 0.0004016812974885222
3400000000.0 0.0434576358713623 -0.003381928446297484
3420000000.0 -0.005429526577602567 0.052688375424717354
3440000000.0 -0.0006877471428563548 -0.050926830191386725
3460000000.0 0.025402646640635643 0.03541351853766604
3480000000.0 0.019842344897381705 0.037391814093644796
3500000000.0 0.014497113812178919 -0.056954862179397436
3520000000.0 0.07473589266213757 -0.04647973968567471
3540000000.0 -0.021767339613030946 -0.11292380945691849
3560000000.0 -0.13313678188732678 0.03106052312265277
3580000000.0 0.020690411384275742 0.15215744179215854
3600000000.0 0.08085220599580346 -0.15111560364131027
3620000000.0 -0.14490473510640642 -0.09885530723578154
3640000000.0 -0.12988086106947933 -0.1219327148921474
3660000000.0 0.07542887872641381 -0.16110881253933557
3680000000.0 0.0751627374836492 0.16009454390731553
3700000000.0 -0.06797140186006216 -0.160268894811892
3720000000.0 -0.1458383584182708 0.09787498422526836
3740000000.0 0.06026282333792514 -0.16744118060289906
3760000000.0 -0.14594177333514616 0.10845874810579323
3780000000.0 -0.071855110624858 -0.16681811685087158
3800000000.0 0.17422743432056353 -0.031386403056002675
3820000000.0 -0.022860798823102546 0.166616308657288
3840000000.0 0.15157811462660595 0.027512345049188248
3860000000.0 0.10406110718429999 0.09759324172945763
3880000000.0 -0.05290479821381307 -0.12862210341138897
3900000000.0 0.060631812825855384 0.1267002836650227
3920000000.0 -0.14816936781203457 -0.024145493627471676
3940000000.0 0.13164672952852635 0.1035176043191173
3960000000.0 0.1345112739689456 0.124729928964104
3980000000.0 -0.18888007407230537 0.02962763879080648
4000000000.0 0.1838449120660508 -0.025439801558289687
