! Created with skrf (http://scikit-rf.org).
# Hz S RI R 50.0 
!freq ReS11 ImS11
400000000.0 -0.7138425335630022 0.48860828675218904
420000000.0 0.28320003190250365 0.8179789765140135
440000000.0 0.7703619236901839 -0.3299895259337606
460000000.0 0.21259565869804423 -0.7572444062788612
480000000.0 0.596779931707716 -0.4067703931748668
500000000.0 -0.4190496859036938 -0.37832731512271145
520000000.0 -0.45348519526678377 -0.18208035704898773
540000000.0 0.0188688774558306 -0.41031167427132204
560000000.0 -0.3503076311489151 -0.10900205502277568
580000000.0 0.12567414394180854 -0.29428738307834224
600000000.0 -0.01680642240678472 -0.32703193628772587
620000000.0 0.30055428002499385 -0.14211969745505962
640000000.0 -0.3356134913280064 0.08946080236748724
660000000.0 -0.2579412870923097 0.2818331537645168
680000000.0 0.11266680310480996 -0.3865427754715116
700000000.0 -0.41253215123446696 0.14620197624223716
720000000.0 0.04789394915204148 0.43647248392482296
740000000.0 -0.4172845249881068 0.17316230918859507
760000000.0 0.11510123954515177 -0.41606473785464015
780000000.0 0.2674924796618744 0.2992828150991889
800000000.0 -0.1455558807665448 0.33400611840653255
820000000.0 -0.23582512187242466 0.1909836847305756
840000000.0 0.20927644890400698 -0.14493341306460933
860000000.0 -0.04344472002814543 -0.19908047288319497
880000000.0 -0.10959342469906377 -0.1067769603107058
900000000.0 0.008206021863476555 -0.07654496967801899
920000000.0 0.01800059329777749 0.04092172602472782
940000000.0 0.028292227830946044 0.04284002382872742
960000000.0 -0.059320770502015806 0.009619885109009347
980000000.0 -0.0628100364633493 0.008749980986708343
1000000000.0 -0.017622237187950477 -0.06586025364977545
1020000000.0 0.06773754634269384 0.02273950052458776
1040000000.0 -0.03635791798736952 -0.06929038196558555
1060000000.0 0.09919177679185785 0.05566775032031978
1080000000.0 0.11762227651924068 -0.0701106513097196
1100000000.0 -0.047337062533386084 -0.15597669403140302
1120000000.0 -0.17958093943846154 -0.08119256466484305
1140000000.0 0.2284591827347289 -0.07649253142865352
1160000000.0 -0.01209877096712974 -0.28350593558677395
1180000000.0 -0.26890119850520894 0.18451101859030225
1200000000.0 -0.35357679114082974 -0.04485649575093268
1220000000.0 -0.0719720258751912 -0.38389440405063197
1240000000.0 0.23347434949376242 0.3383625285772153
1260000000.0 -0.3225243338966053 -0.2949003861452141
1280000000.0 0.32594386938517483 0.30387262246554053
1300000000.0 -0.033456970154161325 -0.4506125717580199
1320000000.0 -0.3830652375668574 0.21716329786565441
1340000000.0 -0.4210097924946679 -0.09185953303973814
1360000000.0 -0.2691669795483429 -0.3273556538967182
1380000000.0 -0.2984802215455792 -0.2978740750855037
1400000000.0 -0.32813839642258397 0.23645269286857645
1420000000.0 -0.2975921195503818 0.2472315056876813
1440000000.0 0.035864906903777444 0.36356707740326355
1460000000.0 0.04421949842639139 0.3360055208974018
1480000000.0 0.19036935805933175 0.2555562864431544
1500000000.0 0.28479277486194854 -0.08079790763562109
1520000000.0 -0.2705907544246623 0.030967020926920105
1540000000.0 0.19989916841621422 0.15248111233842576
1560000000.0 0.19094996645164078 0.11075852836749867
1580000000.0 0.14395130555481025 -0.12422188988306737
1600000000.0 0.09853162861732949 0.12237087018803218
1620000000.0 -0.11652511840058213 0.02721351669106579
1640000000.0 0.059781898110219174 0.06655443772174378
1660000000.0 0.001220593024726091 -0.06445959859460872
1680000000.0 0.03644943079084569 0.004917884743941127
1700000000.0 0.01616574470283058 0.006169088786330783
1720000000.0 0.022338493392393185 -0.004198371420461087
1740000000.0 0.010101563107928332 0.03984011601231723
1760000000.0 0.05828634875078511 -0.026196214226236275
1780000000.0 -0.0590580874876371 -0.06535655425187152
1800000000.0 0.047053579814568196 -0.11194133567333023
1820000000.0 0.15042070040570024 0.0066000356245230285
1840000000.0 -0.13786280831802458 0.1118794844833095
1860000000.0 0.14865883242977398 -0.1379788518730648
1880000000.0 0.06846922236970553 -0.2153537970322499
1900000000.0 0.1090389372291412 -0.23222795339817282
1920000000.0 -0.03531824946297495 -0.28525026556103283
1940000000.0 0.07970480049066554 -0.31104659877727414
1960000000.0 -0.23113012403757438 -0.27212434527085116
1980000000.0 -0.314202681465351 0.22900942556702364
2000000000.0 0.19245268381938943 0.37155312091303977
2020000000.0 0.31865125485738033 -0.30557683404081626
2040000000.0 -0.4526352618505654 0.06909703171559493
2060000000.0 0.4172694657425574 0.19454459647374944
2080000000.0 -0.11017741833292014 -0.44406747016633563
2100000000.0 -0.3524354062416682 0.2713870711104975
2120000000.0 0.1923902979983138 0.3788362423827534
2140000000.0 -0.21447852925283617 0.33811373944242507
2160000000.0 -0.2142482278544717 0.3139130916554227
2180000000.0 -0.3575494310548806 0.027038187995924834
2200000000.0 -0.2371906777885365 -0.2506007576061639
2220000000.0 0.1843867402271352 -0.28278406195935973
2240000000.0 0.19287047392887857 -0.2827875459369462
2260000000.0 0.032582434416810795 -0.3502932418161411
2280000000.0 -0.34610755058876486 -0.1137399258913745
2300000000.0 0.1518928073993908 0.35146513200228624
2320000000.0 0.04208276408441876 -0.4059042458954026
2340000000.0 -0.2469316996630731 0.3588538628582648
2360000000.0 0.3385309024129944 -0.3276458346056571
2380000000.0 -0.4730043922919537 0.19864185301507079
2400000000.0 0.5222806153801655 -0.2033034698489563
2420000000.0 -0.4562916700050624 0.40448679132430193
2440000000.0 0.16094126493593633 -0.6360600651940658
2460000000.0 0.25872358115350774 0.6450401419443255
2480000000.0 -0.5327048775367117 -0.49222709541951565
2500000000.0 0.5993631538642828 0.4420677637239108
2520000000.0 -0.5123075937248286 -0.5558182101729288
2540000000.0 0.20843890086453068 0.7282065031532545
2560000000.0 0.3113893011051752 -0.6839371812466419
2580000000.0 -0.7270727337303738 0.11677680445172657
2600000000.0 0.5707544357295782 0.42610016000987866
2620000000.0 0.039199700534213025 -0.6799103133828223
2640000000.0 -0.22850884047016864 -0.6016244730835622
2660000000.0 -0.4448043760253173 0.4009600675781481
2680000000.0 0.4617245512315851 0.30802871640252244
2700000000.0 0.173923650955512 -0.482484001175003
2720000000.0 -0.3930696790743683 0.2586621875230161
2740000000.0 0.43179149817652185 -0.01210430148329236
2760000000.0 -0.38725048390008837 0.08708047874872843
2780000000.0 0.06638902458315694 -0.3580937669099459
2800000000.0 0.26388147648510385 0.2067144020236191
2820000000.0 -0.20063039764826063 0.2392868890669736
2840000000.0 -0.0712932698056104 -0.284502240525104
2860000000.0 0.14052285806635448 0.24480345924557648
2880000000.0 -0.14253850002828594 -0.2371491942291992
2900000000.0 -0.1097595874534988 0.2507012655552719
2920000000.0 0.0900562637226432 0.26582036776497514
2940000000.0 0.28116913879961103 -0.07180038220034501
2960000000.0 0.23403048833677276 -0.1848872662904436
2980000000.0 0.08683505586124081 -0.29853097213698954
3000000000.0 0.012563901940155782 -0.31914034526445
3020000000.0 0.07125600276235261 -0.31449043083024664
3040000000.0 0.24312832901130715 -0.205970151332767
3060000000.0 0.24494452434988673 0.19819113685613582
3080000000.0 -0.2967124160766509 0.0755675802556196
3100000000.0 0.10483981310740191 -0.2774903901692463
3120000000.0 -0.05556025248051518 0.27678970060465596
3140000000.0 -0.06308141552377779 -0.2616575170956514
3160000000.0 -0.23180525434599827 -0.0971420928809369
3180000000.0 0.16056695421273415 0.16973834729285103
3200000000.0 -0.05031040435551817 -0.2075254468827737
3220000000.0 -0.05095879288940867 0.18740503964162158
3240000000.0 0.07023142380219527 -0.1584668501634746
3260000000.0 0.020769812769784016 0.14956208823463
3280000000.0 -0.05609661988641173 0.1128073787956525
3300000000.0 0.08054618249694334 0.055753933510402746
3320000000.0 -0.0002604310671967342 0.06964712008092211
3340000000.0 -0.016955697342483773 -0.0357760443567326
3360000000.0 -0.022230085666390367 0.006378565979389193
3380000000.0 0.00030653537957883704 0.028335502125320725
3400000000.0 0.03509072215618708 -0.02185205410196573
3420000000.0 0.04182845201279373 0.029658291944489407
3440000000.0 -0.0440259741347659 -0.023251409072455726
3460000000.0 0.03101013691512712 -0.03001484929196728
3480000000.0 0.008045448369388137 -0.04128779318816267
3500000000.0 -0.043424914022002076 -0.03853182533750455
3520000000.0 -0.000479327866195515 -0.08666212294363322
3540000000.0 -0.06047719085888153 -0.09589640139405653
3560000000.0 -0.1098912724542198 0.08000484946169677
3580000000.0 0.06776538999367411 0.1365318761000839
3600000000.0 0.06489338717873122 -0.15780974763242644
3620000000.0 -0.17262937575259682 -0.031770095912078404
3640000000.0 -0.16709199718283965 -0.06384733088219104
3660000000.0 0.00647790730308983 -0.1786617271472298
3680000000.0 0.11882297869705284 0.13157435315734392
3700000000.0 -0.118697114366089 -0.12733759831082994
3720000000.0 -0.11114688023425556 0.13511793326225363
3740000000.0 0.017684353777210032 -0.17707798715728182
3760000000.0 -0.10637723738435716 0.14609726029874123
3780000000.0 -0.11446408108982624 -0.1416910366868683
3800000000.0 0.16607508869228357 -0.06421965742608184
3820000000.0 -0.03177659947755246 0.16650447663062332
3840000000.0 0.15310097204631118 -0.024953096832768962
3860000000.0 0.1259840421896188 0.07056368940989856
3880000000.0 -0.11386015279241024 -0.08142636115351432
3900000000.0 0.10958782768373206 0.08750506504264985
3920000000.0 -0.13911091618809376 0.057335068740081055
3940000000.0 0.16674397740305283 -0.00044238986818408876
3960000000.0 0.18316829162400577 0.004006805856266883
3980000000.0 -0.1141519759379436 0.15357037486403605
4000000000.0 0.0741318558092941 -0.16919276893657978
