! Created with skrf (http://scikit-rf.org).
# Hz S RI R 50.0 
!freq ReS11 ImS11
400000000.0 0.1766565615163239 0.8560701840274599
420000000.0 0.6145362489601255 0.6036477403102717
440000000.0 0.7891860198897314 -0.24930730698427012
460000000.0 0.14469144998568326 -0.7771328056544134
480000000.0 0.4902683202723912 -0.5131797208133977
500000000.0 0.1528381047982975 -0.5426359036922346
520000000.0 -0.018344729769185292 -0.4846444099774418
540000000.0 0.424023676281112 -0.011084051911978246
560000000.0 -0.3415791354251167 -0.082105927898124
580000000.0 -0.23697382308054107 0.23019192657669613
600000000.0 0.2538871460970481 0.20220058995987314
620000000.0 0.05110152188660525 -0.3450751043631897
640000000.0 -0.22499817859525806 -0.30877673827783414
660000000.0 -0.3991559809471261 0.04174565009546827
680000000.0 0.06434662209665765 -0.42649291386805777
700000000.0 0.27317047692358515 0.357526022244703
720000000.0 -0.0194214830473611 -0.44926652055868865
740000000.0 0.41987745915224073 -0.12885988256190017
760000000.0 -0.37653388599221554 -0.1739911798759025
780000000.0 0.33379357186643727 -0.18645265953221032
800000000.0 -0.1866195524478361 0.2959269549760648
820000000.0 -0.19698497060579276 0.2160620552917889
840000000.0 0.10550959410212754 0.21324615984240705
860000000.0 -0.11389845092731257 0.17095322751641978
880000000.0 -0.1453357565636203 0.0008267344713350848
900000000.0 0.06629438992472998 -0.04454959598619913
920000000.0 0.044339989118372065 -0.01864003434140591
940000000.0 -0.008304941150512507 -0.041546139405952594
960000000.0 -0.05477204828774543 0.011657335033561034
980000000.0 0.061863770697849964 -0.013106334812137847
1000000000.0 -0.06919117293937928 -0.0057508821829400205
1020000000.0 0.07798125522918876 0.013563359183603067
1040000000.0 -0.012236928959244267 0.08026704746260899
1060000000.0 -0.10317640393371086 0.05513949525753637
1080000000.0 -0.09482100549952595 0.09212106083021228
1100000000.0 -0.12200281421724457 -0.10033467165404412
1120000000.0 -0.13533527960055625 -0.133037625825801
1140000000.0 0.06037882874417668 0.23001933117552767
1160000000.0 0.284201486407401 -0.0032367865216640515
1180000000.0 -0.02454406406930538 -0.32911092740357456
1200000000.0 -0.23150609829061702 -0.2842218167466266
1220000000.0 0.20126324352298855 -0.34141289097683003
1240000000.0 0.30561420023930874 0.2865868372539889
1260000000.0 -0.4078000891196414 -0.16763456009026498
1280000000.0 0.4367417138784646 0.11313669389472042
1300000000.0 -0.3704906490668867 -0.25913709110837396
1320000000.0 -0.07195889070628338 0.4334869902139142
1340000000.0 -0.23481478547670084 0.35227042499381866
1360000000.0 -0.3183798445626798 -0.25927602561628094
1380000000.0 -0.06934100748276541 -0.4029681018700885
1400000000.0 -0.13761837145816488 -0.37057733703395945
1420000000.0 -0.06198071213661379 -0.3774544288757912
1440000000.0 -0.22792598854825175 -0.2881395777261169
1460000000.0 -0.3423859722292634 -0.05638255730421578
1480000000.0 -0.1680548174557913 0.28239164213066925
1500000000.0 0.2521122188630688 -0.17444355406372591
1520000000.0 -0.21778060123955822 -0.1800417597788341
1540000000.0 -0.14814868851889168 -0.20811474556239548
1560000000.0 -0.21707866291316083 0.033511923222275246
1580000000.0 0.010831557684995014 0.18802284262950308
1600000000.0 -0.15153923617458714 -0.031399036896877515
1620000000.0 -0.10919908288966966 -0.02831678935639029
1640000000.0 0.08301047008283306 -0.013379967450056304
1660000000.0 0.04372085390676071 -0.039839470141333044
1680000000.0 -0.008168717629136887 -0.029558909812299947
1700000000.0 -0.005979212813330975 0.01798961392917744
1720000000.0 0.006985790586450572 0.03271792616119839
1740000000.0 0.05336383724985587 0.014192977282931011
1760000000.0 -0.06558205601887435 -0.032958047451614056
1780000000.0 0.09146120629787581 -0.017408688699239182
1800000000.0 0.05280905947978572 0.10591714034056858
1820000000.0 0.051905598864302425 -0.1226132718165055
1840000000.0 0.1243271427223201 -0.09545807430551947
1860000000.0 0.17182287670405316 -0.04437839060810245
1880000000.0 -0.13157360319287847 0.16200812469327142
1900000000.0 -0.2197168713853122 -0.11132726262566212
1920000000.0 -0.26085361890447334 0.1269808817158412
1940000000.0 0.025437084379658127 0.334754906119352
1960000000.0 0.25647742915319016 -0.27554001295016645
1980000000.0 -0.2831997314991243 0.2938016365003259
2000000000.0 0.43416029454811256 0.014905171510665192
2020000000.0 -0.43940944246481545 -0.10974781375423165
2040000000.0 0.24107510393261763 0.38985814086428106
2060000000.0 0.01735365956400318 -0.4561316841942899
2080000000.0 -0.41748373919091314 0.15100961623459377
2100000000.0 -0.10558015873744539 0.4135579694517675
2120000000.0 0.016169063626056406 0.40475182071337307
2140000000.0 -0.2808570041684826 -0.2625427253403117
2160000000.0 0.005317462524274648 -0.3652835692262722
2180000000.0 0.3431521012639998 -0.08451292033456789
2200000000.0 0.28534991746494615 0.19355815372404103
2220000000.0 0.23436620605671402 0.2577437872514247
2240000000.0 0.20652309127842192 -0.2834739552518493
2260000000.0 -0.2003818821013438 -0.2932704246778303
2280000000.0 -0.19457429659389477 0.30500078875088726
2300000000.0 0.3703861145106997 0.04814999454485063
2320000000.0 -0.2658718738875823 -0.2890202243134835
2340000000.0 -0.26199852983989635 0.3252994410025177
2360000000.0 0.45144253251536054 0.041766920151939946
2380000000.0 -0.34784438164895426 -0.35712902133548496
2400000000.0 0.22408566101333233 0.5008674628732332
2420000000.0 -0.3318315049299685 -0.5022686036736602
2440000000.0 0.5988330164383131 0.2615667644385879
2460000000.0 -0.6812108896667959 0.14347399825466206
2480000000.0 0.5360521829859364 -0.4954959557435514
2500000000.0 -0.4839487926876672 0.576365753333432
2520000000.0 0.5881064079342583 -0.488540115499703
2540000000.0 -0.7392050178276339 0.20635074050498975
2560000000.0 0.6924899004954164 0.31797443861641034
2580000000.0 -0.11119753628065318 -0.739594825684688
2600000000.0 -0.4846834829471574 0.5377868815485787
2620000000.0 0.6878972919932981 0.08568019144110214
2640000000.0 0.634713690509341 -0.16656433162668202
2660000000.0 -0.4308843682123266 -0.4357183792424965
2680000000.0 -0.13905971973787998 0.5508016481246052
2700000000.0 0.40230863591063654 -0.3382826324170187
2720000000.0 -0.4064353887725014 0.25773778269040265
2740000000.0 0.3207896348949788 -0.29793136001960374
2760000000.0 -0.12813665562242932 0.3753976295531451
2780000000.0 -0.22638563888457014 -0.2819094641983362
2800000000.0 0.3266077376917496 -0.04307915700413687
2820000000.0 -0.18348060336577615 0.24327207427138767
2840000000.0 0.16537735287731836 -0.23628557193969627
2860000000.0 -0.1924529170577091 0.2071277513362754
2880000000.0 0.2668998883659875 -0.09088640823320801
2900000000.0 -0.26791817693702935 -0.10177119474819625
2920000000.0 -0.039203942662728496 0.29578258961591974
2940000000.0 0.2772976691796109 -0.13873992654907988
2960000000.0 -0.194832189870261 -0.25169488967479015
2980000000.0 -0.318352038367561 -0.06764730036253014
3000000000.0 -0.32838693186022583 -0.007776013872638782
3020000000.0 -0.3100049479362206 -0.10793209125136118
3040000000.0 -0.005150937636746889 -0.3229616911552779
3060000000.0 0.3085974597029807 0.0688377699343233
3080000000.0 -0.30423727500439574 -0.020667459209053603
3100000000.0 0.2894251048595871 0.05792790359568951
3120000000.0 -0.23083380124638572 -0.16311380718695573
3140000000.0 0.09581823962641618 0.2540584478024553
3160000000.0 0.15771087839094414 -0.20381833927962323
3180000000.0 -0.0951796194481712 -0.22640706710791286
3200000000.0 0.17437856452258754 0.1493720288539844
3220000000.0 -0.16180126358663666 0.1324977873590347
3240000000.0 -0.1575325543201368 -0.09775946081032012
3260000000.0 -0.031174852578168596 -0.15315377412499262
3280000000.0 -0.11362348453500977 -0.048161571821573185
3300000000.0 -0.006840366804659301 0.08833992209088988
3320000000.0 -0.026504289645386113 0.046416092511346596
3340000000.0 -0.022492522876223664 -0.00015923641210037806
3360000000.0 0.01301944560260177 -0.002536817731288806
3380000000.0 0.024770576545961574 0.008089579373059876
3400000000.0 -0.024274184453268448 0.02689199040780196
3420000000.0 -0.0038642895820547698 -0.0402639037947316
3440000000.0 -0.031957493394095454 0.019531708169803628
3460000000.0 -0.013092060594617897 0.03652873167910817
3480000000.0 -0.036945933818662936 -0.04065296358875843
3500000000.0 -0.014617503827887261 -0.07780205950710578
3520000000.0 0.033320119302821166 -0.10095565570484973
3540000000.0 -0.12422200548597151 0.020153639822161847
3560000000.0 -0.027009566137159234 0.13703539147939603
3580000000.0 -0.06573411737871625 0.13560382446224006
3600000000.0 -0.13706782075397927 0.08397098459661037
3620000000.0 -0.12930310748977317 -0.10352223474939741
3640000000.0 0.16687771288346626 0.03287479573509419
3660000000.0 -0.1769856080928071 0.005991584687469556
3680000000.0 0.166648043766667 -0.07342562194561084
3700000000.0 0.04473171641708989 0.18132039464045602
3720000000.0 -0.1781728925776467 0.07507756385214506
3740000000.0 -0.18372739935425844 0.06380081843047475
3760000000.0 -0.13443569252375928 -0.13542619228444375
3780000000.0 0.07658828020176213 -0.16427035013467634
3800000000.0 0.055608245364751535 0.15875210752649338
3820000000.0 0.1517646200749083 -0.01026374025928387
3840000000.0 0.017326097198472213 0.13721234060310333
3860000000.0 0.13136280530415592 0.029363747895897633
3880000000.0 -0.12188973448957599 -0.07309239995978742
3900000000.0 -0.09713180503481686 -0.11785663213746332
3920000000.0 0.057294290341880896 0.15570549077837698
3940000000.0 -0.07276201811744062 0.16082487555561342
3960000000.0 0.16117349093630326 0.09042648272344961
3980000000.0 -0.18298935150782591 -0.01539475905650639
4000000000.0 0.06154045657729357 0.16045525428355553
