! Created with skrf (http://scikit-rf.org).
# Hz S RI R 50.0 
!freq ReS11 ImS11
400000000.0 0.22214216152368726 0.8452722534501181
420000000.0 0.6328858297423436 0.5820101588033952
440000000.0 0.7722305009353945 -0.2971320392943445
460000000.0 0.16593614123815761 -0.7711808519790202
480000000.0 0.45806367503853346 -0.5420997636334041
500000000.0 0.18572991620249552 -0.5317785157296692
520000000.0 -0.01840259140538381 -0.4864383250818838
540000000.0 0.40663861145268765 -0.12234140523343795
560000000.0 -0.3215544817167655 -0.1389549106044393
580000000.0 -0.2617291645038604 0.20286247660875067
600000000.0 0.2765155410241607 0.17102142502010867
620000000.0 0.026378180593704018 -0.3461778292023366
640000000.0 -0.24528719329390683 -0.29194999890186746
660000000.0 -0.3974272416852601 0.05221401673331391
680000000.0 -0.026224744132442437 -0.42977336269208016
700000000.0 0.3236744045912104 0.31330829026238977
720000000.0 -0.013431664529723516 -0.448698462984368
740000000.0 0.3944227380262777 -0.19415333116364253
760000000.0 -0.3697045660532241 -0.18892807974898201
780000000.0 0.3199215928420366 -0.21105276360485872
800000000.0 -0.21034005834503114 0.27825580380745885
820000000.0 -0.20440238703501257 0.20810034196979943
840000000.0 0.03182115053434175 0.23541551825599694
860000000.0 -0.09304585498395092 0.18229107654500623
880000000.0 -0.1438377703555406 0.017529546859255646
900000000.0 0.07598843715958879 -0.02381558248924402
920000000.0 0.02487144291051634 -0.04103598804648132
940000000.0 -0.02253869243024589 -0.036192016889069
960000000.0 -0.03721310790486656 0.04104608196151536
980000000.0 0.0633888743268411 0.0006226599036398818
1000000000.0 -0.03958842253948223 -0.05643494857391858
1020000000.0 0.06285110926382752 0.04664791267804136
1040000000.0 -0.03041546873817671 0.0746610642329884
1060000000.0 -0.11052808141085227 0.03690575754782137
1080000000.0 -0.09107032088668204 0.09617303696444311
1100000000.0 -0.1244337420583519 -0.09762149660717906
1120000000.0 -0.14995718947138528 -0.11568817070731181
1140000000.0 0.1165055947319646 0.20778727106206896
1160000000.0 0.2781035724434253 -0.060054126293327466
1180000000.0 -0.0782701013650915 -0.3209330204326777
1200000000.0 -0.26570980540944056 -0.2525414468078675
1220000000.0 0.16099382530187628 -0.36333706785917186
1240000000.0 0.33962129855686374 0.24489282560599646
1260000000.0 -0.419164032629165 -0.1366768455598388
1280000000.0 0.4405934224352568 0.10013186237372666
1300000000.0 -0.3823550243521195 -0.24150914543262153
1320000000.0 -0.11739879577083343 0.4236028570784424
1340000000.0 -0.25668182390803507 0.3361232228288163
1360000000.0 -0.3019010664435603 -0.27869437754717796
1380000000.0 -0.05687254266419533 -0.40431027347926274
1400000000.0 -0.07671217640944962 -0.38761564760696127
1420000000.0 -0.05627482742100035 -0.37821556913544974
1440000000.0 -0.22800361356249724 -0.28794256611697633
1460000000.0 -0.33964336852991617 -0.06938775315000656
1480000000.0 -0.12914459717466206 0.302131980157241
1500000000.0 0.20920262546781976 -0.2239949923272572
1520000000.0 -0.2533959549212415 -0.1234540490653647
1540000000.0 -0.17480011703931486 -0.18637981490759314
1560000000.0 -0.20658690999831372 0.07456983619352159
1580000000.0 0.06537898271033232 0.1760605209071644
1600000000.0 -0.14742059333819454 0.04496195811747144
1620000000.0 -0.11263818056633203 -0.003665197513864246
1640000000.0 0.07413137231445888 -0.04008065258802715
1660000000.0 0.047531540944518356 -0.035175034688352834
1680000000.0 -0.007997886717574237 -0.029443247471802023
1700000000.0 0.001369506641665961 0.018706735117794523
1720000000.0 0.023870028918421615 0.023942869045543744
1740000000.0 0.022801742900719252 -0.05077372231077861
1760000000.0 -0.06024659946178325 0.04224382952249085
1780000000.0 0.07919791665793917 -0.0495491384249114
1800000000.0 0.08866408669563342 0.0798339687020787
1820000000.0 0.014491925306810958 -0.1322017128148002
1840000000.0 0.13291224923772615 -0.0830562134274752
1860000000.0 0.17617549885958333 -0.021473023355434412
1880000000.0 -0.15995722768213566 0.13436657570071636
1900000000.0 -0.21225347502873543 -0.12494238696185889
1920000000.0 -0.2610768741518422 0.12733111939232902
1940000000.0 -0.0027692296683016772 0.3363619096626821
1960000000.0 0.27489415334743544 -0.25789329480423884
1980000000.0 -0.3032439664699373 0.2731908623946809
2000000000.0 0.43419443409852776 0.016332292207162705
2020000000.0 -0.4425348040216646 -0.09451905408954706
2040000000.0 0.2356877892917096 0.39272003920567194
2060000000.0 0.011384950636996924 -0.4560208158607248
2080000000.0 -0.4053901699825387 0.1763181255567833
2100000000.0 -0.07168112015248816 0.41911772900377653
2120000000.0 0.00597512615294688 0.4034575411856153
2140000000.0 -0.3263540008577671 -0.19978264551904898
2160000000.0 -0.025983842086714642 -0.36342814198783674
2180000000.0 0.3303385793447864 -0.12303870615343038
2200000000.0 0.3015849000492283 0.16601322926557519
2220000000.0 0.26239221502570514 0.22738857897778775
2240000000.0 0.16490058029963045 -0.3093227623729302
2260000000.0 -0.2835340393121338 -0.2146173432912507
2280000000.0 -0.12558041133651657 0.33913478434616734
2300000000.0 0.3718016634579805 -0.044270414242439195
2320000000.0 -0.2872627482984328 -0.2683006862183153
2340000000.0 -0.23301201553369433 0.34739017273152156
2360000000.0 0.4508417196223889 0.051339847798476494
2380000000.0 -0.33323386644466785 -0.3716817689301564
2400000000.0 0.18042806598380134 0.5189662352715213
2420000000.0 -0.2652023250028436 -0.5408836746343768
2440000000.0 0.526283118171327 0.3877489124924811
2460000000.0 -0.6948741516890374 0.03929925259388818
2480000000.0 0.589610788349522 -0.428715491882392
2500000000.0 -0.586863599379954 0.46971657171902054
2520000000.0 0.6261815375234545 -0.4364763235140713
2540000000.0 -0.7487176414754506 0.16316755002471162
2560000000.0 0.693010818702637 0.3139107896152251
2580000000.0 -0.15763734348213293 -0.7298870821141379
2600000000.0 -0.4080342465600735 0.5964879283391887
2620000000.0 0.6874471679547988 -0.08356917894807335
2640000000.0 0.5615802319652883 -0.3392098874940619
2660000000.0 -0.5159089602625826 -0.33112515972883505
2680000000.0 -0.021344217467633958 0.5683600565096629
2700000000.0 0.31301942779099345 -0.4231314307513086
2720000000.0 -0.3604458375803976 0.3197932035107551
2740000000.0 0.2859088983292319 -0.3327138927890765
2760000000.0 -0.09800645720652484 0.3851535567346819
2780000000.0 -0.2264772351312733 -0.28273086766394406
2800000000.0 0.32891772443664075 -0.01782132150977841
2820000000.0 -0.2034122324988496 0.22687933623431444
2840000000.0 0.1961518989091588 -0.21072730469553677
2860000000.0 -0.20708151844311642 0.1918229870757036
2880000000.0 0.2661955999033203 -0.09147383924085667
2900000000.0 -0.259558039464007 -0.12123771178220563
2920000000.0 -0.06635950299766541 0.29076687929733214
2940000000.0 0.2660433615690812 -0.15890987990980202
2960000000.0 -0.1944764936036754 -0.25078193659584724
2980000000.0 -0.32476708048842495 -0.01914567705499462
3000000000.0 -0.32118133487478207 0.06973200157555717
3020000000.0 -0.3267067380895216 -0.029427619980019984
3040000000.0 -0.050160868681508486 -0.318063191525644
3060000000.0 0.30372779462066846 0.0856981872017663
3080000000.0 -0.30370437951109885 -0.031113243205496247
3100000000.0 0.2904703937005893 0.05099446414696193
3120000000.0 -0.24096133092082267 -0.14845025963352515
3140000000.0 0.10939425464457167 0.2491611643766328
3160000000.0 0.12866906397839056 -0.22436622231286896
3180000000.0 -0.06262693012021357 -0.23734686594409515
3200000000.0 0.15502954423289897 0.1697023946992474
3220000000.0 -0.18180841311924073 0.10349769186497286
3240000000.0 -0.12916998262737905 -0.1333251445788567
3260000000.0 -0.02505582564935334 -0.15390265104120154
3280000000.0 -0.11941126763735158 -0.028791830355107347
3300000000.0 -0.03370846109915558 0.08136303582083063
3320000000.0 -0.04002815545594806 0.033234491228536306
3340000000.0 -0.021538318358546745 0.0009573399682918564
3360000000.0 0.0001351152620316261 -0.013248728674814705
3380000000.0 0.008986648374925679 -0.025425427437779365
3400000000.0 -0.036775584559855024 0.0029468297459234816
3420000000.0 -0.017754412468772563 -0.036375154561911115
3440000000.0 -0.03070903348227206 0.022241207587562626
3460000000.0 -0.031539658635269335 0.02331353799323231
3480000000.0 -0.05179435917939194 -0.0186859852593142
3500000000.0 -0.014401010078019482 -0.07774597967940101
3520000000.0 0.008057968225073679 -0.10580961088812463
3540000000.0 -0.11252721115219949 0.05800306036084616
3560000000.0 0.049924954281263374 0.1300262977942
3580000000.0 -0.02422061835987973 0.14727274856980288
3600000000.0 -0.0723315554980379 0.14278223772236862
3620000000.0 -0.1638676192576783 -0.021202288654848054
3640000000.0 0.16313536116542612 -0.04698920036164175
3660000000.0 -0.14085826142056113 0.1070825110390863
3680000000.0 0.08792695126668072 -0.16029099525179094
3700000000.0 0.1319186289690554 0.13332866642921412
3720000000.0 -0.10413508300671148 0.16303398861918197
3740000000.0 -0.10579049496252625 0.16383195672646994
3760000000.0 -0.18557348736860785 -0.05111322051682035
3780000000.0 0.017979581961100607 -0.18264324518518632
3800000000.0 0.14438987297379016 0.08956617200247702
3820000000.0 0.1214245691197263 -0.09635046334321494
3840000000.0 0.04562938821288482 0.13374000167724387
3860000000.0 0.1343770674860119 -0.02853231623621799
3880000000.0 -0.1451675093969452 -0.011612781926148969
3900000000.0 -0.1480886183506152 -0.05018938049513031
3920000000.0 0.10670458097762546 0.13176030482980453
3940000000.0 -0.06528941905815829 0.1693591654903322
3960000000.0 0.157339967209406 0.10551038107698119
3980000000.0 -0.17069414862486257 -0.07815967415460136
4000000000.0 -0.0673075103341433 0.16316152916740279
