! Created with skrf (http://scikit-rf.org).
# Hz S RI R 50.0 
!freq ReS11 ImS11
400000000.0 0.15456851511382982 0.8580792149917238
420000000.0 0.6154365177364411 0.6021194768266558
440000000.0 0.785289241330423 -0.25871105145983625
460000000.0 0.09933637806116283 -0.7835383551574666
480000000.0 0.4936473762138576 -0.509965184588522
500000000.0 0.13361938886510563 -0.5489785696942134
520000000.0 -0.028468988077020044 -0.4849419115187541
540000000.0 0.42405095068591153 0.0007606484741334882
560000000.0 -0.31537142419804576 -0.15479102096497513
580000000.0 -0.24823418846217507 0.21835191766442116
600000000.0 0.2842980206497926 0.15659326705973736
620000000.0 0.08381921806215471 -0.3371018955833977
640000000.0 -0.2399200315808575 -0.29763966577730655
660000000.0 -0.400018968788568 0.03159655356747334
680000000.0 0.042845502149556014 -0.42831483631304373
700000000.0 0.3085620952727827 0.328889280170398
720000000.0 -0.019228430771968123 -0.44877173999478814
740000000.0 0.3993671135671617 -0.18143741732977708
760000000.0 -0.35550123938720696 -0.21471311936397935
780000000.0 0.32935114809658145 -0.1954637586586492
800000000.0 -0.20450619525022504 0.28328019833249907
820000000.0 -0.1871613898384801 0.22394295507023235
840000000.0 0.08380392515632723 0.2225220307963715
860000000.0 -0.11618939640528975 0.1686821037542224
880000000.0 -0.1422714179465269 -0.028170972680180727
900000000.0 0.06459580980558477 -0.04578292073079901
920000000.0 0.007752854140320359 -0.04712758763457583
940000000.0 -0.03662432298770645 -0.021379033355436762
960000000.0 -0.055067309566554985 0.006503688707317164
980000000.0 0.06233181888901001 0.01366229882726433
1000000000.0 -0.0597697919075144 -0.03554271023132876
1020000000.0 0.07646044276723106 0.0197602968581215
1040000000.0 -0.048970570986520474 0.06452894424462555
1060000000.0 -0.11243723529358997 0.032733703295304645
1080000000.0 -0.09379924755335815 0.0926880771999298
1100000000.0 -0.10279268234128466 -0.11941241998225376
1120000000.0 -0.1290094249106276 -0.13873279498497884
1140000000.0 0.09418059018967519 0.21819071920155522
1160000000.0 0.28321486557699266 -0.018301954073186574
1180000000.0 -0.044347365037637046 -0.32668443242313117
1200000000.0 -0.24190974686732084 -0.275143117362293
1220000000.0 0.1942725095746735 -0.3453066524730698
1240000000.0 0.3214237196921808 0.2688457413740307
1260000000.0 -0.4134598623768566 -0.15340380090509442
1280000000.0 0.4380739698186951 0.10879922738702766
1300000000.0 -0.3710738022575648 -0.2588163863293393
1320000000.0 -0.0919494381005986 0.4297747086000043
1340000000.0 -0.2418854567903346 0.34786227871129355
1360000000.0 -0.30609882038594083 -0.27374226215386027
1380000000.0 -0.042789026947061964 -0.40676346186763035
1400000000.0 -0.1235540026042737 -0.3755079155961952
1420000000.0 -0.03539350489474509 -0.38071971274655036
1440000000.0 -0.21913999848607565 -0.2949613147302754
1460000000.0 -0.34054529359193436 -0.0653670926510019
1480000000.0 -0.16547162267779772 0.28353246355522166
1500000000.0 0.25285835197292805 -0.1730241079561536
1520000000.0 -0.2140529861489185 -0.18438410404052513
1540000000.0 -0.14867491354068543 -0.20725575681895814
1560000000.0 -0.2154957530787509 0.042688476307375794
1580000000.0 -0.0036496056269630676 0.1879383602172806
1600000000.0 -0.15333693837323764 0.018010909155436523
1620000000.0 -0.11172512537548082 0.01549306334419845
1640000000.0 0.08299054598563889 -0.014777553914268488
1660000000.0 0.03512769162656744 -0.04795655144727758
1680000000.0 -0.007219482829083211 -0.029723177566998587
1700000000.0 -0.017410330312158717 0.007035554717979082
1720000000.0 -0.0007729677601555815 0.03331167959569969
1740000000.0 0.05246725979669303 -0.017430777086905755
1760000000.0 -0.07259755441571131 0.010088846341393917
1780000000.0 0.08937393587217066 -0.026571371859505328
1800000000.0 0.07097086349434886 0.09523220488344072
1820000000.0 0.03922600165650573 -0.12709695961647444
1840000000.0 0.12313665981299031 -0.09719800095342641
1860000000.0 0.17484025562910258 -0.03166125241990297
1880000000.0 -0.14085692376032416 0.15459839971962488
1900000000.0 -0.21904822361306353 -0.11320087923247442
1920000000.0 -0.26484647950507856 0.11916154054991784
1940000000.0 0.0072375023779107026 0.33568353648561766
1960000000.0 0.2620133993786866 -0.2704893926394697
1980000000.0 -0.28397274069287287 0.29282012950475234
2000000000.0 0.43329659515628643 0.02777251815663666
2020000000.0 -0.4391380196582825 -0.10948602434165706
2040000000.0 0.2228847669007067 0.4003236367533736
2060000000.0 0.03568238936824614 -0.4546571189350197
2080000000.0 -0.4157395846134559 0.15408978923417666
2100000000.0 -0.09123501196721094 0.4165833779384497
2120000000.0 0.04229166641114996 0.40238062484689463
2140000000.0 -0.2945403728714507 -0.24670848314416452
2160000000.0 -0.027002707501845157 -0.36409711404701617
2180000000.0 0.33211207893310174 -0.12025555847138372
2200000000.0 0.29569370793892596 0.17773069299282707
2220000000.0 0.24936657534261703 0.24296449682945281
2240000000.0 0.18038498153651544 -0.3012327491983929
2260000000.0 -0.2181502786304491 -0.28118522294958864
2280000000.0 -0.18251459657723348 0.31325142506524545
2300000000.0 0.3728606293158071 0.0333480070849548
2320000000.0 -0.2669221783229728 -0.28918383044505963
2340000000.0 -0.2706078533522911 0.31931123070708706
2360000000.0 0.4476639630841698 0.07539920144905332
2380000000.0 -0.32493861931657103 -0.3788114489386252
2400000000.0 0.20389365932319573 0.5097874769572421
2420000000.0 -0.3146810624484536 -0.513313130805205
2440000000.0 0.584455899795172 0.2920511538161334
2460000000.0 -0.6815345856172039 0.1403545235834793
2480000000.0 0.5392640247950024 -0.49120669629285874
2500000000.0 -0.49036228178066227 0.5700608295527226
2520000000.0 0.5723636133567469 -0.5055447762938295
2540000000.0 -0.7307291814713287 0.2319834197201379
2560000000.0 0.7011692348869315 0.29714367007441367
2580000000.0 -0.21364174056311774 -0.716209585698563
2600000000.0 -0.42046019509191446 0.5896275908195199
2620000000.0 0.6927335541188465 0.03057920101457725
2640000000.0 0.6023906610443217 -0.26192861983410526
2660000000.0 -0.47492159689757013 -0.3887198147159727
2680000000.0 -0.09999227304097305 0.5602174431406398
2700000000.0 0.3790424485279152 -0.3656613657145501
2720000000.0 -0.4034152887460278 0.26389492025765615
2740000000.0 0.32615250762763937 -0.29347409177008804
2760000000.0 -0.14587039089364723 0.36973990133470575
2780000000.0 -0.2085390835887083 -0.2959558147054244
2800000000.0 0.32974842942934784 0.004648722141474844
2820000000.0 -0.21458484859820726 0.21663672839133466
2840000000.0 0.19361090317991184 -0.21389117420351952
2860000000.0 -0.23470852549502916 0.15753141316061012
2880000000.0 0.27602392319886965 -0.05330208589488963
2900000000.0 -0.24451419822139153 -0.1491015134943833
2920000000.0 -0.06996526898703159 0.289645351979465
2940000000.0 0.28043326893265025 -0.12995272629404453
2960000000.0 -0.20042079950914038 -0.24639337151971263
2980000000.0 -0.3216170993319255 -0.044599854448008895
3000000000.0 -0.3253572246192742 0.04407222911762331
3020000000.0 -0.3263788859724243 -0.03157941913542172
3040000000.0 -0.09026046216888495 -0.30919444269233587
3060000000.0 0.3134954747394815 0.039532851048725066
3080000000.0 -0.30364949569064353 0.03099807199423402
3100000000.0 0.2945255779735191 -0.011115593080249097
3120000000.0 -0.24152758102679736 -0.14604828303863038
3140000000.0 0.14044374180237462 0.2328486722005535
3160000000.0 0.09483974413505698 -0.23995344650366177
3180000000.0 -0.13529205962070953 -0.2048860406244207
3200000000.0 0.19671500345627552 0.1188248900193674
3220000000.0 -0.14019166792843915 0.15561883323579437
3240000000.0 -0.1750393874071606 -0.06268365426938761
3260000000.0 -0.06591619369039817 -0.14223859041255066
3280000000.0 -0.12092205489247916 -0.02633767998304742
3300000000.0 -0.030973690710726212 0.08341556771676097
3320000000.0 -0.013943014322166629 0.05249614138727965
3340000000.0 -0.0166553796817454 -0.01573619264825837
3360000000.0 -0.0018285280094332782 0.012667215049716131
3380000000.0 0.018170586473764863 -0.01797698860935053
3400000000.0 -0.004892327579213874 0.035185036637380734
3420000000.0 -0.023620982674859962 -0.032321700275274375
3440000000.0 -0.015815026033106444 0.03338829347564279
3460000000.0 -0.009632726759030806 0.03689565222554934
3480000000.0 -0.045505977191444794 -0.02993600887376067
3500000000.0 -0.034674658568120874 -0.07059841556017377
3520000000.0 -0.004205097397791807 -0.10578699946275061
3540000000.0 -0.12290807431810882 0.022827359801092007
3560000000.0 0.03874930182396054 0.13401738092325274
3580000000.0 -0.010196169070756234 0.1499796647357566
3600000000.0 -0.12401255754310613 0.1011569446117081
3620000000.0 -0.14418600472744902 -0.08066623304080381
3640000000.0 0.1696878126965246 0.001301517922822576
3660000000.0 -0.17094748929599235 0.04586474644759426
3680000000.0 0.14549207502217643 -0.1100691436113133
3700000000.0 0.08775125636999484 0.16531257634738977
3720000000.0 -0.16143825062246422 0.10698627206647705
3740000000.0 -0.16769000461607214 0.09936472715961632
3760000000.0 -0.1466994093785165 -0.12356227678886879
3780000000.0 0.06393767132799164 -0.17048491831908427
3800000000.0 0.06249997001907852 0.15702140247496704
3820000000.0 0.15285338488590203 0.014448735069555014
3840000000.0 0.010014391391281676 0.13920970673034064
3860000000.0 0.12725289035228476 0.04726812958510624
3880000000.0 -0.11218980490545509 -0.08924185436390066
3900000000.0 -0.09966258273425418 -0.11740564244238418
3920000000.0 0.0554735480449111 0.1576799149666263
3940000000.0 -0.08966830161193554 0.15367921198221576
3960000000.0 0.13622283362056473 0.12696413101387813
3980000000.0 -0.16270157236787097 -0.08766935964737164
4000000000.0 -0.04744013840638174 0.16559233276074145
