! Created with skrf (http://scikit-rf.org).
# Hz S RI R 50.0 
!freq ReS11 ImS11
400000000.0 0.1700196167693129 0.8556344513425845
420000000.0 0.6056725404874759 0.612611071849038
440000000.0 0.7731360297420846 -0.2971782692039233
460000000.0 0.11344195585193569 -0.7817686221920672
480000000.0 0.4843182763861902 -0.5185976812243704
500000000.0 0.10639681475711629 -0.555189746624018
520000000.0 -0.07019729499316751 -0.47915442322844226
540000000.0 0.42302338673622686 -0.015360818982850005
560000000.0 -0.2868576275322774 -0.20216859916721228
580000000.0 -0.21536953220327504 0.25119659718472176
600000000.0 0.23037552519244592 0.22840256101705958
620000000.0 0.024216549023263773 -0.34730669636176326
640000000.0 -0.2580264759878241 -0.28115775234522955
660000000.0 -0.4000947522499331 0.0036779518076893473
680000000.0 0.027961567127904534 -0.4296776395254893
700000000.0 0.3140982964224838 0.322943173387721
720000000.0 -0.007353231297734717 -0.4498080257706773
740000000.0 0.4077704986011533 -0.16494335629726817
760000000.0 -0.3666208499635722 -0.1973114119044069
780000000.0 0.33264786630410337 -0.1891181668664389
800000000.0 -0.2269943004612366 0.2641027806028107
820000000.0 -0.2066549084754205 0.20551516364771868
840000000.0 0.10697963405089286 0.21205932363195434
860000000.0 -0.09066438590638323 0.18350644570339
880000000.0 -0.1450536026489869 0.007441304470276247
900000000.0 0.0712490664883527 -0.03511618279609181
920000000.0 -0.007321728437776197 -0.04742667265579735
940000000.0 -0.010506375002154346 -0.04207418330000606
960000000.0 -0.023463151843668872 0.05034178802658889
980000000.0 0.05372077377487557 -0.03448976009025026
1000000000.0 -0.06855546456940351 -0.00805325397810796
1020000000.0 0.0639902960888484 0.04665257791616168
1040000000.0 -0.040980145762438976 0.06999656415044654
1060000000.0 -0.10480573073507583 0.051744909200905
1080000000.0 -0.08092239614925019 0.10415210542881391
1100000000.0 -0.11426010034550492 -0.10864992122366503
1120000000.0 -0.15227088133767128 -0.11279545758432855
1140000000.0 0.10325192193698614 0.21439152065343914
1160000000.0 0.2846028836804021 0.0010043668496493253
1180000000.0 -0.0027810237834691586 -0.33068634856528517
1200000000.0 -0.2523696081191335 -0.2661868473366213
1220000000.0 0.16610917790029053 -0.3602221009984028
1240000000.0 0.31541028628078616 0.27487245451704917
1260000000.0 -0.4234751007871467 -0.12352607740150497
1280000000.0 0.43704111550654945 0.11268413673665209
1300000000.0 -0.3734766501368815 -0.2544335503211143
1320000000.0 -0.0788279850459185 0.43215550916778667
1340000000.0 -0.2168381344229902 0.362962499719972
1360000000.0 -0.3318568942850133 -0.2414637551710013
1380000000.0 -0.11465589905454318 -0.3930968482598924
1400000000.0 -0.13395368552691914 -0.3728669690984657
1420000000.0 -0.036215278479739085 -0.3813264764999714
1440000000.0 -0.22232027866762588 -0.29304191479358005
1460000000.0 -0.3397094934606673 -0.06939708132707188
1480000000.0 -0.15889315662433598 0.2874559112894236
1500000000.0 0.23763520340889438 -0.1936385826394887
1520000000.0 -0.24311707301690433 -0.14455454376065538
1540000000.0 -0.15787206270143458 -0.2007459662900658
1560000000.0 -0.21630107444844804 0.03837288695069051
1580000000.0 0.022262384410654056 0.18628238391925006
1600000000.0 -0.14509772588419975 0.05257336967812731
1620000000.0 -0.1118248168429528 -0.016613147575859966
1640000000.0 0.08090624929409923 -0.025310207784550787
1660000000.0 0.05737215773557035 -0.014576631340824497
1680000000.0 0.0026741592950562227 -0.030090143668396883
1700000000.0 0.00901284820765691 -0.016785180811558782
1720000000.0 0.01974148983002312 0.028197650680145236
1740000000.0 0.056120518856618715 -0.003158252615008886
1760000000.0 -0.06906381485724217 -0.024882097213951695
1780000000.0 0.0910155247553407 -0.019456917738376645
1800000000.0 0.057395919190812654 0.10416031687075557
1820000000.0 0.04431876805683059 -0.12491501735891695
1840000000.0 0.13287866189080577 -0.08317870921405433
1860000000.0 0.17646446461121781 -0.01797924762860443
1880000000.0 -0.1391364955586012 0.15524553594969817
1900000000.0 -0.22284383726958107 -0.10455129136816298
1920000000.0 -0.25586362469396207 0.13685518695089344
1940000000.0 0.020209013968873167 0.3355301710409206
1960000000.0 0.26806011541145536 -0.26476135908283327
1980000000.0 -0.28315781541871854 0.29428164797092876
2000000000.0 0.43446808066842346 0.01160953711802768
2020000000.0 -0.4379446158691142 -0.11568193836236873
2040000000.0 0.22033507337051328 0.40220983738131477
2060000000.0 0.024245675181823183 -0.45599631849608513
2080000000.0 -0.40955413695565235 0.16924399905005857
2100000000.0 -0.10747961226373764 0.41254742036804576
2120000000.0 0.020167494328684525 0.4039852522248932
2140000000.0 -0.29258345834470695 -0.24846885231141605
2160000000.0 -0.03738257683095698 -0.36319559919853256
2180000000.0 0.34345976947962503 -0.08296627349194452
2200000000.0 0.28997278271083093 0.1871837027830396
2220000000.0 0.2636078358127603 0.22680610168419174
2240000000.0 0.22209135265560964 -0.2713719966435771
2260000000.0 -0.21635941278130297 -0.28158243025466256
2280000000.0 -0.18319327996911916 0.31207144114675295
2300000000.0 0.3736003175387623 0.01702896032845555
2320000000.0 -0.26340876488245707 -0.29227296231712185
2340000000.0 -0.24063022542669518 0.3424060933750971
2360000000.0 0.45149728147787416 0.04556000037541597
2380000000.0 -0.3385225345490621 -0.3665765948927193
2400000000.0 0.219440434214618 0.503732959735392
2420000000.0 -0.31748810896822655 -0.5117268105432049
2440000000.0 0.5783196019313062 0.3045447974305062
2460000000.0 -0.6837967545793305 0.1287468794451756
2480000000.0 0.566570001481755 -0.4591691656872034
2500000000.0 -0.5037377771651801 0.5577664870612117
2520000000.0 0.5729044265464291 -0.5049620099751235
2540000000.0 -0.7329989423726097 0.22446211511463193
2560000000.0 0.7165897912273581 0.2576217417669773
2580000000.0 -0.14984742871535545 -0.7319809264690482
2600000000.0 -0.41801743924049056 0.5903714473824541
2620000000.0 0.6919067381473913 0.03572384334762866
2640000000.0 0.6120847071475878 -0.23499972074358222
2660000000.0 -0.47793650311780717 -0.38302464735202285
2680000000.0 -0.10052245434990241 0.5601505210495905
2700000000.0 0.3797245297888673 -0.36354479659339706
2720000000.0 -0.4018242409348012 0.26512503234363244
2740000000.0 0.32729355007485605 -0.29094288067692886
2760000000.0 -0.14169526193101672 0.37065581720375773
2780000000.0 -0.22301691528151604 -0.28436639721161466
2800000000.0 0.3287681729114902 -0.010949728923601382
2820000000.0 -0.21033402853545632 0.22001658360857254
2840000000.0 0.1833450472791067 -0.22227652498894246
2860000000.0 -0.21721821117826023 0.1801896058740718
2880000000.0 0.2655175049638123 -0.09338705634667292
2900000000.0 -0.26701097985858785 -0.10326694765740473
2920000000.0 -0.06217660254102615 0.29233678197018875
2940000000.0 0.2858411415745703 -0.12049704160132393
2960000000.0 -0.1526401934653669 -0.278894700014352
2980000000.0 -0.31548550727341174 -0.07995649084753569
3000000000.0 -0.32885398391619314 0.02099834969000965
3020000000.0 -0.3137940434949642 -0.09850636648351715
3040000000.0 -0.03474086165366289 -0.3201649878738116
3060000000.0 0.2624961005984443 0.17426143590475074
3080000000.0 -0.2983157698383568 -0.06341334850124368
3100000000.0 0.2886015274578732 0.059529793249750614
3120000000.0 -0.1913650148778139 -0.20778249594816142
3140000000.0 0.054960259237620115 0.2654673720156388
3160000000.0 0.18571417280800653 -0.1781036421736258
3180000000.0 -0.09414709839248973 -0.2266304922028672
3200000000.0 0.15739735075352274 0.16595871456387634
3220000000.0 -0.1636300901157405 0.12900903151077986
3240000000.0 -0.170521807473831 -0.07202540964489412
3260000000.0 -0.08659995365918675 -0.1297118770828706
3280000000.0 -0.12291347610031736 -0.00256289489131528
3300000000.0 0.01214596080480127 0.08719969906519932
3320000000.0 0.02477544186923105 0.046982500983488606
3340000000.0 -0.011015064535598862 0.019742954716999942
3360000000.0 0.00823629276413806 0.010653122068148547
3380000000.0 0.022046202856496225 0.014867116745637678
3400000000.0 -0.033949882807741 -0.012241640257204187
3420000000.0 -0.03078112649403122 -0.02580097131513833
3440000000.0 -0.030368980126551773 0.02218653834795692
3460000000.0 -0.024901279340825023 0.029177549281075233
3480000000.0 -0.05139804397529298 -0.01858530099535593
3500000000.0 0.04267101854176391 -0.06657654008903537
3520000000.0 0.017399699947390875 -0.10531646286596696
3540000000.0 -0.11907068136858462 0.04283704748765855
3560000000.0 -0.001584442869617835 0.14051435544714083
3580000000.0 -0.092773225487052 0.11883655878264206
3600000000.0 -0.13628777400107023 0.08639162951098278
3620000000.0 -0.10746451658774141 -0.12501984381270748
3640000000.0 0.16865675455422824 0.019451031993686006
3660000000.0 -0.15875814340039446 0.07831374679982434
3680000000.0 0.14758554668333101 -0.10626212868087537
3700000000.0 0.07165303421168227 0.1729117202413443
3720000000.0 -0.165944923243033 0.09869100708108498
3740000000.0 -0.1653093792902148 0.10286424906974032
3760000000.0 -0.15265761289940477 -0.11599461592305817
3780000000.0 0.09345618963731053 -0.15713947462492825
3800000000.0 0.0724407976456242 0.1534635677064969
3820000000.0 0.15132797446936144 -0.02822673328725147
3840000000.0 0.01943758501588707 0.1389410036559775
3860000000.0 0.13684020913153302 0.005742448648959091
3880000000.0 -0.13410545898425788 -0.05303537208269445
3900000000.0 -0.1413407069884064 -0.06426185997637299
3920000000.0 0.07245634264534365 0.15131431958688402
3940000000.0 -0.09462505517837444 0.15173340065381277
3960000000.0 0.14486898823642153 0.11677845417246552
3980000000.0 -0.18360108346279438 -0.00805080794187787
4000000000.0 0.07381976309739906 0.1547467416056128
