! Created with skrf (http://scikit-rf.org).
# Hz S RI R 50.0 
!freq ReS11 ImS11
400000000.0 0.19095932468173474 0.8516273794740518
420000000.0 0.6098517764723158 0.6066287026394326
440000000.0 0.7738137390718582 -0.2935773401285621
460000000.0 0.17790498540976768 -0.7686110280639143
480000000.0 0.4637642531845987 -0.5371099334221585
500000000.0 0.16966317893513047 -0.5379477737994882
520000000.0 -0.0056460534446101185 -0.48683991635302964
540000000.0 0.41191141971336215 -0.10218639433942546
560000000.0 -0.31305071763559483 -0.15742081589064147
580000000.0 -0.24810073148116793 0.2186650337238362
600000000.0 0.26835156719305825 0.18294393165095882
620000000.0 0.013877017193187235 -0.34672230356051364
640000000.0 -0.24088016076582508 -0.2953959861589511
660000000.0 -0.39762105040395296 0.04642247023412447
680000000.0 -0.03545844810580504 -0.42906792128061444
700000000.0 0.34793693600272774 0.2855698765963191
720000000.0 -0.06783113438462555 -0.4441494779246544
740000000.0 0.37769792669654884 -0.22407465246694935
760000000.0 -0.351655974279746 -0.22161766314641954
780000000.0 0.3173245880875584 -0.21416903090739467
800000000.0 -0.20478546571108977 0.28217178589034236
820000000.0 -0.19543722434474697 0.2167934630449145
840000000.0 0.06416712305809252 0.22919894189482307
860000000.0 -0.11249239822426718 0.1706933872569008
880000000.0 -0.1423988106281217 0.026310696450393117
900000000.0 0.04931977577812081 -0.061176377953407544
920000000.0 -0.015820026187527238 -0.045296499046579806
940000000.0 -0.025086518741434544 -0.03441531746782851
960000000.0 -0.04140798448895212 0.03670399224927384
980000000.0 0.06364448419603054 -0.0009926277200936798
1000000000.0 -0.05066010104940497 -0.047347844566864375
1020000000.0 0.05544252339755055 0.05551070339367507
1040000000.0 -0.04280591001085366 0.06859398344060633
1060000000.0 -0.11467788498688769 0.02032241022938175
1080000000.0 -0.08724083942615134 0.09935640136542355
1100000000.0 -0.12938503106847232 -0.09019545446006326
1120000000.0 -0.15023334055967327 -0.1145838706711239
1140000000.0 0.1174116339830404 0.2065082024532707
1160000000.0 0.27850244599812674 -0.05681371228803687
1180000000.0 -0.10002965019846814 -0.3146716110870878
1200000000.0 -0.30210489261573853 -0.2076745877768188
1220000000.0 0.12998936387446028 -0.37535765308770935
1240000000.0 0.34093543292500655 0.24312931887159342
1260000000.0 -0.423235132283078 -0.12254084966239749
1280000000.0 0.44578010756429226 0.07418787580498425
1300000000.0 -0.39080772511540335 -0.22850091792117708
1320000000.0 -0.1106972533350463 0.42565447472050333
1340000000.0 -0.25493260451666894 0.3377512463310884
1360000000.0 -0.2953110695474396 -0.2858288395347085
1380000000.0 -0.061223018777877995 -0.4039915776861938
1400000000.0 -0.07600766432525274 -0.3878209243320571
1420000000.0 -0.04670061498706578 -0.37921889567453704
1440000000.0 -0.21743791578699972 -0.2956642472740633
1460000000.0 -0.33935722305754534 -0.07029026835478945
1480000000.0 -0.136444641599709 0.2983745032893696
1500000000.0 0.22951378817769325 -0.20203974461979288
1520000000.0 -0.2518889572615917 -0.1259098459733876
1540000000.0 -0.17432661955362683 -0.1860451479222532
1560000000.0 -0.2080208817282298 0.06817048002201026
1580000000.0 0.06311292513782983 0.17644063617396735
1600000000.0 -0.13780434505761177 0.069278245509599
1620000000.0 -0.10459681762358923 0.04255631194797022
1640000000.0 0.061927756138651105 -0.05772532786004863
1660000000.0 0.04025833461202131 -0.04403988649567383
1680000000.0 0.018038439880086632 -0.024859441845237855
1700000000.0 0.009189893453662284 -0.016173839186752716
1720000000.0 0.01969414482251875 0.02693265153465915
1740000000.0 0.041913180131693144 -0.036354634461419545
1760000000.0 -0.054720845847699796 0.04888865328554141
1780000000.0 0.06732950722586614 -0.06438190592510663
1800000000.0 0.09150378288674857 0.07683726875899417
1820000000.0 -0.0058747300872008775 -0.1332776018199737
1840000000.0 0.12347699503265192 -0.09743070544180231
1860000000.0 0.1779130490103875 -0.004760823496516697
1880000000.0 -0.15909988905257097 0.13585182688757758
1900000000.0 -0.21223679939915302 -0.12625503959240977
1920000000.0 -0.27080100522101164 0.1054962456751042
1940000000.0 -0.0030436381021400364 0.33631958007323665
1960000000.0 0.2856937435145849 -0.24536838486935936
1980000000.0 -0.3218638003060194 0.2513516303580888
2000000000.0 0.42960268048192557 0.06517469284940225
2020000000.0 -0.433717020726078 -0.1284663474898882
2040000000.0 0.22881090741935797 0.39631920263510056
2060000000.0 0.0020606426931035547 -0.45551018412728395
2080000000.0 -0.4082839972771407 0.16903653128657256
2100000000.0 -0.08215305674467377 0.4171286602854911
2120000000.0 0.0366785774822419 0.40158268889487164
2140000000.0 -0.30911803252647013 -0.22573995858157855
2160000000.0 -0.07871665197989437 -0.35540911142060044
2180000000.0 0.3113628578523875 -0.16565169798609078
2200000000.0 0.3247682665029906 0.11582462991133598
2220000000.0 0.2985489323674407 0.1782038956006227
2240000000.0 0.19153712059029754 -0.2940783241621088
2260000000.0 -0.24266600276588784 -0.25986507532250924
2280000000.0 -0.13017831078709463 0.33842565095496935
2300000000.0 0.3746778870083628 -0.009076413644742655
2320000000.0 -0.2780857338077748 -0.27892157177535426
2340000000.0 -0.24957403128741731 0.33646791779400126
2360000000.0 0.4497433574872542 0.06346662670907435
2380000000.0 -0.3252463557296089 -0.37868920310758764
2400000000.0 0.17255796221157038 0.5215639680121106
2420000000.0 -0.2758840274506787 -0.5351788271440566
2440000000.0 0.5553950656762952 0.34388465904762694
2460000000.0 -0.6879079491174778 0.10017522196686401
2480000000.0 0.5813400518632078 -0.4389569730208955
2500000000.0 -0.5450044335732181 0.516704021887087
2520000000.0 0.5770550040106481 -0.49875317696405264
2540000000.0 -0.7344329995675789 0.21628744636573685
2560000000.0 0.7239794281476091 0.23307279272192932
2580000000.0 -0.17596885610694732 -0.7253859564675234
2600000000.0 -0.3905398384762302 0.6083102093046636
2620000000.0 0.6897241627428609 -0.05671692816252974
2640000000.0 0.5477260872463159 -0.36029957617571073
2660000000.0 -0.5335618083751104 -0.30074177777489286
2680000000.0 -0.001826572912678795 0.5695080702518956
2700000000.0 0.29427218341984795 -0.4364228251000575
2720000000.0 -0.36549834258537317 0.31437879824491743
2740000000.0 0.304710488098886 -0.31602764546371304
2760000000.0 -0.10720643562453078 0.3827630870527071
2780000000.0 -0.22928986411934865 -0.280288164255615
2800000000.0 0.3296207504176372 0.008627583722319148
2820000000.0 -0.2270309522679955 0.2038334423207472
2840000000.0 0.19777892352300275 -0.20980876071095605
2860000000.0 -0.2379549916609036 0.1511819171660404
2880000000.0 0.27946337525942716 -0.033839966844873406
2900000000.0 -0.2537010447044294 -0.1317959437122886
2920000000.0 -0.087529305971804 0.28471630566886846
2940000000.0 0.27377830620624155 -0.1430544362857528
2960000000.0 -0.14169978824930976 -0.2833555298880785
2980000000.0 -0.32409500491327764 -0.019734286155852074
3000000000.0 -0.3204915349394354 0.06973207162739292
3020000000.0 -0.3249279360190282 -0.042836793080853176
3040000000.0 -0.09828452899601443 -0.305830664250579
3060000000.0 0.28829591152878725 0.12498095700828635
3080000000.0 -0.3031157135597023 0.02723360009367989
3100000000.0 0.29370568794999696 -0.009504624490486214
3120000000.0 -0.2651447364908326 -0.09953382711980813
3140000000.0 0.12245763142242097 0.24204864719191946
3160000000.0 0.11534893587504105 -0.23056648908904182
3180000000.0 -0.13582710427742506 -0.20489518162601938
3200000000.0 0.18870853504874813 0.13088249932446885
3220000000.0 -0.13691081950022824 0.15855907622350834
3240000000.0 -0.1777467568364133 -0.055051336006414237
3260000000.0 -0.08808674726376721 -0.13001694138567926
3280000000.0 -0.12206110794946981 -0.02135167469743059
3300000000.0 -0.02086223545708464 0.08624152036446149
3320000000.0 -0.02721595803627229 0.046112649149888094
3340000000.0 -0.008180636325713642 -0.021047209975197705
3360000000.0 0.012239326905792294 -0.0032297471098067915
3380000000.0 0.00038618609073620404 -0.026458459377077338
3400000000.0 -0.003013943256805432 0.03584299414081097
3420000000.0 -0.026507765859788757 0.030375430927484386
3440000000.0 0.03500574482489113 0.01412337797259743
3460000000.0 0.03207125215515058 0.02162945643963035
3480000000.0 -0.039805051638815675 0.03702798727874202
3500000000.0 -0.04157310085957701 -0.06704737351081388
3520000000.0 -0.03486408513947532 -0.10030670131313292
3540000000.0 -0.07692419391097315 0.10034534320474933
3560000000.0 0.07916312466784511 0.11522095020714578
3580000000.0 -0.003655160237758478 0.1503752192072683
3600000000.0 -0.07005271002144912 0.1453845112202113
3620000000.0 -0.16485466550322872 -0.01968823586390774
3640000000.0 0.15623508431055766 -0.06729145512572658
3660000000.0 -0.11194596240671861 0.137965509386678
3680000000.0 0.0833695499160191 -0.16291163430774458
3700000000.0 0.13647545094760172 0.12954168178149778
3720000000.0 -0.12192535388519621 0.15159740234527244
3740000000.0 -0.11456988690709474 0.15858554640805655
3760000000.0 -0.17740483297321621 -0.07556547018387474
3780000000.0 0.0538886962198956 -0.17623741523737263
3800000000.0 0.09823629736476516 0.1397200101510128
3820000000.0 0.153269071600927 -0.026339136049410038
3840000000.0 0.039675424773962645 0.13582048830835555
3860000000.0 0.13811285279771093 -0.0004597790583284108
3880000000.0 -0.14128982385679872 -0.034749777501023066
3900000000.0 -0.15011649680993183 -0.043791214952906145
3920000000.0 0.10520796593786522 0.132579067590571
3940000000.0 -0.07876414914192399 0.16241267850888072
3960000000.0 0.12821419342745277 0.13790450923759215
3980000000.0 -0.18290613404781095 -0.03194432910682064
4000000000.0 0.03364484062244068 0.16945430370826803
