! Created with skrf (http://scikit-rf.org).
# Hz S RI R 50.0 
!freq ReS11 ImS11
400000000.0 0.13944398255682527 0.8601612530835393
420000000.0 0.6188527433211178 0.596040132643789
440000000.0 0.7790274835811548 -0.2760730087016374
460000000.0 0.1024287790081791 -0.782502185547523
480000000.0 0.4444833151009601 -0.5519570348330867
500000000.0 0.16195416941345067 -0.5399809310466305
520000000.0 -0.053340051300083756 -0.48256339685221455
540000000.0 0.41399390320821855 -0.08966762718625622
560000000.0 -0.31178176291131054 -0.15713350968350842
580000000.0 -0.267213779250655 0.19704171872652593
600000000.0 0.29475134503093176 0.14017541539102502
620000000.0 0.00650951517764141 -0.34953701747605076
640000000.0 -0.1844585946376463 -0.3351422879198361
660000000.0 -0.39519934092962844 -0.07673437967486005
680000000.0 0.14396890660684156 -0.40758939174739156
700000000.0 0.24203510541334833 0.3813448500682121
720000000.0 0.059046527522659674 -0.4442962328649888
740000000.0 0.4311845782217207 -0.0786933546125005
760000000.0 -0.3350442255418579 -0.24352454934787465
780000000.0 0.3143264970021993 -0.216918760576883
800000000.0 -0.1790257451212943 0.2988950678813771
820000000.0 -0.1273460502751533 0.2622261955878814
840000000.0 0.18476167961227827 0.14954712948563972
860000000.0 0.003177964663032761 0.20561805942303055
880000000.0 -0.13401348412261618 0.06033334246229624
900000000.0 0.06478344138601355 -0.049900831947476756
920000000.0 0.050288718900512196 0.0015888897336889867
940000000.0 0.03723405802052344 -0.020628907203213382
960000000.0 -0.0497432245162701 -0.020548234740985796
980000000.0 0.05896525465363484 -0.018195500147556443
1000000000.0 -0.056595451452146124 0.03844218587159099
1020000000.0 0.03990766929500571 -0.06709540800658464
1040000000.0 0.07602954293716337 0.026804787763235558
1060000000.0 -0.016534672259782723 0.11623329507445614
1080000000.0 0.0022430295494613524 0.13319157715380278
1100000000.0 -0.15676120405225402 -0.028708342470956185
1120000000.0 -0.1441076863801421 -0.12618179089383333
1140000000.0 0.07713837909852493 0.22744504198133053
1160000000.0 0.2815686717053125 0.04882211972035642
1180000000.0 0.0444656725058296 -0.3284895754040983
1200000000.0 -0.15856696859961586 -0.3316579045908285
1220000000.0 0.2650646595341723 -0.29579778121834255
1240000000.0 0.24589452299966105 0.339431126441491
1260000000.0 -0.3709625217087652 -0.23773255390146758
1280000000.0 0.4154511796139159 0.17516056551281262
1300000000.0 -0.3489004086257548 -0.2869184362592074
1320000000.0 -0.10617796759449434 0.42577679646942407
1340000000.0 -0.24310224008509151 0.3460714169106604
1360000000.0 -0.3263592037574313 -0.24817677616709005
1380000000.0 -0.10003890474668559 -0.39591311113215577
1400000000.0 -0.16011676807223169 -0.3612695833115703
1420000000.0 -0.08536384508077821 -0.372666948870912
1440000000.0 -0.249799708017551 -0.2697457890129539
1460000000.0 -0.3467275819350397 -0.019965488471662244
1480000000.0 -0.09891424210756056 0.31329317056757044
1500000000.0 0.22843814421757686 -0.20549831022613535
1520000000.0 -0.2307295410515316 -0.16464935757025984
1540000000.0 -0.15311554118421505 -0.20561310456615492
1560000000.0 -0.22017653846613525 -0.011525257571410893
1580000000.0 -0.023442053181813718 0.18701371596973684
1600000000.0 -0.14373198581825616 -0.057954022677968904
1620000000.0 -0.10354129977280066 -0.04483193685819195
1640000000.0 0.08308748532751983 0.010661414996575818
1660000000.0 0.04747849476062055 -0.03409861552694978
1680000000.0 -0.01774026268019 -0.02540632692241414
1700000000.0 -0.01848710232045318 0.005414475102818494
1720000000.0 -0.018963519930140962 0.028170561959501378
1740000000.0 0.05173504924223395 0.020511656134963255
1760000000.0 -0.06342220824789621 -0.03606313196281357
1780000000.0 0.09234556728542322 -0.006599457454292279
1800000000.0 0.05181572776002049 0.10667983086735269
1820000000.0 0.034608341793683606 -0.1280120274316462
1840000000.0 0.1139518341452543 -0.10726006653941718
1860000000.0 0.16538303522899178 -0.06443814244450888
1880000000.0 -0.11808723085263831 0.17238048665484346
1900000000.0 -0.23022292486697807 -0.08784786489915568
1920000000.0 -0.24658218549063693 0.15348288299558646
1940000000.0 0.03817792080611465 0.33368102995313653
1960000000.0 0.2541136671687435 -0.2782971643286455
1980000000.0 -0.2735890334638677 0.30300147386695003
2000000000.0 0.4344073175548476 0.014068390101623876
2020000000.0 -0.44375742635879106 -0.09239614463554753
2040000000.0 0.19957064307280348 0.4131018289868159
2060000000.0 0.031334500753841386 -0.455242689652959
2080000000.0 -0.4273688872757604 0.1201447805798538
2100000000.0 -0.1275215724769133 0.40719110390053154
2120000000.0 -0.009418000230425924 0.4044911104842007
2140000000.0 -0.2915860657442167 -0.2494750293361356
2160000000.0 0.00054221200384742 -0.36465409339292676
2180000000.0 0.3359013911198464 -0.10779863698112903
2200000000.0 0.28418606072769 0.1942695899250628
2220000000.0 0.2342966246915349 0.2570371401673252
2240000000.0 0.1749832864722775 -0.30313611268162427
2260000000.0 -0.2416024764005038 -0.2597131829423351
2280000000.0 -0.1475980066413203 0.32978118649710714
2300000000.0 0.37286752327923345 -0.02042470693010736
2320000000.0 -0.3018847267102289 -0.2517162391755519
2340000000.0 -0.19667900929850843 0.36951953137762716
2360000000.0 0.45372937036063926 -0.01829928057772698
2380000000.0 -0.3912337365028241 -0.3106406800898069
2400000000.0 0.28091692211874136 0.47269183334689713
2420000000.0 -0.3781304242881301 -0.4692577158811883
2440000000.0 0.6133058743173244 0.22714925295179164
2460000000.0 -0.6697769854936236 0.19139397401031927
2480000000.0 0.5218135701015982 -0.5105218467112485
2500000000.0 -0.5405326548466325 0.5234818299141307
2520000000.0 0.5835802584574963 -0.49295894577637245
2540000000.0 -0.7332527835517602 0.22277238309064326
2560000000.0 0.6940894730374415 0.31153823175397344
2580000000.0 -0.12564142518411536 -0.7356304443872596
2600000000.0 -0.4639986373273381 0.5533020260190481
2620000000.0 0.6896007410024365 0.044801951123110015
2640000000.0 0.6244009474955869 -0.19486374973242843
2660000000.0 -0.4434466141631866 -0.41944802748892035
2680000000.0 -0.06297211004303511 0.5626052276234804
2700000000.0 0.36724574073753535 -0.37329389284635667
2720000000.0 -0.3875541066830797 0.2817311631886285
2740000000.0 0.3064740439534488 -0.3102822614570048
2760000000.0 -0.09513129252924013 0.3835775362570032
2780000000.0 -0.26254074812878714 -0.24656763977813706
2800000000.0 0.3201995338440432 -0.0737031898772569
2820000000.0 -0.156140657449889 0.26153146919599546
2840000000.0 0.12518210841884067 -0.259830592250665
2860000000.0 -0.17280821806962496 0.22349782567638626
2880000000.0 0.2689021808998693 -0.08539758988119184
2900000000.0 -0.2531871277801498 -0.13549979037054774
2920000000.0 -0.059267899423589517 0.2930643077771711
2940000000.0 0.28580287918732866 -0.11974587795107229
2960000000.0 -0.1367473591237365 -0.2872960736980434
2980000000.0 -0.29779821195812267 -0.13238124801354156
3000000000.0 -0.32624361968950444 -0.04351297913515237
3020000000.0 -0.2806383769206008 -0.16987954387841875
3040000000.0 0.02528701344965733 -0.3213952704738383
3060000000.0 0.2611333517233588 0.17736511651620934
3080000000.0 -0.29830251118899886 -0.05979810422607944
3100000000.0 0.28122323250095316 0.0860202971559935
3120000000.0 -0.2341251837860898 -0.15760180022160106
3140000000.0 0.05015858792630687 0.26596107602397534
3160000000.0 0.14831934725890547 -0.20926899785897327
3180000000.0 -0.07510078730956272 -0.23189669415524772
3200000000.0 0.1660062996857111 0.1567252760786515
3220000000.0 -0.1600710191443283 0.13243883242559132
3240000000.0 -0.1703234708395713 -0.07091895009219715
3260000000.0 -0.06488161037214639 -0.14138746676748887
3280000000.0 -0.1207562299619533 -0.022151779732333315
3300000000.0 0.03468516310324156 0.08152029368243224
3320000000.0 0.01327870412466277 0.052261894045091795
3340000000.0 -0.020093839513756328 0.01099991338830519
3360000000.0 -0.004609522055950101 -0.012478675300079414
3380000000.0 -0.0009484982976241299 0.025586334769136687
3400000000.0 -0.03547963418290996 0.0010022647243087808
3420000000.0 0.0148956925163585 -0.03695409990036803
3440000000.0 -0.03302639440765878 0.017095522674169104
3460000000.0 -0.007506341225154906 0.03771964946539687
3480000000.0 -0.009728996309856994 -0.05356341121500375
3500000000.0 0.016742578094794895 -0.0765523776213532
3520000000.0 0.06968583907283249 -0.07875850821904144
3540000000.0 -0.12309505071887038 -0.020011072426881684
3560000000.0 -0.0374112885792788 0.13339061919997777
3580000000.0 -0.09293919423591727 0.11699281228682056
3600000000.0 -0.13401073916830616 0.08771506558070968
3620000000.0 -0.12995792832806924 -0.10105322157627462
3640000000.0 0.1675519538106525 0.022509526643822716
3660000000.0 -0.1754270134446641 0.014681856547893097
3680000000.0 0.15595343779527399 -0.09237830635883844
3700000000.0 0.07282899233040716 0.1709971779494805
3720000000.0 -0.16477546676196136 0.09961470726914316
3740000000.0 -0.1598026602841103 0.10920552941853108
3760000000.0 -0.15522601652785462 -0.11043885956321244
3780000000.0 0.041003723087698486 -0.176367261177235
3800000000.0 0.09143043861512114 0.14101400746493753
3820000000.0 0.1505304781142523 -0.023658834430726253
3840000000.0 0.03308666339598292 0.13481389153121642
3860000000.0 0.13477177253356046 0.002313242647694643
3880000000.0 -0.13491596140973433 -0.044214907347465575
3900000000.0 -0.12268322707552058 -0.09095419550326267
3920000000.0 0.09426877506115988 0.13657621658935148
3940000000.0 -0.055352104688470724 0.16797326668332954
3960000000.0 0.16608864638688026 0.08177924662380966
3980000000.0 -0.1842273045707538 -0.006649343015208926
4000000000.0 0.046911262600515063 0.16579421948395456
