! Created with skrf (http://scikit-rf.org).
# Hz S RI R 50.0 
!freq ReS11 ImS11
400000000.0 0.23099261575180444 0.8437590234017378
420000000.0 0.6251250853817991 0.5908777189859977
440000000.0 0.7744388989561231 -0.2916217788646999
460000000.0 0.1841606785689155 -0.7669645336365422
480000000.0 0.46845646682192676 -0.5333572004256634
500000000.0 0.15921837100338113 -0.5406005675708884
520000000.0 0.011721372092550825 -0.48625863064279473
540000000.0 0.4162950377440811 -0.08411712561015072
560000000.0 -0.32023028742215975 -0.14208531757336842
580000000.0 -0.21679111211430926 0.2500232945055647
600000000.0 0.26558188552239614 0.18731815605403496
620000000.0 0.0006302321636382564 -0.34756033770943434
640000000.0 -0.24670483431131218 -0.2911661975314926
660000000.0 -0.4000122413243044 0.02761030483018027
680000000.0 -0.0171740082760321 -0.4303693534338532
700000000.0 0.3336507957969208 0.30232981621992966
720000000.0 -0.00669876905000733 -0.4492101726323214
740000000.0 0.39788400115662004 -0.18698508687445087
760000000.0 -0.3470800478792619 -0.22882425389038982
780000000.0 0.31831272823182793 -0.2125530520086448
800000000.0 -0.21625450768587987 0.27337091250990136
820000000.0 -0.1976987824412265 0.21466504150899424
840000000.0 0.10065866814879068 0.2150120119961776
860000000.0 -0.07527837361158468 0.1903070891362516
880000000.0 -0.14220305277303713 0.029211578332597805
900000000.0 0.07710321235113052 -0.020674293313636082
920000000.0 0.014125852301971152 -0.04629998295731652
940000000.0 -0.029684131725284255 -0.03021415786548237
960000000.0 -0.042546920261217216 0.03509988213449985
980000000.0 0.06332963943343782 0.007026673620217638
1000000000.0 -0.046335001934801154 -0.05075234364058113
1020000000.0 0.06509642720198676 0.04355698542532007
1040000000.0 -0.033600745746173055 0.07316733723352527
1060000000.0 -0.10106138844785499 0.05825518515368837
1080000000.0 -0.07670985876946337 0.10802511140579167
1100000000.0 -0.12791005745291528 -0.09326494199282778
1120000000.0 -0.15889200494504074 -0.10345664595451191
1140000000.0 0.10880287192035516 0.21229203414055695
1160000000.0 0.2795464210039174 -0.05400734926757419
1180000000.0 -0.08262387467178822 -0.31988714405816454
1200000000.0 -0.272212946802207 -0.24618933900934642
1220000000.0 0.16631415504675984 -0.36088903792078164
1240000000.0 0.3408889939138828 0.24316320161054575
1260000000.0 -0.42139303964405983 -0.12888437827362978
1280000000.0 0.4393233593870399 0.10507564068674237
1300000000.0 -0.3891092689790356 -0.23062553333402458
1320000000.0 -0.12197284576355205 0.42228280191908296
1340000000.0 -0.25399560042396435 0.33780763815515763
1360000000.0 -0.3054703663476456 -0.27459983822546974
1380000000.0 -0.06900300806707596 -0.4025833024404289
1400000000.0 -0.08725495084720442 -0.38539713093794203
1420000000.0 -0.05227811068730936 -0.37896155203924925
1440000000.0 -0.22864194213593209 -0.28762992017571365
1460000000.0 -0.34205544706931634 -0.05801489827208552
1480000000.0 -0.09777316452756163 0.31376934092803205
1500000000.0 0.22014294666907105 -0.21343587600550168
1520000000.0 -0.24386330584766192 -0.14192194571481256
1540000000.0 -0.14985226251820094 -0.2078563777023746
1560000000.0 -0.21041108266220804 0.06309703487965579
1580000000.0 0.029567162285485525 0.18524780670562588
1600000000.0 -0.14194548787764275 0.060178576662875474
1620000000.0 -0.11234712759071064 0.008958659624033553
1640000000.0 0.07960818804146257 -0.026736177593871757
1660000000.0 0.04391116440842397 -0.03955373300640041
1680000000.0 0.005073604894484718 -0.03008018517771739
1700000000.0 -0.014893339745106201 -0.011707817490228877
1720000000.0 0.010498691272609747 0.032181820934930196
1740000000.0 0.05402784362949914 -0.013809402640567927
1760000000.0 -0.06346963641487967 0.036673906675620635
1780000000.0 0.08281460997361158 -0.04266947672440763
1800000000.0 0.07369551667473223 0.09345400328398475
1820000000.0 0.007905100105810896 -0.13261319225911794
1840000000.0 0.12787443981742488 -0.090707993600609
1860000000.0 0.17637259435983324 -0.021248676373547357
1880000000.0 -0.15707842241115944 0.1378559163537711
1900000000.0 -0.21735950843331342 -0.11608458927372484
1920000000.0 -0.26360749126917127 0.122232590232757
1940000000.0 0.0023753106508749215 0.3362142586088487
1960000000.0 0.27993030413718756 -0.25246902350766526
1980000000.0 -0.30424532461486764 0.27207042685640104
2000000000.0 0.4340963923336861 0.015864774047836983
2020000000.0 -0.43819599809005766 -0.11421876921236213
2040000000.0 0.25310901549518683 0.3816364216197492
2060000000.0 0.016469133839275955 -0.4560469445067806
2080000000.0 -0.4109500582503821 0.16364258888729993
2100000000.0 -0.07968195596773779 0.41771084479422976
2120000000.0 0.02172862088643707 0.40276180207784396
2140000000.0 -0.30737056659153617 -0.22837031036282482
2160000000.0 -0.0325526939361091 -0.362932129294325
2180000000.0 0.3217430395235401 -0.14455887563739167
2200000000.0 0.3083481046563556 0.15375853102905768
2220000000.0 0.26270974226803945 0.2274817888412924
2240000000.0 0.16123880479332428 -0.31152559217262027
2260000000.0 -0.2793949296213424 -0.2204809010161077
2280000000.0 -0.13403141829507917 0.336029297601176
2300000000.0 0.3736542392429366 -0.022926223684106992
2320000000.0 -0.27907761076035587 -0.2767852138869491
2340000000.0 -0.22956562440854061 0.34987268948812195
2360000000.0 0.450655210181406 0.05329316355508776
2380000000.0 -0.32341783609072317 -0.38020130371668676
2400000000.0 0.17691164186908553 0.5200670224198493
2420000000.0 -0.28873252434811686 -0.5285228189512389
2440000000.0 0.5476218801743132 0.3567915607194639
2460000000.0 -0.6935837905033365 0.05659606754941107
2480000000.0 0.5828181910286049 -0.4381777630662291
2500000000.0 -0.5451049495121777 0.5172212615644345
2520000000.0 0.5999236486792406 -0.47167510951087777
2540000000.0 -0.738750523715437 0.20299523222244042
2560000000.0 0.7047947548278957 0.2870287718252084
2580000000.0 -0.12362642197866962 -0.7367341417978539
2600000000.0 -0.4098148696171373 0.5955158316669336
2620000000.0 0.689769620922787 -0.0634086413333784
2640000000.0 0.5822217308395449 -0.3023307169143682
2660000000.0 -0.5213501272096781 -0.32194945956054466
2680000000.0 -0.0519138270982705 0.5660927427914804
2700000000.0 0.31746910377048027 -0.41921391080278153
2720000000.0 -0.3664249644095341 0.31187034889091136
2740000000.0 0.3205991616766913 -0.298488666018584
2760000000.0 -0.10279439148387752 0.38337342633233384
2780000000.0 -0.23993647964776665 -0.27033986806420934
2800000000.0 0.3271545045119457 -0.032681190365031074
2820000000.0 -0.19358434967631108 0.23521136796950268
2840000000.0 0.1660696199173146 -0.23482958396334816
2860000000.0 -0.20424808932400113 0.19505272470161597
2880000000.0 0.2623027138582077 -0.10223292437998682
2900000000.0 -0.2684768630849828 -0.10077394889398718
2920000000.0 -0.051959689886972665 0.29392958398864155
2940000000.0 0.26672185304005724 -0.15773008272823325
2960000000.0 -0.19747293739949404 -0.2489360957146716
2980000000.0 -0.32591415486754666 -0.0015881061641128526
3000000000.0 -0.3188094902101968 0.07947831953132609
3020000000.0 -0.3281329196456702 -0.013740428755793595
3040000000.0 0.004518161898148117 -0.3222392589557327
3060000000.0 0.2871214532894511 0.13102401061977267
3080000000.0 -0.3011488304894052 -0.0492564628501995
3100000000.0 0.28690391409650046 0.06708692558571025
3120000000.0 -0.23021921095156708 -0.16475777310281317
3140000000.0 0.0851829875686143 0.2578965714758644
3160000000.0 0.14546514303099708 -0.2131232720911702
3180000000.0 -0.06742943623318856 -0.2360517769391494
3200000000.0 0.14977941406103112 0.17403976260700388
3220000000.0 -0.18100073550641052 0.10481538484070849
3240000000.0 -0.13764360374665735 -0.12402502681378182
3260000000.0 -0.028021802083765302 -0.15312120989115388
3280000000.0 -0.11541175298447649 -0.041280859545982054
3300000000.0 -0.03800036390009613 0.0791336653928636
3320000000.0 -0.02437913922155345 0.04613668964033079
3340000000.0 -0.021064645683161343 -0.003373785546285272
3360000000.0 -0.012736910190842263 -0.003988823693377376
3380000000.0 0.014713926063916067 -0.022515817713360607
3400000000.0 -0.03687218625609634 0.002270093336505529
3420000000.0 -0.02477042370673846 -0.032305294482407244
3440000000.0 -0.03115685044991464 0.02190014007859547
3460000000.0 -0.029875243198369556 0.025632918467543307
3480000000.0 -0.04393063196322014 -0.033135832876976405
3500000000.0 -0.0014245138311364156 -0.07913933631013274
3520000000.0 0.01063717064706859 -0.10567357856907798
3540000000.0 -0.11479356292560232 0.05379933099967281
3560000000.0 0.04639946370461175 0.1318448245667193
3580000000.0 -0.03273498378446379 0.14596138511584264
3600000000.0 -0.07133141676347216 0.14406787766148724
3620000000.0 -0.159217756645952 -0.0446915254943923
3640000000.0 0.16692413624128508 -0.03103803592431857
3660000000.0 -0.1506207366185849 0.09278118937731453
3680000000.0 0.09753062873587512 -0.154831296698339
3700000000.0 0.11904001828326519 0.14545575847820058
3720000000.0 -0.12653005372196077 0.14625911778577486
3740000000.0 -0.11303943557300476 0.158953766352413
3760000000.0 -0.17867690001314063 -0.07093681463125448
3780000000.0 0.024551108365911904 -0.1815520142246287
3800000000.0 0.1325365438106473 0.10599817306379443
3820000000.0 0.13426339641219043 -0.07716039839857473
3840000000.0 0.01939400255418656 0.13998517585621473
3860000000.0 0.13686774895912057 -0.01314628707220695
3880000000.0 -0.13872800546787856 -0.0433490111123573
3900000000.0 -0.1352601537272624 -0.07828732320444157
3920000000.0 0.09132423287781555 0.14270610044944626
3940000000.0 -0.08874822785337727 0.15721087800427905
3960000000.0 0.1364950939916102 0.1309650572589708
3980000000.0 -0.16514201111806942 -0.08853745468640292
4000000000.0 -0.061142514761731985 0.16471895301583706
