! Created with skrf (http://scikit-rf.org).
# Hz S RI R 50.0 
!freq ReS11 ImS11
400000000.0 0.20046193563011436 0.849526802357375
420000000.0 0.6149138923878512 0.602679515390799
440000000.0 0.7819412513892814 -0.26994758029478566
460000000.0 0.1047010974869366 -0.7833881384598846
480000000.0 0.47669439415454495 -0.5253109043849755
500000000.0 0.1440629755967791 -0.5454503175248332
520000000.0 -0.006251733726261833 -0.4862109061233461
540000000.0 0.42018717970516256 -0.05676873996578007
560000000.0 -0.302925106184633 -0.17699866955456006
580000000.0 -0.25785833639576344 0.20619226551031536
600000000.0 0.2605871110372016 0.19449372091562223
620000000.0 0.05271111862928628 -0.3435879321292764
640000000.0 -0.254478967279317 -0.2847724963716639
660000000.0 -0.4008980066057493 0.016653965549460106
680000000.0 0.01725816727741261 -0.4310517886858612
700000000.0 0.29116079795838085 0.34335067781072187
720000000.0 -0.016694687542503864 -0.4488134363734262
740000000.0 0.4132085199046385 -0.15030622751503192
760000000.0 -0.3783857591364021 -0.17255222818386906
780000000.0 0.3227306737963927 -0.20610924493716742
800000000.0 -0.2298829299596926 0.2627700673620214
820000000.0 -0.18425682328122922 0.2269632789234259
840000000.0 0.09174925164936364 0.21911240215975109
860000000.0 -0.10798605788617285 0.1744769855807891
880000000.0 -0.14021898941757388 -0.035566988782767456
900000000.0 0.06915822358436907 -0.03842335365012512
920000000.0 0.031036236667064676 -0.03665480624774141
940000000.0 -0.01666663634838047 -0.03906649112902162
960000000.0 -0.03888941926307561 0.03939423177114256
980000000.0 0.06348751965838616 0.0024813354982754893
1000000000.0 -0.05679953880276634 -0.039943690063169314
1020000000.0 0.0751024136767717 0.024412858401209988
1040000000.0 -0.03205902992768927 0.07453076921345524
1060000000.0 -0.1132535623193581 0.02903413716515092
1080000000.0 -0.10371243071935667 0.08195522261593921
1100000000.0 -0.12326554850021879 -0.09868798108892572
1120000000.0 -0.1291068653726989 -0.13833721122630077
1140000000.0 0.08030007736821984 0.22368606405336175
1160000000.0 0.28391125785981075 -0.0036223344984330275
1180000000.0 -0.04741382792046045 -0.3266473676679503
1200000000.0 -0.26695858847931625 -0.2513320863714282
1220000000.0 0.16504957607722476 -0.3606232798150754
1240000000.0 0.32468807720815235 0.2649578671435178
1260000000.0 -0.4166669761326889 -0.14430769023882084
1280000000.0 0.43987477921968227 0.10190787464297228
1300000000.0 -0.3722833627025463 -0.25663798989024306
1320000000.0 -0.0872162808347148 0.43068530359945423
1340000000.0 -0.24869923462355362 0.34288012540248536
1360000000.0 -0.3077356292698073 -0.272165530152741
1380000000.0 -0.05235270882276552 -0.4053932913282479
1400000000.0 -0.09936659807996816 -0.38274207136248156
1420000000.0 -0.022872649239892785 -0.38202360564315724
1440000000.0 -0.2185686301543072 -0.295160093190799
1460000000.0 -0.33955602875564644 -0.07021597343955922
1480000000.0 -0.12408583605571157 0.3037583542441297
1500000000.0 0.2378192417296818 -0.19300191879604073
1520000000.0 -0.22077236416357326 -0.1761398987883637
1540000000.0 -0.15676767665701993 -0.2012064426242342
1560000000.0 -0.21701053105391274 0.03375167353243279
1580000000.0 0.0026566682176942676 0.18777668654976712
1600000000.0 -0.15413401421199577 -0.011114238628440536
1620000000.0 -0.11098789668751405 0.019449453696508617
1640000000.0 0.08037334236629917 -0.02519679495850102
1660000000.0 0.028352412773547414 -0.05200837766936059
1680000000.0 -0.008418679348059463 -0.029693564814343813
1700000000.0 -0.011390761410982896 -0.014982162446739566
1720000000.0 0.020465335462777675 0.026096111493843797
1740000000.0 0.045786588103860854 -0.031155391015000596
1760000000.0 -0.06909712661469798 0.023983305408928787
1780000000.0 0.0891043472450378 -0.02601168218683871
1800000000.0 0.08314666653534933 0.08539495375094791
1820000000.0 0.030002277843173445 -0.1295116106753793
1840000000.0 0.12184561464471591 -0.09856159472407426
1860000000.0 0.17215073860485394 -0.04358510864065886
1880000000.0 -0.13881284101747393 0.15617102649996337
1900000000.0 -0.2219617057320687 -0.1074820416631445
1920000000.0 -0.26061594968839735 0.12815781420145966
1940000000.0 0.012809536275226607 0.3355129312834398
1960000000.0 0.26311493578124906 -0.269730081320249
1980000000.0 -0.27843272841506106 0.29828155648135196
2000000000.0 0.43387092623463175 0.018242608233920876
2020000000.0 -0.4415365541454486 -0.09915489881413508
2040000000.0 0.22420355930053917 0.3995314194927395
2060000000.0 0.017944558753707103 -0.4557823477070497
2080000000.0 -0.4150685110649656 0.15556069114208235
2100000000.0 -0.09250035653970937 0.41611893433560165
2120000000.0 0.03565831881154555 0.4030682683630344
2140000000.0 -0.29693343601341765 -0.2432145330936663
2160000000.0 -0.02596836831925582 -0.36381514394284703
2180000000.0 0.3362132325098273 -0.10764265184279352
2200000000.0 0.2950176876911395 0.17846600015119
2220000000.0 0.2557272594079066 0.23611151608530515
2240000000.0 0.1801539490554764 -0.30115594443940813
2260000000.0 -0.23934025397349631 -0.26348857025212996
2280000000.0 -0.1730533226589278 0.3184913523486391
2300000000.0 0.3737131123154594 0.02324404769706447
2320000000.0 -0.27297998598142675 -0.28350293115976616
2340000000.0 -0.2685637785783903 0.3208230181407661
2360000000.0 0.44856815994006144 0.06939668667760748
2380000000.0 -0.3171365846729821 -0.3852576341438627
2400000000.0 0.2133962525144191 0.5060635583697771
2420000000.0 -0.3018640018116844 -0.5211153699136062
2440000000.0 0.5858810184138828 0.28927413141690317
2460000000.0 -0.6829266441466756 0.13335403599117854
2480000000.0 0.5597044414708985 -0.4683323894912229
2500000000.0 -0.5041168761962214 0.5577366926923393
2520000000.0 0.5793522872448615 -0.49764639538284744
2540000000.0 -0.7172241254278805 0.270748639789333
2560000000.0 0.7067406733738444 0.2832330363751259
2580000000.0 -0.1937427772946001 -0.721609350124722
2600000000.0 -0.4202321533583018 0.589149471285888
2620000000.0 0.692966889210243 0.014713873108294473
2640000000.0 0.6143745363852764 -0.23135357832680448
2660000000.0 -0.4767228084651859 -0.3857944844854176
2680000000.0 -0.07722240586414005 0.5635243624474676
2700000000.0 0.37315921091818194 -0.3712980136055206
2720000000.0 -0.3914744803486954 0.2810426908341154
2740000000.0 0.32080181790704587 -0.29899050245244285
2760000000.0 -0.12833417681882767 0.37630875842403383
2780000000.0 -0.22052340510386284 -0.28711111917482823
2800000000.0 0.3295154134043443 0.00019565914457469428
2820000000.0 -0.21733529779068847 0.21384635497310422
2840000000.0 0.19573846162697897 -0.21194596726393744
2860000000.0 -0.23184617325249385 0.16158779212075775
2880000000.0 0.2757581494417709 -0.05549901261090292
2900000000.0 -0.23778696212500028 -0.15955382117015265
2920000000.0 -0.06355995602649502 0.2913048763740495
2940000000.0 0.27164446794918834 -0.14748170158380966
2960000000.0 -0.17862547720627794 -0.2622406154586323
2980000000.0 -0.31936912259561284 -0.058743702705893075
3000000000.0 -0.3281284979433776 0.014686146617269637
3020000000.0 -0.32392657166463523 -0.048678113751460125
3040000000.0 -0.08398779323291256 -0.310795802074425
3060000000.0 0.30384349090434654 0.08504188737713901
3080000000.0 -0.3025590599954074 0.03761722625616111
3100000000.0 0.29339146098705976 -0.026746721499202465
3120000000.0 -0.24759866580865067 -0.135167847649588
3140000000.0 0.12800712936584646 0.23963432359657727
3160000000.0 0.10084185282322243 -0.23726989285756317
3180000000.0 -0.12979648735542196 -0.20803143806200788
3200000000.0 0.20435140299976925 0.10524919963353069
3220000000.0 -0.13180232046739196 0.162566184743971
3240000000.0 -0.17628142529995078 -0.05916455201242955
3260000000.0 -0.08568054225820701 -0.13125329516087064
3280000000.0 -0.12365715988459207 -0.0017741977098133096
3300000000.0 0.01768648458226503 0.08758123318246212
3320000000.0 -0.008313150202911578 0.05346652438222456
3340000000.0 -0.009602034042838596 -0.02086001826101924
3360000000.0 -0.0010064909150238298 0.012654690871019508
3380000000.0 0.023274953441934077 -0.010585581252953469
3400000000.0 -0.007012400438609193 0.03495825551051835
3420000000.0 -0.030320485622217806 -0.02580697275435861
3440000000.0 -0.007607460413546709 0.036406405201945484
3460000000.0 -0.008703664348915384 0.03702644479939981
3480000000.0 -0.03117771899881822 -0.044756781560243396
3500000000.0 -0.031453536499781436 -0.07222299559959786
3520000000.0 0.00031332755251431757 -0.1057889985784444
3540000000.0 -0.11439104825728029 0.05120738223702361
3560000000.0 0.009814600897486979 0.13852289089813574
3580000000.0 -0.020177574284180613 0.14896606682257285
3600000000.0 -0.10484332401342233 0.12142854051583278
3620000000.0 -0.14647875704782515 -0.07612097349040133
3640000000.0 0.16974255224084836 -0.0099194586618741
3660000000.0 -0.1721505495384148 0.041290936542366714
3680000000.0 0.1431470125973801 -0.11313834046152885
3700000000.0 0.0912957491328141 0.16335197054660092
3720000000.0 -0.15256068691413596 0.11933430145321568
3740000000.0 -0.1645128336462604 0.10445882128071338
3760000000.0 -0.15602130329199443 -0.1117513709931677
3780000000.0 0.04783582668243163 -0.1760344097256482
3800000000.0 0.08160405341558515 0.14787311729445035
3820000000.0 0.1535530697819741 -0.0032701956586333237
3840000000.0 0.04018434941034588 0.13327689131249407
3860000000.0 0.13545914987474206 0.002951607027264522
3880000000.0 -0.12885530277516466 -0.06209235845622909
3900000000.0 -0.11020512866812922 -0.10760741679143293
3920000000.0 0.07087345679433167 0.1512744556386129
3940000000.0 -0.06649959009396393 0.16561362003448457
3960000000.0 0.16724396539459901 0.08104840140925589
3980000000.0 -0.18354971010509888 -0.021853528389006692
4000000000.0 0.03337921508848346 0.16938441009535457
