! Created with skrf (http://scikit-rf.org).
# Hz S RI R 50.0 
!freq ReS11 ImS11
400000000.0 0.2095318714901371 0.8474909409256514
420000000.0 0.6379583766594633 0.5763758499921178
440000000.0 0.801593644216769 -0.19371870800877178
460000000.0 0.2754426743173126 -0.7375787849449038
480000000.0 0.6546887653949912 -0.2515167540344112
500000000.0 0.5627036920516255 -0.04381342775390739
520000000.0 0.39742548264152733 -0.29206217053546296
540000000.0 0.3478976858296394 0.26057479580117193
560000000.0 -0.281764975506305 -0.2265818381014152
580000000.0 -0.2731035347387121 0.20706088937558506
600000000.0 0.29573144061987283 -0.16338658620246985
620000000.0 -0.3566031553419726 -0.03817963635830976
640000000.0 -0.33534617077351125 0.19089088883762065
660000000.0 -0.10191539028276633 0.38614452438490343
680000000.0 -0.3495585121369863 -0.24124671673647138
700000000.0 0.2429908705596574 0.37047970211189535
720000000.0 0.12172460639864108 -0.42787807417315554
740000000.0 0.4236945186191461 -0.1121591790166355
760000000.0 -0.4126136627876633 -0.06647540421078325
780000000.0 0.0372018618066321 -0.3825064011923106
800000000.0 0.1906600325540717 0.2912390969170865
820000000.0 0.10637452495226565 0.26432511127605485
840000000.0 0.09503802978585153 0.20694438826508318
860000000.0 -0.08144596569402017 0.17648993252274736
880000000.0 0.07872963943969609 0.10427437249877287
900000000.0 0.07119630333700033 0.006505508921742693
920000000.0 0.022808107213358353 0.0339093426132816
940000000.0 0.005185269755832778 0.02554441998150773
960000000.0 -0.027938702960525266 -0.019927331465792588
980000000.0 0.006858276867247193 -0.0504457058273686
1000000000.0 -0.05538352314538513 -0.01565749670202899
1020000000.0 0.04490887063419083 0.059914978525932736
1040000000.0 0.02453693275119245 0.08309292476869347
1060000000.0 -0.12651221985314862 0.015196597303416996
1080000000.0 0.14788881782080926 -0.015344532790514804
1100000000.0 -0.03705972171873831 -0.1761228530390678
1120000000.0 -0.08011530796537325 0.19391908766462862
1140000000.0 -0.05161607913170243 -0.24526225967586088
1160000000.0 -0.2825456080604677 0.07019932083931622
1180000000.0 -0.054580179032072254 0.3262184633793785
1200000000.0 -0.10031230271358434 0.3467316541343391
1220000000.0 -0.351942388517443 -0.16080834327252655
1240000000.0 0.40666888927728034 0.011055013663838266
1260000000.0 -0.41024483786316734 -0.12524413172751075
1280000000.0 0.3570931717076904 0.25707808924714876
1300000000.0 -0.07789411003793023 -0.43623447572738444
1320000000.0 -0.4335400329448571 0.003244332953823304
1340000000.0 -0.34604814228729447 -0.2423360003030073
1360000000.0 0.1621972090835856 -0.38128375205940096
1380000000.0 0.3302619632276403 -0.25308617090147967
1400000000.0 0.2329488276484232 -0.33283578205181796
1420000000.0 -0.13157557492563982 -0.37424430738831527
1440000000.0 -0.3659683496459037 -0.09832385494566251
1460000000.0 -0.052989206716715344 0.3562113067719162
1480000000.0 0.24938334757048872 -0.22533443712578743
1500000000.0 -0.23332025237776113 0.19983072920884787
1520000000.0 0.27521940011371515 -0.03833330489002698
1540000000.0 0.22947505110909305 0.0821539310004222
1560000000.0 0.17832518827164925 0.09366968316760989
1580000000.0 0.014027549105846856 0.1640555083002538
1600000000.0 0.09985342051347312 -0.08175053645584508
1620000000.0 0.06435576440723596 0.06650301090188881
1640000000.0 -0.03410988051388908 -0.061579628876645906
1660000000.0 -0.04580112719747401 -0.00022884338271246952
1680000000.0 -0.02317892122648965 0.006060170422549616
1700000000.0 -0.010504127495890905 -0.003375232489215146
1720000000.0 0.0022366748919565647 -0.012367660356134251
1740000000.0 0.001486801818986953 -0.029407458522121104
1760000000.0 0.043490310930438855 0.0004853792181703988
1780000000.0 0.04467852576886988 -0.05347660626804794
1800000000.0 -0.021247780861160123 0.095153423739815
1820000000.0 -0.11404065384584317 0.04440134990824252
1840000000.0 -0.023622052965985154 0.15480671187484282
1860000000.0 0.14516922693667134 0.12099215223191542
1880000000.0 0.18321588262113603 -0.13448571213168775
1900000000.0 -0.1594595772102574 -0.21903718706876169
1920000000.0 0.1602894297880555 0.2667661955392072
1940000000.0 0.08757119793900356 -0.33884740005880265
1960000000.0 -0.23817055220394007 0.29954474468071896
1980000000.0 0.36174647780026636 -0.18588467057644112
2000000000.0 -0.3470010676121663 -0.24529232211082988
2020000000.0 -0.0727570709345879 0.4297344434674525
2040000000.0 0.42955801094075624 0.09147435941432823
2060000000.0 0.25938715484030705 -0.35134654957063727
2080000000.0 -0.0957659730300125 -0.4170949279219973
2100000000.0 -0.07406728413447258 -0.4122998635183072
2120000000.0 -0.10389913389139607 -0.39585812890481453
2140000000.0 -0.11734040668849563 -0.381319037851266
2160000000.0 0.32533108547998063 -0.20822911199903194
2180000000.0 0.2284172309920228 -0.29493194031803943
2200000000.0 0.10581157462848323 -0.34646774834192784
2220000000.0 -0.23750301292407705 -0.26314856967814576
2240000000.0 -0.31303342513318133 0.15366785494555715
2260000000.0 -0.04969276062073078 0.3434365934627383
2280000000.0 0.2160194634489462 0.27389681007165617
2300000000.0 0.32342991808456467 -0.160884863147266
2320000000.0 -0.07930489167218775 -0.37384962337936967
2340000000.0 -0.407708904756559 0.06736280541726745
2360000000.0 0.32208023585494383 0.3195436624081698
2380000000.0 -0.28104670940387005 -0.4160023970862559
2400000000.0 0.27037945351083875 0.4838676116484457
2420000000.0 -0.48495114760250224 -0.3661385374188469
2440000000.0 0.6564936423634911 -0.034605993126599364
2460000000.0 -0.5199877017769508 0.46698410337944013
2480000000.0 0.24533732624299484 -0.6881308140898829
2500000000.0 -0.19672053877588283 0.7255593326514496
2520000000.0 0.37111251517947086 -0.6674498874001017
2540000000.0 -0.6418738795605766 0.4185473910786849
2560000000.0 0.7547519169178165 0.09622297657246749
2580000000.0 -0.26612039620869604 -0.6972125789145927
2600000000.0 -0.3431383377220627 0.6353325610386965
2620000000.0 0.6861375286312935 -0.08780050828057953
2640000000.0 0.5289891219050553 -0.38522867851136017
2660000000.0 -0.6003743561449706 -0.10873156335842955
2680000000.0 0.30748298073881974 0.4721735956785447
2700000000.0 0.04127928410347388 -0.5147932538846659
2720000000.0 -0.26058968778238634 0.3878103581176056
2740000000.0 0.38155119422784267 -0.18292028906763455
2760000000.0 -0.3820370886111639 0.019450713792959644
2780000000.0 0.345053049273297 -0.07300850457464567
2800000000.0 -0.2567145898618506 0.20303368691350598
2820000000.0 -0.01602891865859558 -0.31012153840731727
2840000000.0 0.2673514577275146 0.13375420282777709
2860000000.0 -0.20993402977070025 0.20827599074278963
2880000000.0 -0.09451190743953651 -0.2797599125390486
2900000000.0 0.1421026472007406 0.25968073615416576
2920000000.0 0.05794461042902265 -0.29515730492145487
2940000000.0 -0.3057642266263685 0.02855414094580197
2960000000.0 -0.12406670180296535 0.28282537163152716
2980000000.0 -0.2292505175258655 0.2118195094427545
3000000000.0 -0.3111169100843938 -0.05122465145524247
3020000000.0 -0.04668823497330066 -0.31450830840364596
3040000000.0 0.2849455998781231 0.13883114512064515
3060000000.0 -0.30964509445885346 0.05529052912436505
3080000000.0 0.271987721406266 -0.14912695113170013
3100000000.0 -0.18958560232572438 0.2376876428971501
3120000000.0 0.04946985203389649 -0.2908876145751818
3140000000.0 0.11797247466685079 0.2585843541032775
3160000000.0 -0.2215431853018233 -0.15146838953228098
3180000000.0 -0.016947689356217304 0.24883847516664157
3200000000.0 -0.17413464494095315 -0.145622796050271
3220000000.0 0.17175692964435685 -0.10070612225816483
3240000000.0 -0.025447478682312 0.1672617912899196
3260000000.0 0.048138322222231356 -0.12886411409920828
3280000000.0 -0.04494914790703705 0.0964161854165995
3300000000.0 0.07802714502625971 -0.009490266481170224
3320000000.0 -0.04429945846888027 0.02529667709641135
3340000000.0 -0.026607380711650648 -0.0007211848270134264
3360000000.0 0.004782677340222927 0.004543477758582287
3380000000.0 -0.0063349361071797184 0.009871580216107411
3400000000.0 0.022117413321163088 -0.01403371723804404
3420000000.0 0.03501041108768313 -0.018332829109274133
3440000000.0 -0.04797606496432388 -0.016565603642643794
3460000000.0 -0.034616484241677126 0.045368871523467615
3480000000.0 0.039709665226504806 -0.05345056581642133
3500000000.0 -0.011050465619384985 -0.07947965059669627
3520000000.0 -0.044154957905717475 -0.08500369378532584
3540000000.0 0.0580472594536829 0.09524585072190475
3560000000.0 -0.12565680670185736 -0.009657619873242443
3580000000.0 0.13842765688887082 0.012708068140563036
3600000000.0 0.008063612734325543 0.15718540376284834
3620000000.0 -0.050785603760978716 0.1609657957512859
3640000000.0 -0.17762075274238712 0.023957358898447873
3660000000.0 -0.18074846006656664 -0.05460819619801541
3680000000.0 -0.10006604366771094 -0.16505604429163231
3700000000.0 -0.04410685158940937 -0.18757208766172695
3720000000.0 0.13264195681299912 -0.13709878612993065
3740000000.0 0.16755949318867663 -0.08058652520671285
3760000000.0 -0.16475268635646442 0.0689054638593792
3780000000.0 0.15512836087711787 -0.06399563681520767
3800000000.0 0.035004784818397194 -0.15530739828391682
3820000000.0 0.025796819949063923 -0.15029589982627625
3840000000.0 0.1330433479461026 -0.06283815316258747
3860000000.0 0.009825410107943178 0.14836622012969575
3880000000.0 0.09305551401074544 0.12455096358181356
3900000000.0 0.010345704169031038 -0.15807168190342447
3920000000.0 -0.13750456095134034 0.0866148653851504
3940000000.0 0.09676295310484513 -0.13540685574254444
3960000000.0 0.16037883771576697 0.05406252533204585
3980000000.0 0.16870264714685063 -0.016721249607964
4000000000.0 0.15864379134730902 -0.03862195866977151
