! Created with skrf (http://scikit-rf.org).
# Hz S RI R 50.0 
!freq ReS11 ImS11
400000000.0 0.18493900480857717 0.8507121683038764
420000000.0 0.667028620227841 0.5385500469955374
440000000.0 0.7940085134780361 -0.2172854831268186
460000000.0 0.1522220668346834 -0.7706086517687872
480000000.0 0.6410115893024956 -0.2819015371777787
500000000.0 0.5572585049817451 -0.0880192017663358
520000000.0 0.40140811600472387 -0.28893969524668356
540000000.0 0.3488603774286807 0.25478233406092626
560000000.0 -0.2778187742225493 -0.23301191852125658
580000000.0 -0.26234981940930724 0.2203999875673119
600000000.0 0.33926687450998616 -0.042015013563893734
620000000.0 -0.35052671064491525 -0.06466796945155347
640000000.0 -0.33027035682371897 0.20001619337381998
660000000.0 -0.16414087845220685 0.3650435432818635
680000000.0 -0.3442987138251255 -0.250099807281621
700000000.0 0.2638519074731558 0.3556191390809853
720000000.0 0.25416675167686836 -0.3660634350932693
740000000.0 0.4392850856243183 0.005436396685316883
760000000.0 -0.40106386892470336 -0.11694360893086145
780000000.0 0.07360791886526706 -0.37612581313451465
800000000.0 0.19216886358178648 0.2885967508249051
820000000.0 0.23349728460590832 0.16184440446443465
840000000.0 0.18700757748173308 0.13089676945867557
860000000.0 -0.06847138646529204 0.181191703699485
880000000.0 0.13132700234840902 -0.012097698038581985
900000000.0 0.015765780317908967 -0.07206865506121558
920000000.0 0.035008915839235405 0.0248726055018861
940000000.0 0.017976302649780826 -0.017723208387868918
960000000.0 0.02068779884070696 -0.02573881840278268
980000000.0 0.013675993438667709 -0.047513373900366994
1000000000.0 -0.037232561312946943 0.041402724637355975
1020000000.0 0.06947212151613907 0.02071551670996306
1040000000.0 0.08578972236767221 0.00324509926926958
1060000000.0 -0.0840988827018618 0.09556680938251166
1080000000.0 0.08854690481621336 -0.12024219910237273
1100000000.0 -0.08343131119950604 -0.16075587761000065
1120000000.0 -0.026009894317940787 0.21024918388553543
1140000000.0 -0.06992736016026185 -0.2428641061621698
1160000000.0 -0.2882554953914324 0.05614455656783932
1180000000.0 -0.14529428466076652 0.2987091049728441
1200000000.0 -0.1678707778129651 0.3213707787932711
1220000000.0 -0.29902946187677726 -0.24614326244986529
1240000000.0 0.39913513134652284 0.08238492842063108
1260000000.0 -0.386754998182455 -0.1855358475443752
1280000000.0 0.3361619386784891 0.2841055146341679
1300000000.0 -0.0022958022389615233 -0.4425993909870336
1320000000.0 -0.43347718875059826 -0.0035661099632516434
1340000000.0 -0.3255671723135337 -0.2687401982581908
1360000000.0 0.14189860639749202 -0.3887557275239572
1380000000.0 0.3225921528336407 -0.26096144814846506
1400000000.0 0.20965407997260652 -0.3474278884189104
1420000000.0 -0.14896752209154163 -0.36715281966532504
1440000000.0 -0.37724646708199916 -0.03876044200980051
1460000000.0 -0.008970226005074728 0.3600296553632247
1480000000.0 0.21992117232324218 -0.25497822075910603
1500000000.0 -0.2082306165466901 0.2262204937957919
1520000000.0 0.27385395648043487 -0.05151241422503349
1540000000.0 0.2396371135585082 0.047131174562778294
1560000000.0 0.18554851480804202 0.08038684312310382
1580000000.0 0.04738058070500378 0.15852728471964267
1600000000.0 0.12068443372106855 -0.04837766050628419
1620000000.0 0.06303417059650455 0.06846457848175735
1640000000.0 0.005217274255528004 -0.07025101801808914
1660000000.0 -0.03852153922382259 -0.024783074081787423
1680000000.0 -0.009875668113641543 -0.021813449459449265
1700000000.0 -0.004421882704536581 0.00994638490574429
1720000000.0 -0.009682366726749221 -0.008372359780084333
1740000000.0 -0.012865415720877706 -0.025891896120684738
1760000000.0 0.042539028727689214 -0.0086900113861833
1780000000.0 0.012393103816091945 -0.06863458238360444
1800000000.0 -0.02531440519102221 0.09457400661525063
1820000000.0 -0.11294083670011648 0.047600559583490444
1840000000.0 -0.03285341927818955 0.15334322488390675
1860000000.0 0.16751170056934422 0.08785357932283001
1880000000.0 0.18332408570286096 -0.13504021541517977
1900000000.0 -0.18540843443727772 -0.19863101131617752
1920000000.0 0.14559568061990094 0.2758234612857304
1940000000.0 0.07864306572247183 -0.3418279183459168
1960000000.0 -0.254354929409571 0.28670533791736064
1980000000.0 0.36200977093921505 -0.18597352737357706
2000000000.0 -0.3237335908466535 -0.27516491445634816
2020000000.0 -0.07275441483527446 0.42964809699631956
2040000000.0 0.41682167254470365 0.1366695100673698
2060000000.0 0.23927182899990607 -0.3645963621445662
2080000000.0 -0.058604073029732875 -0.4231561890498587
2100000000.0 -0.08689785753536579 -0.4085137099684708
2120000000.0 -0.10239489398992856 -0.39472836514452414
2140000000.0 -0.1599020418617573 -0.36365661199925237
2160000000.0 0.3049017247052874 -0.2344622182811061
2180000000.0 0.1813388355677091 -0.32437565793071393
2200000000.0 0.04457096823100538 -0.3581214711682234
2220000000.0 -0.2992559736164451 -0.18709912712588886
2240000000.0 -0.2621006942661719 0.2285112011139123
2260000000.0 0.06885268513128748 0.3394411281093982
2280000000.0 0.2897825646331028 0.1934652435916709
2300000000.0 0.254130427953939 -0.2567366932645054
2320000000.0 -0.1797561837666748 -0.33765393081617107
2340000000.0 -0.3766762127210672 0.17191435286005888
2360000000.0 0.38151824561727143 0.24762510705684274
2380000000.0 -0.3255188902345371 -0.3832364465643459
2400000000.0 0.30428566842796095 0.46429421828244183
2420000000.0 -0.5004739945233984 -0.34566534439409324
2440000000.0 0.6563506170185314 -0.04298127083647268
2460000000.0 -0.5235051609321294 0.463224608872411
2480000000.0 0.2631084745783726 -0.6815487540306804
2500000000.0 -0.232375006913533 0.7143229831302675
2520000000.0 0.3567656159672392 -0.6738316494516866
2540000000.0 -0.6457995463203806 0.4100362911291379
2560000000.0 0.7534236167179964 0.0936305236920771
2580000000.0 -0.3232278126614327 -0.6700467037327823
2600000000.0 -0.2866231803462292 0.6599671802550454
2620000000.0 0.6692681925360601 -0.1621946024268351
2640000000.0 0.4650406488194814 -0.4562008201141324
2660000000.0 -0.605724488941393 -0.04096824659852148
2680000000.0 0.35953884948229864 0.4299984977023327
2700000000.0 -0.03121538281414806 -0.5125438615838628
2720000000.0 -0.19344140072393318 0.42240083762669844
2740000000.0 0.34642636171790003 -0.238631173547342
2760000000.0 -0.37028436059104086 0.0891658095841177
2780000000.0 0.31432546166131564 -0.1561829847631861
2800000000.0 -0.21043243582435933 0.24934859268632814
2820000000.0 -0.07975286977908033 -0.2991916015655345
2840000000.0 0.28669659733022723 0.08460124339174865
2860000000.0 -0.19083099426180697 0.2262368040279719
2880000000.0 -0.10457768971144296 -0.27639220622269456
2900000000.0 0.13900651004762873 0.26215264964361734
2920000000.0 0.09084904242697753 -0.2871027397266132
2940000000.0 -0.30697120049730914 0.0044534938094154255
2960000000.0 -0.18273166618613118 0.24891352915508197
2980000000.0 -0.24325923456902374 0.19549529511296793
3000000000.0 -0.2891426540612483 -0.12479946655244838
3020000000.0 0.03779659664654315 -0.3149858140589827
3040000000.0 0.23766366528435082 0.2083288464174856
3060000000.0 -0.312611871928975 -0.027330587701609788
3080000000.0 0.28249919438190096 -0.12460261700968647
3100000000.0 -0.18952759686079787 0.23647913917249822
3120000000.0 0.10083722906009664 -0.2757831385968411
3140000000.0 0.07647327400199197 0.2723617777139313
3160000000.0 -0.20366102353332713 -0.1725869017728579
3180000000.0 -0.06253530539147832 0.23998350113591096
3200000000.0 -0.17757036657835792 -0.1400250768365159
3220000000.0 0.16221865237392089 -0.1139703570113782
3240000000.0 0.0021463397990533805 0.16864737468610141
3260000000.0 0.04019876488846343 -0.13102820775393756
3280000000.0 -0.036480284441780496 0.10014479049597066
3300000000.0 0.07904307610053635 -0.0060650487071834125
3320000000.0 -0.05027722310676763 0.011404969626169928
3340000000.0 -0.008209735637746325 -0.025833279031426987
3360000000.0 -0.0033017499416744126 0.005765932865238473
3380000000.0 -0.010379334421794778 -0.002329646885622459
3400000000.0 -0.023070915036109686 -0.010481244407630711
3420000000.0 -0.0043272648919186075 -0.03822633521192478
3440000000.0 -0.03576872976481529 0.03415680363597737
3460000000.0 0.017486754634690006 0.05331684486569463
3480000000.0 -0.04691155784848545 -0.04637353204834072
3500000000.0 -0.060315738632710184 -0.05091674800292574
3520000000.0 -0.0871234140696384 -0.03630086963302875
3540000000.0 0.108040004207598 0.0244286128524667
3560000000.0 -0.11550211442181879 0.04749460942845037
3580000000.0 0.13166931574042068 -0.040052144785400014
3600000000.0 0.058694268415026514 0.144967820443032
3620000000.0 0.03078709421871687 0.16596386016771675
3640000000.0 -0.14466258804488888 0.10502916871963107
3660000000.0 -0.18349658521696616 0.04425676825577572
3680000000.0 -0.15985761458866227 -0.10838325686938007
3700000000.0 -0.11907432794388023 -0.15188508729780328
3720000000.0 0.05622880608118022 -0.18313034657749838
3740000000.0 0.14190931488504763 -0.12126554042323169
3760000000.0 -0.12239871096409459 0.13120032896011
3780000000.0 0.13054989172321468 -0.10687977762670446
3800000000.0 -0.021447591635630644 -0.15865919838752096
3820000000.0 -0.01703515992275189 -0.15264358996248642
3840000000.0 0.09929891295281937 -0.10996488170170572
3860000000.0 0.05301906036237654 0.14015986724956336
3880000000.0 0.13155117682933493 0.08472405254671063
3900000000.0 -0.03530926111356253 -0.15544258193473315
3920000000.0 -0.09549887982414741 0.132407986720086
3940000000.0 0.023652114704659395 -0.1651665581209328
3960000000.0 0.17013197412829584 -0.009916125795584504
3980000000.0 0.1307653124477451 -0.1090730860229372
4000000000.0 0.10288280290707821 -0.12787555864364383
