! Created with skrf (http://scikit-rf.org).
# Hz S RI R 50.0 
!freq ReS11 ImS11
400000000.0 -0.7042402692811522 0.5061323355189333
420000000.0 0.2720299436494697 0.8210794248893009
440000000.0 0.7943409140859433 -0.26892966698036147
460000000.0 0.19965954650070056 -0.7622940676947182
480000000.0 0.5439628437460083 -0.473482662308192
500000000.0 -0.352677842112683 -0.4374505415656311
520000000.0 -0.431174659421886 -0.2352313022646829
540000000.0 -0.054832758275108424 -0.40808340997141945
560000000.0 -0.35203223950647067 -0.09802377254187619
580000000.0 0.2404276977373483 -0.21100116365346452
600000000.0 -0.054022966507596686 -0.3247830506931454
620000000.0 0.27742598125514567 -0.18327801949138778
640000000.0 -0.3468739896329146 -0.00817017615114214
660000000.0 -0.270718372617326 0.27179695851332064
680000000.0 0.11719631206672512 -0.3863709521401224
700000000.0 -0.40028923065869015 0.17760338132014086
720000000.0 -0.017588036917200775 0.438987966449143
740000000.0 -0.4294352093616104 0.14885868927899928
760000000.0 -0.03484496094431438 -0.4327490596935922
780000000.0 0.3538818058410943 0.19000498850745237
800000000.0 -0.009736472925036524 0.36367654110584496
820000000.0 -0.10891659511801885 0.2806643491995516
840000000.0 0.1690199752696407 -0.18581919682546671
860000000.0 0.014331374492678866 -0.20001940518082262
880000000.0 -0.07975953200872714 -0.12681561524599694
900000000.0 0.06721340102769316 0.03082988928021072
920000000.0 0.007870025583992113 -0.041486575300863034
940000000.0 -0.04595666624611244 0.014483512745230558
960000000.0 0.0033542035067246363 -0.058446776853041185
980000000.0 0.018997137329371125 -0.060034370622940744
1000000000.0 0.05897160816056072 -0.035293894156893525
1020000000.0 0.06752890661876998 -0.023849769396702553
1040000000.0 -0.06764450623291916 -0.038349566420900386
1060000000.0 0.10796750394166414 -0.028386420055063432
1080000000.0 0.12175838504958608 -0.05597256743620408
1100000000.0 0.06795112147014828 -0.14474690185965472
1120000000.0 0.0002766842183256103 -0.1956956738993407
1140000000.0 0.18390037005026294 0.1576898534078784
1160000000.0 0.1624208509189199 -0.23696568102740884
1180000000.0 -0.31145147907756987 0.11266906915733514
1200000000.0 -0.3617749087633346 -0.004364391531287248
1220000000.0 -0.24291491655527755 -0.3115033920919887
1240000000.0 0.3959782373068514 0.11806286889707761
1260000000.0 -0.436048551139637 -0.028184684008995833
1280000000.0 0.4306388122482365 0.10503795781512962
1300000000.0 -0.15950510159712172 -0.4194296325710378
1320000000.0 -0.36620923759093466 0.2376895517106769
1340000000.0 -0.3891375244704212 -0.17599102233357047
1360000000.0 -0.11057510357524993 -0.4070883745561973
1380000000.0 -0.1407309121821702 -0.39682066860253146
1400000000.0 -0.39647580668071225 0.07966275529056516
1420000000.0 -0.37771436889715815 0.09163258642466533
1440000000.0 -0.06056001348132645 0.3624467139386859
1460000000.0 -0.008551335823410165 0.3406362539646801
1480000000.0 0.18424989123906535 0.26374661934959537
1500000000.0 0.23547951819484353 -0.18405312053117764
1520000000.0 -0.18574542155280382 0.20223811640875128
1540000000.0 0.2404114073695504 -0.07874172366533466
1560000000.0 0.16678881529219075 -0.1441318256726562
1580000000.0 -0.0736317319986908 -0.17343730001573596
1600000000.0 0.15030631729325608 -0.03607395157621783
1620000000.0 -0.009461562096995816 0.11671396590258523
1640000000.0 0.06915975306511328 -0.05147738664277059
1660000000.0 -0.0449110830830521 0.04045988955251506
1680000000.0 -0.02036743676135481 0.023892487761145782
1700000000.0 -0.006538912406920138 -0.010442303007649215
1720000000.0 -0.02230574975528635 0.002014504220738613
1740000000.0 -0.004968754208472634 0.042385496502479525
1760000000.0 -0.028035254637358984 -0.05635815956879074
1780000000.0 0.08274029067240053 -0.01730042784385256
1800000000.0 -0.11293715280510853 0.027226460326154594
1820000000.0 0.11685263266428296 -0.0825510005168374
1840000000.0 -0.16709146495338295 -0.03115940326984279
1860000000.0 0.11991406595597186 0.15695748087577216
1880000000.0 0.20061541061042054 0.10150097966328532
1900000000.0 0.24929902690534855 0.06809244893534408
1920000000.0 0.13336332987280852 -0.2594218123609639
1940000000.0 0.12574297590485684 -0.300772116472679
1960000000.0 -0.3017818044646702 -0.19856980302548366
1980000000.0 -0.1750028029421238 0.3492059694346081
2000000000.0 0.28630079792369245 0.30624221613589453
2020000000.0 0.1838013084669974 -0.4025226423960045
2040000000.0 -0.4266157644812323 0.16581841535937933
2060000000.0 0.4475180763137798 0.10667386384751451
2080000000.0 -0.25066657407015885 -0.3817633484006159
2100000000.0 -0.2328060053908774 0.37716177895364783
2120000000.0 0.2400100476353332 0.34614354244412043
2140000000.0 -0.23866588784945236 0.3169307333097325
2160000000.0 -0.30509322312499787 0.22016500903325514
2180000000.0 -0.30846288087123447 -0.1804643168451335
2200000000.0 -0.0019245253859492377 -0.34520026732839537
2220000000.0 0.31704533771963195 -0.12711061415818656
2240000000.0 0.21934814152134294 -0.26950191062768053
2260000000.0 -0.07683424697756966 -0.34753392030540314
2280000000.0 -0.3489029675954898 0.11353818912682496
2300000000.0 0.347306177666535 0.1612631604519639
2320000000.0 -0.1926570783364814 -0.3572264792408797
2340000000.0 -0.1496516521028659 0.40614315789657773
2360000000.0 0.28846859436463673 -0.36894871086112313
2380000000.0 -0.48351778263800244 0.16559321283733341
2400000000.0 0.5365416922336647 -0.1590867441892826
2420000000.0 -0.49618279847808694 0.3536963844041383
2440000000.0 0.22682984783705043 -0.6158009467603436
2460000000.0 0.2272039753853663 0.6568396710622613
2480000000.0 -0.5360744755917188 -0.48873605903242817
2500000000.0 0.5780431339592963 0.46978489040296806
2520000000.0 -0.5008307380905856 -0.5665259065897794
2540000000.0 0.22167647321765607 0.724348847714285
2560000000.0 0.32042794986889045 -0.6796551770187729
2580000000.0 -0.7104489079133318 0.19306554781491425
2600000000.0 0.5696117236548087 0.4277504929549436
2620000000.0 0.06018638466615743 -0.6787797933156422
2640000000.0 -0.20136561106886153 -0.6117158084500858
2660000000.0 -0.442008362772945 0.4053335625879003
2680000000.0 0.46394151662871896 0.30738763306559674
2700000000.0 0.0547485661658156 -0.5114534773574215
2720000000.0 -0.28361298436360044 0.3763292946891193
2740000000.0 0.3824178669937622 -0.20021344460101034
2760000000.0 -0.30860216747804775 0.2451591943876886
2780000000.0 0.002543300402794825 -0.36013347446678956
2800000000.0 0.24244024014785337 0.22510693439948562
2820000000.0 -0.2832977349720618 0.12162395370627056
2840000000.0 0.14988895823462706 -0.24945645960731885
2860000000.0 -0.06904601398995411 0.27328412082343756
2880000000.0 0.03358617354121471 -0.27656296014707527
2900000000.0 -0.1934152314157619 0.19841110796956127
2920000000.0 0.1310330920513415 0.2526479400361124
2940000000.0 0.2121446189865421 -0.20192059623791073
2960000000.0 0.055070852277223296 -0.2950573447052055
2980000000.0 -0.15424164523436945 -0.2702576479579096
3000000000.0 -0.17314172460049504 -0.26594126226029335
3020000000.0 -0.05588021656004323 -0.3155881827079727
3040000000.0 0.25047025236698356 -0.19391518727448745
3060000000.0 0.17589965795155044 0.2599505702978637
3080000000.0 -0.3052098971512832 -0.02670104184708146
3100000000.0 0.190570076486928 -0.22863458913163115
3120000000.0 -0.0989819635150795 0.26528683755159177
3140000000.0 -0.007657972767977059 -0.26945010583671586
3160000000.0 -0.17833386279049915 -0.17740369876495204
3180000000.0 0.0760893360511219 0.22182128296646494
3200000000.0 0.04922452430807751 -0.20897948861195856
3220000000.0 -0.13148591241197768 0.1450078276032962
3240000000.0 0.06568103509721601 -0.16273313166945647
3260000000.0 0.09955022610527302 0.11507030355635767
3280000000.0 0.04380994212523474 0.11700400292206631
3300000000.0 0.08962462045019187 -0.03691536230879231
3320000000.0 0.06608570814187305 -0.001399876833399229
3340000000.0 -0.012652065087395572 0.03385252198871112
3360000000.0 -0.0012057884226386554 0.021421620567552056
3380000000.0 0.016022080214263747 0.023268737142505245
3400000000.0 -0.03532702121206364 0.02027818404766232
3420000000.0 0.005824050494095509 -0.04928378517283703
3440000000.0 0.001379438495144847 -0.04757885694562762
3460000000.0 -0.018790190087903724 0.0372273121470253
3480000000.0 -0.035510061876481966 0.024096960377471416
3500000000.0 0.060423699915549266 0.006221880801072545
3520000000.0 0.012486091243305629 -0.08893724835090053
3540000000.0 -0.11177808979300727 -0.032960038615169565
3560000000.0 -0.03806113722372864 0.13261006064658545
3580000000.0 0.15247423674008284 0.019620896138652793
3600000000.0 -0.06231419887971202 -0.1580128679479422
3620000000.0 -0.17200806987528972 0.021990833620507307
3640000000.0 -0.1631926554111842 -0.067173513460286
3660000000.0 0.1049147210610446 -0.14147805299753385
3680000000.0 -0.1040909858312207 0.1418935221012138
3700000000.0 0.1108509825997673 -0.13440322776160313
3720000000.0 -0.1711022505729894 -0.04675706027349604
3740000000.0 0.09069774560088517 -0.157337502470314
3760000000.0 -0.04109022884250693 0.1794971303152752
3780000000.0 -0.18336899863356745 -0.005228779747023564
3800000000.0 -0.03296697476107111 -0.17452974020885942
3820000000.0 0.1270540652700049 0.10758997375306109
3840000000.0 0.12130321675121153 -0.0887040040957708
3860000000.0 0.04355247763818059 0.1325672185655815
3880000000.0 0.12464683196224713 -0.059384210543926286
3900000000.0 -0.13700590331379045 0.038687273004647964
3920000000.0 -0.09009957472035694 -0.1262772538893409
3940000000.0 0.17252310129885026 -0.010357213222483232
3960000000.0 0.08853954703344642 -0.16590332766661478
3980000000.0 0.15804634797431283 0.11025229670103681
4000000000.0 -0.1619051956006065 -0.08450203999435103
