! Created with skrf (http://scikit-rf.org).
# Hz S RI R 50.0 
!freq ReS11 ImS11
400000000.0 -0.7113111699016946 0.49362527369682385
420000000.0 0.26684669255999527 0.8236110954465359
440000000.0 0.8098451726708928 -0.2177413496270965
460000000.0 0.16902961883907527 -0.7696065235633321
480000000.0 0.5513411875413099 -0.46395036794047256
500000000.0 -0.36150950802356596 -0.43060390211189825
520000000.0 -0.43649004841011 -0.22456651041023976
540000000.0 -0.06085916236540504 -0.4066652704907722
560000000.0 -0.351562441233902 -0.10094822452261223
580000000.0 0.22297209003583865 -0.23031286101070825
600000000.0 -0.01055539340913851 -0.3290151191387164
620000000.0 0.26725564486640185 -0.19653957990377052
640000000.0 -0.34589983763973164 0.037153807458317256
660000000.0 -0.22753472904560046 0.30798490632381803
680000000.0 0.11041538905087409 -0.38739061192707386
700000000.0 -0.43032909707494155 0.08239899387348376
720000000.0 -0.014904220943257102 0.43911948084952046
740000000.0 -0.4392551856847355 0.11357259762455517
760000000.0 -0.005376556330232021 -0.43345750223366425
780000000.0 0.3479658833271062 0.19966382607585412
800000000.0 0.040720302209938955 0.36157970946024287
820000000.0 -0.08166926921047919 0.2898033373249848
840000000.0 0.17302805576088767 -0.18296872590846333
860000000.0 -0.007660446641810115 -0.2010550398574407
880000000.0 -0.050581194712982426 -0.14142854484422512
900000000.0 0.06785389057833037 0.0302887221506336
920000000.0 0.020536820575133945 -0.03700085065033052
940000000.0 -0.04266833272614443 -0.022057334026732194
960000000.0 -0.010608576839509363 -0.0570547615689964
980000000.0 -0.023983840425225878 -0.05815633368349153
1000000000.0 0.012835059934273073 -0.06776684213999384
1020000000.0 0.061109396227334294 -0.037663385569695756
1040000000.0 -0.07696007233462604 -0.012762444571448666
1060000000.0 0.09974275900188519 -0.05064483199958416
1080000000.0 0.12511297973082028 -0.04850319132899003
1100000000.0 0.08120122827124425 -0.13774031692158303
1120000000.0 0.025941003357478808 -0.194219238596131
1140000000.0 0.159150417705006 0.18245710236653354
1160000000.0 0.17606523566182347 -0.22700851317674178
1180000000.0 -0.31717042164810183 0.0948313320835421
1200000000.0 -0.36085077156701895 -0.022428332814979187
1220000000.0 -0.23724807524201313 -0.3157484391189052
1240000000.0 0.39254377987514066 0.1278790168775703
1260000000.0 -0.4358000909147879 -0.031063820925747193
1280000000.0 0.4332881428248655 0.09189093965439961
1300000000.0 -0.16571104376873963 -0.4165702501162181
1320000000.0 -0.36395097142507926 0.24075793200641513
1340000000.0 -0.39782986455855196 -0.1549185722366877
1360000000.0 -0.1317126517791004 -0.4008515690139786
1380000000.0 -0.16673696298555504 -0.38663621258531355
1400000000.0 -0.3917778176562569 0.10120638854787145
1420000000.0 -0.3664117588670067 0.12951704246154305
1440000000.0 -0.05555280855610464 0.36364851425552647
1460000000.0 -0.024075703245682138 0.34058066366408496
1480000000.0 0.18957815549091708 0.2605791850163336
1500000000.0 0.2675005979120277 -0.1348291633627002
1520000000.0 -0.2262396773156696 0.1573095598087054
1540000000.0 0.246162532880385 -0.05872786743784461
1560000000.0 0.1846971937661235 -0.12031757200050702
1580000000.0 -0.00046497551803754045 -0.18855449033100688
1600000000.0 0.149073824568756 -0.03998366693479414
1620000000.0 -0.01692450973706035 0.11559098933037484
1640000000.0 0.07669708426201244 -0.039439908130478075
1660000000.0 -0.04255319448325001 0.043130709361203924
1680000000.0 0.014731676375088218 0.02844431058177471
1700000000.0 0.0022636352159476803 -0.012917959820368507
1720000000.0 -0.019180366836321017 0.012134311020788211
1740000000.0 -0.039573684817032335 0.014350191416755228
1760000000.0 0.01057480610099254 -0.06174952046838093
1780000000.0 0.08427270070725978 0.0011422893402670306
1800000000.0 -0.10805816877313827 0.04315337110412338
1820000000.0 0.11483399506778758 -0.08537217529803866
1840000000.0 -0.16635327728143096 -0.034539831568969
1860000000.0 0.14520059964055454 0.13402954443950388
1880000000.0 0.2140061743771903 0.06820722028638243
1900000000.0 0.25800528702979314 0.012660829506209942
1920000000.0 0.11465075085076304 -0.2682808214931754
1940000000.0 0.09371824326597082 -0.312409133553693
1960000000.0 -0.31683824580288317 -0.17468888760844986
1980000000.0 -0.17840404594670345 0.3478577292388915
2000000000.0 0.31196606843231184 0.27985304430663277
2020000000.0 0.20953395307537992 -0.38985756650837095
2040000000.0 -0.42334813807236965 0.17391173713416916
2060000000.0 0.4463813073536941 0.11304620357876843
2080000000.0 -0.20965708488351753 -0.4063743106671823
2100000000.0 -0.2455257405879923 0.36928011472246747
2120000000.0 0.2179729726444314 0.3613285432943405
2140000000.0 -0.2707635462859976 0.2906104842489382
2160000000.0 -0.30688580735297816 0.21800390061697722
2180000000.0 -0.28428715245806885 -0.21658906236772282
2200000000.0 0.003037693395021156 -0.34513746352904495
2220000000.0 0.3104599157797432 -0.14189537723338377
2240000000.0 0.2447899850017541 -0.24549482773324627
2260000000.0 -0.05946385439234335 -0.3510268288528287
2280000000.0 -0.3473542216297044 0.11745642504780034
2300000000.0 0.34187789287202625 0.17212643729196742
2320000000.0 -0.19059289566864177 -0.3579909361312994
2340000000.0 -0.16645866070061005 0.39935889794791735
2360000000.0 0.2701981749380069 -0.38242307589184377
2380000000.0 -0.46926234384205956 0.20216930108026065
2400000000.0 0.529350221174777 -0.1810711737347299
2420000000.0 -0.4739601151781747 0.3834453275570066
2440000000.0 0.1608218829683647 -0.6367661471724229
2460000000.0 0.2610207339608414 0.6447124870049772
2480000000.0 -0.5605600621061709 -0.46123547507139284
2500000000.0 0.6135533074472631 0.4239017586676549
2520000000.0 -0.5121556713897771 -0.5559150690795815
2540000000.0 0.23649805892318307 0.7195167947305643
2560000000.0 0.34761143914801224 -0.6666811364128278
2580000000.0 -0.7319029242073393 0.0830801627050159
2600000000.0 0.5063512946379313 0.5005767879134632
2620000000.0 0.1315751569596204 -0.668258379649729
2640000000.0 -0.1868891992008083 -0.6159403325415742
2660000000.0 -0.47702535580942146 0.36171228586239323
2680000000.0 0.4681476385277659 0.29921655086025667
2700000000.0 0.07502013995519587 -0.5080085093584646
2720000000.0 -0.2988889403747034 0.36337422548332565
2740000000.0 0.3752963824829951 -0.21064332225002244
2760000000.0 -0.284648858827012 0.2713230666916426
2780000000.0 -0.04900494613559751 -0.3561035369560349
2800000000.0 0.2776757814957158 0.1790308265066989
2820000000.0 -0.26858636199582014 0.15118894876690925
2840000000.0 0.1113193165283818 -0.26994814450765786
2860000000.0 -0.054289014464267045 0.27745052730214215
2880000000.0 -0.004618253047372622 -0.2793536153293352
2900000000.0 -0.15398427581712293 0.23130580132892903
2920000000.0 0.15557333656922767 0.23926326240255813
2940000000.0 0.20574776850758394 -0.2098423750819866
2960000000.0 0.08929997264692517 -0.28776767058537317
2980000000.0 -0.11124745041760191 -0.2917143810687532
3000000000.0 -0.10281396966932625 -0.29996458671198367
3020000000.0 0.006153668713355154 -0.32001267690213114
3040000000.0 0.29336601287261194 -0.11824625518280331
3060000000.0 0.11062678950345103 0.29304910188417654
3080000000.0 -0.2878757334463127 -0.10309967866128143
3100000000.0 0.2555195286916448 -0.14952337534068078
3120000000.0 -0.1479268930976046 0.2405961470530191
3140000000.0 0.008670654217954389 -0.267687094622836
3160000000.0 -0.17849825765250585 -0.17473759825435395
3180000000.0 0.07298821337377877 0.2207651685400783
3200000000.0 0.06240205053920359 -0.20385373915520524
3220000000.0 -0.11914653128912304 0.15407827101519403
3240000000.0 0.015464837541411801 -0.17370599684144508
3260000000.0 0.11572510002467304 0.09740484585628759
3280000000.0 0.0720303493174636 0.1016951205491311
3300000000.0 0.06460371153360692 -0.07236636367787229
3320000000.0 0.05173468783227539 -0.04218158200179585
3340000000.0 -0.02272589283234088 0.02835510044791623
3360000000.0 -0.015244610168656485 0.014600673333854189
3380000000.0 -0.02239827498589133 0.01712053941863399
3400000000.0 -0.039330593496789114 -0.011326141453414441
3420000000.0 0.03262221099449849 -0.037562223142330695
3440000000.0 0.016232117711596335 -0.04470276166503876
3460000000.0 -0.027741975891086307 0.03135358849717092
3480000000.0 -0.04166827956421634 0.007735133791551519
3500000000.0 0.053239012516234814 -0.028131037729414398
3520000000.0 -0.007739067819858009 -0.0895020258033693
3540000000.0 -0.10349454375503186 -0.0525093761563546
3560000000.0 -0.030115416385357363 0.13430966238201184
3580000000.0 0.14778690472387773 0.040265369952705396
3600000000.0 -0.05068169968819453 -0.16175477549548695
3620000000.0 -0.1729435753861003 0.0012392034717316359
3640000000.0 -0.16775741362062488 -0.05519655606817645
3660000000.0 0.05575566073150968 -0.16683554771365297
3680000000.0 -0.06052477440793314 0.1654563210227715
3700000000.0 0.08000227117890658 -0.1549761313670375
3720000000.0 -0.1758068215647346 0.03105651422875005
3740000000.0 0.08524775418992811 -0.1604809729960148
3760000000.0 -0.03652405956305599 0.18098333990182705
3780000000.0 -0.1819403181927151 -0.022417432236586092
3800000000.0 0.014908111648916828 -0.17642223329278892
3820000000.0 0.08081389869884349 0.14527448745959734
3840000000.0 0.1448135172379822 -0.03987542558783643
3860000000.0 -0.01583853659176237 0.13764587232599984
3880000000.0 0.13467101279067778 -0.028086489671919034
3900000000.0 -0.14163698142699663 -0.009426134313237536
3920000000.0 -0.07632356672119099 -0.1347085918164287
3940000000.0 0.16721262657866348 0.04389463738377079
3960000000.0 0.14640272519295838 -0.11747561752746276
3980000000.0 0.06423197733606398 0.18146855969801165
4000000000.0 -0.06568224508547132 -0.17230897911786963
