! Created with skrf (http://scikit-rf.org).
# Hz S RI R 50.0 
!freq ReS11 ImS11
400000000.0 -0.7020913923128335 0.508917782664104
420000000.0 0.23212936321434122 0.8337984053457936
440000000.0 0.7999954897961818 -0.251349194997659
460000000.0 0.14881207571354146 -0.774316708133645
480000000.0 0.5305216789584201 -0.48607322135336545
500000000.0 -0.28386444558531626 -0.48476435971883686
520000000.0 -0.4608620096889087 -0.1742207187044899
540000000.0 -0.1293622087014813 -0.38740742983893967
560000000.0 -0.30024302010738446 -0.20879966588172763
580000000.0 0.23934370695023457 -0.21533758849657988
600000000.0 -0.17308902648010577 -0.2798188250617476
620000000.0 0.3153591960982604 -0.098958211152391
640000000.0 -0.3463955790441434 0.03486373506817232
660000000.0 -0.22860695623706645 0.3076618498931225
680000000.0 0.14474287917975817 -0.3766677862857747
700000000.0 -0.4332264135982416 0.06236959567183228
720000000.0 -0.03047501720803519 0.4387185960378763
740000000.0 -0.4403708482876519 0.10769090161373064
760000000.0 -0.008475432815797523 -0.4331711248250087
780000000.0 0.34898890135530325 0.1983390912277242
800000000.0 0.04231365188779465 0.36109427453174653
820000000.0 -0.06449525873790585 0.2942428423381975
840000000.0 0.17627267051655968 -0.18006315014060145
860000000.0 -0.014064860891680025 -0.20092580364389323
880000000.0 -0.07729382304440933 -0.12926399701516808
900000000.0 0.05835244287482957 0.04628719318746919
920000000.0 0.03899142028639825 -0.01670733780761333
940000000.0 -0.03723426907492277 -0.029869754030923505
960000000.0 -0.0233154871389357 -0.052899696334157746
980000000.0 -0.018971806603561674 -0.05998217955096608
1000000000.0 0.0192153137278095 -0.06590146442948104
1020000000.0 0.05899351939581592 -0.041306219468009886
1040000000.0 -0.07754388625056088 -0.009786613051425506
1060000000.0 0.09749711462306046 -0.05482744045259534
1080000000.0 0.1245786124209758 -0.05014310443714943
1100000000.0 0.08885379756102303 -0.13303222227216832
1120000000.0 0.025670769307613132 -0.19459742893593476
1140000000.0 0.15575025931571873 0.18530485490042817
1160000000.0 0.16918112497252213 -0.23206190031880197
1180000000.0 -0.3193937475864034 0.08691586570042405
1200000000.0 -0.36134150479541655 -0.02044135844486834
1220000000.0 -0.24371404083286924 -0.3106450057989657
1240000000.0 0.3908101224580596 0.13329383736080697
1260000000.0 -0.4360111441949067 -0.025683253650929626
1280000000.0 0.4335382090302934 0.0904291629020441
1300000000.0 -0.1713500394757972 -0.4142671739491903
1320000000.0 -0.3601831703784547 0.24591642158996033
1340000000.0 -0.3987940902835976 -0.1527153451863422
1360000000.0 -0.131871170693113 -0.400984588462078
1380000000.0 -0.17716608615717358 -0.38200305501006454
1400000000.0 -0.39362400036508627 0.09282484407823688
1420000000.0 -0.36675752577165527 0.12882229271878962
1440000000.0 -0.05295497098814764 0.3641545494669103
1460000000.0 -0.02199094544696618 0.34073963380074895
1480000000.0 0.19972562090975382 0.2526635578415604
1500000000.0 0.26064408760294877 -0.14786466465995288
1520000000.0 -0.2166161029192491 0.17011144950381535
1540000000.0 0.24309891117652016 -0.07063227589526391
1560000000.0 0.1701152512283128 -0.14008019954102297
1580000000.0 -0.013860961337276689 -0.18780084213555517
1600000000.0 0.1510154155657786 -0.0332667956640063
1620000000.0 -0.0005809385973441933 0.11709023906800368
1640000000.0 0.07073685563823141 -0.04906770838649876
1660000000.0 -0.04688139242480199 0.03844517120865321
1680000000.0 -0.0029137221935494374 0.03143232296097829
1700000000.0 -0.008436810143362224 0.009325902893087662
1720000000.0 -0.022429963930647903 0.0023174680717173417
1740000000.0 -0.04196745011348938 0.002661857283955253
1760000000.0 0.0037778360279877477 -0.062469989011228216
1780000000.0 0.08436165248649324 0.0034230164019325698
1800000000.0 -0.11066376817660921 0.03468167125656337
1820000000.0 0.11788433411813405 -0.0812751032068375
1840000000.0 -0.16563930463594695 -0.03759644595531052
1860000000.0 0.14615279772310183 0.1328736010568191
1880000000.0 0.21454316635676016 0.06628395065928551
1900000000.0 0.25759523727628725 0.019785111798963945
1920000000.0 0.11632528758486163 -0.26748976460091073
1940000000.0 0.08720049629110088 -0.3141809280344208
1960000000.0 -0.31739659219376676 -0.17355977948384924
1980000000.0 -0.1744165737574146 0.34975833237781045
2000000000.0 0.3144307970000146 0.2771948933049176
2020000000.0 0.20412141287355745 -0.39280092811751494
2040000000.0 -0.4101705405813003 0.20264794501683236
2060000000.0 0.4411054436262479 0.13313809032199375
2080000000.0 -0.23187290838666813 -0.3942991114517206
2100000000.0 -0.2619543520996174 0.357808274643078
2120000000.0 0.22480968927602973 0.35692225066402433
2140000000.0 -0.286260841209047 0.27565594350351935
2160000000.0 -0.32213972196332 0.19457730286180006
2180000000.0 -0.2919452154754983 -0.205987459315453
2200000000.0 0.018453553553309212 -0.3445957526135017
2220000000.0 0.3327533091693633 -0.0785955987060389
2240000000.0 0.26048988305548376 -0.22928855478124086
2260000000.0 -0.0355116269461077 -0.35383960495298644
2280000000.0 -0.3532414835470429 0.0971473516187185
2300000000.0 0.3426681762999192 0.17052890564073808
2320000000.0 -0.19414633751924174 -0.35584298826382565
2340000000.0 -0.15161157865349928 0.40532681313606
2360000000.0 0.26468253628209676 -0.38625138754306326
2380000000.0 -0.4687530895646167 0.2027502873072165
2400000000.0 0.5266603818766191 -0.1885572755175338
2420000000.0 -0.46470434681155115 0.3946233809910067
2440000000.0 0.16131611279300018 -0.6366281227569903
2460000000.0 0.227016450298273 0.657832599442586
2480000000.0 -0.5551102725969602 -0.4685781049792012
2500000000.0 0.5856423815307882 0.46205771599976314
2520000000.0 -0.5184141171261124 -0.5503489115233864
2540000000.0 0.23110491768114214 0.7212674160770857
2560000000.0 0.33096536324233006 -0.674995004115514
2580000000.0 -0.734147059498021 0.05979004103119012
2600000000.0 0.5035139548299884 0.5032218674345822
2620000000.0 0.1121482723418155 -0.6717394021476536
2640000000.0 -0.15681745340448003 -0.6241069493119212
2660000000.0 -0.4831477653268306 0.35341721792567
2680000000.0 0.4279903414677128 0.35345684415655604
2700000000.0 0.08347131316369653 -0.5064289650064558
2720000000.0 -0.287541771948914 0.3721281542620973
2740000000.0 0.37582387122102795 -0.20938742283012812
2760000000.0 -0.28092418091717447 0.2753396498169883
2780000000.0 -0.04916542755702794 -0.35601068007853276
2800000000.0 0.2801649307817268 0.1751308318210315
2820000000.0 -0.26681943074834946 0.15447833345072431
2840000000.0 0.09820520963196827 -0.2745954547536108
2860000000.0 -0.051087914653750094 0.27808355168022597
2880000000.0 -0.008820739699369123 -0.2791394674175246
2900000000.0 -0.17871038428502264 0.21315906949674654
2920000000.0 0.15387915398770793 0.24038751291043553
2940000000.0 0.20416559480127655 -0.21120753850144763
2960000000.0 0.09680611931993152 -0.28512109330743185
2980000000.0 -0.10281136720471712 -0.29401280170328226
3000000000.0 -0.11725138052442753 -0.2941629664946507
3020000000.0 0.005167935149376618 -0.3197896406916552
3040000000.0 0.2960141901743662 -0.11127924893264725
3060000000.0 0.09965867776692704 0.29725374153340867
3080000000.0 -0.2983879874748297 -0.0647505659569113
3100000000.0 0.25659140584159074 -0.14722692240972335
3120000000.0 -0.16614813843251486 0.2286264923763084
3140000000.0 0.007047017394276344 -0.26802532068352736
3160000000.0 -0.16532509944038476 -0.18672718027162624
3180000000.0 0.07084343235200337 0.2218008360369831
3200000000.0 0.06284126156943168 -0.20398154457002157
3220000000.0 -0.11242780281145237 0.15894176809995728
3240000000.0 0.028375596363611717 -0.17147587579527068
3260000000.0 0.11847561434442133 0.09422006047707203
3280000000.0 0.07161428333822552 0.10181561170338291
3300000000.0 0.04311024416806856 -0.08674947995700462
3320000000.0 0.04616445979667723 -0.04818328317551011
3340000000.0 -0.03092946590787557 0.01884886123511206
3360000000.0 -0.005519943296749312 0.019681646044760165
3380000000.0 -0.01400995865820105 0.024666669123780547
3400000000.0 -0.04060585412321484 -0.004819317353204056
3420000000.0 0.04131969602412088 -0.02731274600533463
3440000000.0 0.012654522246935715 -0.04611081579891071
3460000000.0 -0.011624992284698899 0.040382142054874504
3480000000.0 -0.04185377556584296 0.007247492130616339
3500000000.0 0.05806109977304805 0.01557932917586663
3520000000.0 -0.027848818610961258 -0.08577928412825878
3540000000.0 -0.08708133419028435 -0.07634466315883423
3560000000.0 -0.04463023230204366 0.13039207132222635
3580000000.0 0.15397722328768806 0.0033717903691204702
3600000000.0 -0.04115628764807109 -0.16415211306829655
3620000000.0 -0.17226976048101234 -0.013772949239963299
3640000000.0 -0.1681826277692282 -0.0545125820071719
3660000000.0 0.07937620449977775 -0.15692214517688519
3680000000.0 -0.06497812385248473 0.16376141706545075
3700000000.0 0.08238578515932207 -0.15362913960192065
3720000000.0 -0.1749887940839299 0.034991595654762134
3740000000.0 0.09161698960260553 -0.15637954379105465
3760000000.0 -0.041273402503553894 0.17970819935251783
3780000000.0 -0.18111622918254291 -0.031067170544706306
3800000000.0 0.005999838891733268 -0.1765839438666717
3820000000.0 0.08386699422198313 0.14302315914760685
3840000000.0 0.12502506261489257 -0.08236134866721767
3860000000.0 -0.011825010901383121 0.13759630649623983
3880000000.0 0.1325762011174511 -0.03455411889110003
3900000000.0 -0.1413185855405813 0.003985028534200237
3920000000.0 -0.0917239132740838 -0.12414593952486835
3940000000.0 0.16982801201251507 0.033144690329690994
3960000000.0 0.12930092376628663 -0.13605106890897095
3980000000.0 0.10888768470287091 0.1581819416413124
4000000000.0 -0.1092851788842286 -0.14854130562414064
