! Created with skrf (http://scikit-rf.org).
# Hz S RI R 50.0 
!freq ReS11 ImS11
400000000.0 -0.7056660234842712 0.5033578537265403
420000000.0 0.23024339926011772 0.8345803188463812
440000000.0 0.7902720339932104 -0.2798586283284736
460000000.0 0.19055523991646517 -0.7647072263863657
480000000.0 0.5500597402296344 -0.46701159080691734
500000000.0 -0.3785775375576394 -0.4155677057076883
520000000.0 -0.42232745963057783 -0.2490377609667191
540000000.0 -0.025229429411109953 -0.41083170243201383
560000000.0 -0.344315212613514 -0.12420547283441749
580000000.0 0.21986462791066025 -0.2317528118857649
600000000.0 -0.0040038808563586615 -0.3288483340066092
620000000.0 0.2860978568283573 -0.16897843218239952
640000000.0 -0.339458483139975 0.07616540842482539
660000000.0 -0.2653032049445768 0.2756304632185208
680000000.0 0.10594282989977155 -0.38908307565244443
700000000.0 -0.407124389332222 0.16159708757798608
720000000.0 0.011390517161662016 0.43972349947487044
740000000.0 -0.4330882179591378 0.13726424211064486
760000000.0 -0.01364045727820076 -0.433608387047273
780000000.0 0.3439960355449495 0.20731410663004285
800000000.0 0.020098759582832117 0.3635181373161084
820000000.0 -0.1312970743210177 0.2708146007783902
840000000.0 0.19829242304868447 -0.15378886765962618
860000000.0 0.027965714843099992 -0.19858432442093624
880000000.0 -0.06810757466313169 -0.1332184036468702
900000000.0 0.06496644224284884 0.03508071404092216
920000000.0 0.0003367424527820015 -0.04194847307685723
940000000.0 -0.04762032381942761 0.008614496633940852
960000000.0 -0.0037592227512977523 -0.058388997639814665
980000000.0 -0.0026396882181054615 -0.06285723537046285
1000000000.0 0.02666975883688722 -0.06303949694132348
1020000000.0 0.0711516542819695 -0.00852345168703371
1040000000.0 -0.06943213561769956 -0.03476820773099164
1060000000.0 0.10610585837521747 -0.03434488260609308
1080000000.0 0.12271762322631836 -0.05378746801564254
1100000000.0 0.06738922521084723 -0.14517216156509352
1120000000.0 0.011386788185583125 -0.19540392759999492
1140000000.0 0.1808224282530552 0.16074318778608496
1160000000.0 0.15627602133241794 -0.2411528847569271
1180000000.0 -0.3161754222043037 0.09832487765032435
1200000000.0 -0.3618663950365478 -0.005290370180668364
1220000000.0 -0.21563457136017375 -0.3306879954972942
1240000000.0 0.38923768272565595 0.13893863540857446
1260000000.0 -0.43650788549135217 -0.018849945977024083
1280000000.0 0.43076224868186036 0.10418234759597736
1300000000.0 -0.18260075320945077 -0.40970616427746287
1320000000.0 -0.36613792476857526 0.2370020700924724
1340000000.0 -0.3859023535426095 -0.18248252971111592
1360000000.0 -0.1210135978232141 -0.40422376762047896
1380000000.0 -0.1552318008097319 -0.39117661931766645
1400000000.0 -0.39537790041036835 0.08413328906934898
1420000000.0 -0.3708504443036908 0.11566940601081542
1440000000.0 -0.06297350042009896 0.36215972288808373
1460000000.0 -0.02030665319093277 0.34029026123191347
1480000000.0 0.23828448652771628 0.2157720787219488
1500000000.0 0.230713519021044 -0.19045019933489704
1520000000.0 -0.17427059708547446 0.21230519571830345
1540000000.0 0.24278921863277397 -0.07160281887985498
1560000000.0 0.1598172075399094 -0.15151178607165572
1580000000.0 -0.06876668391960288 -0.1757241352179292
1600000000.0 0.13092735994321625 -0.08165928630910732
1620000000.0 0.007189706741903905 0.11654978312068305
1640000000.0 0.07406310180169914 -0.04374852284101296
1660000000.0 -0.03723149527092154 0.047784267779728995
1680000000.0 0.006309869898242225 0.03071320621242639
1700000000.0 0.012477204677561972 -0.0035898730161113453
1720000000.0 -0.022335757295543435 0.0030707467773271034
1740000000.0 -0.028159455283350725 0.03129165220764241
1760000000.0 -0.034500901580283926 -0.05237609547556343
1780000000.0 0.0834990483406463 -0.01208943238134507
1800000000.0 -0.11434023069821946 0.01952767625260734
1820000000.0 0.10133771870888908 -0.10104759751643311
1840000000.0 -0.1672595144334384 -0.03023070497046753
1860000000.0 0.12802335452725705 0.1504782197987984
1880000000.0 0.20574628530238917 0.09086266623863484
1900000000.0 0.2496310697356232 0.06746291815673265
1920000000.0 0.1465705388958441 -0.25254339536959974
1940000000.0 0.13563491730039862 -0.29673539433939955
1960000000.0 -0.29274224096629203 -0.21219300985880996
1980000000.0 -0.19065378307646266 0.3411499756160259
2000000000.0 0.298720908033155 0.2938125986074089
2020000000.0 0.20752631532362642 -0.3906851911322636
2040000000.0 -0.41708658453386876 0.18778067418441607
2060000000.0 0.4469454780770969 0.10897130792852829
2080000000.0 -0.2571968799072262 -0.37692882104746855
2100000000.0 -0.26439357912956607 0.35551774379808626
2120000000.0 0.23332540423378773 0.3508168879429955
2140000000.0 -0.21806745359272248 0.33146071471021915
2160000000.0 -0.29987592563447907 0.22740520069128045
2180000000.0 -0.31434496308047216 -0.16992882223132397
2200000000.0 -0.0018845463253888174 -0.3452414985749017
2220000000.0 0.3116884654157534 -0.14004382079613326
2240000000.0 0.2157163699578123 -0.27225507597963755
2260000000.0 -0.07821167564826724 -0.3474113813707407
2280000000.0 -0.3421190367433333 0.13300189782616886
2300000000.0 0.3526846518011591 0.15026480926848776
2320000000.0 -0.19482835849518018 -0.3562864811978208
2340000000.0 -0.16353630559222718 0.4007245031216176
2360000000.0 0.29664680851168757 -0.3624086829706824
2380000000.0 -0.4823634469197175 0.1686303659636217
2400000000.0 0.5411905063328701 -0.14152625917608455
2420000000.0 -0.5012995603334548 0.34610419654671243
2440000000.0 0.22499819653768668 -0.6163568205618317
2460000000.0 0.23033266733186009 0.6558707501784049
2480000000.0 -0.49312915261116536 -0.5324672102754424
2500000000.0 0.5507511731146091 0.5020347890547054
2520000000.0 -0.5135136250997123 -0.5552323729393479
2540000000.0 0.20758555660259953 0.728581485084971
2560000000.0 0.32352799930285775 -0.6784678448180689
2580000000.0 -0.7172055212774282 0.1674509865304567
2600000000.0 0.583857632719689 0.40832737886275017
2620000000.0 0.013772175356041597 -0.6816233410440051
2640000000.0 -0.13477071229766696 -0.6299397718376393
2660000000.0 -0.4309731796822467 0.4173785069666533
2680000000.0 0.4423379177459307 0.3373620024767276
2700000000.0 0.06966609074479065 -0.5096526149758124
2720000000.0 -0.29051949182205267 0.37084156156128717
2740000000.0 0.3751627610351354 -0.2130127425262971
2760000000.0 -0.2981614970185894 0.25756378523128426
2780000000.0 -0.0009382161473915046 -0.3598803536475197
2800000000.0 0.24184245829662077 0.2255854872245714
2820000000.0 -0.2776907737873125 0.13342999276110137
2840000000.0 0.1505784840557735 -0.24973935422240096
2860000000.0 -0.09430145735694437 0.26579974813682405
2880000000.0 0.02283408062235257 -0.2779461759752746
2900000000.0 -0.18058011236113622 0.21032828941604204
2920000000.0 0.13254458130823654 0.2519237761771899
2940000000.0 0.23039261097047492 -0.1812397464398505
2960000000.0 0.042944570967090465 -0.29752378080485165
2980000000.0 -0.16658562228981194 -0.2627172219784801
3000000000.0 -0.17208795903077848 -0.2671206161520041
3020000000.0 -0.05548268175696998 -0.31595809649146706
3040000000.0 0.23974994781120224 -0.20715188889874162
3060000000.0 0.17521027895524763 0.2601180265068105
3080000000.0 -0.302127374118841 -0.04898263946877222
3100000000.0 0.18730730965597184 -0.23114323587134414
3120000000.0 -0.13624204329146128 0.24808675217271414
3140000000.0 0.008487685149919197 -0.26870016799406393
3160000000.0 -0.17001594217664148 -0.1849970806483642
3180000000.0 0.06441940283971372 0.22504026273909064
3200000000.0 0.03592544010501239 -0.21132060440881933
3220000000.0 -0.11260912082497714 0.16039035044259964
3240000000.0 0.04745261292040059 -0.1684830278098473
3260000000.0 0.11898871019323712 0.09531065742196622
3280000000.0 0.05102883469482213 0.11448950843898646
3300000000.0 0.07559345830206236 -0.0605167720895924
3320000000.0 0.06405068384030094 -0.018934951716369778
3340000000.0 -0.031566963800824785 0.01755613075155492
3360000000.0 0.017648993745217258 0.009256141683110118
3380000000.0 0.010471129503018985 0.02594946909778518
3400000000.0 -0.02305285972725211 0.03308980417562198
3420000000.0 -0.011287648625459825 -0.04809293417238554
3440000000.0 -0.0007689270421027637 -0.047391724625556374
3460000000.0 0.0032683627815444545 0.041540634854543616
3480000000.0 -0.041181940099632594 0.009287188328769442
3500000000.0 0.0512844993819884 -0.03322441236519009
3520000000.0 -0.029797034680793838 -0.08485966223490164
3540000000.0 -0.09900135598030156 -0.06095913877233534
3560000000.0 -0.021002267587400755 0.1365160415567042
3580000000.0 0.14513134732326768 0.048410155570314084
3600000000.0 -0.05737513989206648 -0.15928552443300206
3620000000.0 -0.17045048475896257 0.03446416684828354
3640000000.0 -0.16484306942076077 -0.06239112356133127
3660000000.0 0.10280394375293364 -0.14327022168554732
3680000000.0 -0.1007667397879917 0.14440720260896767
3700000000.0 0.10229451996635634 -0.14141909271369732
3720000000.0 -0.17472801523514364 -0.03205192108957014
3740000000.0 0.08604123176515656 -0.16009179988445724
3760000000.0 -0.053840147128254905 0.17568783443065286
3780000000.0 -0.18355076953070584 -0.012588158321402624
3800000000.0 -0.00935179956982676 -0.17731085547916686
3820000000.0 0.12584688836591576 0.10886508175534089
3840000000.0 0.13417334489188076 -0.06848501384389521
3860000000.0 0.03321699260873835 0.13533595980781996
3880000000.0 0.12463914273951365 -0.05935014810213897
3900000000.0 -0.13785690902788356 0.03447080746410879
3920000000.0 -0.08557083646268482 -0.12986817852350602
3940000000.0 0.1721694194208525 -0.01657972168552655
3960000000.0 0.08688602092798675 -0.16673351512530485
3980000000.0 0.13933210082312053 0.1332344328937677
4000000000.0 -0.14901235302792357 -0.10545529977029497
