! Created with skrf (http://scikit-rf.org).
# Hz S RI R 50.0 
!freq ReS11 ImS11
400000000.0 -0.6984203825807775 0.512360923855179
420000000.0 0.24447907638878796 0.8299197183852216
440000000.0 0.8070954925839724 -0.22898326135152017
460000000.0 0.1538111123662603 -0.7730325063991299
480000000.0 0.5440585970371659 -0.47137662979110967
500000000.0 -0.2914055131625397 -0.481447439965334
520000000.0 -0.4654381681623531 -0.16004298253481894
540000000.0 -0.12958868874512733 -0.3879833619933585
560000000.0 -0.3086487412712442 -0.19524316355094407
580000000.0 0.22984562936794317 -0.22538957865914422
600000000.0 -0.13836130531873142 -0.29802184565309026
620000000.0 0.28920978322994595 -0.16165618943351467
640000000.0 -0.34743019170328887 0.01782687092392991
660000000.0 -0.2133700199143774 0.31834055940600364
680000000.0 0.13905973371112698 -0.3784031698091109
700000000.0 -0.4302833132288681 0.07846718573574273
720000000.0 -0.028688252811652337 0.43896729081652475
740000000.0 -0.43664108384353384 0.12388793691183725
760000000.0 -0.02133794467860779 -0.4327086383953638
780000000.0 0.3395748172206628 0.2137750213775788
800000000.0 0.041399055321534206 0.3614934755769156
820000000.0 -0.07375443876710407 0.2915889219224542
840000000.0 0.15895162376153044 -0.19513057053495067
860000000.0 -0.025871033055810542 -0.2000248519679307
880000000.0 -0.08394170586559459 -0.12446171021356353
900000000.0 0.06136444827007784 0.04198607426951657
920000000.0 0.02049874323059385 -0.0369586064232071
940000000.0 -0.03641555139878661 -0.031723018592199635
960000000.0 -0.022524284730766682 -0.05386089900125907
980000000.0 0.014346365609412182 -0.06160967503749316
1000000000.0 0.030125089006009936 -0.06215696732365403
1020000000.0 0.06389579952070416 -0.03286782945525701
1040000000.0 -0.07690758057610138 -0.013255697238675136
1060000000.0 0.10110443888042826 -0.04729515855620367
1080000000.0 0.12067574398307605 -0.058766397835191046
1100000000.0 0.09569350528783065 -0.12800210781531685
1120000000.0 0.00843733482491454 -0.19606970000843965
1140000000.0 0.16896129253056735 0.17312373964585598
1160000000.0 0.16926583995952432 -0.2316770066314372
1180000000.0 -0.31875998541445605 0.08969302925095117
1200000000.0 -0.3617074948802469 -0.0009533016229399564
1220000000.0 -0.2473082040788005 -0.30753607917562836
1240000000.0 0.3878059260972894 0.14214205788926498
1260000000.0 -0.43561247531093833 -0.032320775317147214
1280000000.0 0.43382046556973664 0.08930430501421145
1300000000.0 -0.17994716932921803 -0.41064607613590365
1320000000.0 -0.3712034920302705 0.22926924562568646
1340000000.0 -0.39650415429187114 -0.1589213216677194
1360000000.0 -0.1310652617891549 -0.40130947306691755
1380000000.0 -0.16789309690745133 -0.3859520709394314
1400000000.0 -0.39774300528750806 0.07352048789521869
1420000000.0 -0.3654833489487751 0.1330856193088282
1440000000.0 -0.04195491598408236 0.3649859073026735
1460000000.0 -0.03666567889215568 0.33931330707940927
1480000000.0 0.17691922411080216 0.2692455880623649
1500000000.0 0.2588950860564616 -0.15010182683596718
1520000000.0 -0.23032657978326898 0.15111157724177807
1540000000.0 0.24795309988355357 -0.05021470686918719
1560000000.0 0.1649913060430472 -0.14656393204390722
1580000000.0 -0.005764655830962627 -0.18821574388621554
1600000000.0 0.1454406131461957 -0.051756736617102714
1620000000.0 -0.009894065591511623 0.11696499405620556
1640000000.0 0.06923301491580054 -0.05217738730133495
1660000000.0 -0.042399432748044176 0.04367203705966658
1680000000.0 -0.008499768201786847 0.03111348886588965
1700000000.0 -0.01000252794030269 -0.007130965185163695
1720000000.0 -0.015505663996218014 -0.01588229852483725
1740000000.0 -0.03566542066254297 -0.022405986646095517
1760000000.0 -0.003973553542228615 -0.06283707803636318
1780000000.0 0.08437010061279124 -0.0031491110010358485
1800000000.0 -0.11110824935546658 0.03362068777328129
1820000000.0 0.12051255468315077 -0.07759844559003927
1840000000.0 -0.1667442179454441 -0.033960059814116934
1860000000.0 0.14434307938374805 0.13525737068238855
1880000000.0 0.21334308718459072 0.07079418893186436
1900000000.0 0.2574272911692188 0.023246915107095534
1920000000.0 0.11750252729290901 -0.26696080730120725
1940000000.0 0.089013611986511 -0.31363276488378716
1960000000.0 -0.3131455094548125 -0.18050671168581944
1980000000.0 -0.18507646924359178 0.34414836068902677
2000000000.0 0.30733486680579997 0.28464452153000136
2020000000.0 0.2170807333132883 -0.38553837261319673
2040000000.0 -0.416305877612523 0.18963744243138037
2060000000.0 0.4376539730190401 0.14350644400321086
2080000000.0 -0.21178897416463516 -0.40562491447620397
2100000000.0 -0.2797250993498552 0.34437193423917334
2120000000.0 0.2401217466196971 0.34647062227567116
2140000000.0 -0.2688911121716434 0.2924410569339347
2160000000.0 -0.303045355398102 0.22295189554805964
2180000000.0 -0.304298172934796 -0.18726739845987983
2200000000.0 -0.01674463446980214 -0.3447027374394683
2220000000.0 0.3210438525623534 -0.11591116994619698
2240000000.0 0.232536865486955 -0.25719285589370516
2260000000.0 -0.060723528932073154 -0.350707401680797
2280000000.0 -0.351882562779712 0.1022015577586084
2300000000.0 0.3412904347151383 0.17318566715312417
2320000000.0 -0.18854312154971714 -0.35912578289968217
2340000000.0 -0.15865648453001238 0.40283245249011057
2360000000.0 0.2695559040464249 -0.38309995190374024
2380000000.0 -0.4720232698404325 0.19546101098875512
2400000000.0 0.5263951357626963 -0.1896284785262456
2420000000.0 -0.4674259667670365 0.39097316151912226
2440000000.0 0.1445208231710713 -0.6404116637419649
2460000000.0 0.25775007803010064 0.6457800327235141
2480000000.0 -0.5621525529296246 -0.4588027906709592
2500000000.0 0.5648274399412175 0.4869078132995879
2520000000.0 -0.5225531660634698 -0.5460138806929085
2540000000.0 0.2498241663978053 0.7150988639940131
2560000000.0 0.3471438341376202 -0.6666869073962637
2580000000.0 -0.7279248540959861 0.11112854044714933
2600000000.0 0.5082016550333402 0.4986504042132168
2620000000.0 0.07454579743432457 -0.6770471520087834
2640000000.0 -0.15137180050725618 -0.6253527688791651
2660000000.0 -0.45370559229000224 0.3905531325679119
2680000000.0 0.47626278956416856 0.2857425347026329
2700000000.0 0.07035790641926717 -0.508644967501928
2720000000.0 -0.2800840367030078 0.37810078143093345
2740000000.0 0.389572120298994 -0.18261545368354862
2760000000.0 -0.28973088862791124 0.2662781237356458
2780000000.0 -0.04645611413761111 -0.35641019379067995
2800000000.0 0.26785133040748627 0.19328981182812308
2820000000.0 -0.2679967982638292 0.15249809923846558
2840000000.0 0.100501145057677 -0.27336737890001056
2860000000.0 -0.037011732834026166 0.2795823086678662
2880000000.0 0.023394945084011656 -0.2784876337438649
2900000000.0 -0.15679248594018041 0.22956532349634495
2920000000.0 0.1572073816413172 0.23765145391374362
2940000000.0 0.2118709388249523 -0.20329866134221528
2960000000.0 0.0800153498475898 -0.29024607685801795
2980000000.0 -0.13419429602814306 -0.2808515200251071
3000000000.0 -0.10578269310086849 -0.2985126316145497
3020000000.0 0.006119529045756216 -0.3200515172970173
3040000000.0 0.25289501162172023 -0.19072871451419204
3060000000.0 0.15609633650543134 0.27167315842569095
3080000000.0 -0.3009960740269112 -0.05258021161255584
3100000000.0 0.24604537150994035 -0.16480096444860137
3120000000.0 -0.14861712602268906 0.2406680919957072
3140000000.0 -0.007363354255310899 -0.2678954041733373
3160000000.0 -0.17198764308941814 -0.18091404146411588
3180000000.0 0.06462818275431227 0.22367455475598075
3200000000.0 0.05500528311314862 -0.20629882341217368
3220000000.0 -0.13361553470555754 0.14092053515893588
3240000000.0 0.03179276424004214 -0.17135720152356265
3260000000.0 0.10102373770379479 0.11295734444552645
3280000000.0 0.07902459502949355 0.0964737118190643
3300000000.0 0.07749152334304893 -0.05816038108527686
3320000000.0 0.06231027694110048 -0.023092457619892513
3340000000.0 -0.02679201886391226 0.024668370901952032
3360000000.0 -0.021593348783527092 0.0007462613162820188
3380000000.0 -0.015908835464060484 0.023503916195574872
3400000000.0 -0.035422080336956666 -0.02059410663098967
3420000000.0 0.029555957580167515 -0.04027733667848836
3440000000.0 0.015542610544808962 -0.045195495543899226
3460000000.0 -0.013410189790045355 0.04014808550906768
3480000000.0 -0.03329451927422798 0.02697582525211277
3500000000.0 0.046618973151044484 -0.03829303537917558
3520000000.0 -0.0104896964223148 -0.08933225100327362
3540000000.0 -0.0974170202982447 -0.06320577320934395
3560000000.0 -0.02531928873884493 0.1356257102292107
3580000000.0 0.14298654288693585 0.05541618513579773
3600000000.0 -0.0389525154944995 -0.16505445667723548
3620000000.0 -0.17267635150918045 -0.01101858666183435
3640000000.0 -0.16669207401223216 -0.05885501641897051
3660000000.0 0.06300608364979814 -0.16437574762055507
3680000000.0 -0.06016968507568529 0.1657285796576394
3700000000.0 0.08122912463896782 -0.153879388339246
3720000000.0 -0.17593722993935967 0.03020141078402029
3740000000.0 0.08907174728739159 -0.15806817224091926
3760000000.0 -0.03957460455363609 0.17999212139502635
3780000000.0 -0.18089567024517333 -0.02963159355700287
3800000000.0 0.02009805768377046 -0.17580183416037157
3820000000.0 0.07268598218435782 0.1497883252401767
3840000000.0 0.14495364430241886 -0.03967015442538659
3860000000.0 -0.017024265154541612 0.1376596364238694
3880000000.0 0.13092039584327972 -0.042034543529457874
3900000000.0 -0.1417438682312935 0.003469613298019155
3920000000.0 -0.07965312782851297 -0.13279049924793238
3940000000.0 0.16888331650039803 0.037360115204454376
3960000000.0 0.14400315829445973 -0.11963727329559377
3980000000.0 0.09512398732905089 0.16713979467021897
4000000000.0 -0.11312099766719176 -0.14570224383079733
