! Created with skrf (http://scikit-rf.org).
# Hz S RI R 50.0 
!freq ReS11 ImS11
400000000.0 -0.703447132712147 0.5038148201703253
420000000.0 0.2722651833931854 0.8213601309106503
440000000.0 0.7870988542120958 -0.28825651972662
460000000.0 0.2056106865683726 -0.7603961270801927
480000000.0 0.586748410848652 -0.419962966616278
500000000.0 -0.4163644084445874 -0.3809636151529353
520000000.0 -0.4659682793188893 -0.14792114253411706
540000000.0 0.09905174473291413 -0.3977133706560059
560000000.0 -0.2984635853916375 -0.21474146790953838
580000000.0 0.058461669000993775 -0.31590992619784847
600000000.0 -0.010128962921161054 -0.32718617683418466
620000000.0 0.3135266602517724 -0.11079770428994497
640000000.0 -0.34356431344763155 0.052120385794936865
660000000.0 -0.2684892813066756 0.2757148488161438
680000000.0 0.03501793833347905 -0.400685278828357
700000000.0 -0.42176377824684425 0.11538918229096044
720000000.0 -0.05046136039381451 0.4379207941771228
740000000.0 -0.38727176320914863 0.234745602074715
760000000.0 -0.03676977625692875 -0.43216128260012604
780000000.0 0.3546731199193743 0.1870356325948899
800000000.0 -0.0007512650504360762 0.3653199648876493
820000000.0 -0.10782986472372703 0.28086180734475635
840000000.0 0.17470970426808674 -0.18001896807331277
860000000.0 0.0437888230181496 -0.19604935554550756
880000000.0 -0.06461755746762157 -0.13577557283743613
900000000.0 0.07371323667882393 0.010393807527491155
920000000.0 0.002906081450347961 -0.04145184392095383
940000000.0 -0.047715028776655954 0.0016118451838392502
960000000.0 0.017143211419829853 -0.05638131387731163
980000000.0 -0.00364116064547981 -0.06309532325981769
1000000000.0 0.04294507141412205 -0.05268050108183152
1020000000.0 0.07083571968426411 0.011062898495138028
1040000000.0 -0.06029217782935205 -0.04917895301706211
1060000000.0 0.10315425410453534 -0.04231230186686554
1080000000.0 0.12529979666052443 -0.046532198389214775
1100000000.0 0.08289468754446667 -0.13677177130261273
1120000000.0 -0.005567808602973502 -0.1958091599817987
1140000000.0 0.18726272006039515 0.1530736239123418
1160000000.0 0.1672256066328098 -0.2336480606434844
1180000000.0 -0.31372558144614876 0.10606157109312768
1200000000.0 -0.3619285599534208 0.014021698884038722
1220000000.0 -0.243336286223625 -0.31059729928325813
1240000000.0 0.383675710622807 0.1544291134527856
1260000000.0 -0.4370638005692285 -0.00365515403320789
1280000000.0 0.43177961720173647 0.0997989446090199
1300000000.0 -0.18361897366064975 -0.409056216672153
1320000000.0 -0.3748331859260172 0.22262743595262452
1340000000.0 -0.3867685440332432 -0.18145733284002627
1360000000.0 -0.1158189281564443 -0.40563555099026394
1380000000.0 -0.14340371686674339 -0.395716952952004
1400000000.0 -0.39703942312557833 0.0763131050483837
1420000000.0 -0.3714926983561574 0.11361607437195559
1440000000.0 -0.05186394302869028 0.36369049585978486
1460000000.0 -0.026372411523185958 0.3397757755544835
1480000000.0 0.2418099246938181 0.21194409359465327
1500000000.0 0.22997744194506944 -0.19170313134869169
1520000000.0 -0.172950531923165 0.21366107127101525
1540000000.0 0.22888276730938753 -0.10741346408243448
1560000000.0 0.16059986686479297 -0.1511813483256148
1580000000.0 -0.08672822764782595 -0.16736754576793164
1600000000.0 0.13585929155229642 -0.07337663458461591
1620000000.0 0.020237541811130886 0.11533990641285118
1640000000.0 0.07355713662695226 -0.044683790275955274
1660000000.0 -0.032838518449004116 0.05090797646285129
1680000000.0 -0.0031386326121984076 0.03110710802867857
1700000000.0 0.009597219249556173 -0.008609564673652802
1720000000.0 -0.019204175847063853 0.011319078149281722
1740000000.0 -0.011383143886616928 0.04062032365861461
1760000000.0 -0.03282153845082768 -0.05361177672455439
1780000000.0 0.08202391439710395 -0.019798685659509225
1800000000.0 -0.11085750796184109 0.03438428059491093
1820000000.0 0.10915862325730444 -0.09231356644132319
1840000000.0 -0.16740177480868157 -0.029780728969406853
1860000000.0 0.1364098640101917 0.1429576447572157
1880000000.0 0.20589626724669657 0.09055571439326632
1900000000.0 0.24985538929358103 0.06722287102124735
1920000000.0 0.15298000819139226 -0.2483864202982352
1940000000.0 0.13105835640479604 -0.29869630157545657
1960000000.0 -0.29278752264862357 -0.211782096394725
1980000000.0 -0.17911025933582803 0.34736244481583933
2000000000.0 0.3127739915747443 0.27879421288432193
2020000000.0 0.2064577871877775 -0.39130468201272844
2040000000.0 -0.42437725359552403 0.1715834877407359
2060000000.0 0.44899176656969036 0.10074341024032726
2080000000.0 -0.24953810655873462 -0.38207167065670883
2100000000.0 -0.22345357222997578 0.38209739782043095
2120000000.0 0.21907041757874926 0.3598574452041775
2140000000.0 -0.24775380792399954 0.3097418035152931
2160000000.0 -0.2991631075720233 0.22778473321416368
2180000000.0 -0.302478594723026 -0.1900491634705559
2200000000.0 6.4006800152023075e-06 -0.3452455457085851
2220000000.0 0.32222374151611033 -0.11448987438431195
2240000000.0 0.2053039813860994 -0.27987966958495786
2260000000.0 -0.09356653620096973 -0.34382263328157847
2280000000.0 -0.3420653550382567 0.1328906118177258
2300000000.0 0.34907529616843835 0.15776203745049167
2320000000.0 -0.19819304509835284 -0.3542810344305352
2340000000.0 -0.16006970893103423 0.40203687781533304
2360000000.0 0.29789109441929923 -0.36142452527060287
2380000000.0 -0.4875688602275563 0.15380777084277866
2400000000.0 0.5474043383963816 -0.1156208355196057
2420000000.0 -0.5246167273718169 0.3098195677521586
2440000000.0 0.2170314026778962 -0.6191616381391172
2460000000.0 0.20585342114007532 0.6637736282407566
2480000000.0 -0.48014353102579843 -0.544098440167569
2500000000.0 0.5859605291983979 0.45975253595185545
2520000000.0 -0.4956779783192439 -0.570685653555694
2540000000.0 0.21064490835312147 0.7276980979091765
2560000000.0 0.29758663930293244 -0.6899082916525161
2580000000.0 -0.7145729649084693 0.17790438091656013
2600000000.0 0.5612103495319608 0.438941244120493
2620000000.0 0.0019249487642870094 -0.6814865227776373
2640000000.0 -0.25472433221122737 -0.5918171552427134
2660000000.0 -0.4421711624391394 0.4056132676844233
2680000000.0 0.46231112229929716 0.3101740378587973
2700000000.0 0.06245101253248813 -0.5109223595104985
2720000000.0 -0.2795337832519386 0.3796100138768244
2740000000.0 0.37796748159194704 -0.20846553330570167
2760000000.0 -0.3013213589398842 0.2544926821042733
2780000000.0 -0.0013070491712958178 -0.3600415389484367
2800000000.0 0.2392151599231738 0.2284216387257535
2820000000.0 -0.2807621997329599 0.127584642781954
2840000000.0 0.14958436642453835 -0.2503641385862064
2860000000.0 -0.097739740076262 0.2647329817236284
2880000000.0 0.05173340447632592 -0.27416102716333
2900000000.0 -0.19671104389826558 0.1952900343318473
2920000000.0 0.12365349828554167 0.2566257936228972
2940000000.0 0.22427126041288892 -0.18835729249281954
2960000000.0 0.04682210681656225 -0.2965072804947663
2980000000.0 -0.16544277723391468 -0.26353067724184287
3000000000.0 -0.202597682203284 -0.24375062951498455
3020000000.0 -0.09609681401159301 -0.3055028987412646
3040000000.0 0.2897598024313243 -0.12823179861119027
3060000000.0 0.21138717970821355 0.2322684129539107
3080000000.0 -0.30548724394026294 -0.017443303881806566
3100000000.0 0.18417763885119595 -0.23357078665664896
3120000000.0 -0.09886032780312862 0.2657580859014775
3140000000.0 -0.03131398442378356 -0.26760915349823133
3160000000.0 -0.1696421128640218 -0.18532173608667082
3180000000.0 0.06036656246030092 0.2264457841748508
3200000000.0 0.041647213064558174 -0.21095198904891502
3220000000.0 -0.11637870544461416 0.1576342415522511
3240000000.0 0.05974844625187372 -0.16487854645642558
3260000000.0 0.10121730075015044 0.11378621190883687
3280000000.0 0.0633068918659206 0.10794146615653483
3300000000.0 0.08202381000756052 -0.051209366696936744
3320000000.0 0.06610905280602698 -0.0026219068019490495
3340000000.0 -0.0327172254236473 0.015335099917226633
3360000000.0 0.0016566773718931626 0.020024264126757917
3380000000.0 0.02194624224748302 0.017292011669774655
3400000000.0 0.0007629662576860307 0.04068891435978672
3420000000.0 -0.02182326330647894 -0.04452342700729243
3440000000.0 -0.006589001382005897 -0.046711585576226844
3460000000.0 -0.011999949174520318 0.0398965605684484
3480000000.0 -0.0313991754050721 0.02855436489559153
3500000000.0 0.043173990964380765 -0.043334339237734484
3520000000.0 -0.013789302110007593 -0.08863331432046027
3540000000.0 -0.10754585329892495 -0.04391489227734898
3560000000.0 0.0020709595840489713 0.13808527810059362
3580000000.0 0.15323188043258368 0.001996126807995557
3600000000.0 -0.07079944730518643 -0.15355496655845152
3620000000.0 -0.16465034331070996 0.05607096247045726
3640000000.0 -0.16992204469080155 -0.04684246848715832
3660000000.0 0.0981427453154042 -0.14618226482973365
3680000000.0 -0.09115006812666011 0.15078866882559389
3700000000.0 0.08901046806303001 -0.14996563370271565
3720000000.0 -0.17790458242751486 -0.011206782483452716
3740000000.0 0.06305736167618843 -0.17054277700943143
3760000000.0 -0.03420271002454468 0.18094449871837986
3780000000.0 -0.18215601774995455 0.02269905731860599
3800000000.0 -0.03166338475008298 -0.1747205106058988
3820000000.0 0.14044193604551045 0.0900505667931794
3840000000.0 0.12632694931738753 -0.08225492372114952
3860000000.0 0.03901445500747787 0.1341449415596208
3880000000.0 0.11952485347636548 -0.06912445580941708
3900000000.0 -0.12798569645153407 0.06166706301172385
3920000000.0 -0.10072433826559916 -0.11838188798424933
3940000000.0 0.16916635764303586 -0.03614093059020226
3960000000.0 0.057626650061758274 -0.17889245605448195
3980000000.0 0.1593405871822583 0.10899079520044126
4000000000.0 -0.16414642874785962 -0.08081971330625458
