! Created with skrf (http://scikit-rf.org).
# Hz S RI R 50.0 
!freq ReS11 ImS11
400000000.0 -0.7054193933195173 0.5039248667234976
420000000.0 0.28123149128553093 0.819021831607872
440000000.0 0.7810938087976493 -0.3044876325651144
460000000.0 0.18983254592930954 -0.7639376182979076
480000000.0 0.5941284073698034 -0.409814860139256
500000000.0 -0.42693428157237184 -0.3686278038041438
520000000.0 -0.4523175877085968 -0.18585500919412024
540000000.0 0.09134544267462866 -0.39987477932337956
560000000.0 -0.337143848714192 -0.14797309969240466
580000000.0 0.06000962426459178 -0.3141787061421446
600000000.0 0.008725896185464984 -0.3264285497941895
620000000.0 0.3282095076639052 -0.05204405957659222
640000000.0 -0.3440781046272928 0.0590314336661335
660000000.0 -0.2434818577665119 0.2953988569163424
680000000.0 0.10476722762195806 -0.3884856952555882
700000000.0 -0.42600279229906807 0.10109864984083611
720000000.0 0.016874631193536497 0.4401897439357414
740000000.0 -0.4162385494280278 0.1801541070143681
760000000.0 0.010674386153387371 -0.4337321016260507
780000000.0 0.34590032284292027 0.2050931747269716
800000000.0 0.034772770523234804 0.36237087222225695
820000000.0 -0.13245901502332347 0.26991504178465087
840000000.0 0.18896640306908197 -0.16538753537654494
860000000.0 -0.020948925966383255 -0.19976532939547134
880000000.0 -0.0789613120786264 -0.1268981956482245
900000000.0 0.06837267707132234 0.02867240121899054
920000000.0 0.011081747984137684 -0.04066890967591959
940000000.0 -0.04782594302593583 -0.007390013474801697
960000000.0 -0.00683118213843926 -0.0581613961986751
980000000.0 0.019920262637969734 -0.05999237253248904
1000000000.0 0.03235275656010571 -0.06036665497070337
1020000000.0 0.0704905312395134 -0.011527052626411577
1040000000.0 -0.06596780613238981 -0.041164839919487294
1060000000.0 0.10449976321496089 -0.039267120484363226
1080000000.0 0.12159085332179996 -0.055939241374294534
1100000000.0 0.06638036356436193 -0.14575241519357976
1120000000.0 0.007111039762873242 -0.1956268562658545
1140000000.0 0.19419595553693417 0.14496439665382235
1160000000.0 0.16307833743447506 -0.23644091537997314
1180000000.0 -0.3159081076977186 0.09961236879688957
1200000000.0 -0.3620906416527621 -0.007668310216406216
1220000000.0 -0.2405876187029095 -0.3132391746688571
1240000000.0 0.38996633630645466 0.13613444724831725
1260000000.0 -0.43605785500893174 -0.028490032971629983
1280000000.0 0.43087146183837305 0.10395581835847174
1300000000.0 -0.1700201597557932 -0.41489816851636285
1320000000.0 -0.3683817012431768 0.2334511332223729
1340000000.0 -0.39072047185831155 -0.17214655334954682
1360000000.0 -0.11333154354115987 -0.40624528427864914
1380000000.0 -0.14582242598502476 -0.3947753213897843
1400000000.0 -0.3955553812111433 0.08362935394266549
1420000000.0 -0.373922126424633 0.10597556679350165
1440000000.0 -0.062383189492931215 0.36209898677746616
1460000000.0 -0.006650363831649644 0.34069899419958694
1480000000.0 0.1963355950037 0.2548960072533159
1500000000.0 0.243074376268815 -0.17423613010977923
1520000000.0 -0.1765402824571193 0.2103592010215044
1540000000.0 0.24494745001421625 -0.06539071802664538
1560000000.0 0.14950339163357543 -0.16184459215110908
1580000000.0 -0.0667781534217471 -0.17633336045749803
1600000000.0 0.13861092141762618 -0.06857699910554403
1620000000.0 0.014866386235002825 0.11609076303081402
1640000000.0 0.07791242535443578 -0.03629515949093367
1660000000.0 -0.045879611311872605 0.039063848077457275
1680000000.0 -0.006649645837933414 0.030715264074581864
1700000000.0 -0.009643779130688748 -0.007783471549883344
1720000000.0 -0.019577406297194656 0.011052796906347882
1740000000.0 -0.03273093487816173 0.027088070109310254
1760000000.0 -0.02245664074075841 -0.05871405361457975
1780000000.0 0.08374687000149084 -0.01236643603521125
1800000000.0 -0.1150537546093139 0.016292083119163935
1820000000.0 0.11702255373530744 -0.08171892880282351
1840000000.0 -0.16461435519650033 -0.041571151712114215
1860000000.0 0.13070387402942413 0.14817601088137858
1880000000.0 0.20764603185646083 0.08600401008170296
1900000000.0 0.251925946707118 0.057667481978631425
1920000000.0 0.13196964061514266 -0.26023013581077964
1940000000.0 0.12470529962680245 -0.30113255235158
1960000000.0 -0.30377430114872045 -0.19589355957779855
1980000000.0 -0.18003799581870886 0.34680109168854034
2000000000.0 0.2828554483112121 0.3095706105631217
2020000000.0 0.21367891264352643 -0.38750711666270743
2040000000.0 -0.4275293213775649 0.16401829528455428
2060000000.0 0.44482379872350797 0.11768551742717785
2080000000.0 -0.2578437436038672 -0.3768597645294395
2100000000.0 -0.24203383077958715 0.3711989443555923
2120000000.0 0.25666134337974345 0.33413444025061256
2140000000.0 -0.21897969478054918 0.3308851304953675
2160000000.0 -0.2998036271357056 0.2271658566844245
2180000000.0 -0.30783315127340033 -0.18137728366408498
2200000000.0 -0.009676574454851669 -0.34511552607913903
2220000000.0 0.31796012512984584 -0.1257628850356551
2240000000.0 0.2037463896422623 -0.28095948504573215
2260000000.0 -0.08894500665904585 -0.34467129028447474
2280000000.0 -0.33989060456356895 0.1387339019943236
2300000000.0 0.34461145835938256 0.16670207882461452
2320000000.0 -0.20574967405061687 -0.3500994585629251
2340000000.0 -0.16635303912290914 0.3995232366185183
2360000000.0 0.2946305092541848 -0.36399854174643986
2380000000.0 -0.4800611062284326 0.17591259010997723
2400000000.0 0.5404511596697998 -0.14517104055665328
2420000000.0 -0.5056498360772701 0.3400422237134948
2440000000.0 0.1945155554347621 -0.6267355763268504
2460000000.0 0.2290521954625024 0.6561874916589181
2480000000.0 -0.5068953860258066 -0.5190278243237368
2500000000.0 0.5956219925508255 0.44731745381803856
2520000000.0 -0.4889169913645645 -0.5770796801435515
2540000000.0 0.18983740113395112 0.7334920332157014
2560000000.0 0.28159684974634946 -0.6962522077243151
2580000000.0 -0.7271469038556446 0.11590040795903478
2600000000.0 0.5760026230070067 0.41859710288057417
2620000000.0 0.005193268867654019 -0.681151743302711
2640000000.0 -0.20885249921761553 -0.6092365965083986
2660000000.0 -0.4503585644437185 0.39585390224632544
2680000000.0 0.4818982159798034 0.27853603540876415
2700000000.0 0.0596541103233815 -0.5108552357741699
2720000000.0 -0.29198607930042575 0.3698313511041691
2740000000.0 0.3816041124212539 -0.20170040795683897
2760000000.0 -0.30685334974361284 0.24716143350032954
2780000000.0 0.010627737273820916 -0.35971170103993255
2800000000.0 0.24034924789269838 0.22709717166213458
2820000000.0 -0.28374422049535775 0.12037471284743181
2840000000.0 0.14943030504467417 -0.24974481257962944
2860000000.0 -0.09039313695942396 0.26713958727084713
2880000000.0 0.030221362328717624 -0.2768213811596288
2900000000.0 -0.17490968253747557 0.21486606656520676
2920000000.0 0.1349059530776555 0.25080910649054056
2940000000.0 0.23305198086341275 -0.17772534011250005
2960000000.0 0.06200198579881719 -0.29399991663305697
2980000000.0 -0.17271174227133987 -0.2588023222448835
3000000000.0 -0.16386745613035453 -0.2726333729646465
3020000000.0 -0.06468149599595852 -0.3140978007954916
3040000000.0 0.30213864434828713 -0.09625104681262382
3060000000.0 0.16004723170123855 0.2703610393824091
3080000000.0 -0.303767330261212 -0.03883625452334083
3100000000.0 0.19381039320187426 -0.22586316601913264
3120000000.0 -0.061628442894945894 0.2772261302175815
3140000000.0 0.01136302389103944 -0.26910379330076367
3160000000.0 -0.16644130777533656 -0.18806856811899342
3180000000.0 0.03234740140613306 0.23138527560949265
3200000000.0 0.05140690850111876 -0.2081617735121689
3220000000.0 -0.11526417569665053 0.15832699667969038
3240000000.0 0.06370905970531905 -0.1625545377713012
3260000000.0 0.10799776766189871 0.1069957384548861
3280000000.0 0.044901175080761455 0.11647057517364624
3300000000.0 0.07411176542677055 -0.062111287479191965
3320000000.0 0.05946356951440965 -0.028886342504792203
3340000000.0 -0.0012351250611773962 0.03597960963663733
3360000000.0 0.01717719997748512 0.011372002502556783
3380000000.0 0.0002337393122655865 0.028527008441459497
3400000000.0 -0.03338235913097274 0.02376288731180604
3420000000.0 0.0015310658305170016 -0.0498973842623332
3440000000.0 -0.0005618316564402576 -0.047415634538904315
3460000000.0 -0.026865383153969438 0.032180030636243244
3480000000.0 -0.04170056016974849 0.009196834754344848
3500000000.0 0.05996279755886812 -0.01042161642804373
3520000000.0 -0.0036247493130261836 -0.08997641444161249
3540000000.0 -0.09945427893423323 -0.06038170144078492
3560000000.0 -0.02001037552446674 0.13659005203012273
3580000000.0 0.1535415337915035 -0.0037471634508205076
3600000000.0 -0.032053238234242984 -0.16613600407517878
3620000000.0 -0.16874252607625215 0.03994942290466469
3640000000.0 -0.16255330005458135 -0.06873282718143957
3660000000.0 0.1012159442672022 -0.1439669044566465
3680000000.0 -0.09649221775821687 0.14707959668275056
3700000000.0 0.09612390156652503 -0.14521164436101816
3720000000.0 -0.17632196076763462 -0.023748772061647935
3740000000.0 0.0858696816606414 -0.16015204713203687
3760000000.0 -0.04586571626864282 0.17814118688296005
3780000000.0 -0.18255762374437284 -0.0229501492301268
3800000000.0 -0.017083527861415256 -0.1770747599567431
3820000000.0 0.12637294303554342 0.1090694784375841
3840000000.0 0.12457394455876615 -0.0845797986819599
3860000000.0 0.046893794581880505 0.13151595897277638
3880000000.0 0.12486233676622321 -0.0595492099892053
3900000000.0 -0.13773382342172694 0.03625897658575905
3920000000.0 -0.08932422890644895 -0.1271408309212268
3940000000.0 0.17287044019186323 -0.008656702055268512
3960000000.0 0.09436456908571383 -0.16298949030608573
3980000000.0 0.1463848527420759 0.1254637153925923
4000000000.0 -0.16419597598887076 -0.07999266895113641
