! Created with skrf (http://scikit-rf.org).
# Hz S RI R 50.0 
!freq ReS11 ImS11
400000000.0 -0.7055124100413322 0.4975088972230267
420000000.0 0.2733568847165213 0.8197022187001658
440000000.0 0.7802266813168656 -0.30325697403282037
460000000.0 0.17070342904190705 -0.7689503076897924
480000000.0 0.5281471238055883 -0.4913746729654569
500000000.0 -0.32366969588251465 -0.46026031098449677
520000000.0 -0.4175043105506036 -0.2542672310366805
540000000.0 -0.028040696929878026 -0.41054842235502464
560000000.0 -0.36197674269618446 -0.04763121476132996
580000000.0 0.13154795202493455 -0.2918431185889398
600000000.0 -0.057711404957049975 -0.32525657349938203
620000000.0 0.30886891650725623 -0.12691138072454886
640000000.0 -0.35073615863244906 -0.0041482037835687815
660000000.0 -0.304558197840101 0.23360268065992573
680000000.0 0.22168037393187479 -0.3376267845491
700000000.0 -0.4382215556439747 -0.0005103712009754919
720000000.0 -0.10786879385056437 0.4267334072545372
740000000.0 -0.4461884377180616 0.0782642319711978
760000000.0 0.07470219681430305 -0.4264566323264774
780000000.0 0.34745496453035396 0.19913070850005465
800000000.0 0.0635917787343721 0.35739828941353885
820000000.0 -0.07468134902282995 0.2907670995652598
840000000.0 0.11588819066204992 -0.22301664880241623
860000000.0 -0.06642097796715508 -0.19018733892635376
880000000.0 -0.13601304237903897 -0.06682811811636379
900000000.0 0.0587060529245872 0.049219427141501966
920000000.0 0.04320125601852079 0.006140858993381713
940000000.0 0.004726841335356442 -0.04711418038809274
960000000.0 -0.004903817122346997 -0.056688553615452046
980000000.0 -0.02476460794591866 -0.0559556326836472
1000000000.0 -0.046254567762344 -0.04869120031910828
1020000000.0 0.010118286933790374 -0.07051194979420879
1040000000.0 -0.05537173643082909 0.05388943951312275
1060000000.0 0.07089137918553942 -0.08643352559500318
1080000000.0 0.07334302872103457 -0.11303173501704415
1100000000.0 0.02629106028844018 -0.15911078060846962
1120000000.0 -0.014376949280087108 -0.19669106646243295
1140000000.0 0.17726357520133168 0.16740053165732222
1160000000.0 0.20948704916172406 -0.19850325559204476
1180000000.0 -0.32553483078428563 0.06625996040657595
1200000000.0 -0.3513813812832433 -0.09020471814855834
1220000000.0 -0.187321011988519 -0.34823261559844637
1240000000.0 0.3478033200426528 0.22381772103151493
1260000000.0 -0.43420659510528137 -0.04588337137986447
1280000000.0 0.41995658439029826 0.14169782467496667
1300000000.0 -0.1551502018663141 -0.4200876867997323
1320000000.0 -0.3764837567539913 0.2191268313522258
1340000000.0 -0.38580401513971957 -0.18230817957240908
1360000000.0 -0.13999270589472898 -0.39775665120807274
1380000000.0 -0.16960038123705726 -0.38526984589483315
1400000000.0 -0.39526956489948256 0.08613875798075724
1420000000.0 -0.36619155235867984 0.12985040270155335
1440000000.0 -0.044183678648670066 0.3652846197052348
1460000000.0 -0.020765581947308383 0.34053461130923085
1480000000.0 0.19792768918106463 0.25395328896470276
1500000000.0 0.226371968149402 -0.1960821663813614
1520000000.0 -0.1871510846269114 0.20256836154424085
1540000000.0 0.23486911665247784 -0.09413842240092672
1560000000.0 0.17136227592763426 -0.1390560308342963
1580000000.0 -0.03694528651997859 -0.1851201871411097
1600000000.0 0.14856708785994674 -0.04302111011281718
1620000000.0 0.0017212257023363443 0.11682999437945855
1640000000.0 0.07342345322924397 -0.04420392233516452
1660000000.0 -0.036957040670747406 0.04731134918162552
1680000000.0 0.019263750328843598 0.02501020086017208
1700000000.0 -0.011220555645324287 -0.006667908112048192
1720000000.0 -0.015213110872847982 -0.017210747850716652
1740000000.0 -0.041180239735585815 0.00883526463594715
1760000000.0 -0.020775979731665048 -0.05905237467130005
1780000000.0 0.0836850356404914 -0.002566108368428083
1800000000.0 -0.11400632369246812 0.019666860081837944
1820000000.0 0.09919734350129142 -0.1030467930114135
1840000000.0 -0.1684387429010658 -0.022119898692704046
1860000000.0 0.15284410035386392 0.1253776071591486
1880000000.0 0.21804551558825316 0.055565760088808876
1900000000.0 0.25328106204288353 0.05310170962213682
1920000000.0 0.13812885533472968 -0.257308970914391
1940000000.0 0.11242935207227145 -0.3065750547454915
1960000000.0 -0.2846726590447672 -0.22287137780902466
1980000000.0 -0.17908782523389172 0.3478814659315433
2000000000.0 0.3005296741105843 0.292183738399791
2020000000.0 0.2123316631496185 -0.388409846843659
2040000000.0 -0.42208639551723565 0.17688210524198714
2060000000.0 0.4363985118591509 0.146393869453314
2080000000.0 -0.2129632508042306 -0.4041262474298944
2100000000.0 -0.25198974985504585 0.3639472189408794
2120000000.0 0.2758671619952923 0.3181918748984412
2140000000.0 -0.2771400801056479 0.2837550857044567
2160000000.0 -0.3123905972803019 0.2094404624328315
2180000000.0 -0.30848800091711936 -0.17914865092646368
2200000000.0 0.009003640969594757 -0.34448781992162647
2220000000.0 0.31033535441261567 -0.14164903242438343
2240000000.0 0.21321432945255356 -0.2731816602348885
2260000000.0 -0.10723276545386923 -0.3390124005530726
2280000000.0 -0.33727360045481525 0.1432783621727098
2300000000.0 0.3614550822463447 0.12606401671728795
2320000000.0 -0.21378229109395003 -0.34477506837885075
2340000000.0 -0.13632455554474537 0.4107305443449385
2360000000.0 0.27608840019170044 -0.3785856856148692
2380000000.0 -0.47771337914638856 0.1819821567425406
2400000000.0 0.5328479539522423 -0.17123986077595982
2420000000.0 -0.4988421920691496 0.3503567113882987
2440000000.0 0.20497731758845233 -0.6237025159826163
2460000000.0 0.22189162948828972 0.6590611665413553
2480000000.0 -0.5257949304237796 -0.4997521923976022
2500000000.0 0.5993695600321003 0.4424668972733878
2520000000.0 -0.4831101999696403 -0.581458406618843
2540000000.0 0.15391169960049658 0.7417785456721436
2560000000.0 0.3355788238262502 -0.6719652438318826
2580000000.0 -0.7325620214053475 0.0716623496233378
2600000000.0 0.5282296797641273 0.47686954116330615
2620000000.0 0.06933572045216535 -0.6767786627845835
2640000000.0 -0.22042028868540564 -0.6043047190985157
2660000000.0 -0.4672306003713126 0.3744975817989414
2680000000.0 0.44260190753799417 0.33581045079252103
2700000000.0 0.09270572543386565 -0.5049362440645795
2720000000.0 -0.2850276043030733 0.37377604164521766
2740000000.0 0.3777424209985997 -0.2060127154979871
2760000000.0 -0.2843077662321648 0.2724034917254246
2780000000.0 -0.03799509722624851 -0.35769115592805334
2800000000.0 0.2693151083479919 0.19164350745807657
2820000000.0 -0.2608020070463516 0.16428816914002922
2840000000.0 0.09543008367904407 -0.2754732623843277
2860000000.0 -0.10547166466154102 0.26286091804652484
2880000000.0 0.019993474805921792 -0.2789948933774269
2900000000.0 -0.20965524682675082 0.18330092901876505
2920000000.0 0.13784912675903857 0.24999333922560346
2940000000.0 0.2543342562529787 -0.14695339529191218
2960000000.0 0.09903433031394733 -0.28397335081731373
2980000000.0 -0.11156518858268015 -0.29033420177939556
3000000000.0 -0.13588705339636617 -0.28708039102252153
3020000000.0 -0.007215290062931508 -0.32014145085196694
3040000000.0 0.3006736050444007 -0.0986910021866448
3060000000.0 0.11700024136049916 0.290303402616142
3080000000.0 -0.2965810163800185 -0.07153091176222223
3100000000.0 0.25819827769288384 -0.14531108038283116
3120000000.0 -0.13095538271877827 0.25064465746314096
3140000000.0 -0.007002437283363484 -0.2684203066218012
3160000000.0 -0.17569460461673087 -0.1781603312546926
3180000000.0 0.06055767134403231 0.22516810386611677
3200000000.0 0.02896717264739528 -0.211792087499746
3220000000.0 -0.0852291326526192 0.17561422061227008
3240000000.0 0.03515271240134482 -0.1714671384627908
3260000000.0 0.1315060144963546 0.07568612906646494
3280000000.0 0.09864387263672177 0.0767985083777746
3300000000.0 0.053481742690515886 -0.08012262178778157
3320000000.0 0.030980263283817054 -0.05906231129136596
3340000000.0 -0.029588950337738035 0.021501420289525806
3360000000.0 -0.008581714865270396 0.019686819730811374
3380000000.0 -0.021029808475608515 0.018852066631830925
3400000000.0 -0.02570223938717699 -0.031026378894944088
3420000000.0 0.03281636441084596 -0.03643606865838389
3440000000.0 0.04359334223398607 -0.016955438106087115
3460000000.0 -0.04024188864277813 0.009127775005529382
3480000000.0 -0.03942449564073577 -0.01460417117373972
3500000000.0 0.05924505239837353 0.013953237872139573
3520000000.0 0.03459298808279568 -0.08270162855745218
3540000000.0 -0.07034477528659325 -0.09239915745964765
3560000000.0 -0.07987392987275578 0.1118466807489938
3580000000.0 0.13955324724448182 0.06284799225482035
3600000000.0 -0.043865971740322925 -0.16272867059943646
3620000000.0 -0.17228706328324592 0.020817314665821613
3640000000.0 -0.16640540237771556 -0.054941172266148385
3660000000.0 0.09985734655230863 -0.14479659872790102
3680000000.0 -0.10061551618003751 0.14332059349759235
3700000000.0 0.09546979353021208 -0.1447536126528879
3720000000.0 -0.17697155449234225 -0.009354519044638644
3740000000.0 0.06523581830904891 -0.16850616820716488
3760000000.0 -0.04390438160747707 0.17794062373925695
3780000000.0 -0.18336517217064738 0.0002970211209906631
3800000000.0 -0.018622411503954703 -0.17585648065679496
3820000000.0 0.12925920705980007 0.10435184760734126
3840000000.0 0.0857681774997977 -0.1223554444088314
3860000000.0 0.06813820102893516 0.12096374004616464
3880000000.0 0.09890814333506846 -0.09475090204980129
3900000000.0 -0.11962728700091459 0.07587434117256345
3920000000.0 -0.12044460770402542 -0.09644967055607598
3940000000.0 0.16087791037020369 -0.06186291686588627
3960000000.0 0.006087525121901582 -0.186431466725859
3980000000.0 0.1832571066947685 0.05665098900735
4000000000.0 -0.18102761921861896 -0.02156429482449039
