!Created with skrf (http://scikit-rf.org).
# Hz S RI R 50.0 
!freq ReS11 ImS11
400000000.0 -0.5300494146949585 0.6919688275003875
420000000.0 0.567001334004599 0.661716187098388
440000000.0 0.4018523084764834 -0.7371404303909167
460000000.0 -0.5540388273099265 -0.5565866616380295
480000000.0 0.6220026988318911 -0.3274898878376502
500000000.0 -0.0058772411494488015 -0.5771877863529211
520000000.0 -0.39771968788931666 0.2985558360175817
540000000.0 0.25439748583928157 -0.3178910472388613
560000000.0 -0.1274708800585845 -0.3398230566536934
580000000.0 0.12040406801075597 0.31997787041939313
600000000.0 0.33928277331711215 -0.09194010089472099
620000000.0 -0.010381288308622347 0.36458179565310594
640000000.0 0.365624491950198 0.1364904711666514
660000000.0 0.2978055376709202 -0.27696309287431725
680000000.0 0.4282528687475237 0.002203874582135035
700000000.0 -0.06099295813148821 -0.42828850280086195
720000000.0 -0.33886435294488443 0.266228976800259
740000000.0 0.1211316971450505 -0.3949150489922028
760000000.0 -0.39318593278975916 -0.009762424411449486
780000000.0 0.30481373468521444 0.1891182851739164
800000000.0 0.02656932618695924 -0.32125917146974486
820000000.0 -0.26010796586850243 0.09509462899188323
840000000.0 -0.127119023081223 0.20267890617548037
860000000.0 -0.20203769430881266 -0.01990419947352795
880000000.0 0.1585308017171028 -0.001183207150459784
900000000.0 0.10561821699450855 0.03031273234175674
920000000.0 -0.003140787391116006 0.0721625674821409
940000000.0 0.004981826361295418 0.041535336374672334
960000000.0 0.019613417623225195 -0.04225792948804141
980000000.0 0.01984875993388582 -0.06247521128545635
1000000000.0 0.0249011010755873 -0.0799750008871059
1020000000.0 0.04378137291081747 -0.09471376153268855
1040000000.0 0.0568738493686398 -0.10422683184751519
1060000000.0 0.13382167648470708 0.07528740531522922
1080000000.0 -0.012695193804479026 0.1729038237229075
1100000000.0 -0.0268283739279309 -0.1967391889205629
1120000000.0 0.12231929045451159 0.18415514400242136
1140000000.0 0.07205877879262311 -0.24313289783457423
1160000000.0 -0.24013150491677615 -0.14501162061771186
1180000000.0 -0.02092504176796401 -0.3146708111213807
1200000000.0 0.2950940358723568 -0.17077505157348244
1220000000.0 -0.2085501884727838 0.3019332349938329
1240000000.0 0.38775441374866054 -0.013975572720855055
1260000000.0 -0.26870995034689893 -0.3108054868336405
1280000000.0 -0.3793310485389943 0.1945786082397171
1300000000.0 0.38823811709624007 0.20193475348890497
1320000000.0 0.438695066521401 0.015666173913011814
1340000000.0 0.4247934595785705 -0.11025465328834681
1360000000.0 0.4408021831370998 -0.012805978028463606
1380000000.0 0.21294720030545755 -0.3815736970475474
1400000000.0 -0.36961816441576467 -0.21976199355398723
1420000000.0 0.0008982784900558956 0.41101278072197384
1440000000.0 0.38112152335042204 -0.04561839729047737
1460000000.0 0.035217466548462424 -0.3514000836352647
1480000000.0 -0.3207788672674508 0.003924938153486887
1500000000.0 -0.1354666775033592 0.2530474107035564
1520000000.0 0.0432485625891775 0.2548185048102926
1540000000.0 -0.16526690386839032 -0.15825143130219993
1560000000.0 0.08745951261587277 -0.17378162306990763
1580000000.0 0.1302041264657266 0.10453143150877343
1600000000.0 0.10662309479043902 -0.078250360606873
1620000000.0 0.07926851432412245 -0.06646510628549261
1640000000.0 -0.004981232728264234 0.07776677795051777
1660000000.0 -0.018448997252837798 -0.05171640592591938
1680000000.0 -0.025942855541376028 0.025215177162776273
1700000000.0 0.0052128203659087425 0.02183987181255201
1720000000.0 0.003246249267476044 0.006800412732935377
1740000000.0 -0.010374955878795456 -0.01259132976329554
1760000000.0 0.03383317908035436 -0.0035146512559704928
1780000000.0 -0.059629053342578835 -0.019181471722703743
1800000000.0 0.07566616128146786 0.05557162726673372
1820000000.0 0.07381775292499701 0.10123466662899991
1840000000.0 -0.07395111731383804 -0.14608993423256472
1860000000.0 -0.06130820926163024 0.19208457480244853
1880000000.0 0.13568973703302578 -0.20100139113885293
1900000000.0 -0.14108986482812697 0.24967932229209305
1920000000.0 0.061335277995767254 -0.31577560974901353
1940000000.0 -0.2265414246768337 0.27293705012613245
1960000000.0 0.37279988389632246 -0.07758915255318552
1980000000.0 -0.2656819314384446 -0.29849864117040553
2000000000.0 -0.398914319088001 0.12214438359664073
2020000000.0 0.08116191030667057 0.4202138475738352
2040000000.0 0.32910462361527887 0.2845815431029808
2060000000.0 0.3556414815521959 -0.2539430380008657
2080000000.0 0.04341495300117224 -0.4327844719410137
2100000000.0 -0.20374523887515056 -0.3760464263577807
2120000000.0 -0.3607156478989205 -0.21296413289497446
2140000000.0 -0.40429146852441766 -0.052833953755830054
2160000000.0 -0.11171846428110313 -0.3775096984393456
2180000000.0 -0.25953090004804297 -0.2788191707082104
2200000000.0 -0.36710289844955807 0.05102922345576849
2220000000.0 -0.17687970117597623 0.31400856959676
2240000000.0 0.2318909301185732 0.27182654708658227
2260000000.0 0.3460244198499985 0.08774310820614886
2280000000.0 0.27908260930885176 -0.23066133872695121
2300000000.0 -0.2853069805675274 -0.24538894307012266
2320000000.0 -0.1894691749163404 0.35140118493716166
2340000000.0 0.42988486014755606 0.029522007455275483
2360000000.0 -0.39463097789352813 -0.2568439917554459
2380000000.0 0.3794405538878661 0.35249349595191787
2400000000.0 -0.5116816052730734 -0.24284462336876472
2420000000.0 0.6009150023212814 -0.12412732545155615
2440000000.0 -0.44644567953505476 0.4812148808584431
2460000000.0 0.07054496662376761 -0.6878168985575239
2480000000.0 0.14084429696239162 0.7034549691267572
2500000000.0 -0.03545273852885842 -0.7325394331853362
2520000000.0 -0.28037343183919883 0.6847730423205568
2540000000.0 0.5907607232982225 -0.44310334220917946
2560000000.0 -0.6988235770281163 -0.21124264576635274
2580000000.0 0.08775469015842946 0.7083450174423617
2600000000.0 0.5961206103760127 -0.3439935475171188
2620000000.0 -0.5443246938741793 -0.36690541634696133
2640000000.0 -0.5754838306663195 -0.22929487350203825
2660000000.0 -0.021860154406635853 0.574829305502452
2680000000.0 0.5088732788931091 -0.14935337229253715
2700000000.0 -0.3451073327890992 -0.3415318998069363
2720000000.0 -0.06898312808525907 0.4349544655826947
2740000000.0 0.38426706118752446 -0.10472185938648741
2760000000.0 -0.3432656026682353 -0.11233895120713958
2780000000.0 0.27785510244378175 0.1829155258264248
2800000000.0 -0.2875582792258659 -0.11408482660043588
2820000000.0 0.2141082369896902 -0.20245279150073575
2840000000.0 0.03569232629393346 0.2822967682028611
2860000000.0 -0.27791634094117446 -0.03980686193120273
2880000000.0 0.17333214040519165 -0.22123668740275526
2900000000.0 0.006584856517540179 0.2826728713873885
2920000000.0 0.18264903301449392 -0.22013788044285829
2940000000.0 -0.27841948129155036 -0.08696755628671622
2960000000.0 -0.18450415341002854 0.2316150901001983
2980000000.0 -0.15388922743924713 0.25802344564697766
3000000000.0 -0.27626112521759083 0.12463336959988149
3020000000.0 -0.23108529730670996 -0.19666094387890723
3040000000.0 0.2999219927162594 -0.022596212263025668
3060000000.0 -0.21237942570980303 0.21222385610478492
3080000000.0 0.18752576321108272 -0.22872028168087308
3100000000.0 -0.15500155669193863 0.2464822813926039
3120000000.0 0.07803074703121507 -0.274914046356208
3140000000.0 0.0957318415681865 0.25952301129831307
3160000000.0 -0.2371908571262641 -0.1121464357949395
3180000000.0 0.06795969865411802 0.2376386853135889
3200000000.0 -0.22227255203321028 -0.027759999934793358
3220000000.0 0.04001698686200664 -0.1944371968489566
3240000000.0 0.11760774160952896 0.12165816196811277
3260000000.0 -0.1369196515957045 0.003174601109922347
3280000000.0 0.09129616693655272 0.05305496725086749
3300000000.0 0.04739527437425062 -0.059370833545685925
3320000000.0 -0.022638882487073186 -0.04381638533054967
3340000000.0 0.017799105613436415 0.019947633100107044
3360000000.0 0.008388377982106203 -0.002286087574346457
3380000000.0 0.005972193386809216 0.0031817932951390643
3400000000.0 -0.0004287350236019579 -0.020174918517265147
3420000000.0 0.0002676460158085762 -0.03155071286560388
3440000000.0 0.04124894537396766 -0.0032637093685488183
3460000000.0 -0.016533544654107356 -0.04699220656263881
3480000000.0 0.05747935491691356 0.020510406323765846
3500000000.0 0.04408970023779787 -0.06146601488941706
3520000000.0 -0.07427518425461808 -0.05132339784762974
3540000000.0 0.06823676616745203 0.08050562190166145
3560000000.0 -0.11792627456650354 -0.0272642855695566
3580000000.0 0.13283580208512197 -0.025815771982993646
3600000000.0 0.08294056813119577 0.12744972973643864
3620000000.0 -0.07753184372118134 0.1437917508643177
3640000000.0 -0.1695105518256419 -0.03931009461213045
3660000000.0 -0.07255123617185609 -0.1688753892239781
3680000000.0 0.08491978966957281 -0.16863388627539705
3700000000.0 0.1273996580718747 -0.1413585480996006
3720000000.0 0.18847131084403623 0.026062579676878677
3740000000.0 0.1239554845369898 0.13767586034545046
3760000000.0 -0.09382244255435752 -0.1526556338589591
3780000000.0 0.09276999926035567 0.1425592174630354
3800000000.0 0.13927705927770634 -0.08460743085554903
3820000000.0 -0.028593595693188523 -0.15226948730516845
3840000000.0 0.002888216611493967 -0.14756543824182722
3860000000.0 0.10428335384739686 0.10488900344283023
3880000000.0 0.0634352334452925 0.13918405443476908
3900000000.0 0.15078521454929736 -0.05382030514420937
3920000000.0 -0.1545070320348037 0.05624309518000091
3940000000.0 0.09632510476592551 -0.13872446902450322
3960000000.0 0.17028111768367565 0.027962391412736154
3980000000.0 0.14264229394856584 -0.09907583594056361
4000000000.0 0.1499895496826138 -0.07372969358144024
