!Created with skrf (http://scikit-rf.org).
# Hz S RI R 50.0 
!freq ReS11 ImS11
400000000.0 -0.5262377465128019 0.6946587417009404
420000000.0 0.5530914422812865 0.6732455349974659
440000000.0 0.40113623351094874 -0.7374251619258142
460000000.0 -0.556835622227524 -0.5539008109053761
480000000.0 0.6124525631170705 -0.34474410002092487
500000000.0 -0.013416402426393298 -0.5767505392114829
520000000.0 -0.4002316875380692 0.2952147335575129
540000000.0 0.23746555079898107 -0.33161080565405726
560000000.0 -0.15154068696488976 -0.32949713761164645
580000000.0 0.10593163909986256 0.3247142249632178
600000000.0 0.3467110900995511 -0.060198655803334125
620000000.0 0.04614598528024007 0.36182936140367716
640000000.0 0.35905308563222044 0.1515198652890775
660000000.0 0.28879563914355205 -0.2857953923081793
680000000.0 0.42710625108259576 -0.02695087775942797
700000000.0 -0.055444101684097157 -0.4289830306128946
720000000.0 -0.32084069415265654 0.2879612108832182
740000000.0 0.11225176658651538 -0.39693084206705415
760000000.0 -0.39296571105809086 -0.015519907837613377
780000000.0 0.3088131941983987 0.18259832111010826
800000000.0 0.031239766429774888 -0.32072722351637656
820000000.0 -0.2609198295833152 0.09359528123808801
840000000.0 -0.13364621688999348 0.1982482971832841
860000000.0 -0.20155925995546367 -0.023905670125047355
880000000.0 0.15818666932382278 -0.0015165935839266446
900000000.0 0.10722730996826776 0.024190169052173152
920000000.0 -0.008531458065395861 0.07180913781646685
940000000.0 0.008680259073782079 0.04097145694455103
960000000.0 0.0002468272791796255 -0.04676490494606029
980000000.0 0.016036745781004207 -0.06381450770647755
1000000000.0 0.02051164906194337 -0.08154180680215954
1020000000.0 0.06062511448941888 -0.08515888676982974
1040000000.0 0.06423800966938556 -0.09987763050094972
1060000000.0 0.13430780101578785 0.07399541960560714
1080000000.0 -0.01795118566655618 0.1722580611708588
1100000000.0 -0.05275996206870183 -0.19128460452937532
1120000000.0 0.1276813954092701 0.1801958229397204
1140000000.0 0.04917718336808932 -0.2486093936708808
1160000000.0 -0.23309555439646085 -0.15538910514364154
1180000000.0 -0.027891716133439968 -0.31389131712311436
1200000000.0 0.2902678986593516 -0.17878675442800493
1220000000.0 -0.2156414285198007 0.2966753160198608
1240000000.0 0.3876511534184351 -0.018893714184684093
1260000000.0 -0.27220818813137293 -0.30790577687311427
1280000000.0 -0.3767131789992133 0.19971133937272656
1300000000.0 0.39257736620051475 0.19349526796602107
1320000000.0 0.43863077674453343 0.018980957101686
1340000000.0 0.4263776213840003 -0.104324405902076
1360000000.0 0.44091949757380483 -0.002765457959349738
1380000000.0 0.2186830327181597 -0.3784014783043572
1400000000.0 -0.36313343634035083 -0.23045255039674523
1420000000.0 -0.0027970001200948503 0.410696492595982
1440000000.0 0.38314814630971084 -0.02574326886671783
1460000000.0 0.03719640796397372 -0.350988773348311
1480000000.0 -0.3202806905819215 -0.01595122069940215
1500000000.0 -0.13429183629193564 0.25361150916153335
1520000000.0 0.05170628648598792 0.2531153846118398
1540000000.0 -0.1636880651271405 -0.1595757689246692
1560000000.0 0.10384293309067373 -0.16461856320584706
1580000000.0 0.1347098578642165 0.09845649258614542
1600000000.0 0.10557449141323813 -0.07963203907390286
1620000000.0 0.07836374809744545 -0.06763464591151051
1640000000.0 -0.005669013074902738 0.07770814491362188
1660000000.0 -0.025951683224683622 -0.04845816398613633
1680000000.0 -0.016705558594047883 0.03217669311933817
1700000000.0 0.0028645703339292778 0.022409190632256576
1720000000.0 0.007359885945996148 0.0017928461451050782
1740000000.0 -0.014833586362074947 -0.006305800376201831
1760000000.0 0.0267387699534567 -0.0212494844251294
1780000000.0 -0.06115627760028549 -0.013296102353388904
1800000000.0 0.07892628489306203 0.050823015502031235
1820000000.0 0.07706072157573184 0.09832742808214015
1840000000.0 -0.0761191117375647 -0.14510235710358413
1860000000.0 -0.05483385889662191 0.19410194098636907
1880000000.0 0.13854957221498926 -0.199116489430537
1900000000.0 -0.14502834792935346 0.24755070364220405
1920000000.0 0.06594194542818399 -0.31481307474459996
1940000000.0 -0.23355325303141222 0.26688054620313906
1960000000.0 0.3767077432495813 -0.05623050510329333
1980000000.0 -0.2559535006210864 -0.3069492209198781
2000000000.0 -0.40557264310263896 0.09803300992963654
2020000000.0 0.056955118720559285 0.4239314535945882
2040000000.0 0.3507628375515765 0.2569625167327229
2060000000.0 0.36067883118897365 -0.24647921538956702
2080000000.0 0.05377267695875176 -0.43136314609872123
2100000000.0 -0.19625212718594184 -0.3798153248451841
2120000000.0 -0.36943315166051316 -0.19698666932101425
2140000000.0 -0.4005918597662605 -0.07386871201553667
2160000000.0 -0.13534238720912337 -0.3691593572337008
2180000000.0 -0.27088549809312984 -0.2673020187902971
2200000000.0 -0.36606361565113815 0.05513214863808124
2220000000.0 -0.1767405709538934 0.31397955844454534
2240000000.0 0.2325050706231654 0.27136684686775553
2260000000.0 0.34632702480499794 0.0866057340059354
2280000000.0 0.2781398381051904 -0.23179905174642357
2300000000.0 -0.28089058236197856 -0.25039483248326916
2320000000.0 -0.20563467748725242 0.3421694144236607
2340000000.0 0.4295824718001048 0.03553506665709667
2360000000.0 -0.3763519532282157 -0.2831529437661613
2380000000.0 0.353240686081917 0.37864515861036757
2400000000.0 -0.4964761030011757 -0.27262067934791034
2420000000.0 0.6112801056813835 -0.055755588397080585
2440000000.0 -0.47794412763423516 0.4497650870719375
2460000000.0 0.11150656618924838 -0.6821231075567882
2480000000.0 0.1286640050179023 0.7055344241030627
2500000000.0 0.005543693027340906 -0.7331046685052343
2520000000.0 -0.3026978381217669 0.675248367189347
2540000000.0 0.62325271568649 -0.39596483495287804
2560000000.0 -0.6897007866506479 -0.2397273488185481
2580000000.0 0.12379433777038301 0.702600689617675
2600000000.0 0.5791583077818586 -0.3724797012777367
2620000000.0 -0.5133264732217312 -0.4093823707980769
2640000000.0 -0.5652999198605292 -0.2537717710931185
2660000000.0 -0.018551098026849507 0.5753259575427917
2680000000.0 0.4919266955460986 -0.19972167194593535
2700000000.0 -0.34623256007131065 -0.34109778655072037
2720000000.0 -0.047111288851911376 0.43825250579398906
2740000000.0 0.3851606538494771 -0.10364615009423263
2760000000.0 -0.34253753804151854 -0.11649767479112978
2780000000.0 0.28294209879490684 0.1757122529659243
2800000000.0 -0.2840379472378797 -0.1239824032574568
2820000000.0 0.21960915276685178 -0.19687390769820878
2840000000.0 0.030736110353865833 0.28322805072264157
2860000000.0 -0.2723209385699974 -0.07052271307879139
2880000000.0 0.18350737304983414 -0.2128894562310609
2900000000.0 -0.027699859206937995 0.2816564234525332
2920000000.0 0.1916614792549674 -0.2125362441195518
2940000000.0 -0.2753668184670933 -0.09617503263855044
2960000000.0 -0.20009108810624887 0.2180957680715971
2980000000.0 -0.16785771409261221 0.2491057543322264
3000000000.0 -0.2819771814711242 0.10883436944533051
3020000000.0 -0.21536333658293857 -0.21308020145225498
3040000000.0 0.28964609054042284 -0.08008388177710461
3060000000.0 -0.2350461192880164 0.1862782744935542
3080000000.0 0.16894200972130627 -0.2426360743517207
3100000000.0 -0.14919233844878965 0.24984517024454
3120000000.0 0.05834275053594003 -0.2797618209877488
3140000000.0 0.13564334771823985 0.24144854907643176
3160000000.0 -0.2360136255585297 -0.11451687318439185
3180000000.0 0.07416271299693518 0.23570921957218158
3200000000.0 -0.2232785842716278 -0.021730245686999865
3220000000.0 0.022013506055316892 -0.19799510411801763
3240000000.0 0.12919636405843474 0.10967097811084402
3260000000.0 -0.13659338480672903 0.015979365363275665
3280000000.0 0.09616300936958717 0.04498836501252254
3300000000.0 0.04498398840125337 -0.0618261176885373
3320000000.0 -0.020432598891420593 -0.04539767080151806
3340000000.0 0.02422463820102313 0.012440878902964822
3360000000.0 0.006848056606062803 0.005991372295707904
3380000000.0 0.0002459458788334747 -0.006359671906995826
3400000000.0 -0.018064221792792788 -0.007833031138868544
3420000000.0 -0.014271372650525471 -0.027797875990788635
3440000000.0 0.032306594870787506 -0.02520059644077126
3460000000.0 -0.036378608674568345 -0.03331763009094869
3480000000.0 0.06081483507158933 2.4421374978334972e-05
3500000000.0 0.016333083006364605 -0.07364582763035216
3520000000.0 -0.05690265386469466 -0.06913878887487425
3540000000.0 0.06954293575507405 0.078609532241985
3560000000.0 -0.1208310762552651 0.00556100400839336
3580000000.0 0.12404739243315788 -0.053725673733033795
3600000000.0 0.07266484772440095 0.13290465307370533
3620000000.0 -0.0562391045555131 0.15305600686009224
3640000000.0 -0.17295984587942947 -0.016785146018343564
3660000000.0 -0.09277077033191695 -0.15861473762368136
3680000000.0 0.046823505262079415 -0.18317149439580777
3700000000.0 0.10986814023378544 -0.15563098017073543
3720000000.0 0.19053554139244755 0.006103876288357015
3740000000.0 0.13750736939782568 0.1242915494404947
3760000000.0 -0.10565073113941748 -0.14530989179135168
3780000000.0 0.09746034246222839 0.13957319880231459
3800000000.0 0.13490972814381788 -0.09207299629181909
3820000000.0 -0.04141448084527595 -0.14965064648144688
3840000000.0 0.0020215932388017964 -0.1481411136923326
3860000000.0 0.1162950007670799 0.0917363971300668
3880000000.0 0.07458879631693478 0.13398567110170384
3900000000.0 0.1468718699370688 -0.06541499951737155
3920000000.0 -0.1571371091255984 0.04991186803590671
3940000000.0 0.1043926747377311 -0.133473732434616
3960000000.0 0.16613573539858378 0.04902990877658903
3980000000.0 0.1573458336526063 -0.07426784886737388
4000000000.0 0.1581833099453765 -0.05522799786043411
