!Created with skrf (http://scikit-rf.org).
# Hz S RI R 50.0 
!freq ReS11 ImS11
400000000.0 -0.5553779719506707 0.6717856623388616
420000000.0 0.5682108553208365 0.6617715739728612
440000000.0 0.3919518130051087 -0.7423582829998168
460000000.0 -0.5624022049281977 -0.5486862190918614
480000000.0 0.6234071662601443 -0.32593871013180326
500000000.0 -0.0347553531299028 -0.5763941109173867
520000000.0 -0.40524706003434796 0.2874590209997915
540000000.0 0.26994687780249954 -0.30531309150985053
560000000.0 -0.17551617233023054 -0.31783303000547153
580000000.0 0.12890708876878465 0.3155746920263262
600000000.0 0.35009130667692684 -0.03024834016143273
620000000.0 0.03184020991635363 0.36431348492980137
640000000.0 0.368685479703048 0.1275106066663425
660000000.0 0.2725202872327974 -0.3008141582322567
680000000.0 0.42828054280474664 -0.01057605672404164
700000000.0 -0.06360648914153653 -0.42806980537252826
720000000.0 -0.3466968322805757 0.25590491143294614
740000000.0 0.14695653772810283 -0.3857415887017078
760000000.0 -0.393222346734863 -0.021370912129800447
780000000.0 0.3126765589379489 0.17537008347820188
800000000.0 0.04728631765466919 -0.3190657352163884
820000000.0 -0.26862969974734774 0.06769488755309717
840000000.0 -0.10738601140111875 0.2137066118567776
860000000.0 -0.20239788603089842 0.016581108167047064
880000000.0 0.15479293380605838 -0.036449503801338455
900000000.0 0.11047938856466542 -0.008543057062919619
920000000.0 0.0004328839158618943 0.07325652546536703
940000000.0 0.007606765103056429 0.041767843011313456
960000000.0 0.021446034966664296 -0.04176367474723111
980000000.0 0.048736459764651824 -0.044326840202173236
1000000000.0 0.05923180370615663 -0.059175677831718385
1020000000.0 0.0634073420013558 -0.0824547453191468
1040000000.0 0.053517908610549565 -0.10560295738409528
1060000000.0 0.14853556238343926 0.037628718249770474
1080000000.0 0.005290286269253982 0.17396176787767115
1100000000.0 -0.0545804226160165 -0.19178689270564359
1120000000.0 0.10532342020410858 0.19483805543363972
1140000000.0 0.050519424288412565 -0.2491177715640405
1160000000.0 -0.22041846942120602 -0.17405424497532207
1180000000.0 -0.010204883018747295 -0.31582453302507923
1200000000.0 0.3082064726623545 -0.1470808631271043
1220000000.0 -0.27345943845169013 0.2455325643882034
1240000000.0 0.3851217286801763 0.048568356383765235
1260000000.0 -0.23876149324825036 -0.334061793569846
1280000000.0 -0.39759084435662473 0.15218386997219568
1300000000.0 0.352367525681796 0.25859467629973903
1320000000.0 0.435037604113457 0.05583461547079718
1340000000.0 0.42695942239634804 -0.099168803077303
1360000000.0 0.4406184718770569 -0.0006098985434618412
1380000000.0 0.2177359467709359 -0.3784487670755928
1400000000.0 -0.37659159370754786 -0.20642312258042358
1420000000.0 0.0047657964181514936 0.4110652834572925
1440000000.0 0.38078438686637894 -0.05115479263592099
1460000000.0 0.020914504589243346 -0.35270776428041056
1480000000.0 -0.32008164672980427 -0.028629466824945334
1500000000.0 -0.11666155510446483 0.2631436346810485
1520000000.0 0.05878704890718132 0.25222747052171063
1540000000.0 -0.16528177201783287 -0.15983351501481718
1560000000.0 0.12727275668218885 -0.14918345272183034
1580000000.0 0.100758872686275 0.13461279930952091
1600000000.0 0.12403571420011446 -0.047441841597713134
1620000000.0 0.10369304326107086 -0.0016061475088532306
1640000000.0 -0.05268246566410632 0.056591474842220504
1660000000.0 0.03472266858486688 -0.04117641716304762
1680000000.0 -0.034888331436641516 0.0041283729559378765
1700000000.0 -0.017263406756102082 -0.012347379767367392
1720000000.0 0.005929417757084148 -0.0016219003754282067
1740000000.0 0.011653352852369118 0.011970557108182836
1760000000.0 -0.01148802801679671 0.03182053565244152
1780000000.0 -0.018467481203628174 -0.05941918079173208
1800000000.0 0.054839885973461795 0.07558007900541897
1820000000.0 0.03834417088055807 0.11789788445986842
1840000000.0 -0.03491593408673555 -0.15879170927527614
1860000000.0 -0.06521859850633233 0.1892029870527016
1880000000.0 0.11496993631486341 -0.21224558210643898
1900000000.0 -0.11953613285990378 0.2596517821945967
1920000000.0 0.030127482764846267 -0.31986281593440846
1940000000.0 -0.20562925989522743 0.28891253084915447
1960000000.0 0.3693020896394006 -0.09389232302722748
1980000000.0 -0.2724958585917636 -0.29280827130444786
2000000000.0 -0.40142854331199485 0.11410331404026369
2020000000.0 0.04847797304247251 0.4258011221205345
2040000000.0 0.3305724048485358 0.28353154104980943
2060000000.0 0.3793070043195676 -0.21815344402005393
2080000000.0 0.12457892931229561 -0.4169385188027756
2100000000.0 -0.17041912529099143 -0.39270749790393117
2120000000.0 -0.3242361433631576 -0.2651559678031832
2140000000.0 -0.38951041367370864 -0.12043703377067044
2160000000.0 -0.060985520241633104 -0.38906078433596636
2180000000.0 -0.2278243996129449 -0.30609148920021134
2200000000.0 -0.36998765181507537 0.018171077684853605
2220000000.0 -0.2430374387745584 0.2661442161504284
2240000000.0 0.15070936275074992 0.32280361655058076
2260000000.0 0.3206701636116141 0.15360827031994181
2280000000.0 0.3079258062719177 -0.18842951170705463
2300000000.0 -0.2439909028431942 -0.2842292068916142
2320000000.0 -0.23466675517742702 0.3216267454098557
2340000000.0 0.42157190648006987 0.08463258432047727
2360000000.0 -0.3418257976815724 -0.32257286484009245
2380000000.0 0.3203808274853498 0.4061017633935318
2400000000.0 -0.4733613596788733 -0.31019561640240667
2420000000.0 0.6138230364952146 -0.006959038809062994
2440000000.0 -0.5156124326864414 0.4068500209666517
2460000000.0 0.19848755934278467 -0.6629344150796113
2480000000.0 0.05178700358686986 0.7159317809487531
2500000000.0 0.050882832933228775 -0.7320720361766788
2520000000.0 -0.3374408885732858 0.6599231360182096
2540000000.0 0.6614472453611322 -0.3314128284726397
2560000000.0 -0.6637750500303343 -0.308595405297564
2580000000.0 -0.048569098557501016 0.7132636600706345
2600000000.0 0.6320365624902413 -0.27629731462606605
2620000000.0 -0.49120185716699677 -0.4379162544618766
2640000000.0 -0.5484798123647084 -0.29124140923404296
2660000000.0 -0.04971013383910853 0.5742564608387398
2680000000.0 0.4990171750992524 -0.18370684711040552
2700000000.0 -0.34071464272445895 -0.3480460133970941
2720000000.0 -0.09096065268484456 0.4320304949243921
2740000000.0 0.37698058735652773 -0.13318541194598707
2760000000.0 -0.34886458725417335 -0.0991853422816919
2780000000.0 0.2786710206350901 0.18400542689297303
2800000000.0 -0.28449925739065035 -0.124774389123912
2820000000.0 0.22495298695623364 -0.19163807894576407
2840000000.0 0.019442394608418012 0.2844910785672651
2860000000.0 -0.2788349705795791 -0.03835142457210259
2880000000.0 0.17069107070763137 -0.2237240602125861
2900000000.0 0.01578256804788317 0.28325207019921134
2920000000.0 0.14006171447788343 -0.2509767169086974
2940000000.0 -0.2849721309922987 -0.06651918802693027
2960000000.0 -0.2113383329896957 0.20872522061654938
2980000000.0 -0.162243638816966 0.253409031399735
3000000000.0 -0.29173971119144265 0.0857942164650882
3020000000.0 -0.19449761319683762 -0.2339753547200592
3040000000.0 0.3009633129364501 -0.026437778027061494
3060000000.0 -0.2524916161016543 0.16312475496648388
3080000000.0 0.204066295512717 -0.2142730355239609
3100000000.0 -0.23506033485652109 0.17104366946476318
3120000000.0 0.10872234165836782 -0.2636738821960304
3140000000.0 0.10802797985986162 0.2550424446125607
3160000000.0 -0.22937238643161081 -0.1284835042764188
3180000000.0 0.03277106169515328 0.24518148299949796
3200000000.0 -0.21990405614296873 -0.04328022025054014
3220000000.0 0.05115018872034672 -0.19173662618083867
3240000000.0 0.12131531469315796 0.1175749683534549
3260000000.0 -0.13057964697131114 0.04047975999191664
3280000000.0 0.10360491870567907 0.019280288468068143
3300000000.0 -0.033759287063136724 -0.06746642832572138
3320000000.0 -0.04854486454578197 0.006592425277574172
3340000000.0 0.001440426031129644 -0.025955255864463476
3360000000.0 0.00495516224619008 0.005983891084508312
3380000000.0 -0.006112711162266354 -0.004688980725590236
3400000000.0 0.0008870617457603717 0.020860718882927648
3420000000.0 0.005565459081778356 0.032030101672571885
3440000000.0 -0.03441784155726156 0.022458735254830595
3460000000.0 0.024247381497331407 -0.043847559717575396
3480000000.0 0.024766470114835938 0.055911911458992984
3500000000.0 0.075797348986733 -0.005221294856668629
3520000000.0 -0.0035736994826105727 -0.09115318330526462
3540000000.0 -0.02821238795027781 0.10147377571804583
3560000000.0 -0.062357580316475265 -0.10349756426957839
3580000000.0 0.11885590615097046 0.06340136861262821
3600000000.0 -0.016775034353357515 0.15072656003868773
3620000000.0 -0.1210386370303821 0.10908705430204123
3640000000.0 -0.16417191163859207 -0.05678941791888335
3660000000.0 -0.06906870537425626 -0.16998945125312884
3680000000.0 0.06994544436743506 -0.1756830849201219
3700000000.0 0.11785907271448812 -0.14915499147881583
3720000000.0 0.1891480394370947 0.012364281166719894
3740000000.0 0.12912725947494505 0.13093887503835672
3760000000.0 -0.10736460546506912 -0.14265951402505378
3780000000.0 0.08941494947389567 0.1432140404990308
3800000000.0 0.14225088857234422 -0.07789476395399157
3820000000.0 0.0021251972078912486 -0.15462331346023714
3840000000.0 0.024721026223885233 -0.14468145877537172
3860000000.0 0.08372902721080774 0.12115434688776064
3880000000.0 0.006206273454103328 0.15215122528158273
3900000000.0 0.1580395953902816 -0.023839362555047226
3920000000.0 -0.1625665294698863 0.019774246689808508
3940000000.0 0.07691965573177482 -0.1494948865589959
3960000000.0 0.16783551827898877 0.04263215495728894
3980000000.0 0.15100431778624326 -0.08589983612512625
4000000000.0 0.16152583008044924 -0.04548879061544354
