!Created with skrf (http://scikit-rf.org).
# Hz S RI R 50.0 
!freq ReS11 ImS11
400000000.0 -0.5191206886160729 0.6977480642857044
420000000.0 0.5615537867427958 0.6660811739089239
440000000.0 0.41758717184821337 -0.7283890961282687
460000000.0 -0.571790992563717 -0.5383431395839815
480000000.0 0.6171837817166057 -0.336373784776876
500000000.0 -0.018101441988289203 -0.5770082971201073
520000000.0 -0.3904279251284757 0.3075851268990983
540000000.0 0.27322177890209304 -0.3026430614805141
560000000.0 -0.1383109500546169 -0.33550980222565463
580000000.0 0.11662689756504084 0.32135496003152136
600000000.0 0.34770249723450636 -0.049245832991392666
620000000.0 -0.009263092315290782 0.3648156440138435
640000000.0 0.3657486524427277 0.13453638494100473
660000000.0 0.30448195778353193 -0.269398516275993
680000000.0 0.4283726978079548 0.0030948507062624436
700000000.0 -0.07059410455597634 -0.42675125434728894
720000000.0 -0.34167409278657607 0.26258090457797034
740000000.0 0.1073259327388658 -0.3984159829153551
760000000.0 -0.3930017418635977 -0.009737688982732308
780000000.0 0.30961066412898763 0.1816504681183214
800000000.0 0.02938420513611055 -0.32100222307631154
820000000.0 -0.26193661152267195 0.09071085769141801
840000000.0 -0.13784821061802685 0.1958359723076172
860000000.0 -0.20237069814769498 -0.015078250349323745
880000000.0 0.1584617640526951 0.0019369649690445193
900000000.0 0.10397368481982135 0.03651615776239118
920000000.0 -0.02165285853420358 0.06904683520514367
940000000.0 0.01812970979410735 0.03788154698574912
960000000.0 -0.0018963684135562804 -0.0466594788814471
980000000.0 0.019664954791551795 -0.06271734905134602
1000000000.0 0.023790493009303554 -0.08060875210917014
1020000000.0 0.05565199176748484 -0.08862024034553939
1040000000.0 0.06671986932974502 -0.09842465874883437
1060000000.0 0.13130966249818624 0.07908111707168602
1080000000.0 -0.010182034030946597 0.17282880315168153
1100000000.0 -0.05209584021660572 -0.19160100157329063
1120000000.0 0.12055196244700181 0.18520354100548966
1140000000.0 0.05980854829233394 -0.24628043655696238
1160000000.0 -0.23906557119795152 -0.14659181847298203
1180000000.0 -0.01651228298035853 -0.3150304787314966
1200000000.0 0.30054922099817605 -0.160791575621125
1220000000.0 -0.2472759118848811 0.27060866650070453
1240000000.0 0.38805270191053914 0.001331015315019558
1260000000.0 -0.2790606923995434 -0.30162299466460163
1280000000.0 -0.38018389034468786 0.19282084625883972
1300000000.0 0.398918531591267 0.1800127196086885
1320000000.0 0.4375286012823599 0.03198249432495458
1340000000.0 0.42570200297497157 -0.10664898868681606
1360000000.0 0.4408264668526344 -0.009824771113481411
1380000000.0 0.21236735394036194 -0.3818591023721398
1400000000.0 -0.37147242162361155 -0.21631504059505313
1420000000.0 -0.009508678014269075 0.41100042642296997
1440000000.0 0.3809243894550619 -0.046407998777245676
1460000000.0 0.04148610989167985 -0.35069755696333754
1480000000.0 -0.3158979084181078 -0.057208570581080566
1500000000.0 -0.13154153879935812 0.2551233668104829
1520000000.0 0.04893911993350484 0.2535030217287753
1540000000.0 -0.13475204849587896 -0.1851404893752952
1560000000.0 0.07396676311867945 -0.18004665371701783
1580000000.0 0.14481713671939145 0.0829990549901329
1600000000.0 0.11491105255024414 -0.06557810940716505
1620000000.0 0.08482283738311072 -0.059296801281695836
1640000000.0 -0.01346894598236815 0.07672369228341672
1660000000.0 -0.02382618050370526 -0.04960395185415073
1680000000.0 -0.018836706126091368 0.030669806491751855
1700000000.0 -0.006295213382193772 0.021377209905638465
1720000000.0 0.007294293049835851 -0.0004839023003755456
1740000000.0 -0.013428885955989006 -0.009274637582218819
1760000000.0 0.0331558525946989 0.006369544379044921
1780000000.0 -0.05894424232710932 -0.020667255305125594
1800000000.0 0.07890199179270144 0.05051608333644138
1820000000.0 0.07525644145149915 0.09947945205656492
1840000000.0 -0.07635079938744684 -0.14474591506353773
1860000000.0 -0.04876921149507625 0.19550996460793243
1880000000.0 0.12169617476035473 -0.2098715309674818
1900000000.0 -0.13143131154622015 0.25490653466512253
1920000000.0 0.05265137230705388 -0.3175204962168674
1940000000.0 -0.224335036873896 0.27488408659183905
1960000000.0 0.37396044502186926 -0.07285321514920882
1980000000.0 -0.2660349444953032 -0.29819085149834496
2000000000.0 -0.402476886966957 0.11023103555094563
2020000000.0 0.05637397292848394 0.4242999901132033
2040000000.0 0.32172749786280913 0.2928443091954996
2060000000.0 0.36565878139990743 -0.2390424550677335
2080000000.0 0.03394073692012633 -0.4334064314318315
2100000000.0 -0.1955700265696784 -0.3801388762260179
2120000000.0 -0.36007848448496393 -0.2135311847639881
2140000000.0 -0.4039907826260699 -0.05128489761934966
2160000000.0 -0.10820044576713897 -0.37806365837242567
2180000000.0 -0.2632352946103002 -0.27471025499409846
2200000000.0 -0.36495999615495445 0.06185143963799558
2220000000.0 -0.16378331283363795 0.3209590362149985
2240000000.0 0.2385686086616506 0.2654050266261202
2260000000.0 0.34380087865942655 0.09610525415688347
2280000000.0 0.2713154070105961 -0.24000662564929195
2300000000.0 -0.28687161655830967 -0.24389731749147517
2320000000.0 -0.20902383395805016 0.340007403541954
2340000000.0 0.42741772338557693 0.054167992799629146
2360000000.0 -0.37127574449138334 -0.28917604816880343
2380000000.0 0.35793092720461295 0.37441505897587973
2400000000.0 -0.49023082044993704 -0.28345115207753546
2420000000.0 0.610483412168749 -0.06362558476035199
2440000000.0 -0.4754791770472227 0.4523658596065925
2460000000.0 0.13600968569110206 -0.6780361020990191
2480000000.0 0.12981660683942964 0.705112320237446
2500000000.0 -0.040558641345944564 -0.7317844140431947
2520000000.0 -0.2592820586316659 0.6927356223510736
2540000000.0 0.6235296042054355 -0.39541407951095264
2560000000.0 -0.6964713356353717 -0.2186499395880877
2580000000.0 0.07399628952746304 0.7095984479239282
2600000000.0 0.572837362370797 -0.3817088454443927
2620000000.0 -0.5505549404394254 -0.3580414511443471
2640000000.0 -0.5712095587184695 -0.240495629609235
2660000000.0 -0.005713463330989385 0.575621679002471
2680000000.0 0.5111665363226202 -0.1422988696575652
2700000000.0 -0.3118647318682866 -0.3722430940399287
2720000000.0 -0.08375982838504134 0.4324534189438479
2740000000.0 0.375466397291125 -0.13407936341548307
2760000000.0 -0.34426479734415977 -0.11049596073998304
2780000000.0 0.2784683767694711 0.1825290059434764
2800000000.0 -0.2867712225181993 -0.11699777772247821
2820000000.0 0.2173334403521748 -0.19874766849958334
2840000000.0 0.02419555981279184 0.28367216324525796
2860000000.0 -0.27518263069061377 -0.05843314309167829
2880000000.0 0.16652000628248342 -0.22638084362438352
2900000000.0 -0.024359594575981917 0.28209114631492105
2920000000.0 0.18947099426782146 -0.21454802052230199
2940000000.0 -0.2759356924661182 -0.09526585519204853
2960000000.0 -0.19310439994881368 0.22460421933763913
2980000000.0 -0.1728232779584218 0.24513965790968625
3000000000.0 -0.284135609199157 0.10488578313589315
3020000000.0 -0.2014780335488736 -0.2269644379974428
3040000000.0 0.2947397267385692 -0.059216815593620575
3060000000.0 -0.23219160490581947 0.18994746661179748
3080000000.0 0.19629378244776688 -0.22131433299640788
3100000000.0 -0.19150918460578367 0.21899598918032517
3120000000.0 0.04730965725597602 -0.28164714625381476
3140000000.0 0.11771479382146141 0.25023504322189205
3160000000.0 -0.2369772495714201 -0.11294745096899213
3180000000.0 0.09416589635608025 0.22865336383283957
3200000000.0 -0.22352983409413654 -0.014613229731896639
3220000000.0 0.03328202493507644 -0.19587982599995796
3240000000.0 0.12169411605912465 0.11794813393414778
3260000000.0 -0.13550735950646597 0.021448627223532718
3280000000.0 0.0972167844269922 0.041571503163859824
3300000000.0 0.03701998153684971 -0.06655179794173419
3320000000.0 -0.03385420232207827 -0.03629527009780399
3340000000.0 0.026730341540212046 0.002963777431815708
3360000000.0 0.001459060854834647 -0.008805747789357301
3380000000.0 0.005703733850639154 -0.003026955022938259
3400000000.0 -0.010524595195480926 -0.01659837450090637
3420000000.0 -0.007518064641356403 -0.030375718999624105
3440000000.0 0.038450967377203674 0.012754218890954185
3460000000.0 -0.02953529814077523 -0.039572959440077916
3480000000.0 0.06075916294075739 -0.004478593384804481
3500000000.0 0.04434193511522239 -0.06063888429975207
3520000000.0 -0.07737953714509539 -0.04567839589445035
3540000000.0 0.06896142437891321 0.07895321011875335
3560000000.0 -0.12077489487777021 -0.004879179635704434
3580000000.0 0.12598335957306295 -0.04880955721447226
3600000000.0 0.10555880071920933 0.10929830520843795
3620000000.0 -0.059127339968160136 0.15224107677424745
3640000000.0 -0.16905832658760328 -0.03959050812168806
3660000000.0 -0.09686628653194242 -0.15642949978394885
3680000000.0 0.059607489333523014 -0.17921552597271445
3700000000.0 0.11527099470527997 -0.1514806945301227
3720000000.0 0.18980486322516854 0.00893324905854539
3740000000.0 0.1346440570432832 0.12705058503806171
3760000000.0 -0.09613561414863514 -0.15128060522563497
3780000000.0 0.09276267285834543 0.1426993969111756
3800000000.0 0.13478917136710317 -0.09152734114771796
3820000000.0 -0.04027180257604952 -0.14969108063565753
3840000000.0 -0.005495070228105779 -0.1477434719786187
3860000000.0 0.09830018843968315 0.111004417099004
3880000000.0 0.06471039569735665 0.1391688813222189
3900000000.0 0.15154028102583778 -0.05324893002820729
3920000000.0 -0.16179886196058613 0.0316314626436775
3940000000.0 0.11953899529179675 -0.12007885234068216
3960000000.0 0.16109205493989168 0.06273751546228372
3980000000.0 0.15457310234016847 -0.07906596806401994
4000000000.0 0.15280048001412558 -0.06761676907435005
