!Created with skrf (http://scikit-rf.org).
# Hz S RI R 50.0 
!freq ReS11 ImS11
400000000.0 -0.5426792715197205 0.6828418010670075
420000000.0 0.5601340909303373 0.6681564263684713
440000000.0 0.38398732861563173 -0.7464808389072106
460000000.0 -0.582303923789898 -0.5276626387807517
480000000.0 0.6089932048501333 -0.3518280124071541
500000000.0 0.002534253087419129 -0.5773738638277784
520000000.0 -0.4183375922951562 0.26917977060799
540000000.0 0.19591616153991248 -0.35703712416189914
560000000.0 -0.1364651860683634 -0.33570818340950603
580000000.0 0.0452901466555772 0.33800815170913884
600000000.0 0.3445917906674475 -0.07373916010929779
620000000.0 0.13569564477509444 0.3377904024271243
640000000.0 0.3682136509216029 0.12755207546822134
660000000.0 0.2704601307834561 -0.30407664012408975
680000000.0 0.4250660704513539 -0.05667955122211015
700000000.0 -0.03864698167233831 -0.43010970940389026
720000000.0 -0.3476018729467042 0.2551795207220274
740000000.0 0.14445830331896725 -0.3874185727364517
760000000.0 -0.39281590480594847 -0.026129346490892935
780000000.0 0.2878317569222192 0.21388311153323467
800000000.0 0.052881343500365906 -0.31827919348845146
820000000.0 -0.26860007510870837 0.06740965008307735
840000000.0 -0.13920937254744603 0.19420547972090563
860000000.0 -0.20282444994237447 -0.00044936372668629663
880000000.0 0.15432570478549917 -0.0369430722963923
900000000.0 0.10985363435424444 -0.009389206052245108
920000000.0 0.00161162911548864 0.07317283804899044
940000000.0 0.022865457161165885 0.03570409422902623
960000000.0 0.011289735181998096 -0.04577761793219058
980000000.0 0.051919111604004406 -0.04047123715684035
1000000000.0 0.06998593519032269 -0.04585316905281047
1020000000.0 0.06256988377058217 -0.08286335242761059
1040000000.0 0.06595040932854568 -0.09822307218180887
1060000000.0 0.14909162946596363 0.03450851217021177
1080000000.0 0.016640833553867515 0.1730457714536861
1100000000.0 -0.05813830575831228 -0.1904520461367443
1120000000.0 0.11126472267019422 0.1914428918582512
1140000000.0 0.04912118266132939 -0.24943491047256644
1160000000.0 -0.2229148567899223 -0.17101620000132778
1180000000.0 -0.030641848148742826 -0.3145554016965255
1200000000.0 0.30350114290826485 -0.15737856159293975
1220000000.0 -0.24545657053889025 0.274019432899868
1240000000.0 0.38695567322369256 0.032109050681116996
1260000000.0 -0.24289545124790224 -0.3311332413555957
1280000000.0 -0.3966257785325938 0.15499898416964722
1300000000.0 0.36747577914095975 0.23708799012631657
1320000000.0 0.4345486869941305 0.059364213922995915
1340000000.0 0.4287423954430245 -0.09089169157493461
1360000000.0 0.4404303106036156 -0.016798030731944764
1380000000.0 0.2133261689211565 -0.38089936627705084
1400000000.0 -0.3763938726604627 -0.20664187646364318
1420000000.0 0.012253271966559282 0.4106093718265961
1440000000.0 0.38195542175483194 -0.04029539661023995
1460000000.0 0.02539612232064255 -0.35239244937393044
1480000000.0 -0.3208548017299471 0.0031867075127237753
1500000000.0 -0.1184218404254016 0.26160939316332665
1520000000.0 0.04835090048653853 0.2544012341137381
1540000000.0 -0.18150807572375394 -0.14079625739746066
1560000000.0 0.11262923596394935 -0.16004289908858782
1580000000.0 0.11285184405531717 0.12424955176562806
1600000000.0 0.11714248455325135 -0.062370482208484304
1620000000.0 0.10230314325388883 -0.016384057942350056
1640000000.0 -0.04207123372859841 0.06500449087888989
1660000000.0 0.022241761044176182 -0.049178737316161854
1680000000.0 -0.02985914685464913 0.018724466300208915
1700000000.0 -0.020273801841373295 -0.007128459838575434
1720000000.0 7.221286222866037e-05 -0.006389893043011958
1740000000.0 0.016614703369114532 -0.000496322119937758
1760000000.0 -0.0027027079211854933 0.03379156469805407
1780000000.0 -0.03649219877128351 -0.0507529919177881
1800000000.0 0.0637915495611667 0.06853184786372031
1820000000.0 0.04605477020740491 0.11546758964498147
1840000000.0 -0.040853217483014174 -0.15791645774464946
1860000000.0 -0.0573617101642989 0.1920565692626462
1880000000.0 0.12159254682081085 -0.20872713281570882
1900000000.0 -0.12530154511160227 0.2571288730235299
1920000000.0 0.04111469417148352 -0.3187720624476637
1940000000.0 -0.20637309335317205 0.28868672134187984
1960000000.0 0.3719324653430195 -0.083131397384734
1980000000.0 -0.2708714793690705 -0.29434120907502015
2000000000.0 -0.40243963851074616 0.11030840188746059
2020000000.0 0.024563959416452175 0.4278756043684817
2040000000.0 0.3467494841872796 0.2630765163376691
2060000000.0 0.38129258982470676 -0.21441344847848756
2080000000.0 0.12487272849522947 -0.4167302506563797
2100000000.0 -0.1714272361842004 -0.3921241685350809
2120000000.0 -0.35438592466719937 -0.22288795558207186
2140000000.0 -0.3898571858089887 -0.12011348789163306
2160000000.0 -0.08151438798447776 -0.38535870966802305
2180000000.0 -0.2747976648486981 -0.26486054108629414
2200000000.0 -0.36789016178323375 0.04593484946443853
2220000000.0 -0.2026650796524573 0.29830483919605116
2240000000.0 0.1663004121226031 0.3157257628066716
2260000000.0 0.33223813531249685 0.12834854391114583
2280000000.0 0.3017672642459773 -0.19934144079458885
2300000000.0 -0.25288035216769095 -0.2776102701411566
2320000000.0 -0.22004654840317753 0.3326077520028551
2340000000.0 0.4246015434235037 0.07235356021874692
2360000000.0 -0.346740196801944 -0.3182973334866356
2380000000.0 0.33241119359255245 0.39700882742592974
2400000000.0 -0.4831532998540808 -0.2953142352645037
2420000000.0 0.609686131169731 -0.07278404401934285
2440000000.0 -0.4754398383230339 0.4532708665261792
2460000000.0 0.13108602085481316 -0.6791866233782273
2480000000.0 0.09044438289565068 0.7119849427246667
2500000000.0 -0.005519044965969963 -0.7333583140876386
2520000000.0 -0.28614878084352063 0.6832580596345714
2540000000.0 0.6046841433830047 -0.4253582703095686
2560000000.0 -0.6915420642017962 -0.2386566349561982
2580000000.0 0.031617193267274246 0.7138324632416162
2600000000.0 0.5873982337205701 -0.360175195894436
2620000000.0 -0.5249552550038296 -0.3959766892507956
2640000000.0 -0.5783640137548178 -0.2248035432589297
2660000000.0 -0.006512902239324554 0.5758567308321358
2680000000.0 0.4957275951537755 -0.19085148113453623
2700000000.0 -0.3504975485141357 -0.3372040246120392
2720000000.0 -0.055073717074842245 0.43760772456082353
2740000000.0 0.37014273555317784 -0.14955214453843715
2760000000.0 -0.3484972746226866 -0.09899880936077668
2780000000.0 0.2773846795929157 0.18531913342831025
2800000000.0 -0.2897035659967902 -0.11100038952204416
2820000000.0 0.23111450126384317 -0.18335525156578214
2840000000.0 0.013555644357576155 0.28447795981569957
2860000000.0 -0.2755187378276905 -0.05719484781360337
2880000000.0 0.16521195412528006 -0.22707271173898547
2900000000.0 0.009451367001603305 0.28313514750227015
2920000000.0 0.1623019280842231 -0.23690249919564926
2940000000.0 -0.28781225941845634 -0.05103998453775825
2960000000.0 -0.18147334388804662 0.2340372838772251
2980000000.0 -0.16089113743389047 0.25346591425952775
3000000000.0 -0.28112641956424267 0.11539543818214885
3020000000.0 -0.216244765550615 -0.2138903755234743
3040000000.0 0.3010774699108459 0.018120451630585604
3060000000.0 -0.26017994897023466 0.14992410980517687
3080000000.0 0.17965225837585647 -0.23516919268445396
3100000000.0 -0.20645467083060728 0.20451046904755396
3120000000.0 0.07715386412868735 -0.2745974210465313
3140000000.0 0.10148930877164733 0.25736889937892876
3160000000.0 -0.2350119588344593 -0.11791361570642542
3180000000.0 0.05506980303661996 0.24121322546570212
3200000000.0 -0.22166697810951444 -0.03409962465246449
3220000000.0 0.04307442023131575 -0.19390156661923058
3240000000.0 0.12529326572743216 0.1138192276882936
3260000000.0 -0.135910001129923 0.016967757711680916
3280000000.0 0.10132509731972544 0.029259895931489813
3300000000.0 -0.019642309021803056 -0.07298456320047171
3320000000.0 -0.04178777349257293 -0.02585370947680238
3340000000.0 0.0152374562698835 -0.02122755899160842
3360000000.0 -0.007947016910223951 0.000670371268606325
3380000000.0 -0.0014603737340448404 0.007270672543088701
3400000000.0 0.01213561549908389 0.01665658328730108
3420000000.0 0.03173723745316996 -0.007335061112893629
3440000000.0 0.010724710612668742 0.03990845476670239
3460000000.0 -0.022681754576791006 -0.04473233711463758
3480000000.0 0.059969295422849546 0.012876203074892125
3500000000.0 0.06963692750261097 -0.03020059814099713
3520000000.0 0.016997978837100504 -0.0889981680992301
3540000000.0 0.014707023606283192 0.10446581344070002
3560000000.0 -0.07353394551267109 -0.09583072598130536
3580000000.0 0.12848957366797978 0.040986096292778176
3600000000.0 -0.006950810184499882 0.15127860303778307
3620000000.0 -0.09499494129490774 0.1329534263420021
3640000000.0 -0.16475145365504074 -0.055683497048775635
3660000000.0 -0.08342333427863428 -0.16365112220736502
3680000000.0 0.059971847902465056 -0.17958356699431346
3700000000.0 0.11372381033444802 -0.15254596140277601
3720000000.0 0.1890041525278917 0.012796607588007654
3740000000.0 0.13030730248146632 0.13005487584748665
3760000000.0 -0.0939531670981738 -0.15228466462183757
3780000000.0 0.08056989680697148 0.14864222349720105
3800000000.0 0.14779216869957143 -0.06696371914560671
3820000000.0 0.011425740473915896 -0.15417125064394888
3840000000.0 0.051968749084468656 -0.13766884180557196
3860000000.0 0.07861081030982975 0.12457515931647543
3880000000.0 0.00043014747173268457 0.1525178512870926
3900000000.0 0.15716991756008852 -0.030276326219809906
3920000000.0 -0.16334577283755913 0.014077297167703933
3940000000.0 0.07994632690134165 -0.14847719571892787
3960000000.0 0.17011158207467963 0.03404208440061268
3980000000.0 0.15463846846382148 -0.07966597212885182
4000000000.0 0.16528498053190785 -0.030835884464609515
