!Created with skrf (http://scikit-rf.org).
# Hz S RI R 50.0 
!freq ReS11 ImS11
400000000.0 -0.5573785175774083 0.6710057816156564
420000000.0 0.5468223317546662 0.6791403649148559
440000000.0 0.42713152176733554 -0.7229813798285287
460000000.0 -0.5709131359713858 -0.5404659804240409
480000000.0 0.6058282699946553 -0.3569485915117086
500000000.0 -0.022419903833358824 -0.5769450720683856
520000000.0 -0.40761491929825894 0.2842007609282206
540000000.0 0.2501304620857852 -0.3216534736733765
560000000.0 -0.124042243257389 -0.3405173233769452
580000000.0 0.12811946631317744 0.31650435367063234
600000000.0 0.3426898628253497 -0.07989455629022185
620000000.0 0.026364978751939133 0.3636915255992974
640000000.0 0.3644219622136178 0.13981018185544428
660000000.0 0.2619100496987504 -0.31093846931955843
680000000.0 0.4258872965660086 -0.042519334046896194
700000000.0 -0.03633210958021016 -0.4311785833014994
720000000.0 -0.34781002214165463 0.25436584589538597
740000000.0 0.13546368920599855 -0.38993400686351665
760000000.0 -0.3917132661703638 -0.03647623783451195
780000000.0 0.29791173380232366 0.19908717607742465
800000000.0 0.031201957470773877 -0.320934477019329
820000000.0 -0.26526745093835835 0.07898559298150332
840000000.0 -0.11437764586437767 0.2098473605013021
860000000.0 -0.2029655537443814 -0.004377356651318354
880000000.0 0.15711133215351017 -0.022063484333560306
900000000.0 0.11024759027300085 -0.0035981385799586985
920000000.0 0.002080049501026173 0.07279753949589715
940000000.0 0.023250584639010294 0.03525662574464123
960000000.0 0.012248381773068603 -0.045438532995391454
980000000.0 0.04381310769902004 -0.04909593246040702
1000000000.0 0.06530880097880512 -0.052122656193222004
1020000000.0 0.058153791882562644 -0.0860130481480976
1040000000.0 0.04832292842499188 -0.10801337490796623
1060000000.0 0.14907780331954792 0.03539364364444253
1080000000.0 0.021140006854501528 0.17275605123182933
1100000000.0 -0.05517196926068482 -0.19146161047306764
1120000000.0 0.10977270703983892 0.19231919642852263
1140000000.0 0.05391576875292254 -0.24855518530180407
1160000000.0 -0.21382290730300604 -0.18194136257059196
1180000000.0 -0.0023397585404748727 -0.31572987988371126
1200000000.0 0.31946202648456173 -0.12022817957947111
1220000000.0 -0.2705121468782969 0.24870436142618232
1240000000.0 0.3861662510200752 0.03863068217448841
1260000000.0 -0.2398844296332494 -0.33304136863478295
1280000000.0 -0.3947033314755158 0.15979181694458797
1300000000.0 0.367775638941813 0.23656001176831382
1320000000.0 0.43579770904865095 0.05032153827642054
1340000000.0 0.42701312627546856 -0.09971882292187044
1360000000.0 0.44047229587897074 -0.014369856706134516
1380000000.0 0.20789916022907884 -0.38407827562323976
1400000000.0 -0.3744742219452087 -0.2105311816613984
1420000000.0 0.016891639966609813 0.4106634413186383
1440000000.0 0.3819078249406637 -0.042943073157687965
1460000000.0 0.02139845942029929 -0.3528638850256626
1480000000.0 -0.3191891264401748 -0.035536869157590606
1500000000.0 -0.11967508315903262 0.26158220909640634
1520000000.0 0.05732042446396077 0.25235231014757575
1540000000.0 -0.1698402340678692 -0.15445866669790848
1560000000.0 0.12120564073230912 -0.15367965649508386
1580000000.0 0.1023730300244089 0.1329558430386468
1600000000.0 0.11600079706925975 -0.0642808247044902
1620000000.0 0.09586630922263976 -0.039393017359050896
1640000000.0 -0.03157339011799346 0.07067792197613941
1660000000.0 0.0195132394378338 -0.05045851807545851
1680000000.0 -0.034535719899295235 -0.006238847688798704
1700000000.0 -0.021308554452652922 0.000998802897092568
1720000000.0 0.006233867381095687 -0.0015273666952830699
1740000000.0 0.016204846094305034 0.0037821834798873067
1760000000.0 -0.011154765889609746 0.03199412180320926
1780000000.0 -0.026916836315320145 -0.056168370494719864
1800000000.0 0.05590486465308602 0.07496958716084211
1820000000.0 0.05203353189752459 0.1130127560701951
1840000000.0 -0.045728283941683025 -0.15627939833206358
1860000000.0 -0.05838167829007933 0.19155032730363816
1880000000.0 0.12785374912068717 -0.20472115346287914
1900000000.0 -0.1323119650569473 0.2535658069951666
1920000000.0 0.037199655602816836 -0.3192327337770822
1940000000.0 -0.20680823666737738 0.2882003947366568
1960000000.0 0.37163582405596174 -0.08418837699626373
1980000000.0 -0.2584442444694432 -0.3054203609076766
2000000000.0 -0.4036512262057435 0.10570285820720958
2020000000.0 0.026969981536213907 0.42774827722071285
2040000000.0 0.34319609344559493 0.26775920842526474
2060000000.0 0.38201149023104625 -0.2132827700452322
2080000000.0 0.13082652608532422 -0.41505419934808885
2100000000.0 -0.15641399797971928 -0.3984987259637051
2120000000.0 -0.350280929381968 -0.22958485892699187
2140000000.0 -0.39709688737025894 -0.09265212104108166
2160000000.0 -0.08456920181322518 -0.38472340088359014
2180000000.0 -0.2602317428472364 -0.27921561257237554
2200000000.0 -0.3705586105349799 0.013558454941059775
2220000000.0 -0.20654499351230496 0.2954533150791887
2240000000.0 0.14353687460422324 0.32655823868394146
2260000000.0 0.32198643758309553 0.15153388363610718
2280000000.0 0.31394693943633073 -0.1788470575855
2300000000.0 -0.23873163234049588 -0.28938606287040564
2320000000.0 -0.23984371897376427 0.31824310176678383
2340000000.0 0.4235656517982634 0.07703134137969803
2360000000.0 -0.33118594722839756 -0.3339920445005868
2380000000.0 0.3009087530099775 0.42064547690557935
2400000000.0 -0.481901595095187 -0.2968119786025651
2420000000.0 0.6116514455539708 -0.051188202021473735
2440000000.0 -0.4829059504653877 0.4451240544592575
2460000000.0 0.16578265620004703 -0.6716663949264656
2480000000.0 0.08226888121746485 0.7127880743080061
2500000000.0 0.10213325298800746 -0.7268353252791975
2520000000.0 -0.3318121935629522 0.6626124306355271
2540000000.0 0.6353303787523686 -0.3786926745937245
2560000000.0 -0.6707482593944921 -0.2926997784203552
2580000000.0 0.03847827794773175 0.7137397099918624
2600000000.0 0.60671754492779 -0.32740207963677664
2620000000.0 -0.5128036914301469 -0.41184965882666824
2640000000.0 -0.5471895067976364 -0.29280262734654755
2660000000.0 -0.0160379048691963 0.5756741022880595
2680000000.0 0.4957719630975254 -0.19160271895716396
2700000000.0 -0.3554368130830638 -0.33263093438915436
2720000000.0 -0.05196679528839111 0.43823958304201016
2740000000.0 0.3820346637138071 -0.1166067391820946
2760000000.0 -0.34715910335312217 -0.10411271517637995
2780000000.0 0.2861151556772376 0.1719635041840207
2800000000.0 -0.28823230282071916 -0.11568996714067473
2820000000.0 0.2283601944867701 -0.18783353619578214
2840000000.0 0.014854591390620727 0.28496260912504784
2860000000.0 -0.2743527454112795 -0.06442450506742131
2880000000.0 0.1678200957630877 -0.22558337183889737
2900000000.0 -0.0034068129488710763 0.28367325991280257
2920000000.0 0.16458790990988706 -0.23566814218961674
2940000000.0 -0.28210949661556395 -0.0771321174714227
2960000000.0 -0.20082306326667665 0.21825205121296032
2980000000.0 -0.16808402463658964 0.249220746794701
3000000000.0 -0.29128013511621503 0.08730175566984091
3020000000.0 -0.1941639774563589 -0.23382010731103967
3040000000.0 0.298582635882417 -0.0426871209980194
3060000000.0 -0.24644813283116931 0.1717023118469482
3080000000.0 0.19157914779366464 -0.22519964615142168
3100000000.0 -0.17584670503252617 0.2313444986315621
3120000000.0 0.07374167786907829 -0.27550079118899945
3140000000.0 0.10626543451830117 0.255455261020173
3160000000.0 -0.23122727595208276 -0.1245047017000968
3180000000.0 0.03194077532982106 0.24480759926277415
3200000000.0 -0.22237789659240387 -0.029473068926545012
3220000000.0 0.01891230052640693 -0.19800718282177507
3240000000.0 0.13478484886631104 0.10261038100267662
3260000000.0 -0.1303063446592393 0.042192285629947056
3280000000.0 0.09883597170759355 0.03804155232303674
3300000000.0 -0.04161724250055119 -0.06339729517909994
3320000000.0 -0.04877359779425545 -0.00728589613515972
3340000000.0 0.025456366263381405 -0.0062493780903452095
3360000000.0 0.006410657032313949 0.0049085277022216526
3380000000.0 0.0046666770596036295 0.005849025409783873
3400000000.0 0.020872300597065428 -0.00032245954635909803
3420000000.0 0.031662526796313824 0.00743624521321077
3440000000.0 -0.0018920892642977354 0.04107805712501397
3460000000.0 -0.00815477566599685 -0.04935134395901704
3480000000.0 0.05337749981815491 0.030124409751975553
3500000000.0 0.07330348626500972 -0.019212571800652983
3520000000.0 0.02508407487134911 -0.08695797441665035
3540000000.0 -0.006832493698636484 0.10500744905772595
3560000000.0 -0.0715558357577759 -0.09727047361732956
3580000000.0 0.13379415266407613 0.020587307935727606
3600000000.0 -0.012268875794087033 0.15117788856490966
3620000000.0 -0.10994847395920146 0.12090770161705397
3640000000.0 -0.16198930416698154 -0.06388580188918648
3660000000.0 -0.06344861041427137 -0.172356145441377
3680000000.0 0.07841983727161596 -0.17225199825061163
3700000000.0 0.12860778849845175 -0.13985906293928355
3720000000.0 0.1864321844923824 0.03595578556413624
3740000000.0 0.11902691390896779 0.1406279559750023
3760000000.0 -0.08323430454110556 -0.1585652870014946
3780000000.0 0.06758979589699543 0.15494217288073123
3800000000.0 0.15428098248115604 -0.05009027242894932
3820000000.0 0.02419546207503427 -0.1527685693596397
3840000000.0 0.060424793832413566 -0.1340880073735637
3860000000.0 0.07321548221862839 0.12765167236500033
3880000000.0 -0.00832684215765846 0.15186748434136627
3900000000.0 0.15996259272714644 -0.00450154924626075
3920000000.0 -0.16295137424099457 0.014934118183931058
3940000000.0 0.05885238379849657 -0.15740665633272313
3960000000.0 0.1726972134455811 0.004091649537857836
3980000000.0 0.11607352140672175 -0.12875108722170397
4000000000.0 0.12187437986757822 -0.11521440053185532
