!Created with skrf (http://scikit-rf.org).
# Hz S RI R 50.0 
!freq ReS11 ImS11
400000000.0 -0.4906826365779624 0.72030281579308
420000000.0 0.5793655885196786 0.6506578852480442
440000000.0 0.40427099965198643 -0.7356702876814066
460000000.0 -0.5395142677929743 -0.5707468382699312
480000000.0 0.6058891914916348 -0.35633981377484225
500000000.0 -0.015296910522212189 -0.5768236930908208
520000000.0 -0.4073533928715968 0.2848977218789165
540000000.0 0.2397440821822762 -0.3297069825974459
560000000.0 -0.14327106470032003 -0.33357845732987135
580000000.0 0.10044783881093583 0.32592588054537275
600000000.0 0.3489787159656787 -0.04392048968353076
620000000.0 0.007639569629149405 0.3645913929649384
640000000.0 0.36384853970319425 0.13926296156099535
660000000.0 0.28014743470005193 -0.2941819398433484
680000000.0 0.42802452789372986 0.005871122677091754
700000000.0 -0.06100759736604413 -0.4278916386585936
720000000.0 -0.332833660972275 0.2740250231396575
740000000.0 0.10699427503098864 -0.3985031038810466
760000000.0 -0.3936621215270022 -0.009231718551783705
780000000.0 0.301208276663686 0.1946356588007606
800000000.0 0.03221790011043767 -0.3208524432683837
820000000.0 -0.26487653868192435 0.08141045063689223
840000000.0 -0.15774970181425532 0.17998981301296796
860000000.0 -0.19704803550108277 -0.04775124668642536
880000000.0 0.158590031343846 -0.0016461536799005896
900000000.0 0.10613845124814103 0.028970196366040143
920000000.0 -0.011361860469248688 0.07187824425636603
940000000.0 -0.0040522092546547645 0.04173741153402324
960000000.0 0.025953267769511252 -0.03873477596924409
980000000.0 0.0192283618083055 -0.0626318449479343
1000000000.0 0.016731207765945968 -0.08220546777898632
1020000000.0 0.05527227197723452 -0.08877333212015118
1040000000.0 0.06577606478197445 -0.09891222472735486
1060000000.0 0.12355002171790318 0.09097456019191566
1080000000.0 -0.01216813727781219 0.17267057603221866
1100000000.0 -0.024734202519424143 -0.19688921941222123
1120000000.0 0.11198815329803093 0.1902659801164672
1140000000.0 0.07714074032157024 -0.24140069160059485
1160000000.0 -0.23683625559090687 -0.1500057645784999
1180000000.0 -0.04252687880868495 -0.31240250710365336
1200000000.0 0.2886766131589909 -0.18138561941560022
1220000000.0 -0.1910874997677209 0.31354355077806956
1240000000.0 0.38720598014352026 -0.02717121962377832
1260000000.0 -0.27531974400971526 -0.3051795712294332
1280000000.0 -0.3762028044513262 0.20059948069601477
1300000000.0 0.398138712862256 0.1819313588349305
1320000000.0 0.4386219739429346 0.018843390413382587
1340000000.0 0.4265400673240075 -0.10341863483057159
1360000000.0 0.4409171233289105 -0.0056137334073988856
1380000000.0 0.21522515067912115 -0.3802488309113049
1400000000.0 -0.36463759082351516 -0.22803955650016314
1420000000.0 -0.01371185961491696 0.4107688603958356
1440000000.0 0.38133643354491537 -0.043318303994828215
1460000000.0 0.04132530365259468 -0.3505323498555065
1480000000.0 -0.3205182705843091 -0.005415569809441426
1500000000.0 -0.13563316593469354 0.25253818925193366
1520000000.0 0.03147440539490118 0.2564207467319356
1540000000.0 -0.1516083218868755 -0.1709610132357698
1560000000.0 0.09193287897087243 -0.1711953538775523
1580000000.0 0.12350485573608683 0.11224053111145381
1600000000.0 0.08239642605276047 -0.10312354605545553
1620000000.0 0.08072852701585648 -0.06444537229578849
1640000000.0 -0.0011323281550990267 0.0778546642111809
1660000000.0 -0.025255310216740805 -0.048977223365685954
1680000000.0 0.0016682063958988111 0.03646432706185465
1700000000.0 0.007224660323263401 0.021340113946694102
1720000000.0 0.0013604256846725385 -0.007157913117675806
1740000000.0 -0.013219757914045397 0.009745333837859962
1760000000.0 0.01613212846904861 -0.030082814985381214
1780000000.0 -0.06217096886366198 -0.008480027139143866
1800000000.0 0.08322753220544114 0.04355308533430834
1820000000.0 0.08140350973136827 0.0953312336778897
1840000000.0 -0.08385404218244573 -0.14083941928324079
1860000000.0 -0.04676627190635047 0.19645986271210047
1880000000.0 0.13109106040872887 -0.2043963773552895
1900000000.0 -0.14530140788875853 0.2475745249969184
1920000000.0 0.0592402857136657 -0.31644885800389205
1940000000.0 -0.2390137208344005 0.262174087692643
1960000000.0 0.3771215072311288 -0.05369312539056248
1980000000.0 -0.23989930621285796 -0.3196718063299206
2000000000.0 -0.40603859627396505 0.09507812404004864
2020000000.0 0.05656258384185896 0.4239056073232046
2040000000.0 0.3521224599118162 0.25458728550688786
2060000000.0 0.37640424213251034 -0.22186097799290705
2080000000.0 0.08799320633624363 -0.42558562481028067
2100000000.0 -0.18829982990664892 -0.3836620310586007
2120000000.0 -0.36424601864027634 -0.20601977907948538
2140000000.0 -0.4038746868219645 -0.05169585481876731
2160000000.0 -0.10724597138705792 -0.37842932720043665
2180000000.0 -0.2622919384210001 -0.27562170707236217
2200000000.0 -0.3633020241578939 0.07096907785970458
2220000000.0 -0.16037729298824766 0.32245853320305745
2240000000.0 0.24484176890426315 0.2604881643027648
2260000000.0 0.3422641725423944 0.10136571111436599
2280000000.0 0.28185743700011506 -0.22769444319593257
2300000000.0 -0.2705552626510934 -0.2618726751255646
2320000000.0 -0.21090029651208309 0.33932267758863166
2340000000.0 0.4255876120859034 0.06878883136555591
2360000000.0 -0.36494597619073904 -0.29765274457213364
2380000000.0 0.3344291368202655 0.3953533752694309
2400000000.0 -0.47805066920345385 -0.3037080524748516
2420000000.0 0.6105953675335589 -0.05993086719731253
2440000000.0 -0.4920267093116156 0.43421163269610424
2460000000.0 0.13252774340599272 -0.6783378006405785
2480000000.0 0.07457623111904711 0.713245953828488
2500000000.0 0.009525137889993495 -0.7329296619740376
2520000000.0 -0.2508039974567731 0.6957756864599011
2540000000.0 0.6200688293773808 -0.40071475895678
2560000000.0 -0.6938258261560927 -0.2272121503899723
2580000000.0 0.11790985180232967 0.7038238879288738
2600000000.0 0.5598161937424664 -0.40090727162730455
2620000000.0 -0.5451508041328822 -0.36644219706323355
2640000000.0 -0.5897671022923 -0.19231495407957602
2660000000.0 0.000557014238030719 0.5761258135875499
2680000000.0 0.5011784732125343 -0.17653863000400843
2700000000.0 -0.3643203084628593 -0.32273190465504664
2720000000.0 -0.05294507946895427 0.4382000325247229
2740000000.0 0.3789895422735106 -0.12639564059571318
2760000000.0 -0.34464463496358977 -0.1114280564351167
2780000000.0 0.2799137553651149 0.1813672389480001
2800000000.0 -0.2838638515625697 -0.12527571860003023
2820000000.0 0.22272587889340614 -0.1937680412710772
2840000000.0 0.020399776403564492 0.28430506935939825
2860000000.0 -0.27057242577319146 -0.07704760262928624
2880000000.0 0.1807337961704868 -0.21522547702359154
2900000000.0 -0.03905415285581812 0.2803638719643681
2920000000.0 0.1892965953929945 -0.21435089528492415
2940000000.0 -0.27648942938971593 -0.09276337887337005
2960000000.0 -0.20154682297732676 0.2165450408568014
2980000000.0 -0.15684979529768053 0.2556271252259358
3000000000.0 -0.2792771682584669 0.1161249098220392
3020000000.0 -0.225811143094553 -0.20185776246820988
3040000000.0 0.2816651737604031 -0.10358859516688722
3060000000.0 -0.2211771085581685 0.20215385541218284
3080000000.0 0.17036913441741483 -0.24120681287616308
3100000000.0 -0.11085597198097037 0.2691420252483577
3120000000.0 -0.013795666707320959 -0.28564496813090573
3140000000.0 0.14810945080636054 0.23362952268912163
3160000000.0 -0.24485843744938302 -0.0939862443677944
3180000000.0 0.0935545083379818 0.22873691404732072
3200000000.0 -0.22396018510840893 0.015733915842273113
3220000000.0 -0.0017399844080618434 -0.19946356723494832
3240000000.0 0.1395378611471018 0.0967168971406151
3260000000.0 -0.13577722984442564 0.02415399918350469
3280000000.0 0.08835762506157473 0.05967073843921337
3300000000.0 0.003179045210789101 -0.07675363973140117
3320000000.0 -0.03351337118076107 -0.037381671454025024
3340000000.0 0.018034882127612176 0.02085145558006437
3360000000.0 -0.006588567652099253 0.006794122938954895
3380000000.0 0.0006424544791802097 0.005828579847019249
3400000000.0 -0.01934046641017754 0.0019410626673923765
3420000000.0 -0.026098575962992216 -0.016786707434361916
3440000000.0 0.028130063159938972 -0.02941170046312877
3460000000.0 -0.041043024453700026 -0.027220159992403046
3480000000.0 0.05408541103287863 -0.027720134102736684
3500000000.0 0.02422998532124213 -0.07084826740190794
3520000000.0 -0.06242510276895145 -0.06398856942171718
3540000000.0 0.08732457163826268 0.058022142918011464
3560000000.0 -0.12073384638741066 0.006872474708383787
3580000000.0 0.1221191082444499 -0.057657950754056185
3600000000.0 0.10305402458800852 0.11130191782574589
3620000000.0 -0.019643154178490833 0.16224209249061147
3640000000.0 -0.17309097783014363 -0.01504516106266527
3660000000.0 -0.1199781885703342 -0.13979473298870945
3680000000.0 0.026917887080904677 -0.18718775133824334
3700000000.0 0.09184848406534325 -0.16676072997701435
3720000000.0 0.19027003829132247 -0.004207512807693793
3740000000.0 0.14535822666232914 0.11544797672254307
3760000000.0 -0.10647602339851081 -0.1448743761161991
3780000000.0 0.10011516173585963 0.13826311208157854
3800000000.0 0.13116830908432547 -0.09747198681801703
3820000000.0 -0.04741056047830044 -0.14798242724287733
3840000000.0 -0.027222112507536988 -0.14537901786468296
3860000000.0 0.11495089095329562 0.09432297279965239
3880000000.0 0.07485791220317609 0.1345716885773011
3900000000.0 0.1447564622368104 -0.0704209312823693
3920000000.0 -0.1544054508679753 0.05853973670875388
3940000000.0 0.09909497847151078 -0.1375166819845961
3960000000.0 0.17053925033709477 0.03051806785221209
3980000000.0 0.1422945507792393 -0.09998138167748472
4000000000.0 0.14665257166805068 -0.0811133084929453
