! Created with skrf (http://scikit-rf.org).
# Hz S RI R 50.0 
!freq ReS11 ImS11
400000000.0 0.23930740534976586 0.8398907490799626
420000000.0 0.6853677008603601 0.5195130471167364
440000000.0 0.7702558213632446 -0.29132395950883694
460000000.0 0.22059917156252049 -0.7552289745325738
480000000.0 0.6638313115487947 -0.22793957318490765
500000000.0 0.557925610645617 -0.08815555712045973
520000000.0 0.43263604545207074 -0.23734659280889303
540000000.0 0.32114166213627654 0.29030731750766164
560000000.0 -0.2784687468830442 -0.2321430804039061
580000000.0 -0.25850349649364496 0.22421702077105798
600000000.0 0.3392935881418717 0.014826815446695037
620000000.0 -0.3505444040057092 -0.059179544939765384
640000000.0 -0.3058994177355039 0.23533263689060593
660000000.0 -0.056547027223693966 0.3950869379923503
680000000.0 -0.3518501653401865 -0.2389910366987384
700000000.0 0.28617428617993945 0.3385484570149512
720000000.0 0.16946029285899303 -0.41314716786000566
740000000.0 0.43364660004674155 -0.07411129769754572
760000000.0 -0.3958527854988131 -0.13609917717588169
780000000.0 0.10923443204866856 -0.36870539916922696
800000000.0 0.19242317774855594 0.2894903364995821
820000000.0 0.17539317669461005 0.2234047467779437
840000000.0 0.14225717107180322 0.1782752383093706
860000000.0 -0.09950262708944833 0.1666452704524667
880000000.0 0.126342334859972 0.031923082019316915
900000000.0 0.05449091333200777 -0.04552296612831173
920000000.0 0.037990080452014706 0.015752433271728015
940000000.0 0.02592661457062159 -0.006064599024166743
960000000.0 -0.035120810067459624 0.004309713425864455
980000000.0 0.024680744313002382 -0.04457332795083777
1000000000.0 -0.057008886197847546 0.0048077138931811
1020000000.0 0.059255012214262534 0.044345165257363026
1040000000.0 0.07956605074498502 0.03373206122478949
1060000000.0 -0.1272422131830081 -0.009453351644613573
1080000000.0 0.1434811837789839 -0.037454769237131674
1100000000.0 -0.0521545884348835 -0.17177139329630836
1120000000.0 -0.027957941622264504 0.20770082113997482
1140000000.0 -0.08465371048215621 -0.23572768495022664
1160000000.0 -0.2720400263017781 0.10499451305084706
1180000000.0 -0.055199863535153076 0.32573848334247507
1200000000.0 -0.08884569996468575 0.34986734099463884
1220000000.0 -0.34451485076759053 -0.1746092583203276
1240000000.0 0.40643411693647413 -0.013091247247447558
1260000000.0 -0.41326090804902776 -0.11409891911234937
1280000000.0 0.36537017048307807 0.24589061914183735
1300000000.0 -0.056634820898866275 -0.4395383633489159
1320000000.0 -0.43341302163217815 0.021511810290066047
1340000000.0 -0.3515455739938425 -0.23496002402707852
1360000000.0 0.13275864176229452 -0.3925593649369734
1380000000.0 0.3305188061144729 -0.252052857688217
1400000000.0 0.21547547069346615 -0.34420612509333026
1420000000.0 -0.12612125573528504 -0.3754631823776058
1440000000.0 -0.3678979008451861 -0.09306419928561158
1460000000.0 -0.05333811602204299 0.3557350336089953
1480000000.0 0.24741290583594366 -0.22696392515937383
1500000000.0 -0.2577036737762333 0.16532723728494927
1520000000.0 0.27637986792281427 0.02476161739565997
1540000000.0 0.22986448132176965 0.076334641879245
1560000000.0 0.18605379797583174 0.07395852884171943
1580000000.0 0.10476083125991989 0.12600753105600418
1600000000.0 0.08149687135815166 -0.10036645368732702
1620000000.0 0.0928771427551359 -0.0005307416349521125
1640000000.0 -0.055790141750906214 -0.043600573489964385
1660000000.0 -0.04606531487975114 0.006460582783002175
1680000000.0 -0.025123515840342264 0.0006616853388694822
1700000000.0 -0.004634990129287603 0.011394390392479583
1720000000.0 -0.0028159362168455626 -0.011711042204550015
1740000000.0 0.0013252090100001534 0.02914902362331996
1760000000.0 -0.022627638813624857 -0.03759690323043558
1780000000.0 -0.03762900079704814 -0.059076233435573014
1800000000.0 0.009722383865905636 0.09873037152416464
1820000000.0 -0.10211745670463668 0.06978856646303966
1840000000.0 -0.004992541255017742 0.15772585362939445
1860000000.0 0.17401911610303025 0.07694876013590543
1880000000.0 0.19263606533959893 -0.12361699726448905
1900000000.0 -0.16061042608154633 -0.22038348083126272
1920000000.0 0.11404035996459105 0.29121318204675023
1940000000.0 0.12250882745678922 -0.32893899781335784
1960000000.0 -0.29102092157289994 0.249155513038926
1980000000.0 0.37240871271254133 -0.16368767261450307
2000000000.0 -0.319871081821634 -0.279109275817756
2020000000.0 -0.07983460573204984 0.4276756361015198
2040000000.0 0.39875448157602605 0.18065879884469419
2060000000.0 0.22928156917853104 -0.36933850911226396
2080000000.0 -0.11501411857611589 -0.40981501615377397
2100000000.0 -0.15569719063993598 -0.3867294992896655
2120000000.0 -0.15363959246669887 -0.376731715808955
2140000000.0 -0.22472091870192865 -0.3267932434519482
2160000000.0 0.2619235905710847 -0.280962228936431
2180000000.0 0.1274412356086652 -0.34845289402964824
2200000000.0 -0.0002182760258577293 -0.3607153180970531
2220000000.0 -0.32569802676103315 -0.1370881503538239
2240000000.0 -0.24511845485200948 0.24801466003306083
2260000000.0 0.07702418307666319 0.339667080595557
2280000000.0 0.27006503621045413 0.22191695588967825
2300000000.0 0.27439851450939884 -0.23613698903760189
2320000000.0 -0.17103867429637687 -0.34309854583995286
2340000000.0 -0.37880922559661495 0.16798478806944198
2360000000.0 0.368831072475603 0.2660405681314889
2380000000.0 -0.29464351084911466 -0.4074251080481283
2400000000.0 0.28585891485344905 0.475442049143896
2420000000.0 -0.515860106585228 -0.3209331372133963
2440000000.0 0.6552671151296575 -0.05136994215083873
2460000000.0 -0.49524751759351965 0.4925889965062394
2480000000.0 0.22360079398832233 -0.695174387588804
2500000000.0 -0.2374018859827714 0.7132919057078969
2520000000.0 0.3537271378286003 -0.6753027695875427
2540000000.0 -0.5699603132612573 0.5094513558967535
2560000000.0 0.7556131223021315 0.06573431419888473
2580000000.0 -0.43141748052895346 -0.6056645119479029
2600000000.0 -0.2699603891094023 0.6670705510499255
2620000000.0 0.6769839185741475 -0.12464467652884845
2640000000.0 0.46128625556827957 -0.4600790912588023
2660000000.0 -0.607793371984179 0.0012359415925814327
2680000000.0 0.4015729630384609 0.39127215546455013
2700000000.0 -0.05670567481049897 -0.5102726417781819
2720000000.0 -0.17639924962129713 0.42983611280297757
2740000000.0 0.34884874310764724 -0.2333915753719587
2760000000.0 -0.3743303294679313 0.06763708167203511
2780000000.0 0.31935783940193774 -0.14391072811069405
2800000000.0 -0.20108415738426688 0.2560800836206772
2820000000.0 -0.10947142878090425 -0.2890063927525448
2840000000.0 0.29499608489844564 0.047483245354423095
2860000000.0 -0.16409751234101463 0.2461720529999244
2880000000.0 -0.12979923912972027 -0.2651581631664767
2900000000.0 0.18657513724735894 0.22979549533757151
2920000000.0 0.08521979702134755 -0.28835256402641246
2940000000.0 -0.30601535415788084 0.017636749798751357
2960000000.0 -0.1326632208296729 0.2780197790800503
2980000000.0 -0.25717373282942363 0.1750998510281893
3000000000.0 -0.2670676077105592 -0.16526743995020948
3020000000.0 0.05921407640741725 -0.30997106077353787
3040000000.0 0.253768257915649 0.18534235060616797
3060000000.0 -0.309480223665474 0.050439839904615
3080000000.0 0.25165120170305755 -0.1790973222632101
3100000000.0 -0.14902163300506488 0.263164756247404
3120000000.0 -0.03303007100978243 -0.2933472768509125
3140000000.0 0.19012345630096297 0.21056068038122688
3160000000.0 -0.24718284909543106 -0.10134256777021855
3180000000.0 0.007157238400466947 0.2493262689412588
3200000000.0 -0.18903590322231686 -0.1253590904990747
3220000000.0 0.15169832281140283 -0.12959417590918706
3240000000.0 -0.011542426099778978 0.16938256938915205
3260000000.0 0.07205526974602919 -0.11787948161148862
3280000000.0 -0.08295959068148365 0.06832559956290847
3300000000.0 0.07772580929777387 0.01856675496906851
3320000000.0 -0.02180088539670323 -0.04738256715150131
3340000000.0 0.013655386415662706 0.023970198978942467
3360000000.0 0.006763287982553647 -0.0021060088471735764
3380000000.0 0.002024150946124408 -0.009265970889513106
3400000000.0 0.024692746204916998 -2.4314798542529577e-05
3420000000.0 -0.027712727071830735 0.02611226336415486
3440000000.0 0.04633199672427052 0.017170235259902664
3460000000.0 0.055374084203014776 -0.011614518727109812
3480000000.0 -0.06461374573770501 0.013798813776070284
3500000000.0 -0.07191199932724147 -0.03253779333134906
3520000000.0 -0.08928565574440026 0.031781557870923086
3540000000.0 0.10834502025893905 -0.023510582258973955
3560000000.0 -0.06188550757628162 0.1084846198252902
3580000000.0 0.04007465537252963 -0.13359299323418922
3600000000.0 0.13874223198991453 0.07588608324241698
3620000000.0 0.09984713699616535 0.13767494111337528
3640000000.0 -0.11586968155697197 0.13863156003276578
3660000000.0 -0.17925038350398095 0.06526550252431265
3680000000.0 -0.17267076389329347 -0.09036616956720701
3700000000.0 -0.14260483024065387 -0.13212912573561642
3720000000.0 0.03331466250112399 -0.1905188698697956
3740000000.0 0.15443965762382383 -0.10946888954678577
3760000000.0 -0.1494197818344071 0.10320568814804398
3780000000.0 0.16907536191222353 -0.026220520448492782
3800000000.0 0.024896039202044803 -0.15983644608316633
3820000000.0 0.024043145527555803 -0.15285017107871363
3840000000.0 0.1216343592959543 -0.08623372047924648
3860000000.0 0.06852628330855896 0.13351582332268028
3880000000.0 0.09874556817309069 0.12225440673415165
3900000000.0 0.01647418884417777 -0.15922466241408995
3920000000.0 -0.12484268768916731 0.10636103019234404
3940000000.0 0.11374185493018305 -0.12322590301596241
3960000000.0 0.1633553766160372 0.048456288720896544
3980000000.0 0.15480232102060554 -0.0718304434489719
4000000000.0 0.1594752082405439 -0.040678916390417326
