!Created with skrf (http://scikit-rf.org).
# Hz S RI R 50.0 
!freq ReS11 ImS11
400000000.0 -0.7323758710600934 0.4766596484356494
420000000.0 0.4680193172640656 0.7352112985220279
440000000.0 0.6460134550689233 -0.5371037918212803
460000000.0 -0.18904664510682834 -0.7683507325083136
480000000.0 0.7037124205095399 0.16853825010626827
500000000.0 -0.576892045787719 -0.1686825319572807
520000000.0 0.4906975782357343 0.07743646237453117
540000000.0 -0.19333602547627152 -0.36502704412747206
560000000.0 -0.07970229028277344 0.3604300595822689
580000000.0 -0.23520277972095113 0.23980730263043862
600000000.0 -0.036699116934973026 0.3288029576616109
620000000.0 -0.11911622021416525 -0.3194595199858756
640000000.0 -0.20694564922048764 -0.2971555038317682
660000000.0 -0.18233981215933245 -0.3246963113518775
680000000.0 -0.14764347656440577 0.3633924558870841
700000000.0 0.04341190137287273 0.40250439188793724
720000000.0 0.06981184658056214 0.41221572942874624
740000000.0 -0.37556000020727554 -0.19475175104273723
760000000.0 0.12881232247992305 0.38888693261381624
780000000.0 -0.2837589494429706 -0.26167893117559415
800000000.0 0.2983881279927263 0.20261759068706628
820000000.0 0.15071986926113426 0.2774247138025821
840000000.0 -0.25597506967111816 0.08092576578707764
860000000.0 -0.22238687783334485 -0.005721753076555487
880000000.0 0.12635629435691217 -0.1204388291421845
900000000.0 -0.11350900824240144 -0.008623997817985505
920000000.0 0.021782609773251947 -0.06877888529248984
940000000.0 0.053223589267073344 0.011400462720102443
960000000.0 0.03759862044640091 0.05357274839248219
980000000.0 0.010932861271245028 -0.07728037630864933
1000000000.0 0.03953764011428462 0.07746706065554552
1020000000.0 0.054395949642742816 0.07763744331634147
1040000000.0 -0.06097172282935449 0.08230640578372958
1060000000.0 -0.11116218375697201 0.07953128877078075
1080000000.0 -0.014175281331995339 -0.15250986286416415
1100000000.0 -0.04623249839937834 -0.17158229107083772
1120000000.0 -0.16260309606584455 0.11876290208903931
1140000000.0 -0.04790280395173703 0.23301560666386242
1160000000.0 0.23197310355238335 0.14079380863192656
1180000000.0 0.05009966202186585 0.30821560007551
1200000000.0 -0.05250232982799668 0.3382997950402167
1220000000.0 -0.21118606796124437 -0.3089026773295562
1240000000.0 0.19883825333896443 0.34196515638408426
1260000000.0 -0.15579394809694938 -0.39046700449572125
1280000000.0 -0.3508786270082319 0.25302618316585695
1300000000.0 0.44080556119189074 0.0005734879606901956
1320000000.0 0.360179656367283 -0.251269883504726
1340000000.0 0.35777264457050034 -0.24612159990206112
1360000000.0 0.42238514781296904 0.11035403074160895
1380000000.0 0.4111570988550823 -0.1434642973837243
1400000000.0 -0.2687005913014435 -0.33550735691400335
1420000000.0 -0.17673944286133478 0.37549386026313286
1440000000.0 0.3525551738877723 -0.16289590884464242
1460000000.0 -0.276835927275054 -0.22077935738248028
1480000000.0 -0.033425872176693454 0.3166493041410008
1500000000.0 0.24291189182476808 0.13833682307258785
1520000000.0 0.1910897751514149 0.15444258080999249
1540000000.0 -0.02551791090485323 -0.21337056244867253
1560000000.0 0.04053844306823837 0.1769340224616559
1580000000.0 0.12460676617197315 -0.09815286884887457
1600000000.0 0.13055506885055343 -0.009337396004733423
1620000000.0 0.0004817853150804479 0.10751628074512615
1640000000.0 -0.0764647831495613 -0.039329593051491515
1660000000.0 0.06343757549987732 -0.013846143434623329
1680000000.0 0.024021634349355336 -0.04174720092388006
1700000000.0 0.03536196854583971 0.003631016506778401
1720000000.0 -0.017420248914422523 0.0031734682187119314
1740000000.0 -0.0020290568691210325 -0.0014323326454968174
1760000000.0 -0.02188883118206011 0.004155294422973128
1780000000.0 -0.03701381867641194 -0.04037015242906978
1800000000.0 0.03142857456394546 0.08743785062868852
1820000000.0 -0.1128338516510065 -0.06599877950106299
1840000000.0 -0.17193610767344647 -0.030044931208643294
1860000000.0 -0.06103545027018305 -0.20481539795555928
1880000000.0 0.22674733688322377 -0.11541647443619406
1900000000.0 0.05566781368210618 0.29160438865063654
1920000000.0 -0.3168762852677901 -0.0775075856278968
1940000000.0 0.29285474827097174 0.19715425850139823
1960000000.0 0.004858140213378949 -0.372754739192931
1980000000.0 -0.38316407550128206 -0.04271328448951069
2000000000.0 -0.389315061574968 -0.0913898084278183
2020000000.0 -0.36937441738762256 0.1828457822603957
2040000000.0 -0.36834962577118596 0.2078483226948189
2060000000.0 -0.025933567206780386 0.4288651575674207
2080000000.0 0.3399574038519365 0.2651450848778195
2100000000.0 0.4254795405838958 -0.03570251087065857
2120000000.0 0.27934084900844947 -0.3147104959658509
2140000000.0 -0.06136743284790843 -0.4067200066872865
2160000000.0 0.17437085619631465 -0.35593877182241557
2180000000.0 -0.21266047043987502 -0.315005281238628
2200000000.0 -0.36157071908456484 -0.028298278340973246
2220000000.0 -0.34529491456993266 0.03628663315276027
2240000000.0 -0.3136974739230414 0.13712012062918802
2260000000.0 -0.28698470763382844 0.18503735976824354
2280000000.0 -0.15079354651842689 0.31016496643581504
2300000000.0 0.17014660873169615 0.3127020937489782
2320000000.0 0.3782328539232514 -0.004404554753212616
2340000000.0 0.014526780979412032 -0.41090165065962114
2360000000.0 -0.3167128373837787 0.3231337549799592
2380000000.0 0.44282893980287885 -0.23285849935548456
2400000000.0 -0.49183498209849963 0.2486650488046367
2420000000.0 0.373241674364615 -0.4749824662392121
2440000000.0 -0.010157769138882009 0.6546202338604897
2460000000.0 -0.5346549864580911 -0.4476613521644251
2480000000.0 0.7288504200193808 0.053673748335388634
2500000000.0 -0.7486976414090403 0.08833594860325202
2520000000.0 0.7668812168129282 -0.008309880565491867
2540000000.0 -0.7154936324764436 -0.2863857428414419
2560000000.0 0.4322916721076705 0.6342964516653319
2580000000.0 0.2906858475779657 -0.6972345838425021
2600000000.0 -0.6711093532007452 0.2965348532668435
2620000000.0 0.648001210205883 0.2810187691513751
2640000000.0 0.6522426642312883 -0.16311723782028112
2660000000.0 -0.5636759546972158 -0.28168482913843235
2680000000.0 0.30441982357661945 0.4987447096253772
2700000000.0 -0.07555156866928046 -0.5314920782598835
2720000000.0 -0.01623376411847475 0.4863160340746163
2740000000.0 0.2130521854120125 -0.38246094789525187
2760000000.0 -0.30297070786988556 0.25173923218042255
2780000000.0 0.35045131314910666 -0.07988771073505838
2800000000.0 -0.32985396613206935 -0.03268219859663313
2820000000.0 0.31394642863360384 -0.012484239392296188
2840000000.0 -0.2889611722899821 0.09911024145483302
2860000000.0 0.11672517290375052 -0.2817523540207424
2880000000.0 0.25406705675660524 0.17264488382214274
2900000000.0 -0.27465762526043497 0.14368980212800156
2920000000.0 0.24663799795243035 -0.19298196494539008
2940000000.0 -0.294225860676935 0.11447465318954447
2960000000.0 0.08075704333969 0.3057079631077035
2980000000.0 0.18580632257003513 0.2573166828210199
3000000000.0 -0.0036813622386471273 0.3150438402695003
3020000000.0 -0.2897208740300822 0.11589265109961205
3040000000.0 0.1167957509609524 -0.28352506511733855
3060000000.0 -0.15197069495053692 0.26176780950017453
3080000000.0 0.22779641847110013 -0.19324250041476165
3100000000.0 -0.29084173060884294 0.054690461324405325
3120000000.0 0.26153051085934936 -0.13338200934363922
3140000000.0 -0.11069538803920724 0.266768342306181
3160000000.0 -0.18831586448199056 -0.2024136455895181
3180000000.0 0.12119172026032837 0.23342822833201068
3200000000.0 -0.08594003252212874 0.225280552709687
3220000000.0 -0.13947425968002172 0.16252538475081635
3240000000.0 -0.1505884924101277 0.10021327377084695
3260000000.0 -0.13872015983818786 -0.03444838974163811
3280000000.0 0.09221272873967885 -0.0509139500277069
3300000000.0 -0.05897343639938336 -0.0392457665690403
3320000000.0 0.034239423005223917 -0.02531143470194677
3340000000.0 0.01868624618171099 -0.008880914254570788
3360000000.0 -0.006322077016155307 0.006806793103905083
3380000000.0 -0.0016693924420520167 -0.006810941525908709
3400000000.0 -0.0008682268811996467 -0.011671155403927254
3420000000.0 -0.019945201360833314 -0.01270588000723816
3440000000.0 0.033126662975990734 0.021938120957352446
3460000000.0 0.05134025647263406 0.024010329235139877
3480000000.0 -0.06924103290541561 0.02806673508747846
3500000000.0 0.009995755188845245 0.0911881029200164
3520000000.0 -0.039761895912157605 0.09701365553215982
3540000000.0 -0.09847999010828236 0.06183424377653871
3560000000.0 -0.001995941266593232 -0.12516075420994952
3580000000.0 -0.10375443180630113 0.08345120932604339
3600000000.0 0.13860345751159897 -0.04901422329694874
3620000000.0 -0.05616733741311505 0.14895609704263546
3640000000.0 -0.08362828732695195 -0.15039843954700333
3660000000.0 0.12171486509774393 -0.141048476516155
3680000000.0 0.17058679145224917 -0.095195634280552
3700000000.0 0.0650636235663831 -0.18742602709953318
3720000000.0 0.07390943310463471 -0.183905123342486
3740000000.0 0.048224870096047916 -0.18493060893177019
3760000000.0 0.003501574398186767 0.18286828545544748
3780000000.0 -0.07832715108907125 -0.15080807578198901
3800000000.0 -0.1360920528237755 0.08330901654793393
3820000000.0 -0.11435866110159183 0.09483542334080514
3840000000.0 -0.038157735791090885 -0.13429217606046417
3860000000.0 -0.045991626209071115 0.13490037089981055
3880000000.0 -0.10946621311815753 0.1049080931613923
3900000000.0 0.1309615221914204 0.09451453103757497
3920000000.0 -0.16770380810951804 -0.005872491870311085
3940000000.0 -0.022678147604808747 -0.16986246952533207
3960000000.0 0.07043620221188203 -0.15934108917972345
3980000000.0 -0.1473001509386121 -0.0892114509079081
4000000000.0 -0.12184038393684936 -0.10796050056085067
