!Created with skrf (http://scikit-rf.org).
# Hz S RI R 50.0 
!freq ReS11 ImS11
400000000.0 -0.7078187460396413 0.5089537529304196
420000000.0 0.5059323217684272 0.7073308103822216
440000000.0 0.6002565598094901 -0.5866534507555361
460000000.0 -0.25412012972869236 -0.7488079579129784
480000000.0 0.7102358092201426 0.13674615597060147
500000000.0 -0.5846305151954817 -0.13537521156905596
520000000.0 0.4868332699575628 0.0990776607111851
540000000.0 -0.16893022742080724 -0.3774450113343458
560000000.0 -0.03970049589223474 0.3664026847947819
580000000.0 -0.22179744009948216 0.252314222032439
600000000.0 -0.029827079104754562 0.3306737829955665
620000000.0 -0.09803614461927834 -0.32816914658029855
640000000.0 -0.14285974054704126 -0.33464137338990835
660000000.0 -0.12864478231619297 -0.3511761790704573
680000000.0 -0.20743111023124322 0.33395326870370284
700000000.0 -0.0368104700282771 0.40371434716454047
720000000.0 0.018971435047889743 0.41814291872130566
740000000.0 -0.3618341326856741 -0.21714701133847072
760000000.0 0.1192164485239545 0.39077853809413554
780000000.0 -0.29717234416642424 -0.2439200180184592
800000000.0 0.3286948488900453 0.14509394809345735
820000000.0 0.20365325207127868 0.23997788916791676
840000000.0 -0.2227641694481321 0.1488031165042524
860000000.0 -0.21206966922613119 0.0668819035565602
880000000.0 0.07313241235493065 -0.1594187504853858
900000000.0 -0.11546824827031545 0.001001491706510076
920000000.0 0.06931040373541254 0.024544594904815423
940000000.0 -0.04744406344393266 0.024421467258695623
960000000.0 -0.01984706406917779 0.05984515440206019
980000000.0 0.0038282599941630805 -0.07587543735279036
1000000000.0 0.0639917085655898 0.05627465131904753
1020000000.0 0.07770067407219543 0.05221444138812074
1040000000.0 -0.0030844071190073118 0.10178419673784231
1060000000.0 -0.048243164485978485 0.12828591455206953
1080000000.0 -0.09020453635943239 -0.12540643727443043
1100000000.0 -0.08244448337714205 -0.15995151357518692
1120000000.0 -0.16615324852728205 0.11831157695762488
1140000000.0 -0.07682684252161723 0.22806046937837987
1160000000.0 0.19072785581095175 0.19621878138849405
1180000000.0 -0.0531453502489428 0.30924493350438176
1200000000.0 -0.18619782003045243 0.28865437134334526
1220000000.0 -0.05689575113315269 -0.3707631210971039
1240000000.0 0.03762455386245123 0.39426669895075883
1260000000.0 0.004322498580067983 -0.420246193423535
1280000000.0 -0.4134170642940651 0.12571465762542225
1300000000.0 0.4135387919637303 0.14918311706268117
1320000000.0 0.4076386258419651 -0.1598953772656208
1340000000.0 0.3900664220581242 -0.18846293898215502
1360000000.0 0.4054371360334748 0.15968400739752958
1380000000.0 0.4100638415587745 -0.14492242334854455
1400000000.0 -0.2962821637444159 -0.31146514963938243
1420000000.0 -0.08737605203891485 0.4057407559597279
1440000000.0 0.30381207272538885 -0.24256170638652777
1460000000.0 -0.3172063882781489 -0.1592467907207097
1480000000.0 0.048034546933827436 0.31577994614766064
1500000000.0 0.2614901441883939 0.10201312197924198
1520000000.0 0.21433400091136873 0.12307033500569059
1540000000.0 -0.012450693374308723 -0.21644717003947833
1560000000.0 -0.03248988565427345 0.180757014265008
1580000000.0 0.1535140253203379 -0.04764214556863722
1600000000.0 0.12779771530195372 0.03644370368240959
1620000000.0 -0.04964902838751175 0.09666251427889799
1640000000.0 -0.04964297988756677 -0.07122865982680565
1660000000.0 0.06131622212932423 0.021328704332432113
1680000000.0 0.006961184857193757 -0.04690160373748607
1700000000.0 0.033956237140834886 0.00511949637688618
1720000000.0 0.015243830467185478 -0.00472966852215169
1740000000.0 0.0008192161738346114 -0.003889773624760569
1760000000.0 0.009664041661779033 -0.022180034901903563
1780000000.0 0.03692452934006715 -0.04182890600935603
1800000000.0 -0.020431264524225584 0.09130345448833523
1820000000.0 -0.1073861751245741 -0.07462492447744264
1840000000.0 -0.17158008418899018 -0.029477077000068356
1860000000.0 -0.0917612020440961 -0.19210373633333172
1880000000.0 0.20796114928158652 -0.14514604462898273
1900000000.0 0.08837612155135667 0.28219613883850647
1920000000.0 -0.32178675452941635 -0.044949534658328405
1940000000.0 0.3087462125475961 0.1692926662981874
1960000000.0 -0.024214970745874337 -0.37173555696742056
1980000000.0 -0.38432483553181385 -0.034000000259828175
2000000000.0 -0.39742382278868954 -0.04422435326040352
2020000000.0 -0.3742756809770119 0.17559988132511395
2040000000.0 -0.3500720504621587 0.24017052326175226
2060000000.0 -0.008687776739704212 0.43129949191423833
2080000000.0 0.3321743418614465 0.27782637407356786
2100000000.0 0.42781057958678426 -0.01928431350679672
2120000000.0 0.28955581199578184 -0.3067305953437258
2140000000.0 -0.02376588848515196 -0.4113711804321074
2160000000.0 0.25285664421255877 -0.30572919779701124
2180000000.0 -0.13416660172195133 -0.3560266813857954
2200000000.0 -0.3477554071577589 -0.10639788110395604
2220000000.0 -0.346211484273129 -0.0380802633106743
2240000000.0 -0.3353101136845732 0.06966252888678377
2260000000.0 -0.3058057454133377 0.15285867481173732
2280000000.0 -0.17680035719206894 0.2959352063126409
2300000000.0 0.17067610003933162 0.3125692958081604
2320000000.0 0.37653930517642903 -0.03369066283871153
2340000000.0 -0.020539893282895252 -0.41036682512508765
2360000000.0 -0.3179351535928875 0.3219120635106243
2380000000.0 0.44542627554299774 -0.22704611861268442
2400000000.0 -0.4989637510227963 0.23389640527506841
2420000000.0 0.39247724512417465 -0.46003400237395603
2440000000.0 -0.01591614592157184 0.6550164964572227
2460000000.0 -0.48796704518136835 -0.49997161762083275
2480000000.0 0.7248310801560289 0.10241535569208286
2500000000.0 -0.7540226005260171 -0.0002567090131693609
2520000000.0 0.7640650883960395 0.07090486590936801
2540000000.0 -0.6917910266834671 -0.34096466132803105
2560000000.0 0.3939778498380649 0.6595305751683421
2580000000.0 0.31885545460059506 -0.6854448070500585
2600000000.0 -0.6854575975686653 0.2655083282582462
2620000000.0 0.6308450851186064 0.3208600199963171
2640000000.0 0.6683287929938331 -0.08464530721899134
2660000000.0 -0.5592606093326029 -0.29212086955763594
2680000000.0 0.2974337718644176 0.5036251350595754
2700000000.0 -0.0636508496447358 -0.5328997097879591
2720000000.0 -0.007560812844060963 0.48689074799986704
2740000000.0 0.2393616337039931 -0.3666565285775444
2760000000.0 -0.31267155017205034 0.2396047196779999
2780000000.0 0.3498160148736451 -0.0841921028818482
2800000000.0 -0.33181684926179966 -0.013111123799417018
2820000000.0 0.3128335847034355 -0.04117387073562189
2840000000.0 -0.28115798564799754 0.12265089985740116
2860000000.0 0.09528641223294641 -0.2914246741697013
2880000000.0 0.25696056155591473 0.17182463392230485
2900000000.0 -0.26813330583904194 0.15900802703246436
2920000000.0 0.2557262522315413 -0.18319678768474332
2940000000.0 -0.3092298768215201 0.06924687919505526
2960000000.0 -0.009228283676221494 0.3168898190025325
2980000000.0 0.0711653669880534 0.3093343127641007
3000000000.0 -0.08699615946150593 0.30424984195266536
3020000000.0 -0.31192153934564104 -0.004685154063595795
3040000000.0 0.21081263366305053 -0.22227879688686247
3060000000.0 -0.24262536959032388 0.18060976235065948
3080000000.0 0.28567860214228114 -0.08590165461235226
3100000000.0 -0.2915069625644461 -0.04772643249134596
3120000000.0 0.28715491284885486 -0.057105826724262815
3140000000.0 -0.15902298713122043 0.23929500449992397
3160000000.0 -0.1931604137002056 -0.19606905127692828
3180000000.0 0.10557301779573178 0.23963339154562208
3200000000.0 -0.031089576714806093 0.23772226638147193
3220000000.0 -0.040904879925659506 0.20866264208744972
3240000000.0 -0.0866500683589342 0.15700143231564928
3260000000.0 -0.1278518072164219 0.062161764571512894
3280000000.0 0.0361579982723352 -0.0989115331940602
3300000000.0 -0.029843716203710968 0.0652655757611855
3320000000.0 -0.02303848713031965 0.036506313098173454
3340000000.0 0.014618428644447928 0.015462458931399324
3360000000.0 0.009356988397243015 -0.002187075467694104
3380000000.0 -0.003083908536474925 -0.002867806541248818
3400000000.0 -0.004512313627782939 -0.009571587627441772
3420000000.0 -0.01917477914761563 0.012624573901119323
3440000000.0 -0.03322887297816965 -0.020948007071303378
3460000000.0 -0.031748049746279504 0.04657196799065941
3480000000.0 -0.06457729760341882 0.036709765055357724
3500000000.0 -0.02609390294441894 0.08688821480327985
3520000000.0 -0.0804800267867476 0.06471156807905476
3540000000.0 -0.10827373629638519 0.03764097541391291
3560000000.0 0.06246208577682826 -0.10632567836375921
3580000000.0 -0.12792173635684215 0.03075735848030941
3600000000.0 0.14428090956168121 -0.02292250193977543
3620000000.0 -0.10224382130300518 0.12004426990507668
3640000000.0 -0.05501859465333502 -0.16251302178826488
3660000000.0 0.12573556659908577 -0.1367123416018888
3680000000.0 0.16115466073016574 -0.1082098738217529
3700000000.0 0.04720134727366733 -0.19139474511856924
3720000000.0 0.07566045823711717 -0.18168670214083668
3740000000.0 0.033688381233121886 -0.18615002935653852
3760000000.0 0.0350179331504179 0.1775485518327617
3780000000.0 -0.09160116756313753 -0.14158781396178635
3800000000.0 -0.12441861576790335 0.09687199198493938
3820000000.0 -0.11643433801872807 0.09048729203270456
3840000000.0 -0.07550512602372099 -0.11629942709747863
3860000000.0 -0.06153876152742632 0.1277369038008932
3880000000.0 -0.13644486754397694 0.06493484651668145
3900000000.0 0.12258168797385936 0.10428262943263954
3920000000.0 -0.15939954476484924 -0.04919988186563651
3940000000.0 -0.0056482487598290545 -0.17082831717655225
3960000000.0 0.06104595106089117 -0.1618403292456466
3980000000.0 -0.15018793487934798 -0.08337579119550956
4000000000.0 -0.1023184175107795 -0.12574973778245094
