!Created with skrf (http://scikit-rf.org).
# Hz S RI R 50.0 
!freq ReS11 ImS11
400000000.0 -0.7259568623741101 0.4847468879498057
420000000.0 0.4799915814480113 0.7258865577485362
440000000.0 0.6182774041810781 -0.5686226250974289
460000000.0 -0.22725593662225804 -0.7565380979644862
480000000.0 0.7090940008608764 0.14097791248568609
500000000.0 -0.5752386205125204 -0.17314793419425736
520000000.0 0.4884867608052628 0.08782012395503226
540000000.0 -0.18961175874117683 -0.365753366642483
560000000.0 -0.09088825654034968 0.3565184815171774
580000000.0 -0.23103916946937766 0.24572862271481863
600000000.0 -0.0013164981986557292 0.33160156282763315
620000000.0 -0.08931882230030053 -0.3299059242690487
640000000.0 -0.154957819613644 -0.32924761234257727
660000000.0 -0.1557732948745007 -0.3398986429501411
680000000.0 -0.182393564056014 0.34826033161345094
700000000.0 -0.046406598252348656 0.40308820748999796
720000000.0 0.02147273334885499 0.4179047186577153
740000000.0 -0.3536009030923415 -0.23070158597253285
760000000.0 0.09821765989989141 0.39670305139753026
780000000.0 -0.3044843936363032 -0.2346515135371624
800000000.0 0.32955060566002103 0.14320908541164604
820000000.0 0.2056269301948929 0.23731573253790195
840000000.0 -0.23379682266352306 0.12950767717748335
860000000.0 -0.2059527049416939 0.0805924223174703
880000000.0 0.043681656451526885 -0.16908276594819674
900000000.0 -0.11500620072928015 0.0022405403695176986
920000000.0 0.07351239180059205 -0.0014014225724446447
940000000.0 -0.05056326680418886 0.015520450449172463
960000000.0 -0.044795775547465416 0.04347588665446874
980000000.0 0.03197462979210599 -0.06809924643576605
1000000000.0 0.048184602027408784 0.06924266423476225
1020000000.0 0.07021269586186657 0.06046922682678647
1040000000.0 -0.0021573766203356634 0.10168833691403847
1060000000.0 -0.020605297783887387 0.1354862897732543
1080000000.0 -0.10144936871295138 -0.11693890218293788
1100000000.0 -0.08985117837334221 -0.15659554397834846
1120000000.0 -0.16200261039545602 0.12530823325312926
1140000000.0 -0.028166247894237426 0.23965585565500747
1160000000.0 0.23825195541375754 0.13749322480930318
1180000000.0 0.05601188424825931 0.31065593898906463
1200000000.0 -0.06111000786833001 0.3397159245398644
1220000000.0 -0.22718228136447416 -0.29882916102844165
1240000000.0 0.1793489648224136 0.35240422292128776
1260000000.0 -0.11309957559981942 -0.403861506375812
1280000000.0 -0.3669774924506943 0.22665274124471216
1300000000.0 0.4380459624944485 0.04148946506193417
1320000000.0 0.38230234151368536 -0.21373367126008974
1340000000.0 0.3676756522871556 -0.2300793479601461
1360000000.0 0.42315330917124755 0.10848840512785934
1380000000.0 0.37965292467346856 -0.2141535144993374
1400000000.0 -0.3553129696716465 -0.24359962632449472
1420000000.0 -0.023655757113054218 0.4149016359270141
1440000000.0 0.2480225295776364 -0.2994773007420183
1460000000.0 -0.3371513967515107 -0.1103505315357228
1480000000.0 0.050160166353165 0.31506818755563765
1500000000.0 0.2764882939482404 0.04692411208887949
1520000000.0 0.22238670523249723 0.10901403027650057
1540000000.0 -0.05436616965369745 -0.2098683876560685
1560000000.0 -0.020769617469390673 0.18273100172351378
1580000000.0 0.151347890215663 -0.054405279614134404
1600000000.0 0.13218513854346806 0.011469283263522189
1620000000.0 -0.02745586155973269 0.10530365949400963
1640000000.0 -0.06964052932151052 -0.0520552599497549
1660000000.0 0.06418342606982419 -0.013038253696043004
1680000000.0 -0.0014687693839432973 -0.048006295571626285
1700000000.0 0.02771564135327357 -0.020465244471406952
1720000000.0 0.014090289536772327 -0.007453427403497507
1740000000.0 0.0016722111717592141 -0.0040230213353142676
1760000000.0 0.01494607622598929 -0.018642463906066956
1780000000.0 0.006234514874885818 -0.05554281403339123
1800000000.0 0.027419717682758166 0.09034501350567958
1820000000.0 -0.1308234065846892 -0.018888989687759
1840000000.0 -0.1737291366903956 0.011925176704713094
1860000000.0 -0.09948278084310339 -0.18897834227550428
1880000000.0 0.2057257184840095 -0.1481170231470053
1900000000.0 0.09539331354283362 0.2794637789205707
1920000000.0 -0.32152069783716974 -0.045757688148796834
1940000000.0 0.3005492612464789 0.18304735531749278
1960000000.0 0.026640226403869795 -0.3710791632645113
1980000000.0 -0.3749047773908116 -0.08810484453147503
2000000000.0 -0.3889286329531706 -0.09123817541956158
2020000000.0 -0.3906255157139546 0.1343667089580608
2040000000.0 -0.34881048878837995 0.24107942225246043
2060000000.0 -0.013354981109818947 0.43119178077567133
2080000000.0 0.3347246173305768 0.2743503266340254
2100000000.0 0.4234020983440853 -0.05939127023608486
2120000000.0 0.23093687813945685 -0.3519320084963548
2140000000.0 -0.074889181806471 -0.4047420634911579
2160000000.0 0.2021617203312217 -0.3410771875360436
2180000000.0 -0.19752512335350372 -0.32530181630910804
2200000000.0 -0.3527003400733286 -0.08578126016079787
2220000000.0 -0.34720828785510743 -0.014469008042901115
2240000000.0 -0.31568066516800863 0.1310637983859398
2260000000.0 -0.2782630539051567 0.19817412975030155
2280000000.0 -0.12762488040579975 0.3203685937159143
2300000000.0 0.2348858514937761 0.2678385745277365
2320000000.0 0.37202752446897 -0.06962488135780273
2340000000.0 0.0004660360702528048 -0.41100295009821625
2360000000.0 -0.31325984179066435 0.32591922430958253
2380000000.0 0.43541711128626415 -0.24522700946040385
2400000000.0 -0.49078540058939907 0.24961206994201351
2420000000.0 0.36527822301248225 -0.4816325341855859
2440000000.0 0.020758117734766348 0.6548008195505222
2460000000.0 -0.5109646130634542 -0.47549664724134216
2480000000.0 0.72160903074643 0.1197770629777806
2500000000.0 -0.7517397426716368 0.05946673080252918
2520000000.0 0.7659406074083083 0.045746210842853685
2540000000.0 -0.6909260968847409 -0.3437768078830109
2560000000.0 0.3791906795431953 0.6681812928034019
2580000000.0 0.34114205394256797 -0.6742235886397739
2600000000.0 -0.6740683060517416 0.2894607535127795
2620000000.0 0.6570625871861794 0.2576890007285562
2640000000.0 0.6548923653034465 -0.14888579503131785
2660000000.0 -0.5774463171721633 -0.24981401043659915
2680000000.0 0.396587960300281 0.42796929615962387
2700000000.0 -0.1402277566827833 -0.5168559789201546
2720000000.0 0.03827819875766862 0.48408154034134104
2740000000.0 0.1770000106919611 -0.3990999207221141
2760000000.0 -0.26552798533846694 0.2891928027118884
2780000000.0 0.32591922538546525 -0.15028957911927635
2800000000.0 -0.3320644460970541 -7.850533413720735e-05
2820000000.0 0.3120583787138004 -0.04884782297058482
2840000000.0 -0.2851354744365068 0.11368631698468067
2860000000.0 0.12909345174939454 -0.2784559347349378
2880000000.0 0.2589291527352667 0.16931351848600185
2900000000.0 -0.25775098748966263 0.17528589908405573
2920000000.0 0.2575125170501097 -0.17964498797980363
2940000000.0 -0.3139874798526549 0.04289157175812674
2960000000.0 0.0186730100887179 0.3163449938252061
2980000000.0 0.1104019107916401 0.29748306324839807
3000000000.0 -0.04450882702498061 0.31163916801194136
3020000000.0 -0.31152899875083073 0.00883676870862948
3040000000.0 0.2046297517619982 -0.22803172976409908
3060000000.0 -0.24391300631942786 0.1791509571242031
3080000000.0 0.2891435799317267 -0.07607984391856419
3100000000.0 -0.2914367688554337 -0.05419221041143119
3120000000.0 0.284092190316438 -0.0750216925790493
3140000000.0 -0.13511058578173232 0.25424797402126803
3160000000.0 -0.18872251563324055 -0.20017956103611548
3180000000.0 0.10460769322584162 0.24001271706223753
3200000000.0 -0.03923623266515852 0.2359586819097828
3220000000.0 -0.0389886062788401 0.20836884387509133
3240000000.0 -0.07800984987745904 0.1601474774679153
3260000000.0 -0.11980435067045639 0.0747753818118176
3280000000.0 0.010585094934962942 -0.10407911921375836
3300000000.0 -0.04332717814541251 0.0562981882032848
3320000000.0 -0.04267519211385108 -0.0002737083293291577
3340000000.0 0.020452722575148193 0.0062351568028192516
3360000000.0 0.007651820132939238 -0.004575512222703165
3380000000.0 -0.0029107904743424493 -0.002566126608361984
3400000000.0 0.010509780717583439 0.0003018288770513768
3420000000.0 -0.010426227613479831 -0.020774661958453032
3440000000.0 -0.0017143031817881743 -0.039188478474104366
3460000000.0 -0.03471603387963458 0.04410587487284267
3480000000.0 -0.07191155713194698 0.01735583228814315
3500000000.0 -0.029042693463245603 0.08602417633593105
3520000000.0 -0.10123182427189914 0.021149738893700414
3540000000.0 -0.11339589492719959 -0.013561437368175706
3560000000.0 0.10187184114070144 -0.06817255949237878
3580000000.0 -0.13132824646811772 -0.011828096635340414
3600000000.0 0.14335009215508548 0.02895951884887998
3620000000.0 -0.11910449889941628 0.10437504208010302
3640000000.0 -0.05186819515211066 -0.16399083893009334
3660000000.0 0.10393538899904234 -0.15400223053683557
3680000000.0 0.15122044863965733 -0.12207979396207543
3700000000.0 0.03448444455830255 -0.19381138898003977
3720000000.0 0.03537654783301549 -0.1932427751715874
3740000000.0 0.0012508030636986852 -0.18899583462358344
3760000000.0 0.050827382981561364 0.17323025656745086
3780000000.0 -0.11056029353921196 -0.12712260386133228
3800000000.0 -0.13759411534295263 0.07723043877238779
3820000000.0 -0.12354173840249515 0.08153189626899009
3840000000.0 0.024275111859236413 -0.13781320146402015
3860000000.0 -0.087290762749369 0.11323649187259796
3880000000.0 -0.13265204949052078 0.07313652227691952
3900000000.0 0.10954328324949171 0.11799324618210054
3920000000.0 -0.16369980661792538 -0.03481539140110198
3940000000.0 -0.004994393181886083 -0.17128432713537417
3960000000.0 0.13013133955737421 -0.11647778759885179
3980000000.0 -0.07320264269289649 -0.15684439874388395
4000000000.0 0.04179221455931634 -0.15866675298058167
