!Created with skrf (http://scikit-rf.org).
# Hz S RI R 50.0 
!freq ReS11 ImS11
400000000.0 -0.7379824312613867 0.46945226861924244
420000000.0 0.46532051890552617 0.7372439251651991
440000000.0 0.6616904110189372 -0.5182199561481089
460000000.0 -0.19969798897796218 -0.765939208925026
480000000.0 0.7073359771496973 0.15242794981941238
500000000.0 -0.579547548299319 -0.15659787032106423
520000000.0 0.4859398264516876 0.10375497491008252
540000000.0 -0.17910890672962035 -0.37239490100908684
560000000.0 -0.05914358579164231 0.36387800065084747
580000000.0 -0.23692818196577556 0.2384027103534926
600000000.0 -0.04998154640272042 0.327851530043332
620000000.0 -0.08287086031359532 -0.33080927725835796
640000000.0 -0.17648791910726816 -0.31660428487145403
660000000.0 -0.19698814540628223 -0.31604691761461856
680000000.0 -0.1455565873538638 0.3642479252889788
700000000.0 0.030491450061470565 0.4040152717970327
720000000.0 0.07903329964075986 0.41083620208982463
740000000.0 -0.38030679980217874 -0.1835859388724969
760000000.0 0.13941079428235972 0.38451935157851497
780000000.0 -0.3017211867625473 -0.23985690447640812
800000000.0 0.3108324533537625 0.1825905673390756
820000000.0 0.15707807414712813 0.27339026278766987
840000000.0 -0.26155744032647665 0.0592505862360697
860000000.0 -0.2213663331466585 -0.020154613496574415
880000000.0 0.13118701575369868 -0.11476758596048185
900000000.0 -0.10292349170586153 -0.047698926206498765
920000000.0 0.05877865990004103 -0.04111715633432312
940000000.0 0.05100284420607739 0.01674953424143479
960000000.0 0.05200217218029842 0.03859155683014974
980000000.0 0.011501201664286535 -0.07715526168885126
1000000000.0 0.013139677664483193 0.08578752985715318
1020000000.0 0.02060030039408025 0.09208493822453087
1040000000.0 -0.08288964786677426 0.059719056976239894
1060000000.0 -0.11864575834974869 0.06823015322449116
1080000000.0 0.016041686465545633 -0.15260045328350794
1100000000.0 0.021239355471378653 -0.17658517401016352
1120000000.0 -0.19300701754860375 0.057493308196091164
1140000000.0 -0.08294540526615383 0.22264945675485992
1160000000.0 0.23367952935417624 0.13817407915883584
1180000000.0 0.0404015545100637 0.3092550349128488
1200000000.0 -0.10079981300503897 0.326771149585305
1220000000.0 -0.16466404593390987 -0.3352843537691221
1240000000.0 0.14078236482536755 0.3685781337751006
1260000000.0 -0.10983047900646642 -0.40502282881023577
1280000000.0 -0.3728435299241609 0.21826106995677877
1300000000.0 0.43809852962990725 0.04611534520950318
1320000000.0 0.382833824181078 -0.21426808673321332
1340000000.0 0.39007982919045003 -0.1903252925068912
1360000000.0 0.40654605086212514 0.15903968319777576
1380000000.0 0.4175944177153864 -0.1240177426827506
1400000000.0 -0.26082645385931147 -0.3421630918283608
1420000000.0 -0.1592799521101282 0.38340851641697876
1440000000.0 0.34828340674706365 -0.17299932574704296
1460000000.0 -0.2778912267517458 -0.22016896337316214
1480000000.0 -0.02341594055741965 0.3178363470521015
1500000000.0 0.2459954126832445 0.13299180394428692
1520000000.0 0.1926571401278763 0.1533515408051262
1540000000.0 -0.010438923613806064 -0.21576124920176562
1560000000.0 -0.005669536087475173 0.1821860785641133
1580000000.0 0.14652460164323663 -0.062175745312050355
1600000000.0 0.13097190853811996 -0.00022462616540201125
1620000000.0 0.012604200792722559 0.10685660715128689
1640000000.0 -0.0862661745585867 -0.0009392820567844858
1660000000.0 0.045640923955618896 -0.04630910542892864
1680000000.0 -0.020504265820546062 -0.04327380429786705
1700000000.0 0.032045708861947006 -0.013966340371094088
1720000000.0 0.01594227586115039 0.005548839190231761
1740000000.0 -0.001596414609776316 0.0029862137267232317
1760000000.0 -0.020724913018080344 0.009976581954740623
1780000000.0 -0.050890216358298254 -0.021577266361600296
1800000000.0 0.056574270712337456 0.07492043523404959
1820000000.0 -0.12935761657604283 -0.023462454046783394
1840000000.0 -0.1747586199020354 0.0029150321177588484
1860000000.0 -0.08278033038355422 -0.1973838383921763
1880000000.0 0.22627672626853682 -0.1157166410385434
1900000000.0 0.061095663295868505 0.2896767075177284
1920000000.0 -0.3187351199420788 -0.06598556864098921
1940000000.0 0.28910795287550556 0.20149161211319894
1960000000.0 0.019665062370209773 -0.3718665423633453
1980000000.0 -0.37954051342374345 -0.06536963735197822
2000000000.0 -0.39576379681869206 -0.05057301831519549
2020000000.0 -0.3644112745327175 0.19341756400176927
2040000000.0 -0.3737865899455392 0.19957850330045865
2060000000.0 0.014218387426669052 0.430147083156442
2080000000.0 0.33465687740395267 0.2740049761892202
2100000000.0 0.42493729227420823 -0.04553267203712091
2120000000.0 0.27381764039320483 -0.3199224211177436
2140000000.0 -0.0683795677829999 -0.40599995680532247
2160000000.0 0.1854132296590004 -0.35069514771782834
2180000000.0 -0.20235958301774942 -0.3230492549040862
2200000000.0 -0.3593730642392097 -0.05368873099357411
2220000000.0 -0.3475477500287115 0.01811660086400326
2240000000.0 -0.3230079625768675 0.1130391521566026
2260000000.0 -0.282392232039017 0.19201474945802136
2280000000.0 -0.1579061146433931 0.30659870504543024
2300000000.0 0.1708917287966793 0.31247337472939474
2320000000.0 0.378228678344937 -0.008312964333058719
2340000000.0 0.03203712903191912 -0.4101371182535822
2360000000.0 -0.3476200365251169 0.2895957277344203
2380000000.0 0.45472035432526786 -0.2081637966158357
2400000000.0 -0.507608682106428 0.21378827569895947
2420000000.0 0.3781146021813222 -0.470918966963291
2440000000.0 -0.01738221938613806 0.6543474981103903
2460000000.0 -0.510458247194025 -0.47481617126517167
2480000000.0 0.7235981639121961 0.10201382044634523
2500000000.0 -0.7532667825976874 -0.0024006123960548754
2520000000.0 0.7658197136584722 0.045577462657006566
2540000000.0 -0.7064638344782875 -0.30998082561561596
2560000000.0 0.40848728721453553 0.6511165784564937
2580000000.0 0.24054020379824534 -0.7170265653288086
2600000000.0 -0.6648147851903211 0.31298977382453497
2620000000.0 0.6704082224923464 0.22385300519879456
2640000000.0 0.6311079076936117 -0.23603718679620125
2660000000.0 -0.5808070983104918 -0.2478343876554228
2680000000.0 0.32133326032202497 0.48939402814186655
2700000000.0 -0.08404155339826004 -0.5310690007074846
2720000000.0 -0.03858213083655346 0.48542603553112257
2740000000.0 0.23420492775905552 -0.37049880830769594
2760000000.0 -0.320217836743987 0.22974406244503123
2780000000.0 0.35112649655671757 -0.07760732815070862
2800000000.0 -0.3251569031814899 -0.06762605300110042
2820000000.0 0.31466692680849945 0.014285170441951352
2840000000.0 -0.29699022309668727 0.07211435725476122
2860000000.0 0.13386879928873868 -0.27441975795623513
2880000000.0 0.25779601532633184 0.16816022064631256
2900000000.0 -0.26328867456832966 0.1642039526055944
2920000000.0 0.22256495822777972 -0.22027221967352328
2940000000.0 -0.2997114018145571 0.10014141590497344
2960000000.0 0.10019936755800535 0.29992863807301473
2980000000.0 0.18904255687259056 0.2546068647186913
3000000000.0 0.04991253012847645 0.3110010149087758
3020000000.0 -0.2730201193047317 0.15197870727977378
3040000000.0 0.11228354764355912 -0.2858151716503577
3060000000.0 -0.1633257229556093 0.25510912406222724
3080000000.0 0.26181552685503 -0.1451377740070037
3100000000.0 -0.2899165143042306 0.06250047357729463
3120000000.0 0.2486079665955703 -0.15851031702319457
3140000000.0 -0.13002224994645387 0.25753574160507525
3160000000.0 -0.1994303168081613 -0.19160979420783594
3180000000.0 0.11002148575568424 0.23895053802349744
3200000000.0 -0.040437285330435405 0.2376439728317349
3220000000.0 -0.07474787038355396 0.20085049356205506
3240000000.0 -0.11208882799064693 0.1412272699396956
3260000000.0 -0.14081547537121558 0.027173075081238163
3280000000.0 0.08352024388103123 -0.06561317392229321
3300000000.0 -0.07096511393890734 0.010940690987746962
3320000000.0 -0.024056876318667778 -0.03560296161588095
3340000000.0 -0.01576521538801035 -0.014390651489473452
3360000000.0 -0.0033676837573613353 0.009151033675570254
3380000000.0 -0.0042320443142981855 0.003915950471434703
3400000000.0 -0.01057307667553084 -0.0028842373045972177
3420000000.0 0.020985083858419892 -0.008717899066100383
3440000000.0 -0.03799582713814146 0.00747773780293321
3460000000.0 0.045515774273548776 0.032157460377485084
3480000000.0 -0.04419549945538809 0.0594604702301712
3500000000.0 0.05769152566163496 0.07046842747068889
3520000000.0 -0.037306424361913254 0.0968480734450989
3540000000.0 -0.09910707287305617 0.0581048868898675
3560000000.0 0.04082569694673579 -0.11670185944627136
3580000000.0 -0.1252237848115887 0.04210227768862784
3600000000.0 0.13595516609042654 -0.05685296213664024
3620000000.0 -0.048703488011751214 0.15122428238832408
3640000000.0 -0.08165818943661517 -0.15134402570408273
3660000000.0 0.09194910784367548 -0.16206676894151292
3680000000.0 0.15797013640277113 -0.11417989473015817
3700000000.0 0.025764274622813232 -0.19638727562073105
3720000000.0 0.01871650549410191 -0.1963705647620062
3740000000.0 0.0062696971034120075 -0.19060078780145276
3760000000.0 0.06335549971221048 0.17005453779647936
3780000000.0 -0.11430781281656156 -0.12434064788477962
3800000000.0 -0.13187546038464115 0.08842703698973758
3820000000.0 -0.08912506711744664 0.11842728615504705
3840000000.0 -0.01386166051622305 -0.1397912298563962
3860000000.0 -0.08226632734589041 0.11773029469056158
3880000000.0 -0.1462753465918284 0.0428284401501525
3900000000.0 0.09916646070957795 0.12818925306385334
3920000000.0 -0.16228749225332814 -0.04337755863436836
3940000000.0 -0.02935523664514056 -0.1692114395390556
3960000000.0 0.059295796367113934 -0.16445177101865205
3980000000.0 -0.16763098656967473 -0.04187447424266618
4000000000.0 -0.14754476495266178 -0.06988846035857256
