!Created with skrf (http://scikit-rf.org).
# Hz S RI R 50.0 
!freq ReS11 ImS11
400000000.0 -0.7397181844045916 0.46347836936101205
420000000.0 0.47624364415266707 0.7284680260796683
440000000.0 0.6391519883881442 -0.5438544719300558
460000000.0 -0.22172938371615647 -0.7590929149365864
480000000.0 0.7108992367631066 0.13247141565917833
500000000.0 -0.581567126194722 -0.14889872333003087
520000000.0 0.48843501367215364 0.091145357017804
540000000.0 -0.16664785014265493 -0.37798604757771903
560000000.0 -0.018749396250262812 0.36817406183574786
580000000.0 -0.21808951081156763 0.2564685947695675
600000000.0 -0.03946402334194175 0.33016799982732764
620000000.0 -0.08442343822678909 -0.3318494986124747
640000000.0 -0.12430082702187478 -0.34208232021234974
660000000.0 -0.11947986026853515 -0.3537969918286266
680000000.0 -0.2234451629268522 0.3231861630143821
700000000.0 -0.0524819428960324 0.40180487437476003
720000000.0 0.014811271315547377 0.4178573528221898
740000000.0 -0.3392043376705342 -0.2513265140343012
760000000.0 0.10794916495341232 0.3940270655701941
780000000.0 -0.2965244684841524 -0.24482678207475372
800000000.0 0.32021410326665783 0.1633562057693147
820000000.0 0.19765953842045372 0.2448669012632804
840000000.0 -0.21908463962283192 0.15411044213582187
860000000.0 -0.2065342657903372 0.08358005293223651
880000000.0 0.060988541528218476 -0.1653013404050956
900000000.0 -0.11563317883506956 -0.008254685967209796
920000000.0 0.06477198352278637 0.03484234316763532
940000000.0 -0.03507667986580066 0.040210041475429115
960000000.0 0.001638688151283643 0.06311326393932803
980000000.0 0.0038944148241620994 -0.07608987884641918
1000000000.0 0.06121168831650768 0.05919440056813874
1020000000.0 0.08679989721915804 0.03502783788880043
1040000000.0 0.022320536175105977 0.09923566031861838
1060000000.0 -0.029643816781377216 0.13398799077676993
1080000000.0 -0.07061457523267305 -0.13787864739819208
1100000000.0 -0.04674384954776683 -0.17399269235324838
1120000000.0 -0.18563388036724648 0.08461675338020103
1140000000.0 -0.09849202800705978 0.21938509348548824
1160000000.0 0.1718349520584312 0.2133009414362986
1180000000.0 -0.07137248018399031 0.30594528895612805
1200000000.0 -0.21555095295228396 0.2676024576587199
1220000000.0 -0.0153827280125345 -0.3741986592370367
1240000000.0 0.00356239406561735 0.3949724026671607
1260000000.0 0.022816572438043713 -0.4188928222587364
1280000000.0 -0.4156446611418802 0.1157541187604203
1300000000.0 0.42303104729390467 0.1194219098948173
1320000000.0 0.40940670416697394 -0.154657857579402
1340000000.0 0.39780166088909874 -0.17077928774295129
1360000000.0 0.40081008788443795 0.17039981158174855
1380000000.0 0.41549682767448703 -0.12808224501039528
1400000000.0 -0.28666818857124965 -0.3202586424179539
1420000000.0 -0.1272555587912478 0.3952034809766134
1440000000.0 0.3207815526373239 -0.219862876896178
1460000000.0 -0.30898810450952213 -0.17473556674260676
1480000000.0 0.023008513843475336 0.31843372955197075
1500000000.0 0.2659506151806968 0.0908702519258689
1520000000.0 0.20950697586196876 0.13256470937780815
1540000000.0 -0.032109691693413434 -0.21489797064721297
1560000000.0 -0.026365783298674908 0.18198300534104095
1580000000.0 0.15918308347345084 -0.021213946091627446
1600000000.0 0.12524852615812407 0.04234945605031448
1620000000.0 -0.0674051060245583 0.08469318067047346
1640000000.0 -0.03914005501116397 -0.07703786551709675
1660000000.0 0.06317647371995867 0.014078375669211943
1680000000.0 0.010548092329231859 -0.04600109398820741
1700000000.0 0.03378006304321185 0.005055730050175311
1720000000.0 -0.0005705197970337436 -0.01584259048300655
1740000000.0 0.00158837985156024 0.003716249109305165
1760000000.0 0.014210659544309223 -0.01914895505969065
1780000000.0 0.007455849008359587 -0.05498251043697731
1800000000.0 -0.0034208790122290393 0.09358884422467814
1820000000.0 -0.09793501366597365 -0.08633973557283071
1840000000.0 -0.1705484279375895 -0.03436161632572151
1860000000.0 -0.06781025157242451 -0.20198326581003392
1880000000.0 0.22017661912301273 -0.1257227768058424
1900000000.0 0.07874566960357575 0.2847095721544753
1920000000.0 -0.32349439150501974 -0.03285431608552917
1940000000.0 0.31179636633297575 0.16376228752929975
1960000000.0 -0.018793348856879062 -0.3719404567919409
1980000000.0 -0.38400810961427684 -0.034423744804470274
2000000000.0 -0.39850387918356583 -0.02921288039452059
2020000000.0 -0.3653444014288208 0.19310747224958408
2040000000.0 -0.3610851030772214 0.22310760858182488
2060000000.0 -0.03467964250519629 0.4302041895049548
2080000000.0 0.31372250318226635 0.2990337905411865
2100000000.0 0.4283986562139399 0.0018695585022508636
2120000000.0 0.287471089697833 -0.30882778918729
2140000000.0 0.008138305883663854 -0.41242678687459655
2160000000.0 0.25309322116545735 -0.306178023630655
2180000000.0 -0.15754391009041047 -0.3473990172958633
2200000000.0 -0.34264879843087803 -0.12079940486477501
2220000000.0 -0.34628772361261323 -0.032106674663998476
2240000000.0 -0.33295892573475994 0.07661018139782716
2260000000.0 -0.29948412507259586 0.16243115219315976
2280000000.0 -0.16312846100702466 0.3029951847921379
2300000000.0 0.18072890331964872 0.3063236893049647
2320000000.0 0.37711723241457945 -0.021148431077528774
2340000000.0 0.01977797369844293 -0.4104111537477604
2360000000.0 -0.33474909897216953 0.30406412408835404
2380000000.0 0.4584867269448498 -0.19953483017016957
2400000000.0 -0.5046500744234904 0.22075531828662404
2420000000.0 0.38407108924425615 -0.4667870312729148
2440000000.0 -0.004848212698663957 0.6549767812994506
2460000000.0 -0.4998951070889988 -0.4869677052522271
2480000000.0 0.7161898106745154 0.14922593087803523
2500000000.0 -0.7539026070309142 -0.0021714109221603072
2520000000.0 0.763676575557358 0.07614080423161226
2540000000.0 -0.6836420464341704 -0.3577101704267419
2560000000.0 0.33913659113717604 0.6901152420702814
2580000000.0 0.3200038838975944 -0.6851564038125854
2600000000.0 -0.7033734682286478 0.21148895918416832
2620000000.0 0.6092611091016494 0.3576089697136401
2640000000.0 0.6666663179556392 -0.09189514153604009
2660000000.0 -0.5569528660197989 -0.295495032072703
2680000000.0 0.2605746298525176 0.5230792636614137
2700000000.0 -0.06514390414410871 -0.5326266080410739
2720000000.0 -0.019081244827226635 0.486013719997539
2740000000.0 0.23267464079068315 -0.3706247648901954
2760000000.0 -0.3103417032692472 0.24222088959301138
2780000000.0 0.34681080785948937 -0.09452642298310063
2800000000.0 -0.3310617087831347 -0.024209598358816208
2820000000.0 0.3146379783916405 -0.01683795881133638
2840000000.0 -0.288973672009903 0.10090173300509864
2860000000.0 0.1304715223222932 -0.27716827909063424
2880000000.0 0.26836440850561527 0.15232536849682313
2900000000.0 -0.2764417849779283 0.1435725624080952
2920000000.0 0.264246072711986 -0.17074557340146435
2940000000.0 -0.3134901752565449 0.048006009983209905
2960000000.0 0.032984086309063874 0.31540491274971666
2980000000.0 0.09378783112695538 0.3038976132432877
3000000000.0 -0.03448809730880027 0.31435683454172936
3020000000.0 -0.30739349296354723 0.06140048493354465
3040000000.0 0.19400333888897106 -0.2382272236800387
3060000000.0 -0.228912831813057 0.19843826717363597
3080000000.0 0.29077701936356126 -0.06949852144080233
3100000000.0 -0.2877716445863324 -0.06840818376993965
3120000000.0 0.2907790549273848 -0.03837534988927348
3140000000.0 -0.1867825568434478 0.21903201377935191
3160000000.0 -0.1779648457305221 -0.21042081672204013
3180000000.0 0.07771733183959884 0.24982144778169435
3200000000.0 -0.07600840341196931 0.22730024495008064
3220000000.0 -0.066936482146808 0.20221739128910934
3240000000.0 -0.08543378512353264 0.1573061164139787
3260000000.0 -0.11275356498843433 0.0869235616284997
3280000000.0 0.03277872554025997 -0.10014909926605961
3300000000.0 -0.01969176434845857 0.06844742332039228
3320000000.0 -0.017885552453029654 0.03841540635970342
3340000000.0 0.018618101652583482 0.00871767685246261
3360000000.0 -0.008142439403390067 -0.002999003339044459
3380000000.0 -0.0006748545616792572 0.004052662609278292
3400000000.0 0.0057330154596760986 0.009058095953974776
3420000000.0 -0.02297961871612023 -0.0020372585285305706
3440000000.0 -0.007874173733334777 -0.0382612029529571
3460000000.0 -0.015326353633118382 0.05390315553725752
3480000000.0 -0.07265225525213553 -0.014415421354066262
3500000000.0 -0.03952373372150894 0.08197992241360753
3520000000.0 -0.0864723509114297 0.05736102071130034
3540000000.0 -0.11446494213828778 -0.0008988237785959881
3560000000.0 0.08801572811794879 -0.08602502772158248
3580000000.0 -0.13151763363645022 0.006952714955907144
3600000000.0 0.14601794207587068 0.010809185335418048
3620000000.0 -0.08354903963578848 0.13433869354057984
3640000000.0 -0.05525248428596181 -0.16233237813679088
3660000000.0 0.12881231983785235 -0.13277373950594268
3680000000.0 0.1744200036226739 -0.08451639999499841
3700000000.0 0.0652146765507441 -0.18584185579003343
3720000000.0 0.0402693181362496 -0.19210390333624905
3740000000.0 0.01745898912644972 -0.18895485602022846
3760000000.0 0.06206534363060927 0.1694934696174462
3780000000.0 -0.1181485852545975 -0.11919893115310264
3800000000.0 -0.12171579665215983 0.1002038609680989
3820000000.0 -0.08857528754603129 0.11792198768875373
3840000000.0 -0.03848042716401536 -0.13360252245833615
3860000000.0 -0.08138130555016315 0.11695029704175205
3880000000.0 -0.14379542676735177 0.0482007892792042
3900000000.0 0.10483342329202612 0.12249684517820134
3920000000.0 -0.16203053735415096 -0.04147720326893452
3940000000.0 -0.029812538514843886 -0.16831954398635937
3960000000.0 0.06503416968531318 -0.16132284444625686
3980000000.0 -0.16524399362074055 -0.046858535864521204
4000000000.0 -0.1515671881636768 -0.05791231601383575
