!Created with skrf (http://scikit-rf.org).
# Hz S RI R 50.0 
!freq ReS11 ImS11
400000000.0 -0.716466765739618 0.5001753931255433
420000000.0 0.5030741524566683 0.7111711793139658
440000000.0 0.6323984998414186 -0.5528693013557311
460000000.0 -0.20042732954330317 -0.7655711257544413
480000000.0 0.7074940544130716 0.15092369493921945
500000000.0 -0.5843451140051362 -0.13815957369798454
520000000.0 0.48463962585817605 0.1066072550082232
540000000.0 -0.14631472113626998 -0.38666738509142184
560000000.0 -0.09250256418930175 0.35704342544952805
580000000.0 -0.24160386747786797 0.23272062445728167
600000000.0 -0.04354835467771598 0.3280189227679472
620000000.0 -0.09366556925630964 -0.32857710001955487
640000000.0 -0.18149481042156657 -0.31424207795276343
660000000.0 -0.1847882345174977 -0.32390366379939745
680000000.0 -0.11890670119203184 0.37365441031724433
700000000.0 0.05293685263508889 0.4019715346096443
720000000.0 0.1282040813277342 0.39925255172622665
740000000.0 -0.40418279567866017 -0.12375412682938572
760000000.0 0.15714312692736845 0.3786363875501106
780000000.0 -0.30950868123575637 -0.23059656117962288
800000000.0 0.31937481651945493 0.16675385958028058
820000000.0 0.16910371174446967 0.265645671799315
840000000.0 -0.2564100453118286 0.0767186210700886
860000000.0 -0.2178140636857802 -0.03956335864539073
880000000.0 0.14021453265977976 -0.10191900276391914
900000000.0 -0.10765633789311338 -0.03249159089980969
920000000.0 0.045766942485411265 -0.054548897450691275
940000000.0 0.049890690472283235 0.019745404712731975
960000000.0 0.02856333648972949 0.057779329289002646
980000000.0 0.006969209616412367 -0.07732052095738791
1000000000.0 0.00759731402016663 0.08615489379319402
1020000000.0 -0.01715868934017598 0.09277657698504779
1040000000.0 -0.10052582215196762 0.01946804752982152
1060000000.0 -0.1354468361738991 0.01973312353524527
1080000000.0 0.026560738842635913 -0.15087595262169132
1100000000.0 0.020660413898609432 -0.17660184652779085
1120000000.0 -0.17299959603401158 0.1036365965565409
1140000000.0 -0.06997456640193656 0.22764377355062212
1160000000.0 0.22804899585955204 0.14676315478870097
1180000000.0 0.07160814925440276 0.3029931883654223
1200000000.0 -0.06823941084675651 0.33456387658134584
1220000000.0 -0.19308766431615687 -0.31929020330021063
1240000000.0 0.17941345892029864 0.3514351130236562
1260000000.0 -0.11174417958127965 -0.40454067536836424
1280000000.0 -0.378831783802917 0.20786458202324062
1300000000.0 0.43241569723976503 0.0825321123181644
1320000000.0 0.39630591414475996 -0.18824673370186076
1340000000.0 0.39316615885411266 -0.1840738235292866
1360000000.0 0.39945831638813967 0.17656471400608317
1380000000.0 0.42263121748795673 -0.10584143919112801
1400000000.0 -0.263511468124989 -0.3398139881088137
1420000000.0 -0.1740417466300829 0.37677196676233093
1440000000.0 0.3356693243413547 -0.1949500171115515
1460000000.0 -0.28007776467681955 -0.21585510232495073
1480000000.0 -0.0667600754368371 0.3109422545188811
1500000000.0 0.2340164373800333 0.15152709951808954
1520000000.0 0.19257812868700214 0.15244980283357648
1540000000.0 -0.007313872309893816 -0.21528423536613842
1560000000.0 -0.023147282220762528 0.18080817880579814
1580000000.0 0.14136560767785175 -0.07380145303788965
1600000000.0 0.13189412975911224 -0.0014524352988845293
1620000000.0 0.012738619190485648 0.10754941962116117
1640000000.0 -0.0865934126183141 8.261449587109728e-05
1660000000.0 0.02547683863906595 -0.06063917512788171
1680000000.0 -0.03181877026643422 -0.036832353618995194
1700000000.0 0.03300291871326862 -0.012709108416443335
1720000000.0 0.017350256307395347 0.0011661523616439253
1740000000.0 0.001958167806081454 -0.0022101263899058383
1760000000.0 -0.014028552081919056 0.018568244291027075
1780000000.0 -0.03577860814450827 -0.042568129096397435
1800000000.0 0.05810759803922729 0.07372629277627357
1820000000.0 -0.13077294263708278 -0.011153881050218422
1840000000.0 -0.1695950417019493 0.042607963694556
1860000000.0 -0.11781457769109506 -0.1784329725877967
1880000000.0 0.19778180024129674 -0.1599555089621574
1900000000.0 0.09794666977676675 0.2794711868632295
1920000000.0 -0.32101880653576687 -0.05216290263362623
1940000000.0 0.2885388734647704 0.20203823528031528
1960000000.0 0.019541644343816146 -0.37196470753680994
1980000000.0 -0.3736309693240123 -0.09586050768222086
2000000000.0 -0.3828409799308546 -0.11695863929570084
2020000000.0 -0.3695152474966557 0.18498469234783543
2040000000.0 -0.3723157859643445 0.2031191389984582
2060000000.0 0.0015908955097317591 0.4307064983588657
2080000000.0 0.3509138003892764 0.25270544790285177
2100000000.0 0.4190772683632625 -0.08270811883765443
2120000000.0 0.2408958293384487 -0.3451325001526868
2140000000.0 -0.10021751829829113 -0.3986603607716566
2160000000.0 0.1815383503065583 -0.35199366511981156
2180000000.0 -0.19924200597588945 -0.32290632715683965
2200000000.0 -0.3589798677244484 -0.05029298563184008
2220000000.0 -0.3471092162677338 0.018996924321158654
2240000000.0 -0.3141665636237346 0.13750534343112103
2260000000.0 -0.2927426653536806 0.17696801267451345
2280000000.0 -0.14297609025531646 0.3147237811999186
2300000000.0 0.21696421655699774 0.282603160733369
2320000000.0 0.37199379232602725 -0.07019527993777551
2340000000.0 -0.008000625653644785 -0.4113759055781102
2360000000.0 -0.32153218081650087 0.3182628834048974
2380000000.0 0.4550093687981128 -0.20820713480096728
2400000000.0 -0.5054056606894842 0.22015894272591957
2420000000.0 0.39872919653185934 -0.4544970891605611
2440000000.0 -0.017681583220549572 0.6547869237391397
2460000000.0 -0.49601765493425237 -0.4907737760184614
2480000000.0 0.7215926396327005 0.11526211904861086
2500000000.0 -0.7514282454613838 0.051988479933436804
2520000000.0 0.7661623501546199 0.01562085676493223
2540000000.0 -0.6910130136911344 -0.34070673120600886
2560000000.0 0.41578358389465186 0.6447674629801253
2580000000.0 0.24072593893758687 -0.7156865504704952
2600000000.0 -0.6381856574144178 0.3624897828211124
2620000000.0 0.6582299975609794 0.2568776893575702
2640000000.0 0.6377112715274037 -0.2152497586514985
2660000000.0 -0.5846274164318283 -0.23676596548325285
2680000000.0 0.3581056887323114 0.4627135679860744
2700000000.0 -0.14594149646488577 -0.5169286043973945
2720000000.0 0.049153334254267655 0.48427404844935495
2740000000.0 0.19936086308357773 -0.39002428438092784
2760000000.0 -0.2969714872103294 0.25930024008752384
2780000000.0 0.3536422945332577 -0.06516982049982149
2800000000.0 -0.3262009692119142 -0.06150868225806376
2820000000.0 0.3154083420499364 -0.00023023645466314167
2840000000.0 -0.2960663358875011 0.07855836023959953
2860000000.0 0.12603684655871236 -0.2789111943204614
2880000000.0 0.2575295380586017 0.1692382417890432
2900000000.0 -0.26121582695052575 0.16788396873582914
2920000000.0 0.2551547693519466 -0.18245348169105774
2940000000.0 -0.29058192222552104 0.12370153475389123
2960000000.0 0.07845696882520792 0.30603101392665516
2980000000.0 0.1500971802201793 0.27881894641862137
3000000000.0 -0.004965589906498031 0.3150146278210394
3020000000.0 -0.2995570250398663 0.0862581905312422
3040000000.0 0.1470476087944376 -0.2690862017176188
3060000000.0 -0.18781537392321584 0.2373277532322398
3080000000.0 0.26320691969909643 -0.14178080145968303
3100000000.0 -0.28777874412956445 0.0709923428913904
3120000000.0 0.2599782481030286 -0.13599508594644805
3140000000.0 -0.10940569286814164 0.26668496768901045
3160000000.0 -0.2278595149113294 -0.15587108761145355
3180000000.0 0.15893058611238048 0.20914649229381643
3200000000.0 -0.029237937202113057 0.23869861006041482
3220000000.0 -0.0794137323995255 0.1976886848018009
3240000000.0 -0.09677254062498983 0.1511653560865905
3260000000.0 -0.1356028674110283 0.0431002333270189
3280000000.0 0.07737617394925225 -0.0708611529347523
3300000000.0 -0.07069087134319624 0.005353270174964918
3320000000.0 -0.03425976327490701 -0.026609651174396204
3340000000.0 -0.02000510416312912 0.007906823202226219
3360000000.0 0.009974509801930887 -0.0014197267570135292
3380000000.0 -0.0048476229866769825 -0.00028650660895588925
3400000000.0 0.010534927753813393 -0.00426633043203274
3420000000.0 0.021566591422250897 0.009229341775313296
3440000000.0 -0.039274838105898345 -0.006726871854899453
3460000000.0 0.04950344421481059 0.028548759713179956
3480000000.0 -0.044640703637376364 0.05914737648368317
3500000000.0 0.037464235679922936 0.08311023714596008
3520000000.0 -0.05726383787263847 0.08692888776986733
3540000000.0 -0.10112136387509775 0.05596126544017529
3560000000.0 0.04519531798329156 -0.115235091172437
3580000000.0 -0.1252720057299357 0.043084162800849965
3600000000.0 0.1418234498321943 -0.03996998844793773
3620000000.0 -0.0953456138378048 0.12739713062249342
3640000000.0 -0.05850831189423444 -0.16143256753860238
3660000000.0 0.09429756372450776 -0.1608698224813917
3680000000.0 0.13110911529002403 -0.14444583406326278
3700000000.0 0.00337452143082385 -0.19811332275668675
3720000000.0 0.006576220688562995 -0.19812762375834167
3740000000.0 -0.020658798327091048 -0.18984476658724794
3760000000.0 0.06254513346534675 0.1709573696230962
3780000000.0 -0.08337369584981745 -0.14746057127255371
3800000000.0 -0.11997194212669718 0.10381604169743981
3820000000.0 -0.09889331267494722 0.1107548681754902
3840000000.0 -0.0264061624352875 -0.1383516347545497
3860000000.0 -0.08209924938915958 0.118625601127832
3880000000.0 -0.1340914084882865 0.07269554852917583
3900000000.0 0.09178435873396922 0.13358073602350434
3920000000.0 -0.15684332690752412 -0.06165200131207695
3940000000.0 0.010952946031881267 -0.1707311164888277
3960000000.0 0.11779171359987599 -0.12908084237866294
3980000000.0 -0.11661419039101137 -0.12744006778724828
4000000000.0 -0.008388803368550532 -0.16365688737265063
