!Created with skrf (http://scikit-rf.org).
# Hz S RI R 50.0 
!freq ReS11 ImS11
400000000.0 -0.7301437807616368 0.48056239216985747
420000000.0 0.47038914155002226 0.7336193341353338
440000000.0 0.6388050726624218 -0.5462400842716235
460000000.0 -0.18464269081068102 -0.7690330975893599
480000000.0 0.7010781703533305 0.1798033479560047
500000000.0 -0.5765926631948805 -0.17292742018226478
520000000.0 0.49380339019719 0.056549764022868106
540000000.0 -0.20571177880911107 -0.3577072797171673
560000000.0 -0.07421166366993359 0.3618600109007412
580000000.0 -0.21728661969535962 0.2570669925871605
600000000.0 0.0011448540166028272 0.33024253447233165
620000000.0 -0.11317932066663797 -0.3214711075835544
640000000.0 -0.18997418758835 -0.3086713970241944
660000000.0 -0.19011289675953158 -0.31996908428003945
680000000.0 -0.16448129727484073 0.3557927395223631
700000000.0 0.033851038398489394 0.4026899939404379
720000000.0 0.08263249421567928 0.40959720347175677
740000000.0 -0.36654765550435336 -0.21052206903094742
760000000.0 0.12244418546619273 0.39057836716885547
780000000.0 -0.27641088173319706 -0.26921865100603737
800000000.0 0.30431172035283366 0.19377545307396876
820000000.0 0.14548767847827807 0.2808763808589506
840000000.0 -0.2557586648793872 0.08411906975635551
860000000.0 -0.22257365886487832 -0.0025566577375362855
880000000.0 0.12045290711045575 -0.12693247247096115
900000000.0 -0.11320592532170928 0.01337337606255279
920000000.0 0.023070905608496298 -0.06863237322270532
940000000.0 0.05513310492361752 -0.004121440836256211
960000000.0 0.05659171790045759 0.03326070396842176
980000000.0 -0.008648194929000121 -0.07803392931071887
1000000000.0 0.054810809791451684 0.06736414420575766
1020000000.0 0.05057985635318126 0.08043559708205687
1040000000.0 -0.03987130831015066 0.09434737332126343
1060000000.0 -0.0887418721911594 0.10338997291784412
1080000000.0 -0.034543484448189485 -0.1484241971422364
1100000000.0 -0.04790427364306865 -0.17047772268145706
1120000000.0 -0.14855384559155196 0.13504064560583873
1140000000.0 -0.006557853617932663 0.23708923941733354
1160000000.0 0.24837820490628087 0.10850114002960716
1180000000.0 0.09786634886960698 0.29612320279675347
1200000000.0 -0.007267288087146931 0.3416907677754125
1220000000.0 -0.2587214204207856 -0.2692075508196574
1240000000.0 0.22869197942567457 0.32164840925998756
1260000000.0 -0.17938668980191022 -0.3795292399973911
1280000000.0 -0.33719328361754836 0.2705997195531269
1300000000.0 0.4396175281633848 -0.028311649488910424
1320000000.0 0.32328973337278805 -0.2969499437516966
1340000000.0 0.3215512698358068 -0.29174397202299934
1360000000.0 0.4342488874938947 0.04993916270428796
1380000000.0 0.3872569446732092 -0.2008060184456518
1400000000.0 -0.3223378267612668 -0.28595551071259
1420000000.0 -0.09022369672730858 0.40603809572962346
1440000000.0 0.3085922119395763 -0.23758595833542562
1460000000.0 -0.30969960415528736 -0.17402055265300093
1480000000.0 0.022549729814056 0.3191184820552176
1500000000.0 0.263959413987036 0.09563448612814482
1520000000.0 0.23202269822848068 0.08351099217365021
1540000000.0 -0.06897354849795839 -0.20451852886292352
1560000000.0 0.040184272627410006 0.17769074806473636
1580000000.0 0.1011064182157652 -0.12224869982360992
1600000000.0 0.13100404742626837 -0.0007019495274965614
1620000000.0 -0.027094409674095328 0.1036412015608595
1640000000.0 -0.059411740338570516 -0.06195499960796986
1660000000.0 0.0644914262122809 -0.007596093180698504
1680000000.0 0.041050303251775645 -0.0254637969326774
1700000000.0 0.018128099459614626 0.030523976970938116
1720000000.0 -0.01646564966865672 -0.0072124092980211186
1740000000.0 0.001726463915630566 -0.0016125444463643715
1760000000.0 -0.021696326302105776 0.004906600321712415
1780000000.0 -0.027200629029085856 -0.04754593420877747
1800000000.0 0.009876117605502572 0.09235106879583568
1820000000.0 -0.10680912286331061 -0.0754910043849743
1840000000.0 -0.17015451865647352 -0.03710652238112498
1860000000.0 -0.05787935458635334 -0.20614900031080893
1880000000.0 0.234236421470244 -0.1007084068961752
1900000000.0 0.0486117093303523 0.2931187789119337
1920000000.0 -0.31840432730684626 -0.0719524616015373
1940000000.0 0.2993053875091893 0.187513406452916
1960000000.0 -0.009123124603701608 -0.3728220267454411
1980000000.0 -0.38485071272919297 -0.0220122073365081
2000000000.0 -0.39385668535949536 -0.06572226670102996
2020000000.0 -0.3738906441486454 0.1723212940601796
2040000000.0 -0.3502467332338534 0.23638714050138493
2060000000.0 -0.021654523916301252 0.428531449894921
2080000000.0 0.32608905826379975 0.28178870417329027
2100000000.0 0.4266771899236775 0.0009897762892134892
2120000000.0 0.2584478747861301 -0.33170331927808466
2140000000.0 -0.06667118462881953 -0.4059913857862019
2160000000.0 0.18910805239484255 -0.34847316873078693
2180000000.0 -0.22076591975664472 -0.30944631010038653
2200000000.0 -0.35971169492951804 -0.04357192528156198
2220000000.0 -0.34004713146736215 0.06592739461953935
2240000000.0 -0.30993554787746935 0.14347942045586715
2260000000.0 -0.27627530131918787 0.19964900426152016
2280000000.0 -0.13796626036700632 0.31526850619020796
2300000000.0 0.19398658360526322 0.2980777070538572
2320000000.0 0.3764947607552299 -0.030678594236143095
2340000000.0 -0.0006507925081304171 -0.4108908313120516
2360000000.0 -0.31542829232677416 0.32428907340420565
2380000000.0 0.424730728389206 -0.264718375982744
2400000000.0 -0.48291892008153453 0.26541113685295314
2420000000.0 0.35804868135646445 -0.48644775943536955
2440000000.0 -0.004107662775452139 0.6545448420183712
2460000000.0 -0.5219940003369112 -0.4620145193726202
2480000000.0 0.7277200897553429 0.06993282127117775
2500000000.0 -0.7540289133983554 0.004276515046337193
2520000000.0 0.7667591657986293 0.024750175561413852
2540000000.0 -0.7219792949122444 -0.27011185562370266
2560000000.0 0.4120186636259506 0.6480475292556148
2580000000.0 0.2685298242734931 -0.7062125955760343
2600000000.0 -0.6725766913136926 0.29291292769842575
2620000000.0 0.6769997676125233 0.20211773780034725
2640000000.0 0.6476444834038751 -0.18104224978729644
2660000000.0 -0.5688347689293903 -0.2699825617494909
2680000000.0 0.2717284397987684 0.5167157826685226
2700000000.0 -0.07710792928581092 -0.5304284804978914
2720000000.0 -0.0072909566529565555 0.4860227588274696
2740000000.0 0.2442542622211851 -0.3629426758691201
2760000000.0 -0.3054316192466124 0.24758345184045172
2780000000.0 0.34686050869520385 -0.09266670691769875
2800000000.0 -0.33034440849252145 -0.01205347525322729
2820000000.0 0.3102720080163666 -0.04560010889531826
2840000000.0 -0.27777040779484347 0.12619100661151808
2860000000.0 0.10060034612647976 -0.28738880380706444
2880000000.0 0.2708277374361904 0.14387423218471665
2900000000.0 -0.24341676932413195 0.191925795077461
2920000000.0 0.2320386568018963 -0.21122813516212377
2940000000.0 -0.2945331243265819 0.11543820431192006
2960000000.0 0.12255668289565785 0.2924424493423719
2980000000.0 0.2142251845612175 0.2353471365533336
3000000000.0 0.019560980146472416 0.3152951130897486
3020000000.0 -0.3007791245477932 0.08628208050415506
3040000000.0 0.17471086497472132 -0.25242525047888514
3060000000.0 -0.1174706259619771 0.2798867035537865
3080000000.0 0.24654208986127527 -0.1706593343705229
3100000000.0 -0.2957852338687048 -0.024215373409682345
3120000000.0 0.2844634776937702 -0.0743410796334212
3140000000.0 -0.14792059502422644 0.24811824824743337
3160000000.0 -0.14922685031519975 -0.23304839226256335
3180000000.0 0.06701302117488986 0.2540722393265457
3200000000.0 -0.1400749499150249 0.19629207291118378
3220000000.0 -0.1441033789534372 0.15825544871863315
3240000000.0 -0.16297614195925342 0.07869295188166546
3260000000.0 -0.13542274813179236 -0.046152452818124405
3280000000.0 0.0910304676009892 -0.05376964350746652
3300000000.0 -0.06745005926423124 -0.02224522592083752
3320000000.0 0.0023765134871756213 -0.04193248240312861
3340000000.0 0.020594854849295012 0.002110721502710581
3360000000.0 -0.0037391055830996163 0.009285815079272492
3380000000.0 0.005380927725980278 -0.006236090566251885
3400000000.0 0.010781678550054859 -0.0031774520098690655
3420000000.0 0.002075439785706385 0.022158994091733445
3440000000.0 0.037640660165959586 0.010112107660934134
3460000000.0 0.05179023648975739 0.019105746424871558
3480000000.0 -0.051746430792719206 0.052641605745952356
3500000000.0 0.06292568029456924 0.06676940887995637
3520000000.0 -0.024024706846741434 0.10168698808454293
3540000000.0 -0.042837836085347254 0.10757262677426133
3560000000.0 -0.052297237088736695 -0.11290522945009536
3580000000.0 -0.033589071243580376 0.1288497733528227
3600000000.0 0.07760252052381927 -0.12506131462328018
3620000000.0 0.0018046789490587755 0.15870733191719505
3640000000.0 -0.12974964322754814 -0.11354426427333034
3660000000.0 0.10687750195756467 -0.15244286876221902
3680000000.0 0.15391902742899738 -0.11972011288158542
3700000000.0 0.0592769046806568 -0.18968732764083743
3720000000.0 0.09303582965071706 -0.17506783796568642
3740000000.0 -0.011545499269744514 -0.1904730763325015
3760000000.0 0.053311022602230765 0.17568724545700062
3780000000.0 -0.11778877282856133 -0.12278967175903754
3800000000.0 -0.11916094395862098 0.1059476392842963
3820000000.0 -0.10999830290457648 0.1002561316893154
3840000000.0 -0.02156057731188114 -0.13868663601818199
3860000000.0 -0.06776847742104013 0.126192027690294
3880000000.0 -0.13135758066888448 0.07618235406882166
3900000000.0 0.13026286023278325 0.09592407902505429
3920000000.0 -0.16784786966076654 0.002459462423289796
3940000000.0 -0.055267734723837426 -0.16211982915472997
3960000000.0 0.04279738876350261 -0.16906386164181067
3980000000.0 -0.16404495539496247 -0.05145454373132649
4000000000.0 -0.15052861954223987 -0.06116053809358087
