!Created with skrf (http://scikit-rf.org).
# Hz S RI R 50.0 
!freq ReS11 ImS11
400000000.0 -0.7066894327378768 0.5130474051792709
420000000.0 0.5030571343027466 0.7105191914730293
440000000.0 0.6264385137220598 -0.5595668711106473
460000000.0 -0.21987360350285814 -0.76013042980671
480000000.0 0.7108910048347684 0.1328727951872251
500000000.0 -0.5767862295707801 -0.16563286910005665
520000000.0 0.48682356248938713 0.09745714323323777
540000000.0 -0.17516948997541526 -0.3741610910016559
560000000.0 -0.03222587502653194 0.3665656864812978
580000000.0 -0.23208517282951477 0.24332144771100248
600000000.0 -0.0042721670478316764 0.33223255423208475
620000000.0 -0.1358666584182737 -0.3148691712684805
640000000.0 -0.12177976292824443 -0.34341501069036046
660000000.0 -0.12680254140185437 -0.35208090274257076
680000000.0 -0.21388562822470178 0.3298661746249541
700000000.0 -0.032851591510681864 0.40453442076729396
720000000.0 0.009781265853859565 0.41848142628479207
740000000.0 -0.3481587621640684 -0.23883522818505118
760000000.0 0.09420855243150487 0.3974782517545145
780000000.0 -0.3007386829251716 -0.23914640682087457
800000000.0 0.32913920842279387 0.14391620956096232
820000000.0 0.1990381197833594 0.24368352323671089
840000000.0 -0.2204799256393382 0.15210891363109327
860000000.0 -0.2131363178809199 0.06256194879801696
880000000.0 0.05977266879270319 -0.16526659297693921
900000000.0 -0.115819764385939 0.005380296771142909
920000000.0 0.058348426501925975 0.0451463488784678
940000000.0 -0.0514823147017702 0.012682373955325222
960000000.0 -0.02986090006464714 0.05495525057631196
980000000.0 -0.00607241584951821 -0.07517578605955282
1000000000.0 0.07646688654318254 0.0367881028990666
1020000000.0 0.08251076325405286 0.04402153232084202
1040000000.0 0.0015784512543275473 0.10213673294176198
1060000000.0 -0.042145715979464864 0.13105081053293743
1080000000.0 -0.06583538809793488 -0.1402635312488849
1100000000.0 -0.05609092013321888 -0.17167623271273708
1120000000.0 -0.18768617038445692 0.08117716220635009
1140000000.0 -0.10833973954319372 0.21536549422159815
1160000000.0 0.15569923450987944 0.22537372866949215
1180000000.0 -0.08822819629012128 0.3011190264078474
1200000000.0 -0.22192376555963644 0.26187505248263865
1220000000.0 -0.016368296747279434 -0.3739004214979937
1240000000.0 0.005257776876228222 0.39537086689635403
1260000000.0 0.040412755909838775 -0.41746926796047307
1280000000.0 -0.419287972414182 0.10070263875088063
1300000000.0 0.4061145066473638 0.16737388713631943
1320000000.0 0.40990212428131073 -0.15322214969021386
1340000000.0 0.39481953498868794 -0.177799549588909
1360000000.0 0.39982096183204946 0.1730609875076424
1380000000.0 0.41686227270528065 -0.12357598555469311
1400000000.0 -0.28770012662706745 -0.319203412145437
1420000000.0 -0.11954560735353752 0.39742089541621967
1440000000.0 0.3118297123906629 -0.23145291236432405
1460000000.0 -0.30971144707625226 -0.1724857946829568
1480000000.0 0.0025128791184545595 0.31880203600063994
1500000000.0 0.2573545100870643 0.11092143993430001
1520000000.0 0.20694633671124635 0.13521205565902322
1540000000.0 -0.03891407799491321 -0.21323839077856152
1560000000.0 -0.013546909937705047 0.18291649992761638
1580000000.0 0.15297203517621943 -0.049328854010683605
1600000000.0 0.13010955584177902 0.02675315137353047
1620000000.0 -0.056637240760961265 0.09286892884521154
1640000000.0 -0.04395770686549128 -0.07495920141692998
1660000000.0 0.0628582470796808 0.01768666483393621
1680000000.0 -0.011624439035497732 -0.046818443524314406
1700000000.0 0.03407929937010703 -0.007188648072347827
1720000000.0 0.0025543656783979947 -0.01617513875625999
1740000000.0 2.227850537140673e-06 0.0034584536910546955
1760000000.0 -0.000597372098613367 -0.02403516095508125
1780000000.0 -0.01349040549597991 -0.05433951235090036
1800000000.0 0.024183753966071468 0.09086914851373627
1820000000.0 -0.12757857075615858 -0.030595041873982275
1840000000.0 -0.17474750612292084 -0.0016589043368084254
1860000000.0 -0.09658784715422435 -0.19077787745618033
1880000000.0 0.2094883043769269 -0.14398820773994747
1900000000.0 0.08407545333875839 0.28376704880017933
1920000000.0 -0.3208148347727538 -0.0526123792674711
1940000000.0 0.3090731596049527 0.16873365049295966
1960000000.0 -0.002082629315400746 -0.3724314945134339
1980000000.0 -0.38088665861972076 -0.060813038261895894
2000000000.0 -0.39534402427482523 -0.0597911437297652
2020000000.0 -0.37614767603453436 0.17080735568757838
2040000000.0 -0.34746984558619254 0.2435350456274076
2060000000.0 -0.008521754405296065 0.4307394976474379
2080000000.0 0.3419030643819765 0.2659111690600337
2100000000.0 0.4263502844632339 -0.03807526939629502
2120000000.0 0.26543410998804506 -0.32710813515477777
2140000000.0 -0.028336561353904572 -0.41096185791088297
2160000000.0 0.22331944723324929 -0.3279166832512715
2180000000.0 -0.14312398781923547 -0.35317409965172114
2200000000.0 -0.34718915289178864 -0.10666422266580664
2220000000.0 -0.3441179482429639 -0.05212455305816371
2240000000.0 -0.3296804990050785 0.09267126119844867
2260000000.0 -0.3058558178229042 0.15299086468428352
2280000000.0 -0.1644990259839239 0.30320404556434766
2300000000.0 0.1808037720075286 0.30674565155018196
2320000000.0 0.3768655615237245 -0.030972910921563596
2340000000.0 0.01563754001528391 -0.41047027085750715
2360000000.0 -0.32220207015200814 0.3172767401230739
2380000000.0 0.4443270630595431 -0.22912808883775845
2400000000.0 -0.49736026491365315 0.23710190347506652
2420000000.0 0.38703879431430627 -0.4646523476123325
2440000000.0 0.005616991526671033 0.6552096247854163
2460000000.0 -0.5140465460645613 -0.4724774359545149
2480000000.0 0.7223908482194956 0.11749407131342472
2500000000.0 -0.7542611967950301 0.01074890303532834
2520000000.0 0.7657851512938971 0.04871282875750346
2540000000.0 -0.6808026872558923 -0.36303164663276627
2560000000.0 0.3398483996712995 0.6891444621996743
2580000000.0 0.3540901555904194 -0.6678229406308406
2600000000.0 -0.7005493222772788 0.221028477765858
2620000000.0 0.628437478212676 0.3246183711317116
2640000000.0 0.6626258940243611 -0.11895732479538156
2660000000.0 -0.5455984721564358 -0.3154416571745897
2680000000.0 0.260271555159504 0.5230492089847086
2700000000.0 -0.09206571855643361 -0.5285036295438804
2720000000.0 0.022002795726753396 0.4860457256802333
2740000000.0 0.19222026630612457 -0.39336436898946653
2760000000.0 -0.30198910605437473 0.2526772905729298
2780000000.0 0.3446930924639656 -0.10206687491763707
2800000000.0 -0.33168221646573587 -0.017010180953700143
2820000000.0 0.3116662612664399 -0.0505532343418749
2840000000.0 -0.28268432731468923 0.11970249651907239
2860000000.0 0.10483496363966657 -0.28849028598601245
2880000000.0 0.2666060687010262 0.1567619424802634
2900000000.0 -0.2762431729737062 0.14488068096007414
2920000000.0 0.25127445337471965 -0.18956318159170868
2940000000.0 -0.31348231234068674 0.05027178863621678
2960000000.0 0.0013528199873932211 0.3170633384452399
2980000000.0 0.09453491832746111 0.3026922919419423
3000000000.0 -0.12207427370292806 0.2910373614504191
3020000000.0 -0.3082387929340665 -0.04559725187820585
3040000000.0 0.22139910332780263 -0.2120280886594175
3060000000.0 -0.23231949404227176 0.19357690846174408
3080000000.0 0.2839786096383423 -0.09220273865390238
3100000000.0 -0.2929861437167102 0.04493484162654277
3120000000.0 0.29196290903607935 -0.01390099655473154
3140000000.0 -0.14155221498242385 0.2494920800626845
3160000000.0 -0.19900256986083897 -0.18918297748237028
3180000000.0 0.17566722676193605 0.1941328148209973
3200000000.0 0.010294990778703852 0.23952027152153096
3220000000.0 -0.014343036564574509 0.21243269396857858
3240000000.0 -0.03797934241490264 0.17531526086995572
3260000000.0 -0.11036861444141263 0.09046697149423245
3280000000.0 0.011475109106830706 -0.10529367359154936
3300000000.0 -0.009334486748077341 0.07139447021147552
3320000000.0 -0.029647826221633717 0.03251777495935475
3340000000.0 0.0171967102141683 -0.014546934501253484
3360000000.0 -0.00220931557849129 0.009722487916202819
3380000000.0 -0.00011575203101859263 0.0037790659902397325
3400000000.0 -0.008282915163378873 0.00462675950457419
3420000000.0 -0.0017803864424669445 -0.022661304803214533
3440000000.0 0.012261353926242013 -0.03712397543739452
3460000000.0 -0.04841966335568743 0.028059539030900884
3480000000.0 -0.07319773324102394 0.012156245995752855
3500000000.0 -0.03366157118430315 0.08439747426686363
3520000000.0 -0.09234692206634196 0.04641012625408922
3540000000.0 -0.11072279174938451 0.03068267461840087
3560000000.0 0.09606657318661134 -0.07768193280334612
3580000000.0 -0.1316029105961119 0.010327251470351398
3600000000.0 0.14564642481205883 0.013139480376781662
3620000000.0 -0.10436462188032809 0.11922489486035759
3640000000.0 -0.062364476155110316 -0.15989056332398557
3660000000.0 0.11535705521227678 -0.14503434441871935
3680000000.0 0.1551262181237911 -0.11657567664810452
3700000000.0 0.05568552883396293 -0.18912720001327638
3720000000.0 0.06253515244185158 -0.18720158558486996
3740000000.0 0.02083130945262769 -0.1888019517708688
3760000000.0 0.029135974754130104 0.17871170142638942
3780000000.0 -0.10487640999986618 -0.13159010562487067
3800000000.0 -0.11999243401575754 0.10146185417297984
3820000000.0 -0.07672387001167623 0.12586681377368691
3840000000.0 -0.05430974919597987 -0.12843861999600453
3860000000.0 -0.03623207323381139 0.1382668877960228
3880000000.0 -0.09502392172735868 0.11744366908035775
3900000000.0 0.12708560627405577 0.0988335191910529
3920000000.0 -0.1670952760371488 -0.0021071149696354355
3940000000.0 -0.053793416338947186 -0.16134048272608495
3960000000.0 0.05465100825081828 -0.1652130961160199
3980000000.0 -0.17123556255373118 -0.020099234314271023
4000000000.0 -0.12412935975808477 -0.10621638356767321
