!Created with skrf (http://scikit-rf.org).
# Hz S RI R 50.0 
!freq ReS11 ImS11
400000000.0 -0.7216484440021316 0.4893187452760759
420000000.0 0.513234477224938 0.702117822523457
440000000.0 0.6131824139013042 -0.5723554014464138
460000000.0 -0.22629655228703144 -0.7579791830117842
480000000.0 0.7094358888080543 0.1406063881431558
500000000.0 -0.5874326364849889 -0.12217745372573645
520000000.0 0.48075590486394204 0.12325975505984796
540000000.0 -0.16528432383301742 -0.37871864358577634
560000000.0 -0.041145169107937224 0.36627445407614206
580000000.0 -0.21963077741576276 0.25410829404305263
600000000.0 -0.025053500684523777 0.331259642506205
620000000.0 -0.10441353704623015 -0.32686770301383955
640000000.0 -0.1468707811148655 -0.33335505622136935
660000000.0 -0.13207650797435858 -0.35001534405470575
680000000.0 -0.2109984787714163 0.3321016790193317
700000000.0 -0.043722216735324955 0.40306201498903854
720000000.0 0.06487531848961291 0.4141628964585523
740000000.0 -0.3652128054999116 -0.21342735156253273
760000000.0 0.12255565906415107 0.3901562945332012
780000000.0 -0.29196731431477935 -0.25062506713229865
800000000.0 0.330347973218512 0.1409957942369214
820000000.0 0.21644118415725608 0.22795912509185784
840000000.0 -0.21741564005639274 0.15547195667810645
860000000.0 -0.2090580516496772 0.07489191717640674
880000000.0 0.08257688854957844 -0.15448723143806148
900000000.0 -0.11481882807964104 0.00013977798730792934
920000000.0 0.0731168626412047 0.000303388014826418
940000000.0 -0.041540297522307375 0.03375191663282636
960000000.0 -0.031559851880125674 0.054132474601636844
980000000.0 0.0061212786929559 -0.07539609987675223
1000000000.0 0.06509531371532346 0.054513678584407185
1020000000.0 0.07907191955228311 0.04953460941257912
1040000000.0 -0.015320306308620883 0.10088809388916647
1060000000.0 -0.05975433725460398 0.1235592736905216
1080000000.0 -0.060044918843817165 -0.1426073359625196
1100000000.0 -0.0617031529536669 -0.169219450243376
1120000000.0 -0.17025067344015293 0.11298717800548046
1140000000.0 -0.10387665581659108 0.2173215122320962
1160000000.0 0.16762604054878344 0.21636796820886936
1180000000.0 -0.048301977124775346 0.3097903816120859
1200000000.0 -0.19526221914732322 0.2820183911598077
1220000000.0 -0.05171792654503436 -0.3705058046493262
1240000000.0 0.03123747716543973 0.39381310840571876
1260000000.0 0.01981415972442297 -0.419229175624386
1280000000.0 -0.41773835649547314 0.10914896743009761
1300000000.0 0.40687278846767366 0.16623947570609748
1320000000.0 0.41427172279418145 -0.1417730668571089
1340000000.0 0.40078910248413474 -0.16461439552615326
1360000000.0 0.4008402978060443 0.17114007460208622
1380000000.0 0.41649535163838586 -0.12576134829613228
1400000000.0 -0.2828656946371514 -0.32357291083551915
1420000000.0 -0.11670895991045593 0.3979015072912567
1440000000.0 0.3069071980566898 -0.23807891897444206
1460000000.0 -0.3055596403405158 -0.17881691303610675
1480000000.0 0.018165430479439068 0.3181181961522956
1500000000.0 0.2599609430337969 0.10402118476266124
1520000000.0 0.21121529923171123 0.12785500541519176
1540000000.0 -0.022972635546234813 -0.21552146538021347
1560000000.0 -0.01813639010389113 0.18241572438291662
1580000000.0 0.14500241197499844 -0.06906324448767066
1600000000.0 0.13010235763886405 0.027632356298906213
1620000000.0 -0.02370707372063796 0.10653593590990053
1640000000.0 -0.06494664375266544 -0.05770567934310137
1660000000.0 0.06515393072125933 -0.00651710256080881
1680000000.0 0.02168027837190321 -0.04303025092306209
1700000000.0 0.03486171693142414 -0.0023543242781995186
1720000000.0 0.01650494401958614 -0.0003189439924126199
1740000000.0 -0.0009282782440456906 -0.0037936960830687616
1760000000.0 -0.02281659798555547 -0.007421434906749101
1780000000.0 0.009743462541314469 -0.05508118268381448
1800000000.0 0.0038714267105195745 0.09372852696195177
1820000000.0 -0.12378791521085562 -0.04408788797243865
1840000000.0 -0.174615314105136 0.0010947924587463463
1860000000.0 -0.0886951834529516 -0.1940734638178461
1880000000.0 0.20871076560220125 -0.14445033910323252
1900000000.0 0.08249865402599559 0.2838796560117182
1920000000.0 -0.32235938289768545 -0.040227810891368475
1940000000.0 0.3021058703015863 0.18050206384305398
1960000000.0 -0.004647206009097606 -0.3722528512929806
1980000000.0 -0.38136517284892146 -0.05757473112137025
2000000000.0 -0.3968744810630815 -0.04987661494101651
2020000000.0 -0.3571724737901311 0.20836775144180147
2040000000.0 -0.3555898732527431 0.23178722655453832
2060000000.0 0.012489746549612699 0.4311874877317263
2080000000.0 0.34985818556634474 0.2557929585939576
2100000000.0 0.4261592433318609 -0.04173547763759199
2120000000.0 0.27644673184595053 -0.31857312428039053
2140000000.0 -0.04875707502187065 -0.40905904062634685
2160000000.0 0.2060458709545233 -0.33913271478151097
2180000000.0 -0.15298927319230277 -0.3480249277262282
2200000000.0 -0.3459773740821324 -0.10979548833359387
2220000000.0 -0.3477206471006031 -0.007682386772152644
2240000000.0 -0.3290062345210761 0.09500228446652871
2260000000.0 -0.2965594592478358 0.17001904638157653
2280000000.0 -0.17268005715471138 0.2987360282169537
2300000000.0 0.20348717103654837 0.2920166282903489
2320000000.0 0.37395648506754714 -0.05585268182578837
2340000000.0 -0.0030695459401738493 -0.4110659731301731
2360000000.0 -0.31358646686770736 0.32612999610689586
2380000000.0 0.4463411676582382 -0.22612775524620032
2400000000.0 -0.4967406590846524 0.23933508851386906
2420000000.0 0.385470081859532 -0.4661312530111016
2440000000.0 -0.03094235725882708 0.6546896838364886
2460000000.0 -0.5022761763262148 -0.4850523178605536
2480000000.0 0.7099917645482817 0.17773865522499
2500000000.0 -0.7536428843556829 -0.026288668794743005
2520000000.0 0.7626759039033555 0.08367994121747922
2540000000.0 -0.672677491065055 -0.3762797827414421
2560000000.0 0.35262837887445486 0.6819065173307498
2580000000.0 0.3279419466542565 -0.6805263925297864
2600000000.0 -0.6838295222880703 0.26699721363456713
2620000000.0 0.6170234093123702 0.34409220170338806
2640000000.0 0.6594585371254428 -0.13335947762328604
2660000000.0 -0.5566321712776398 -0.29567636740640485
2680000000.0 0.3113333758054372 0.4948172411560256
2700000000.0 -0.1165399467743316 -0.5240966180135755
2720000000.0 0.021020813262055946 0.48607269221606036
2740000000.0 0.19493433396081983 -0.39199666908078806
2760000000.0 -0.29210070840222907 0.264393936995156
2780000000.0 0.3467037526072806 -0.09620696784355548
2800000000.0 -0.33072217447666086 -0.032940227362309255
2820000000.0 0.3148754809473132 -0.025294576968132036
2840000000.0 -0.293294953812434 0.09108422178686433
2860000000.0 0.14129268630497335 -0.27304833204033174
2880000000.0 0.2567526058640274 0.1722322722168735
2900000000.0 -0.2867916024430527 0.122288541337326
2920000000.0 0.2775446566466279 -0.14855904802768877
2940000000.0 -0.3131528899257989 0.04834287544317876
2960000000.0 -0.004013285125318874 0.31657007967802225
2980000000.0 0.07423144648081341 0.30803124645049906
3000000000.0 -0.07028066475201096 0.3073858348445936
3020000000.0 -0.30995647812533894 0.032714296193863304
3040000000.0 0.1793903945558446 -0.24813740922559793
3060000000.0 -0.2000800824953841 0.22673479803835317
3080000000.0 0.2811669409250309 -0.1005685828485676
3100000000.0 -0.29466995109505517 -0.02249618082897485
3120000000.0 0.2725883554536742 -0.1063936216862364
3140000000.0 -0.11381858137504758 0.26427495509504123
3160000000.0 -0.21149632979935412 -0.1763345721585762
3180000000.0 0.16261842985378472 0.20544700545670547
3200000000.0 -0.014475264041336876 0.23942511345378129
3220000000.0 -0.05318758324677643 0.20552310236345198
3240000000.0 -0.07014928771630047 0.16521803027747392
3260000000.0 -0.11553265856458385 0.08285592782280345
3280000000.0 -0.008858553743725548 -0.10452010880630047
3300000000.0 -0.04749389264899414 0.05279834828414468
3320000000.0 -0.034236493037485875 0.026771103490555115
3340000000.0 0.01890315062036868 -0.010129320244896822
3360000000.0 -0.00221500607871771 0.008853429708027237
3380000000.0 0.0020594815070927174 -0.003853822110111771
3400000000.0 0.004170897026576093 0.00967877224427932
3420000000.0 -0.02144137742083101 -0.009427604238991694
3440000000.0 0.0006644422516179722 -0.03994659707763365
3460000000.0 -0.03581824727945495 0.04408784127731192
3480000000.0 -0.061537205103456984 -0.040396256821627216
3500000000.0 -0.051675147533711344 0.07456477849888445
3520000000.0 -0.09710521636737897 0.0360894211531612
3540000000.0 -0.11480789331041831 -0.00798872157911738
3560000000.0 0.09228598459485599 -0.08177791087673719
3580000000.0 -0.12925583966258103 -0.024451625602638444
3600000000.0 0.14531897536188373 0.01922350341325992
3620000000.0 -0.14253972366798093 0.0675362944947847
3640000000.0 -0.007149094745486415 -0.17051212468392032
3660000000.0 0.1361781038027939 -0.12601413676694692
3680000000.0 0.16740264045362444 -0.09737618705891221
3700000000.0 0.04324660861650409 -0.19206015895329845
3720000000.0 0.02808539378555437 -0.19419871511900091
3740000000.0 0.0011823887668360202 -0.18927145158294256
3760000000.0 0.05873100876070826 0.1707025597191419
3780000000.0 -0.10098098933994853 -0.1336369538584603
3800000000.0 -0.1112043181582914 0.11096926070830762
3820000000.0 -0.0794767480372389 0.12328730266327
3840000000.0 -0.05966504856533907 -0.12499659861318739
3860000000.0 -0.05790858540440434 0.12959045764703778
3880000000.0 -0.11971132627561498 0.09136072535375546
3900000000.0 0.10674066290884322 0.11969058323024126
3920000000.0 -0.16176597310356744 -0.04142536231715905
3940000000.0 -0.014541387989477872 -0.16942413145759413
3960000000.0 0.08491705851785063 -0.1516487404677315
3980000000.0 -0.16253027364952266 -0.05505546914397282
4000000000.0 -0.08635551633098132 -0.13838520955521785
