!Created with skrf (http://scikit-rf.org).
# Hz S RI R 50.0 
!freq ReS11 ImS11
400000000.0 -0.7036853521473273 0.5187306908190377
420000000.0 0.4790764541659206 0.7287687997873354
440000000.0 0.6860648397631111 -0.4877173569565718
460000000.0 -0.21729132013522262 -0.7622168838556234
480000000.0 0.7125527694493411 0.12035791603017669
500000000.0 -0.5335508263972739 -0.27501944358090935
520000000.0 0.4978043677407484 0.027237487066679892
540000000.0 -0.2292586498039935 -0.3417089476612943
560000000.0 -0.1391910005129821 0.33978221051577745
580000000.0 -0.26155743319693736 0.21197512726995596
600000000.0 0.07495948579796433 0.32343408766337167
620000000.0 -0.08192567922188879 -0.33067946444903507
640000000.0 -0.14051180042982175 -0.33468787769385483
660000000.0 -0.18384431966584794 -0.3247630280319794
680000000.0 -0.1409082255163939 0.36715281403453776
700000000.0 0.04016603259060294 0.4028365855721655
720000000.0 0.06920712385667609 0.41339027638856357
740000000.0 -0.37961858167304635 -0.18504004246887054
760000000.0 0.14661130383700366 0.38183991676733836
780000000.0 -0.32356181674517664 -0.210074023114718
800000000.0 0.3193363419536592 0.16664602823366306
820000000.0 0.1710344634259141 0.2652560269630715
840000000.0 -0.2573416939605992 0.07370591211520282
860000000.0 -0.2183544162946096 -0.0390283820380963
880000000.0 0.11947485963845457 -0.12617013892820628
900000000.0 -0.1096298902598168 -0.029188051066246383
920000000.0 0.07173286793571075 -0.002741872455558496
940000000.0 0.0508029712883231 0.01616162459498695
960000000.0 0.0377422568645143 0.05192530698147677
980000000.0 -0.01679416792423467 -0.07538773606852711
1000000000.0 0.028760767548061072 0.08192490798570816
1020000000.0 0.003907690877574708 0.09485654031534198
1040000000.0 -0.0961550236873671 0.03576079743241963
1060000000.0 -0.13244751244687042 0.036108972667682135
1080000000.0 0.045331993799649174 -0.14681408700146018
1100000000.0 0.0231698656249444 -0.1768625160389653
1120000000.0 -0.19654150775954507 0.046506238971765514
1140000000.0 -0.08889868651963424 0.22109328624562516
1160000000.0 0.2094321357607614 0.1720965707001594
1180000000.0 0.0189907722293874 0.31108884973004663
1200000000.0 -0.1148980018111824 0.32153300955608927
1220000000.0 -0.1586978797680987 -0.33755339795569894
1240000000.0 0.13736625545573938 0.3702456471269185
1260000000.0 -0.08164100757409955 -0.411493074165725
1280000000.0 -0.3857724749701499 0.19354678035595277
1300000000.0 0.43000672834841797 0.09423294278896538
1320000000.0 0.39896801062301984 -0.1816999788517267
1340000000.0 0.3943495766008591 -0.1813219192528354
1360000000.0 0.40267958416723426 0.16884008289977281
1380000000.0 0.42417101756686226 -0.09910039207863348
1400000000.0 -0.25455742879177157 -0.3466000303228996
1420000000.0 -0.17387772186309922 0.37708301336219413
1440000000.0 0.3499171843798301 -0.1678729581425855
1460000000.0 -0.2770529671838882 -0.22010666237492224
1480000000.0 -0.045874430568381495 0.31475935873541894
1500000000.0 0.24028951237790852 0.14157416258564431
1520000000.0 0.18316753543574743 0.16387324574654485
1540000000.0 -0.028895509953441766 -0.21311874580487566
1560000000.0 -0.006245550506173923 0.18191698612927598
1580000000.0 0.13458881947344067 -0.08546542254122769
1600000000.0 0.13202006993147353 0.0021245699682089217
1620000000.0 6.612683019014316e-06 0.10819820787907876
1640000000.0 -0.08537973813226699 -0.016041808166737125
1660000000.0 0.03622088082139334 -0.054889419187249364
1680000000.0 -0.03204879773957385 -0.03688030834506462
1700000000.0 0.03560017087266231 0.0018660754743364673
1720000000.0 0.011248746950412013 0.01329465552203292
1740000000.0 -0.002227309270835574 -0.001110953225371203
1760000000.0 -0.004386625290783643 0.02307887323869528
1780000000.0 -0.05348855056305827 -0.016664291967344633
1800000000.0 0.07561633381329481 0.0565762804667835
1820000000.0 -0.13048436657412715 0.017908514867409436
1840000000.0 -0.1715104666963803 0.03732318037087888
1860000000.0 -0.11228043826331353 -0.18297196900206808
1880000000.0 0.20902734748158447 -0.14599942673979954
1900000000.0 0.07106387926125907 0.2876755546333159
1920000000.0 -0.3171146276113365 -0.073310968874958
1940000000.0 0.28490324759759056 0.20680041333532476
1960000000.0 0.03931821935891669 -0.3701412774933679
1980000000.0 -0.37475351178011934 -0.0890675569296833
2000000000.0 -0.38850850771224726 -0.09182695348496932
2020000000.0 -0.3810910116048178 0.15749802169221824
2040000000.0 -0.36221089251631833 0.21973825819735193
2060000000.0 0.022060029561581325 0.42919082753448623
2080000000.0 0.3548572217584242 0.2467262610796915
2100000000.0 0.4182100287876683 -0.08721358047774523
2120000000.0 0.24307997863002845 -0.3433562300121041
2140000000.0 -0.0932023623268785 -0.40054362957270473
2160000000.0 0.17667702363869273 -0.35479781255651177
2180000000.0 -0.17593039894329543 -0.3379904758536135
2200000000.0 -0.36168820747398955 -0.03194219245014645
2220000000.0 -0.34573651710361586 -0.04477145395352069
2240000000.0 -0.3179615825147181 0.1298509361562501
2260000000.0 -0.3067171675168061 0.15187494455702372
2280000000.0 -0.16909840651478394 0.30133285990112063
2300000000.0 0.17559558603688288 0.3102771262044763
2320000000.0 0.3769963595464417 -0.035873015971154366
2340000000.0 0.03569858851184396 -0.40946552436638456
2360000000.0 -0.33078423975781795 0.30865318456822505
2380000000.0 0.45024233609540004 -0.21734798654464357
2400000000.0 -0.5059128382282354 0.21810377858688465
2420000000.0 0.37707952930188765 -0.4723454141867526
2440000000.0 0.014454798092716138 0.6546852706033274
2460000000.0 -0.5234287384266296 -0.4610871980306767
2480000000.0 0.7249200824615349 0.0962320928850994
2500000000.0 -0.7523587464766444 0.045952945269244184
2520000000.0 0.766919162442537 0.0060468776814848356
2540000000.0 -0.716881210837041 -0.2838567661064071
2560000000.0 0.3991218563725329 0.656310705333282
2580000000.0 0.28232192000385614 -0.7012891122906192
2600000000.0 -0.6689900884816363 0.30422603334969467
2620000000.0 0.6595866846355664 0.2567148514998209
2640000000.0 0.6438611236897853 -0.19903523336328335
2660000000.0 -0.5825739727237048 -0.24250448808788697
2680000000.0 0.3418480429390473 0.47485274452273246
2700000000.0 -0.14498047493726882 -0.5177224665877384
2720000000.0 0.040768865659456685 0.48570725196030295
2740000000.0 0.1876336306709347 -0.39660234023292296
2760000000.0 -0.3110576480977492 0.24269478214485832
2780000000.0 0.35256047091516707 -0.07230813523705859
2800000000.0 -0.3255126378833195 -0.06717569148184942
2820000000.0 0.31543230445476317 -0.004894987433332064
2840000000.0 -0.2951043320419366 0.08349416029997181
2860000000.0 0.15608173375294307 -0.2640923160412809
2880000000.0 0.23928042634061236 0.1947836575695103
2900000000.0 -0.28419663860466954 0.1270374336149168
2920000000.0 0.25407400004246916 -0.1842622692639258
2940000000.0 -0.3010669746168557 0.09657127827948313
2960000000.0 0.06318175199668957 0.3096009786452106
2980000000.0 0.14933548421427273 0.2790394434482556
3000000000.0 -0.028070628955179706 0.3128575893457926
3020000000.0 -0.30005561240715206 0.0818480713623395
3040000000.0 0.17716184999925805 -0.24979686708042226
3060000000.0 -0.16735807108955034 0.2522316921292492
3080000000.0 0.25379089958759093 -0.157796512246032
3100000000.0 -0.29416996105674764 0.035996440700868326
3120000000.0 0.26444029723134915 -0.1273356909999983
3140000000.0 -0.06318087353867884 0.2808871696393335
3160000000.0 -0.23626720711767527 -0.14208886736209836
3180000000.0 0.1934011357004827 0.1778937658057355
3200000000.0 0.023650982547876887 0.23987823632605257
3220000000.0 -0.03051064205541493 0.21153914180215178
3240000000.0 -0.07018171989709074 0.16629943627821528
3260000000.0 -0.13680229257174262 0.042579227935577516
3280000000.0 0.043246937190997016 -0.0970220357249755
3300000000.0 -0.06600253668632573 0.02890821614203283
3320000000.0 -0.03817708222096716 -0.021428798049793456
3340000000.0 -0.011377065646982413 0.019530685900981996
3360000000.0 0.00963445174773831 0.0036328684374186027
3380000000.0 0.0017247739636362027 -0.004573580133058498
3400000000.0 -0.008781468400358119 0.004242979262295743
3420000000.0 -0.007793733592859285 0.021332801906899828
3440000000.0 -0.03921336835799228 -0.0015476003765188995
3460000000.0 0.013002958610285938 0.054683085577227696
3480000000.0 -0.03809634308568541 0.06387902675687222
3500000000.0 0.00543023374915512 0.0909553572970971
3520000000.0 -0.03054508026182586 0.09960973615177882
3540000000.0 -0.0706626308016111 0.09169690799865142
3560000000.0 0.07181609423808687 -0.10101727936013272
3580000000.0 -0.11701440545076253 0.0629797896712692
3600000000.0 0.1438766817580923 -0.029288156748743854
3620000000.0 -0.07716554158338129 0.1391249871862492
3640000000.0 -0.0994548506362453 -0.14130826854554004
3660000000.0 0.09617982568528902 -0.1592666198782608
3680000000.0 0.13257087436164816 -0.1431514939101563
3700000000.0 0.032889603195939504 -0.19529599724147215
3720000000.0 0.06632616564517152 -0.18671700831195576
3740000000.0 0.007717955580965802 -0.19054202813190305
3760000000.0 0.024056199904504246 0.1806973985953665
3780000000.0 -0.10007160436366888 -0.1362973934702507
3800000000.0 -0.13141845073870562 0.08783173574231683
3820000000.0 -0.10085357881621984 0.10951970753555543
3840000000.0 -0.03671789781012275 -0.13565459360412147
3860000000.0 -0.045554624113410054 0.1360474428771852
3880000000.0 -0.10611617405323326 0.10894003301480745
3900000000.0 0.12332056755027795 0.10451408719723063
3920000000.0 -0.16586558675942045 -0.02520088570419111
3940000000.0 -0.01916461690577587 -0.16990600473978917
3960000000.0 0.0632165913446485 -0.1630236088499344
3980000000.0 -0.16125841332869417 -0.06233113512338738
4000000000.0 -0.09187599348099873 -0.13586810661281817
