! Created with skrf (http://scikit-rf.org).
# Hz S RI R 50.0 
!freq ReS11 ImS11
400000000.0 -0.8598189890430813 -0.05119044202139462
420000000.0 -0.10403167140484938 0.8572790066215373
440000000.0 0.7752306613595492 0.31186049472159616
460000000.0 0.7745855627056965 -0.1508765969219105
480000000.0 0.26251882784492786 0.6858448119879924
500000000.0 -0.17997223118392394 -0.5693189323133296
520000000.0 -0.4572687421156006 0.2389927201412679
540000000.0 -0.4140629029156888 0.14409046741060763
560000000.0 0.3374314730084271 0.18524737496842522
580000000.0 0.06752812316704157 0.32616907590978317
600000000.0 0.18765359671147974 0.28794175200893296
620000000.0 -0.012143450222368792 0.3433918025783386
640000000.0 -0.25762188453592244 -0.23644426480519576
660000000.0 0.00869925540503081 -0.37121802600614084
680000000.0 -0.17589350899232045 0.34407004928863427
700000000.0 -0.08866223977936857 0.4053377829256338
720000000.0 0.06381378019319055 0.4133292738024771
740000000.0 -0.39961893651918867 -0.16790640097555246
760000000.0 0.3900609510541005 -0.145552765154539
780000000.0 -0.321373038349259 0.21545279127700676
800000000.0 0.07930251432067034 -0.3449836898761483
820000000.0 0.28957698875432436 0.07914606582434663
840000000.0 -0.2573478761383866 -0.00967506353372706
860000000.0 -0.01580287858845423 -0.20443089247354
880000000.0 -0.16400551079820214 0.02866839604109045
900000000.0 0.04634659092660616 -0.08196028307614522
920000000.0 0.04631852424551253 -0.029396197506241954
940000000.0 -0.03827821895573468 0.023544881273820553
960000000.0 -0.03379488071374173 -0.03726471652345932
980000000.0 0.06014415615392836 0.02305124156595263
1000000000.0 -0.06197084471080265 0.052310282182839826
1020000000.0 0.044664470656019764 0.08703725523329894
1040000000.0 0.06670518663416354 -0.09745693689886356
1060000000.0 -0.06857071721746956 -0.13425273191686093
1080000000.0 0.1153794778779449 -0.12876285668172643
1100000000.0 0.08408113022500362 0.16811796946897026
1120000000.0 0.202750891194981 0.047256521001103044
1140000000.0 -0.2392964025608082 -0.004988497322245
1160000000.0 -0.031585571115501344 -0.26880383367715804
1180000000.0 0.044777195605502314 -0.3053039500410089
1200000000.0 0.24524151110956288 0.22553244351346155
1220000000.0 -0.34156932990744426 -0.12618703498508735
1240000000.0 -0.1361172795000679 0.3601899685601793
1260000000.0 0.3929074115649165 -0.14815852537854954
1280000000.0 -0.4316609133403262 -0.056147983870740416
1300000000.0 0.27899705278601966 0.35471957751013494
1320000000.0 0.2162208947349968 -0.3923491334081819
1340000000.0 0.24961883876740368 -0.37093187738279504
1360000000.0 -0.01501314209620315 -0.4398761992197308
1380000000.0 -0.2225817258264377 -0.3767621961726965
1400000000.0 -0.27069759713166325 0.3228301726868506
1420000000.0 0.1559422388634906 0.37133166141823365
1440000000.0 0.29928565578958394 -0.22791896001930012
1460000000.0 0.09397784891614167 -0.33132511687782396
1480000000.0 -0.3016225513148736 -0.09029990568225806
1500000000.0 -0.24925044835369137 0.13690168090613325
1520000000.0 -0.10213881536658763 0.23305143987587526
1540000000.0 -0.026305001316251003 -0.22587662163943406
1560000000.0 0.1946231739725008 -0.018681417949217616
1580000000.0 0.019477793980821688 0.16476960701515875
1600000000.0 0.1379144824874529 0.005977929090479821
1620000000.0 0.10613554563031047 0.005875871529332867
1640000000.0 -0.06761800760063666 0.0475614205354259
1660000000.0 -0.051283332085465885 -0.03022554117904934
1680000000.0 0.0018949218137390576 -0.039441305480297076
1700000000.0 -0.017547117138942313 -0.01726657309951752
1720000000.0 -0.005540611632787979 -0.002881353876995983
1740000000.0 0.013386084672681865 0.0036041101700929326
1760000000.0 0.032398440669568714 0.007177659166020408
1780000000.0 0.04479102626468166 0.047638357927892575
1800000000.0 -0.08051123564827481 0.060507308614750906
1820000000.0 0.13137199660431717 0.006881513078726682
1840000000.0 -0.07976817121828604 -0.14489426017741344
1860000000.0 0.07633082970075401 0.1867871219342945
1880000000.0 0.18847529192927578 -0.1456864380247959
1900000000.0 -0.2810840568083853 -0.018063444102062166
1920000000.0 0.3162895738490927 -0.046113090400344905
1940000000.0 -0.33079824172270694 -0.12508258333988653
1960000000.0 0.2597999575437638 0.2807196399399395
1980000000.0 0.03155249299982618 -0.40096417921911487
2000000000.0 -0.4198046337350717 -0.014538060699474902
2020000000.0 0.07873205435303389 0.4220028507927567
2040000000.0 0.42372983753952204 0.0926233502165651
2060000000.0 0.24611213010056368 -0.35477557851566105
2080000000.0 0.09164698622017145 -0.41575814219784546
2100000000.0 -0.053319245353308245 -0.4142117497874516
2120000000.0 -0.03747036608467818 -0.40915899198882083
2140000000.0 -0.18919128708466768 -0.3556264388215392
2160000000.0 0.3014861853375523 -0.25214711584947047
2180000000.0 0.005633448234658205 -0.3827909783387612
2200000000.0 -0.3006531556347944 -0.2200068542660241
2220000000.0 -0.32647009188879256 0.1622773290404679
2240000000.0 0.1123260019616091 0.34044629687506617
2260000000.0 0.3462155290122778 0.0878541008011865
2280000000.0 0.2699663733038284 -0.23452678684370615
2300000000.0 -0.08409274194165296 -0.3596750743008987
2320000000.0 -0.3863920152834523 -0.05537186908807735
2340000000.0 -0.09935209834744893 0.4103546344441534
2360000000.0 0.41157066268120807 -0.2102022038346843
2380000000.0 -0.506560108671886 0.0652422950471596
2400000000.0 0.5330212539087936 -0.17914897146634512
2420000000.0 -0.33637848799896936 0.5134763582572088
2440000000.0 -0.16998287505610982 -0.6384496970946059
2460000000.0 0.6117027949913393 0.33632869161303447
2480000000.0 -0.7254782382535649 0.03233588669034313
2500000000.0 0.7425381956866973 -0.053492427984432725
2520000000.0 -0.7527345210529609 -0.03660031124333315
2540000000.0 0.6209807586250895 0.4283891374070388
2560000000.0 -0.15674156463959882 -0.7304557979247557
2580000000.0 -0.5323071261747635 0.5012311903186906
2600000000.0 0.7004314743296733 0.08925382253205046
2620000000.0 -0.34911445118162976 -0.5789970071239773
2640000000.0 -0.5468424848294094 -0.332827362220208
2660000000.0 -0.06801554830870324 0.5919693385377712
2680000000.0 0.48411728588144887 -0.262333029763191
2700000000.0 -0.4740071295902096 -0.17280388824955634
2720000000.0 0.3134111875365002 0.33334431029193456
2740000000.0 -0.04615683109163645 -0.41049218138577515
2760000000.0 -0.15566789787434435 0.33940876876900833
2780000000.0 0.1389836119134239 -0.3112344241124398
2800000000.0 -0.22596976781517372 0.21799715636386488
2820000000.0 0.1553930176935004 -0.2523740082994129
2840000000.0 -0.11660145266396316 0.2631828866527999
2860000000.0 -0.024447036770372795 -0.28424352629864663
2880000000.0 0.22296873752232507 0.18326370949607476
2900000000.0 -0.2913372434891254 -0.009643173197966924
2920000000.0 0.28108459350870846 0.10038880240215718
2940000000.0 -0.26181698834758527 -0.15681638689629937
2960000000.0 -0.06525947044825636 0.29990066189938425
2980000000.0 0.23163765110619114 0.2033979791767667
3000000000.0 0.08203740883322436 0.2962456825154711
3020000000.0 -0.23329869007158285 0.19641455263812102
3040000000.0 0.05164942111554689 -0.2939892741047633
3060000000.0 -0.05433553763229505 0.2908509588086867
3080000000.0 0.12263207983863698 -0.2660861872114914
3100000000.0 -0.14499983036026098 0.25183372613417104
3120000000.0 0.17847308449472374 -0.22110594702426642
3140000000.0 0.010516492552007425 0.27790561936568303
3160000000.0 -0.17120703743230725 -0.20302026518697738
3180000000.0 -0.0015885366905537418 0.2497872683789043
3200000000.0 -0.22752923671318073 0.023835356567584464
3220000000.0 -0.10024215762159083 -0.17804226080414423
3240000000.0 0.06775812015477801 -0.1601428224631606
3260000000.0 0.13218835501941945 0.045427764779626734
3280000000.0 -0.0696530933558569 0.07920351950913003
3300000000.0 0.04481204629582555 -0.05683190402030737
3320000000.0 -0.032551631005203335 -0.028274045110487526
3340000000.0 -0.01831979536870885 -0.0025265597354576503
3360000000.0 0.002239827587957859 0.0023542877694270837
3380000000.0 0.010273580023072118 0.005607530109781127
3400000000.0 0.011326541317151918 -0.017685768080820022
3420000000.0 -0.02597540607894201 -0.015568153577765306
3440000000.0 -0.026954991564998827 -0.030442736159278755
3460000000.0 0.05032338568744028 0.00014384722680749163
3480000000.0 -0.06276228976182309 0.0068346217520040406
3500000000.0 -0.06329877783474099 0.04900992697871998
3520000000.0 0.05778914956053157 -0.0774266745851868
3540000000.0 0.11293493932305278 -0.006691202836891048
3560000000.0 0.003867946701430646 0.1260242841890295
3580000000.0 -0.0624650971655331 -0.12246566274465363
3600000000.0 0.15213361397829034 0.02717295074363246
3620000000.0 0.12842227386210972 0.10206645636543243
3640000000.0 -0.11040510940086867 0.1358553549059579
3660000000.0 -0.15700321989845692 -0.09330133870105685
3680000000.0 0.03703845056320243 -0.18539526175857277
3700000000.0 0.16878249703720372 -0.08678970486128797
3720000000.0 0.11588545621865848 0.15314539767048618
3740000000.0 0.07671654671463797 0.17229504885264865
3760000000.0 -0.15374197248991406 -0.09993970096348939
3780000000.0 0.1666594320858361 -0.05034997609886614
3800000000.0 -0.1111668925695674 -0.11913219343587413
3820000000.0 -0.15107031910410756 -0.021966450949131567
3840000000.0 0.08040096504336676 -0.1193977190810031
3860000000.0 -0.04262234781888346 0.13765505751107057
3880000000.0 -0.15261817386274829 0.0044931928163568806
3900000000.0 -0.026407086544305416 0.1569108289408057
3920000000.0 0.10933097107326478 -0.1262760295823776
3940000000.0 0.14512871929815585 0.09696987122690591
3960000000.0 0.15441674650678167 0.09085621116649453
3980000000.0 -0.027528248357990615 -0.17576707847738116
4000000000.0 -0.13194740883824407 -0.10259371566862269
