! Created with skrf (http://scikit-rf.org).
# Hz S RI R 50.0 
!freq ReS11 ImS11
400000000.0 -0.8578431130544433 -0.05860895979272399
420000000.0 -0.12466705755432254 0.8542769647049068
440000000.0 0.764774544433098 0.33750821867180575
460000000.0 0.7740250205669749 -0.15559616851762384
480000000.0 0.27391926808099226 0.6808890988185665
500000000.0 -0.12417908520742169 -0.5840092463971079
520000000.0 -0.45151662751085936 0.2515998327617086
540000000.0 -0.4197655937338974 0.125356352257941
560000000.0 0.3381352711585506 0.1831451696324071
580000000.0 -0.02650131328595497 0.33248428178005035
600000000.0 0.18539453673058665 0.2902069181853406
620000000.0 0.012489594457417454 0.3425292275825739
640000000.0 -0.20995779899442346 -0.27892991827492425
660000000.0 0.005722920852899275 -0.37125570214496284
680000000.0 -0.15558634040163394 0.3545192125097797
700000000.0 -0.07555487308136903 0.40762197565994096
720000000.0 0.05011754564882112 0.4150395919008846
740000000.0 -0.40838568413878307 -0.14508933254340092
760000000.0 0.3875325998988806 -0.15261163708863226
780000000.0 -0.322477866571632 0.2137007071702424
800000000.0 0.08490953060095674 -0.3434654946637211
820000000.0 0.2904200576355842 0.07672500119942262
840000000.0 -0.2573601750905525 -0.01011764882835768
860000000.0 -0.0017477878980143714 -0.20472743013138886
880000000.0 -0.1647933604747792 0.020471552084948937
900000000.0 0.04982069398800213 -0.0796823249719546
920000000.0 0.032694643071950004 -0.04388030940574875
940000000.0 -0.006256310689205792 0.044822984681747384
960000000.0 -0.045213593455570446 -0.022196967715008883
980000000.0 0.05981984009974703 0.024043904292861507
1000000000.0 -0.06247037648329875 0.05166303621335682
1020000000.0 0.0528141304586479 0.0825906483639605
1040000000.0 0.05291486501372538 -0.10524954312510265
1060000000.0 -0.06600288679933305 -0.13523750770238765
1080000000.0 0.11418944178240611 -0.12938904471854717
1100000000.0 0.09494480729195029 0.1619682063418817
1120000000.0 0.19931053269695162 0.05895252198182589
1140000000.0 -0.23840173048328103 -0.020198091033899426
1160000000.0 -0.028211680790171195 -0.2691201046136889
1180000000.0 0.04732143509448511 -0.3047836619086316
1200000000.0 0.24442822003666106 0.22631902759752498
1220000000.0 -0.3420697927993795 -0.12466458039938587
1240000000.0 -0.1280055843531076 0.3634002903997838
1260000000.0 0.39064447982501305 -0.1541450456108862
1280000000.0 -0.43334120919324304 -0.04043616805015618
1300000000.0 0.28183558425496946 0.3521676070966432
1320000000.0 0.21772586793980944 -0.3912068204652447
1340000000.0 0.23593057878043514 -0.379745820677536
1360000000.0 -0.02346341094149128 -0.43940852424361315
1380000000.0 -0.23418889287149453 -0.3695615448680934
1400000000.0 -0.2515979707292366 0.3377832946596693
1420000000.0 0.18108362720527382 0.3593867632585951
1440000000.0 0.2903048625408137 -0.23891709619153514
1460000000.0 0.08794149587649075 -0.3329833881450886
1480000000.0 -0.2979655689304336 -0.10237218308272197
1500000000.0 -0.24665139254116966 0.1412797558784222
1520000000.0 -0.09849579107927993 0.23465857829840264
1540000000.0 -0.020538166599549074 -0.22646475623399534
1560000000.0 0.19531943542244096 -0.01265752155028363
1580000000.0 0.0186717721278241 0.1649106394958337
1600000000.0 0.13771552162116754 -0.009221640190501505
1620000000.0 0.10308766664218195 -0.02585820688605938
1640000000.0 -0.051293173536510576 0.06438354788196222
1660000000.0 -0.05755124174297788 -0.014212904465907105
1680000000.0 -0.030085711719792782 -0.025033631763492787
1700000000.0 0.00683248771974608 -0.02340574202691824
1720000000.0 -0.0033185850029946 0.005294996604493815
1740000000.0 0.0006478325106376363 0.013388036138153387
1760000000.0 0.032801613412148906 0.002719261550602351
1780000000.0 0.06179019196398203 0.020740094487334947
1800000000.0 -0.046569175626650396 0.08949857914794633
1820000000.0 0.13056364893435557 -0.015578349686056677
1840000000.0 -0.10287193980400236 -0.1296985093342535
1860000000.0 0.0804562973091214 0.18493767319269605
1880000000.0 0.19063240823761574 -0.1428038545767157
1900000000.0 -0.28050711996525707 -0.02754974138781943
1920000000.0 0.31894838526602604 -0.02322175819886657
1940000000.0 -0.3236111171277401 -0.14346045442735825
1960000000.0 0.24766970049862017 0.29194063845580703
1980000000.0 0.04606916593721131 -0.39971873327532487
2000000000.0 -0.41901361080099464 -0.029477015163254773
2020000000.0 0.0740734985439983 0.4225249859546637
2040000000.0 0.41820561110179527 0.11384213448045316
2060000000.0 0.2541772155768491 -0.3485141855999493
2080000000.0 0.07587472449571112 -0.4182314283870736
2100000000.0 -0.04681689110259647 -0.41446533266772667
2120000000.0 -0.04299661288021712 -0.40819009328684774
2140000000.0 -0.1976069760773337 -0.3505130337590418
2160000000.0 0.27399915227648736 -0.28145299826697584
2180000000.0 -0.01581426728091907 -0.3821061404472698
2200000000.0 -0.3215836286469926 -0.18770810452425388
2220000000.0 -0.3087284743849957 0.19294776134431849
2240000000.0 0.14131095593468543 0.3295757272872754
2260000000.0 0.34629393531351027 0.08783632255715033
2280000000.0 0.2725930300347856 -0.23151565473445862
2300000000.0 -0.06648107379996016 -0.3635281314279329
2320000000.0 -0.3863675042374954 -0.058580710400875695
2340000000.0 -0.11981122586717491 0.4052157014621746
2360000000.0 0.42925611043394296 -0.17171080755814416
2380000000.0 -0.5106651238606996 0.007361273191644671
2400000000.0 0.5510912136231495 -0.11186778564104155
2420000000.0 -0.38867298633653563 0.4750321339772859
2440000000.0 -0.12137568632027508 -0.6492078134649155
2460000000.0 0.5904117988216293 0.3720510477924006
2480000000.0 -0.7256789989858673 0.0222300278009227
2500000000.0 0.7428943236609954 -0.042976652644384085
2520000000.0 -0.7484289296638333 -0.08646894101860872
2540000000.0 0.6371698864267218 0.40303179316816784
2560000000.0 -0.1819866469125592 -0.7245755828666479
2580000000.0 -0.4902262662280968 0.5423772622966562
2600000000.0 0.7020410239216491 0.07969718910328936
2620000000.0 -0.3528542061985081 -0.5774747513974796
2640000000.0 -0.528721003091944 -0.3616231796123117
2660000000.0 -0.04086113468710259 0.5951132709986723
2680000000.0 0.48129787500592297 -0.26865066198907944
2700000000.0 -0.4749114803350813 -0.17194452591155118
2720000000.0 0.3060410059319714 0.34026149770198516
2740000000.0 -0.006994198769140565 -0.4131322867345399
2760000000.0 -0.17299109024561923 0.33121781235806336
2780000000.0 0.14439591837639648 -0.3089000858607112
2800000000.0 -0.23336338771915344 0.20991922659906523
2820000000.0 0.16879276475322214 -0.24373796260779576
2840000000.0 -0.10924254889737861 0.2658338237739821
2860000000.0 -0.03458975083558208 -0.28297130782694435
2880000000.0 0.22396148313262326 0.18159753533616252
2900000000.0 -0.29119217601625297 0.011086716464561846
2920000000.0 0.29005484900352807 0.06944859684578682
2940000000.0 -0.2734391116987924 -0.13544141408340896
2960000000.0 -0.026693060223238883 0.3057455018576275
2980000000.0 0.2303734504574356 0.20496465632417188
3000000000.0 0.07891338829844469 0.2970953014235112
3020000000.0 -0.24178253021613655 0.18521360662846906
3040000000.0 0.012996292680594958 -0.2980555078533746
3060000000.0 -0.04326870061387753 0.29270447119381854
3080000000.0 0.10038748406126881 -0.2753264901674989
3100000000.0 -0.1184868876080665 0.2650333991846535
3120000000.0 0.11607408101354237 -0.2601243600470118
3140000000.0 0.03140143932664697 0.2761972834294998
3160000000.0 -0.20998315820074648 -0.16304265798851006
3180000000.0 0.060386306622117594 0.24288181983893475
3200000000.0 -0.21572177177237015 0.07671622253007773
3220000000.0 -0.13769568827144327 -0.1513454706420496
3240000000.0 0.040058190424346996 -0.1704929888056458
3260000000.0 0.13941960508849696 0.018051930356159953
3280000000.0 -0.056506773542015776 0.0901925589123875
3300000000.0 -0.0035606367848232162 -0.07379625685503241
3320000000.0 -0.03865015909052976 -0.021682693614990495
3340000000.0 -0.019341259550260746 -0.004681613501241864
3360000000.0 -0.0013781031456263654 0.003847685400578293
3380000000.0 -0.0031387138757331713 -0.009809606332914441
3400000000.0 0.0009669818326567534 -0.019620795965096475
3420000000.0 -0.028058344747625134 -0.008055126357658675
3440000000.0 -0.036825752615277804 -0.014106561295215732
3460000000.0 0.0475272126084437 0.0123224225854476
3480000000.0 -0.06121516738526413 0.010360662834801327
3500000000.0 -0.06554918990999745 0.04368521935758148
3520000000.0 0.03185714243771777 -0.09025617891190052
3540000000.0 0.11185986387803916 -0.0014499932821102986
3560000000.0 -0.00618416123820271 0.12471446838159175
3580000000.0 -0.0764621775412868 -0.11312240605136635
3600000000.0 0.15013207408475174 -0.035658587969883804
3620000000.0 0.1423730754530702 0.0793208904518878
3640000000.0 -0.08642975043851439 0.15095284613784066
3660000000.0 -0.1743144324530284 -0.05268326861330703
3680000000.0 -0.010381492517055646 -0.18834492825712626
3700000000.0 0.1437739333515252 -0.12347281481995312
3720000000.0 0.14004142195304603 0.13087445429935615
3740000000.0 0.11847569998424609 0.1469310256029628
3760000000.0 -0.16460208104684687 -0.08171210834188976
3780000000.0 0.15469041310171092 -0.0808361518838343
3800000000.0 -0.134482963845477 -0.0926780287446528
3820000000.0 -0.15079731298636653 0.02407627027680783
3840000000.0 0.07452395112489246 -0.1241330253947665
3860000000.0 -0.028322155504410557 0.14178933203068048
3880000000.0 -0.1509747236912294 0.024817422022276374
3900000000.0 -0.007881674863137273 0.1592584615306709
3920000000.0 0.10282745748900242 -0.13274523570288926
3940000000.0 0.1601657247910817 0.06997214078392934
3960000000.0 0.1694531504566058 0.05912412805521126
3980000000.0 -0.024649838818469966 -0.1767569875686444
4000000000.0 -0.12865442774585453 -0.10767140415176338
