! Created with skrf (http://scikit-rf.org).
# Hz S RI R 50.0 
!freq ReS11 ImS11
400000000.0 -0.8611728364658643 -0.028399784498689965
420000000.0 -0.10243764567374455 0.8578149436051807
440000000.0 0.7935295916882377 0.2618820730656149
460000000.0 0.7749472151884419 -0.1458963845991012
480000000.0 0.2517299219012632 0.689417232719852
500000000.0 -0.17212345452544153 -0.5732888922120312
520000000.0 -0.44120934310939347 0.26669539960100286
540000000.0 -0.42110264823645105 0.11916132095232954
560000000.0 0.31558229519587544 0.22022557586052882
580000000.0 0.030808116459120263 0.3331929464144073
600000000.0 0.22158928592995597 0.2614874085505051
620000000.0 -0.0030626013003113525 0.34328617177073445
640000000.0 -0.23625479190599866 -0.25727334090595283
660000000.0 0.003489837767316232 -0.37187332797548556
680000000.0 -0.17312742140359416 0.34607899941301357
700000000.0 -0.09638423856284813 0.4035446909523209
720000000.0 0.05252311004995882 0.4149211630175568
740000000.0 -0.4068873656321067 -0.14838511333950968
760000000.0 0.39879869993778705 -0.11901634234667959
780000000.0 -0.31080376801447956 0.23075910656724358
800000000.0 0.07553660416424901 -0.3458128339074033
820000000.0 0.28630767041866073 0.09049430970758716
840000000.0 -0.257010215731831 -0.013982128148891016
860000000.0 -0.010231617665417164 -0.2044724145876279
880000000.0 -0.1645137414076315 0.025783217599863177
900000000.0 0.04819942002996138 -0.08102783325916256
920000000.0 0.04346685138111397 -0.03418128380411076
940000000.0 -0.04026048329038447 0.019144606683273
960000000.0 -0.0272536416450324 -0.04206748083302932
980000000.0 0.06314140198957029 0.01240722594420412
1000000000.0 -0.04962583052771864 0.0642332308616404
1020000000.0 0.05494928605178815 0.08099614951070896
1040000000.0 0.0572090307289252 -0.10331380150236545
1060000000.0 -0.06215842777803969 -0.13714958558542706
1080000000.0 0.11351349545262311 -0.1300165924237361
1100000000.0 0.07209854559506748 0.17342900327534422
1120000000.0 0.19901266962915776 0.06029934059395273
1140000000.0 -0.23825544511038146 -0.02186714060926118
1160000000.0 -0.008503218163801014 -0.2702775647165935
1180000000.0 0.057999601658110064 -0.30294680997301127
1200000000.0 0.22893680786060916 0.2414951477482881
1220000000.0 -0.3318051121332828 -0.14898677074468855
1240000000.0 -0.11569037129461959 0.3673269088351701
1260000000.0 0.38651083214847665 -0.1635363281909795
1280000000.0 -0.43384300263944703 -0.03304253851105482
1300000000.0 0.2993145177094606 0.3372688065133411
1320000000.0 0.20080439179366985 -0.4001895548144066
1340000000.0 0.22569058767501465 -0.38592735978897547
1360000000.0 -0.03337426146185829 -0.4388590148789448
1380000000.0 -0.24004228961169516 -0.3659482967098092
1400000000.0 -0.24056524302227936 0.34568479711290495
1420000000.0 0.1686748186211539 0.36569344107106505
1440000000.0 0.28739175927516764 -0.24255626462131172
1460000000.0 0.08768189608772002 -0.33318388042116637
1480000000.0 -0.31377313152047576 -0.025825019237682333
1500000000.0 -0.24586340154767733 0.1423902970974283
1520000000.0 -0.10258386747968457 0.23283903833617706
1540000000.0 0.0034745211605715816 -0.22774706770529032
1560000000.0 0.19119449108474837 -0.04108189556492269
1580000000.0 0.021438907329552306 0.1645824851897118
1600000000.0 0.13807290942772993 0.003813163205498952
1620000000.0 0.10545658184629943 -0.011955224273992612
1640000000.0 -0.059332139191743245 0.05674350383250084
1660000000.0 -0.05693682235602275 -0.014933910910358835
1680000000.0 -0.03307128257679454 -0.02147514157917295
1700000000.0 -0.023073023478175744 -0.008244117320278221
1720000000.0 -0.005368514170456509 0.0031781611619489517
1740000000.0 0.011820402378222433 0.00687796627442412
1760000000.0 0.027777999253675082 -0.01801394573784821
1780000000.0 0.06378831091588959 0.014264916641227981
1800000000.0 -0.06192693303300089 0.07899472337888017
1820000000.0 0.13020556362635613 -0.02045973571080945
1840000000.0 -0.10243017732001977 -0.12998983902727332
1860000000.0 0.08225835948059286 0.18413415879939682
1880000000.0 0.18836626764445535 -0.14602055267426794
1900000000.0 -0.2797530463510369 -0.03518642773776709
1920000000.0 0.31889206043189644 -0.02585292340300785
1940000000.0 -0.3220112504551949 -0.14697634137141458
1960000000.0 0.24539524871893093 0.2937469353534754
1980000000.0 0.04665401544207623 -0.39963981502540635
2000000000.0 -0.4191931483215624 -0.024641449514692135
2020000000.0 0.08421484716234798 0.4205136046665828
2040000000.0 0.4099453428088377 0.14067424219072946
2060000000.0 0.22482037185085638 -0.36777209499177516
2080000000.0 0.10266648004035618 -0.412546061166909
2100000000.0 -0.0699830757925241 -0.4111120250144199
2120000000.0 -0.02753941314464062 -0.4098029995019268
2140000000.0 -0.2069690256919615 -0.34519271752655534
2160000000.0 0.27336527867339405 -0.28242772714884823
2180000000.0 -0.006819167135393798 -0.38260524135656865
2200000000.0 -0.32264940667145225 -0.1859297410705546
2220000000.0 -0.2933856812839802 0.2156082657023834
2240000000.0 0.0996848033532196 0.3447983815693913
2260000000.0 0.34345788800356186 0.09865082276117668
2280000000.0 0.2777318658522273 -0.22580775175064952
2300000000.0 -0.041099708512670495 -0.3671577821463906
2320000000.0 -0.3853113628498237 -0.06549303018938483
2340000000.0 -0.14827975648834077 0.39534518978922356
2360000000.0 0.42980763767928765 -0.16916730937368255
2380000000.0 -0.5094342463934903 0.033044889883181265
2400000000.0 0.5426895580990544 -0.14657185626594244
2420000000.0 -0.35774144095911087 0.49868175294995953
2440000000.0 -0.15391283650656748 -0.642090757304272
2460000000.0 0.5913207820045426 0.37094391206592503
2480000000.0 -0.7253245580903669 0.032361931191945505
2500000000.0 0.7445631549528736 -0.012194093044858913
2520000000.0 -0.7440445323965783 -0.12001397443298073
2540000000.0 0.6388696591153156 0.40070336882516877
2560000000.0 -0.16339192163293223 -0.7290895904663293
2580000000.0 -0.4943612701470199 0.5388710019745899
2600000000.0 0.696483822144576 0.11931498725203261
2620000000.0 -0.23677424244328402 -0.633640413008046
2640000000.0 -0.514442095405728 -0.38133690386926805
2660000000.0 -0.0473985666959177 0.5943226482175092
2680000000.0 0.47623747511466197 -0.27719815578391943
2700000000.0 -0.47899485407889186 -0.1592624200612053
2720000000.0 0.3273695593016004 0.31969772498910004
2740000000.0 -0.0743023687953786 -0.4066593365665644
2760000000.0 -0.15088768811977832 0.34192436383888786
2780000000.0 0.12684006588387123 -0.31654442109800013
2800000000.0 -0.22521282203221488 0.21881859455537198
2820000000.0 0.16680214473370375 -0.2452466096985355
2840000000.0 -0.09309366672876226 0.2719872429087764
2860000000.0 -0.02413223080045196 -0.28412243253439196
2880000000.0 0.21049790147045203 0.19767664509053673
2900000000.0 -0.2920121443547805 -0.001124183267092081
2920000000.0 0.28716299978695836 0.08049843745086932
2940000000.0 -0.2645799826374111 -0.15140381728590196
2960000000.0 -0.07659938458874462 0.2973966034729746
2980000000.0 0.24478946881834274 0.18732333179342087
3000000000.0 0.08468462572909063 0.29493734445380426
3020000000.0 -0.24990525951722972 0.1736480226201543
3040000000.0 0.054400798313508116 -0.2934607698206446
3060000000.0 -0.020463765115878784 0.2950007353834028
3080000000.0 0.11621335447535976 -0.26849291443236983
3100000000.0 -0.12317207014681332 0.26306030665974556
3120000000.0 0.16264655532882596 -0.2335672706989706
3140000000.0 0.0715972348707416 0.268912247100922
3160000000.0 -0.20934181102404614 -0.1639533318769513
3180000000.0 0.042228557056827896 0.246861196511836
3200000000.0 -0.21482524418634488 0.08011247122626651
3220000000.0 -0.14061372644654038 -0.14901983775803518
3240000000.0 0.03231905982671801 -0.17182072142485275
3260000000.0 0.1377857656475044 0.02900804549406649
3280000000.0 -0.06303269107332286 0.08603474428018644
3300000000.0 0.017471804484950174 -0.07160172753428375
3320000000.0 -0.020384834366651537 -0.0396933702571534
3340000000.0 -0.018781756302218018 -0.006983032452559055
3360000000.0 -0.002742634232808904 -0.0037995125409458212
3380000000.0 -0.0033611358773869005 0.010061629430489995
3400000000.0 -0.00662871424462127 -0.018461396359935607
3420000000.0 -0.02922915381982728 0.0014195769485522416
3440000000.0 -0.028939765724714 -0.026957329147457833
3460000000.0 0.048188949700754005 0.010206578958071809
3480000000.0 -0.061545627583826104 0.011383222960935514
3500000000.0 -0.0592160012011008 0.05268120011768452
3520000000.0 0.03341919111359365 -0.09011896250225854
3540000000.0 0.11156332906475332 -0.013763337788092758
3560000000.0 -0.005740181347542 0.12501450766636274
3580000000.0 -0.07689092857322304 -0.11358153321229227
3600000000.0 0.15351016783873184 -0.016516100594381168
3620000000.0 0.137932232361038 0.08744600063978812
3640000000.0 -0.10340994817260686 0.1400913699716294
3660000000.0 -0.1726850303093595 -0.059857430609191874
3680000000.0 0.00043242079778833993 -0.18875876163433977
3700000000.0 0.15485677131027384 -0.10951014673028439
3720000000.0 0.13793413299277693 0.1337833817071613
3740000000.0 0.1015093942612059 0.15891691386569526
3760000000.0 -0.15882839021147008 -0.09138636696159655
3780000000.0 0.1651024214261348 -0.056112486449183846
3800000000.0 -0.1248722089971173 -0.104708726606453
3820000000.0 -0.15272781931913018 0.004261687575389927
3840000000.0 0.07909134730814736 -0.1207715808748951
3860000000.0 -0.04380599782007116 0.1380011814737334
3880000000.0 -0.15269306334143032 0.012144503247980583
3900000000.0 -0.013389176923193606 0.15906415949855313
3920000000.0 0.10569855359885219 -0.1298901160153452
3940000000.0 0.1566523648840194 0.07743104189227694
3960000000.0 0.16523575383387115 0.06948785277526058
3980000000.0 -0.03713762695552862 -0.17404132869359565
4000000000.0 -0.1490974592628553 -0.07568328189270866
