! Created with skrf (http://scikit-rf.org).
# Hz S RI R 50.0 
!freq ReS11 ImS11
400000000.0 -0.8586329843786485 -0.04020385447436043
420000000.0 -0.14029713929596374 0.8521707220026439
440000000.0 0.7921352568757208 0.2658788957305942
460000000.0 0.7747972861722769 -0.14627849024111053
480000000.0 0.2633395792848872 0.685108695542306
500000000.0 -0.16231200330443332 -0.5757456524057969
520000000.0 -0.44729370869115637 0.2573123887377104
540000000.0 -0.4119313767149115 0.14761917731855748
560000000.0 0.31011706567704467 0.22754438920039358
580000000.0 0.03064916323673428 0.333068432222835
600000000.0 0.21491642894956425 0.2673950494192091
620000000.0 0.01859734557178182 0.3426006172000302
640000000.0 -0.23006468967550073 -0.26253718085982203
660000000.0 -0.003456955760424499 -0.3717292850446146
680000000.0 -0.1467222574354261 0.35789920815371157
700000000.0 -0.08623026818358387 0.40589862776633334
720000000.0 0.05899106416161736 0.4138961462131241
740000000.0 -0.4007259744407164 -0.1655819365104028
760000000.0 0.4014457821003308 -0.11016310981084887
780000000.0 -0.3149298484023587 0.22503410975830554
800000000.0 0.0822543745912634 -0.34395565210547185
820000000.0 0.2848215509671308 0.09512781247692494
840000000.0 -0.255832157021259 -0.02902592028714832
860000000.0 -0.010518904402573626 -0.20432216389906224
880000000.0 -0.16533202938759908 0.017720933459933606
900000000.0 0.05531517086109432 -0.07626392842665598
920000000.0 0.03881363118086116 -0.0391607075001714
940000000.0 -0.040996845835515654 0.017944625569662687
960000000.0 -0.019547228323474462 -0.04617372468241834
980000000.0 0.06139995581212235 0.019188542166024853
1000000000.0 -0.049956057829413404 0.06364673735716371
1020000000.0 0.05694521147448384 0.0794580396171451
1040000000.0 0.04982728641192155 -0.10683348129851607
1060000000.0 -0.06880384340364373 -0.1338308246033916
1080000000.0 0.11356888377838364 -0.12981386171495363
1100000000.0 0.06664410539654583 0.17554510496110828
1120000000.0 0.19963017098950694 0.05815214824086427
1140000000.0 -0.23812073094401295 -0.022496817689667294
1160000000.0 -0.00021638711124410826 -0.27039334153488703
1180000000.0 0.054712199826613135 -0.3036676142045748
1200000000.0 0.248586534763659 0.22180669857708363
1220000000.0 -0.3409038090369175 -0.12737991055961906
1240000000.0 -0.11719417751332946 0.3668515545928339
1260000000.0 0.391941902259376 -0.15051847685968697
1280000000.0 -0.4338702588741445 -0.033591208283162234
1300000000.0 0.2866492409532116 0.3481430812175767
1320000000.0 0.20109692967236503 -0.4000364441196023
1340000000.0 0.2253980873482345 -0.38592970836814644
1360000000.0 -0.03507114042982382 -0.43871249254959543
1380000000.0 -0.24093074512808543 -0.36526467278262004
1400000000.0 -0.23944052995474552 0.34649170042009947
1420000000.0 0.1732965461748147 0.36338031438490687
1440000000.0 0.2847162460737188 -0.2455807092159381
1460000000.0 0.08532736008419882 -0.33354331849456875
1480000000.0 -0.2885544654994351 -0.1260634501639784
1500000000.0 -0.2563694373356794 0.12269635232067426
1520000000.0 -0.10503570053813707 0.23186557730362878
1540000000.0 -0.021058750998396082 -0.22646073356403548
1560000000.0 0.19513231020978808 -0.013431551678093408
1580000000.0 0.031080737386814404 0.1631288624162984
1600000000.0 0.13764313599341574 -0.009685319498682152
1620000000.0 0.10414442938215046 -0.02018743687142804
1640000000.0 -0.05050817545883859 0.06486971832795274
1660000000.0 -0.0589875104995609 0.0014637515727748578
1680000000.0 -0.025294249888972567 -0.0295783017986931
1700000000.0 0.009872580662453296 -0.02204500686073232
1720000000.0 -0.0004975672537321831 0.006098549921599755
1740000000.0 0.0035659750876483737 -0.013389826655138954
1760000000.0 0.0292822026438174 -0.015173678992318187
1780000000.0 0.064926476109735 0.006233587810607164
1800000000.0 -0.044419135797132 0.09052406329039021
1820000000.0 0.1274785205381635 -0.03204151960059497
1840000000.0 -0.09904096519743524 -0.13248399234953298
1860000000.0 0.08139140706743812 0.1844780497332182
1880000000.0 0.18663490313817857 -0.14806154643250144
1900000000.0 -0.2802374075230917 -0.030759062170842965
1920000000.0 0.31819441138603016 -0.03295087182769804
1940000000.0 -0.3243481184540709 -0.14239574116696677
1960000000.0 0.24544419823397745 0.2939541995651031
1980000000.0 0.05483335506273963 -0.39884316188480706
2000000000.0 -0.41869138294890346 -0.033543430445283594
2020000000.0 0.0758530177370519 0.42228008301670517
2040000000.0 0.4203626342394218 0.10528942538141199
2060000000.0 0.23173557042828768 -0.3633783536010436
2080000000.0 0.1017369510147999 -0.4126924753877309
2100000000.0 -0.07133987296208821 -0.41074779164205594
2120000000.0 0.003094923159012489 -0.41065345304434075
2140000000.0 -0.2086778379490871 -0.34415520102814
2160000000.0 0.27647865551986583 -0.27926729550578183
2180000000.0 -0.024608901323120404 -0.3818341800946454
2200000000.0 -0.3237119832879096 -0.18395801227614944
2220000000.0 -0.28580797383942813 0.22529008146202698
2240000000.0 0.14084667109514473 0.32971012122131216
2260000000.0 0.347018115132783 0.08542758017296573
2280000000.0 0.2762054423808128 -0.22747442749218824
2300000000.0 -0.05717387986074744 -0.3652135357889216
2320000000.0 -0.3823852019036497 -0.07990696362163725
2340000000.0 -0.12097817411910028 0.40497963952349253
2360000000.0 0.42868380970224385 -0.17276013542982824
2380000000.0 -0.5103887666521898 0.00860943804876126
2400000000.0 0.5448215461425435 -0.1385369950302353
2420000000.0 -0.38322360453601373 0.4793638947822713
2440000000.0 -0.14194630139385916 -0.6448542739027397
2460000000.0 0.5910152115830666 0.3710972293105963
2480000000.0 -0.7259591720342755 0.011886385786176828
2500000000.0 0.7437263385002965 -0.028898986398295093
2520000000.0 -0.7494342999023644 -0.07754433494144815
2540000000.0 0.6412214496353021 0.39690956696659957
2560000000.0 -0.18667229029552615 -0.723441687207971
2580000000.0 -0.5056689943789179 0.5283986529865214
2600000000.0 0.6956314954015773 0.1241020932566417
2620000000.0 -0.2566543797431472 -0.626220053791655
2640000000.0 -0.5096137800194374 -0.38822725092147875
2660000000.0 -0.06957539208549174 0.5920496364983149
2680000000.0 0.48981545221015715 -0.25265570257887787
2700000000.0 -0.4754715009308166 -0.1698840785817732
2720000000.0 0.31524516626692445 0.33185433556777866
2740000000.0 -0.023035364905453444 -0.41260635734820206
2760000000.0 -0.1684766832273678 0.3335159936982613
2780000000.0 0.13354778928340622 -0.31391200397805985
2800000000.0 -0.21931137590988803 0.22491648968348432
2820000000.0 0.16165757570181674 -0.24869269323079563
2840000000.0 -0.11000289464914999 0.2656825502475932
2860000000.0 -0.014609592773637202 -0.28521652517124396
2880000000.0 0.22532752932175043 0.179989504431007
2900000000.0 -0.29128375427838216 -0.018491143501157447
2920000000.0 0.2854227981841614 0.08784184985062363
2940000000.0 -0.2818100317312439 -0.1169786280959931
2960000000.0 -0.04905647832132749 0.30297297495433984
2980000000.0 0.23301918944584343 0.20178312392858347
3000000000.0 0.0870161357538694 0.29451339190746423
3020000000.0 -0.23995993212082506 0.18736495842084244
3040000000.0 0.02145083342717057 -0.2972532875624845
3060000000.0 -0.01567076181891297 0.29533800495437085
3080000000.0 0.12195935528686676 -0.26659034682607025
3100000000.0 -0.15106702410287723 0.24780255740253082
3120000000.0 0.13313280979658096 -0.25169228212808054
3140000000.0 0.037754368950662094 0.27570268418641797
3160000000.0 -0.21094504843231346 -0.1621408111486059
3180000000.0 0.07295542918044585 0.2395427211963961
3200000000.0 -0.21858961511502262 0.06879620671205518
3220000000.0 -0.14680092517561386 -0.14278933628407361
3240000000.0 0.03431960103935765 -0.17159336899376665
3260000000.0 0.13826876128946353 0.026214629744501863
3280000000.0 -0.03402068242866783 0.1010284675351419
3300000000.0 0.017627785452522537 -0.0717358476289563
3320000000.0 -0.01692824189678327 -0.04095528556021179
3340000000.0 -0.01976943039438577 -0.0034940439508258743
3360000000.0 0.0039450686240670085 0.0015207438230331284
3380000000.0 0.002149193350150281 0.010399403027967066
3400000000.0 -0.000971648467890817 -0.01960306411212388
3420000000.0 -0.026607083219471507 -0.011274156872171757
3440000000.0 -0.037454954003382966 -0.012822553798639159
3460000000.0 0.03882697607273015 0.02982751682960468
3480000000.0 -0.06133419174982669 0.010553230220365941
3500000000.0 -0.06851419455983475 0.03917613883055751
3520000000.0 0.03174473967552896 -0.09043205292052346
3540000000.0 0.1107158638027981 0.016130451446817445
3560000000.0 0.0019770074217084236 0.12519190653432474
3580000000.0 -0.06787667690474047 -0.11865208283957407
3600000000.0 0.14987963035159688 -0.03799251177022787
3620000000.0 0.13597450331848435 0.08979674032074823
3640000000.0 -0.08491467232634582 0.15228981670099767
3660000000.0 -0.17510727178535979 -0.05168428784766172
3680000000.0 -0.0062503846948121075 -0.18860251828623753
3700000000.0 0.1442018917615298 -0.1232995290894922
3720000000.0 0.14881294707046464 0.12075416681584251
3740000000.0 0.10896669807787486 0.15395042735066677
3760000000.0 -0.16690133762733828 -0.07597045956492737
3780000000.0 0.16558933897528774 -0.055648039050858515
3800000000.0 -0.13720674966448587 -0.0875791758822216
3820000000.0 -0.1510873191965429 0.020971766015549172
3840000000.0 0.0630994841663157 -0.1295978392587568
3860000000.0 -0.01252655887341465 0.14363075376028928
3880000000.0 -0.1516453513063672 0.02080515753724784
3900000000.0 0.0006496830307504897 0.1591977982984521
3920000000.0 0.09501053786675595 -0.13831598942773912
3940000000.0 0.15934029212183676 0.07201783297273977
3960000000.0 0.16340318592613298 0.0746532486523384
3980000000.0 -0.031701278545485254 -0.1755691859458249
4000000000.0 -0.14126901810914716 -0.08974765706161067
