! Created with skrf (http://scikit-rf.org).
# Hz S RI R 50.0 
!freq ReS11 ImS11
400000000.0 -0.8562740703466611 -0.06666683278530564
420000000.0 -0.10662526398932524 0.8564864175713811
440000000.0 0.777154608743264 0.3068130855706263
460000000.0 0.7780522034505603 -0.1284186830453745
480000000.0 0.27846118685921567 0.6793495803808823
500000000.0 -0.15720473228689816 -0.578242713441639
520000000.0 -0.4084899755463798 0.31233428481089154
540000000.0 -0.4259940348514676 0.10670110411036608
560000000.0 0.3422954866253116 0.17495682966704934
580000000.0 0.02974219002111012 0.33329243556786486
600000000.0 0.23011210811073704 0.25349614122787173
620000000.0 -0.005537592386932894 0.3435711137375193
640000000.0 -0.21835640185177896 -0.27352009622906465
660000000.0 -0.06327707462385981 -0.36556804284820726
680000000.0 -0.12579187376804296 0.3650683876469063
700000000.0 -0.06501288020409085 0.40905055749548347
720000000.0 0.13183012465610983 0.3972925181773088
740000000.0 -0.40807375330532564 -0.1472744318929019
760000000.0 0.40393076740891354 -0.10078833543328332
780000000.0 -0.29836596149005573 0.24631726035726426
800000000.0 0.09026415576303196 -0.3417815224582777
820000000.0 0.2858622568571924 0.09294758027226543
840000000.0 -0.25148535221930296 -0.056400065620047915
860000000.0 0.05825864848317994 -0.1956169183986749
880000000.0 -0.16526882230846665 -0.010640178764791584
900000000.0 0.04262030235312014 -0.08320039110053376
920000000.0 0.005594025454962668 -0.054661962912388166
940000000.0 -0.03238314364228032 0.031215603654017748
960000000.0 -0.03113574235577009 -0.03909406604955786
980000000.0 0.04249972619146798 0.04861497441315392
1000000000.0 -0.061958148753646865 0.05214618729218938
1020000000.0 0.0003301649145183045 0.09836146074536975
1040000000.0 0.08972575911303551 -0.0769790450854865
1060000000.0 -0.04291197235679392 -0.14445614450996436
1080000000.0 0.09982302229622352 -0.14093050502932944
1100000000.0 0.103620565700326 0.15673240462775323
1120000000.0 0.204222872997611 0.039814589301906414
1140000000.0 -0.23812137440058423 0.02723620372212852
1160000000.0 -0.025907428843137417 -0.2690496856238397
1180000000.0 0.006662940987707795 -0.3084201656176507
1200000000.0 0.2415118837303717 0.22937068772217503
1220000000.0 -0.33853356597400625 -0.1345922483254818
1240000000.0 -0.17009935719006541 0.345866339698668
1260000000.0 0.3962246313840135 -0.13867962803287442
1280000000.0 -0.429104243771591 -0.07530282416834211
1300000000.0 0.27456217697881585 0.3579961903287866
1320000000.0 0.23708459475300936 -0.38014332702999004
1340000000.0 0.24596378567898738 -0.3736895374070796
1360000000.0 -0.016020746906145456 -0.44006550134879724
1380000000.0 -0.2295018697110582 -0.37253595269834056
1400000000.0 -0.27080715766463953 0.3225137978083056
1420000000.0 0.15263709919268742 0.3720530113659818
1440000000.0 0.2966910109497635 -0.23082984188420147
1460000000.0 0.10604947501564436 -0.32766726822951786
1480000000.0 -0.31143923752349884 -0.048688760188568485
1500000000.0 -0.25040454817494523 0.13460660684901696
1520000000.0 -0.11857931072283563 0.22475077628364934
1540000000.0 0.00039916303937421695 -0.22757006883882722
1560000000.0 0.19553078326648382 0.0033576105114522968
1580000000.0 -0.003732596142480906 0.1659798317311596
1600000000.0 0.12727660514717565 0.053258097210199064
1620000000.0 0.10393667844487428 0.02246183956448858
1640000000.0 -0.0630243080682907 0.05264158472363451
1660000000.0 -0.05785076738607769 -0.01208885883359519
1680000000.0 -0.003284154425174894 -0.03899620743635496
1700000000.0 -0.024234478703940437 0.007072577084556485
1720000000.0 -0.0014051937631338236 0.005783152375245587
1740000000.0 0.004130532643837492 -0.01226238265896612
1760000000.0 -0.022364168749163825 0.024495220247460387
1780000000.0 0.012573882918866758 0.06371662598685933
1800000000.0 -0.08750905025046117 0.04980213949580506
1820000000.0 0.13195254514638471 -0.002170425411983124
1840000000.0 -0.1074090963216359 -0.12639688997500792
1860000000.0 0.10367931699265223 0.17254015418575971
1880000000.0 0.1565044258332147 -0.17934116800218708
1900000000.0 -0.28210723599862375 0.005340235987678808
1920000000.0 0.31312838100813367 -0.06286809391391025
1940000000.0 -0.34038123771071377 -0.0963496536679747
1960000000.0 0.2701415348544279 0.270794905492359
1980000000.0 0.024094893601149043 -0.4018980078925059
2000000000.0 -0.4180934757444058 -0.044463229676106296
2020000000.0 0.08327921110876567 0.42146034513557606
2040000000.0 0.4178463454751826 0.11745977787914107
2060000000.0 0.27026152294815103 -0.3370189597291812
2080000000.0 0.09442781322110519 -0.41525331492035006
2100000000.0 -0.06613175069675022 -0.41205638204813694
2120000000.0 -0.02334974433811934 -0.4101040564606431
2140000000.0 -0.15800976050053792 -0.3698281512733089
2160000000.0 0.27687972292955054 -0.27798717473320034
2180000000.0 0.016865921588340882 -0.38166908153399415
2200000000.0 -0.30537112305792213 -0.21224215789231002
2220000000.0 -0.2719958088149202 0.240922097592408
2240000000.0 0.12529641562161206 0.3350071580037277
2260000000.0 0.35121303752438443 0.06216366752581789
2280000000.0 0.24887017112389814 -0.25654726093817193
2300000000.0 -0.11728050001063796 -0.35043019887479154
2320000000.0 -0.3904699858053696 -0.01021056018097109
2340000000.0 -0.0759881802206534 0.41581085219816233
2360000000.0 0.4044235587565204 -0.22494206917460036
2380000000.0 -0.5052338871741157 0.07766031164121086
2400000000.0 0.5398476726447786 -0.15846501520450168
2420000000.0 -0.3478257230520907 0.5059722878733804
2440000000.0 -0.17229031086140403 -0.6372482416768361
2460000000.0 0.6003886054788897 0.35507420425422453
2480000000.0 -0.7246588940231247 0.027315137900071534
2500000000.0 0.7355978348408901 -0.10517788356168124
2520000000.0 -0.7505188506906285 -0.042780577567519094
2540000000.0 0.65755566281225 0.3648414756139619
2560000000.0 -0.2535494294411424 -0.700730046331898
2580000000.0 -0.5063856295265491 0.5251242689130776
2600000000.0 0.7035746032588795 0.04141397438616007
2620000000.0 -0.3685146652874642 -0.5648233962164451
2640000000.0 -0.5408006112599468 -0.33953943762792177
2660000000.0 0.013169201368135357 0.5945655137532486
2680000000.0 0.4098421126622707 -0.36713886217697383
2700000000.0 -0.4949601997245012 -0.09706862748228393
2720000000.0 0.33662589224674644 0.3101457129202967
2740000000.0 -0.021799031706085506 -0.4129466430527235
2760000000.0 -0.166575141031428 0.33451871561056895
2780000000.0 0.13912239526767226 -0.3109728207386341
2800000000.0 -0.23019716537047918 0.21352744908885404
2820000000.0 0.17811565851101832 -0.2365815421146484
2840000000.0 -0.1274841251465493 0.2575216120091391
2860000000.0 0.02766051346334315 -0.28354048115237407
2880000000.0 0.22250413344695533 0.18157418488707347
2900000000.0 -0.29062097896753875 0.0030737167507526833
2920000000.0 0.29331894760499533 0.05271367213337057
2940000000.0 -0.2904551691216128 -0.09116578564480056
2960000000.0 -0.03484627398445763 0.3045111874131695
2980000000.0 0.20433680730922665 0.23128926372798028
3000000000.0 0.05993018134981031 0.30157169364562775
3020000000.0 -0.21744590185793689 0.2133014408173284
3040000000.0 0.024325575982362815 -0.2980801696881451
3060000000.0 -0.06262727849555547 0.28926400413951636
3080000000.0 0.12367231176766566 -0.2657785810330137
3100000000.0 -0.14693501356156835 0.24947709034479065
3120000000.0 0.20329328310966419 -0.19876210478956716
3140000000.0 0.004505621566919783 0.27851926130371235
3160000000.0 -0.17367379068671346 -0.2002931698335105
3180000000.0 0.0032231704940634963 0.24921052034162733
3200000000.0 -0.22870993584870902 -0.003433285672529983
3220000000.0 -0.0775562487410556 -0.1885410758464346
3240000000.0 0.06879368601300458 -0.15959798009622614
3260000000.0 0.13737266705760628 0.025937613868792973
3280000000.0 -0.07433205269642808 0.07510661389687115
3300000000.0 0.027447869536183847 -0.06697182853832502
3320000000.0 -0.009206130889193306 -0.04209135568101512
3340000000.0 0.017113070226565396 -0.00706574827090825
3360000000.0 -0.0003598811221351925 0.003423925105888246
3380000000.0 0.012138020119927593 -0.0009879952126248658
3400000000.0 0.015182213206645074 -0.015232007762762477
3420000000.0 -0.0136474087867291 -0.027781321255186
3440000000.0 -0.038682823569823985 -0.012640182463889444
3460000000.0 0.03937536686424824 -0.030721051940817944
3480000000.0 -0.06198904719670202 0.011418929760779984
3500000000.0 -0.01789070635785664 0.07799081573966431
3520000000.0 -0.012749088001436875 -0.09633473194536436
3540000000.0 0.10975701485162373 0.025699138256898752
3560000000.0 0.011161893880880694 0.1253514869487541
3580000000.0 -0.04891931574244853 -0.12809930901570998
3600000000.0 0.14736536551965695 -0.046652116321411904
3620000000.0 0.12805239317836417 0.10191600639067644
3640000000.0 -0.10012371626949755 0.1419277056448518
3660000000.0 -0.16980162047842878 -0.06927217425073806
3680000000.0 7.601838202876412e-05 -0.18968605536536337
3700000000.0 0.14718148374626505 -0.12152405070653761
3720000000.0 0.1706790604930502 0.08980859410627295
3740000000.0 0.13049325198391182 0.13681086465183206
3760000000.0 -0.16699120858721914 -0.07725736094615586
3780000000.0 0.16127291088113893 -0.06690761833440009
3800000000.0 -0.12441727795969812 -0.10641604901279407
3820000000.0 -0.15261431713531382 -0.005971790443213871
3840000000.0 0.08251867524316515 -0.11884511265053625
3860000000.0 -0.07994875335277403 0.12077396576913747
3880000000.0 -0.14894404369862516 -0.03560801453206928
3900000000.0 -0.02268286152114963 0.1583420201507037
3920000000.0 0.13960167793949677 -0.09348118319670438
3940000000.0 0.15115703920613094 0.08933948440520283
3960000000.0 0.13387991364246288 0.12096120293047176
3980000000.0 0.06397120739003848 -0.1684085007984321
4000000000.0 -0.03966539757241062 -0.16553824265748338
