! Created with skrf (http://scikit-rf.org).
# Hz S RI R 50.0 
!freq ReS11 ImS11
400000000.0 -0.859496196292264 -0.05509608462119363
420000000.0 -0.12738239492527498 0.8543268100881133
440000000.0 0.7775298245638569 0.3056685666123416
460000000.0 0.7768164995144022 -0.13873217766484947
480000000.0 0.27405186128640774 0.6806656483838242
500000000.0 -0.16115913763837258 -0.5760938339172051
520000000.0 -0.4296559275414464 0.28577107501272125
540000000.0 -0.42890323999513535 0.08871006800756585
560000000.0 0.3208527977432956 0.21247638310372075
580000000.0 0.03058032526743417 0.3329749940919232
600000000.0 0.20267918639873073 0.27715191367650255
620000000.0 -0.02264690102468972 0.3417332143345246
640000000.0 -0.2623058729347846 -0.23169105627358116
660000000.0 0.011530103521735375 -0.3710971675255559
680000000.0 -0.15152435877501466 0.3556302047085467
700000000.0 -0.09958598656256518 0.40248516490664127
720000000.0 0.07823009910519832 0.41108210613089147
740000000.0 -0.40462728290763483 -0.15493534257977623
760000000.0 0.3937756732926809 -0.1347128254721857
780000000.0 -0.313225155514461 0.2269746850759066
800000000.0 0.08351887304856219 -0.3438715572298393
820000000.0 0.2890690108620113 0.08107278613846283
840000000.0 -0.2557177398034836 -0.02899249460887971
860000000.0 -0.0007195981417661871 -0.20506024996629088
880000000.0 -0.16492270256295857 0.020824223259521848
900000000.0 0.05302446308529521 -0.07788337101525411
920000000.0 0.0434547357653132 -0.03379194915926927
940000000.0 -0.042354011337193256 0.014436158186195718
960000000.0 -0.03409973557120698 -0.03666163130295523
980000000.0 0.06075281219294022 0.02094348397313952
1000000000.0 -0.05240838416500657 0.061572499630383026
1020000000.0 0.06808848448896483 0.07035715824892133
1040000000.0 0.04932112444535127 -0.10692580778770591
1060000000.0 -0.06230480575168529 -0.13699449391895846
1080000000.0 0.11873387498992359 -0.12490160910363084
1100000000.0 0.04853789158101096 0.1812654722463742
1120000000.0 0.19688281775055544 0.06666354454260283
1140000000.0 -0.23399656507113462 -0.048765897399548654
1160000000.0 -0.031109925662849015 -0.2689156513276771
1180000000.0 0.04347807396691728 -0.3055333791281884
1200000000.0 0.24915440945822676 0.22133694393494008
1220000000.0 -0.343196785183643 -0.12178508989421406
1240000000.0 -0.12010377365557728 0.36601636628283135
1260000000.0 0.3914154516040778 -0.15168706006054003
1280000000.0 -0.43410483926142224 -0.031825127982006395
1300000000.0 0.30247853326658963 0.3345647486694563
1320000000.0 0.21401545067939448 -0.39305082273997116
1340000000.0 0.2398998897210854 -0.37723564229185513
1360000000.0 -0.03340760956846633 -0.4388049591560912
1380000000.0 -0.24224571131702238 -0.36448341999911255
1400000000.0 -0.2385723738207033 0.34686093012267805
1420000000.0 0.1732584322913678 0.3632664498515589
1440000000.0 0.28261226517212734 -0.24773317969191386
1460000000.0 0.0922629648107126 -0.3318187012696339
1480000000.0 -0.31432821125897575 -0.015619007774317567
1500000000.0 -0.24983373279559362 0.13508348276331097
1520000000.0 -0.10037995342675346 0.2338315109213537
1540000000.0 -0.03022789950853587 -0.22552388670643927
1560000000.0 0.1939844891144077 -0.025529014863706165
1580000000.0 -0.005111695916156586 0.16619573302078874
1600000000.0 0.12965353001740282 -0.04785399147625126
1620000000.0 0.09300023579541793 -0.05154743575860526
1640000000.0 -0.04543194532313811 0.06865068977608636
1660000000.0 -0.059056244548637435 -0.0013389492374371197
1680000000.0 -0.020685766192686906 -0.0329443166489092
1700000000.0 -0.021832188010671497 -0.010562349668337762
1720000000.0 -0.005543830960173366 0.0023728412351349797
1740000000.0 0.009646698524425585 -0.010163713597415962
1760000000.0 0.019522067087340365 -0.027041651317685746
1780000000.0 0.06266813958280891 0.017563556553847223
1800000000.0 -0.04113690776091104 0.09215875818603184
1820000000.0 0.12828646381792605 -0.027791809996341798
1840000000.0 -0.09833139896456428 -0.13309260305063741
1860000000.0 0.08307444597126781 0.18358323432984408
1880000000.0 0.19404589786847576 -0.1378642582571497
1900000000.0 -0.28018935052995864 -0.03146886381192086
1920000000.0 0.3185551949889107 -0.028984301708017052
1940000000.0 -0.3224406113678077 -0.14637646995841497
1960000000.0 0.24444297123256373 0.29462498165770395
1980000000.0 0.058214968353216365 -0.3983348766723555
2000000000.0 -0.4191753806685804 -0.02612274055698021
2020000000.0 0.0728674809028764 0.42284753271677533
2040000000.0 0.42087976246934816 0.10291006105953196
2060000000.0 0.25432328647186186 -0.3484464192999974
2080000000.0 0.12424789980009847 -0.4066817884492363
2100000000.0 -0.0590704226906334 -0.4126846824748871
2120000000.0 -0.024094957532930013 -0.4099444104929692
2140000000.0 -0.2224762378111003 -0.3351162283219555
2160000000.0 0.27817443768973327 -0.27726435389198417
2180000000.0 -0.012627143158276694 -0.38220601510516466
2200000000.0 -0.32226175460453294 -0.18616438767409216
2220000000.0 -0.2973418553346963 0.20948018391090556
2240000000.0 0.14667137704006902 0.3271839315751272
2260000000.0 0.3427534665383858 0.09946189736737233
2280000000.0 0.2717949341114832 -0.23253909977111126
2300000000.0 -0.05388187758733093 -0.36537901316049604
2320000000.0 -0.3866672624189634 -0.056410924038207653
2340000000.0 -0.118062842269069 0.40567893718009723
2360000000.0 0.42401404192723396 -0.18411067018252855
2380000000.0 -0.5097841136230737 0.026252577207721197
2400000000.0 0.541143319027554 -0.1526258503894404
2420000000.0 -0.3887606404661917 0.4751441580227046
2440000000.0 -0.1407391916492375 -0.6452405000706598
2460000000.0 0.5888823649243701 0.37454030197366517
2480000000.0 -0.7259545346349303 0.019428129591456574
2500000000.0 0.7444795154193049 -0.010412420753820203
2520000000.0 -0.7399650939432486 -0.14240488540656174
2540000000.0 0.6450880198713826 0.39049512212234583
2560000000.0 -0.17922345009984755 -0.7252250964345407
2580000000.0 -0.5050308340802951 0.5286218772851866
2600000000.0 0.7003122403401194 0.09205918937575923
2620000000.0 -0.3181126174789431 -0.5969407814736241
2640000000.0 -0.5214581817636883 -0.37141718645742444
2660000000.0 -0.07442698746231927 0.5914664710998982
2680000000.0 0.48457849617238036 -0.26175887220661515
2700000000.0 -0.47011427933419714 -0.1836113711105745
2720000000.0 0.3133769402270006 0.33319901180335026
2740000000.0 -0.039685737992384305 -0.41116597930401344
2760000000.0 -0.15888312690856315 0.33804531023017964
2780000000.0 0.1266228498080836 -0.31644340166079665
2800000000.0 -0.22627050958751838 0.21749361740455234
2820000000.0 0.1654474100451913 -0.2457653335106423
2840000000.0 -0.08007362581206871 0.2759651194879721
2860000000.0 -0.019053742452362066 -0.2844648164598834
2880000000.0 0.22848306339866206 0.17608626906265915
2900000000.0 -0.29208121615892674 0.002707694336182289
2920000000.0 0.2924859772465776 0.059275488629274724
2940000000.0 -0.27628839409555833 -0.1294694374792699
2960000000.0 -0.04751056482791206 0.3034148137740558
2980000000.0 0.24123701019382635 0.19229215733042004
3000000000.0 0.10637857593482039 0.2879641925945288
3020000000.0 -0.23186445879367157 0.19685397224371376
3040000000.0 0.0699299986153033 -0.29006401699645834
3060000000.0 -0.005628133694573899 0.2960636113475866
3080000000.0 0.10855689987402257 -0.27196581218546867
3100000000.0 -0.1378221585994582 0.2554797772821819
3120000000.0 0.14333800545580636 -0.2464398639676886
3140000000.0 0.04446122576555579 0.2745462010455746
3160000000.0 -0.20327734072323655 -0.1714232448177991
3180000000.0 0.0462155862816992 0.24629770923796893
3200000000.0 -0.2192832333415031 0.0669099782285358
3220000000.0 -0.13128971655918265 -0.1570000918543617
3240000000.0 0.0501797008745531 -0.16765161111414328
3260000000.0 0.12862359079307328 0.057052371719626294
3280000000.0 -0.06152249596431552 0.08705055252140888
3300000000.0 0.05523017920634727 -0.04887514334274991
3320000000.0 0.002964246056185515 -0.04435144366371179
3340000000.0 0.016195056534773548 -0.011966896814461125
3360000000.0 0.004497732356140375 0.0008874935364536457
3380000000.0 0.005895974662041444 -0.008739367572192736
3400000000.0 -0.0195605464179658 -0.003335323544590436
3420000000.0 -0.0203936023560017 0.020669589115846314
3440000000.0 -0.037060774883980484 0.013508435110453562
3460000000.0 0.04882483074190944 0.003434995112747234
3480000000.0 -0.05798153150133068 0.02193247695883923
3500000000.0 -0.048278201177982996 0.06215669826872958
3520000000.0 -0.002585958809289181 -0.09566396603201886
3540000000.0 0.11154174959290286 -0.004500812842024932
3560000000.0 0.028611972635776913 0.12174698671459157
3580000000.0 -0.08813496757958159 -0.1043339758647986
3600000000.0 0.15347656646348348 -0.006985447915532398
3620000000.0 0.1380276994950552 0.08589958608224502
3640000000.0 -0.07514583018195056 0.15684918980474757
3660000000.0 -0.17747300750030404 -0.04156578978347432
3680000000.0 -0.022533907902951403 -0.18749216033867758
3700000000.0 0.13049336038761222 -0.13779159971634633
3720000000.0 0.16073362292769464 0.10577219154074663
3740000000.0 0.12099520569983198 0.1451110582400522
3760000000.0 -0.1706481701090687 -0.06786692703087453
3780000000.0 0.15621077549875168 -0.07807551688933995
3800000000.0 -0.13202562274008872 -0.09628048507005585
3820000000.0 -0.15041946072459011 0.02776926466500774
3840000000.0 0.053720856876442104 -0.1342900703197118
3860000000.0 -0.00608311847116478 0.14470965842769823
3880000000.0 -0.15154323819097826 0.024744491554224837
3900000000.0 0.015035168060594692 0.15902474821492693
3920000000.0 0.07585897550389015 -0.1498542121990997
3940000000.0 0.16879225142943696 0.04547342877093477
3960000000.0 0.17785606460464054 0.02343664277536682
3980000000.0 -0.08701873017039892 -0.15584741860313575
4000000000.0 -0.1641426008801858 -0.03457218018569182
