! Created with skrf (http://scikit-rf.org).
# Hz S RI R 50.0 
!freq ReS11 ImS11
400000000.0 -0.859126083894634 -0.04117934768968344
420000000.0 -0.09004930626172268 0.8587717159979493
440000000.0 0.7607101535951606 0.3461689073444188
460000000.0 0.7772809560978043 -0.13930795470795326
480000000.0 0.29826770017077464 0.6707873961991969
500000000.0 -0.1643711705349761 -0.5737404811084121
520000000.0 -0.45396851064492766 0.24538501147756175
540000000.0 -0.42044465683222015 0.1265804340269758
560000000.0 0.3532556723064519 0.15130452669583036
580000000.0 0.016850552016315176 0.33284226292808156
600000000.0 0.1754716340552678 0.2956189751577872
620000000.0 0.01945173138174354 0.3430774523855634
640000000.0 -0.2510931488516766 -0.2432133431573463
660000000.0 -0.012571530232893686 -0.37072905514661775
680000000.0 -0.1778066076194837 0.3438953489740428
700000000.0 -0.08991885821087757 0.40484596881752516
720000000.0 0.07108230118686956 0.4123727012845795
740000000.0 -0.40182616835239493 -0.16279274846977976
760000000.0 0.39272690513077024 -0.13859112824989672
780000000.0 -0.31882878233019396 0.21928548608041395
800000000.0 0.08787500023755127 -0.3428435409380453
820000000.0 0.28845007247735843 0.08317217576951945
840000000.0 -0.25739781383479804 -0.007193885601836448
860000000.0 -0.005860592078487699 -0.20475624241316925
880000000.0 -0.16165303580416274 0.04069168137894236
900000000.0 0.04982438238729233 -0.07984591353291869
920000000.0 0.040433245840962084 -0.037203724886758494
940000000.0 -0.032186330172137484 0.03141711502679854
960000000.0 -0.04245435689742062 -0.02721119787053051
980000000.0 0.06276915274375737 0.014025723699021745
1000000000.0 -0.05870860176386429 0.05577906684627661
1020000000.0 0.04918857892068802 0.08469096999350813
1040000000.0 0.06117073115726031 -0.10076984168295489
1060000000.0 -0.05941595286578651 -0.13843289786670857
1080000000.0 0.10516139154811557 -0.13686691791183633
1100000000.0 0.09069481299417533 0.164524880497597
1120000000.0 0.20054789724176328 0.05596882776155369
1140000000.0 -0.23761284317097023 -0.027415707473056824
1160000000.0 -0.03446902837132279 -0.2685930241127732
1180000000.0 0.0501582235612531 -0.304360597360436
1200000000.0 0.24113670874944051 0.22975796516616975
1220000000.0 -0.3404846353967043 -0.12898151619049258
1240000000.0 -0.14193614510514888 0.3578479482734975
1260000000.0 0.39132058181456003 -0.15168213064010191
1280000000.0 -0.43094254805912496 -0.06021424412142021
1300000000.0 0.29128477713535145 0.34443604192092736
1320000000.0 0.2120118388581166 -0.3942000409445825
1340000000.0 0.2410173405168855 -0.37654450795017896
1360000000.0 -0.019994057997805355 -0.43961618822576776
1380000000.0 -0.23844836627958702 -0.36697783392353617
1400000000.0 -0.2531959914154986 0.3366740872947276
1420000000.0 0.16040513682974786 0.3693866858497378
1440000000.0 0.28842586342697774 -0.24129801098163686
1460000000.0 0.09125577208758907 -0.3322989531320085
1480000000.0 -0.28487505048562883 -0.1343275974947944
1500000000.0 -0.248303829721844 0.13827199896615855
1520000000.0 -0.11529358503385177 0.22710400850916462
1540000000.0 -0.010055091685668193 -0.22727753029940106
1560000000.0 0.19531384939757426 -0.011408073394250647
1580000000.0 -0.010750571459514968 0.16555583264094564
1600000000.0 0.1372196710063162 -0.01446648445919856
1620000000.0 0.10488607710746017 -0.015768700415808804
1640000000.0 -0.060446596995127506 0.05580036476620859
1660000000.0 -0.0575404276464528 -0.013260302218270095
1680000000.0 -0.023188874541434534 -0.03132212991459849
1700000000.0 0.010659338866937781 -0.02189222674565681
1720000000.0 0.004731132308779367 -0.003712173385287833
1740000000.0 0.009558580278462325 0.009535585849410737
1760000000.0 0.032673719078136834 -0.004624864070707278
1780000000.0 0.058368499767735664 0.028765135330670794
1800000000.0 -0.0630979943139192 0.078605839760493
1820000000.0 0.12976603679013807 -0.02068804161870786
1840000000.0 -0.10220419009986885 -0.13024916526269348
1860000000.0 0.08890056664794531 0.1808819987853061
1880000000.0 0.17994456389314548 -0.15651693763638233
1900000000.0 -0.2806552125410497 -0.027043342709214917
1920000000.0 0.3178491448789017 -0.03613755004711709
1940000000.0 -0.32816003884083256 -0.13314395564209316
1960000000.0 0.2512084838956298 0.2887987794913436
1980000000.0 0.044726746525849397 -0.3998937597378569
2000000000.0 -0.41927110377695426 -0.02504297578804456
2020000000.0 0.08155637905646129 0.4212614176141894
2040000000.0 0.4215398882441302 0.10085290486956987
2060000000.0 0.2447484279731727 -0.3550741374777726
2080000000.0 0.08489346142972608 -0.41666769559475114
2100000000.0 -0.07802615571201706 -0.40956680774666326
2120000000.0 0.017971942326967416 -0.410467501746718
2140000000.0 -0.1911907748821267 -0.35393708227030335
2160000000.0 0.27354270090171867 -0.282004961978336
2180000000.0 -0.026379920681325462 -0.38160740474391247
2200000000.0 -0.3140973447643801 -0.20028110715523958
2220000000.0 -0.3153843851785593 0.18290792050125862
2240000000.0 0.12700067802141984 0.33537436892181416
2260000000.0 0.34979807635937665 0.07381980025041614
2280000000.0 0.268907596337916 -0.23604187740074942
2300000000.0 -0.07471600317542544 -0.36205704463000116
2320000000.0 -0.38727896686606855 -0.05188428906022515
2340000000.0 -0.12058081885816077 0.40486582473607163
2360000000.0 0.42652745204902826 -0.1783424468066062
2380000000.0 -0.509026775833225 0.04290856407219178
2400000000.0 0.538693109393848 -0.16092129370885383
2420000000.0 -0.3674420876661481 0.4916862536987908
2440000000.0 -0.1438361727565375 -0.6445329203917088
2460000000.0 0.5970785302805306 0.36118584966621553
2480000000.0 -0.7259536129943587 0.02275292068620204
2500000000.0 0.7373799269928021 -0.09909952923982317
2520000000.0 -0.7509349864547487 -0.06054285050034303
2540000000.0 0.6531691363147032 0.37616547135678646
2560000000.0 -0.20614063371433905 -0.7179274472886057
2580000000.0 -0.533786631270348 0.4995614937215008
2600000000.0 0.6973750035491133 0.11020594879611421
2620000000.0 -0.30613654808559887 -0.6031629722408625
2640000000.0 -0.5205739940233495 -0.3723849006276663
2660000000.0 -0.059428855441419334 0.5929257164507954
2680000000.0 0.4858974901560012 -0.2588283825404844
2700000000.0 -0.4703564070511032 -0.18226646288220397
2720000000.0 0.31367349262024335 0.3328136761791797
2740000000.0 -0.036838595602924185 -0.4112962866135344
2760000000.0 -0.15828905856878708 0.33826862793488843
2780000000.0 0.13832883560214146 -0.3112932179186799
2800000000.0 -0.23092652856050097 0.2123984241275644
2820000000.0 0.15901663429482862 -0.24996928281785014
2840000000.0 -0.08969389593398279 0.2732153596672002
2860000000.0 -0.03332506697135364 -0.28327607849375275
2880000000.0 0.23591657952897416 0.16571212809766578
2900000000.0 -0.29123928500804114 -0.02186473538765333
2920000000.0 0.2847275630182111 0.09003623706304224
2940000000.0 -0.2716934933248265 -0.13856132058305454
2960000000.0 -0.05814666158745629 0.30133902676721636
2980000000.0 0.19992429108446252 0.2348155097328164
3000000000.0 0.08833545160256455 0.2943534845074235
3020000000.0 -0.22930452804180268 0.2002179921904123
3040000000.0 0.05531448745490971 -0.2929235395513677
3060000000.0 -0.057589007835802467 0.2900683181428053
3080000000.0 0.10975108391496265 -0.2714910218546746
3100000000.0 -0.11077919474537713 0.26801425524289
3120000000.0 0.12604994532489713 -0.2551706330434708
3140000000.0 0.032262426486678514 0.27598310298874784
3160000000.0 -0.20701927808341528 -0.16645337124994153
3180000000.0 0.04497287269286888 0.24598663400451434
3200000000.0 -0.22125008969081816 0.05874870651623889
3220000000.0 -0.13213673928991768 -0.15621086445903803
3240000000.0 0.03361153636979678 -0.17106914569245765
3260000000.0 0.13863866343975978 0.022332150658060965
3280000000.0 -0.061429377480939275 0.08666164369968536
3300000000.0 0.013644131931594927 -0.07208051888400271
3320000000.0 -0.023298536664862424 -0.03723422263935363
3340000000.0 -0.01910145406548377 -0.004199206793026802
3360000000.0 0.0033670036737227494 0.0015775686091591917
3380000000.0 -0.009350172964884914 -0.0055136313888713455
3400000000.0 0.01099485373659498 -0.01678081306409594
3420000000.0 -0.018514591852974636 -0.02286444669885739
3440000000.0 -0.037841592944572885 -0.013151601323847602
3460000000.0 0.034556789177986436 0.035440290525660986
3480000000.0 -0.05979369701069645 0.018979514674665285
3500000000.0 -0.0692156471618882 0.03912152534012142
3520000000.0 0.031957205848754076 -0.09102120806851603
3540000000.0 0.11268431388352407 -0.0071540790128675385
3560000000.0 -0.0100875094016015 0.12488419955273256
3580000000.0 -0.06412529719615866 -0.1211710194095896
3600000000.0 0.15425907787477175 -0.012579140930250267
3620000000.0 0.12949397604106908 0.10045087293249298
3640000000.0 -0.10109707147409824 0.1420036409677236
3660000000.0 -0.17079689095131967 -0.0660822452469165
3680000000.0 0.0137168326842942 -0.18852388772188036
3700000000.0 0.1604574308960827 -0.1017309688613766
3720000000.0 0.13074357606600676 0.14117553242552133
3740000000.0 0.08981396863193881 0.16589069149222493
3760000000.0 -0.15268740511749074 -0.10197820276763482
3780000000.0 0.16807653427957567 -0.046632106843998454
3800000000.0 -0.10970036240527786 -0.12078424415065754
3820000000.0 -0.15215942353570228 -0.01574564191912728
3840000000.0 0.10193977448656726 -0.10244479411036517
3860000000.0 -0.049951378295443966 0.1356728169742441
3880000000.0 -0.152569349395797 -0.013231351570501934
3900000000.0 -0.040069567897737336 0.15463078181331463
3920000000.0 0.11366906453921487 -0.12293288727528569
3940000000.0 0.15055361668980427 0.08772791616067695
3960000000.0 0.16282050983210533 0.0740654287676269
3980000000.0 -0.03549963171519104 -0.1740218065816599
4000000000.0 -0.1484979439116637 -0.07642393526826076
