! Created with skrf (http://scikit-rf.org).
# Hz S RI R 50.0 
!freq ReS11 ImS11
400000000.0 -0.08699919469965735 0.8656992485787814
420000000.0 0.3820776157138144 0.772486147307819
440000000.0 0.8262441777387233 -0.08651913141453588
460000000.0 0.2848929299736048 -0.739078995645132
480000000.0 0.6486007534255007 -0.3020685143237412
500000000.0 -0.07346134231676203 -0.5676907816687554
520000000.0 -0.1421481172430909 -0.47224814048648617
540000000.0 0.29305401032577616 -0.3198614829360864
560000000.0 -0.34090030567566804 0.11086169720658916
580000000.0 0.032312962656255675 0.3384477689778047
600000000.0 0.29288281161817487 -0.16464963084102677
620000000.0 -0.32561444956191793 0.14726820962677473
640000000.0 0.17201519299828905 0.34803119275329214
660000000.0 0.3994449310251672 -0.02999217631337525
680000000.0 -0.07985902484215146 0.4129947528762357
700000000.0 0.23709596328998522 -0.36139979755174856
720000000.0 -0.2823162241328668 -0.3206954387189296
740000000.0 0.3914485537189578 0.14780441613305395
760000000.0 0.10453768598530316 -0.3890888060433838
780000000.0 0.10046926770744459 0.3588625758426497
800000000.0 0.14153350788946592 -0.3144716900375118
820000000.0 0.2878550958041914 -0.06300216180506792
840000000.0 -0.031225494868320037 -0.24620510511538896
860000000.0 0.1549476706255497 -0.14821953530589219
880000000.0 -0.04647482785628995 0.1524074900876015
900000000.0 -0.046130174579268976 0.08303258292093295
920000000.0 -0.05862676390490791 0.024065759644127525
940000000.0 0.0038867786033540464 0.04852296234531624
960000000.0 0.04183405931537454 -0.0324445572134132
980000000.0 0.054461056871562094 0.04657613110866075
1000000000.0 0.005070174654655138 -0.08011532519974268
1020000000.0 -0.015765646868652748 0.0972803014179633
1040000000.0 0.10781672384382163 0.025548395309342203
1060000000.0 -0.07613883287177102 0.12376104383765987
1080000000.0 -0.14136324923774243 -0.07444642484316202
1100000000.0 -0.1143932295082971 0.13934194702475883
1120000000.0 0.15559718771870548 0.1289658559476066
1140000000.0 0.19381663829855905 -0.13165769484532985
1160000000.0 0.26659932937327613 -0.04832640562653082
1180000000.0 0.24115235519702968 0.19153780928124697
1200000000.0 -0.039307760392770195 0.337264211922907
1220000000.0 0.05135964417555157 -0.3624275010572839
1240000000.0 -0.20399000903380682 0.3376825599503743
1260000000.0 0.4179365445412005 -0.06525675866631638
1280000000.0 -0.442460776676076 0.044123940701006316
1300000000.0 0.4085939519416488 0.20332751789517647
1320000000.0 -0.17616055134963585 -0.4183627776824913
1340000000.0 -0.35736404840537783 -0.2640215259389725
1360000000.0 -0.3453752258120743 -0.26311601299617265
1380000000.0 -0.36818023804760286 -0.21972694218676583
1400000000.0 -0.385722960306515 0.15286001022195395
1420000000.0 0.05738211133559968 0.39306414236000986
1440000000.0 0.32867504642825524 0.17407667187848294
1460000000.0 0.21369756080509536 -0.2702018573142279
1480000000.0 -0.13354124513376572 -0.2841528234238191
1500000000.0 -0.2625291638844629 -0.10796058088166983
1520000000.0 -0.25555344497903343 -0.020517859655172676
1540000000.0 0.2285540885241056 -0.014093003991091405
1560000000.0 -0.06751072101341005 0.18472839346202463
1580000000.0 -0.1367408662759696 -0.10564463464656787
1600000000.0 -0.12777619198665793 0.0699626231199251
1620000000.0 0.10468937781495494 0.05316143091249904
1640000000.0 0.09282318808341743 0.013942649517692798
1660000000.0 -0.06945535320981652 -0.009043055952801967
1680000000.0 0.03297777490640246 0.032674436425497
1700000000.0 -0.005944009382734835 0.027666803561917367
1720000000.0 0.013944953382529544 0.00166747287616869
1740000000.0 0.019967062883813728 0.005909480880555916
1760000000.0 0.025082333490411654 0.03368661477619721
1780000000.0 -0.06075681013789807 0.044903766859910516
1800000000.0 0.04375246906634365 -0.10386511469829404
1820000000.0 0.10485797738829447 -0.10171662593355432
1840000000.0 0.12709826217830325 0.12457686619879078
1860000000.0 -0.20937220231123668 -0.005378295774225359
1880000000.0 0.11384043429176084 0.2115188768444568
1900000000.0 0.19678821539625893 -0.18964048258972133
1920000000.0 -0.22805972364990582 -0.20296210094362704
1940000000.0 -0.32944375857780417 0.07173838089830055
1960000000.0 -0.01066583485485308 0.36759473478594884
1980000000.0 0.390100173244437 -0.049200690282056765
2000000000.0 0.11055500440221087 -0.3999341131262303
2020000000.0 -0.43078166037530286 -0.011682896342811961
2040000000.0 -0.08762856177960121 0.42944370586552744
2060000000.0 0.4143190152359617 0.14522514030780184
2080000000.0 0.3388865916874092 -0.27178145954399835
2100000000.0 0.13826262821879828 -0.40533721848295173
2120000000.0 -0.1417933581937158 -0.3934276364364681
2140000000.0 -0.36347805276314576 -0.18473089213687954
2160000000.0 -0.13821496800300082 -0.36774002813813156
2180000000.0 -0.3379858670033577 -0.16243798559156697
2200000000.0 -0.33011147163367044 0.14351749516780501
2220000000.0 -0.2167351677985448 0.26904479215715127
2240000000.0 -0.14413750653038102 0.30817335798836876
2260000000.0 -0.04742757264127945 0.3369454902589
2280000000.0 0.036225009207736816 0.34394398946399657
2300000000.0 0.3552149983365223 0.07112194530968219
2320000000.0 0.05970230316650411 -0.3840922284262816
2340000000.0 -0.4085264514017099 0.10584686902334706
2360000000.0 0.4614795032774372 0.05067395619027559
2380000000.0 -0.5104858252017417 -0.018665875615419707
2400000000.0 0.560093078966033 0.009238367216250438
2420000000.0 -0.5736455719455477 0.2096944565603432
2440000000.0 0.34701449973783 -0.5597182799497458
2460000000.0 0.08139338863030628 0.6933889192157296
2480000000.0 -0.3990052554103404 -0.6089384319567894
2500000000.0 0.4268732749071194 0.6141140571217881
2520000000.0 -0.3015846621845193 -0.695389856525788
2540000000.0 -0.08692230477495148 0.7542343720431582
2560000000.0 0.5730622678811649 -0.48938935877260054
2580000000.0 -0.7147606824012942 -0.18599722649927186
2600000000.0 0.2799759690014076 0.6573152164003288
2620000000.0 0.3483994886905201 -0.5880977865165962
2640000000.0 0.0003707472305905443 -0.6463290428953798
2660000000.0 -0.47972387440963177 0.36255216909487464
2680000000.0 0.5320610526838334 0.15321813091451567
2700000000.0 -0.15913500116222676 -0.4800010224193572
2720000000.0 -0.29820877380501937 0.3473385400094676
2740000000.0 0.4162751961631047 -0.009911600214271723
2760000000.0 -0.3059887478423893 -0.22616890311654017
2780000000.0 0.3287520133014291 0.12806406900952502
2800000000.0 -0.3216978027805967 0.0704857630288148
2820000000.0 0.032531732596332345 -0.3115403981883025
2840000000.0 0.29575075025704145 0.057458205447153285
2860000000.0 -0.11031042252200605 0.2751685325923282
2880000000.0 -0.20752627188841055 -0.20791074539928484
2900000000.0 0.23460746690711448 0.1750796522013063
2920000000.0 0.002133325282549897 -0.2951502895130656
2940000000.0 -0.2983091272530175 0.025954449413593327
2960000000.0 -0.2311020987945303 0.1920409558409945
2980000000.0 -0.29518014717080876 0.07774223306263635
3000000000.0 -0.2542416285938407 -0.17962556759132856
3020000000.0 0.07388752010598185 -0.3036289864927616
3040000000.0 0.2793446831777071 0.13594774403814602
3060000000.0 -0.30379885822996644 0.06003397501484699
3080000000.0 0.21937888022452398 -0.21344833542547517
3100000000.0 -0.030674856280165873 0.2985307011614387
3120000000.0 0.007165409444168607 -0.2904728229284338
3140000000.0 0.16801535900062273 0.22624130708127696
3160000000.0 -0.2624081682016918 -0.05320982207571382
3180000000.0 0.18044308778866622 0.1745310756781993
3200000000.0 -0.13884337280314826 0.18012358759148706
3220000000.0 -0.19360562218601182 -0.05347188716055153
3240000000.0 0.041639588799763594 -0.16349774843019452
3260000000.0 -0.028573164965036067 0.1315953766146294
3280000000.0 0.10306106261573751 -0.002659560848917683
3300000000.0 0.007712564950706046 -0.0756562748541992
3320000000.0 0.03463918451898272 -0.037231329196292844
3340000000.0 0.02495522873766552 -0.017162869470866485
3360000000.0 0.009365962100742671 0.00950214401387484
3380000000.0 -0.0022766055453237316 -0.004558020684473071
3400000000.0 0.00825859298057271 -0.01716680136344637
3420000000.0 -0.034424711530962854 0.005407703311116007
3440000000.0 -0.04271571431060157 0.023886192342101303
3460000000.0 -0.04668716526137687 -0.03404938106788082
3480000000.0 -0.06794340057277695 -0.0013221127655491896
3500000000.0 -0.061827274327058576 0.04727160934374706
3520000000.0 -0.04188717372831342 0.0801156410937603
3540000000.0 0.10121582258544123 -0.021397657930650488
3560000000.0 -0.11056137515519213 -0.04020287809423874
3580000000.0 0.05978208684528145 0.11928581754859864
3600000000.0 -0.13931442754683795 0.06714705695132818
3620000000.0 -0.142640441902387 0.09231355616179919
3640000000.0 -0.17218045082066663 0.05579360502397501
3660000000.0 -0.16424675459149266 0.09568469591461305
3680000000.0 -0.18747888097272758 0.042865569573155536
3700000000.0 -0.17923148459668387 -0.064369308594583
3720000000.0 -0.02030040744651106 -0.18681499659048809
3740000000.0 0.1664941080939145 -0.0767632303830745
3760000000.0 -0.17684284299819814 0.008495674873257595
3780000000.0 0.16136723761273275 0.050732121696810725
3800000000.0 0.048819135341911034 -0.15408722550228413
3820000000.0 -0.12286865143445881 -0.0930188146701083
3840000000.0 0.00637434985013305 -0.14785116590483532
3860000000.0 0.13830481452713164 0.05228365761039627
3880000000.0 0.15322626480952314 -0.011467573108364288
3900000000.0 -0.02502944996598492 -0.15406751592116294
3920000000.0 -0.1283942063029464 0.097873967796794
3940000000.0 0.07949042560311904 -0.1457042181614879
3960000000.0 0.16590962597116674 0.042136208298480624
3980000000.0 0.10273042487297167 -0.13877696765448075
4000000000.0 0.10453029217227464 -0.12878555713269219
