!Created with skrf (http://scikit-rf.org).
# Hz S RI R 50.0 
!freq ReS11 ImS11
400000000.0 -0.707571797259934 0.5081897309413353
420000000.0 0.14303078103822603 0.8563041287596328
440000000.0 0.7949312286947117 -0.2733844099415035
460000000.0 0.03403546956317421 -0.7947502455780192
480000000.0 0.7138063748470692 -0.06846984336508784
500000000.0 -0.2206036542595316 -0.5450254113740842
520000000.0 -0.4804667487002214 0.15170103440664176
540000000.0 0.11417325521078472 -0.4100848968873192
560000000.0 -0.23206588537758208 -0.28899078258117883
580000000.0 0.3102157464923096 -0.15819032541919054
600000000.0 -0.1681748210393223 -0.30488332428706166
620000000.0 0.2007578434517128 0.3039087139977273
640000000.0 0.3403235757146465 -0.21071873459506663
660000000.0 -0.3741204475549651 -0.17036298999469965
680000000.0 0.1677260510514394 -0.3912299898133613
700000000.0 -0.42678122855846273 -0.0008684304599534778
720000000.0 -0.12242595026869281 0.40191583257651653
740000000.0 0.3583397257616691 -0.19395248057936731
760000000.0 -0.3529742150823301 -0.17018258632363734
780000000.0 0.2912967163435017 0.199985993439361
800000000.0 0.2035872166676803 -0.24696888935067232
820000000.0 -0.24408114487086507 -0.12269529935558222
840000000.0 -0.23669897690907069 0.006997213703481951
860000000.0 0.06376838460620525 -0.18962003545582895
880000000.0 0.0672763155629555 0.1425984494973445
900000000.0 -0.10759608309127011 0.0010817058394922334
920000000.0 0.045671528029450896 0.0590515766467155
940000000.0 0.01734237642422566 0.03927388737745461
960000000.0 0.04437902327943671 -0.01682599588815559
980000000.0 -0.06703602489116303 -0.0032197913637089966
1000000000.0 -0.020927059242581987 0.08060547354227253
1020000000.0 -0.03179917471971905 0.09770372022680611
1040000000.0 -0.03091961779051021 0.11576680391947136
1060000000.0 -0.12472736710055005 0.09456224486354751
1080000000.0 -0.05276707099038437 0.16582133619392062
1100000000.0 0.15479328126403746 -0.12694534185422113
1120000000.0 0.05314426917366771 0.21586307256179835
1140000000.0 0.1697597006667557 -0.19057178085096418
1160000000.0 -0.2337754611456746 -0.15937469001705826
1180000000.0 -0.07502610702052116 -0.3090383584258002
1200000000.0 0.21624263277326242 -0.2652272169928243
1220000000.0 -0.19852677016517667 0.31027634284877736
1240000000.0 0.38616299725322395 -0.03935937846064609
1260000000.0 -0.3041162723707875 -0.27600289649740767
1280000000.0 -0.3544728359444939 0.2354183298504626
1300000000.0 0.37707538119256867 0.21879751093350405
1320000000.0 0.434537653005826 -0.05497442003356304
1340000000.0 0.41659149099035836 -0.13285158932226748
1360000000.0 0.43810474959350026 0.016732990614215102
1380000000.0 0.30976701606367396 -0.30604673145656075
1400000000.0 -0.3196072488541577 -0.285058090156149
1420000000.0 -0.056549732761962936 0.4069759007572553
1440000000.0 0.3829852114125251 0.023578038598809928
1460000000.0 0.05520662937280143 -0.34833833479448445
1480000000.0 -0.3114789386925913 0.07528582564804776
1500000000.0 -0.14515401025640387 0.24791736478724127
1520000000.0 0.02830043881330604 0.25669204432372916
1540000000.0 -0.14344577995035535 -0.17837973017806455
1560000000.0 0.09832387941724682 -0.16822623847024604
1580000000.0 0.12580084241601291 0.108493036665069
1600000000.0 0.11998755708589569 -0.05729872983298208
1620000000.0 0.10150387683555802 0.02126651597494123
1640000000.0 -0.012505324472681977 0.07690019340240087
1660000000.0 0.004562187286089073 -0.05428345565947113
1680000000.0 0.02260531549301037 0.026509334431226442
1700000000.0 0.018182471033803705 -0.012223843305832349
1720000000.0 0.004795487846066336 0.003477811039563522
1740000000.0 -0.014565696346168156 -0.006536228240423465
1760000000.0 -0.019168898681009967 0.026850570959841884
1780000000.0 0.0382889630091554 -0.04788177472072064
1800000000.0 -0.08008867796271521 0.0474862351350587
1820000000.0 -0.07059855393153125 0.10346314389053318
1840000000.0 0.07977912368155785 -0.14227926586676373
1860000000.0 -0.1654327057386647 0.11287756975849977
1880000000.0 0.22093099868285795 -0.0937876229009923
1900000000.0 -0.24510956140964998 0.1435664388427176
1920000000.0 0.2289842126419582 -0.22201415206034653
1940000000.0 -0.32561281109956325 0.1367876358722806
1960000000.0 0.3699800884346565 0.08740316083553966
1980000000.0 -0.17966928058950668 -0.3554866819443628
2000000000.0 -0.41147406601354247 -0.054070624408395246
2020000000.0 -0.0787318377696008 0.4182064820236818
2040000000.0 0.16219234274075278 0.4013463366235626
2060000000.0 0.43511567611144203 -0.02341802461312212
2080000000.0 0.23266432672312415 -0.36558787380033675
2100000000.0 -0.023525249281378554 -0.42567601634794733
2120000000.0 -0.23278817233624052 -0.3451500660919653
2140000000.0 -0.3026293749761209 -0.2695477108817495
2160000000.0 0.14747296836892884 -0.36386799373104883
2180000000.0 -0.08438960458506296 -0.37034626550043687
2200000000.0 -0.3383727714641689 -0.14442124359539474
2220000000.0 -0.3500161535351512 0.06748182389965754
2240000000.0 -0.18628806919719926 0.2980282418025177
2260000000.0 0.023585741295825576 0.350571913693802
2280000000.0 0.28639111983997384 0.21033761629385184
2300000000.0 0.2706452634579874 -0.25052343430366264
2320000000.0 -0.243626638914346 -0.3047023994048873
2340000000.0 -0.31962602526694656 0.2741312216664174
2360000000.0 0.46198201601142225 0.01200084388231456
2380000000.0 -0.4973755183797384 -0.1111711268511067
2400000000.0 0.558214994622302 0.02886936942911543
2420000000.0 -0.5226450084505577 0.3134755020097792
2440000000.0 0.1948980658842374 -0.6258105917958249
2460000000.0 0.2624616043137571 0.6424509631587006
2480000000.0 -0.5428890249692382 -0.4783803271052575
2500000000.0 0.6226715271361486 0.40368920671227027
2520000000.0 -0.5070993753053054 -0.5560591056819211
2540000000.0 0.2165197231886308 0.7219355068101676
2560000000.0 0.42445528325022636 -0.6166470435577502
2580000000.0 -0.7318756854853141 0.05243946581144116
2600000000.0 0.4531294223197919 0.5468722172303118
2620000000.0 0.2089890303175002 -0.6481486167302039
2640000000.0 -0.0579388605738407 -0.6424644405125545
2660000000.0 -0.4112339485005122 0.4382456790530139
2680000000.0 0.548643790230706 0.0858296401230486
2700000000.0 -0.33621291132960474 -0.38344997001604936
2720000000.0 -0.027509177008298562 0.46317227060542415
2740000000.0 0.37184221358616265 -0.19597249336463599
2760000000.0 -0.3802984482767113 0.029927550083239177
2780000000.0 0.34663421088749585 0.05734642057861972
2800000000.0 -0.32336769197182624 0.038995380081859196
2820000000.0 0.17844241004377748 -0.25188802080804235
2840000000.0 0.028156714763596075 0.29555341176277883
2860000000.0 -0.26181925289097224 -0.13076002582267862
2880000000.0 0.2629266126306678 -0.1258043861703906
2900000000.0 -0.11075263152969089 0.26996074250226215
2920000000.0 0.21668271255458968 -0.19918306977810196
2940000000.0 -0.264923662971764 -0.13669569946571142
2960000000.0 -0.2492943366091908 0.16875892312449017
2980000000.0 -0.2656902695113418 0.15100058311357153
3000000000.0 -0.3082457200444024 0.007641902998268009
3020000000.0 -0.19958776947163198 -0.23583648479547314
3040000000.0 0.29093155490090633 -0.09925384044816078
3060000000.0 -0.1817479665202925 0.2449749655612126
3080000000.0 0.05411756528888361 -0.2956825200392514
3100000000.0 -0.004639492755067022 0.29567832621562745
3120000000.0 -0.09261850153110937 -0.2749060050406542
3140000000.0 0.22436148052802088 0.17156469263295893
3160000000.0 -0.25488766629171206 0.08262108140413779
3180000000.0 0.22443176542077517 0.11589950944443217
3200000000.0 -0.14989520785434504 0.1727309934797272
3220000000.0 -0.12435250529175419 -0.16013607941941574
3240000000.0 0.17025455178084706 -0.03034231694062073
3260000000.0 -0.05729364826640871 0.12885237899222124
3280000000.0 0.09849207476042457 -0.04750747775219441
3300000000.0 -0.07950167104058238 0.0003332667540502237
3320000000.0 0.02561178363702185 0.04632435157354346
3340000000.0 0.02552407332429187 0.014667744489594948
3360000000.0 -0.008608043177612741 -0.0057506861363234175
3380000000.0 0.004944843196826898 0.002508759944695122
3400000000.0 -0.005479526453992577 0.019180351247995848
3420000000.0 0.03252636885704551 0.001160413012813453
3440000000.0 -0.0017734141567657504 -0.04332204138317245
3460000000.0 0.05149005132255266 0.009658753566365969
3480000000.0 0.0035940391126223037 0.06347876947255628
3500000000.0 0.07542231426702083 0.018819112333843986
3520000000.0 -0.05141340366615512 -0.07713115374514783
3540000000.0 0.10441952017438393 0.02561867566297227
3560000000.0 -0.11608152046716684 0.037512350390736755
3580000000.0 0.11092524505551969 -0.07716273231671199
3600000000.0 0.11158353603644536 0.10271931683940007
3620000000.0 -0.03404569611550873 0.15976865022766434
3640000000.0 -0.1692013999014647 0.04067415936011677
3660000000.0 -0.16288069282710596 -0.08637847784012072
3680000000.0 -0.07291192820569167 -0.17502762232251837
3700000000.0 -0.03336994600911143 -0.1876418727257235
3720000000.0 0.13290046260740093 -0.13544764391997868
3740000000.0 0.17953644789255152 -0.04329453957483896
3760000000.0 -0.1788558411994522 -0.002295735655310824
3780000000.0 0.16933154867439112 0.009765958416415088
3800000000.0 -0.035920362694460105 -0.15817789631866325
3820000000.0 -0.13740091871334495 -0.06962422698059294
3840000000.0 -0.11944785177458334 -0.08317583132024783
3860000000.0 0.12902423965830445 0.06930341722265851
3880000000.0 0.1288782607335894 0.08037846346979544
3900000000.0 0.13210701746317835 -0.08780666855761209
3920000000.0 -0.16319169756347382 0.0011185020082786165
3940000000.0 0.11015853321288493 -0.12740412463912193
3960000000.0 0.1717524753005146 0.018690419235201115
3980000000.0 0.12384197579438047 -0.12133726688852664
4000000000.0 0.16035299675052528 -0.04805529497231901
