!Created with skrf (http://scikit-rf.org).
# Hz S RI R 50.0 
!freq ReS11 ImS11
400000000.0 -0.7128937962619893 0.5003425651097513
420000000.0 0.13706544753612296 0.8565340714708594
440000000.0 0.808257797468748 -0.22866758653642133
460000000.0 0.011393960269371076 -0.7960881002362283
480000000.0 0.708716390816501 -0.1089777978114958
500000000.0 -0.20429206782470513 -0.5497824158873084
520000000.0 -0.4933522130246326 0.10770844322709582
540000000.0 0.09134600055296198 -0.4161743079917835
560000000.0 -0.26731137798150395 -0.2572673685607849
580000000.0 0.32774583733640517 -0.11297988316548012
600000000.0 -0.11869350780934594 -0.3289662924607118
620000000.0 0.22648595531503973 0.28549955796591125
640000000.0 0.3192169018932809 -0.24027079930839193
660000000.0 -0.37127232892802053 -0.17480948867396706
680000000.0 0.14720589085787938 -0.3991936127956853
700000000.0 -0.4265584884672721 0.014399168207459782
720000000.0 -0.11261082751187199 0.4047625515845927
740000000.0 0.3649562947954267 -0.18071886167403783
760000000.0 -0.3526232944822216 -0.17052777789485968
780000000.0 0.2803660626659699 0.21493218094988306
800000000.0 0.2018355665937165 -0.24809734400444788
820000000.0 -0.24400468464036906 -0.1225468539730908
840000000.0 -0.23671724765010274 -0.006103580857467301
860000000.0 0.0814378459001978 -0.18262090153756025
880000000.0 0.045704806456356814 0.15034251897021236
900000000.0 -0.10626855323291497 -0.014161103906976042
920000000.0 0.033369510987061396 0.06629175441249519
940000000.0 0.028871250413381528 0.03202291360011111
960000000.0 0.042817972354363965 -0.020986308275932886
980000000.0 -0.06590435769874371 -0.012487026677913085
1000000000.0 -0.02515603039480586 0.07939692344067224
1020000000.0 -0.023823906449555444 0.09989702278134753
1040000000.0 -0.037290625100645784 0.11373809119290197
1060000000.0 -0.1253758591187211 0.09369406125056594
1080000000.0 -0.051496518618980885 0.16627102311017777
1100000000.0 0.15398253401768633 -0.12756834345375992
1120000000.0 0.049209060475774176 0.21663761241496607
1140000000.0 0.16944679980751878 -0.19080295801527056
1160000000.0 -0.23246028833885785 -0.16064977186814483
1180000000.0 -0.06366148795484332 -0.31143824336497217
1200000000.0 0.21962566289254293 -0.26197851304044395
1220000000.0 -0.1862197897425817 0.31741409955196903
1240000000.0 0.3847926336539079 -0.05041530328857292
1260000000.0 -0.32918211772340433 -0.24589938580085036
1280000000.0 -0.33849316791142364 0.25830255973399535
1300000000.0 0.38567139593432703 0.203826222070857
1320000000.0 0.4329070727433458 -0.0675571828577728
1340000000.0 0.41351393017050136 -0.14309030798490818
1360000000.0 0.43770961470833886 0.028589063324756067
1380000000.0 0.32474829132604605 -0.29028345380114895
1400000000.0 -0.31504632315480163 -0.29031918423412784
1420000000.0 -0.08361573871905802 0.4025714740468247
1440000000.0 0.3831673156931819 0.026457098732873607
1460000000.0 0.058959623781392266 -0.34787549279395646
1480000000.0 -0.31608992147805615 0.051948489255883745
1500000000.0 -0.1577654456482532 0.23985390021169628
1520000000.0 0.027041842834146686 0.2566775850843141
1540000000.0 -0.14024076225843726 -0.1806602949637754
1560000000.0 0.0837066064028221 -0.1755421230946718
1580000000.0 0.13605766766541347 0.09511060640267402
1600000000.0 0.10923139430743227 -0.075333860953307
1620000000.0 0.10362763671915064 0.003014389506354466
1640000000.0 -0.0013574664751740632 0.07799060067549929
1660000000.0 -0.013072997730285703 -0.053382339564907996
1680000000.0 0.024648779816477007 0.02501239568518941
1700000000.0 0.009087699603994654 -0.020071438701679097
1720000000.0 -0.000944959680509426 -0.005841415765459358
1740000000.0 -0.012583778775138952 0.009752589351361208
1760000000.0 0.00025385503787234235 0.03282291866700823
1780000000.0 0.029117497798204696 -0.053835314155656414
1800000000.0 -0.07176323245292658 0.059385175595944494
1820000000.0 -0.0628908793708356 0.1086009184698812
1840000000.0 0.07095083637551862 -0.14713078319592388
1860000000.0 -0.16523895664900623 0.11372954221466543
1880000000.0 0.22193926496606214 -0.0924338462100033
1900000000.0 -0.25201278798986343 0.131286295747264
1920000000.0 0.23871828801291592 -0.2117501184087105
1940000000.0 -0.3302338596328432 0.12521390401646526
1960000000.0 0.36715125869756615 0.09851464543292214
1980000000.0 -0.1683032661951633 -0.36091102893223004
2000000000.0 -0.4098477318690315 -0.06408458384033361
2020000000.0 -0.09319592124484678 0.41496955313711903
2040000000.0 0.150220591431699 0.405592942744195
2060000000.0 0.4331667594104959 -0.04174600483094296
2080000000.0 0.20787605922220123 -0.3796662739751089
2100000000.0 -0.0352435228537928 -0.42445600903049974
2120000000.0 -0.22911373297367674 -0.34741231028116476
2140000000.0 -0.30682813105851064 -0.2645933279797548
2160000000.0 0.12983788115587103 -0.3705648798703078
2180000000.0 -0.1058521930658963 -0.36494409411454765
2200000000.0 -0.3461988142840845 -0.1246388910517612
2220000000.0 -0.34639314895224044 0.08506947409115234
2240000000.0 -0.17064986926029801 0.3077397113181675
2260000000.0 0.02895029616668839 0.3501638684718576
2280000000.0 0.2939350781880276 0.2005510082951871
2300000000.0 0.26840199101006124 -0.25332286556096284
2320000000.0 -0.2361633818723139 -0.3107332359319135
2340000000.0 -0.32456062149484266 0.2683634997385601
2360000000.0 0.4616893660271545 0.022796734819328368
2380000000.0 -0.49355648955867254 -0.1270068100627226
2400000000.0 0.5566560575713464 0.0496150481903617
2420000000.0 -0.5263532610671129 0.30656652876872914
2440000000.0 0.2253803829219456 -0.6151558442237828
2460000000.0 0.2722653472802238 0.6378189782455226
2480000000.0 -0.5319784145887158 -0.48976040971128276
2500000000.0 0.6115248437152123 0.4199973975415862
2520000000.0 -0.5031236837828026 -0.5593631915748731
2540000000.0 0.12162333228151745 0.7438271122847901
2560000000.0 0.3779491369716584 -0.6455241970408205
2580000000.0 -0.7198572890716014 0.14121247303639883
2600000000.0 0.49822688631373035 0.5062619644591323
2620000000.0 0.17125918249258512 -0.6589784743638918
2640000000.0 -0.08264240193283036 -0.6397868183466681
2660000000.0 -0.41369139930057497 0.4363241108379283
2680000000.0 0.5557837773459658 0.011766903005443648
2700000000.0 -0.31770661799362926 -0.39927725026773453
2720000000.0 -0.027651711911452437 0.4635293801483948
2740000000.0 0.35599312864711136 -0.2242342313411399
2760000000.0 -0.3799277823330551 0.03746001974077011
2780000000.0 0.3477194437784429 0.053510558138822405
2800000000.0 -0.3248257328751821 0.03140636939899162
2820000000.0 0.18164474991196863 -0.25037660692864117
2840000000.0 0.014519987264523658 0.2966886379536037
2860000000.0 -0.2420136677156532 -0.1652926244378639
2880000000.0 0.2664742270967883 -0.11864101787649607
2900000000.0 -0.15379243998545594 0.24857446190692126
2920000000.0 0.2228269515549358 -0.1916852958721065
2940000000.0 -0.26356112933427583 -0.1383425956945499
2960000000.0 -0.2671560190063977 0.1386999729143466
2980000000.0 -0.26017082854341234 0.15933517488880775
3000000000.0 -0.30748077605981994 -0.006551423726037578
3020000000.0 -0.18503114462574263 -0.24695463114693283
3040000000.0 0.2761818331041918 -0.13325828949616314
3060000000.0 -0.10966443550680995 0.2840577198491711
3080000000.0 0.031179171341189346 -0.29839093121364546
3100000000.0 -0.009713174332525207 0.29496763420070454
3120000000.0 -0.12506001720091608 -0.2611557175647814
3140000000.0 0.25714040831007684 0.11628560731127952
3160000000.0 -0.23392255344089807 0.13050539647110898
3180000000.0 0.24399430734565247 0.06618846436526374
3200000000.0 -0.11047755299428474 0.20041898748826792
3220000000.0 -0.15449119312298148 -0.131647157517261
3240000000.0 0.16249775408295977 -0.060779478441828974
3260000000.0 -0.03268470611406067 0.13809920835801412
3280000000.0 0.08682873258164217 -0.06755026447261052
3300000000.0 -0.07768873735861315 0.019564750412981034
3320000000.0 0.020917103002187392 0.04945429656842789
3340000000.0 0.029379257017247893 0.005518252811682485
3360000000.0 -0.010729591019192622 -0.0011780418219989864
3380000000.0 -0.0006453610250509525 -0.0050401593131321545
3400000000.0 0.008594111381971857 0.01758353702851517
3420000000.0 0.032109671130537774 -0.004199686562889708
3440000000.0 -0.023661315285260776 -0.035878331486702615
3460000000.0 0.047130578246862856 -0.022710560536295204
3480000000.0 0.027301146629229937 0.05718728671700734
3500000000.0 0.07751239360222924 -0.0030563004487505997
3520000000.0 -0.08494713099912304 -0.036844200975957496
3540000000.0 0.1073233521115204 -0.0073632783830473855
3560000000.0 -0.1055339003847814 0.06124483965071658
3580000000.0 0.08348533114808718 -0.10670420170663561
3600000000.0 0.12911149222754925 0.08054589579030304
3620000000.0 -0.011218726089424463 0.16328682821159846
3640000000.0 -0.16472054178396198 0.05708752973410962
3660000000.0 -0.16278092601049737 -0.08638357064792666
3680000000.0 -0.08362632506953474 -0.17049466833472254
3700000000.0 -0.04672769175890419 -0.1855446521203476
3720000000.0 0.1296604327152863 -0.13940502162270757
3740000000.0 0.18147063733046156 -0.03554432418274241
3760000000.0 -0.1787992731269294 -0.012054982441729522
3780000000.0 0.16844557027191562 0.02433445306730687
3800000000.0 -0.01666151561200679 -0.16147620517121755
3820000000.0 -0.13268481365152518 -0.07839254306235319
3840000000.0 -0.0955474226086324 -0.11049733252278196
3860000000.0 0.11937317057559818 0.08552361566637189
3880000000.0 0.1039558900230468 0.11168274980511377
3900000000.0 0.15027780321732645 -0.05180964786076595
3920000000.0 -0.16324925316529829 -0.007571748031002315
3940000000.0 0.12603713935153874 -0.11134688831401533
3960000000.0 0.17157448269865475 0.022855843372993224
3980000000.0 0.10180170491464129 -0.14022074765859022
4000000000.0 0.14935072334117325 -0.07565017676778643
