!Created with skrf (http://scikit-rf.org).
# Hz S RI R 50.0 
!freq ReS11 ImS11
400000000.0 -0.7139591209199301 0.4977794795695373
420000000.0 0.14618794765009605 0.8550817154590796
440000000.0 0.8096831211146847 -0.22378279185443115
460000000.0 -0.011189767134181372 -0.7957105605389896
480000000.0 0.7064422934438259 -0.12239327307028959
500000000.0 -0.1921149317749185 -0.5544302554714075
520000000.0 -0.49524923954296063 0.09913814351021448
540000000.0 0.08191648986309168 -0.41808448558834843
560000000.0 -0.26463556542048117 -0.26014556370291075
580000000.0 0.32940424139896235 -0.10788139290143442
600000000.0 -0.11890299642427281 -0.32872657372726466
620000000.0 0.2270893399624023 0.2849904425242799
640000000.0 0.3186472888068971 -0.2412003882876326
660000000.0 -0.3709586351845975 -0.17538755018561483
680000000.0 0.18134183869241374 -0.38559955647106225
700000000.0 -0.42664444348521174 0.014803574501386463
720000000.0 -0.108600027689649 0.40596038151543407
740000000.0 0.36804384207758295 -0.1757321474118825
760000000.0 -0.3465774152441494 -0.18251091363846234
780000000.0 0.27829165709325776 0.21766052215899945
800000000.0 0.20457940615305698 -0.24586713357885662
820000000.0 -0.24351745095818825 -0.12341790598464804
840000000.0 -0.2366539656522678 0.0006173846577450048
860000000.0 0.06389395139908215 -0.1894364967093535
880000000.0 0.05574189525114137 0.14695163413292936
900000000.0 -0.10686121330283121 -0.01066497051559897
920000000.0 0.03877361666774317 0.06357778707326489
940000000.0 0.02677033028931102 0.03387816625518651
960000000.0 0.04201726918178947 -0.022710381178377974
980000000.0 -0.0664897837592137 -0.010214401786929112
1000000000.0 -0.030100652208399564 0.07793159316010499
1020000000.0 -0.025556483757881675 0.09941820805220364
1040000000.0 -0.04137294211333705 0.11225329515771684
1060000000.0 -0.1234011409498695 0.09620107170396941
1080000000.0 -0.046880935467701834 0.16753806300011367
1100000000.0 0.1564293633845576 -0.1245664567799623
1120000000.0 0.04728594760129913 0.21707786110452376
1140000000.0 0.1503999740996009 -0.20600815994420202
1160000000.0 -0.23152631438374383 -0.16196646307627893
1180000000.0 -0.054664132393452095 -0.3130106088651972
1200000000.0 0.1913601629152369 -0.2837513564247643
1220000000.0 -0.1761093022234323 0.32338101891673127
1240000000.0 0.38532808851133593 -0.046403584539140806
1260000000.0 -0.3013580946673509 -0.2790114424770134
1280000000.0 -0.3386632301096284 0.2578426727285625
1300000000.0 0.3759608268143539 0.22077683357065034
1320000000.0 0.43383067788045526 -0.06033595751231382
1340000000.0 0.4154262140114296 -0.13686825825369262
1360000000.0 0.4381683821861693 0.016718110994305067
1380000000.0 0.31348157361933016 -0.3022549682756286
1400000000.0 -0.3291276892004588 -0.27386223051998515
1420000000.0 -0.06271918609457654 0.4061522646966245
1440000000.0 0.3834213159657535 0.02114405963305091
1460000000.0 0.06316156180470507 -0.3473999110378813
1480000000.0 -0.31931094280726735 0.029736572001077575
1500000000.0 -0.1667694322623448 0.233772525927224
1520000000.0 0.030584412203207793 0.2563903857452158
1540000000.0 -0.13511848982521496 -0.18457931970510333
1560000000.0 0.11276556247078647 -0.15875455070126923
1580000000.0 0.13585715559900421 0.09524256252621706
1600000000.0 0.11897997336701377 -0.05885479533612205
1620000000.0 0.1015798165824385 -0.020845009471509465
1640000000.0 -0.0007844768083964984 0.07794774269505805
1660000000.0 -0.007968474786335535 -0.05398975016066463
1680000000.0 0.02678781721493257 0.02256651254170709
1700000000.0 0.020819930977088605 0.006226648993290433
1720000000.0 -0.0036572916605910532 -0.00485984184409898
1740000000.0 -0.012332139702639128 0.009963519473505301
1760000000.0 0.009593350953613557 0.03143786565752086
1780000000.0 0.027190505359694504 -0.05456216883869833
1800000000.0 -0.06718664839641912 0.06456540760981434
1820000000.0 -0.06387470728295118 0.10732153846258137
1840000000.0 0.058046693528348105 -0.15250906723170066
1860000000.0 -0.1609549394279252 0.11971596666947927
1880000000.0 0.21893103107985426 -0.09918718424602455
1900000000.0 -0.24670321878539922 0.14131317128579093
1920000000.0 0.23607102643037578 -0.21486843628174046
1940000000.0 -0.3275854981840828 0.132296564506759
1960000000.0 0.36503708376505983 0.10639505788999214
1980000000.0 -0.15444856982123908 -0.367187413937528
2000000000.0 -0.4089912065585082 -0.06985277877852991
2020000000.0 -0.1073903275832241 0.4116905779770926
2040000000.0 0.14518796619940283 0.4074023426101027
2060000000.0 0.4347591347631357 -0.02531019328118536
2080000000.0 0.2378406211905532 -0.3617428609600441
2100000000.0 -0.0005123785426237546 -0.42592622383383427
2120000000.0 -0.22969026249072017 -0.34679607513555183
2140000000.0 -0.28955839043977094 -0.28303406174995177
2160000000.0 0.1268224365006076 -0.37125673465289777
2180000000.0 -0.14357677181535686 -0.3513800285297703
2200000000.0 -0.3488024532839176 -0.11728481628077213
2220000000.0 -0.3456899209311563 0.08817955300464653
2240000000.0 -0.17897285668652682 0.3031992994083967
2260000000.0 0.03608492540160803 0.3496619311170015
2280000000.0 0.2962986071031997 0.19710395352791088
2300000000.0 0.26202120546522706 -0.26027314995168027
2320000000.0 -0.23878127700014587 -0.308962436713324
2340000000.0 -0.3263770486533327 0.26644412656843086
2360000000.0 0.4620801700621442 0.01746097315135969
2380000000.0 -0.49273240480666214 -0.13068711616524
2400000000.0 0.5550178685946006 0.06672518108799383
2420000000.0 -0.5292432645549491 0.3018335204060804
2440000000.0 0.2172344773555021 -0.6180909898285489
2460000000.0 0.25273236124259946 0.6457764273336712
2480000000.0 -0.5157473060318039 -0.5068702185903106
2500000000.0 0.6167668378251405 0.4117771688563845
2520000000.0 -0.5116426122436153 -0.5514258942919166
2540000000.0 0.22904916313816773 0.7176738835366536
2560000000.0 0.41278601501710627 -0.6240128769765994
2580000000.0 -0.7308125044435165 0.06547856077313136
2600000000.0 0.456726839953424 0.5438004093498808
2620000000.0 0.19562192711695597 -0.6523191841571424
2640000000.0 -0.09934571118487809 -0.6373884495480945
2660000000.0 -0.40357325786429854 0.445681199034432
2680000000.0 0.5532566844473112 0.05407758582755513
2700000000.0 -0.35321453335312475 -0.3685765307471313
2720000000.0 -0.011616750494199178 0.46438071805679193
2740000000.0 0.36762516343068546 -0.2047121908200158
2760000000.0 -0.3802553273175275 0.03544480434573098
2780000000.0 0.3460637147958506 0.06256333122967693
2800000000.0 -0.32392932459608115 0.036728054830431955
2820000000.0 0.18743980039853625 -0.2456546537565418
2840000000.0 0.012104207964330545 0.29695440996432504
2860000000.0 -0.25062905827203125 -0.15180091896358755
2880000000.0 0.2718631051389477 -0.10567955456239654
2900000000.0 -0.15387516490062 0.24848613630935623
2920000000.0 0.23419251268140198 -0.1779667237510568
2940000000.0 -0.25025021200381514 -0.16148035368131133
2960000000.0 -0.27359764921093443 0.12524983875400286
2980000000.0 -0.26061125986354355 0.15800667260111964
3000000000.0 -0.3069345419365373 0.01269990123225621
3020000000.0 -0.16448303760014338 -0.26092684087785295
3040000000.0 0.28146307839786316 -0.12125357735774216
3060000000.0 -0.1482459203798489 0.2656037443038319
3080000000.0 0.01736675243793621 -0.2994081198318583
3100000000.0 -0.004605056587355838 0.29491593260103344
3120000000.0 -0.12299857037367855 -0.26215234225847506
3140000000.0 0.2541428182107434 0.12264456454687252
3160000000.0 -0.22973604385949412 0.13739410565596594
3180000000.0 0.2385346691513928 0.08227030953762486
3200000000.0 -0.11142430162900087 0.1998385154534245
3220000000.0 -0.1633331081768623 -0.12026960356093071
3240000000.0 0.15824416681837725 -0.07121385545373984
3260000000.0 -0.024940383563521722 0.1395695045770403
3280000000.0 0.06753247771281484 -0.08681154122221106
3300000000.0 -0.07632032179792098 0.024650746350665203
3320000000.0 0.030596762467733858 0.044021814664503306
3340000000.0 0.029909123316648703 0.0031612950621035117
3360000000.0 -0.009324340881410185 0.0054411785361274095
3380000000.0 0.003665074108834698 -0.003463034264511904
3400000000.0 -0.005098929607390791 0.018676942306457757
3420000000.0 0.03201685605113771 0.0016906618432235981
3440000000.0 -0.014139347913757974 -0.040419732560314496
3460000000.0 0.04899584433253572 -0.01783612807197895
3480000000.0 0.013132209879460411 0.06167599309108475
3500000000.0 0.07678040223425013 -0.01013860714711041
3520000000.0 -0.07463031444014429 -0.054326105586016527
3540000000.0 0.10438213092595068 -0.026455236118498326
3560000000.0 -0.09724369866220821 0.07353145846853978
3580000000.0 0.08261245319866738 -0.10698197905535886
3600000000.0 0.1356322644370869 0.06833603500563046
3620000000.0 0.00894834875409492 0.1631586917371151
3640000000.0 -0.15160165024508088 0.08588079323602944
3660000000.0 -0.17260042470207257 -0.06466289576805484
3680000000.0 -0.10335834739970153 -0.1593962045725764
3700000000.0 -0.06633505207143962 -0.17912770699466876
3720000000.0 0.10977868381310217 -0.15532773967663696
3740000000.0 0.1783999383547628 -0.04921994056257803
3760000000.0 -0.17891112043610755 0.010254584369606133
3780000000.0 0.1695555054592947 0.014728397839767825
3800000000.0 -0.018781012833407128 -0.16161594896503184
3820000000.0 -0.13258052775933854 -0.07958418652510033
3840000000.0 -0.10153389200383 -0.10535769030028105
3860000000.0 0.11741425579643874 0.08903889531794232
3880000000.0 0.11108984674067061 0.10467842626746605
3900000000.0 0.15065645342828188 -0.05231602857331749
3920000000.0 -0.16068622367784116 -0.030799830347120003
3940000000.0 0.1418793163620654 -0.0917614407885994
3960000000.0 0.16154732258630272 0.06298320879356595
3980000000.0 0.146318959199176 -0.09342799238479568
4000000000.0 0.1665465027427191 -0.01880431636407762
