!Created with skrf (http://scikit-rf.org).
# Hz S RI R 50.0 
!freq ReS11 ImS11
400000000.0 -0.7075497995587002 0.5076882890063864
420000000.0 0.15788840736293344 0.853502946321411
440000000.0 0.8053740308664975 -0.24020192551643238
460000000.0 -0.014145348807111251 -0.7955611154164566
480000000.0 0.7144648618072238 -0.06363253367951283
500000000.0 -0.20697167320476617 -0.5498548155583368
520000000.0 -0.4821841826787144 0.14801024838264518
540000000.0 0.12860012194770598 -0.4052334693359287
560000000.0 -0.22908462458722215 0.2927210354834239
580000000.0 0.2857824818537551 -0.19771830172360152
600000000.0 -0.15580451953063884 -0.31095172181129116
620000000.0 0.13261045184316986 0.3401363346603918
640000000.0 0.29915147058842867 -0.26538639254033786
660000000.0 -0.3777035907408337 -0.1598198443600573
680000000.0 0.19663010759513802 -0.37859127534950265
700000000.0 -0.4267339467021725 -0.01227478241705801
720000000.0 -0.13738220908992643 0.396919648798857
740000000.0 0.36786526193617863 -0.17519268111022093
760000000.0 -0.35474061126340345 -0.16592994460765007
780000000.0 0.27983046494096714 0.2157499531684123
800000000.0 0.20197979067100744 -0.24836436995269806
820000000.0 -0.23759608154635087 -0.13465838279367734
840000000.0 -0.23687509857128178 0.002967197910192027
860000000.0 0.07821785678856048 -0.18405105076348333
880000000.0 0.0630066955627892 0.14426267930380393
900000000.0 -0.10760552044751394 -0.004176689378609794
920000000.0 0.040076467243683876 0.06292285979372986
940000000.0 0.01918945488753224 0.03877921851346881
960000000.0 0.04506184105123375 -0.014947319928103536
980000000.0 -0.06691414752019612 0.0012435179170654637
1000000000.0 -0.035096718229793565 0.07569207164853482
1020000000.0 -0.033031292429248925 0.09724375144761503
1040000000.0 -0.017833306263014766 0.11840204584553449
1060000000.0 -0.1274235298794202 0.09053783683041983
1080000000.0 -0.0602329355867297 0.16320551731523938
1100000000.0 0.1480083298867084 -0.13469191136710876
1120000000.0 0.06689519993916922 0.21188014617783774
1140000000.0 0.16202080773814712 -0.19719968986062827
1160000000.0 -0.23808572008213286 -0.15271357476219286
1180000000.0 -0.07642843837586631 -0.3087861822230834
1200000000.0 0.21541173714714815 -0.2658531527243669
1220000000.0 -0.18067217960111678 0.32105055526441445
1240000000.0 0.38535993788391437 -0.04713267289835348
1260000000.0 -0.3253173665900555 -0.2510968832669273
1280000000.0 -0.3454819770611578 0.24879617399992127
1300000000.0 0.38177352393235003 0.21053902857681445
1320000000.0 0.43643715843871117 -0.03424499081318354
1340000000.0 0.41727054468325864 -0.13055313326791212
1360000000.0 0.4381472669142407 0.015089837921108967
1380000000.0 0.31433603989491765 -0.30137591369756905
1400000000.0 -0.32253758018865886 -0.2815766239761608
1420000000.0 -0.07088440650384939 0.40489330581711563
1440000000.0 0.3832453395657404 0.02407904237414789
1460000000.0 0.03478534348671369 -0.3509828309075381
1480000000.0 -0.31529214728113153 0.05742641037340703
1500000000.0 -0.15053147918593954 0.244637857155994
1520000000.0 0.03301546894777684 0.25616237362338384
1540000000.0 -0.14496596198342637 -0.17698406309852374
1560000000.0 0.10042429170043872 -0.16687914242765992
1580000000.0 0.12828599432760124 0.10539613886613601
1600000000.0 0.12066282345621471 -0.056114208191469936
1620000000.0 0.09991965063862979 0.027464886330858217
1640000000.0 -0.015332087595203839 0.076263644610664
1660000000.0 0.011367472278066105 -0.053206787744024514
1680000000.0 0.01444955727010834 0.031792474308829914
1700000000.0 0.01689254634049875 0.013414684332255008
1720000000.0 0.0034379505293083267 0.004783494028272238
1740000000.0 -0.016003143840150523 -0.0006663754069732823
1760000000.0 -0.012206489582135046 0.030538684233390755
1780000000.0 0.031691568279360184 -0.05239147786045579
1800000000.0 -0.0772165929497133 0.0520124667938708
1820000000.0 -0.0650257868289744 0.10728637039023733
1840000000.0 0.06857946823556152 -0.14809343945170156
1860000000.0 -0.16692583401038347 0.11094334778813178
1880000000.0 0.2229775913911958 -0.08907224212353705
1900000000.0 -0.24241010931113063 0.1481068752075098
1920000000.0 0.23194210756946718 -0.21906263178327842
1940000000.0 -0.3234440879754814 0.14189834709747387
1960000000.0 0.3687335668182019 0.09287322018670857
1980000000.0 -0.16194515168151882 -0.36400411465406135
2000000000.0 -0.41186804014618794 -0.05024139666300643
2020000000.0 -0.09566097661457743 0.41470234236828496
2040000000.0 0.15917564939918968 0.4023220346584021
2060000000.0 0.4343828111039663 -0.03097938298675179
2080000000.0 0.21048359736940556 -0.37859371013961296
2100000000.0 -0.03144225724743719 -0.42508599027744765
2120000000.0 -0.2222198683725012 -0.3519900253047034
2140000000.0 -0.3061371563776819 -0.26547481755443475
2160000000.0 0.13847334659637575 -0.36731102086531187
2180000000.0 -0.09579081759201685 -0.3676101420954253
2200000000.0 -0.3461622171632699 -0.1246400788563469
2220000000.0 -0.34532166098421596 0.0884959673958667
2240000000.0 -0.17861592666828538 0.3030186923824099
2260000000.0 0.019353599135448346 0.3508645714689167
2280000000.0 0.29328144885661156 0.2014939117122751
2300000000.0 0.26526046479579957 -0.25681227956009284
2320000000.0 -0.2411239219604096 -0.30709125454587555
2340000000.0 -0.3253173193569212 0.26766078268674803
2360000000.0 0.4620205713634122 0.014699794423817837
2380000000.0 -0.49451113983998957 -0.12354520294582667
2400000000.0 0.5566050983615313 0.05127805803474677
2420000000.0 -0.5256952404972977 0.3080056896426454
2440000000.0 0.21872427978817693 -0.6176458583481793
2460000000.0 0.2746799003442148 0.6368576735927907
2480000000.0 -0.5328419712783481 -0.48893096968345345
2500000000.0 0.6163401196230944 0.41281576194868974
2520000000.0 -0.509348654535919 -0.5540207763497846
2540000000.0 0.12403090600455953 0.7433863054430543
2560000000.0 0.375372364819629 -0.6471600497203196
2580000000.0 -0.7338704179118269 0.00014289066179475881
2600000000.0 0.49594040353207053 0.5084079754908601
2620000000.0 0.14851655538946518 -0.6649080780156215
2640000000.0 -0.07201887979411056 -0.6412550393659372
2660000000.0 -0.39835806290628745 0.4505761035124836
2680000000.0 0.5557820392561088 0.018751226951753967
2700000000.0 -0.31500127358352503 -0.4013488490141097
2720000000.0 -0.04508401921309997 0.4621687786687514
2740000000.0 0.35626519153206654 -0.22384964760196546
2760000000.0 -0.37961981198485456 0.04026497651475914
2780000000.0 0.3467872340171474 0.05786827125432779
2800000000.0 -0.32434999303191037 0.032405152918883566
2820000000.0 0.17842105535338174 -0.25189727098116715
2840000000.0 0.011609183827560472 0.29666294480393096
2860000000.0 -0.25400104616315294 -0.1461897002631171
2880000000.0 0.256667318531181 -0.1382835381351916
2900000000.0 -0.11692466696763344 0.26753821490462465
2920000000.0 0.24154010510030055 -0.16858140153720097
2940000000.0 -0.2542176624057023 -0.15644366076956132
2960000000.0 -0.265325280881772 0.1425678853713973
2980000000.0 -0.2570016016403153 0.16491178502338918
3000000000.0 -0.3072933947250743 -0.01707459071448662
3020000000.0 -0.1619646966299515 -0.2630312240702281
3040000000.0 0.28945158144755817 -0.10222316049875868
3060000000.0 -0.138556514379596 0.27125875314874276
3080000000.0 0.0437914025254619 -0.29731259914100067
3100000000.0 -0.01361057424973849 0.2950315581041242
3120000000.0 -0.10535219574218133 -0.2696448932822944
3140000000.0 0.23121614490075315 0.16190079449668984
3160000000.0 -0.23813832096649404 0.12302728339160761
3180000000.0 0.2300630606126077 0.10306694859414657
3200000000.0 -0.1352024876291817 0.18443029720116932
3220000000.0 -0.14302981544183951 -0.1439497897128337
3240000000.0 0.16610128533079538 -0.04966569829495349
3260000000.0 -0.0390006126635054 0.13601197405789983
3280000000.0 0.08647698201628147 -0.06761060438374106
3300000000.0 -0.07976548200667244 0.004699778144166621
3320000000.0 0.022273730037458604 0.04842872143356091
3340000000.0 0.029358458878410175 0.0032296119893425053
3360000000.0 -0.008257157646764686 -0.006414520336924795
3380000000.0 -0.0030584887055028786 0.004434601204050588
3400000000.0 -0.011045911520560477 0.016269771511674008
3420000000.0 0.03075123786151742 0.01056251602313857
3440000000.0 -0.018577399534409168 -0.03907274113179686
3460000000.0 0.05213959309304185 0.005144307697977898
3480000000.0 0.004671735979434329 0.06337068516138032
3500000000.0 0.0765896889156965 0.013002123095733406
3520000000.0 -0.05266355285086515 -0.07600732954843142
3540000000.0 0.10733027479760972 0.0067110192370041875
3560000000.0 -0.11141456670194341 0.04987808443264012
3580000000.0 0.10461612470029238 -0.0856461525097687
3600000000.0 0.12848195634407153 0.08157738334095513
3620000000.0 -0.026061401138736433 0.16111044656055812
3640000000.0 -0.16579699083020635 0.05278449137217305
3660000000.0 -0.1634960929537028 -0.08491194624647205
3680000000.0 -0.08100774572194688 -0.17158978137541345
3700000000.0 -0.043913025170124444 -0.18562486398973801
3720000000.0 0.12164103774828189 -0.14585576885633314
3740000000.0 0.1783307910858632 -0.04773044185656965
3760000000.0 -0.17879226725732913 -0.0037938834881280814
3780000000.0 0.1680837166215627 0.02263952396271067
3800000000.0 -0.015438189722846538 -0.16159134126738636
3820000000.0 -0.132134780433094 -0.07918082932907956
3840000000.0 -0.10768639292628066 -0.09841267201844946
3860000000.0 0.1225107548733967 0.08065775234084269
3880000000.0 0.11964589108812661 0.09380278139625582
3900000000.0 0.14347903019556596 -0.0682421116849973
3920000000.0 -0.16294700111496965 -0.009959660535089737
3940000000.0 0.12330363565579337 -0.1147043995522681
3960000000.0 0.17242121082484782 0.011168323281548025
3980000000.0 0.12682177467069142 -0.11805091608466839
4000000000.0 0.16172480881327553 -0.04344100190720672
