!Created with skrf (http://scikit-rf.org).
# Hz S RI R 50.0 
!freq ReS11 ImS11
400000000.0 -0.7315533053084212 0.46868051759185037
420000000.0 0.1371778683453381 0.8570617535481178
440000000.0 0.7925846288662173 -0.2794651009330123
460000000.0 0.02390081006444345 -0.7954327409999122
480000000.0 0.7132278121319633 -0.07663496365938294
500000000.0 -0.23184508278646218 -0.5402879350445364
520000000.0 -0.4824653733162842 0.14453891135810462
540000000.0 0.11503164186550595 -0.40962995201865077
560000000.0 -0.2275163706225537 -0.2928111345535507
580000000.0 0.30487365490834795 -0.1680336785359416
600000000.0 -0.14939515299993983 -0.31440716829303716
620000000.0 0.17786402396320639 0.31783147653601174
640000000.0 0.3322635810500152 -0.2230199087819361
660000000.0 -0.37639761750092243 -0.16412302934506334
680000000.0 0.1703134068408773 -0.38938243453211013
700000000.0 -0.42623534171605465 -0.012321344414852987
720000000.0 -0.14030511853333683 0.39586204229937616
740000000.0 0.3665744142226215 -0.17730917633619742
760000000.0 -0.35314323374081175 -0.16912156892747077
780000000.0 0.29112087723231495 0.1992358952248589
800000000.0 0.20126836156925698 -0.24860775779219416
820000000.0 -0.24968660699574638 -0.11055671202080831
840000000.0 -0.23444317429749653 0.033731258319924115
860000000.0 0.06263080933742794 -0.19023618853214508
880000000.0 0.06025274696331383 0.14555293548654002
900000000.0 -0.1071440080584031 -0.0017203702782050533
920000000.0 0.06395730725441882 0.0374309944494476
940000000.0 0.03689688097020677 0.02185801923059271
960000000.0 0.04055462287979826 -0.0251334505079893
980000000.0 -0.06664641640000267 -0.004332402748873811
1000000000.0 -0.013399411014604895 0.08175174298182987
1020000000.0 0.003712042482170665 0.10221896256675637
1040000000.0 0.008648243143129463 0.11942244493067754
1060000000.0 -0.11384588650158024 0.10749789914438945
1080000000.0 -0.05075011674647302 0.16647301022683902
1100000000.0 0.15640139429353617 -0.12519013390528502
1120000000.0 0.060366168896118275 0.21405192178434385
1140000000.0 0.1661455915454953 -0.19370500930747805
1160000000.0 -0.23462643403098726 -0.1579825417168551
1180000000.0 -0.041689938791518055 -0.3151494103649136
1200000000.0 0.2293410663910694 -0.25385442217381243
1220000000.0 -0.18809068129418074 0.3166408793159496
1240000000.0 0.3851898922389103 -0.04630491561842502
1260000000.0 -0.32050818290227007 -0.2565792912978435
1280000000.0 -0.3533992295691353 0.23666769431942203
1300000000.0 0.38153448617869073 0.21146898093501068
1320000000.0 0.4338857676663897 -0.05975876783970179
1340000000.0 0.4130231049441229 -0.14371682556546353
1360000000.0 0.43800122543474823 0.020895622122768513
1380000000.0 0.30861236631838856 -0.3069566329742687
1400000000.0 -0.3267066744807713 -0.2769434571075705
1420000000.0 -0.07630071046686435 0.4043171943785329
1440000000.0 0.38370097596306085 -0.017142516717927846
1460000000.0 0.0316673314735265 -0.35152888927307097
1480000000.0 -0.3154040555805493 0.05794556926073933
1500000000.0 -0.13909217994768347 0.2519208876796477
1520000000.0 0.05550040898753738 0.2520007152878677
1540000000.0 -0.14155356746038375 -0.1797548988475867
1560000000.0 0.09311221007359494 -0.17123997632912918
1580000000.0 0.12365983226502739 0.11105872590530073
1600000000.0 0.12616000166157043 -0.04184158844449543
1620000000.0 0.1032711282309143 0.008235277703153307
1640000000.0 -0.021571229605356276 0.07463406200158942
1660000000.0 -0.0024828176995487943 -0.05386664940882306
1680000000.0 0.03381387939045059 0.006830797247391668
1700000000.0 -0.006047130017470319 -0.02060179686233842
1720000000.0 -0.004853134984712793 -0.002090724972685694
1740000000.0 -0.0026559333146187873 -0.015577352746432136
1760000000.0 -0.020695897249878435 0.025725994345697223
1780000000.0 0.044007109998444816 -0.04181050426061184
1800000000.0 -0.08213843444731614 0.04222989675338376
1820000000.0 -0.07726046999833704 0.098219838494822
1840000000.0 0.06530336344850979 -0.1490868372776177
1860000000.0 -0.15802760899204854 0.1231620259491823
1880000000.0 0.21443672831280058 -0.1081877625780089
1900000000.0 -0.24301882663507474 0.1474681828148946
1920000000.0 0.22192441709461744 -0.2294974880533799
1940000000.0 -0.32652527771228546 0.13527811338256224
1960000000.0 0.3672402161504247 0.10043001891677736
1980000000.0 -0.17405523312455848 -0.3588415737183329
2000000000.0 -0.41168781918984726 -0.054844513138081454
2020000000.0 -0.09157477294460548 0.4157775784879773
2040000000.0 0.169908042749886 0.39821488779007
2060000000.0 0.4351579260296733 -0.01890659889059508
2080000000.0 0.2176031533118785 -0.37474156351621124
2100000000.0 -0.02288013540954632 -0.4252742558507733
2120000000.0 -0.22443949641058195 -0.3504977658840088
2140000000.0 -0.3097664742331016 -0.26177916872881224
2160000000.0 0.15433513063679621 -0.36102603100189473
2180000000.0 -0.08216475677098825 -0.3706144662004264
2200000000.0 -0.3328839301737068 -0.1567685209088425
2220000000.0 -0.3522890841741997 0.051165162915720534
2240000000.0 -0.17936404293043387 0.3020534977903489
2260000000.0 0.0031086574789391157 0.3511244898576658
2280000000.0 0.2621753552889213 0.23992500241587222
2300000000.0 0.26246557316656455 -0.2583815117926358
2320000000.0 -0.24401949840783774 -0.3037722467251767
2340000000.0 -0.2817701265149917 0.3135234352170784
2360000000.0 0.4617419390918349 -0.024125846370927618
2380000000.0 -0.5005958488031892 -0.09543985661837173
2400000000.0 0.558288010012416 0.03506252599771586
2420000000.0 -0.5248928133404733 0.31056259500715805
2440000000.0 0.21673309597488402 -0.6188104583170387
2460000000.0 0.2804380982994166 0.6348721629109787
2480000000.0 -0.5434524393754869 -0.4775743050711949
2500000000.0 0.5942286937571714 0.4442961098805738
2520000000.0 -0.5084137842688308 -0.5552812627127063
2540000000.0 0.10408001165378385 0.746643350987986
2560000000.0 0.37600300457613567 -0.6462637990151541
2580000000.0 -0.7332644904557996 -0.011878414293104477
2600000000.0 0.4842488903664089 0.519198063211034
2620000000.0 0.1580550753363736 -0.6619675492853443
2640000000.0 -0.06734527736441812 -0.6412215254025041
2660000000.0 -0.4139797246089429 0.43532994327168206
2680000000.0 0.5543426495926027 0.03467214438065952
2700000000.0 -0.2911618658954911 -0.41815295582089296
2720000000.0 -0.05192686012216113 0.46031925248825584
2740000000.0 0.3594052176105485 -0.21723406764064024
2760000000.0 -0.3800481677090461 0.02878887974805607
2780000000.0 0.3456495852880715 0.06241865819810001
2800000000.0 -0.32198806966575133 0.048107051941170986
2820000000.0 0.1582661495521817 -0.26476556605974033
2840000000.0 0.03286410713819701 0.29518113072958346
2860000000.0 -0.26434917774528804 -0.1255110581427885
2880000000.0 0.25409622183769026 -0.14305611856064007
2900000000.0 -0.11940656363729832 0.2666461851481188
2920000000.0 0.23134295628817006 -0.1821853973612676
2940000000.0 -0.2614242788998716 -0.144748051681496
2960000000.0 -0.24884351259512927 0.17074043532435426
2980000000.0 -0.2715833957543546 0.13986796327542295
3000000000.0 -0.3072178880123634 -0.013210519087484697
3020000000.0 -0.12752395615350517 -0.2812355726674123
3040000000.0 0.29760643346443527 -0.07067406206480417
3060000000.0 -0.21277938540195218 0.21800066700972615
3080000000.0 0.10289519393577005 -0.28193559548476943
3100000000.0 -0.0921596920337987 0.2803843825528282
3120000000.0 -0.055398128495497 -0.2837631928752199
3140000000.0 0.22243953466612582 0.17189075030960652
3160000000.0 -0.25389529581847226 0.0842970752560618
3180000000.0 0.21564505634800368 0.12987478684093562
3200000000.0 -0.1462717386207079 0.17470709175472005
3220000000.0 -0.14189044990515984 -0.1441830761540021
3240000000.0 0.16554599280182697 -0.04990026141323428
3260000000.0 -0.04875177686119263 0.13183851197015667
3280000000.0 0.08076989727620798 -0.0738223303206291
3300000000.0 -0.04914471693416651 0.062282367795111364
3320000000.0 0.04369411999260445 0.030484576033051887
3340000000.0 0.028575582903077393 0.007253925732766304
3360000000.0 -0.003840299209165704 0.010014785027968579
3380000000.0 0.0054771068242651716 0.000969010922983604
3400000000.0 -0.014184943324014224 -0.013036945610150745
3420000000.0 -0.00023691215138339758 0.03173240260294372
3440000000.0 0.0344030066584878 -0.02467690592913387
3460000000.0 0.04907620575534156 0.015604449459447346
3480000000.0 0.020292471490041226 0.05893311992537576
3500000000.0 0.07488378488040713 0.019744509860842065
3520000000.0 -0.031649534814132095 -0.08665399378378445
3540000000.0 0.09083871976754058 0.05724554996581221
3560000000.0 -0.12146762402440113 -0.00462280161426816
3580000000.0 0.12073415284915162 -0.059352715663714285
3600000000.0 0.10540196529195932 0.10908745369415493
3620000000.0 -0.02535876127074169 0.16175624309199668
3640000000.0 -0.1713402771504277 0.024323096876963223
3660000000.0 -0.1748909609603494 -0.05662092223426936
3680000000.0 -0.08354838541636675 -0.16971015424978586
3700000000.0 -0.06586898026017826 -0.1792977700414278
3720000000.0 0.13379428738046226 -0.13490630140130425
3740000000.0 0.17775893818614533 -0.05053585662038486
3760000000.0 -0.17621587678539843 -0.0289419865588434
3780000000.0 0.1667267728935047 0.03352823695125045
3800000000.0 -0.019385869314082024 -0.1606862652917181
3820000000.0 -0.12639229336616883 -0.08816318719475247
3840000000.0 -0.07941982497048737 -0.1229509680978919
3860000000.0 0.11235837590785885 0.09490904585198798
3880000000.0 0.07770350183713139 0.13116378921525595
3900000000.0 0.1580085901471671 0.010108060147615814
3920000000.0 -0.1584913154244096 -0.03840204210609094
3940000000.0 0.12604778764691968 -0.11156532748512037
3960000000.0 0.1681640643436467 0.03889222891514419
3980000000.0 0.12317745730294463 -0.12164400836097027
4000000000.0 0.15592568606732846 -0.06087256697520017
