!Created with skrf (http://scikit-rf.org).
# Hz S RI R 50.0 
!freq ReS11 ImS11
400000000.0 -0.7258185540090084 0.47750176009366146
420000000.0 0.15460490641056357 0.8543803237650612
440000000.0 0.7884987209628689 -0.2886896469601052
460000000.0 0.04181027676606771 -0.7949133891756464
480000000.0 0.713237258012507 -0.0760347749282677
500000000.0 -0.26511576427856365 -0.5246933272429751
520000000.0 -0.48627286858349655 0.13149742900216443
540000000.0 0.16428422167015364 -0.39305267012014744
560000000.0 -0.25829451236589046 -0.267796971906248
580000000.0 0.2919865416625512 -0.18732932508502764
600000000.0 -0.11741943778625635 -0.32757122352645185
620000000.0 0.18157251170786518 0.31682742912168743
640000000.0 0.3116547334725249 -0.25106637881728033
660000000.0 -0.3690012910127017 -0.1795394758908601
680000000.0 0.19011739201602018 -0.3815986753593321
700000000.0 -0.4265098633044713 -0.01649722231680312
720000000.0 -0.12949905267836614 0.399737355047316
740000000.0 0.36662844543147177 -0.17897404542690598
760000000.0 -0.35682354902900465 -0.16138004323480204
780000000.0 0.2814155308932738 0.2136870414915241
800000000.0 0.21052352804394037 -0.2411757088315846
820000000.0 -0.23654424294733528 -0.13680099328913753
840000000.0 -0.23671163647387986 -0.004421573550597168
860000000.0 0.06820953913986712 -0.18811527365180106
880000000.0 0.06516457631493083 0.14355480646310004
900000000.0 -0.10728130999888168 0.0056438999102778374
920000000.0 0.03975977777121904 0.06305121407663832
940000000.0 0.0232092960555734 0.03645406469761765
960000000.0 0.04256358103317615 -0.02061848218911872
980000000.0 -0.06647250050083367 -0.009071698751567412
1000000000.0 -0.02390545676189 0.08001568783013305
1020000000.0 -0.03610365276091684 0.096203388033185
1040000000.0 -0.0393688837826521 0.11328873380938122
1060000000.0 -0.12420679687859018 0.09514960213146446
1080000000.0 -0.049966995125523675 0.16651621130428007
1100000000.0 0.1616000537082708 -0.11811600769354051
1120000000.0 0.052855255384315826 0.2159295367291564
1140000000.0 0.15569469778922482 -0.2021079380793415
1160000000.0 -0.2330958221531321 -0.15993589114946943
1180000000.0 -0.07561747997621726 -0.3090131421955698
1200000000.0 0.21266996965724166 -0.26803404143325654
1220000000.0 -0.18593639624905267 0.3178841411407072
1240000000.0 0.38550813640166026 -0.04586994608178073
1260000000.0 -0.32142558963728607 -0.25621510381742413
1280000000.0 -0.3443527315034098 0.2503758633347527
1300000000.0 0.37493925855182203 0.22248888205199474
1320000000.0 0.4344658357556939 -0.05536346441490708
1340000000.0 0.4185011832124033 -0.12663385758724408
1360000000.0 0.43817649039468387 0.016835173602272345
1380000000.0 0.3129125191892096 -0.30270995150520974
1400000000.0 -0.3198911048382772 -0.284591971999497
1420000000.0 -0.08078476502771666 0.4029865486638434
1440000000.0 0.3835220618931639 0.013269070231027922
1460000000.0 0.046723766254551546 -0.3494287106892332
1480000000.0 -0.31246662378784146 0.07056271023761936
1500000000.0 -0.1485251405280307 0.2453649747549965
1520000000.0 0.04105490699691215 0.25481794590010776
1540000000.0 -0.14363988688622123 -0.17789438737738733
1560000000.0 0.11852557720602018 -0.154925318574503
1580000000.0 0.11500443366110977 0.11991138643597596
1600000000.0 0.11759111678112513 -0.06190733762303445
1620000000.0 0.10198249326964964 0.018719493209529255
1640000000.0 -0.008122503902550107 0.07751938246250654
1660000000.0 0.00021143199038071593 -0.05464744806203144
1680000000.0 0.026721044644478303 0.022694162808769035
1700000000.0 0.02124083600419299 -0.005286713857354992
1720000000.0 0.005873232794055301 0.0004434712087148805
1740000000.0 -0.014779750785362077 -0.005890667555439374
1760000000.0 -0.015453434630673567 0.028862395862392233
1780000000.0 0.03372940952459798 -0.05104353089939391
1800000000.0 -0.06706409403386347 0.0652774640259464
1820000000.0 -0.06879474002712042 0.10456273902309947
1840000000.0 0.07249481367475982 -0.14617576795178153
1860000000.0 -0.16511676158247882 0.11365623479230265
1880000000.0 0.22067065371237218 -0.09475525486811807
1900000000.0 -0.23759297042717278 0.15624790594790408
1920000000.0 0.22205993401236107 -0.22940530218414693
1940000000.0 -0.33012920356291475 0.12592236070590263
1960000000.0 0.36802997320920056 0.09578298895529547
1980000000.0 -0.15295574824756752 -0.36807073014565106
2000000000.0 -0.41247793308876246 -0.043636188456928245
2020000000.0 -0.09941572711842006 0.4137638595103178
2040000000.0 0.15823688787683093 0.4024765165803932
2060000000.0 0.43206248630184974 -0.05398424588659085
2080000000.0 0.23933412005278065 -0.361042714450816
2100000000.0 -0.014179183154763011 -0.4259671622602512
2120000000.0 -0.2526849572494287 -0.33030537445890784
2140000000.0 -0.28429100793884576 -0.2885696160969131
2160000000.0 0.1650677664491179 -0.35613121237866696
2180000000.0 -0.07760883548555719 -0.3718572226044204
2200000000.0 -0.34013446440153594 -0.14022921843010663
2220000000.0 -0.3434819804229047 0.09542081576625466
2240000000.0 -0.15977762570815388 0.31351583073483164
2260000000.0 0.030429992435124464 0.349885129312642
2280000000.0 0.2800892907035778 0.21870890277483318
2300000000.0 0.27717840551660405 -0.24326989995224493
2320000000.0 -0.23333533425381667 -0.3125413644028379
2340000000.0 -0.3022044518135612 0.29372500594222717
2360000000.0 0.46187875950657553 0.01843937348745471
2380000000.0 -0.4974464710483869 -0.11011412798698496
2400000000.0 0.5564201240687786 0.05163824793697299
2420000000.0 -0.5150943740687103 0.3251822295158542
2440000000.0 0.23893584107131852 -0.6102307764372066
2460000000.0 0.2701062959865703 0.6390282147784625
2480000000.0 -0.5303559177496493 -0.4920109135916021
2500000000.0 0.5586023027052134 0.48879229269554775
2520000000.0 -0.46705515426668415 -0.5898022895000885
2540000000.0 0.11489439489160322 0.7449394948486666
2560000000.0 0.3741807503746304 -0.6477294062698207
2580000000.0 -0.7319133581212586 0.05063412829066296
2600000000.0 0.45039499293210744 0.5491848606232744
2620000000.0 0.21245850692792864 -0.6469524444378507
2640000000.0 -0.07632529879662792 -0.6404803223389938
2660000000.0 -0.4042519036051274 0.4448741916360966
2680000000.0 0.5550764530784023 0.025475197839043895
2700000000.0 -0.3261399195730042 -0.3922890936470202
2720000000.0 -0.0350137971778588 0.46278018929190823
2740000000.0 0.3706388749944397 -0.1983773052583018
2760000000.0 -0.38069398965047974 0.024500645080883506
2780000000.0 0.34820910735674465 0.048516644637842186
2800000000.0 -0.3242018563259759 0.03351544839902012
2820000000.0 0.17815324353264 -0.25221164939867985
2840000000.0 0.029485062564734026 0.2951329414314439
2860000000.0 -0.24766177262962233 -0.15673487647169662
2880000000.0 0.2600568391602057 -0.1319111760574042
2900000000.0 -0.11812237608747643 0.26694685297395015
2920000000.0 0.2268132287802546 -0.18762374008624347
2940000000.0 -0.25882375789515955 -0.14809465506971584
2960000000.0 -0.2604477835044441 0.1514088024403041
2980000000.0 -0.2656928937833113 0.15016042247466369
3000000000.0 -0.30799068360960974 0.0009427059865615196
3020000000.0 -0.19246455708292862 -0.2413941818563338
3040000000.0 0.27560648550614625 -0.13583671270173517
3060000000.0 -0.16194317105831013 0.2581818297598459
3080000000.0 0.04778897517788828 -0.29654408994889475
3100000000.0 -0.03889328889705494 0.2929034103431152
3120000000.0 -0.12247255800883229 -0.2632908651672093
3140000000.0 0.24435587516884086 0.14153819529299247
3160000000.0 -0.2512329695489097 0.09235826869140103
3180000000.0 0.22615524927271077 0.11284011989051122
3200000000.0 -0.13864264455829697 0.1821298664914984
3220000000.0 -0.1408789044062682 -0.14588313685604584
3240000000.0 0.1697465718632957 -0.034482103072807885
3260000000.0 -0.06555069919577843 0.1251655737447232
3280000000.0 0.09236868618084206 -0.05935743041678418
3300000000.0 -0.07856116480013768 0.012900122844962758
3320000000.0 0.026105985666512926 0.0463756602141868
3340000000.0 0.029540754074670876 0.0025304116343317887
3360000000.0 -0.009926964193493095 0.003526087642780206
3380000000.0 0.00370795564157646 -0.004057432475951785
3400000000.0 0.0057393350479437765 0.019031709573147995
3420000000.0 0.030852916003197603 -0.010585844080344672
3440000000.0 -0.008106154384211278 -0.04245961046592714
3460000000.0 0.052391478404225575 0.0026344503807000184
3480000000.0 -0.008345847903942135 0.06273095479323303
3500000000.0 0.07594276222134046 0.016193441663066854
3520000000.0 -0.06959097355583638 -0.06133543375077131
3540000000.0 0.10742130063335162 0.007080598084993709
3560000000.0 -0.11132622318484416 0.04952771298607911
3580000000.0 0.09765342655324351 -0.09355388719171699
3600000000.0 0.12672696661385294 0.08379486083375291
3620000000.0 -0.026353241617841708 0.16110714220289316
3640000000.0 -0.16335061683243723 0.06016380726906075
3660000000.0 -0.1690978526320561 -0.07294220795070067
3680000000.0 -0.08459471794009503 -0.16965375948980807
3700000000.0 -0.0486258975222738 -0.1844981177459604
3720000000.0 0.1089267600617755 -0.15588118187252503
3740000000.0 0.17799610710333405 -0.04950581649996631
3760000000.0 -0.17877597749072033 -0.004398411995338992
3780000000.0 0.1698866917622017 0.000992356279524149
3800000000.0 -0.02914429041985812 -0.15985615141450152
3820000000.0 -0.14032074142037046 -0.06387471584136979
3840000000.0 -0.11370884118152484 -0.09148901567765656
3860000000.0 0.13118881512439187 0.06585729540623111
3880000000.0 0.11778558139652068 0.09652049504277535
3900000000.0 0.13662231195375402 -0.08118179917625103
3920000000.0 -0.16321206752865522 0.0020568149834611998
3940000000.0 0.11842977347804641 -0.11971719142216614
3960000000.0 0.17156830685455204 0.022460187698435323
3980000000.0 0.12863175370745042 -0.1166468704189361
4000000000.0 0.1639831799047266 -0.034501727526528164
