!Created with skrf (http://scikit-rf.org).
# Hz S RI R 50.0 
!freq ReS11 ImS11
400000000.0 -0.6343973010379778 0.6025953781305754
420000000.0 0.5405327033120447 0.6834239785702568
440000000.0 0.6598278133985623 -0.5228157829036523
460000000.0 -0.1640066972833003 -0.7769890546953709
480000000.0 0.7000040826685865 -0.18735741981922077
500000000.0 -0.5446098185618484 0.2516135856795908
520000000.0 0.4697613831049308 -0.17134995521466448
540000000.0 -0.31983289340776794 0.24764993906727434
560000000.0 -0.16899357812955 0.3132554895262015
580000000.0 -0.1837333306882555 -0.27591447787246887
600000000.0 0.09984994972433311 0.31188138681281813
620000000.0 -0.2796727566752684 -0.1891850029111055
640000000.0 0.0901614612939742 -0.3423242734211464
660000000.0 0.31833283699456333 -0.18467377232315443
680000000.0 -0.2539028408182889 0.3055086065405103
700000000.0 0.05006788861325701 0.403286087318229
720000000.0 0.12595449619866014 0.3959306272655178
740000000.0 -0.13501690285609205 -0.39700057048463894
760000000.0 -0.0622814108206221 0.40802091801094703
780000000.0 -0.30564912783769144 -0.23794190498049633
800000000.0 0.29988920505804173 0.20868157345761074
820000000.0 0.1955036896356707 0.2521074603183241
840000000.0 -0.23557562865696555 0.13639590114419745
860000000.0 0.04604844265463403 0.2209789289197371
880000000.0 -0.16099618704604124 -0.06489808415134429
900000000.0 -0.06310771914199824 0.08735522641994968
920000000.0 0.06644934101909564 0.02074587178451071
940000000.0 0.05155219047527304 -0.014410477842090194
960000000.0 0.033854149291491484 -0.0547197004753925
980000000.0 -0.030393245467140978 0.07085378218495138
1000000000.0 0.05249077151873802 -0.06664383370787336
1020000000.0 0.09050155988225503 0.018374465582507077
1040000000.0 0.0652471499859056 0.07604883031238778
1060000000.0 -0.05176061153482229 0.12101013316994713
1080000000.0 -0.012137559684571921 -0.1480083115378311
1100000000.0 0.05366019916914719 -0.16332762378254212
1120000000.0 -0.06974126599680328 -0.18494640548957636
1140000000.0 -0.22537432836097504 -0.0725551162962617
1160000000.0 -0.10920475316977143 0.2533939224011735
1180000000.0 -0.144416729552446 0.28423735808703493
1200000000.0 -0.1644552130480106 0.3083272351444561
1220000000.0 -0.2753651573585333 -0.2629493026810957
1240000000.0 0.33185992678152265 0.227431637679163
1260000000.0 -0.3694977887681276 -0.207715711368064
1280000000.0 -0.09639146411833417 0.4251796321857346
1300000000.0 0.2575028386768675 -0.3577631194208271
1320000000.0 0.022494186022021797 -0.4346283421573622
1340000000.0 0.13069228074370812 -0.40820845458389227
1360000000.0 0.42786025830170293 0.02920892834469389
1380000000.0 0.42735912322247116 -0.03921235254895377
1400000000.0 -0.04164372716163405 -0.42309427014502476
1420000000.0 -0.397152927265414 0.11148017572232553
1440000000.0 0.3149768908672207 0.22924499965132542
1460000000.0 0.025642826608290495 -0.3591927710995728
1480000000.0 -0.19097409547534278 0.26530746809017064
1500000000.0 0.2342341928745745 0.17000354464719591
1520000000.0 0.23360929908421288 -0.10261041701242825
1540000000.0 -0.19959730075658352 0.0974284946265947
1560000000.0 0.055349624121149466 -0.1773181896608011
1580000000.0 -0.07637881971523917 0.13765070891014447
1600000000.0 -0.10962202933484579 -0.06290383641194891
1620000000.0 0.10093179125880877 -0.010758283251126684
1640000000.0 -0.06533792944620424 -0.04638725239161619
1660000000.0 -0.028517984806632746 0.05263861047345916
1680000000.0 0.042901105918154145 -0.010535302624315691
1700000000.0 0.03409359122939724 0.0026080508931611924
1720000000.0 0.000710228105481926 -0.018244409529826772
1740000000.0 0.0017946353646626002 0.0032169803227295414
1760000000.0 -0.0057332613665284455 0.01821288593524238
1780000000.0 0.04740681944320997 0.019828394298701958
1800000000.0 0.026269229144658603 -0.08336845461639243
1820000000.0 -0.12106968806951847 -0.030398838247485054
1840000000.0 -0.11629980646442313 -0.12324312216173315
1860000000.0 0.11894623497816226 -0.17454978555646372
1880000000.0 0.24264967436573578 0.07648966660200716
1900000000.0 -0.16621636942623808 0.24857967190063
1920000000.0 -0.24742089169063722 -0.22133466421650294
1940000000.0 0.2936482654375223 0.20750977759885858
1960000000.0 -0.15567696757207486 -0.3469746957041848
1980000000.0 -0.3431273145092472 0.18888182308120494
2000000000.0 -0.25129070909121076 0.31546762978270426
2020000000.0 0.0069661516291717185 0.4116781054713766
2040000000.0 -0.07720115494633167 0.4124412462472917
2060000000.0 0.15893047716721956 0.39285541053438866
2080000000.0 0.2141005649690315 0.36793298549402315
2100000000.0 0.3486456312048189 0.2423580005190995
2120000000.0 0.42093545392344167 -0.00011025530025629595
2140000000.0 0.17589686355581544 -0.37457674167085087
2160000000.0 0.33891112122400124 -0.21414261857275702
2180000000.0 -0.11871940642099382 -0.36847400121943125
2200000000.0 -0.3719623643979034 0.016550819662553534
2220000000.0 -0.09511391741896787 0.34432386761971734
2240000000.0 0.26794690885554373 0.22324270312521938
2260000000.0 0.29654461647499464 0.16796603687867223
2280000000.0 0.29724481425140803 0.16697608274497192
2300000000.0 0.34473088228434184 0.07507851539274502
2320000000.0 0.32495842743708814 -0.19229461370324127
2340000000.0 -0.10016081468779157 -0.4003140765915147
2360000000.0 -0.23740307406084446 0.39128701352899264
2380000000.0 0.2213881872752195 -0.4582767081722929
2400000000.0 0.023919801690498434 0.5604161083470175
2420000000.0 -0.4200894491905669 -0.4449588876243016
2440000000.0 0.6586453766760894 0.002954044460959155
2460000000.0 -0.5332060476218665 0.45118811036540085
2480000000.0 0.24260758878756203 -0.6879863683858827
2500000000.0 -0.22877547992250707 0.7148952434319094
2520000000.0 0.3259655532772826 -0.6889760198570046
2540000000.0 -0.6114010870255739 0.4587927433167442
2560000000.0 0.7603674119195342 0.0010019173513273756
2580000000.0 -0.37901732136548466 -0.6431621461069184
2600000000.0 -0.16633299038275606 0.7046392634302849
2620000000.0 0.6299457229965497 -0.29232582911761396
2640000000.0 0.3330894417945482 -0.5688931792827268
2660000000.0 -0.6049181773547941 0.10480985804137863
2680000000.0 0.4648277929322385 0.3252264939145518
2700000000.0 -0.1513585193491448 -0.4969283254549161
2720000000.0 -0.13101596485429656 0.45216928798235206
2740000000.0 0.37018980651634764 -0.20916184863551446
2760000000.0 -0.3852090476034108 0.009077748300502005
2780000000.0 0.3448063333132079 0.08244579932032489
2800000000.0 -0.32868960165712446 0.008527848752881637
2820000000.0 0.17340982072578123 -0.25918418135556975
2840000000.0 0.008533096045883582 0.30081556192594894
2860000000.0 -0.27027867854169985 -0.12793740925560226
2880000000.0 0.19864837638547017 -0.2244989072807555
2900000000.0 -0.029418222428772605 0.3001283275564127
2920000000.0 0.17782144150952625 -0.2467743225239899
2940000000.0 -0.3068492415509488 -0.01586672701390446
2960000000.0 -0.150535042579392 0.27152939216533484
2980000000.0 -0.09945652434703807 0.2966546434499418
3000000000.0 -0.2447853996555012 0.19672292474739525
3020000000.0 -0.2977296747479022 -0.09638539721505308
3040000000.0 0.21696521793309081 -0.21779877227980537
3060000000.0 -0.17383685070258487 0.24907340719408141
3080000000.0 0.24725254061627217 -0.1676270096359639
3100000000.0 -0.28106496638731115 0.09020705493586927
3120000000.0 0.27201121990203764 -0.09924627559874634
3140000000.0 -0.20149935970677532 0.19932661985565817
3160000000.0 -0.018483635220675167 -0.2713445234878451
3180000000.0 -0.08330490540822229 0.24539784601097525
3200000000.0 -0.2195626649708189 0.09005131135350422
3220000000.0 -0.20895153818582807 0.029408572172468537
3240000000.0 -0.16726443209548145 -0.05966630344590191
3260000000.0 -0.03936327825191112 -0.13549428713656855
3280000000.0 0.09677508871443549 0.03895034041598839
3300000000.0 -0.04715231282189914 -0.05149277259687562
3320000000.0 0.03134461496577409 -0.027069437245565126
3340000000.0 -0.01858680366783172 0.00969828348263727
3360000000.0 0.006395403979837434 -0.009322993104852961
3380000000.0 0.0010923377419611415 -0.006391984007201599
3400000000.0 0.009008409533913467 -0.0010297407928655214
3420000000.0 0.005570101713112799 0.021440432394860175
3440000000.0 -0.034002131021980145 0.019110064864041553
3460000000.0 0.05422672754418811 -0.017116986676525555
3480000000.0 0.07189681886804342 0.017874944656186335
3500000000.0 0.05589545208585657 -0.06950482019645975
3520000000.0 0.0930117094922035 0.03859541835724068
3540000000.0 0.015516457335771318 0.10827662012694114
3560000000.0 0.04309430552674188 -0.11056202844767993
3580000000.0 -0.12819273271689513 -0.014215257875847185
3600000000.0 0.10817584649940423 0.09637888855909758
3620000000.0 -0.15494792475927446 -0.030947073889515744
3640000000.0 0.08246988477800239 -0.15244596314576717
3660000000.0 0.12429339241225487 -0.14051203721031394
3680000000.0 0.08161785588514268 -0.17779456385937004
3700000000.0 -0.06403588439890445 -0.18714589917774607
3720000000.0 -0.050735187191726275 -0.18973126125160958
3740000000.0 -0.05736934109701193 -0.17989145425489786
3760000000.0 0.03467802385417404 0.176781100318063
3780000000.0 0.016055505682496328 -0.16675598460191657
3800000000.0 -0.11425405973710673 -0.10914434841988573
3820000000.0 -0.10972961720138968 -0.10061771828686959
3840000000.0 0.10641039787637759 -0.09608639646596434
3860000000.0 -0.10704709453927279 0.10094554823480766
3880000000.0 -0.03832420496744005 0.15085279879242838
3900000000.0 0.15349798946732374 -0.05753805889164969
3920000000.0 -0.12017912745008348 0.1171199367867433
3940000000.0 0.037061389359158925 -0.16626375932837273
3960000000.0 0.1500784594298911 -0.08887447519378146
3980000000.0 0.08853056645721495 -0.14802024992270757
4000000000.0 0.15462857233960542 -0.05614842622799272
