! Created with skrf (http://scikit-rf.org).
# Hz S RI R 50.0 
!freq ReS11 ImS11
400000000.0 0.18288606397682247 0.8549874259093247
420000000.0 0.6043212255324403 0.6124560603811154
440000000.0 0.7901789068943987 -0.247523338553155
460000000.0 0.1558362366467185 -0.7733848369465547
480000000.0 0.5208625312206463 -0.48141614266249033
500000000.0 0.1964917696267628 -0.5281576757100528
520000000.0 -0.015491121026045827 -0.48718460580756684
540000000.0 0.41431180289484126 -0.08460097129242138
560000000.0 -0.3068065478220397 -0.16995892890519737
580000000.0 -0.26275295841030083 0.20231676114914918
600000000.0 0.2826461609769666 0.16040982172848292
620000000.0 0.08782184255547797 -0.3355840681200463
640000000.0 -0.19005845456909004 -0.3311352057675987
660000000.0 -0.4005399034503616 0.015615855731576894
680000000.0 0.00394001836181584 -0.43060667146314746
700000000.0 0.32318094474628406 0.31293899938549974
720000000.0 0.03966265514259459 -0.4471541340994798
740000000.0 0.40597564632105915 -0.16574212064953794
760000000.0 -0.38051195377056823 -0.16445442445919664
780000000.0 0.3228275224863526 -0.205281224881851
800000000.0 -0.22092597750041218 0.2696078213510524
820000000.0 -0.16568918158061696 0.24019161080631649
840000000.0 0.06789492093503194 0.22726884679683862
860000000.0 -0.12397564152864152 0.1631299886618997
880000000.0 -0.14433610617033915 0.013049244167577814
900000000.0 0.07021613807566789 -0.03733580023187824
920000000.0 0.0402679977495806 -0.026255814212932695
940000000.0 0.007458297665795893 -0.041060030150468455
960000000.0 -0.03380955244729621 0.04270578158788323
980000000.0 0.05940126137313043 -0.01967326099101515
1000000000.0 -0.04985430482963482 -0.047655496476972724
1020000000.0 0.06434596731143691 0.04509676122600304
1040000000.0 -0.045965047891447654 0.06617332709805764
1060000000.0 -0.1147137738466175 0.022232511327771664
1080000000.0 -0.08674672586818762 0.10050598671676629
1100000000.0 -0.11657524464701254 -0.10742219208659641
1120000000.0 -0.14438647563211385 -0.12275398546055297
1140000000.0 0.0646350116329767 0.2288491267115692
1160000000.0 0.28154000879703633 -0.04487280976420736
1180000000.0 -0.048569444495523924 -0.32705976224681815
1200000000.0 -0.26519850455708466 -0.25313716783568546
1220000000.0 0.17386025644439004 -0.35703811393359797
1240000000.0 0.31926749752809924 0.2712988311246815
1260000000.0 -0.417252453701189 -0.1408313125058849
1280000000.0 0.4392697434925039 0.10336578858527072
1300000000.0 -0.37540655206723356 -0.2515147792869231
1320000000.0 -0.10550912995798355 0.42672796214737546
1340000000.0 -0.24283640378756868 0.3461738011853284
1360000000.0 -0.30143003139395186 -0.27898176484217957
1380000000.0 -0.08173937135570518 -0.40008104834506175
1400000000.0 -0.10053357518705772 -0.3821238950179183
1420000000.0 -0.08342365506656653 -0.3736481962238729
1440000000.0 -0.22193933373053254 -0.29332971567547755
1460000000.0 -0.34261045198169265 -0.05971847901406415
1480000000.0 -0.13393131411071285 0.30070352987469673
1500000000.0 0.22600864748724045 -0.20817758845650453
1520000000.0 -0.24081615388226604 -0.14822987908968413
1540000000.0 -0.1537325844854199 -0.205242530510698
1560000000.0 -0.21928998980211967 0.01810385509361458
1580000000.0 0.0017405252396857833 0.18799378488435814
1600000000.0 -0.15160301869805956 -0.027994137221989127
1620000000.0 -0.10412014513125088 -0.04150126985110333
1640000000.0 0.0787509670949935 -0.027779547782803816
1660000000.0 0.036221744876923916 -0.04570889903850091
1680000000.0 -0.02982001894851877 0.0018008233143372342
1700000000.0 0.01975161966978079 -0.0001929762949968108
1720000000.0 -0.010153576195448606 0.03281400542392424
1740000000.0 0.045899922235327434 0.030695538263035532
1760000000.0 -0.07211985457591395 -0.009458878307742918
1780000000.0 0.08609924146201971 -0.033550390589681706
1800000000.0 0.0764557817706505 0.09058186971442282
1820000000.0 0.04323648658875116 -0.12442431760760245
1840000000.0 0.13399093088233976 -0.07919643487679481
1860000000.0 0.17674854391052122 0.0034621168193262122
1880000000.0 -0.1553650178127656 0.1378034647850983
1900000000.0 -0.2172518442083212 -0.11593787148987544
1920000000.0 -0.2651333862010219 0.1186071191312448
1940000000.0 0.02302039062140638 0.335285881625089
1960000000.0 0.25705998543229647 -0.27564549937812655
1980000000.0 -0.2901376535453317 0.28766668693611697
2000000000.0 0.4348141613336439 -0.002291273563843674
2020000000.0 -0.4490358755913872 -0.06116777882402955
2040000000.0 0.23596764216181945 0.3932887054098691
2060000000.0 0.008571869732939972 -0.45689095304092275
2080000000.0 -0.4280288577190725 0.11853883737109178
2100000000.0 -0.15661024131747095 0.3968785040175796
2120000000.0 -0.04077582958551031 0.4025804633632462
2140000000.0 -0.278110816396503 -0.26430991678534266
2160000000.0 -0.0037852202787630493 -0.3655125733072085
2180000000.0 0.34860895096107936 -0.05846962550352998
2200000000.0 0.258670074707277 0.22928669951155925
2220000000.0 0.20494636094440338 0.2823224574176291
2240000000.0 0.2527536704498873 -0.24323194574759405
2260000000.0 -0.18819977222272283 -0.3016507083781648
2280000000.0 -0.23891588245969528 0.27160580361079756
2300000000.0 0.36844059369911614 0.062474597905656654
2320000000.0 -0.21631057186463765 -0.327629171016991
2340000000.0 -0.30144984501116956 0.28911666081098236
2360000000.0 0.42798824849978906 0.14754195547147114
2380000000.0 -0.252367201898585 -0.42938560649792046
2400000000.0 0.106152050387339 0.5384579046867247
2420000000.0 -0.21962915535441568 -0.5605622786282823
2440000000.0 0.5069680676103281 0.41279450835990095
2460000000.0 -0.6963412765469003 0.011695107645092894
2480000000.0 0.6208229828092269 -0.3845142255060353
2500000000.0 -0.611352876649311 0.4393308270215297
2520000000.0 0.6489073638102578 -0.40524698778945084
2540000000.0 -0.7605549457782101 0.1080961196266895
2560000000.0 0.6556731817159365 0.39157155699469953
2580000000.0 -0.09009140102210127 -0.7440788852844596
2600000000.0 -0.5088545051206474 0.5173373559240559
2620000000.0 0.6819956544008736 0.1357990811097168
2640000000.0 0.6453880658147975 -0.1296616064963732
2660000000.0 -0.446420329020672 -0.4242153444702941
2680000000.0 -0.07140336609394952 0.5672742185926946
2700000000.0 0.3751267447185099 -0.37310391689525296
2720000000.0 -0.39525192009808 0.27908643799381927
2740000000.0 0.34706273103544766 -0.2713555061547677
2760000000.0 -0.13296662659761868 0.37582608993402555
2780000000.0 -0.22191951779665145 -0.2878320538680241
2800000000.0 0.3307788668920715 -0.010276707669339007
2820000000.0 -0.21508238411772254 0.2177376820416882
2840000000.0 0.19694704154722875 -0.21207164536847306
2860000000.0 -0.22273319825330695 0.17521433501034436
2880000000.0 0.2733334475131823 -0.07326322822135274
2900000000.0 -0.25407004176695686 -0.1350103666912546
2920000000.0 -0.06583221242741527 0.29189866410351806
2940000000.0 0.2849379730183933 -0.12320933019328761
2960000000.0 -0.14599404383294784 -0.2828496579485548
2980000000.0 -0.3113260298750289 -0.0973695808956402
3000000000.0 -0.32916579668126456 0.0015511234275458374
3020000000.0 -0.3162085322642927 -0.08907863547876874
3040000000.0 -0.02046716966824206 -0.32154322120503503
3060000000.0 0.2795650124414211 0.14488938177091376
3080000000.0 -0.2928181285307467 -0.08488330459901268
3100000000.0 0.2752057367389309 0.10373134479122623
3120000000.0 -0.20916976704797477 -0.1894125220404436
3140000000.0 0.0658474288805874 0.26310154832914207
3160000000.0 0.15381589478475896 -0.20656143452052894
3180000000.0 -0.11296049372192844 -0.2171369262169356
3200000000.0 0.20170356516113871 0.10832445129241533
3220000000.0 -0.11403984655602789 0.17401882527330786
3240000000.0 -0.18459415369558332 -0.0067581160142655425
3260000000.0 -0.13664442672397442 -0.07511212289357497
3280000000.0 -0.07951006900136069 0.09342033251853823
3300000000.0 0.08678738687569955 0.01543292739482755
3320000000.0 0.0522324527786101 -0.01131694005617869
3340000000.0 0.008314284814639248 -0.022188127110950452
3360000000.0 0.013263444225059874 -0.005669144467964645
3380000000.0 -0.014700131234616125 -0.021724874575799854
3400000000.0 0.027277688170305656 -0.022328172297893942
3420000000.0 0.03875719308532005 -0.005022295081808893
3440000000.0 0.02241013684266986 -0.028846388722796632
3460000000.0 0.03429758827747432 -0.0185609246858621
3480000000.0 0.04535831377025021 -0.03200249754059122
3500000000.0 0.07974162016252663 0.004203230061157089
3520000000.0 0.09497014003426428 -0.04941574027144511
3540000000.0 -0.12074576290992889 -0.03834523271139194
3560000000.0 -0.05589205717362192 0.12740020669585164
3580000000.0 -0.11509100205506312 0.09593444384894584
3600000000.0 -0.12568952080670015 0.09918280449449239
3620000000.0 -0.1339355824491349 -0.0969357189957623
3640000000.0 0.16917685370958954 0.005233204254757687
3660000000.0 -0.16836122618694915 0.05545593929923579
3680000000.0 0.15660097639714485 -0.09397636429015846
3700000000.0 0.06882184476176689 0.1740588222510301
3720000000.0 -0.18182027968269907 0.06627324161122242
3740000000.0 -0.1617629523914379 0.10783794373705453
3760000000.0 -0.1507732894775529 -0.11757819745232147
3780000000.0 0.06988071862208592 -0.1685014873712343
3800000000.0 0.0840079544495141 0.14621428778142306
3820000000.0 0.1530403682656489 -0.004292776507462433
3840000000.0 -0.006736237762941731 0.13916824180265785
3860000000.0 0.12122115650911904 0.059922986888823235
3880000000.0 -0.1080786655871889 -0.09340010487102789
3900000000.0 -0.09120303375506798 -0.12411357772527336
3920000000.0 0.028848123074291614 0.16516217612246828
3940000000.0 -0.11908653794414276 0.13230071938471363
3960000000.0 0.06037378562016769 0.176572177539475
3980000000.0 -0.1032070161443426 -0.1533051508684979
4000000000.0 -0.14486826767490837 0.09467605885542026
