!Created with skrf (http://scikit-rf.org).
# Hz S RI R 50.0 
!freq ReS11 ImS11
400000000.0 0.6481634171172438 0.5748070928600479
420000000.0 0.8404569803234712 -0.08685533052400718
440000000.0 0.7939830753207723 -0.0853816536058236
460000000.0 0.7390070544347411 -0.0977838189106698
480000000.0 -0.028592366194187112 -0.686757051870809
500000000.0 0.12937888098750405 0.5927987846953574
520000000.0 0.5009616795612439 -0.05159694399177813
540000000.0 -0.2710176207439788 -0.34371599386302754
560000000.0 0.36935916960507637 0.16181139363576513
580000000.0 0.035328159527289044 0.3608778820019092
600000000.0 -0.08916693904776368 -0.3403028801552051
620000000.0 -0.3474302696387454 -0.0482982828468717
640000000.0 -0.14845722030373967 -0.3731817735070107
660000000.0 -0.3060844272873857 0.26862826716635935
680000000.0 -0.28460902272728344 -0.34319481994116063
700000000.0 0.2667695642132235 0.3720537594598461
720000000.0 -0.3065664762843667 -0.3425627931558541
740000000.0 -0.42836669335129485 -0.0596172930174385
760000000.0 -0.4101598169552511 -0.06585244933663578
780000000.0 -0.24838153127985735 0.29426378913505224
800000000.0 0.286995346224409 0.1768593667514291
820000000.0 0.2787351334839011 -0.012737502590079308
840000000.0 -0.18854714511510987 0.07785049708103461
860000000.0 -0.15000189781639786 0.07789232438387157
880000000.0 0.03892915421944858 0.13617401738206447
900000000.0 -0.023636438928128098 -0.09083303785503177
920000000.0 0.030375551751451957 -0.03852192721273465
940000000.0 0.008272483360587918 0.0293146415725356
960000000.0 -0.028689634168393305 0.00016936487260907338
980000000.0 0.052817224138670765 -0.009170000185752822
1000000000.0 -0.04172073906876116 0.08143153933719977
1020000000.0 -0.08863136909216042 0.0775242412164486
1040000000.0 -0.10067984173172853 -0.08826185691306129
1060000000.0 -0.04113088436746375 0.15466578288474986
1080000000.0 -0.10279885865931421 -0.15660245428110872
1100000000.0 0.037803837802286626 -0.21048955494022165
1120000000.0 0.23760162052145542 -0.015431665934970681
1140000000.0 -0.23916536121046247 0.10135943338052543
1160000000.0 -0.18248832673681145 0.22299627605079267
1180000000.0 -0.2373569199228866 0.21200108178644056
1200000000.0 0.08480929298258212 -0.3332801975046785
1220000000.0 -0.12142902011160477 0.3498705830307388
1240000000.0 0.24482006950672372 -0.301857973027926
1260000000.0 -0.22687267369782604 -0.32903285036081825
1280000000.0 -0.41845786368858967 0.024859012312787532
1300000000.0 -0.031206247505237206 0.42949186229698966
1320000000.0 0.21256066832796428 0.38286938874111387
1340000000.0 0.3727588321667477 0.24543947106597128
1360000000.0 0.42093374789992655 -0.15973693679818207
1380000000.0 -0.29972173710953776 -0.3229137150667061
1400000000.0 -0.31951803433249365 0.28415489799719357
1420000000.0 0.40274079302039045 -0.014512125403758281
1440000000.0 0.11468312301747416 -0.35027976481315376
1460000000.0 -0.0037612121835368653 -0.33482434974006847
1480000000.0 -0.2817267862033882 -0.12225909808874337
1500000000.0 -0.21643452504656435 0.17476269016108886
1520000000.0 -0.2430169699379745 -0.05681950535058187
1540000000.0 0.17324509669594287 0.14459769955060456
1560000000.0 -0.14688154535548284 0.13688010465028644
1580000000.0 0.00922725245790508 0.17760141407776764
1600000000.0 0.007434425622087015 -0.14333744285532904
1620000000.0 -0.08791898706824317 0.062252962936641044
1640000000.0 0.0016939206299730512 0.0817613014133863
1660000000.0 0.035042250158163105 0.05117937711277929
1680000000.0 0.006725542979631652 0.03653652007975322
1700000000.0 0.01313730529513246 -0.00023807387372419181
1720000000.0 0.006979193149145331 -0.0018905716812357772
1740000000.0 -0.0028492735612468513 -0.026663843230935933
1760000000.0 -0.0015956958039375518 0.043891106690521244
1780000000.0 -0.018869741630949483 0.05910661177946691
1800000000.0 -0.05520841343577624 -0.07142283938483539
1820000000.0 0.10056117451238052 0.057694024583046524
1840000000.0 -0.010198167285798372 0.15320625922975475
1860000000.0 -0.08098870316911021 -0.17672427730457427
1880000000.0 -0.20390364791685678 0.12510359458465137
1900000000.0 0.10685414545259171 -0.2700793756277584
1920000000.0 0.31951099588265813 0.09231692902714496
1940000000.0 -0.30917448622679083 0.17939114318058538
1960000000.0 0.356790726672147 0.1220443493473349
1980000000.0 0.04355399281856228 -0.3997182901865443
2000000000.0 -0.3902717662372077 0.1425882854825179
2020000000.0 -0.15271023908782308 0.3925139873486865
2040000000.0 0.031094137102043524 0.42675208809168375
2060000000.0 0.24795202700065289 0.35226305312493467
2080000000.0 0.42642220843813483 0.06236705149632018
2100000000.0 0.1942236700171106 -0.3803309156976656
2120000000.0 -0.22802323457436094 -0.34811178971563467
2140000000.0 -0.3654552254739822 -0.16301393004116033
2160000000.0 0.24214542251977497 -0.30319510345120604
2180000000.0 -0.07932863730882779 -0.3668540321256396
2200000000.0 -0.31920573114731976 -0.16865610331778608
2220000000.0 -0.32710971590061544 0.12762684747469077
2240000000.0 -0.20575135827247826 0.27405269433146107
2260000000.0 0.011475517650960576 0.3406915848355064
2280000000.0 0.15394725927350872 0.30891115975189876
2300000000.0 0.33714038210696 0.11703020025097154
2320000000.0 0.2691246328790157 -0.2742432102200509
2340000000.0 -0.359342451042271 -0.21039005587803492
2360000000.0 -0.04015213266429197 0.45497244042938106
2380000000.0 0.09695501692911768 -0.5006807396455932
2400000000.0 0.1832210018309255 0.5335251058592638
2420000000.0 -0.5450745892242284 -0.28603685099126086
2440000000.0 0.6448405148591608 -0.15035314625585952
2460000000.0 -0.49529951741789946 0.49730387292981765
2480000000.0 0.12860697146383313 -0.7212665060715122
2500000000.0 -0.10363419345649448 0.7451928685208421
2520000000.0 0.24115445086209192 -0.7246419943636282
2540000000.0 -0.5446235248632453 0.5379390741314245
2560000000.0 0.7527550780927941 -0.09397943985905623
2580000000.0 -0.48524968303903304 -0.5638290310969483
2600000000.0 -0.05880547656417565 0.7165477378807155
2620000000.0 0.5714307412959567 -0.38721449732863533
2640000000.0 0.24366967160060612 -0.6064380322709336
2660000000.0 -0.5511881498344178 0.2640787224127319
2680000000.0 0.5587628398230071 0.08020097309859525
2700000000.0 -0.4087985217989342 -0.31553980766118717
2720000000.0 0.3644481822435901 0.2946837634164175
2740000000.0 -0.27387819504362915 -0.31657571979347415
2760000000.0 -0.013611080516811345 0.377676694435343
2780000000.0 0.0380833838019 -0.34167410003761106
2800000000.0 -0.056420298932739844 0.3127299404115154
2820000000.0 0.15122054326817608 -0.25955740548061756
2840000000.0 -0.010830846036691152 0.2957915687776202
2860000000.0 -0.26386250651748966 -0.1292171379576176
2880000000.0 0.17075711415761016 -0.23975516755077078
2900000000.0 -0.0894260748584678 0.2815769495002282
2920000000.0 0.2645409581738049 -0.14177013812720782
2940000000.0 -0.26676571872494836 -0.15445213348369002
2960000000.0 -0.1241333374357314 0.2853632899507489
2980000000.0 -0.0472139736811215 0.30743624573965256
3000000000.0 -0.2960286120538613 -0.09139692679355434
3020000000.0 0.147182980930838 -0.2802650423058184
3040000000.0 0.316771140294612 0.015594128715451204
3060000000.0 -0.045496197881449235 0.3099250410872025
3080000000.0 -0.05451654550341153 -0.2984366036927247
3100000000.0 -0.1094908812541457 0.27346635604914765
3120000000.0 0.04781251908359222 -0.28457078746884645
3140000000.0 0.13736282613327977 0.24175986502157465
3160000000.0 -0.22343291144790087 -0.1370475539954417
3180000000.0 -0.1088014150700299 0.21927616585275886
3200000000.0 -0.12361883845025283 -0.18619113005855137
3220000000.0 0.17698324362931486 -0.08851190870350716
3240000000.0 0.053876123299330905 0.16080391126532415
3260000000.0 -0.12881654933090356 0.04145280804632128
3280000000.0 0.08180625106959485 0.05882713908140882
3300000000.0 -0.07199503870560935 0.01198669948954143
3320000000.0 -0.020601986660130786 0.03509770096131612
3340000000.0 0.013833047655812445 -0.01250276379562128
3360000000.0 0.0026629865404093913 0.0030072478828884223
3380000000.0 0.006086956661364402 -0.011513153958173025
3400000000.0 -0.006274651181122802 0.021164624228360226
3420000000.0 0.03160050044399985 -0.01590568862986697
3440000000.0 0.043326263693833154 0.02057041810093919
3460000000.0 -0.05600373936824128 -0.017416291568984523
3480000000.0 -0.03438491166047481 -0.06473945209895896
3500000000.0 0.05265335875990187 0.07706322784107875
3520000000.0 0.10562026121573778 0.02337281745850885
3540000000.0 -0.021695026096152172 0.11621510051356475
3560000000.0 -0.11071039801593574 -0.06277988163104316
3580000000.0 -0.04110121490620216 0.1307689137233853
3600000000.0 0.02747564825867417 -0.1465643229071306
3620000000.0 -0.08416781937318711 0.13932246963157968
3640000000.0 -0.16863350475059474 -0.0591224518998
3660000000.0 0.06517836617281289 -0.1767486360474652
3680000000.0 0.10349222969373509 -0.16835879165365847
3700000000.0 -0.10484054152045943 -0.16970011621089523
3720000000.0 -0.12773405537579466 -0.15179453256498437
3740000000.0 -0.018737648943515824 -0.18719814601687942
3760000000.0 -0.1369830886343559 0.11521703714328582
3780000000.0 0.1520987320346141 0.07612553921291516
3800000000.0 0.07087635600281926 -0.1450375515005411
3820000000.0 0.031642506905479255 -0.15304972175784567
3840000000.0 0.14254764568467435 -0.051288116679934284
3860000000.0 0.07497956176026778 -0.1333144206477518
3880000000.0 -0.023548673711670905 -0.15039620835021372
3900000000.0 0.09407318032385754 -0.11775855630618874
3920000000.0 0.0953666755497603 -0.12501080847673107
3940000000.0 -0.12058729211216507 0.11122433736472558
3960000000.0 -0.1709453818658784 -0.01527800191173387
3980000000.0 -0.12075391151909978 0.12441608661737166
4000000000.0 0.05230758227245635 0.161444328279311
