!Created with skrf (http://scikit-rf.org).
# Hz S RI R 50.0 
!freq ReS11 ImS11
400000000.0 -0.3819416360346244 0.7897790625363813
420000000.0 0.6719743099968875 0.5573344760449451
440000000.0 0.4203994887559046 -0.7335366070961046
460000000.0 -0.7204523808231524 -0.3533585062414885
480000000.0 -0.7054500196928702 -0.1456944789908274
500000000.0 0.14853959240506298 0.5412184547489689
520000000.0 0.4487315921476529 -0.13957265319937057
540000000.0 -0.2697142905346325 -0.2667624172878293
560000000.0 -0.26090342155932766 -0.20538017148660453
580000000.0 0.2814199562629252 0.12531983154098125
600000000.0 0.22264944112076893 -0.21768316335224883
620000000.0 -0.3213130859061549 -0.01852857887642281
640000000.0 -0.349513838461737 -0.02834979234997476
660000000.0 -0.36115029688761097 0.09216138497668908
680000000.0 0.33275467217018984 -0.2315367334791081
700000000.0 -0.26668494698022593 -0.3297274827322562
720000000.0 -0.37260799852222265 0.230543112550156
740000000.0 -0.40727464079708664 -0.1717004639707909
760000000.0 0.26982617580535273 0.3357323747326296
780000000.0 -0.09714615173606353 0.3933887312428317
800000000.0 -0.3408485710308944 -0.15472276525320378
820000000.0 -0.2803184566349471 0.15462765910866044
840000000.0 -0.22375886211894488 -0.14643576179765633
860000000.0 -0.18993351338458025 0.09218208957761963
880000000.0 -0.09013196076476569 -0.12810489696791608
900000000.0 -0.0879050432750675 0.023383809297314047
920000000.0 -0.008769654534714507 0.0540540707457538
940000000.0 0.03778007154839483 -0.0172282303486654
960000000.0 -0.047149114976493614 -0.023713607114355263
980000000.0 0.008544123753608473 0.06450433194107853
1000000000.0 -0.07057158899792167 0.02428133447263239
1020000000.0 0.08462794900685587 0.010458418702377206
1040000000.0 -0.08842055650697973 0.03935015014181545
1060000000.0 0.015254928418669437 0.13097575783324403
1080000000.0 -0.11672646718445738 -0.09068048788061041
1100000000.0 -0.09877235194402556 -0.1383202380641736
1120000000.0 -0.17342308787895794 -0.08233885454916957
1140000000.0 -0.1832060854033056 -0.1416942960187017
1160000000.0 -0.2538752604970947 0.08474133697624531
1180000000.0 -0.310817757498526 -0.02236354285471228
1200000000.0 -0.22405991715957507 -0.2593984728828149
1220000000.0 0.3530224958327323 -0.13646299784704274
1240000000.0 -0.3029783339027679 0.26910402092137276
1260000000.0 0.18222145645960877 -0.3908171107590139
1280000000.0 -0.36649684399111293 0.25395230599588114
1300000000.0 0.35443548648099005 -0.2815444536592544
1320000000.0 -0.2158036704331204 -0.3943227283844063
1340000000.0 -0.4082465254753494 -0.1596660280592549
1360000000.0 -0.2002311341374779 -0.3844897166958228
1380000000.0 -0.33443915461111423 -0.26582016730316244
1400000000.0 -0.3208138662180813 0.2640323954608502
1420000000.0 0.11369414538379757 0.37988779053468513
1440000000.0 0.3663918354165883 0.04513533824261521
1460000000.0 0.28766632857955426 -0.1784087557179573
1480000000.0 0.12520580297715703 -0.2827147694322832
1500000000.0 0.1514451449286011 -0.23732880442669627
1520000000.0 -0.24409873318818226 -0.08416288355558635
1540000000.0 -0.07380356324232805 0.22396652470755618
1560000000.0 -0.20884845370220928 -0.012205623476642299
1580000000.0 -0.17291840826790658 -0.06994949987560593
1600000000.0 0.11880163003389181 0.094133933250542
1620000000.0 0.04312044331181795 -0.11387152182082276
1640000000.0 -0.025588751382473317 -0.09211554278043654
1660000000.0 -0.03742718515053438 0.0629755624961761
1680000000.0 -0.020854609781049083 -0.045238012462968366
1700000000.0 -0.03265861291664 0.007403132033670318
1720000000.0 -0.0014743009728871539 -0.018284426386275268
1740000000.0 0.017986104316165808 0.015510598044731247
1760000000.0 -0.041729779615491944 0.017614200873165797
1780000000.0 -0.04473624812483156 -0.06381263179422224
1800000000.0 -0.03759340331776233 -0.10776899994097347
1820000000.0 -0.10825496805892888 -0.10179111119464657
1840000000.0 -0.18412564823338043 0.031343170654590545
1860000000.0 -0.07649571286436264 -0.20369685693565037
1880000000.0 0.2018334588592806 0.14615400330172862
1900000000.0 -0.18257019766682867 -0.21430758258800706
1920000000.0 0.011121602251410453 0.30599237561726117
1940000000.0 0.26844048870557147 0.19398400100802068
1960000000.0 0.3542160804735007 -0.0312601219588391
1980000000.0 0.2508198421031273 -0.27811552248520677
2000000000.0 0.3166918207464373 -0.23891164957541255
2020000000.0 0.06980611802035323 -0.41025357859607214
2040000000.0 -0.16612575660002252 -0.39801078245791977
2060000000.0 -0.4272333721208893 0.10653928050164893
2080000000.0 0.1201479023987703 0.42857220292902426
2100000000.0 0.4320948082741115 -0.0938470070004479
2120000000.0 -0.15497789840483522 -0.4028586200386959
2140000000.0 -0.41214022181578663 0.060179638554473835
2160000000.0 -0.3838108271248732 -0.09263952317437642
2180000000.0 -0.34946695431157526 0.1295368083386769
2200000000.0 -0.15450692017523998 0.31783917747250506
2220000000.0 -0.19813607917548173 0.2703132529220193
2240000000.0 -0.26477420174613464 0.1938962651375457
2260000000.0 -0.31282875639809327 -0.0918287530949902
2280000000.0 -0.2806080095732709 -0.18412441781082406
2300000000.0 -0.3407717078566776 0.09801916305849115
2320000000.0 0.21490315767186582 0.3157316813327158
2340000000.0 0.1811432612638396 -0.3751951939204859
2360000000.0 -0.29643355012014594 0.3503351715388702
2380000000.0 0.3767354663239212 -0.3380955880858847
2400000000.0 -0.30985983670776074 0.46162009661577547
2420000000.0 0.06166810013918904 -0.6034002374731942
2440000000.0 0.2650709283479665 0.5997589052478638
2460000000.0 -0.6092695346392731 -0.33977187035363093
2480000000.0 0.7277484210295069 0.07192737214761122
2500000000.0 -0.7467046329889385 -0.1126276136526587
2520000000.0 0.7500163735014154 0.16707628764498736
2540000000.0 -0.6560244251765752 -0.4085374932383216
2560000000.0 0.2585210321645991 0.7247674500675768
2580000000.0 0.3845155924751841 -0.6522137790077258
2600000000.0 -0.7196051337812793 0.14695902749291964
2620000000.0 0.636432725440453 0.3038823754107826
2640000000.0 0.6623721067788927 -0.0890710688273717
2660000000.0 -0.5444841260938243 -0.30174455690333535
2680000000.0 0.20363126243032828 0.5366498229247721
2700000000.0 0.1992854551742485 -0.48491882497535865
2720000000.0 -0.45062142661433163 0.15144840847601362
2740000000.0 0.3239234622994583 0.2851446687754661
2760000000.0 -0.12556166561550347 -0.37334757373153693
2780000000.0 0.1089296944717116 0.3493298457212516
2800000000.0 -0.29537912421225754 -0.17713466399433062
2820000000.0 0.09103664155600015 -0.31697949659820035
2840000000.0 0.3177186244454735 -0.021593851773948083
2860000000.0 0.12425688125800613 0.2867404515243407
2880000000.0 -0.25229210180044775 0.17520793524484554
2900000000.0 0.03547001821719825 -0.3014245179862384
2920000000.0 -0.25717700720315967 0.15448584839561832
2940000000.0 -0.044677418628356065 0.29632760197857366
2960000000.0 -0.08454035749096094 0.2889378291771845
2980000000.0 -0.3052212558346824 0.01663531158822363
3000000000.0 -0.007638103962845385 -0.30994037909838323
3020000000.0 0.31408338230145977 0.0356451376736408
3040000000.0 -0.20448525258886316 0.2437908030292113
3060000000.0 -0.08095169791864704 -0.3099890966284027
3080000000.0 0.29882410455492026 0.10427325834237657
3100000000.0 -0.2859101304600579 0.1250657878048937
3120000000.0 -0.013408921414648738 -0.30539765904172755
3140000000.0 0.2914800295043863 0.02983089547255746
3160000000.0 -0.20141726151991562 -0.1874623534549015
3180000000.0 0.15965921827159074 -0.19940950556836784
3200000000.0 0.20432622523565522 0.09674204119881263
3220000000.0 -0.18700741329456788 0.049499691920306614
3240000000.0 0.16088531872515782 0.005697249297904436
3260000000.0 0.063371745864863 -0.11157247416559544
3280000000.0 0.08085272519186575 0.06359468863069902
3300000000.0 0.07680303318309119 -0.024916361380482196
3320000000.0 0.020194612058100022 -0.058225575327890605
3340000000.0 0.027985952679553696 0.03258078043512127
3360000000.0 -0.019110740127284656 0.017153216727531017
3380000000.0 -0.013964226199958282 -0.009627680693040784
3400000000.0 -0.027743103903631407 0.00778426254677168
3420000000.0 -0.027782491647965913 -0.03827955641406266
3440000000.0 -0.03566462603569674 0.04875936741472007
3460000000.0 0.06794311390242343 0.012474529377074757
3480000000.0 -0.056611591798941534 0.04668893798486938
3500000000.0 0.013693728970899823 0.07692089955352861
3520000000.0 0.04346032860561598 -0.07182437035179759
3540000000.0 0.09491653107132646 -0.021007833759065262
3560000000.0 0.11349459063174816 -0.01269588096126604
3580000000.0 -0.10034485802900753 -0.08952028828724194
3600000000.0 0.016484386921724145 -0.15580619595614106
3620000000.0 -0.08274904436693427 -0.15295594650368344
3640000000.0 -0.16632266317955358 -0.0875551647086674
3660000000.0 -0.1394530359313951 0.14076299980419293
3680000000.0 0.037326229004734424 0.19594934352385068
3700000000.0 0.11536472756641511 0.15758063726250812
3720000000.0 -0.05826246346408674 0.17893989921655348
3740000000.0 -0.16881365833995715 -0.053180514261348934
3760000000.0 -0.11339938907901076 0.12334261790541243
3780000000.0 -0.004302658229224044 0.158293834355572
3800000000.0 -0.08356110218293655 0.13232211359569307
3820000000.0 0.0006270802381100227 0.15707359179279837
3840000000.0 0.15048650373847636 0.04285482759320088
3860000000.0 0.15578937318221805 -0.0344153585278987
3880000000.0 -0.15252403480460142 -0.05193586824550732
3900000000.0 0.053131346827991206 0.15083203270376758
3920000000.0 0.022798925942679366 -0.1548938013801345
3940000000.0 -0.15470198126379647 -0.01293386696446768
3960000000.0 0.1156929254694451 0.11036489362332548
3980000000.0 -0.06989430924705652 0.14748619675949562
4000000000.0 -0.10528820937675595 0.12401280818857766
