!Created with skrf (http://scikit-rf.org).
# Hz S RI R 50.0 
!freq ReS11 ImS11
400000000.0 -0.3763171621670645 0.791090238397161
420000000.0 0.6936886305392445 0.527053155175954
440000000.0 0.3658056774489076 -0.7607448097596381
460000000.0 -0.7436284902243211 -0.2989647404818945
480000000.0 -0.7109310076969437 -0.11491349965235526
500000000.0 0.17335201771575418 0.5336861627254516
520000000.0 0.4285272570780104 -0.19257868197746883
540000000.0 -0.219545822589083 -0.3079960795066835
560000000.0 -0.23730139472961317 -0.23070109878609132
580000000.0 0.2749277800086398 0.1410455545831397
600000000.0 0.23307097761880693 -0.20781580833258978
620000000.0 -0.32325508849977475 -0.012089586731267586
640000000.0 -0.3496694914776659 -0.039566902749640094
660000000.0 -0.37340430983938433 0.017902176309974847
680000000.0 0.3661398001969588 -0.17457687705720934
700000000.0 -0.2141349168029073 -0.3665820358614075
720000000.0 -0.41719503767111793 0.1330391477831613
740000000.0 -0.38061338725248983 -0.22360817152854945
760000000.0 0.24793573137931324 0.35036015216925404
780000000.0 -0.1192816360465095 0.3865293353300929
800000000.0 -0.34711767667588084 -0.13685191043971093
820000000.0 -0.2468327578843616 0.20385746302393332
840000000.0 -0.2556621904063155 -0.07772021623324096
860000000.0 -0.12186293736283003 0.17373563202030623
880000000.0 -0.13348392179070065 -0.08323093878250039
900000000.0 -0.08894727718995707 0.027896937922168262
920000000.0 -0.05102775191867847 0.023974567023949164
940000000.0 -0.024789575325780758 0.032560262692897766
960000000.0 -0.01426219663668902 -0.04950541788307581
980000000.0 0.036480904266796975 0.051598325163850406
1000000000.0 -0.00907996337221019 0.07265306915062361
1020000000.0 0.02593166514360774 -0.07976331105627145
1040000000.0 -0.0060960706022986965 0.09596367573338936
1060000000.0 0.11055377308373315 0.07244941998372201
1080000000.0 -0.14872187000287035 0.012507185148794177
1100000000.0 -0.15429628390431846 -0.07618877429215754
1120000000.0 -0.19125626264933318 -0.03603454241657627
1140000000.0 -0.16601451559542643 -0.1653786315345575
1160000000.0 -0.26671778028009735 0.04536777440553013
1180000000.0 -0.28667895250912206 -0.12821154611744973
1200000000.0 -0.10857212934453547 -0.3270963698251786
1220000000.0 0.37945179083753194 0.014920748310134298
1240000000.0 -0.38019646564597925 0.1419675160406982
1260000000.0 0.286419245387513 -0.32267959922497313
1280000000.0 -0.4168513277882615 0.1571583515741004
1300000000.0 0.40034088466377826 -0.20987737381681157
1320000000.0 -0.17400635186180868 -0.41346691658247114
1340000000.0 -0.4050694056944749 -0.16518285660221643
1360000000.0 -0.2092213790974004 -0.3786992314007499
1380000000.0 -0.35806858971758754 -0.23157805749991076
1400000000.0 -0.27712212074659154 0.30889919779136976
1420000000.0 0.15965114377292727 0.3631057656763697
1440000000.0 0.36791692171207263 -0.03125999799213853
1460000000.0 0.24805033726342748 -0.23129121375242506
1480000000.0 0.08393413989016774 -0.29874290467348386
1500000000.0 0.10428112277568073 -0.2626139596583928
1520000000.0 -0.2554704112951984 -0.04845378034935276
1540000000.0 -0.048042096592395306 0.232539067728375
1560000000.0 -0.20932663420114025 -0.025261702259133174
1580000000.0 -0.13334222150054875 -0.13269873991972111
1600000000.0 0.07072771112934095 0.1351584154986444
1620000000.0 0.10588391055300955 -0.06176293794897588
1640000000.0 0.049808599776074304 -0.08171044502447512
1660000000.0 -0.07215278953446878 0.007887640552904095
1680000000.0 0.026016749752030204 -0.040989622499613874
1700000000.0 -0.03150156225285246 -0.004521859154871776
1720000000.0 0.011676554057569353 0.014032301484478234
1740000000.0 0.02380447583888777 -0.006382517935834343
1760000000.0 -0.04257242345406192 -0.018096451156394907
1780000000.0 0.02280745708531168 -0.07454815670795627
1800000000.0 0.040723885826133184 -0.10634045822832307
1820000000.0 -0.05010259193030285 -0.13921396530817848
1840000000.0 -0.1848563519424781 -0.02127670096562175
1860000000.0 -0.057890106457560375 -0.20921147840063734
1880000000.0 0.19700952237111677 0.1517162180507869
1900000000.0 -0.19386669344079763 -0.20361077284007537
1920000000.0 0.03447115709878196 0.3041204136648308
1940000000.0 0.28898877898249575 0.16201508482946694
1960000000.0 0.347333744883303 -0.07802326873823032
1980000000.0 0.20479664532416336 -0.313915227524367
2000000000.0 0.2837727914804934 -0.27806679553004904
2020000000.0 0.03245042739072236 -0.41529934226667936
2040000000.0 -0.18059281639654312 -0.3925389574674443
2060000000.0 -0.4272199583758018 0.11021159586058313
2080000000.0 0.09145909668850054 0.4366299597946267
2100000000.0 0.43729578994645196 -0.07041499935238237
2120000000.0 -0.0846562969091104 -0.4243115051601563
2140000000.0 -0.4174466751696569 -0.006861787127117815
2160000000.0 -0.364777586706165 -0.15317554896605012
2180000000.0 -0.36552498278646306 0.07617993264834344
2200000000.0 -0.19517832708851487 0.29483631812561706
2220000000.0 -0.2493505981301565 0.22399201422393475
2240000000.0 -0.26929084243168333 0.1861811917519372
2260000000.0 -0.3132617017732603 -0.0899306615124766
2280000000.0 -0.2808270656025015 -0.1836083565832762
2300000000.0 -0.3391074896860935 0.1026001621876752
2320000000.0 0.22264250947534364 0.3102172117390158
2340000000.0 0.15900350070903146 -0.38503366982124654
2360000000.0 -0.2830597784092372 0.36135822374268417
2380000000.0 0.34107835199337383 -0.37470662886366995
2400000000.0 -0.2597167584091382 0.4923216561245808
2420000000.0 0.022885646676339154 -0.6069021512218999
2440000000.0 0.3146296117760201 0.5762118233678647
2460000000.0 -0.6297533210496321 -0.3021951693458538
2480000000.0 0.730571162480874 0.05200318313396716
2500000000.0 -0.7555039215286566 -0.013756004658195868
2520000000.0 0.757005847966907 0.13555188153566664
2540000000.0 -0.6496630116108295 -0.4191489186522669
2560000000.0 0.26688016819624616 0.7219479982436897
2580000000.0 0.3838013925683731 -0.6521921947544925
2600000000.0 -0.7072155131099258 0.19677853879099447
2620000000.0 0.5975001871926502 0.37332165758451324
2640000000.0 0.660923826002011 -0.09045546096254584
2660000000.0 -0.531600964717497 -0.3208395885804896
2680000000.0 0.15787033697260364 0.5499739614494847
2700000000.0 0.2264011705835432 -0.4705970835608828
2720000000.0 -0.44163485041049894 0.1710706413828776
2740000000.0 0.33480088619802506 0.2694607886210428
2760000000.0 -0.15651926343233785 -0.35980765889737276
2780000000.0 0.14122594579601422 0.336230770590737
2800000000.0 -0.31791347784327423 -0.12997367249220604
2820000000.0 0.038853848426146774 -0.3270299345826676
2840000000.0 0.31096055299742315 -0.06859435616495842
2860000000.0 0.18728452860434552 0.25034021178057053
2880000000.0 -0.23889609644834806 0.19430218298739843
2900000000.0 0.014482292431947296 -0.30386579355158266
2920000000.0 -0.24677269572985674 0.1716790272047687
2940000000.0 -0.06505546778796772 0.29300576789628185
2960000000.0 -0.11780647822220948 0.27756727270101617
2980000000.0 -0.3044010986784341 -0.03372513350383387
3000000000.0 0.08469053178017782 -0.29861280820447816
3020000000.0 0.2989840377404913 0.10241108823694481
3040000000.0 -0.26446023941175606 0.1766811820233038
3060000000.0 0.010009423666454404 -0.3197075671694028
3080000000.0 0.25042055633681237 0.19236571259843713
3100000000.0 -0.30325157890235854 0.07079786851768878
3120000000.0 0.06181995473280325 -0.2984023508661367
3140000000.0 0.2786238561741136 0.08665299997223767
3160000000.0 -0.1689678564222256 -0.21570078028773781
3180000000.0 0.1516147153213726 -0.2044894422571876
3200000000.0 0.20846512718981106 0.08392161288693437
3220000000.0 -0.17666413204385908 0.0756598299921774
3240000000.0 0.15445189811858245 -0.040540073843128896
3260000000.0 0.035904598649891484 -0.12202145289209267
3280000000.0 0.10141563479764869 0.0036757724979760474
3300000000.0 0.06953339113505609 -0.03898700365374934
3320000000.0 -0.014030230918546965 -0.059315436008096176
3340000000.0 0.03990605810056766 -0.014827342324101187
3360000000.0 0.020424365787921502 0.01621058582005942
3380000000.0 -0.004812534671509549 -0.01678926790796112
3400000000.0 0.016037403667266147 -0.024113510130319604
3420000000.0 0.025774959969685287 -0.0394583133274164
3440000000.0 -0.059055176338119894 0.01191571197892174
3460000000.0 0.009891298826738303 0.06774896215390748
3480000000.0 -0.07297889467996774 0.003568809466516309
3500000000.0 -0.03559769376469945 0.06909134669105801
3520000000.0 0.06620589621001446 -0.0507554589285039
3540000000.0 0.09661776668106889 -0.002354128351622213
3560000000.0 0.10871798171367346 0.031437548559920536
3580000000.0 -0.07331251229137278 -0.1117510269196848
3600000000.0 0.032126811292426075 -0.15230294503377478
3620000000.0 -0.05426597145102376 -0.1641279343339854
3640000000.0 -0.15826719463340647 -0.10053473190082388
3660000000.0 -0.15811420969168477 0.1176278833175061
3680000000.0 0.013675730087714635 0.1981938355916632
3700000000.0 0.09845374209788002 0.16774353716275966
3720000000.0 -0.05639410513965289 0.17853760063371443
3740000000.0 -0.17176295722133067 -0.039222868590066
3760000000.0 -0.10245818523400306 0.1316198237052205
3780000000.0 0.02342390864628313 0.15564549289045293
3800000000.0 -0.06778233992296327 0.14018763975450188
3820000000.0 0.028280812377845566 0.15355831373622567
3840000000.0 0.1514503138779703 0.03565280283475871
3860000000.0 0.15270804857120046 -0.044301196419065006
3880000000.0 -0.1586533775838596 -0.023907303356977636
3900000000.0 0.08368141750227534 0.1359021068249774
3920000000.0 -0.0015663909707128339 -0.15597550924257214
3940000000.0 -0.14919234362109804 0.04025474815274176
3960000000.0 0.14859354620347107 0.057437004762915404
3980000000.0 -0.022231888520190046 0.16089600844471452
4000000000.0 -0.12424626605480892 -0.10424540540913976
