!Created with skrf (http://scikit-rf.org).
# Hz S RI R 50.0 
!freq ReS11 ImS11
400000000.0 -0.356793661941458 0.8010126157883551
420000000.0 0.6971379427503411 0.5240321492778286
440000000.0 0.3574547027325935 -0.7654001565890014
460000000.0 -0.7499222806629783 -0.28526755911324786
480000000.0 -0.7134252624404732 -0.09961632315542708
500000000.0 0.1902775345192255 0.5282875175614108
520000000.0 0.4506712781870561 -0.13413018064269105
540000000.0 -0.2427389043410423 -0.2924700714013012
560000000.0 -0.26189399223516696 -0.20395827021254262
580000000.0 0.277099070516 0.13407565533302646
600000000.0 0.21919193303723727 -0.21951591925860653
620000000.0 -0.32056432108869176 0.01543322715144123
640000000.0 -0.3491912265321676 0.017273285892407415
660000000.0 -0.34663506893985585 0.13502637247262353
680000000.0 0.34253370467509836 -0.2156691742545895
700000000.0 -0.27127824817763774 -0.3263743259111151
720000000.0 -0.3781648124414109 0.22130739477692427
740000000.0 -0.3969924926267757 -0.19643996981182893
760000000.0 0.272672470485663 0.33376248033286937
780000000.0 -0.1150125655144224 0.3890612986580853
800000000.0 -0.3304545741703966 -0.17628573292842056
820000000.0 -0.2991071907353912 0.11524083613943963
840000000.0 -0.2036244581211967 -0.17293581793273993
860000000.0 -0.1902866027320625 0.09182498718502626
880000000.0 -0.09699183126389122 -0.12263285373985795
900000000.0 -0.06659345528473362 0.06184571264709629
920000000.0 0.042985943672922806 0.03491954904732644
940000000.0 0.042306904718387627 -0.0036355583064011207
960000000.0 -0.030241205529807868 -0.04390361663906325
980000000.0 -0.01066979269204898 0.0645682751018751
1000000000.0 -0.07406566781976902 0.01125584101730756
1020000000.0 0.0851209955155617 0.00416847202802853
1040000000.0 -0.08742947498949855 0.04131076756013942
1060000000.0 0.006029130438978419 0.13178013323816012
1080000000.0 -0.1323384946921256 -0.0651731374376192
1100000000.0 -0.132470512538094 -0.10575841844665418
1120000000.0 -0.1873856005379879 -0.03998857147149451
1140000000.0 -0.19499100229671815 -0.12437674368242149
1160000000.0 -0.23338331211341196 0.1305862553276406
1180000000.0 -0.31082645501183237 0.018588726117210297
1200000000.0 -0.21810649050689337 -0.2637607215969999
1220000000.0 0.3558208689107495 -0.1279016037807609
1240000000.0 -0.3000204232785964 0.27202921258316065
1260000000.0 0.17014587064237546 -0.3965398523817751
1280000000.0 -0.3700751118443982 0.2493646230983
1300000000.0 0.35269002620210316 -0.2845973092970466
1320000000.0 -0.2128208597355289 -0.39621173866812
1340000000.0 -0.40719446976702844 -0.16299461224169495
1360000000.0 -0.2009107446868062 -0.38454979382418836
1380000000.0 -0.33501296550577186 -0.2655405838709178
1400000000.0 -0.3153899025825841 0.2708406184081078
1420000000.0 0.1043733780447611 0.3827531880709497
1440000000.0 0.366840360939196 0.04143039744037453
1460000000.0 0.2800154326840974 -0.18942899027523613
1480000000.0 0.07510647000408109 -0.29940105407582235
1500000000.0 0.10336615993500146 -0.26118637579033754
1520000000.0 -0.25493314308793813 -0.03862123921199231
1540000000.0 -0.047216221406808694 0.2304036607590083
1560000000.0 -0.20837878812829394 0.004505209367990371
1580000000.0 -0.17850991624526583 -0.05164360756994532
1600000000.0 0.10565263262463871 0.10910329041062318
1620000000.0 0.04208673367721872 -0.1144457571052084
1640000000.0 0.0004377706651201295 -0.09583292405200419
1660000000.0 -0.033837611386698 0.06501823758401158
1680000000.0 -0.009265192074441979 -0.049455347457977236
1700000000.0 -0.020437836513759963 -0.025758817423516978
1720000000.0 0.018103631183848466 0.0009021030912207777
1740000000.0 0.02293548707801717 -0.003918249703964468
1760000000.0 -0.008191557659050431 0.044593264199126556
1780000000.0 -0.057375112204876885 -0.05285475366892593
1800000000.0 -0.021405737822902917 -0.11254428363509865
1820000000.0 -0.10775302053455939 -0.10303839576510163
1840000000.0 -0.1834442505406999 0.03525794398818186
1860000000.0 -0.06569073185771743 -0.20790321468503073
1880000000.0 0.19237344711485382 0.15894457406095508
1900000000.0 -0.18030341517501663 -0.2169243457651313
1920000000.0 -0.00222786861418992 0.30650734129056645
1940000000.0 0.26468972550276837 0.19962784969858036
1960000000.0 0.35237194687039786 -0.04929019672314672
1980000000.0 0.22652922325171274 -0.29817515173820586
2000000000.0 0.3090169528543722 -0.24875073391223804
2020000000.0 0.07312805762897005 -0.4094552560452759
2040000000.0 -0.19519103053777492 -0.38496531086786034
2060000000.0 -0.43486973476769786 0.07125883500961773
2080000000.0 0.06286123572719178 0.44091887186559514
2100000000.0 0.4284494859686531 -0.10836241021148106
2120000000.0 -0.1301920889329088 -0.4114630887130535
2140000000.0 -0.40563849443495614 0.09554920578440436
2160000000.0 -0.39260324119919493 -0.04591707665191606
2180000000.0 -0.34685514651135024 0.1385302023760169
2200000000.0 -0.13881873785564106 0.32515434817005534
2220000000.0 -0.1804929290492768 0.28250185908006076
2240000000.0 -0.2579933555327123 0.20291833601076859
2260000000.0 -0.3198624044715408 -0.06724108033267964
2280000000.0 -0.2693647456612571 -0.20062736210464682
2300000000.0 -0.33825162663007297 0.10794668089603257
2320000000.0 0.21905879910607554 0.31356069492205135
2340000000.0 0.18724048512006786 -0.3727047177370228
2360000000.0 -0.2948358029307094 0.3524283075977973
2380000000.0 0.34092883526385925 -0.37519466167591736
2400000000.0 -0.2692925722799607 0.4876261832984061
2420000000.0 0.0290176007237461 -0.6067003515699393
2440000000.0 0.3029534343191602 0.5820240494912934
2460000000.0 -0.6283880267011898 -0.30374885542551544
2480000000.0 0.731867308458751 0.0019079413063414887
2500000000.0 -0.753833206357059 0.03922272387659557
2520000000.0 0.767260982968622 0.04706566770083959
2540000000.0 -0.6777598592324889 -0.37149890111183204
2560000000.0 0.318036026862612 0.6998959799481342
2580000000.0 0.3044594099059876 -0.6919418439100693
2600000000.0 -0.7077318710596812 0.19163349751458578
2620000000.0 0.6584663697509864 0.24867085180978513
2640000000.0 0.6432784973744754 -0.1783593009925891
2660000000.0 -0.5577583268214926 -0.27271563821911
2680000000.0 0.24798169378439072 0.5164430099784231
2700000000.0 0.18906160034867978 -0.48711969966831004
2720000000.0 -0.4319029992792102 0.1956835307543641
2740000000.0 0.35896711904916256 0.2378744373965913
2760000000.0 -0.1588737897555623 -0.35993538774236233
2780000000.0 0.12927864280365758 0.34194398698476086
2800000000.0 -0.29427224611275926 -0.1778563018139887
2820000000.0 0.10493996456086435 -0.3120269668436706
2840000000.0 0.31799993440363744 0.01895112222062672
2860000000.0 0.12831612405020654 0.28440725770151437
2880000000.0 -0.25471816221478183 0.17174335555653572
2900000000.0 0.05397506543661424 -0.29819806678690475
2920000000.0 -0.2446981434120057 0.17228649700305085
2940000000.0 -0.02937865704047867 0.2971038136405536
2960000000.0 -0.06173750216770963 0.2932865310509508
2980000000.0 -0.2938936606246553 0.08072828359954654
3000000000.0 -0.014072829907403661 -0.30713949662522894
3020000000.0 0.31343502583267735 -0.025363331254676977
3040000000.0 -0.1189340594703228 0.293323563206052
3060000000.0 -0.14324733298079742 -0.2858916104626455
3080000000.0 0.30886730139670354 0.06951762081301545
3100000000.0 -0.26835395340470397 0.1598697174554272
3120000000.0 -0.01685668560506228 -0.3057483235297173
3140000000.0 0.2941897473578022 -0.010401109188369435
3160000000.0 -0.2362230949284025 -0.14306684567191405
3180000000.0 0.12002047785309901 -0.22649773984569255
3200000000.0 0.2106871988109172 0.08366831851834047
3220000000.0 -0.17583112935281658 0.08387984507671438
3240000000.0 0.15979694523830867 -0.022093806230126998
3260000000.0 0.08574554887619569 -0.09615691164100387
3280000000.0 0.06277744495554968 0.08138277934344236
3300000000.0 0.07410249667934261 0.03139190910448633
3320000000.0 0.061131053029619145 -0.0023625425078160466
3340000000.0 0.006016884229041643 0.042301921991563816
3360000000.0 0.010500174070801508 -0.023073608892016245
3380000000.0 0.003405178864245939 -0.015215145073516146
3400000000.0 -0.013538980292743792 0.023630848346405754
3420000000.0 -0.04456049184651708 0.013695587565180363
3440000000.0 -0.01886962369025009 0.056993849500941815
3460000000.0 0.06733344499513598 0.015045822190878274
3480000000.0 -0.07066740225577887 0.01991933526294524
3500000000.0 0.009307015118787997 0.07716927481623738
3520000000.0 0.036458687576752254 -0.07549417079715762
3540000000.0 0.08289892767922012 -0.0499761397428079
3560000000.0 0.10967679123092643 -0.029494000359241882
3580000000.0 -0.11893729543839605 -0.06171318812935773
3600000000.0 -0.06614713051353305 -0.1424466877481316
3620000000.0 -0.12654252462019427 -0.11982712379962628
3640000000.0 -0.1885129237623124 -0.014951459768090012
3660000000.0 -0.11615283447857852 0.159813399168769
3680000000.0 0.05456426448046324 0.1913578002675024
3700000000.0 0.14172517860102915 0.13369722514659949
3720000000.0 -0.027683569769472664 0.1858124692078657
3740000000.0 -0.17553817102778427 0.022299767958293786
3760000000.0 -0.08484119956335646 0.1447224718410891
3780000000.0 0.031460614965922666 0.1562208342315175
3800000000.0 -0.05816599674930025 0.14600692021997316
3820000000.0 0.031901623816250904 0.15448180372749598
3840000000.0 0.15598130285358147 0.01342381897246062
3860000000.0 0.1438645831444631 -0.07018143336402771
3880000000.0 -0.1608636558303229 0.015229502834189694
3900000000.0 0.1174707718133612 0.10997545896571279
3920000000.0 0.023108787193842673 -0.155923546916887
3940000000.0 -0.15660420705977343 0.003701162101611321
3960000000.0 0.1382317010640479 0.0826064942322468
3980000000.0 -0.022843641879858045 0.162873278236706
4000000000.0 -0.12494558055497136 -0.10599380231329188
