!Created with skrf (http://scikit-rf.org).
# Hz S RI R 50.0 
!freq ReS11 ImS11
400000000.0 -0.37775904198968835 0.7931324085527319
420000000.0 0.6633516188675822 0.567444055753111
440000000.0 0.36226743921540017 -0.7634260071840113
460000000.0 -0.7184764222931174 -0.35633315722614695
480000000.0 -0.7011672684491731 -0.16907317179686887
500000000.0 0.34591571124014614 0.4459439693212016
520000000.0 0.46238595253170633 -0.08722420065337219
540000000.0 -0.29211664674978627 -0.24557778349536918
560000000.0 -0.30067495864730676 -0.1413811048683164
580000000.0 0.27811518256954026 -0.13419123247502332
600000000.0 0.19875096330799963 -0.23637238497561783
620000000.0 -0.28056708088465804 0.15485522005907926
640000000.0 -0.3337512619547797 0.10294434821220744
660000000.0 -0.3238287863985046 0.1791067263790689
680000000.0 0.31349220799134403 -0.2527419631194036
700000000.0 -0.2734125943523565 -0.3205387233154379
720000000.0 -0.39928903741895644 0.17279694478607474
740000000.0 -0.3284199491975253 -0.29369989785857537
760000000.0 0.10121657443878905 0.41793204502407433
780000000.0 -0.28733767850852865 0.2861020321171418
800000000.0 -0.24103469289834728 -0.2893146006621162
820000000.0 -0.3236849749155228 -0.01075457151107598
840000000.0 -0.18883581355816523 -0.1948049833201399
860000000.0 -0.13794048972123746 0.1657087274916097
880000000.0 -0.15828448254844424 -0.015864183401594848
900000000.0 -0.026185107279185462 0.08923394584305357
920000000.0 0.05522576045853846 0.015655420811097227
940000000.0 0.044086298877959146 -0.003420328857632181
960000000.0 -0.007542556548849111 -0.05517840075831801
980000000.0 0.02143853258955417 0.06481941277177677
1000000000.0 -0.04785555176281801 0.0595636517971832
1020000000.0 0.07808878595004352 -0.0377644945787767
1040000000.0 -0.05160684757953174 0.08312620755303887
1060000000.0 0.08782370153166398 0.09988635915780815
1080000000.0 -0.14932831697522067 -0.0017362299809583223
1100000000.0 -0.16798191714399355 -0.03277267522368376
1120000000.0 -0.18108044036630677 0.06253816153351908
1140000000.0 -0.22876809634629364 -0.024204566403382578
1160000000.0 -0.21085112245180074 0.16127748298052078
1180000000.0 -0.30796394612562944 -0.022802207642801636
1200000000.0 -0.17279452998604203 -0.29258792159840047
1220000000.0 0.37597429076486527 0.014861041891646677
1240000000.0 -0.3835217790024624 0.1276791245948492
1260000000.0 0.3130750202162225 -0.29794251649812026
1280000000.0 -0.4198205958562366 0.1552951557319621
1300000000.0 0.39787916436734627 -0.2208082988340245
1320000000.0 -0.2352678523727464 -0.3853770986039384
1340000000.0 -0.43402753839492403 -0.07519412389377501
1360000000.0 -0.2866436457575306 -0.32611366440153233
1380000000.0 -0.3812006287469323 -0.19325632849211408
1400000000.0 -0.2685937125775566 0.31702632278545195
1420000000.0 0.169709156818215 0.35797504275595815
1440000000.0 0.3689260603396887 -0.005813643815651047
1460000000.0 0.24025053843290545 -0.23829853847124535
1480000000.0 0.037521981509690334 -0.3064811460430034
1500000000.0 0.10643680656303312 -0.2590177222873058
1520000000.0 -0.24848413936926975 -0.06443516807788921
1540000000.0 -0.10844963326387509 0.2070681166076752
1560000000.0 -0.18410795170191416 -0.09536253655333063
1580000000.0 -0.06504037383737037 -0.17393458769812772
1600000000.0 -0.03769589561388737 0.14738035635951316
1620000000.0 0.1188548341657272 -0.030972208824725362
1640000000.0 0.06557818589989231 -0.07153544422554818
1660000000.0 -0.07442901431307088 -0.0053315409986809765
1680000000.0 0.03226469735887892 -0.04040007004393731
1700000000.0 -0.02421424475050147 -0.025045985375931896
1720000000.0 0.003138701963319805 0.019519560682719643
1740000000.0 0.013529371240856078 -0.01961420583595082
1760000000.0 0.03713217684608059 -0.024901556747316707
1780000000.0 0.03517505528265194 -0.06966654999744937
1800000000.0 0.03226825774624763 -0.11034353098745144
1820000000.0 -0.09268737216974426 -0.1180377912273434
1840000000.0 -0.18816008778563892 -0.01037227046696298
1860000000.0 -0.04093687443469603 -0.21566263758848433
1880000000.0 0.17933578737154957 0.17496434850466283
1900000000.0 -0.1747029940984033 -0.22376562606710448
1920000000.0 -0.011978263388263067 0.3083421008259545
1940000000.0 0.2848310829497866 0.1736310273783882
1960000000.0 0.33949327178014316 -0.11102893621229701
1980000000.0 0.13205255226794776 -0.35148653395053314
2000000000.0 0.22078020672878776 -0.32914180010980665
2020000000.0 -0.048022358797607446 -0.4113668023998731
2040000000.0 -0.23097334470579753 -0.36116717875693266
2060000000.0 -0.42578769139655576 0.09825456816910091
2080000000.0 0.029582722695548472 0.44099940558358774
2100000000.0 0.43947947546854416 0.019195462701300983
2120000000.0 0.025163364313618975 -0.4302810444755597
2140000000.0 -0.41131546855425494 -0.0732913770812783
2160000000.0 -0.3731593457617433 -0.1361463282489699
2180000000.0 -0.3547326730303231 0.12338056041424526
2200000000.0 -0.06375407737676433 0.3507876426247406
2220000000.0 -0.04206955169339707 0.33445750303592364
2240000000.0 -0.11906266571879613 0.3062304881059017
2260000000.0 -0.2979875262939171 0.13137019777998435
2280000000.0 -0.32421025153741384 -0.07963843172340845
2300000000.0 -0.30939454878522044 0.16787336352134638
2320000000.0 0.21486251913646742 0.31380772009188446
2340000000.0 0.18605378026197247 -0.3713731966600808
2360000000.0 -0.3251824516713408 0.32336754480565244
2380000000.0 0.362907172129481 -0.35408810167233623
2400000000.0 -0.280583597063678 0.4814970716276599
2420000000.0 -0.02353746357783239 -0.607756740058554
2440000000.0 0.3797609505593775 0.536064795440735
2460000000.0 -0.6679582481646922 -0.2050651389344945
2480000000.0 0.7280038481848231 -0.07855567793094521
2500000000.0 -0.7538118913201796 0.048623021322620766
2520000000.0 0.7663351798967089 0.05980329853360829
2540000000.0 -0.6858617001991074 -0.355604235101649
2560000000.0 0.3229813771742108 0.6976449754675967
2580000000.0 0.2799217285169846 -0.7019497904231315
2600000000.0 -0.6904967194483335 0.24730623011784153
2620000000.0 0.6238151946021054 0.3241210748926995
2640000000.0 0.6492311789131943 -0.14804454865060762
2660000000.0 -0.5537227905401134 -0.2760918558541996
2680000000.0 0.23718522569864875 0.5184425150386179
2700000000.0 0.17369963997583165 -0.48961524770098586
2720000000.0 -0.4327140998767848 0.18287340866497767
2740000000.0 0.33606749141682685 0.261116837639871
2760000000.0 -0.14456277430563114 -0.360406843207264
2780000000.0 0.1152351719775425 0.3420065397798615
2800000000.0 -0.27703660243672523 -0.1974079237633251
2820000000.0 0.14584792283632553 -0.2925845021573668
2840000000.0 0.3169803332360663 0.022040939075777456
2860000000.0 0.11821060726023533 0.29038808166294405
2880000000.0 -0.22549165980050925 0.21227189051071974
2900000000.0 -0.037105372281265224 -0.304212501774545
2920000000.0 -0.16075893545954215 0.2574668581304864
2940000000.0 0.14309912396885224 0.2653099595327554
2960000000.0 0.07007650409749469 0.2930935192229202
2980000000.0 -0.2801394508428274 0.11932988846320132
3000000000.0 -0.03430215604667066 -0.3067761944864007
3020000000.0 0.29872811307266584 0.09529620632247861
3040000000.0 -0.2660419845408641 0.16990179263580543
3060000000.0 0.08772071469760691 -0.30600821400836403
3080000000.0 0.18041418179331167 0.2591777471105847
3100000000.0 -0.3119739490624738 -0.015829634182318003
3120000000.0 0.15339628171368733 -0.26517266451632665
3140000000.0 0.2553916739648821 0.14694502208062285
3160000000.0 -0.17738611694852502 0.2123217308318226
3180000000.0 0.16648899709450038 -0.1957776807689679
3200000000.0 0.20917029321684108 0.08884528087402946
3220000000.0 -0.15679154253190133 0.11544345413956099
3240000000.0 0.13775955852927926 -0.08205911989915182
3260000000.0 0.017349067789884084 -0.12533906187080857
3280000000.0 0.07260259681583787 0.0675490842210885
3300000000.0 -0.026107202073148268 0.07337588265004474
3320000000.0 -0.04863464856415734 0.03377971901181746
3340000000.0 0.04087718563528321 0.010777095808509331
3360000000.0 0.022941780032599033 0.011573244042054051
3380000000.0 -0.013938483308152321 0.0018611575529819489
3400000000.0 0.024744222486155324 -0.0017602283768880288
3420000000.0 0.04478848150550268 0.005700109952798294
3440000000.0 -0.04958042616612704 -0.034255385215843606
3460000000.0 -0.040495484005245566 0.05741720849147904
3480000000.0 -0.07628783210954442 0.006862682679298708
3500000000.0 0.07779667811209598 0.02478534225243012
3520000000.0 -0.023003251758759977 0.08327538239272972
3540000000.0 -0.0961456527358998 -0.014248651606900016
3560000000.0 -0.05768570555823618 -0.09623474560944892
3580000000.0 -0.11895785967339612 0.05695820695409785
3600000000.0 -0.06284185005995173 -0.1423467376844972
3620000000.0 -0.04442604771600235 -0.16628215875560287
3640000000.0 -0.10467825972742645 -0.15750171665503357
3660000000.0 -0.19313924252186512 0.05155580179267331
3680000000.0 -0.05017986688859918 0.1959636656282537
3700000000.0 0.09997893792429817 0.1714139190799586
3720000000.0 0.009019426101950523 0.19151421345625383
3740000000.0 -0.14974462674727967 0.10027044746217009
3760000000.0 0.03287619862374279 0.1659512448695436
3780000000.0 0.12255292704669528 0.09964699009665443
3800000000.0 -0.03917497786216969 0.14961124463872663
3820000000.0 -0.04823576875951461 0.14728545075559643
3840000000.0 0.02450151507633446 0.1534734167299206
3860000000.0 0.09105199254602712 0.13182272671993894
3880000000.0 -0.03567115433949443 -0.15956894074335604
3900000000.0 0.02829406907920155 0.16060770606744826
3920000000.0 -0.054540623364474086 -0.15085603748645476
3940000000.0 -0.08044687041118258 0.13525603584345788
3960000000.0 0.13726108435447007 -0.08028113836047111
3980000000.0 0.11468516951284992 0.11206316936880747
4000000000.0 -0.1453830859739392 -0.06358810451504204
