!Created with skrf (http://scikit-rf.org).
# Hz S RI R 50.0 
!freq ReS11 ImS11
400000000.0 -0.38590838555678214 0.7879699222913025
420000000.0 0.6780802163549928 0.5490293923853685
440000000.0 0.40452699912897316 -0.7421308264675437
460000000.0 -0.7318472787163884 -0.3284095556361374
480000000.0 -0.7094350504203564 -0.1281289327189619
500000000.0 0.3422198949487473 0.44900320892587087
520000000.0 0.4627079651077342 -0.08485472577470847
540000000.0 -0.28400934053796373 -0.25377346239667237
560000000.0 -0.2738814754720085 -0.18720339025258725
580000000.0 0.2980662577918232 -0.079445140395996
600000000.0 0.21812350075435888 -0.21928262969665463
620000000.0 -0.2864180469080181 0.14371804559458698
640000000.0 -0.34186938297029135 0.07107168321191332
660000000.0 -0.3254202243310114 0.17640739089652957
680000000.0 0.30516784118587875 -0.2630792962921445
700000000.0 -0.29330478685491 -0.3031080534396019
720000000.0 -0.38493662178153226 0.2041133025517203
740000000.0 -0.3576999473832493 -0.2579114623893695
760000000.0 0.13823196337366672 0.40778679946636176
780000000.0 -0.26058843157849393 0.310690490445237
800000000.0 -0.27000781932077456 -0.2619164006527204
820000000.0 -0.32125272260117255 0.03267446023927753
840000000.0 -0.20680771895643585 -0.17455184549904967
860000000.0 -0.13847405999596127 0.1639575395113625
880000000.0 -0.15403679144356086 -0.03592454632026737
900000000.0 -0.03710585854972389 0.08414953967962549
920000000.0 0.056502787239058314 0.003559915003931162
940000000.0 0.03430624006111823 -0.027728213384830856
960000000.0 -0.011846426169290573 -0.0544801247912326
980000000.0 0.0007428622390735797 0.06802134766091492
1000000000.0 -0.0639446180469048 0.0413130182883047
1020000000.0 0.08532906337416815 -0.013295959750887465
1040000000.0 -0.07351238324481453 0.06395988017961428
1060000000.0 0.06858948331738599 0.1136995741167548
1080000000.0 -0.14667738067559682 -0.025725465896254927
1100000000.0 -0.16379749676827693 -0.048398647889865455
1120000000.0 -0.18495923988916288 0.049035013076063186
1140000000.0 -0.22591663376037183 -0.042712828311134626
1160000000.0 -0.22812909754389069 0.13591985616191915
1180000000.0 -0.30884952925957526 -0.017951665298842828
1200000000.0 -0.19323824969183553 -0.28063452697024766
1220000000.0 0.3765067545318025 -0.020939021867331
1240000000.0 -0.36330545531327985 0.17866561100915962
1260000000.0 0.2728919425245386 -0.33522495894384485
1280000000.0 -0.40580280267296326 0.18874545070485851
1300000000.0 0.37962772124280797 -0.2503013412904798
1320000000.0 -0.23911885706223004 -0.38245146673898217
1340000000.0 -0.42786056114950144 -0.10206224501371297
1360000000.0 -0.25668836840225734 -0.34981812773985466
1380000000.0 -0.36089210532363786 -0.2287458610878717
1400000000.0 -0.29903491932909393 0.28843566518340485
1420000000.0 0.12390290586901485 0.3766047239426629
1440000000.0 0.36835370313848326 0.021071416498383802
1460000000.0 0.2585414299947263 -0.2181398785199481
1480000000.0 0.06055809146022974 -0.30256953030808226
1500000000.0 0.11582340055044975 -0.25509170961435224
1520000000.0 -0.24277944892619988 -0.08436862439216991
1540000000.0 -0.08883841737321611 0.21641371439220977
1560000000.0 -0.19482091608086802 -0.07074107899871677
1580000000.0 -0.08625115665329836 -0.16430526348814947
1600000000.0 0.03638619057544878 0.1470433130075073
1620000000.0 0.09175992179247386 -0.08105410936427442
1640000000.0 0.046992436387948706 -0.0845608373572213
1660000000.0 -0.07011829641189872 0.024941021841535984
1680000000.0 0.006121945927551607 -0.05146605271410268
1700000000.0 -0.017177296197762294 -0.030240855918458542
1720000000.0 -0.008635134725029237 0.01734887917729901
1740000000.0 -0.022325975617265934 0.005576337364634644
1760000000.0 0.0055511866346323775 -0.044228333724894625
1780000000.0 -0.004426287564648965 -0.07776884372675369
1800000000.0 -0.01000027368248436 -0.11434426836787677
1820000000.0 -0.11874962644405569 -0.09200091166166974
1840000000.0 -0.18816770675156705 0.007198592098541108
1860000000.0 -0.046459580750707365 -0.21471538514159708
1880000000.0 0.18212384473256468 0.17243254140807837
1900000000.0 -0.16559872546080556 -0.23067055319376903
1920000000.0 -0.02669197117731754 0.3072596420490044
1940000000.0 0.27077478966178203 0.19443919280234873
1960000000.0 0.34931625217736445 -0.07387299685634988
1980000000.0 0.17089405571854555 -0.3340836860859122
2000000000.0 0.2461297901015637 -0.31033252934283023
2020000000.0 -0.05205916743140844 -0.41077683006579624
2040000000.0 -0.2037301952912988 -0.3772122758847601
2060000000.0 -0.42157779084187286 0.1146253164566805
2080000000.0 0.05568591590171678 0.43859430645204206
2100000000.0 0.439663369490603 -0.008830629649693457
2120000000.0 0.021145805240020694 -0.4305059309055485
2140000000.0 -0.41713272963207193 0.0009467141149789
2160000000.0 -0.3893748922050376 -0.07345878019760815
2180000000.0 -0.33586845803563825 0.16611589288929077
2200000000.0 -0.0371130964296237 0.3536697097843634
2220000000.0 -0.05842338149991416 0.3313653088504919
2240000000.0 -0.120497637626252 0.30559743124706523
2260000000.0 -0.314534363773758 0.08486260095637753
2280000000.0 -0.3240280613048435 -0.08386174973157356
2300000000.0 -0.3042440176640552 0.17933501197513685
2320000000.0 0.23958097029220807 0.29675203151324
2340000000.0 0.1461865977181738 -0.3901850050186761
2360000000.0 -0.3084742811443222 0.340306745658708
2380000000.0 0.3382167694297506 -0.37808414301786714
2400000000.0 -0.2800812339180643 0.48174781411804923
2420000000.0 -0.009130724650712197 -0.6080948076741789
2440000000.0 0.3683085454055873 0.5434607623426947
2460000000.0 -0.6647233655730058 -0.21293350304080813
2480000000.0 0.729244999368527 -0.05993491098571107
2500000000.0 -0.745976669603678 0.11263558696717857
2520000000.0 0.7678715271313283 0.008993669130466836
2540000000.0 -0.6685750864976294 -0.386646603534247
2560000000.0 0.3835160431156592 0.6652168281135883
2580000000.0 0.3190930431092632 -0.684571989369372
2600000000.0 -0.6639562304969485 0.30989574456262614
2620000000.0 0.6519984085850604 0.26240311492315943
2640000000.0 0.6336591066488759 -0.20296578592588446
2660000000.0 -0.5794631849662096 -0.21754042792095757
2680000000.0 0.23111796019897543 0.5212437335534484
2700000000.0 0.17551875637697742 -0.489293071348544
2720000000.0 -0.434178111734609 0.18108959858886858
2740000000.0 0.3415012468455082 0.2555540765381047
2760000000.0 -0.1477327324316278 -0.3599185029618718
2780000000.0 0.11500465980540829 0.3426547183220508
2800000000.0 -0.2790443919488639 -0.19501619787386976
2820000000.0 0.13595031490706447 -0.297521654385382
2840000000.0 0.31746688608091056 0.008717101938258138
2860000000.0 0.14798560173133427 0.27510936425727367
2880000000.0 -0.2350906673167693 0.20010150488695644
2900000000.0 -0.03540200246811728 -0.3030295735187266
2920000000.0 -0.15624767299772133 0.25832979906198383
2940000000.0 0.10702300184794443 0.28033865333437435
2960000000.0 0.04234492332454816 0.2976696584385672
2980000000.0 -0.2829011677317623 0.11294079127791778
3000000000.0 -0.05578269870582066 -0.30330226384610964
3020000000.0 0.3101340683285468 0.04836897125071883
3040000000.0 -0.24809446600940274 0.19551126881653347
3060000000.0 0.030673602540522097 -0.3167508536573568
3080000000.0 0.24762453861908149 0.1954728529749995
3100000000.0 -0.3118588047615095 -0.007194084382792049
3120000000.0 0.06623384053532624 -0.2991650070462644
3140000000.0 0.2838189907182426 0.07990716940347768
3160000000.0 -0.19694518700634187 -0.19439237244198007
3180000000.0 0.15499815620689714 -0.20481443256377418
3200000000.0 0.21228109512165055 0.08145251102714142
3220000000.0 -0.15959300638566024 0.1115860906767624
3240000000.0 0.1481487549930335 -0.06327897708310612
3260000000.0 0.0394924825205783 -0.12105425339680978
3280000000.0 0.06666520251355673 0.0751611831406735
3300000000.0 -0.022063053056151763 0.07590547340260742
3320000000.0 -0.037943348683501 0.04665002912961559
3340000000.0 0.04286617318731482 -0.0015320975556250098
3360000000.0 0.019251554376014297 0.016825300149837203
3380000000.0 -0.008653314729245635 0.01048242047492975
3400000000.0 -0.012581566347451141 -0.021156450430210687
3420000000.0 -0.01510591604506544 -0.04249486973421765
3440000000.0 -0.04562842845949502 0.03915652616604338
3460000000.0 0.038444064129672544 0.05853960016019194
3480000000.0 -0.06786061501400707 0.03351295191566443
3500000000.0 0.08020468178426353 -0.008701609798911911
3520000000.0 -0.05996476187656526 0.06053379841005483
3540000000.0 -0.09703235234061566 -0.00907551545137539
3560000000.0 -0.07112622512345596 -0.08749264771716173
3580000000.0 -0.10639286922470828 0.07875801137377691
3600000000.0 -0.04872548049343573 -0.14740999507089111
3620000000.0 -0.10075701860918458 -0.1406124730588807
3640000000.0 -0.15075305684214285 -0.11483904676415135
3660000000.0 -0.17636637152190512 0.0943045706275617
3680000000.0 -0.014864562726243079 0.2020142953810452
3700000000.0 0.12900918026938332 0.1508125342155383
3720000000.0 0.035549000855428906 0.1889653090031518
3740000000.0 -0.1489390658859478 0.10140311274135862
3760000000.0 0.01868410802541705 0.16801895598927746
3780000000.0 0.10244606595148886 0.12120425855659768
3800000000.0 -0.04428458496606889 0.14923364294938543
3820000000.0 -0.04832857059297324 0.1489072190686156
3840000000.0 0.046033427095065395 0.14997680148017892
3860000000.0 0.12592263726074063 0.10074878716064274
3880000000.0 -0.07245563595338397 -0.1468146871385822
3900000000.0 0.03013682143985778 0.1606398764292447
3920000000.0 -0.042529074183914425 -0.1544245867540632
3940000000.0 -0.11204569577568382 0.11034481722051756
3960000000.0 0.15922144482656986 -0.011537781243495894
3980000000.0 0.03799361371281277 0.15674255296046014
4000000000.0 -0.1001125915118924 0.12498899103565697
