!Created with skrf (http://scikit-rf.org).
# Hz S RI R 50.0 
!freq ReS11 ImS11
400000000.0 -0.3862504582325701 0.7878311394983706
420000000.0 0.6690164112321932 0.5598154327276419
440000000.0 0.3875341290599604 -0.7509551590798226
460000000.0 -0.739077232080495 -0.3116775192917412
480000000.0 -0.7148541187205261 -0.09218531865825334
500000000.0 0.2198775850296468 0.5172064784767266
520000000.0 0.4314762997729883 -0.18768569814137245
540000000.0 -0.29190346257279587 -0.24165945856169085
560000000.0 -0.27835066029874256 -0.181641744858063
580000000.0 0.2958494224091992 0.08592865797392311
600000000.0 0.16899130534312337 -0.2621302447965764
620000000.0 -0.3163364663592405 0.054757413898864224
640000000.0 -0.34569001365916024 0.04631785922046907
660000000.0 -0.32858075851909624 0.1716581872015776
680000000.0 0.32981946532860595 -0.2315617248194805
700000000.0 -0.26514816717718565 -0.3289748557981033
720000000.0 -0.3985721917023388 0.17817948480383272
740000000.0 -0.36469874093220067 -0.24883149401934418
760000000.0 0.1915202898246448 0.3858826314078395
780000000.0 -0.20912952998176185 0.34736603557421125
800000000.0 -0.27298790188138605 -0.2588438808828722
820000000.0 -0.31670881241909576 0.058614346224374884
840000000.0 -0.20044284032736215 -0.18083194536591124
860000000.0 -0.15957842452835824 0.14130286222112237
880000000.0 -0.1452123487897568 -0.06308775834422899
900000000.0 -0.06206188027897132 0.06742384964535258
920000000.0 0.038807117763600595 0.04041491257522315
940000000.0 0.011400326553551925 -0.042002449970195484
960000000.0 -0.027673923728997955 -0.04792653891528584
980000000.0 -0.010547276923505091 0.06624395448854717
1000000000.0 -0.06489890810147887 0.03860214202257941
1020000000.0 0.07008581114662969 -0.0489582474129747
1040000000.0 -0.0627197716909924 0.07420496499211687
1060000000.0 0.07036436124211107 0.1126048148083757
1080000000.0 -0.1471927882353729 -0.02332069156973175
1100000000.0 -0.15438447193447571 -0.07237856029312022
1120000000.0 -0.19134406823118924 -0.008097260729512565
1140000000.0 -0.21190694461921164 -0.09032099271348376
1160000000.0 -0.23027378527280137 0.13399498036088064
1180000000.0 -0.3090242743336422 -0.02492953213083802
1200000000.0 -0.1883979806180714 -0.2849981801852397
1220000000.0 0.37141863718073337 -0.06850196058358889
1240000000.0 -0.35649239088494483 0.19198976209628307
1260000000.0 0.24354758856080663 -0.3567389660776371
1280000000.0 -0.3946714756059291 0.21041895907832167
1300000000.0 0.37984218482626336 -0.2492866407357965
1320000000.0 -0.219048541285053 -0.39394028045768215
1340000000.0 -0.42256981668097016 -0.1205647084914898
1360000000.0 -0.23196992738585134 -0.3665939544081419
1380000000.0 -0.35240845955227856 -0.24114460641911645
1400000000.0 -0.2964711378281653 0.29082319255823047
1420000000.0 0.10518516049644641 0.3824134193241202
1440000000.0 0.36798668507195503 0.027776108798571474
1460000000.0 0.27714498083223826 -0.1943969189426283
1480000000.0 0.038256954234238076 -0.3063260468243902
1500000000.0 0.09821262851317941 -0.2632124117542651
1520000000.0 -0.255265811499648 -0.034207144362431864
1540000000.0 -0.08234706451707255 0.21979817010296104
1560000000.0 -0.20307780983618434 -0.04538418237362727
1580000000.0 -0.13151262832823826 -0.1312160122556098
1600000000.0 0.05469787085871481 0.14129986902314592
1620000000.0 0.08064497105275652 -0.09132316955477769
1640000000.0 0.004234125335353291 -0.09597760964744735
1660000000.0 -0.06780060583606211 0.029420314008468104
1680000000.0 0.03422882007737043 -0.036443517257164784
1700000000.0 0.0032440138424559995 -0.03313250515354911
1720000000.0 0.018062100032101153 0.0017988693743186844
1740000000.0 0.007795026706573216 0.021838253886944266
1760000000.0 -0.03947161477923176 -0.02205772663272999
1780000000.0 -0.0012842947204110761 -0.07789755196552431
1800000000.0 0.006408528423487738 -0.11422505974432548
1820000000.0 -0.08552026650299155 -0.12264128960948782
1840000000.0 -0.18708474011277262 -0.011756427723921672
1860000000.0 -0.040437030188902955 -0.21489798724772868
1880000000.0 0.1934456629900521 0.1583851949782031
1900000000.0 -0.17669145994947383 -0.22098362966595006
1920000000.0 0.012821443116947813 0.30747450897173106
1940000000.0 0.28210950474069013 0.17673706312768014
1960000000.0 0.3433947942610669 -0.09636069166584792
1980000000.0 0.18644456381777674 -0.32561820638660616
2000000000.0 0.2740046522792393 -0.28644003401893275
2020000000.0 -0.014053997729722264 -0.4148423178882174
2040000000.0 -0.208521029116217 -0.3763382572808309
2060000000.0 -0.4216726663173056 0.12054986913250333
2080000000.0 -0.010707060701295141 0.444285906040936
2100000000.0 0.4410487679632048 0.021634100358332367
2120000000.0 0.0047824578254645955 -0.4318154518154312
2140000000.0 -0.41534745552208463 -0.04906942194955168
2160000000.0 -0.3650410307474659 -0.1555278041181413
2180000000.0 -0.34818459505749794 0.1386962646892679
2200000000.0 -0.10670524157633844 0.33855925854531793
2220000000.0 -0.15057640177153692 0.2996557242303338
2240000000.0 -0.1896100574771789 0.26724159562215555
2260000000.0 -0.32419557243082353 0.02622897985581257
2280000000.0 -0.3124739925991955 -0.11833637920700382
2300000000.0 -0.32058927763624473 0.14756223076628738
2320000000.0 0.21951623363030076 0.31161102330069074
2340000000.0 0.16186579306827112 -0.3836518150830568
2360000000.0 -0.2948295993262277 0.35195218708192677
2380000000.0 0.3396906551121121 -0.37641094110238915
2400000000.0 -0.2444330187615279 0.5007886167747091
2420000000.0 -0.02205438052290102 -0.6077763803252544
2440000000.0 0.387859084462723 0.5303163236315118
2460000000.0 -0.6623926996875892 -0.2211835554640533
2480000000.0 0.7281232368787693 -0.06993245153148854
2500000000.0 -0.7550759841140346 0.01747764356988887
2520000000.0 0.7635334204193325 0.09165303202317188
2540000000.0 -0.697823222714752 -0.33095651577084384
2560000000.0 0.34975268927862774 0.6851582167354412
2580000000.0 0.2679635416352345 -0.7068381778478776
2600000000.0 -0.6799564706945177 0.2742106951294417
2620000000.0 0.6515910323343512 0.2638243510897232
2640000000.0 0.64095461313318 -0.18026080214097484
2660000000.0 -0.5586419868266065 -0.26669482807272793
2680000000.0 0.21057789685797443 0.5301620994005775
2700000000.0 0.18465126968007617 -0.48595579229868746
2720000000.0 -0.437919057576832 0.17139234732563569
2740000000.0 0.32264598255739013 0.2785590346336414
2760000000.0 -0.15741135751338298 -0.3556994219787738
2780000000.0 0.13428170997218852 0.3356948730885719
2800000000.0 -0.2938221700932598 -0.17216272244602127
2820000000.0 0.10288164802037779 -0.3103466765020905
2840000000.0 0.3166938073423157 -0.016934856262592255
2860000000.0 0.18499411941863464 0.25115856622340876
2880000000.0 -0.20774647719433104 0.22793117558737566
2900000000.0 -0.03898384540792282 -0.30236032435743343
2920000000.0 -0.16559371349619084 0.2523022635276097
2940000000.0 0.0962259834309018 0.28496761081503635
2960000000.0 0.049233334442382634 0.2975387690376238
2980000000.0 -0.2907456323681198 0.09407857632459095
3000000000.0 -0.04611034875961466 -0.3059864926736766
3020000000.0 0.3088860454327219 0.06583888006310654
3040000000.0 -0.22243006376649463 0.2265883768740059
3060000000.0 0.06239412760074405 -0.3129664825837022
3080000000.0 0.22896140251750746 0.21739795157574435
3100000000.0 -0.29895310652937196 -0.0874597055905048
3120000000.0 0.12814791828867123 -0.27820308502850855
3140000000.0 0.26318581599147156 0.13154258724257945
3160000000.0 -0.18199557354943693 0.2073435421715859
3180000000.0 0.20894647551274717 -0.14753813732060925
3200000000.0 0.18809968717983752 0.12545671018695087
3220000000.0 -0.17148762060716866 0.09003148187974766
3240000000.0 0.14412512072641642 -0.07045369532820336
3260000000.0 0.028359281944249422 -0.12414405264851906
3280000000.0 0.08602307413737101 0.052569638682925426
3300000000.0 0.04202403402853595 0.06703797813797975
3320000000.0 0.03299209093790951 0.05011861106252234
3340000000.0 -0.00824431181650708 -0.04142757192707494
3360000000.0 -0.01907410308677357 0.01742891033866595
3380000000.0 0.0014389106920949211 -0.014495147290511214
3400000000.0 0.0006022131227371563 -0.025763557192037875
3420000000.0 0.03568765838876759 -0.027569962373477374
3440000000.0 -0.050520252483288036 0.031640573792504526
3460000000.0 0.043690854374754624 0.05443142172643754
3480000000.0 -0.07465285385817114 0.0021137398041359843
3500000000.0 0.06367908653602858 0.04716221680450891
3520000000.0 -0.0727076241255847 -0.04340785263405071
3540000000.0 -0.006322592115255243 -0.0966917450242139
3560000000.0 0.03389342155815594 -0.10751179331443508
3580000000.0 -0.12944914047092476 -0.026506738188915947
3600000000.0 -0.02324844201111887 -0.1534464959435371
3620000000.0 -0.05009131719433518 -0.16495560129383455
3640000000.0 -0.1488224319254075 -0.11582801823821774
3660000000.0 -0.1663547038756793 0.10934020841094827
3680000000.0 -0.004344070958786532 0.2015327794414571
3700000000.0 0.13931042268629795 0.13959643103914626
3720000000.0 -0.0005238808368015339 0.19074126674625427
3740000000.0 -0.1545651993959603 0.08964985869237485
3760000000.0 -0.015009031743452212 0.16718045909695464
3780000000.0 0.11289548674820671 0.1108723402903851
3800000000.0 -0.023589120137387943 0.15397418432626725
3820000000.0 -0.009961517017292603 0.15590448703815044
3840000000.0 0.07796437802522169 0.13563345336195493
3860000000.0 0.1298321063249985 0.09493913128014167
3880000000.0 -0.10884368067638642 -0.12111334135991925
3900000000.0 0.06547509420807492 0.1486948284090095
3920000000.0 -0.031034359134326506 -0.15576995226461018
3940000000.0 -0.11468195265801615 0.10682978749104409
3960000000.0 0.1589953427187938 -0.01673006383021581
3980000000.0 0.09803552589776819 0.12802531171640374
4000000000.0 -0.15596439357141967 -0.03240557495321123
