!Created with skrf (http://scikit-rf.org).
# Hz S RI R 50.0 
!freq ReS11 ImS11
400000000.0 -0.36399302148993984 0.7988539499985562
420000000.0 0.6811650148448404 0.5452149995178754
440000000.0 0.42531794146357865 -0.7307387513671072
460000000.0 -0.7270021206408886 -0.33965247711475594
480000000.0 -0.7112580809681983 -0.1167790178302305
500000000.0 0.19240016140098268 0.5276402101240272
520000000.0 0.44385931891988845 -0.1568047759606697
540000000.0 -0.2319031789443317 -0.3014455154896631
560000000.0 -0.2818513227776386 -0.17457458845552287
580000000.0 0.29009603244391663 0.10473967868387848
600000000.0 0.1996981084422885 -0.23713228074219908
620000000.0 -0.31982385281392006 0.03136608317888684
640000000.0 -0.3499913517852461 -0.005198219254620057
660000000.0 -0.339367020497496 0.15243601613380398
680000000.0 0.3083669093334956 -0.26156370234265736
700000000.0 -0.26825830074322565 -0.32838333684042964
720000000.0 -0.3809999950838436 0.21532250496025884
740000000.0 -0.38647335155579354 -0.21441846778106083
760000000.0 0.2416039786138259 0.3557882717494057
780000000.0 -0.12428370740355787 0.3861373757209366
800000000.0 -0.32417060228940964 -0.1871334513731187
820000000.0 -0.30342658083436175 0.10629669132823666
840000000.0 -0.19403747665978077 -0.18462015223340222
860000000.0 -0.18979286752333147 0.09434475057298902
880000000.0 -0.10096420665081922 -0.11963096695740903
900000000.0 -0.08066517021391532 0.04369211272145005
920000000.0 0.022693270011426743 0.050940175141723554
940000000.0 0.0421879971285819 0.0053360233182059074
960000000.0 -0.028241006537670588 -0.04612086688951487
980000000.0 -0.007921812216280869 0.06537730717141262
1000000000.0 -0.07385354364996519 0.01629285954154281
1020000000.0 0.08045691444959178 -0.02945974396854143
1040000000.0 -0.09077464434691263 0.03366751822835641
1060000000.0 0.005011557412302898 0.13178524412644171
1080000000.0 -0.12906165400840963 -0.07191415515503713
1100000000.0 -0.11090729808165734 -0.12813269298680485
1120000000.0 -0.1829091315849334 -0.056208601750827536
1140000000.0 -0.19801046788497143 -0.11849137769462703
1160000000.0 -0.2385385377919809 0.11889036722229183
1180000000.0 -0.30910597631204295 -0.027068597353814186
1200000000.0 -0.20970750895278112 -0.27006235560759856
1220000000.0 0.37125365240606323 -0.06925973214651233
1240000000.0 -0.3154240334304627 0.25426312786943955
1260000000.0 0.1859578267418948 -0.3899813958371002
1280000000.0 -0.37921046002807923 0.2361648024239941
1300000000.0 0.3664393560605048 -0.2675322183363211
1320000000.0 -0.2138201529003479 -0.39598467209035554
1340000000.0 -0.41042469168941265 -0.15579159634881842
1360000000.0 -0.1875118954665781 -0.39128414722879656
1380000000.0 -0.33453376150988096 -0.2659341594723133
1400000000.0 -0.3290038993548344 0.253815357017147
1420000000.0 0.06228619428659073 0.3918008256446808
1440000000.0 0.3643451305423093 0.05726760569836652
1460000000.0 0.3029581640645561 -0.15050905293924596
1480000000.0 0.13549459031810318 -0.2772741779374488
1500000000.0 0.14466191466334358 -0.24047675263248705
1520000000.0 -0.25094984618671834 -0.05703993086070032
1540000000.0 -0.08054127574725324 0.22062237722112668
1560000000.0 -0.20674464679539725 0.020335553092657003
1580000000.0 -0.17709986291155994 -0.05537647971188141
1600000000.0 0.1308674751888782 0.07559101745178742
1620000000.0 -0.007103081730755362 -0.12173808239201525
1640000000.0 -0.02237126672102865 -0.09293428613763913
1660000000.0 -0.0034407667245789386 0.07427098133041402
1680000000.0 0.003604892196169621 -0.05049914274326781
1700000000.0 -0.010313114564099375 -0.032045569371071496
1720000000.0 0.009873956350156015 0.014979326228977491
1740000000.0 0.021067494936270612 -0.009025247427041338
1760000000.0 -0.012481327309574996 0.043177083955084655
1780000000.0 -0.06139546020145497 -0.04776555978458237
1800000000.0 -0.04989254309290738 -0.10321989541864723
1820000000.0 -0.1174783561208142 -0.09215874176284751
1840000000.0 -0.18736503710563288 0.010335107023215953
1860000000.0 -0.07102836515720092 -0.20721514608647698
1880000000.0 0.18814130141779084 0.16482802563298088
1900000000.0 -0.15951653847459668 -0.23340354982588307
1920000000.0 -0.024034718916890907 0.306181033412863
1940000000.0 0.24468027716971028 0.22421355466129156
1960000000.0 0.35527869617994284 -0.021544925479442027
1980000000.0 0.2418017758544082 -0.2855645259634038
2000000000.0 0.30262956950219216 -0.2551313378451127
2020000000.0 0.03312794839732904 -0.4134457520026122
2040000000.0 -0.20322435126453653 -0.37930180260862345
2060000000.0 -0.42795633737916494 0.10035795729582948
2080000000.0 0.09388048559217979 0.43461591837453206
2100000000.0 0.4257400971688877 -0.1175839884677346
2120000000.0 -0.13582239422272538 -0.41022119221497244
2140000000.0 -0.40200148822714904 0.1123699791066822
2160000000.0 -0.3943453271147207 -0.03989348424162281
2180000000.0 -0.3249899804085222 0.18648091598789773
2200000000.0 -0.10046050279743796 0.3401673331804357
2220000000.0 -0.1607344437578682 0.29542742691915075
2240000000.0 -0.2493957532211459 0.21473550800834357
2260000000.0 -0.3207737962573062 -0.06566207236575412
2280000000.0 -0.2836062849787242 -0.18088520256550067
2300000000.0 -0.3452420932094726 0.0818801116938421
2320000000.0 0.19273488078195575 0.3305696317152634
2340000000.0 0.19135172383548046 -0.3708751734803512
2360000000.0 -0.3288781347923907 0.32002097131118806
2380000000.0 0.3479905233874144 -0.3683080174282996
2400000000.0 -0.2985928329237906 0.4695692091081379
2420000000.0 0.052707816724156316 -0.604716588533447
2440000000.0 0.3184821365832051 0.5733537646381708
2460000000.0 -0.6322288439073925 -0.29487943835139613
2480000000.0 0.7310477441204625 0.01786803234717695
2500000000.0 -0.7535951921571179 0.028927257570863438
2520000000.0 0.7643980846024085 0.07139774157696356
2540000000.0 -0.6761509046468223 -0.3718517372203058
2560000000.0 0.33341200236421653 0.6925960696822829
2580000000.0 0.3255586768678647 -0.6824297962064197
2600000000.0 -0.6809600552264573 0.2732058411517542
2620000000.0 0.6687977095379752 0.22068312286958475
2640000000.0 0.6307391032995645 -0.21773715766925342
2660000000.0 -0.573724530368135 -0.23801870653155202
2680000000.0 0.2526983093084968 0.5138833373175962
2700000000.0 0.187003574326628 -0.48808680210708216
2720000000.0 -0.4494180846813038 0.1502963385468531
2740000000.0 0.3480706155510433 0.252739297651466
2760000000.0 -0.14776070835010596 -0.3641671911409373
2780000000.0 0.1072596093726239 0.3490215483645417
2800000000.0 -0.2818007331107861 -0.19609406949057406
2820000000.0 0.12350066329401878 -0.30519877104550275
2840000000.0 0.31763715365419887 0.013573690300525208
2860000000.0 0.11391094173102637 0.29047268568977436
2880000000.0 -0.2589538874989388 0.16566127233191755
2900000000.0 0.06372696433251286 -0.2965496979668565
2920000000.0 -0.2324430052759473 0.18830821538608805
2940000000.0 -0.0011607829103252648 0.29845618655846556
2960000000.0 1.9592954687009566e-05 0.3001279981283739
2980000000.0 -0.30103974280990403 0.04777886016286024
3000000000.0 -0.0023524792295783054 -0.30767401097893465
3020000000.0 0.3136379407852266 0.024780967510717386
3040000000.0 -0.1818176913639748 0.25995278889493245
3060000000.0 -0.12334340931627298 -0.2943238772881801
3080000000.0 0.3033756323506712 0.08898216616232534
3100000000.0 -0.2785608598584305 0.14110045982049563
3120000000.0 -0.029257273496578657 -0.3045550399461527
3140000000.0 0.29213176108260147 0.030303610862551
3160000000.0 -0.21425736273454826 -0.173651365075848
3180000000.0 0.12864751864392726 -0.22103536937288495
3200000000.0 0.2056531956356956 0.09452850612681608
3220000000.0 -0.18513470934709148 0.05867933517713394
3240000000.0 0.16103647233243554 0.012087514062190174
3260000000.0 0.09899885809881001 -0.08216158143349467
3280000000.0 0.05523592744425911 0.08669890918628231
3300000000.0 0.03365637313726228 0.07340036881060268
3320000000.0 0.058596561162372156 0.017606703344314304
3340000000.0 -0.04018277400572778 0.01447420104637798
3360000000.0 0.007881396266480701 -0.024232670082873397
3380000000.0 -0.012105714584836124 -0.008842122338152295
3400000000.0 -0.0017521717928643912 0.027968004552121915
3420000000.0 -0.04303039227124652 0.01933886618831197
3440000000.0 0.03130263484984472 0.05254102306808592
3460000000.0 0.06608987870044296 -0.022536276734415852
3480000000.0 -0.05358946246746945 0.050589247190637295
3500000000.0 0.05435948185438456 0.056774807249601836
3520000000.0 -0.04251888884365491 -0.07342948458967012
3540000000.0 0.03781747214065088 -0.09023566359304075
3560000000.0 0.08083212150143762 -0.081777865181035
3580000000.0 -0.13398480603082283 -0.009331568786080447
3600000000.0 -0.07748519819586375 -0.13627772386670473
3620000000.0 -0.12204501934371624 -0.12437340858594821
3640000000.0 -0.18407777389248922 -0.045261838020056434
3660000000.0 -0.13349751152692657 0.14716377714641934
3680000000.0 0.030436311164544077 0.19831072013249623
3700000000.0 0.12646267097010766 0.1496313074253654
3720000000.0 -0.046973823580997484 0.183506281702992
3740000000.0 -0.17839761856267788 0.0008707935563254502
3760000000.0 -0.12046420496429859 0.11857535927000898
3780000000.0 0.016428749292311674 0.15872024844409077
3800000000.0 -0.09572679808742907 0.12493227974994106
3820000000.0 -0.012804598233120395 0.15716924272176697
3840000000.0 0.1264830164480851 0.09318967635332798
3860000000.0 0.15895422680880364 -0.01847263342682057
3880000000.0 -0.14609718028188912 -0.06961797842999719
3900000000.0 0.0520811566278602 0.1521912050020698
3920000000.0 0.022757115253795753 -0.1555754598398618
3940000000.0 -0.1561140213405366 -0.009107293837479807
3960000000.0 0.0916668665357598 0.1314040396136517
3980000000.0 -0.10302655791264385 0.1253628445677371
4000000000.0 -0.13559124707975553 0.0880983402257171
