!Created with skrf (http://scikit-rf.org).
# Hz S RI R 50.0 
!freq ReS11 ImS11
400000000.0 -0.3156834368637275 0.8180421624328402
420000000.0 0.6896443197241134 0.534357587921016
440000000.0 0.37113823913122646 -0.7590386962182549
460000000.0 -0.7587761684888221 -0.2606760637626559
480000000.0 -0.7119754837647886 -0.10936713759975589
500000000.0 0.1722370349689009 0.5344340649789362
520000000.0 0.4585058252217251 -0.10382716798435615
540000000.0 -0.23468669976285075 -0.29930053742952784
560000000.0 -0.2651289690184094 -0.20000031690352396
580000000.0 0.280379082399057 0.12729817100830454
600000000.0 0.2107278306872506 -0.22792945996632757
620000000.0 -0.3210379857490151 0.015732285146449004
640000000.0 -0.3499949940362687 0.0039968298893446365
660000000.0 -0.3526415582661188 0.11978421995264084
680000000.0 0.3420013079000596 -0.21715182778284378
700000000.0 -0.27857785856037603 -0.32061870739836534
720000000.0 -0.38644594006284433 0.2064398382328641
740000000.0 -0.3985947601946555 -0.19226192756123003
760000000.0 0.27072731507167125 0.3358070082351818
780000000.0 -0.11463955554256573 0.3889684197185197
800000000.0 -0.3267844398334861 -0.1829861236569988
820000000.0 -0.3006749440871407 0.11038525944249343
840000000.0 -0.20337434621602762 -0.17315673209901228
860000000.0 -0.18548382413608602 0.10042517090215797
880000000.0 -0.09150392760864452 -0.12713843994913748
900000000.0 -0.0609876657865265 0.06729947416662327
920000000.0 0.03331707607269684 0.04384989410217989
940000000.0 0.04125822060904193 -0.009249863002735125
960000000.0 -0.03815681556792081 -0.03681983392223527
980000000.0 -0.012944446649472856 0.06380650472063204
1000000000.0 -0.0735174346735089 0.012968823013279984
1020000000.0 0.08447733697525878 0.010343907906268164
1040000000.0 -0.08254831965485933 0.05030974804786712
1060000000.0 0.011949777530915025 0.1313973140631458
1080000000.0 -0.13560263045659474 -0.05844219381133048
1100000000.0 -0.13282017947459843 -0.10558280639737576
1120000000.0 -0.186573792472976 -0.04461396782092165
1140000000.0 -0.21189406218754517 -0.09343908127988598
1160000000.0 -0.23841721938029728 0.1213736637900599
1180000000.0 -0.3113855455190871 0.0057729502068382885
1200000000.0 -0.20809332142169235 -0.2716768000307257
1220000000.0 0.3560796794819937 -0.12760924616208483
1240000000.0 -0.2967458919560315 0.2756263591103639
1260000000.0 0.16562644176193891 -0.3983980410573645
1280000000.0 -0.3707071484633761 0.24823732771635174
1300000000.0 0.3602329167796013 -0.27473007318187975
1320000000.0 -0.2130714919974918 -0.396066468847149
1340000000.0 -0.41171871400256727 -0.15116226699848961
1360000000.0 -0.21179445689246235 -0.37880718753839154
1380000000.0 -0.34282247803870486 -0.25535066146070406
1400000000.0 -0.30701791107271004 0.2803222761632146
1420000000.0 0.11927710761382121 0.3783879477786236
1440000000.0 0.36762472404641267 0.03421125723962283
1460000000.0 0.2738088595894842 -0.198508455452448
1480000000.0 0.09160321766066526 -0.29489173557957327
1500000000.0 0.09981096261234265 -0.26267171975111464
1520000000.0 -0.254263651758071 -0.043644039768093286
1540000000.0 -0.06414119513635308 0.2267818245134824
1560000000.0 -0.20854808678238632 0.0013667024365847475
1580000000.0 -0.17414889058681526 -0.06483326138735884
1600000000.0 0.11229403790233186 0.10189809211456498
1620000000.0 0.04888872169434964 -0.11156748548799617
1640000000.0 0.019954589100571525 -0.09349503291810798
1660000000.0 -0.04429034459498853 0.05801529737688616
1680000000.0 -0.0030954916558270876 -0.049971618282255194
1700000000.0 -0.03279899020270914 -0.006062922320253138
1720000000.0 0.017279299087861712 -0.005801372133780033
1740000000.0 0.01674726998367654 0.01629470868731497
1760000000.0 -0.032615601869252935 0.03116496745193094
1780000000.0 -0.047792660022891585 -0.06146167813841017
1800000000.0 -0.014144432980660484 -0.1135532705080483
1820000000.0 -0.10537605781692229 -0.10546926254042269
1840000000.0 -0.18345419694681844 0.03524774179582256
1860000000.0 -0.06813848107820898 -0.20701072278169635
1880000000.0 0.1921737573037425 0.15916564255193913
1900000000.0 -0.17778870089874668 -0.21881643327419226
1920000000.0 -0.004814455708089648 0.30654612810691595
1940000000.0 0.2639731356738593 0.20082762356776865
1960000000.0 0.3519684834124459 -0.05322513188199267
1980000000.0 0.2217777864585927 -0.3020486620668798
2000000000.0 0.30117742472058356 -0.25855731866450116
2020000000.0 0.05794742946931386 -0.41195799932708105
2040000000.0 -0.2003930645662087 -0.3822809810944805
2060000000.0 -0.427577313276062 0.10543212371840079
2080000000.0 0.09558815225538009 0.4348817101695662
2100000000.0 0.4276443404952909 -0.11130200009605172
2120000000.0 -0.13680628291853433 -0.40952672093603676
2140000000.0 -0.4094875798476826 0.07747666306435999
2160000000.0 -0.39162884591619707 -0.054189927401074325
2180000000.0 -0.35015092418448257 0.12939138904964967
2200000000.0 -0.13737234022322375 0.3257046093836287
2220000000.0 -0.16632178429332997 0.29100008809349626
2240000000.0 -0.2535354160255471 0.20761219373699402
2260000000.0 -0.3201662457107162 -0.06562444910257793
2280000000.0 -0.2690420536635703 -0.20120985319093368
2300000000.0 -0.33931327779778264 0.10452755299627983
2320000000.0 0.22092387338257152 0.312175406330316
2340000000.0 0.1687520355280819 -0.3817469855671681
2360000000.0 -0.2909514702554494 0.35526960505521904
2380000000.0 0.33073779239178874 -0.3838275438386283
2400000000.0 -0.2581770047685126 0.49350553066937336
2420000000.0 0.05226003899998811 -0.6049997873043766
2440000000.0 0.29321567050145564 0.5867127654280275
2460000000.0 -0.6073951080934139 -0.34389206373400777
2480000000.0 0.7293725879587302 0.05741399741975357
2500000000.0 -0.7548523316547754 0.0031673127650442487
2520000000.0 0.7624986003035795 0.09937004409543182
2540000000.0 -0.6708269468690319 -0.38434943946698247
2560000000.0 0.2575626872926316 0.7245670262439194
2580000000.0 0.3198529802849789 -0.684807365846403
2600000000.0 -0.7081134581326507 0.19250940690378765
2620000000.0 0.6481480201874165 0.27520420257619443
2640000000.0 0.6467645959753031 -0.16603671251595542
2660000000.0 -0.535548902822957 -0.3141988652848097
2680000000.0 0.21885491651866373 0.5292427097310323
2700000000.0 0.22946220617678717 -0.4692580074671809
2720000000.0 -0.44599503999305656 0.160353806036854
2740000000.0 0.3472721716978615 0.25373770496399733
2760000000.0 -0.15559579319861694 -0.3607919055812113
2780000000.0 0.128049613419617 0.3418658580244953
2800000000.0 -0.30083258934001206 -0.16554789750664384
2820000000.0 0.09254253505531523 -0.31552139534913015
2840000000.0 0.31790393745872003 -0.008355665788011729
2860000000.0 0.13577678480250382 0.2811256006935712
2880000000.0 -0.25097008060558645 0.17767255256402917
2900000000.0 0.04452343138459987 -0.30022545113509175
2920000000.0 -0.23774088062971804 0.18277698082490515
2940000000.0 -0.01416426914244385 0.29874647312764824
2960000000.0 -0.05949109850940845 0.2945549887606914
2980000000.0 -0.30013457599605065 0.06004127012909672
3000000000.0 -0.017559821371943844 -0.3078243563224992
3020000000.0 0.31258256715302674 -0.0367154957508946
3040000000.0 -0.18475374015041424 0.2572741920561766
3060000000.0 -0.12007157335342217 -0.2965121790558793
3080000000.0 0.29665446788096245 0.11068418048579001
3100000000.0 -0.2803062132175425 0.13816889001625474
3120000000.0 0.0040958604878788924 -0.3059140200311073
3140000000.0 0.28801248860731105 0.055745980214641465
3160000000.0 -0.21842199666328405 -0.1678924548884961
3180000000.0 0.13951236079348736 -0.21417110147915824
3200000000.0 0.20503319703796963 0.09547615199317123
3220000000.0 -0.17820205072602274 0.07745669620784856
3240000000.0 0.15892681126885283 -0.023303682166712893
3260000000.0 0.07938134510415489 -0.10073134141281291
3280000000.0 0.0708342904292988 0.07368966061758654
3300000000.0 0.0672778801560259 0.043160011969936476
3320000000.0 0.06059199482798865 0.004916476446879283
3340000000.0 0.01910524213705034 0.038010752305079845
3360000000.0 -0.0041403412884963966 -0.025129821931984306
3380000000.0 -0.006545823526151822 -0.014199927977604426
3400000000.0 -0.02497987388301768 0.01154453324801069
3420000000.0 -0.0468743279324978 -0.0015465027323678167
3440000000.0 -0.03952850712161294 0.045601694431982885
3460000000.0 0.05380524082925388 0.04394112057171942
3480000000.0 -0.07384681155760622 -0.0020507958413390234
3500000000.0 -0.007148234012600884 0.07784270979578242
3520000000.0 0.03475965876962386 -0.07642635977474733
3540000000.0 0.09034764884127303 -0.03475357860416033
3560000000.0 0.11218682190075632 -0.01684965182391241
3580000000.0 -0.11455649424199628 -0.0696224550440137
3600000000.0 -0.057622454425749675 -0.1458142743774441
3620000000.0 -0.08900697342124297 -0.14897374783727804
3640000000.0 -0.18450945895607282 -0.04100915442517406
3660000000.0 -0.14107363894282138 0.13801971830330206
3680000000.0 0.021582879817262566 0.19791211508550385
3700000000.0 0.12080413763703099 0.15301552635788895
3720000000.0 -0.037707302379933194 0.18426107975565578
3740000000.0 -0.17705983856274346 0.007503892994515213
3760000000.0 -0.08367128959752178 0.14548584290812167
3780000000.0 0.03732060241229619 0.15463141372787567
3800000000.0 -0.0639557046955677 0.1433201217568642
3820000000.0 0.0045607547821574 0.15694828159432492
3840000000.0 0.14739605142552376 0.051943862862376185
3860000000.0 0.15755559081633028 -0.026982049195633007
3880000000.0 -0.1597817376790921 -0.02402821651491439
3900000000.0 0.08642275536167346 0.1358743236854447
3920000000.0 0.05189547714195436 -0.14889436806091497
3940000000.0 -0.15354792772837975 -0.030151383727993593
3960000000.0 0.11207030906467234 0.11548557003101836
3980000000.0 -0.08317982341865422 0.14157583693511472
4000000000.0 -0.12952633226529597 0.09946815327235421
