!Created with skrf (http://scikit-rf.org).
# Hz S RI R 50.0 
!freq ReS11 ImS11
400000000.0 -0.3115002285681793 0.8201909011044591
420000000.0 0.7037162105410112 0.515435505874575
440000000.0 0.35141073354290875 -0.768518197935511
460000000.0 -0.75288082336263 -0.2776277186850084
480000000.0 -0.7126509628695166 -0.10580465683919596
500000000.0 0.18853300416218127 0.5290720003659976
520000000.0 0.42708709139005585 -0.19732226191129157
540000000.0 -0.22481084462629106 -0.30404214294734094
560000000.0 -0.22707553896474333 -0.24061671582675465
580000000.0 0.2458978562431491 0.18573596683648697
600000000.0 0.2367637084962179 -0.20126909398828802
620000000.0 -0.32086016064930395 0.02581788467807511
640000000.0 -0.3486489305999483 0.03515910494185498
660000000.0 -0.34548056959275725 0.1393993033316237
680000000.0 0.3384805504060244 -0.22320358127606005
700000000.0 -0.27278439015984585 -0.32527531748281374
720000000.0 -0.3736375540309153 0.22904597159385004
740000000.0 -0.40490671167347336 -0.1771079234690589
760000000.0 0.2739014912651815 0.3324910561268446
780000000.0 -0.13819804519173443 0.38123772068821765
800000000.0 -0.3200745113181357 -0.19391203839900104
820000000.0 -0.29907401200087896 0.11502355910209955
840000000.0 -0.21139551017011535 -0.16349417967790061
860000000.0 -0.17218847770035714 0.12208384176807789
880000000.0 -0.09508781089757269 -0.12400058089904242
900000000.0 -0.07761528313002564 0.047597633725637085
920000000.0 0.024126214234264767 0.049693653498888886
940000000.0 0.04241036875047904 -0.001855729317352315
960000000.0 -0.03693592977039649 -0.03851302766115798
980000000.0 -0.013452508518664258 0.06378311777560698
1000000000.0 -0.07344518355574285 0.013753639079637623
1020000000.0 0.08444459983508658 -0.009422222469785914
1040000000.0 -0.09183892202633047 0.029636471448277586
1060000000.0 -0.0024767292096240998 0.1321015274024695
1080000000.0 -0.13264141960430434 -0.06549768656462865
1100000000.0 -0.1331511352596215 -0.1055656672674891
1120000000.0 -0.18701283212185818 -0.04353588141885782
1140000000.0 -0.2116268796925496 -0.09446406246135079
1160000000.0 -0.2440828719762104 0.10998701264865154
1180000000.0 -0.3117249935048144 0.009892626306200735
1200000000.0 -0.214648218645479 -0.2669375888826443
1220000000.0 0.3548007702851512 -0.131487013964755
1240000000.0 -0.3031512288695576 0.26844552117247794
1260000000.0 0.19649044335115562 -0.38373937445345624
1280000000.0 -0.3787690473453732 0.23552585953292976
1300000000.0 0.3625466344832887 -0.2714047017562653
1320000000.0 -0.2144758651413213 -0.3949308076078324
1340000000.0 -0.41260522757314066 -0.14815841667359686
1360000000.0 -0.21463651825497576 -0.3769851726423938
1380000000.0 -0.34348397228071076 -0.2544643457161888
1400000000.0 -0.3009773755643529 0.28670459512053753
1420000000.0 0.125082272715284 0.37668967628746924
1440000000.0 0.3687666633393759 0.018165077405178424
1460000000.0 0.2771363199807464 -0.19457933068551395
1480000000.0 0.060292568824665466 -0.3032585736083963
1500000000.0 0.1007640398150249 -0.26273477925304767
1520000000.0 -0.25449618212830816 -0.04477670824664321
1540000000.0 -0.0544748453345378 0.22925823472443074
1560000000.0 -0.20883487987204585 -0.000207097121426346
1580000000.0 -0.16850033312194188 -0.07898051229358341
1600000000.0 0.086235644805385 0.12495430978695353
1620000000.0 0.0581385835214728 -0.10705468395960771
1640000000.0 0.014703474405816267 -0.09459179992104924
1660000000.0 -0.04249870626891629 0.05916784767808129
1680000000.0 0.012402649294937748 -0.04799912746030918
1700000000.0 -0.03315799046162836 0.003384495416840688
1720000000.0 0.007570860729566905 -0.016518700733795
1740000000.0 0.021850518633279078 0.008959046571776383
1760000000.0 -0.03224308853030403 0.0319947125054519
1780000000.0 -0.04191408048022237 -0.06586011968639316
1800000000.0 0.002595315730469985 -0.11431850592168925
1820000000.0 -0.09499155538399806 -0.11469094738807008
1840000000.0 -0.18575710686538785 0.018446150564024127
1860000000.0 -0.07023541138921278 -0.20628827324211252
1880000000.0 0.19420222589811056 0.15658849525107518
1900000000.0 -0.18643058106160124 -0.21147631853908927
1920000000.0 0.00990900746587677 0.306340533377909
1940000000.0 0.2708612152973609 0.19123422635721452
1960000000.0 0.3515532796656765 -0.05570841960107425
1980000000.0 0.21563621674136743 -0.30643632488941724
2000000000.0 0.2983210633146743 -0.2620895277155819
2020000000.0 0.03991349000332589 -0.4144477756788205
2040000000.0 -0.21887439901304437 -0.37247215003802475
2060000000.0 -0.4269090132368457 0.10968080364875638
2080000000.0 0.10277826290969146 0.43370605498492
2100000000.0 0.43123685325103134 -0.09874421938267991
2120000000.0 -0.12084574432142968 -0.4147592565837309
2140000000.0 -0.41091889463722175 0.07236951245267392
2160000000.0 -0.3909240682574533 -0.059712495453988296
2180000000.0 -0.3539524204354494 0.11952129744463746
2200000000.0 -0.1778608589815594 0.30564697696930565
2220000000.0 -0.21092857168189622 0.2608976677892509
2240000000.0 -0.26530795742531194 0.1929635309004145
2260000000.0 -0.31756520672678096 -0.07852543804868733
2280000000.0 -0.2690712326491112 -0.20183366442591222
2300000000.0 -0.3383247041809168 0.10839901803571216
2320000000.0 0.21580008709766918 0.3159766521284718
2340000000.0 0.18853782219110116 -0.37200692937978364
2360000000.0 -0.28936996629246053 0.3567819144789336
2380000000.0 0.3104319800471777 -0.4011841934172509
2400000000.0 -0.239867404260229 0.5030524553067146
2420000000.0 -0.024915518434246442 -0.607295307003342
2440000000.0 0.38052386505835983 0.5352701513356837
2460000000.0 -0.6559731411133062 -0.23983848669733135
2480000000.0 0.7311495093772682 -0.0441125999121458
2500000000.0 -0.7487978373756976 0.10000642953881181
2520000000.0 0.769214644210052 -0.002987483177338583
2540000000.0 -0.6885827696291045 -0.35263962697433665
2560000000.0 0.34911450410839223 0.6851656840039487
2580000000.0 0.2777845780059522 -0.7029574711907149
2600000000.0 -0.6768625243156287 0.28205540795444245
2620000000.0 0.6376814833695313 0.2977637764156218
2640000000.0 0.6463714215431466 -0.1648670989502414
2660000000.0 -0.5523029276842533 -0.2819185822111568
2680000000.0 0.19532204660287372 0.5372899529488419
2700000000.0 0.22120220446781824 -0.47219212264518445
2720000000.0 -0.43378688776409646 0.18897935489350964
2740000000.0 0.3511934005482399 0.2469480168369471
2760000000.0 -0.15240776383035948 -0.3614357795721114
2780000000.0 0.13347796584466937 0.33925204274927523
2800000000.0 -0.309943787087896 -0.14658882289712766
2820000000.0 0.07087983660064998 -0.3209248363074137
2840000000.0 0.3146830753802261 -0.04511507223230654
2860000000.0 0.18236111049999948 0.2531550679560749
2880000000.0 -0.22129667503248304 0.21347083806031766
2900000000.0 0.026821819922018396 -0.3025584260635673
2920000000.0 -0.2331152083525894 0.18895242801393136
2940000000.0 -0.017017213381847935 0.2987433452405134
2960000000.0 -0.07495557094605237 0.29087014489270363
2980000000.0 -0.297757360715713 0.06956662619379617
3000000000.0 -0.007117115327630207 -0.3086755337346285
3020000000.0 0.31384407096269085 -0.02637799687256316
3040000000.0 -0.15709823162899078 0.2754241098946867
3060000000.0 -0.09167937711475647 -0.30662038764801164
3080000000.0 0.2884392585861582 0.1301844209165888
3100000000.0 -0.30444903646895144 0.06853957711675578
3120000000.0 0.0069370367574385396 -0.3059313399579424
3140000000.0 0.2874501052189601 0.05934726044062365
3160000000.0 -0.21510823155413927 -0.17203997558932377
3180000000.0 0.14545657805988085 -0.20991382487021268
3200000000.0 0.2066115477001498 0.09135391356638874
3220000000.0 -0.1779971891608073 0.07578980834727053
3240000000.0 0.1590973961371278 -0.020154236239090618
3260000000.0 0.08529784953678719 -0.09523000712409017
3280000000.0 0.08393902678485614 0.05696922588050869
3300000000.0 0.06736413759321142 0.04223934756903475
3320000000.0 0.05955456503326145 -0.009850932498963015
3340000000.0 0.0354013755088936 0.022772755202639824
3360000000.0 -0.0249852624746432 -0.0037259994046516093
3380000000.0 -0.01550539464143307 -0.002611165506698259
3400000000.0 -0.021673075004718302 0.017538897455605246
3420000000.0 -0.04362150401721798 -0.018063369075317616
3440000000.0 -0.030512079998096856 0.05249423965029742
3460000000.0 0.03581310762126486 0.059649000729738694
3480000000.0 -0.0690038677558459 -0.02595620087718358
3500000000.0 -0.029071701412150285 0.07267767399701845
3520000000.0 0.050971008671098855 -0.06713283700838507
3540000000.0 0.09678633395752892 -0.008571929679049784
3560000000.0 0.11399650306249855 0.0008517624268830111
3580000000.0 -0.09853794003065015 -0.09110806874060456
3600000000.0 -0.045221356129732465 -0.15068721860146272
3620000000.0 -0.06489858029985092 -0.16113035867753253
3640000000.0 -0.17179036357249675 -0.07848818757970212
3660000000.0 -0.156112623987589 0.12148767753218667
3680000000.0 -0.00325031265051618 0.1988255398123039
3700000000.0 0.097439421505392 0.16853154450641972
3720000000.0 -0.05780756945358662 0.1782792791142286
3740000000.0 -0.17612342609216472 -0.013924716965735877
3760000000.0 -0.1141698566055036 0.12238835764405204
3780000000.0 0.0009976260674356987 0.15872317680129838
3800000000.0 -0.09291124300196532 0.1260559051777874
3820000000.0 -0.02230471336202975 0.15531349288966337
3840000000.0 0.13527039191659299 0.07773777564859866
3860000000.0 0.15844786167530062 -0.019027875605803983
3880000000.0 -0.15678074588967686 -0.03671237673648442
3900000000.0 0.07833461279917965 0.13981231290644638
3920000000.0 0.0508213363126213 -0.1483374208579348
3940000000.0 -0.15440784515145858 -0.018810177211516125
3960000000.0 0.12729637394976934 0.09644223569490062
3980000000.0 -0.042269117659072375 0.1574054493088123
4000000000.0 -0.11600169445471732 -0.11335563780004818
