!Created with skrf (http://scikit-rf.org).
# Hz S RI R 50.0 
!freq ReS11 ImS11
400000000.0 -0.37793394593814683 0.7917351727731422
420000000.0 0.6884946111693911 0.533908982949903
440000000.0 0.3666122171899179 -0.7599163476476659
460000000.0 -0.7537408826933685 -0.2733993972674309
480000000.0 -0.716034938070824 -0.07947677314222802
500000000.0 0.19437374465829715 0.5271152401967011
520000000.0 0.42626814587880857 -0.19851314582103805
540000000.0 -0.2523512333107866 -0.2814653657646928
560000000.0 -0.2722419735581204 -0.18876913875372697
580000000.0 0.2739680018617604 0.14308111292620992
600000000.0 0.20820578148335486 -0.23337389116583107
620000000.0 -0.3115084026673118 0.08418352820906481
640000000.0 -0.34961123716180564 0.023123694724479456
660000000.0 -0.3581392148906886 0.10259071906076427
680000000.0 0.35268924759514236 -0.1971565206136918
700000000.0 -0.19226372816555148 -0.3772164217035437
720000000.0 -0.4216085125531021 0.11460563592160167
740000000.0 -0.3380120321197615 -0.2836752973384174
760000000.0 0.2009937189486314 0.3794369042409704
780000000.0 -0.17017430274409345 0.3670356541108
800000000.0 -0.32379060167710166 -0.18802940455562683
820000000.0 -0.27696997427177283 0.1628890538720647
840000000.0 -0.24901880312959834 -0.10142099050767
860000000.0 -0.1059976599061752 0.18469811247195767
880000000.0 -0.15405320612320628 -0.03779179865051762
900000000.0 -0.08252234710456988 0.04334710381516132
920000000.0 -0.046429909899441776 0.03315618635595989
940000000.0 0.0012227702471109378 0.042014281538803606
960000000.0 -0.0005609197387347567 -0.0529184843255041
980000000.0 0.004983541652593133 0.0643195395338076
1000000000.0 -0.0140509505541014 0.07266175059240339
1020000000.0 -0.0018350096749107983 -0.08434977722298638
1040000000.0 0.014941417155128025 0.09507351574593895
1060000000.0 0.1153835870800621 0.06656912504548868
1080000000.0 -0.14664581607452762 0.03185666774247309
1100000000.0 -0.15305726426805488 -0.07935407704447722
1120000000.0 -0.19290879669871636 -0.021838764751999893
1140000000.0 -0.18331034309825997 -0.14383100088336723
1160000000.0 -0.2656345908553555 0.04506353808685819
1180000000.0 -0.27048755799874924 -0.15685969117908097
1200000000.0 -0.0134115999883978 -0.3431126755865329
1220000000.0 0.3534822427868146 0.13667048972643758
1240000000.0 -0.4051372923860425 0.01961041569045047
1260000000.0 0.35999608109056225 -0.23877117885823426
1280000000.0 -0.441035422492278 0.07021193969877047
1300000000.0 0.42549086441387274 -0.15564829836282987
1320000000.0 -0.1343543147220281 -0.4287765829997885
1340000000.0 -0.3927554391798977 -0.19339289309440966
1360000000.0 -0.19107295505922164 -0.3878004603016228
1380000000.0 -0.3377535162110589 -0.25950433292351277
1400000000.0 -0.3036393102189334 0.28221799522348023
1420000000.0 0.12848680886559172 0.3744929190917727
1440000000.0 0.36837603335705155 0.019823789570212278
1460000000.0 0.26800346141184567 -0.20775349093653891
1480000000.0 0.10062251468071912 -0.2933876329228792
1500000000.0 0.07080427673297174 -0.27322386357375983
1520000000.0 -0.2586445606237774 -0.014765280109774603
1540000000.0 -0.060055870042009615 0.22851209551624357
1560000000.0 -0.20565225441065202 -0.04121862042425086
1580000000.0 -0.13877147124633923 -0.12554891129880727
1600000000.0 0.03678928173096574 0.14773616070574405
1620000000.0 0.11367743988677945 -0.045148037178132504
1640000000.0 0.06128442965731311 -0.07373159001238962
1660000000.0 -0.07118367149699505 -0.01655174692314239
1680000000.0 0.04440993901118594 -0.020790856598594986
1700000000.0 -0.005616013999802859 -0.03129474043416514
1720000000.0 -0.016715761783516855 -0.0064010046566958904
1740000000.0 0.003461166450994021 0.023885552366827552
1760000000.0 -0.041755264838576625 -0.017982315797596335
1780000000.0 0.0010031108586593402 -0.07811618317679156
1800000000.0 0.029887171658161387 -0.11071256054391711
1820000000.0 -0.05931616681737004 -0.13660348649332762
1840000000.0 -0.18460255372310064 -0.029097608613180864
1860000000.0 -0.04095694797915274 -0.21406374645645262
1880000000.0 0.19502122347081716 0.15452657812979795
1900000000.0 -0.1947051720650216 -0.2040463688269863
1920000000.0 0.03953209812547405 0.30456959233278
1940000000.0 0.29113995618911986 0.15992473681536923
1960000000.0 0.3409560280754487 -0.10339270542861571
1980000000.0 0.16552995064566645 -0.3364256590363965
2000000000.0 0.25392478278430064 -0.3051278476672073
2020000000.0 -0.00914756509460146 -0.41590896288296525
2040000000.0 -0.20864971150842715 -0.37774152318428744
2060000000.0 -0.4306557398790819 0.09186043334200991
2080000000.0 0.025034856859987555 0.44486007194520694
2100000000.0 0.44249424965062595 -0.01210640124449473
2120000000.0 -0.03680507927705861 -0.43079429166196237
2140000000.0 -0.4168518933760753 0.030597084731301395
2160000000.0 -0.37823249837301914 -0.12047955455510428
2180000000.0 -0.3565756258142702 0.11353972778589393
2200000000.0 -0.17121861146228168 0.3101311958150042
2220000000.0 -0.20363390216341262 0.2666355328516752
2240000000.0 -0.23958268676412975 0.22313444402769775
2260000000.0 -0.32529058843269265 -0.00657197102771613
2280000000.0 -0.3001537821575109 -0.14747825673004472
2300000000.0 -0.32087187005215007 0.14791286239621582
2320000000.0 0.22614149690977756 0.3064452098797376
2340000000.0 0.14820429519719863 -0.3888543240709193
2360000000.0 -0.25792586063312944 0.379245618461553
2380000000.0 0.295976453323943 -0.4112332607451289
2400000000.0 -0.20314685585601594 0.5188682048841917
2420000000.0 -0.07062396577637042 -0.6042575775941981
2440000000.0 0.37162527433837933 0.542531080029973
2460000000.0 -0.6642541497620279 -0.21789093210623092
2480000000.0 0.7309500008048402 -0.05168847319378449
2500000000.0 -0.7561105595339833 0.007471439865300511
2520000000.0 0.7588402701278839 0.12837196826619846
2540000000.0 -0.6718375586758457 -0.382961062893352
2560000000.0 0.2811766915709845 0.7156344858426792
2580000000.0 0.3294147509407128 -0.6796964919422426
2600000000.0 -0.7106120716363067 0.17855297539394108
2620000000.0 0.606686566241665 0.35349570665216096
2640000000.0 0.6488167593952425 -0.14364836811724838
2660000000.0 -0.5422580437699472 -0.29719453965255854
2680000000.0 0.22716216337984435 0.5221360599191073
2700000000.0 0.2047052836732198 -0.47712915631435626
2720000000.0 -0.4399986320904956 0.16499508418766862
2740000000.0 0.3429557052920525 0.2523223186964748
2760000000.0 -0.16799859834497885 -0.3505434334562928
2780000000.0 0.18866342288760146 0.30857718474532225
2800000000.0 -0.3246127318238762 -0.10454763086213541
2820000000.0 0.04085302193914272 -0.325250611119261
2840000000.0 0.30923326859760986 -0.07390335625005859
2860000000.0 0.18551701185784322 0.25151970569189713
2880000000.0 -0.22866966874117578 0.20795077481099902
2900000000.0 0.011068420976996854 -0.30510351722414647
2920000000.0 -0.21324031525470835 0.21395250334363908
2940000000.0 -0.01079418792857624 0.3006083767048619
2960000000.0 -0.06386601287119599 0.29486804902205277
2980000000.0 -0.30128322899730475 0.056965863168258475
3000000000.0 0.03357161463598516 -0.30835858729586046
3020000000.0 0.2684114293236078 0.16618356759450273
3040000000.0 -0.2707121279043835 0.16492637143503303
3060000000.0 0.07000622523970387 -0.3107580277857059
3080000000.0 0.1907115545441718 0.25154732971909205
3100000000.0 -0.3087157265299641 -0.03992521290230812
3120000000.0 0.12467728352967583 -0.27914888772851715
3140000000.0 0.24087770572121817 0.16640514636328493
3160000000.0 -0.1791969270961618 0.2093013525862495
3180000000.0 0.19566174625545044 -0.16331831003875363
3200000000.0 0.18570963734981186 0.12835671899109538
3220000000.0 -0.16613142386263102 0.09884920069961381
3240000000.0 0.14580251121556478 -0.06551413925524899
3260000000.0 0.034811937553039116 -0.12187792047849347
3280000000.0 0.07691484012027748 0.06597723683696498
3300000000.0 0.054356031234554805 0.05729110548333981
3320000000.0 0.053662296043233956 0.0259163127679863
3340000000.0 -0.04221444545262099 -0.0031624357291127883
3360000000.0 0.021011195713653178 0.01418113216247217
3380000000.0 -0.01539391272950279 0.003573264629776658
3400000000.0 -0.009621639858122758 -0.025262853957249573
3420000000.0 0.02829058055412264 -0.036390548074191356
3440000000.0 -0.06006509991802874 -0.0010785749226657436
3460000000.0 0.049599791809127235 0.049101813209362195
3480000000.0 -0.06802063963784788 0.030744154116202616
3500000000.0 0.05309076860059581 0.05900745945797435
3520000000.0 -0.035975361781162264 -0.0763185472774292
3540000000.0 0.059080629162060166 -0.07626008553893389
3560000000.0 0.10791243742178501 -0.031718018021007564
3580000000.0 -0.09691773375140128 -0.08987879818881976
3600000000.0 0.0062799327649281705 -0.155682835803233
3620000000.0 -0.061022178959753655 -0.16172663857951605
3640000000.0 -0.14184614204631796 -0.12329716602566654
3660000000.0 -0.1591713404119672 0.11898347294157897
3680000000.0 -0.017742728279885468 0.19964440171707545
3700000000.0 0.11403784535133084 0.16000332297326572
3720000000.0 -0.027656156436507894 0.18615701841130106
3740000000.0 -0.16649471112845154 0.059533293167124746
3760000000.0 -0.05559545616054462 0.15742098778465768
3780000000.0 0.09544101094526551 0.12465414557578627
3800000000.0 -0.031327888725656235 0.1519606708269731
3820000000.0 0.002696196750975776 0.15535981668717846
3840000000.0 0.10991102118189618 0.11088967765916893
3860000000.0 0.1562373333797399 0.03424835479109328
3880000000.0 -0.15108083235616412 -0.05806008188554862
3900000000.0 0.09222238218423674 0.13157243541152736
3920000000.0 -0.10101820315399879 -0.12100936113733109
3940000000.0 -0.04658776019220762 0.14876104638492374
3960000000.0 0.13753807773945187 -0.07994145321884641
3980000000.0 0.12683689722387606 0.09888623527212681
4000000000.0 -0.1413389451414832 0.07484581669354848
