!Created with skrf (http://scikit-rf.org).
# Hz S RI R 50.0 
!freq ReS11 ImS11
400000000.0 -0.38468699306177806 0.7885913603174649
420000000.0 0.6606469498521614 0.5704756226670904
440000000.0 0.4228514438971831 -0.7325352161369558
460000000.0 -0.7218723019850586 -0.3500678123687435
480000000.0 -0.7062396953269898 -0.14246825292364268
500000000.0 0.18168546591660775 0.531261108981269
520000000.0 0.4402431494576875 -0.16584718773923599
540000000.0 -0.2595871142743059 -0.27619738431074575
560000000.0 -0.2697744981639269 -0.19314080134302905
580000000.0 0.2824196741153963 0.12350869659518465
600000000.0 0.19946040400875345 -0.23869767446278398
620000000.0 -0.3167520041763774 0.05663574571393098
640000000.0 -0.34968401630423096 -0.019447519989731623
660000000.0 -0.35422398164085006 0.11377709186161805
680000000.0 0.3300971744545472 -0.23415972038904895
700000000.0 -0.26772242380765504 -0.32857508571330635
720000000.0 -0.37801015963905055 0.22068068738021873
740000000.0 -0.3946038176667867 -0.19859757897892077
760000000.0 0.24756688366424154 0.352237442523091
780000000.0 -0.11781226425087184 0.3875562491880434
800000000.0 -0.33500744128854265 -0.16776507239088936
820000000.0 -0.2956229520883518 0.12505067251630403
840000000.0 -0.2007252358600585 -0.17792858250435756
860000000.0 -0.18399063381212757 0.10428043328465364
880000000.0 -0.09629680236629073 -0.12390447593793737
900000000.0 -0.07065012687158234 0.057465035278877655
920000000.0 0.023907360478133056 0.04987180216646522
940000000.0 0.04121401359689396 -0.006970851117340832
960000000.0 -0.03882145132154212 -0.0362164046269225
980000000.0 0.002892703061041084 0.06529651305504879
1000000000.0 -0.06652905756395834 0.034945245580575934
1020000000.0 0.08371434963972241 -0.017524541148510635
1040000000.0 -0.09203735171346064 0.03065859616494548
1060000000.0 0.0013629831938403978 0.13250771356450133
1080000000.0 -0.13267586635986725 -0.06595001656959848
1100000000.0 -0.12133069855095738 -0.11908822716151617
1120000000.0 -0.18254785671335777 -0.05753485097789679
1140000000.0 -0.19715786444754782 -0.12047571075837175
1160000000.0 -0.24615669170947918 0.10319437520826144
1180000000.0 -0.30768546328560525 -0.04194594982849796
1200000000.0 -0.19590983121844072 -0.28057671973793336
1220000000.0 0.37173177291170373 -0.06763084966595687
1240000000.0 -0.31858097295915194 0.2503191354966744
1260000000.0 0.18814332302163908 -0.38881006897560455
1280000000.0 -0.3783925026421433 0.2373940457238522
1300000000.0 0.369569921200693 -0.26247390751643773
1320000000.0 -0.2111880660637398 -0.3973275601299584
1340000000.0 -0.4119128321823009 -0.1517330784154872
1360000000.0 -0.18823598342816733 -0.3908635822053048
1380000000.0 -0.3179888894881861 -0.28551741227285227
1400000000.0 -0.3250433719562126 0.25877845535899757
1420000000.0 0.0788560998667521 0.3885787100606518
1440000000.0 0.3637352527239437 0.06145901507112036
1460000000.0 0.30149729762878386 -0.15364616326141226
1480000000.0 0.15762391256271074 -0.26547927872765215
1500000000.0 0.14005147814812935 -0.24311664603895752
1520000000.0 -0.25065451512268294 -0.05893032579901951
1540000000.0 -0.04395001913318525 0.2305560189139467
1560000000.0 -0.20715011334195155 0.017404826627007985
1580000000.0 -0.17848670025841284 -0.05116334798074188
1600000000.0 0.11955117560281835 0.09283804511244424
1620000000.0 0.01633789798854086 -0.12078821025720679
1640000000.0 -0.037983254787248726 -0.08807973054491998
1660000000.0 -0.02503461802373484 0.0699370857760048
1680000000.0 0.012652262508491495 -0.048903577028873386
1700000000.0 -0.0005432492885259782 -0.03338979430529436
1720000000.0 0.018009709546437852 -0.0005753594018470967
1740000000.0 0.018189827457548647 -0.01408662440504728
1760000000.0 -0.026627626479960365 0.03651728301033323
1780000000.0 -0.04953015717064314 -0.06033493937316387
1800000000.0 -0.032001011055948214 -0.10999943284873875
1820000000.0 -0.12379862971847948 -0.08414877642150537
1840000000.0 -0.1868526519575518 0.016782308377577902
1860000000.0 -0.05755651549958963 -0.21097398946147441
1880000000.0 0.18766338300709937 0.164895939333264
1900000000.0 -0.16945079947618352 -0.2263674943770526
1920000000.0 -0.012674261594308534 0.3065977032682669
1940000000.0 0.25780451108097024 0.2085982338763482
1960000000.0 0.35412990765890195 -0.03487714462794492
1980000000.0 0.2255608796550491 -0.29844534658210614
2000000000.0 0.29504814405454094 -0.26411239007334386
2020000000.0 0.02549045131259387 -0.4144005877954974
2040000000.0 -0.20296061389784412 -0.3796791225445131
2060000000.0 -0.4242025215004882 0.11614459679836026
2080000000.0 0.10705681005842872 0.4318246163679238
2100000000.0 0.4300902106205842 -0.10202001493340639
2120000000.0 -0.14255784849883457 -0.40804168463538715
2140000000.0 -0.405089156212239 0.10063650752851845
2160000000.0 -0.39266857007504324 -0.051120835252710724
2180000000.0 -0.3334606907454389 0.16961697910009593
2200000000.0 -0.1182445422810075 0.333855328549018
2220000000.0 -0.1628470411728884 0.2937572354964348
2240000000.0 -0.24352122529312256 0.2197546603025968
2260000000.0 -0.32296282536172954 -0.048192983779062365
2280000000.0 -0.2976273396345735 -0.15488869670495362
2300000000.0 -0.32668145522960385 0.137108021669223
2320000000.0 0.2296644088958186 0.3048828294476595
2340000000.0 0.15041467053147725 -0.38851389885040033
2360000000.0 -0.2717798065796527 0.3691992583091887
2380000000.0 0.3075004930457229 -0.40222550681950686
2400000000.0 -0.22274817418788803 0.5097927893515832
2420000000.0 -0.009388646775061505 -0.6072101533875176
2440000000.0 0.36559249558383483 0.5450748366041278
2460000000.0 -0.6472255316527715 -0.26183269122316477
2480000000.0 0.731622088033614 -0.0034263937476350904
2500000000.0 -0.7525971115340017 0.05796978106188857
2520000000.0 0.7597103221063812 0.11550955189960521
2540000000.0 -0.6664029046127113 -0.3900607473636403
2560000000.0 0.280933122119219 0.7159178894303073
2580000000.0 0.3395918732254819 -0.6753485349434704
2600000000.0 -0.6893841000156983 0.24936815614140037
2620000000.0 0.635071725289155 0.30244665193080233
2640000000.0 0.6314022286475048 -0.21219982688020272
2660000000.0 -0.5609083205307019 -0.26331518903518725
2680000000.0 0.20165191171439042 0.5341370861692706
2700000000.0 0.20322299542114985 -0.47926676597989193
2720000000.0 -0.4321974183971418 0.19012980176958663
2740000000.0 0.356073157597446 0.23780126281188751
2760000000.0 -0.17367831071510906 -0.3506301630146043
2780000000.0 0.13517535940286984 0.33758382670188125
2800000000.0 -0.30564204005863355 -0.15361902810525496
2820000000.0 0.08908550125501268 -0.3160499070797346
2840000000.0 0.3160561477223484 -0.029432738476351993
2860000000.0 0.15457120476024558 0.2706879375765721
2880000000.0 -0.22862752079670082 0.20562733063526673
2900000000.0 0.013032448850248485 -0.30338224732120733
2920000000.0 -0.21260320499232008 0.21132759721041874
2940000000.0 0.011914563435347279 0.29904388316011377
2960000000.0 0.002402216354108949 0.30072198286575214
2980000000.0 -0.30030675924737793 0.05748371713928298
3000000000.0 -0.013263253317067418 -0.30841631589698787
3020000000.0 0.3052237903861797 0.07896179275101585
3040000000.0 -0.20125333086779743 0.2457489315690241
3060000000.0 -0.06630225160147775 -0.31296298271089235
3080000000.0 0.2801617349273518 0.1480500133013608
3100000000.0 -0.3049882024559635 0.07001368839667764
3120000000.0 0.08978731578351305 -0.29279202577065605
3140000000.0 0.27321505610393737 0.109531968436051
3160000000.0 -0.18242148984744427 0.2070991810105425
3180000000.0 0.1791358892591586 -0.18319357312735648
3200000000.0 0.16287344447809488 0.1571587038707529
3220000000.0 -0.19411388706043617 -0.006018336706720001
3240000000.0 0.14759894533556506 0.0639541558464412
3260000000.0 0.12337826969538047 -0.033289145890648714
3280000000.0 -0.020594656397551758 0.0999106382530417
3300000000.0 -0.01614822313537326 0.07817432380305595
3320000000.0 0.031187628161574547 0.05151404501554859
3340000000.0 -0.018809744005060358 -0.03701760521174584
3360000000.0 0.01445827684326156 0.019162818784171
3380000000.0 -0.006669241459261152 0.013345031984880337
3400000000.0 0.02482217285402272 -0.013472796306754974
3420000000.0 -0.042072526010217624 0.022634569752839444
3440000000.0 -0.0013952414439751368 0.06184812674001638
3460000000.0 0.07088804051575343 -0.0014878618638335037
3480000000.0 -0.06438416486952428 0.037543181777144496
3500000000.0 0.04407090056688083 0.06609981116826481
3520000000.0 -0.030191619505700897 -0.07986513236306413
3540000000.0 0.05357180753543852 -0.08196834937102483
3560000000.0 0.09667166552594851 -0.06191151591200753
3580000000.0 -0.13080969741755455 -0.03088714051109359
3600000000.0 -0.07122471827526605 -0.1403470339475595
3620000000.0 -0.09018422178132701 -0.14913844653621833
3640000000.0 -0.1610464914443865 -0.09970017599033139
3660000000.0 -0.15518044349819476 0.1246300996420911
3680000000.0 -0.014834270542992096 0.1996008252632238
3700000000.0 0.11177213443762839 0.160789390820847
3720000000.0 -0.0592255585611077 0.17904800223991013
3740000000.0 -0.17654909141278757 0.023329533034524556
3760000000.0 -0.11162360711118986 0.1260668383121678
3780000000.0 0.0371327732114009 0.15443913135016168
3800000000.0 -0.09781546379504993 0.12268736541191967
3820000000.0 0.002530374855266024 0.15710695015263043
3840000000.0 0.12717503907040523 0.09150808045749127
3860000000.0 0.15900346611415975 -0.014386835320595247
3880000000.0 -0.15161226652611726 -0.055042794565842344
3900000000.0 0.0786330469992563 0.14012056403708825
3920000000.0 -0.01832844208347448 -0.1559203684218842
3940000000.0 -0.15383188470083334 0.029310891821426203
3960000000.0 0.11272461075317386 0.11395359170607779
3980000000.0 -0.06527123273459734 0.14839073254417093
4000000000.0 -0.12334034173751875 0.10404135807132248
