!Created with skrf (http://scikit-rf.org).
# Hz S RI R 50.0 
!freq ReS11 ImS11
400000000.0 -0.38626582151458233 0.788130836770093
420000000.0 0.6705057413457185 0.5588672050824863
440000000.0 0.4271571599197147 -0.7298160568918902
460000000.0 -0.7253822006191755 -0.3427285727061017
480000000.0 -0.7088606479454879 -0.1280402680197979
500000000.0 0.19106310413688615 0.5279498333908568
520000000.0 0.44383375679301096 -0.15529509642781217
540000000.0 -0.2730997569688922 -0.26323602093730175
560000000.0 -0.25644801351243846 -0.21087914687613743
580000000.0 0.2889084503445281 0.10601667880953057
600000000.0 0.18638199802210387 -0.249475546172788
620000000.0 -0.3196508688039078 0.03482882812763007
640000000.0 -0.35038716375251 -0.013529165900491694
660000000.0 -0.3613325215381372 0.08876341719215358
680000000.0 0.3435118932083979 -0.2137197459961781
700000000.0 -0.2840243747259848 -0.3142214613723594
720000000.0 -0.39589028108818153 0.18607150278289772
740000000.0 -0.40165479142767524 -0.1847322193213006
760000000.0 0.22892885339913313 0.36529837994592457
780000000.0 -0.12053541270234928 0.38611238256444336
800000000.0 -0.32974790885610716 -0.17915522225732072
820000000.0 -0.2947845394687512 0.12625989522033496
840000000.0 -0.21391611418593895 -0.16275552142133928
860000000.0 -0.17622513344358814 0.11755416329398428
880000000.0 -0.11156548880966038 -0.11070856082661326
900000000.0 -0.06075611004671334 0.06767679483776996
920000000.0 0.025616862682222002 0.049140384528385386
940000000.0 0.03615279735379815 -0.022021694106287647
960000000.0 -0.03821317275577787 -0.03740452113392933
980000000.0 0.007980163511229729 0.06518872732301631
1000000000.0 -0.06403406122986117 0.03959497643688189
1020000000.0 0.0801917815813121 -0.0298862953766071
1040000000.0 -0.0827591867350654 0.050582326799511544
1060000000.0 0.026101141679426 0.12992642629434514
1080000000.0 -0.13610982452307482 -0.05880777438906333
1100000000.0 -0.1272182629207025 -0.11304356131542141
1120000000.0 -0.18615452333886237 -0.04508546791946128
1140000000.0 -0.19755314160441437 -0.11977288183183107
1160000000.0 -0.2487589795723075 0.09659002146201798
1180000000.0 -0.3092496720631403 -0.026827959927548148
1200000000.0 -0.20144589214621597 -0.2761478822157312
1220000000.0 0.3607297690925962 -0.11138082416504104
1240000000.0 -0.3135538405958555 0.25555755630341837
1260000000.0 0.195473438216628 -0.3844569629915633
1280000000.0 -0.3760341965398994 0.24013581182771743
1300000000.0 0.3476481572041675 -0.29090758478348755
1320000000.0 -0.2254563556199873 -0.3892851422722189
1340000000.0 -0.41633935736293576 -0.13900418416500887
1360000000.0 -0.2230502655151996 -0.3723547526246479
1380000000.0 -0.3442384630756281 -0.25358497882513886
1400000000.0 -0.30083873712730436 0.2871361191917114
1420000000.0 0.11229369509564928 0.38068194904795993
1440000000.0 0.36787157664453896 0.035083019383649015
1460000000.0 0.2836317001824255 -0.18538888063615622
1480000000.0 0.12098900172168721 -0.28420790692072173
1500000000.0 0.12324515909980435 -0.25245681149335897
1520000000.0 -0.2500033161442615 -0.06439569380220402
1540000000.0 -0.03796240276420939 0.2321701676889598
1560000000.0 -0.20820045279927799 0.0036394507350227595
1580000000.0 -0.16140133568032747 -0.09250926434812237
1600000000.0 0.100224341019141 0.11364204355673366
1620000000.0 0.04392794204985291 -0.11375126860728196
1640000000.0 -0.033543309861406946 -0.08993852661354071
1660000000.0 -0.034834629555297036 0.06524702472039903
1680000000.0 0.01666731473149229 -0.047426088680002775
1700000000.0 -0.008656618531464244 -0.03206417889474082
1720000000.0 0.013117169911768698 -0.012689817529442251
1740000000.0 0.01973199408498258 -0.012056374820724067
1760000000.0 -0.02718403592382432 0.03608571976851932
1780000000.0 -0.03334814287942316 -0.07021557006438076
1800000000.0 -0.027218453919641693 -0.11120806716797493
1820000000.0 -0.11106871477279553 -0.09910991435632462
1840000000.0 -0.18712358618347735 0.008296956251464075
1860000000.0 -0.06886442341483624 -0.20749828576959417
1880000000.0 0.18869481045146783 0.16385642810510503
1900000000.0 -0.1762306124853002 -0.22103397209776282
1920000000.0 -0.0018796912756333722 0.30709025445805405
1940000000.0 0.2671842803148927 0.19700913275033619
1960000000.0 0.3527258641109903 -0.04799691328324453
1980000000.0 0.21862227927593078 -0.30384655167880115
2000000000.0 0.28802312395652996 -0.2719334405014206
2020000000.0 0.035301473077635856 -0.4138987870896242
2040000000.0 -0.2246449501216213 -0.36730052257903045
2060000000.0 -0.42707379682202273 0.10504089379384882
2080000000.0 0.08755733109673032 0.43632741449222223
2100000000.0 0.43529915923248214 -0.07695869609981497
2120000000.0 -0.12597686495821064 -0.41339021858035535
2140000000.0 -0.4143963160211019 0.051821701610127974
2160000000.0 -0.39171069494389504 -0.059173572203584816
2180000000.0 -0.3400385920835807 0.15646968244338677
2200000000.0 -0.12064237972476467 0.33321596669470993
2220000000.0 -0.1843069468167319 0.28072608813615246
2240000000.0 -0.24312444159763572 0.22011092104437696
2260000000.0 -0.32261435372560404 -0.04987289061396624
2280000000.0 -0.2925715520319386 -0.16375158037893806
2300000000.0 -0.330402771427215 0.12668272874286066
2320000000.0 0.2292698546984369 0.3049411074947341
2340000000.0 0.16979391284441253 -0.3798135123961828
2360000000.0 -0.2898886051958349 0.35476104508879147
2380000000.0 0.3123273860198568 -0.39825215983735507
2400000000.0 -0.22919746295518517 0.5069369978726324
2420000000.0 -0.02162098308875205 -0.6068495574713844
2440000000.0 0.3527687449576046 0.5535048525696435
2460000000.0 -0.6467666644868904 -0.26276694551557817
2480000000.0 0.7315570155243725 0.03187936693667548
2500000000.0 -0.7549500259789907 0.014041704109891678
2520000000.0 0.7613566701497632 0.10512879884899386
2540000000.0 -0.6515880629934201 -0.4146734177571099
2560000000.0 0.3035469657004814 0.7065650252255339
2580000000.0 0.36986929423174975 -0.6594359327702913
2600000000.0 -0.6907912333678597 0.24545483848029453
2620000000.0 0.654569016499794 0.25629571359456477
2640000000.0 0.6469307467384341 -0.15658569949613127
2660000000.0 -0.5559918083959299 -0.27248399259323364
2680000000.0 0.2569140176181085 0.5097752917734477
2700000000.0 0.18077099106022057 -0.48773509178817914
2720000000.0 -0.4352645159650561 0.18123750900745117
2740000000.0 0.33945975920516325 0.25981500215310416
2760000000.0 -0.17007115499170986 -0.3517369720320686
2780000000.0 0.14276426553725302 0.33382838946947885
2800000000.0 -0.306739327134977 -0.1505118492467649
2820000000.0 0.07481962842898607 -0.31945420508115824
2840000000.0 0.3147352171581577 -0.041447402518407034
2860000000.0 0.1644812900154406 0.26510070014138515
2880000000.0 -0.2226944935532394 0.21264128611510472
2900000000.0 0.01369803451248266 -0.30374478071096905
2920000000.0 -0.21908246651052182 0.20535722849383067
2940000000.0 -0.003857068586145725 0.2995038204295024
2960000000.0 -0.010778302325268302 0.3008408568965084
2980000000.0 -0.3018995746776175 0.05096972069708062
3000000000.0 0.0022967411421649132 -0.30918094616729225
3020000000.0 0.3129833277863657 0.04049190047042042
3040000000.0 -0.20697782622596758 0.24134957284743164
3060000000.0 -0.03464829678381293 -0.31793583229937433
3080000000.0 0.27592276490279977 0.15537328411679388
3100000000.0 -0.3118690279732761 -0.016373486019790412
3120000000.0 0.06570949825380955 -0.2990342827603653
3140000000.0 0.2748360778880372 0.10488193914333396
3160000000.0 -0.17385026792193187 0.21428688776728677
3180000000.0 0.18928149296514718 -0.17197810493453664
3200000000.0 0.16951670474863137 0.14944691584625594
3220000000.0 -0.19336935678872427 0.008300467110814962
3240000000.0 0.15335026968575086 0.04815690429844066
3260000000.0 0.11542630035802978 -0.054147525743865096
3280000000.0 0.02037576330254053 0.0993794175928561
3300000000.0 -0.009576595081180262 0.07910655909768313
3320000000.0 0.03394635145470122 0.04964345077290015
3340000000.0 -0.034468641610675775 -0.023608962607093248
3360000000.0 0.014787145797720646 -0.019930889486189745
3380000000.0 -0.008220065796211243 0.011974577407163586
3400000000.0 0.011216898277179125 0.025780618178536364
3420000000.0 -0.04381777782270066 0.01800048099918924
3440000000.0 0.0008970913491548419 0.06174123215760715
3460000000.0 0.07034379621110623 0.0031333279370699733
3480000000.0 -0.05102936052150961 0.0545509065680953
3500000000.0 0.04382752510722616 0.06600585569242962
3520000000.0 -0.04032266120069273 -0.07486748954131661
3540000000.0 0.0528350439437169 -0.08221016238557159
3560000000.0 0.09666930271318888 -0.061028045941900845
3580000000.0 -0.1321849159196401 -0.024681661865792303
3600000000.0 -0.06720742117802653 -0.14185945093710126
3620000000.0 -0.09459380952248621 -0.14632153479169974
3640000000.0 -0.17152154446181886 -0.08106902155504568
3660000000.0 -0.15384531263534457 0.12585281901978912
3680000000.0 -0.018032044033616842 0.19963544593028387
3700000000.0 0.1024144485444868 0.1664533273401507
3720000000.0 -0.06303407246395536 0.17820603823876097
3740000000.0 -0.17793258348222943 0.006731868448983213
3760000000.0 -0.11502242765638379 0.12291935651775279
3780000000.0 0.046155254786215634 0.1514419856812473
3800000000.0 -0.09011057412073326 0.1281955751765089
3820000000.0 -0.009414518934002337 0.1565313436751946
3840000000.0 0.11437703883955407 0.10700835053005375
3860000000.0 0.15929854653251144 0.0033190950781155576
3880000000.0 -0.14515368979699245 -0.07023771049252754
3900000000.0 0.061329102730995545 0.14829206249998722
3920000000.0 -0.003924106367283765 -0.1566759260021455
3940000000.0 -0.14791902143731966 0.04822930029971399
3960000000.0 0.13138285106178224 0.09026775052723467
3980000000.0 -0.03642089822394653 0.1573014230581087
4000000000.0 -0.09940644505542023 -0.12634228806343753
