!Created with skrf (http://scikit-rf.org).
# Hz S RI R 50.0 
!freq ReS11 ImS11
400000000.0 -0.3810217332277225 0.7914509140834355
420000000.0 0.6630988403585035 0.5674834562531698
440000000.0 0.4084700878003323 -0.7404288819195836
460000000.0 -0.7301131691465435 -0.33187520858142666
480000000.0 -0.7065442932381214 -0.139058038253984
500000000.0 0.18740511613176275 0.5291957116003285
520000000.0 0.43977127723926746 -0.16645636838651082
540000000.0 -0.24467446884190286 -0.2887260656405667
560000000.0 -0.22638521343386606 -0.24258805326896976
580000000.0 0.27001876519062457 0.1479069856354349
600000000.0 0.1926309032015627 -0.245005497212358
620000000.0 -0.3211422314152569 0.019692235323161108
640000000.0 -0.35036464347360946 -0.0071344935002700515
660000000.0 -0.36076987739039884 0.0906613522547141
680000000.0 0.33901575781927346 -0.2214255147498995
700000000.0 -0.28752082219249103 -0.310935224315484
720000000.0 -0.3995128543316507 0.17904109139519675
740000000.0 -0.40765295104805327 -0.16890596252026432
760000000.0 0.23868713541870112 0.3592730623019158
780000000.0 -0.11255661868777621 0.3882684269185844
800000000.0 -0.3235058359680633 -0.19050227555680954
820000000.0 -0.2887334965637107 0.13982551759785636
840000000.0 -0.2067246618549886 -0.17148361976938953
860000000.0 -0.1789682495089621 0.11285867250421072
880000000.0 -0.1148452224266911 -0.10626050492740542
900000000.0 -0.0672584179930887 0.06055805624211424
920000000.0 0.030602110152233904 0.045815523473012244
940000000.0 0.03144529366401072 -0.028164584949298476
960000000.0 -0.04333405523590672 -0.03085356606263089
980000000.0 0.0200190469362855 0.062210916899175676
1000000000.0 -0.0558982499944778 0.049847602707952715
1020000000.0 0.08031788841016053 -0.02834222612683055
1040000000.0 -0.07982652922129098 0.054994292933866276
1060000000.0 0.023159426565575923 0.13048185565108797
1080000000.0 -0.1370192155508819 -0.0568626456795166
1100000000.0 -0.11901064105908443 -0.12187569907918044
1120000000.0 -0.18643624615965956 -0.04446982085402384
1140000000.0 -0.19321287945932986 -0.12690617913816027
1160000000.0 -0.25117262160495735 0.0904061937181892
1180000000.0 -0.30483631645899756 -0.059165529152848284
1200000000.0 -0.1679447257714984 -0.29776462289567407
1220000000.0 0.3731382279687522 -0.05710703867683934
1240000000.0 -0.33222786115645375 0.23121304575016052
1260000000.0 0.19714201528714556 -0.38365432171147146
1280000000.0 -0.38001776959897277 0.23406862598351094
1300000000.0 0.3663385328055087 -0.26639815360609836
1320000000.0 -0.2214379914773009 -0.39166317559598884
1340000000.0 -0.4147018134272235 -0.1439371993525096
1360000000.0 -0.21886629329552018 -0.37465096884554605
1380000000.0 -0.3387299646429392 -0.26072742077164196
1400000000.0 -0.30543837481798464 0.2819461843911525
1420000000.0 0.1128305140527053 0.38041590698619693
1440000000.0 0.3671184027028231 0.03863012271980736
1460000000.0 0.2934762554004791 -0.1701229810720437
1480000000.0 0.13755030206518293 -0.27726435075430894
1500000000.0 0.12967811143592148 -0.24970542720422562
1520000000.0 -0.25395607193268266 -0.04495351461161021
1540000000.0 -0.05716695389027086 0.22814626011348763
1560000000.0 -0.20782730116689224 0.010786786092590038
1580000000.0 -0.166974499849496 -0.08160908151808025
1600000000.0 0.09869313910751568 0.1147379889209898
1620000000.0 0.04390849181852638 -0.11358601628734036
1640000000.0 -0.015358316980787082 -0.09430613677249704
1660000000.0 -0.04012986638197063 0.06164306668201774
1680000000.0 0.01745408922699257 -0.04701884976794254
1700000000.0 -0.021661728847397827 -0.024876420248982876
1720000000.0 0.008533032190318262 -0.01611282528993418
1740000000.0 0.020673985886388482 -0.010377951602976167
1760000000.0 -0.04401506198008241 0.010214927907847208
1780000000.0 -0.031578305127093864 -0.07097621320214637
1800000000.0 -0.026798178118666287 -0.11114091350978202
1820000000.0 -0.11681389958210663 -0.09250065476379268
1840000000.0 -0.18684275107664977 0.01369665042005841
1860000000.0 -0.061155887091694866 -0.20976801333797568
1880000000.0 0.193902910063517 0.1581715879587781
1900000000.0 -0.18110661732877134 -0.21713601523973522
1920000000.0 0.00660686672370021 0.3071731480960661
1940000000.0 0.2730851824994948 0.18915786331518944
1960000000.0 0.3519671716756133 -0.05479258280868577
1980000000.0 0.21206765386215257 -0.3089055104233681
2000000000.0 0.2856810465773434 -0.27501949182783675
2020000000.0 0.009138045205269838 -0.4156078624233078
2040000000.0 -0.17820981880113093 -0.3924139585593371
2060000000.0 -0.42047707398618944 0.1287671333359929
2080000000.0 0.0938605650687948 0.43502462167705036
2100000000.0 0.43749624498701634 -0.06390300161784385
2120000000.0 -0.09224452081322446 -0.42239118105343665
2140000000.0 -0.41392452556862186 0.05622713162377255
2160000000.0 -0.38815079255144036 -0.08074098463065485
2180000000.0 -0.34432586972632756 0.14698516384031513
2200000000.0 -0.12860562488382685 0.3304834970501015
2220000000.0 -0.18853564515369783 0.2780452335131142
2240000000.0 -0.2410058630755132 0.22290115401283359
2260000000.0 -0.3235607050440319 -0.04514898362588583
2280000000.0 -0.2978037290502279 -0.1551189273409608
2300000000.0 -0.3253428629368573 0.14094976115219973
2320000000.0 0.24969479798282104 0.2894592656342483
2340000000.0 0.13777914399344343 -0.3935447579947202
2360000000.0 -0.25808119396831564 0.38000210232118814
2380000000.0 0.27627670380222435 -0.425467786173916
2400000000.0 -0.17366369207566407 0.5298348990169505
2420000000.0 -0.10712397707458829 -0.5988949419264056
2440000000.0 0.4299403214491746 0.49750758152150376
2460000000.0 -0.6785407130206244 -0.16818048312418896
2480000000.0 0.7241278200695133 -0.1123038701337788
2500000000.0 -0.740704000482138 0.14965048209175405
2520000000.0 0.7688427182092054 0.005154896411200108
2540000000.0 -0.7152030313063242 -0.2914762035315388
2560000000.0 0.39823054396485463 0.6576111285463537
2580000000.0 0.2679509185124909 -0.7065298825706181
2600000000.0 -0.6542730004311563 0.32962491716068254
2620000000.0 0.6669213111057632 0.2201436590363574
2640000000.0 0.6223981808399628 -0.23383257806380453
2660000000.0 -0.5795854533989353 -0.21523609563319382
2680000000.0 0.22680545754477632 0.5222642077483939
2700000000.0 0.18472184101872657 -0.48494681319963573
2720000000.0 -0.42818502134446496 0.19464963690275855
2740000000.0 0.35681377346505216 0.23373156573486784
2760000000.0 -0.17551188440888188 -0.34793665931992185
2780000000.0 0.14193536984992253 0.33314175921300937
2800000000.0 -0.31160195611425445 -0.1385215292887617
2820000000.0 0.05612031851349007 -0.3225366822616727
2840000000.0 0.31111598934264145 -0.0610040505912001
2860000000.0 0.17347762684353132 0.25900664341137164
2880000000.0 -0.2124543469746963 0.22229826084444165
2900000000.0 -0.00974696049568414 -0.30337703163547514
2920000000.0 -0.21799104944599945 0.20627587559728766
2940000000.0 -0.010746897297215618 0.2991064474882717
2960000000.0 -0.0066079716000569085 0.30064867812419416
2980000000.0 -0.3032542950403182 0.04058927127396213
3000000000.0 0.016398472083444117 -0.30854265462000613
3020000000.0 0.2980682066406956 0.10320119102288904
3040000000.0 -0.268303574495768 0.16959931334627787
3060000000.0 -0.010183683399357612 -0.31911177589290124
3080000000.0 0.26812787460091686 0.16821709678561597
3100000000.0 -0.31145420794653106 -0.021752229947234875
3120000000.0 0.06727409548751202 -0.2983165661953748
3140000000.0 0.27279965908191317 0.10900074383237016
3160000000.0 -0.17430929048488447 0.21329864803985557
3180000000.0 0.1838804699514783 -0.17727000017006309
3200000000.0 0.1771138011463136 0.1398834181358983
3220000000.0 -0.19116385201684027 0.027630960560089988
3240000000.0 0.15712248429052109 0.03183210609686413
3260000000.0 0.10636905428305264 -0.06970701089593656
3280000000.0 0.020931063434253827 0.09886724961720313
3300000000.0 -0.017031494268905333 0.07748429821297273
3320000000.0 0.03106006982713738 0.0512349378354214
3340000000.0 -0.036590564847193405 -0.019656933667795157
3360000000.0 0.017691995238358512 -0.017505722776430588
3380000000.0 -0.009469628339791794 0.01105404407533859
3400000000.0 -0.006569293085913715 0.02734274302209512
3420000000.0 -0.04695987393604139 0.006479554236553872
3440000000.0 -0.024577137554628675 0.056142372245051905
3460000000.0 0.0672133418570282 0.019529939414010353
3480000000.0 -0.07112417509084344 0.020261429206205248
3500000000.0 0.046243380328437486 0.06406029714530329
3520000000.0 -0.04844375415033715 -0.06976707395249904
3540000000.0 0.04387156856769664 -0.08689275647164424
3560000000.0 0.08661667561105343 -0.07469974175598372
3580000000.0 -0.11935066931108833 -0.059631584213041
3600000000.0 -0.03179614046736875 -0.152951924168749
3620000000.0 -0.07943242726479996 -0.1543547844073929
3640000000.0 -0.15547643874176012 -0.10700269838330782
3660000000.0 -0.1695939625779374 0.10251504559089979
3680000000.0 -0.024075151780210108 0.19854262575627718
3700000000.0 0.09867927249649873 0.16822255528627655
3720000000.0 -0.06351310606346547 0.17751175920676726
3740000000.0 -0.17621227519707072 0.02095823415370904
3760000000.0 -0.101498424479577 0.13401449980106114
3780000000.0 0.03997247004466828 0.15347315455431934
3800000000.0 -0.08773315338935843 0.12950418528104923
3820000000.0 -0.00888742700702824 0.15640548492935138
3840000000.0 0.11434311935008211 0.1068211623565253
3860000000.0 0.15895105825857805 0.011592837721049664
3880000000.0 -0.14884331569746942 -0.06190420033203491
3900000000.0 0.07497760278160513 0.14198935429144122
3920000000.0 -0.029485232624723745 -0.15416147228252178
3940000000.0 -0.13881244070303905 0.07084947879812926
3960000000.0 0.14959625953698188 0.055350771082929844
3980000000.0 0.012780562714261869 0.16103719776726175
4000000000.0 -0.14309976845790254 -0.07370257758963139
