!Created with skrf (http://scikit-rf.org).
# Hz S RI R 50.0 
!freq ReS11 ImS11
400000000.0 -0.38184746827064037 0.7887917818451746
420000000.0 0.6995162270064113 0.5195108505195176
440000000.0 0.35459831351618476 -0.7662127726976321
460000000.0 -0.7506329937938252 -0.2792630271700682
480000000.0 -0.7138062625422847 -0.08917583881601182
500000000.0 0.2114260352421558 0.5197568729347894
520000000.0 0.42381371606830787 -0.20088754677033002
540000000.0 -0.20350847807190967 -0.31725032126986596
560000000.0 -0.223848399408271 0.2435680199310231
580000000.0 0.23855902356250988 0.19592040675928604
600000000.0 0.2247452815123281 -0.21767032741243908
620000000.0 -0.32420074503781376 0.009990666414800424
640000000.0 -0.351699014268161 -0.012955331036324189
660000000.0 -0.37263292246963636 0.026677944933991556
680000000.0 0.3701880520929704 -0.16539240498443705
700000000.0 -0.22575320510408825 -0.3592023922485385
720000000.0 -0.421676852450024 0.1162551966760886
740000000.0 -0.3684946230300657 -0.24401066245811553
760000000.0 0.24083113491988795 0.35592306924011613
780000000.0 -0.13620963659074842 0.3802599156602716
800000000.0 -0.34721659568484226 -0.13927363226365025
820000000.0 -0.2674722671949611 0.17717312389662124
840000000.0 -0.253015316073338 -0.0905526603258818
860000000.0 -0.10727437310557675 0.18317657772757023
880000000.0 -0.15037686494349742 -0.04937547775582543
900000000.0 -0.06516435611193508 0.0654425453473454
920000000.0 -0.038783344547955026 0.04150416419236021
940000000.0 0.014440892324442558 0.03825721881734757
960000000.0 -0.025217636046652277 -0.0447132003460589
980000000.0 0.06006254797736092 0.020454053786095532
1000000000.0 0.018411325051514202 0.07041924452322078
1020000000.0 0.016657186684749692 -0.0821184927237118
1040000000.0 0.0008285247221823184 0.09628562077695084
1060000000.0 0.11798661691631768 0.06097648147206233
1080000000.0 -0.1488065800250532 0.013967825711100874
1100000000.0 -0.16055888566945764 -0.06337883919156677
1120000000.0 -0.19130572659379072 -0.035626198106154326
1140000000.0 -0.18994538994113325 -0.1368196225467451
1160000000.0 -0.26869176795838895 0.022396620927906175
1180000000.0 -0.27026116016386303 -0.15756449824511903
1200000000.0 -0.05161762488817099 -0.3400702313612377
1220000000.0 0.3707879581067145 0.07886888562337353
1240000000.0 -0.39205247083027084 0.10450566570410541
1260000000.0 0.3057810671799457 -0.30488280419909536
1280000000.0 -0.42273842128548156 0.1424614922236391
1300000000.0 0.41022201368297423 -0.19034547113618502
1320000000.0 -0.15777495573248188 -0.4205658888867798
1340000000.0 -0.4099016996097134 -0.1548534862076667
1360000000.0 -0.23002954910766502 -0.3671581549300351
1380000000.0 -0.3637091870602423 -0.22255554528467514
1400000000.0 -0.2796665115492828 0.3065388064973144
1420000000.0 0.1574154264289029 0.363586047194696
1440000000.0 0.36898480868921796 0.008222574556055375
1460000000.0 0.26897511797794277 -0.20732047558263306
1480000000.0 0.09712846513417571 -0.2946346814186149
1500000000.0 0.07205712322569578 -0.2731071076221036
1520000000.0 -0.2589968146795124 0.010187205143305976
1540000000.0 -0.033501143727538145 0.23415488098193815
1560000000.0 -0.20966969691911763 -0.010306384734273222
1580000000.0 -0.15995378003756225 -0.09716678123958672
1600000000.0 0.05388796265098862 0.14233834167565038
1620000000.0 0.09741736468951909 -0.07430168403902741
1640000000.0 0.05592669192593556 -0.07756267644691275
1660000000.0 -0.07288270164569662 -0.004037487020761064
1680000000.0 0.04833715710521749 -0.009882297379198712
1700000000.0 -0.015478679128009591 -0.027693800084738086
1720000000.0 -0.013255722765959651 0.011589954128534915
1740000000.0 0.02173007971108626 -0.010181078229180315
1760000000.0 -0.04504252356433253 -0.00930763886756941
1780000000.0 0.017914418548837345 -0.0757902802629745
1800000000.0 0.035813121260150155 -0.10811250644220553
1820000000.0 -0.06788181290548713 -0.13223246199541605
1840000000.0 -0.18593102173055384 -0.017848623666565137
1860000000.0 -0.03543438339586468 -0.21501946027209637
1880000000.0 0.19000723677928508 0.16207627383926662
1900000000.0 -0.19150036467891574 -0.20739298342445267
1920000000.0 0.025159108828808213 0.30579834456470184
1940000000.0 0.2819938687618333 0.17563634302366882
1960000000.0 0.3441288062291499 -0.09270478872689795
1980000000.0 0.18775892037545686 -0.324689123330395
2000000000.0 0.25058358706892253 -0.3081573723178403
2020000000.0 0.003115034551948338 -0.41622872194654215
2040000000.0 -0.22889192903323924 -0.3662179331266094
2060000000.0 -0.4238150423869162 0.12153018671643848
2080000000.0 0.10161056783435213 0.4342718282426142
2100000000.0 0.44009595441012817 -0.051313834553865866
2120000000.0 -0.08884666359450538 -0.42388067376885513
2140000000.0 -0.4186503120819223 -0.0004729692182957808
2160000000.0 -0.37702470028054014 -0.12473603382509103
2180000000.0 -0.35927284737835175 0.10727840443224203
2200000000.0 -0.17349579170510143 0.3095395053732532
2220000000.0 -0.21085062983365963 0.26176929819492384
2240000000.0 -0.2703599106013055 0.1867165297365618
2260000000.0 -0.3196575727861872 -0.06842608528234356
2280000000.0 -0.282371164674064 -0.18142499611295373
2300000000.0 -0.3297299420171679 0.13087446138579262
2320000000.0 0.25857338414377784 0.2821784751269968
2340000000.0 0.10552173633277924 -0.4040562441876511
2360000000.0 -0.22543590874613695 0.4008707923413537
2380000000.0 0.2389359178103147 -0.44832956338611096
2400000000.0 -0.11163462496090586 0.5473172050685299
2420000000.0 -0.16747438492759564 -0.5860756083234543
2440000000.0 0.48524427268394726 0.445578796940774
2460000000.0 -0.6958665435871793 -0.07946690176198132
2480000000.0 0.7043537975065154 -0.20515266881302882
2500000000.0 -0.7402020781055534 0.15801976700554873
2520000000.0 0.7670573493811886 -0.06337102294692618
2540000000.0 -0.7323345300970362 -0.24669533673686128
2560000000.0 0.40944213930757983 0.6511285042667337
2580000000.0 0.15312019784580322 -0.7395542489059708
2600000000.0 -0.6447941714664353 0.34681495448917476
2620000000.0 0.6805038223826256 0.17017236808224717
2640000000.0 0.6201045189662185 -0.23581907297752372
2660000000.0 -0.5887998387339589 -0.18270301018794582
2680000000.0 0.2907679761401774 0.48770142009183637
2700000000.0 0.1252812985510128 -0.5016926292524532
2720000000.0 -0.41224807519590095 0.2229085136229694
2740000000.0 0.35870894798900155 0.22758598943771638
2760000000.0 -0.20595240090414002 -0.329170183935021
2780000000.0 0.19075705832193318 0.30654152777085936
2800000000.0 -0.32710634458195975 -0.09378246079249988
2820000000.0 0.002687692271108013 -0.32716819057788504
2840000000.0 0.29930189789497624 -0.10437043501499668
2860000000.0 0.23139848122271206 0.20851662399875245
2880000000.0 -0.18856190789458643 0.24339679080458246
2900000000.0 -0.02007169532609586 -0.3030941176256503
2920000000.0 -0.20696860603249947 0.21742024642466382
2940000000.0 0.0022082913965893562 0.29919338581267513
2960000000.0 -0.04261916569264812 0.29786404595140686
2980000000.0 -0.3051274886843116 -0.02061792781445166
3000000000.0 0.0878732562527174 -0.2961973851569508
3020000000.0 0.2641707277463624 0.17192044758033834
3040000000.0 -0.2760161038985056 0.15647600746518048
3060000000.0 0.027383495358969476 -0.3179376252128455
3080000000.0 0.2011490348376884 0.24354346294314005
3100000000.0 -0.3066950765457415 -0.05593858422805021
3120000000.0 0.11270030933464019 -0.2836616746960647
3140000000.0 0.25811252798970935 0.1376567057277626
3160000000.0 -0.18707732610655542 0.2007575828046702
3180000000.0 0.18188061978601733 -0.1779352080328392
3200000000.0 0.18680236865609917 0.12509163119100106
3220000000.0 -0.18355903208626237 0.057311134556153054
3240000000.0 0.15949449963681647 -0.008157956777658931
3260000000.0 0.07355060915374972 -0.10297933542969293
3280000000.0 0.07026973657318206 0.07184170251414133
3300000000.0 0.02027189375859618 0.07639884689155572
3320000000.0 0.05876226448408657 0.011375107523790479
3340000000.0 -0.040007794187299175 0.012012378817159204
3360000000.0 -0.013026651402428304 -0.02168417687455685
3380000000.0 -0.004919898764593414 -0.014684617252706518
3400000000.0 -0.014253002329825556 -0.024253273496723463
3420000000.0 -0.014395181772461196 -0.04495705780034512
3440000000.0 -0.05911547670726692 0.01479771749078652
3460000000.0 0.03405606713075412 0.060600569246547276
3480000000.0 -0.07223851251233332 0.01624950556327952
3500000000.0 0.022687101256253537 0.07497834431887347
3520000000.0 -0.06253993943207688 -0.05696204427735954
3540000000.0 0.08742584864879792 -0.039674292681555784
3560000000.0 0.10934586967036546 -0.029568530540607776
3580000000.0 -0.1027161672988883 -0.08410435469658192
3600000000.0 -0.05374334948772089 -0.1463712410280732
3620000000.0 -0.04275246982063004 -0.16711506714974772
3640000000.0 -0.15430759391955193 -0.10731299503815624
3660000000.0 -0.1609191008099848 0.11442069976117512
3680000000.0 -0.03262906469049213 0.19618282584346639
3700000000.0 0.10096067195403864 0.16595269371335825
3720000000.0 -0.05229702556914455 0.17961985338672434
3740000000.0 -0.1753692662381027 0.023485555524940038
3760000000.0 -0.08792798363254453 0.14292575557784973
3780000000.0 0.07403484152619616 0.13961354970920536
3800000000.0 -0.05886301188829284 0.14420146655808078
3820000000.0 0.027751646195156247 0.1532214238710932
3840000000.0 0.12211100326677432 0.09735058605496003
3860000000.0 0.15674361817615526 -0.02791631066023472
3880000000.0 -0.15281423886687034 -0.04895423156833243
3900000000.0 0.09201491868403618 0.13112589756908719
3920000000.0 -0.05073949142149625 -0.14815052544671112
3940000000.0 -0.13324523680172679 0.08052412753083464
3960000000.0 0.15041379146513967 0.052463597025488015
3980000000.0 0.014741530827442294 0.16073571852722127
4000000000.0 -0.14638142922175393 -0.0670051946610539
