!Created with skrf (http://scikit-rf.org).
# Hz S RI R 50.0 
!freq ReS11 ImS11
400000000.0 -0.3438900108486413 0.8084274787523533
420000000.0 0.667633533411192 0.562558962188294
440000000.0 0.40372675347329706 -0.7419252408488547
460000000.0 -0.7530450331638702 -0.2744624971554773
480000000.0 -0.7155355744044588 -0.08059270783591556
500000000.0 0.19581092082325413 0.5260380239886127
520000000.0 0.4469481353996834 -0.14501322147173878
540000000.0 -0.22080107589239267 -0.3079842860678306
560000000.0 -0.24422959633366137 -0.2244571236727253
580000000.0 0.27388880539691746 0.1421078633845608
600000000.0 0.20938354050097344 -0.23031305247401554
620000000.0 -0.32037395098043825 0.0269079675926626
640000000.0 -0.3474179821026425 0.036725198420881164
660000000.0 -0.3559137171262481 0.10721021616381134
680000000.0 0.34091829679690705 -0.21734297938855593
700000000.0 -0.2672219312147717 -0.3286036611972834
720000000.0 -0.40097311871427244 0.1747240151719166
740000000.0 -0.39341357540142785 -0.201308396308388
760000000.0 0.25304493597381605 0.3487696049830308
780000000.0 -0.13396014425994124 0.3826983332606303
800000000.0 -0.3187041399518828 -0.19832931294105793
820000000.0 -0.3017362913027091 0.11062983790904057
840000000.0 -0.2080135960100861 -0.16965006885726594
860000000.0 -0.16971582555746295 0.12717768874601354
880000000.0 -0.10331314922910188 -0.11910209578807333
900000000.0 -0.07980484341551798 0.044507113333946725
920000000.0 0.027558439864226868 0.04790776948002881
940000000.0 0.015895362025910627 -0.039402559711761674
960000000.0 -0.049241901566965264 -0.023343737119699462
980000000.0 -0.017939318778004625 0.06363978712553911
1000000000.0 -0.07504444288909558 0.003351167957175608
1020000000.0 0.08499824404646344 0.006387752022596449
1040000000.0 -0.09139138379149048 0.03191258358631164
1060000000.0 0.01474755492616515 0.13151827912372796
1080000000.0 -0.12469120223231635 -0.07981810104465094
1100000000.0 -0.11383798471744981 -0.12625812466525463
1120000000.0 -0.18064407757451229 -0.06323522493673872
1140000000.0 -0.20416881799815084 -0.10633673991326337
1160000000.0 -0.23988834790128005 0.11626243253082004
1180000000.0 -0.30938115110652015 -0.02092832482443841
1200000000.0 -0.18386767083635386 -0.2876721524322181
1220000000.0 0.37144283515769605 -0.06785027696736402
1240000000.0 -0.3411934770424085 0.21758740960875783
1260000000.0 0.21780148270809113 -0.3724761250231169
1280000000.0 -0.3930455907054675 0.21133342925083107
1300000000.0 0.38031717147999833 -0.2464069813176315
1320000000.0 -0.18495733579678586 -0.41047269421806976
1340000000.0 -0.4073828906405051 -0.16329101035184485
1360000000.0 -0.19846362779285184 -0.38574916990916636
1380000000.0 -0.3354165255715734 -0.2645189506309295
1400000000.0 -0.3280851346161395 0.2548843386154772
1420000000.0 0.057616039068066095 0.3927227483741735
1440000000.0 0.35773228872456797 0.09188267858762979
1460000000.0 0.307914476739069 -0.14252131356642472
1480000000.0 0.160940344014105 -0.2647414970197109
1500000000.0 0.1389494929110309 -0.24510251199330335
1520000000.0 -0.2516372187609815 -0.058524108237812414
1540000000.0 -0.08594881421731744 0.21898206779937007
1560000000.0 -0.2073311722075314 -0.020716933171921477
1580000000.0 -0.16710915565125856 -0.08069623628968343
1600000000.0 0.09275653999337612 0.11890741607989141
1620000000.0 0.05755191587165657 -0.10683756073510008
1640000000.0 -0.013845845785064887 -0.09431697410937752
1660000000.0 -0.04349788674298724 0.058670330106465045
1680000000.0 0.00739276322295464 -0.04970602788182962
1700000000.0 -0.013739293859785048 -0.03007797003652696
1720000000.0 0.010128135232075054 0.01550412436208887
1740000000.0 0.002646450644346701 0.022331936867321055
1760000000.0 -0.043965117375217334 0.0026558461618411402
1780000000.0 -0.06763813558878634 -0.03749537839635282
1800000000.0 -0.06478702483578212 -0.09441922002735313
1820000000.0 -0.12913447341219444 -0.07478540137783511
1840000000.0 -0.17866417724914754 0.05599545776299829
1860000000.0 -0.09512880854742467 -0.19673373544755018
1880000000.0 0.20570752670464995 0.14181730142778992
1900000000.0 -0.20519498435228778 -0.19482437362236857
1920000000.0 0.019467523616354475 0.30715251329861365
1940000000.0 0.2706417400769907 0.19328172332825816
1960000000.0 0.3550063583568777 -0.032479335086545665
1980000000.0 0.23525986492523834 -0.2917406471346542
2000000000.0 0.30999404587885915 -0.24779425748900027
2020000000.0 0.062414672189227416 -0.41084452177264696
2040000000.0 -0.17318888988328496 -0.3946071713278706
2060000000.0 -0.4349185370788995 0.06357565669610347
2080000000.0 0.04991145846731172 0.44159556724309273
2100000000.0 0.43790020840649063 -0.053749020003281134
2120000000.0 -0.07959200244625633 -0.4235271587385581
2140000000.0 -0.4052348035425313 0.09489188978482724
2160000000.0 -0.3919006591447611 -0.05161268081542533
2180000000.0 -0.3205258574820855 0.19082487724131447
2200000000.0 -0.09866375939971131 0.33921381754956065
2220000000.0 -0.1386572796522472 0.30483891208478553
2240000000.0 -0.2072940880808776 0.2532534387449497
2260000000.0 -0.3257813153138665 0.01440933724229198
2280000000.0 -0.31278774056858827 -0.12190850891397619
2300000000.0 -0.3107946753242477 0.1708416797998228
2320000000.0 0.23227964711923463 0.30322848850149725
2340000000.0 0.15133550859259892 -0.38864886647252184
2360000000.0 -0.26942063342387496 0.3722717161406682
2380000000.0 0.30336248197036764 -0.4064980576517096
2400000000.0 -0.2232467278043355 0.5108194175271171
2420000000.0 -0.03512106206507144 -0.6071760733173548
2440000000.0 0.35385976668285046 0.5537283706736866
2460000000.0 -0.6622596010107261 -0.22174527683537346
2480000000.0 0.7312331107789535 -0.033623081746999885
2500000000.0 -0.7483288825899651 0.09801286864115936
2520000000.0 0.7678973653190158 0.019150184755426427
2540000000.0 -0.6884985521040928 -0.3501693625708056
2560000000.0 0.38168459503286456 0.6665300647699935
2580000000.0 0.25328896402849244 -0.7108610896113253
2600000000.0 -0.6587102634284591 0.3190000090988303
2620000000.0 0.6679068592790146 0.2153249029853565
2640000000.0 0.5978663043168277 -0.2899117540660207
2660000000.0 -0.5907914159109459 -0.18293967977577863
2680000000.0 0.2591376046009452 0.5070795432167663
2700000000.0 0.145066366364095 -0.4988600933714822
2720000000.0 -0.421767831409981 0.2084798733961746
2740000000.0 0.3616828489456194 0.22594527050669314
2760000000.0 -0.19027309237380585 -0.33981378611726526
2780000000.0 0.18179541581739606 0.31312806668488036
2800000000.0 -0.31590294233445604 -0.1288640128808241
2820000000.0 0.05426905510269986 -0.32310627084021687
2840000000.0 0.3120571369015862 -0.055865619346503956
2860000000.0 0.14942082754609978 0.27348339712312125
2880000000.0 -0.2246754453321669 0.20963142339190943
2900000000.0 0.014537371035757581 -0.3031780307674515
2920000000.0 -0.2258456945660101 0.19770257566187502
2940000000.0 -0.030861230712433504 0.2974424467368556
2960000000.0 -0.050531755514395614 0.2957082234494591
2980000000.0 -0.2997653738950835 0.05546849471003938
3000000000.0 -0.006314801569958239 -0.3084792044353362
3020000000.0 0.3076936830379872 0.06536968523847415
3040000000.0 -0.19288626428272201 0.2507176291684662
3060000000.0 -0.036287786299759144 -0.31580522704437347
3080000000.0 0.2563462273496349 0.1829158729679776
3100000000.0 -0.30994626742490733 0.02369324882280065
3120000000.0 0.052842991142708205 -0.30068946097246974
3140000000.0 0.28842859923952197 0.04982853379000631
3160000000.0 -0.215837146929814 -0.17157859342094806
3180000000.0 0.12069651235999937 -0.22508648390304228
3200000000.0 0.20198881259951051 0.10172965035526474
3220000000.0 -0.16857696932203875 0.09523671748935812
3240000000.0 0.15585810128965838 -0.039462878305936984
3260000000.0 0.06477571465290106 -0.11033967702263288
3280000000.0 0.08334540420863135 0.05893399286727015
3300000000.0 0.03833049389249899 0.07036787022200812
3320000000.0 0.036892655607523375 0.048037494830060166
3340000000.0 -0.04285455708278147 -0.0038225491450521293
3360000000.0 0.017196514472554984 0.018547200300467765
3380000000.0 0.0029918717112592274 0.01404641621044179
3400000000.0 -0.01281775372087889 0.023456181598887894
3420000000.0 -0.043797684158530956 0.014390347647436567
3440000000.0 0.0468851711542645 0.03800332688898672
3460000000.0 0.05401106669770181 -0.043601148131630255
3480000000.0 0.031777582684384756 0.06738703339539434
3500000000.0 0.07677088623402203 -0.018318483478890018
3520000000.0 -0.07914153612930824 -0.028342000308232404
3540000000.0 0.0032309708189314974 -0.09655448823221256
3560000000.0 0.07729235574895832 -0.0822105732881059
3580000000.0 -0.1296514946658998 -0.02898855944161008
3600000000.0 -0.10084298688794806 -0.12000557544551345
3620000000.0 -0.14239130617516835 -0.09958359074241072
3640000000.0 -0.18750629990270348 -0.02187194928372361
3660000000.0 -0.08975624005375298 0.1779290835269399
3680000000.0 0.07033016433782498 0.1888037494908269
3700000000.0 0.15532761794180752 0.12140645743098484
3720000000.0 0.00636879898770577 0.18910257007004214
3740000000.0 -0.17031138886640193 0.05148683663348965
3760000000.0 -0.06153195142268024 0.15711808688819076
3780000000.0 0.10864694773854476 0.11557603999476482
3800000000.0 -0.01689083259197007 0.156458771362852
3820000000.0 0.024685177576747618 0.15548140749052475
3840000000.0 0.128954292061899 0.09148953866776487
3860000000.0 0.15830399776143667 -0.03199967049106984
3880000000.0 -0.15999181111495192 -0.03128261828724685
3900000000.0 0.09251490026566386 0.13300245207105818
3920000000.0 -0.07369132873750316 -0.1404997684630982
3940000000.0 -0.09141977758414854 0.12803243299764372
3960000000.0 0.16069319132842713 -0.009028938849149452
3980000000.0 0.05331082646467058 0.15391460204177898
4000000000.0 -0.16205559218626878 -0.006988358051597562
