!Created with skrf (http://scikit-rf.org).
# Hz S RI R 50.0 
!freq ReS11 ImS11
400000000.0 -0.36601327938357214 0.7965883813050757
420000000.0 0.686495185548467 0.5381291784035935
440000000.0 0.38690049893298645 -0.7513413094787331
460000000.0 -0.7386546235087948 -0.31370772692578464
480000000.0 -0.7157094540735967 -0.08658304826561015
500000000.0 0.20447495611277686 0.5237773781006918
520000000.0 0.44407279505687325 -0.15660832902000202
540000000.0 -0.2941598714489606 -0.24042472559180006
560000000.0 -0.2929235305184565 -0.1572595814906642
580000000.0 0.2977170444973645 0.0788241632670455
600000000.0 0.16317457497497925 -0.26499610017648606
620000000.0 -0.3164281089943335 0.050837367254526304
640000000.0 -0.34558562080760763 0.04548943146864021
660000000.0 -0.3397427872408944 0.1489734011362154
680000000.0 0.33065816019315447 -0.23096809609606597
700000000.0 -0.27920686471828227 -0.31716343502983274
720000000.0 -0.402465895830237 0.16929810525230768
740000000.0 -0.3703473749453642 -0.24031715983112417
760000000.0 0.2003619666241339 0.38147687406707625
780000000.0 -0.19252034076855634 0.3571191715750567
800000000.0 -0.2754663470561242 -0.2560324024425109
820000000.0 -0.31684693163776473 0.05723793016117259
840000000.0 -0.17851231673792137 -0.2018211102081013
860000000.0 -0.1687865343560664 0.1294733993741279
880000000.0 -0.13561915177051068 -0.08054864414230993
900000000.0 -0.06693008850364486 0.062066583194813646
920000000.0 0.022275024641158766 0.051308337311554555
940000000.0 0.030473696001225854 -0.030670953305130456
960000000.0 -0.0165282589012205 -0.052611692782629504
980000000.0 -0.026207916207851213 0.061350342029764415
1000000000.0 -0.07313799548263528 0.018333149273758103
1020000000.0 0.07926745955362481 -0.03225510241465655
1040000000.0 -0.0752851835814841 0.06111242314503539
1060000000.0 0.04721966050783653 0.12385107665868025
1080000000.0 -0.14405938457563977 -0.036534284480008734
1100000000.0 -0.14366331951500674 -0.09152146832414901
1120000000.0 -0.19133413756310766 0.0011537053559051065
1140000000.0 -0.2162364473227818 -0.07958244162072453
1160000000.0 -0.22694393609013822 0.1395944599089318
1180000000.0 -0.31028211594337834 0.006600901008374803
1200000000.0 -0.225482515634407 -0.25721240365018044
1220000000.0 0.36235575102817413 -0.10758865897683542
1240000000.0 -0.3322190095825986 0.23189189036531815
1260000000.0 0.21501875604510656 -0.3746024347600527
1280000000.0 -0.3853293949550789 0.227140730830759
1300000000.0 0.3741410650713032 -0.25755688844270813
1320000000.0 -0.21596802428222825 -0.3956325424016275
1340000000.0 -0.4173050343344295 -0.13792018537592057
1360000000.0 -0.22121077865590302 -0.3733065385597362
1380000000.0 -0.34670774960149925 -0.24937045078699757
1400000000.0 -0.30485470554692096 0.2822572731759465
1420000000.0 0.1172381810761907 0.37859361567937067
1440000000.0 0.36713226621187 0.033977435954656555
1460000000.0 0.2793994674853036 -0.1904733890531507
1480000000.0 0.04361215753725353 -0.30518773922300074
1500000000.0 0.09724926602883376 -0.2630384694843339
1520000000.0 -0.2556473928084704 -0.029068084130710232
1540000000.0 -0.06733741345484215 0.22466718025401838
1560000000.0 -0.20739478818284704 -0.015116814454469137
1580000000.0 -0.1549112482410425 -0.10205538124063801
1600000000.0 0.08130310099415207 0.12775677471155558
1620000000.0 0.052695148019159053 -0.10964022323681274
1640000000.0 -0.016879920926872204 -0.09450235590719981
1660000000.0 -0.06385621128927603 0.03693107977590099
1680000000.0 0.026163545233920914 -0.04301806536500897
1700000000.0 -0.007141662709203129 -0.03298940598988423
1720000000.0 0.010695433937484504 0.014494203109916604
1740000000.0 0.0037787196746358895 0.022602543569963468
1760000000.0 -0.04489896960278583 0.005385986707643882
1780000000.0 -0.026626110841479905 -0.07328302341340703
1800000000.0 -0.010895125086791298 -0.11394594741078422
1820000000.0 -0.10153694062473055 -0.11047609354649938
1840000000.0 -0.18782086996731082 0.0009340439509584763
1860000000.0 -0.04882818086499682 -0.21349106330147177
1880000000.0 0.18988843430693525 0.16287567865392547
1900000000.0 -0.17731424732433457 -0.2205103506617707
1920000000.0 0.003600628334377437 0.3076611708575679
1940000000.0 0.2785524556146613 0.18216397726400094
1960000000.0 0.34877747985227725 -0.07436584639544556
1980000000.0 0.19408458175385235 -0.3207441144986378
2000000000.0 0.2709448480152663 -0.2887871172472305
2020000000.0 -0.023620962810781642 -0.4142455133262532
2040000000.0 -0.18379712494191905 -0.38868934607789657
2060000000.0 -0.41986914051450325 0.12595540344714828
2080000000.0 0.05045580024850975 0.44128719003234423
2100000000.0 0.4411019776576122 -0.010593659824862637
2120000000.0 -0.03325146850309384 -0.4300212531578042
2140000000.0 -0.4158941101273826 0.037210174473580715
2160000000.0 -0.38786370199849773 -0.08096785072446594
2180000000.0 -0.3328599190100721 0.1709826977423079
2200000000.0 -0.08775613588469958 0.3437243827486142
2220000000.0 -0.12030231178733741 0.3129854396381174
2240000000.0 -0.18611762025154518 0.2701123789413109
2260000000.0 -0.3222779991251297 0.04826088080808163
2280000000.0 -0.3210656154472357 -0.09643061488166876
2300000000.0 -0.3105986771457606 0.16990334088143644
2320000000.0 0.23680324595273064 0.299767551046754
2340000000.0 0.1538350651606169 -0.3873264249324505
2360000000.0 -0.284284571115639 0.3609696434570731
2380000000.0 0.3237291247036649 -0.39052093889429035
2400000000.0 -0.23332708018691142 0.506142874658672
2420000000.0 -0.03861908249587844 -0.6066893185160065
2440000000.0 0.39348121037833633 0.5257683535182044
2460000000.0 -0.6650698592151308 -0.21174978239073095
2480000000.0 0.7271370503051247 -0.07709033346036899
2500000000.0 -0.7512715111391199 0.07096672795899023
2520000000.0 0.7682080079849127 0.0032984926253970684
2540000000.0 -0.724675503172596 -0.26525605720434453
2560000000.0 0.41993513487421996 0.6438230605490934
2580000000.0 0.2661475875004531 -0.7072740526867607
2600000000.0 -0.6350478510264447 0.36567211558408924
2620000000.0 0.6669558393431128 0.22100519286240392
2640000000.0 0.6201399399992524 -0.24209094530418346
2660000000.0 -0.5869776391578407 -0.19699020995402677
2680000000.0 0.28369463547952556 0.49528098505142254
2700000000.0 0.15893208135843187 -0.4953932669152258
2720000000.0 -0.42571283907533924 0.20071971668950084
2740000000.0 0.3347597061420844 0.2645375863487674
2760000000.0 -0.16274495515149995 -0.3536224165745997
2780000000.0 0.12905608599259777 0.3379460644146042
2800000000.0 -0.29184155051902555 -0.1755939682249528
2820000000.0 0.109528355336732 -0.30790878298092456
2840000000.0 0.316103658447739 -0.018951762430867
2860000000.0 0.1793769143746247 0.25427650885893166
2880000000.0 -0.21350294797005315 0.22160994733174255
2900000000.0 -0.05311232356971958 -0.2991470234678034
2920000000.0 -0.1376516002727291 0.26746094035472595
2940000000.0 0.10543904111508456 0.2810353690259535
2960000000.0 0.0529184792821108 0.29639092972145104
2980000000.0 -0.2908456036453161 0.09445010820064227
3000000000.0 -0.09435518525532433 -0.29338648775089293
3020000000.0 0.312468262184049 0.041659552838638134
3040000000.0 -0.21606360892216717 0.23204625659050365
3060000000.0 -0.0010979332051594762 -0.3190281531141997
3080000000.0 0.24975298689390105 0.19340659161912152
3100000000.0 -0.3113137663298613 0.019167937998240674
3120000000.0 0.0982642894653209 -0.2903905644655296
3140000000.0 0.26893522874578085 0.11934573707176047
3160000000.0 -0.1728061784240448 0.21545631602734647
3180000000.0 0.1879045222272312 -0.174165606228554
3200000000.0 0.1908098732550459 0.12210136240946544
3220000000.0 -0.17374828831383407 0.08756243680460314
3240000000.0 0.15092305851728302 -0.05588517107451072
3260000000.0 0.053965140363681996 -0.11602283035838885
3280000000.0 0.051883366440345295 0.08765601906803715
3300000000.0 0.0048966009264025355 0.07979676067377059
3320000000.0 0.014994655579016589 0.05881835222297074
3340000000.0 0.02293642699704052 -0.03612276717524059
3360000000.0 0.00397893660615775 -0.02513223184270931
3380000000.0 0.010616222993021607 -0.010162888961862671
3400000000.0 -0.02544872009148764 0.0014184338518818036
3420000000.0 -0.02846664752433257 -0.03518590343973941
3440000000.0 -0.02741140773404767 0.05292272601351395
3460000000.0 0.06889516968098822 0.01283085732561588
3480000000.0 -0.06459591844455229 0.03775171292709891
3500000000.0 0.07669756887417961 0.019577265258350508
3520000000.0 -0.08041755011211492 -0.02606243197853252
3540000000.0 -0.024207769500208923 -0.09389538844395648
3560000000.0 0.039515330379010054 -0.1055048753071267
3580000000.0 -0.13165702236809693 -0.014003659614719463
3600000000.0 -0.06402580027583306 -0.141933637655839
3620000000.0 -0.09886739724089473 -0.14213974593729461
3640000000.0 -0.16360939441466493 -0.09424392015163377
3660000000.0 -0.1407927175305755 0.1418065178663001
3680000000.0 0.017222115919103158 0.20103839790371836
3700000000.0 0.14845564822669086 0.13022570032026723
3720000000.0 0.005786113658824584 0.19085545239621357
3740000000.0 -0.16094643898437525 0.07898668903148244
3760000000.0 -0.029661175319958797 0.1657540639342114
3780000000.0 0.0924220586142956 0.12933849447229603
3800000000.0 -0.02824151529226925 0.1540368446368666
3820000000.0 -0.008881144501360383 0.156646610354698
3840000000.0 0.1009099047667429 0.11986514228488247
3860000000.0 0.13740368300212255 0.0842818092836057
3880000000.0 -0.11455734440070434 -0.11611187834189261
3900000000.0 0.05566273117369753 0.15296157319469947
3920000000.0 -0.011266828077271586 -0.15869073501154185
3940000000.0 -0.14220453746014455 0.06768497385326618
3960000000.0 0.15652505428091104 0.0361666244721944
3980000000.0 0.05151450589514277 0.15382938504317317
4000000000.0 -0.1419957405315893 -0.07392899598537814
