!Created with skrf (http://scikit-rf.org).
# Hz S RI R 50.0 
!freq ReS11 ImS11
400000000.0 -0.36983705406736794 0.7964227075362831
420000000.0 0.680323232575624 0.5469708761576313
440000000.0 0.45211931435513336 -0.7140877655462767
460000000.0 -0.7334080679894458 -0.32614848437618355
480000000.0 -0.7163489071195485 -0.07833832459663422
500000000.0 0.2054459252661451 0.5226690672147523
520000000.0 0.4426554921370114 -0.15922757397331894
540000000.0 -0.2671194019511707 -0.2688767217843308
560000000.0 -0.28270863983053207 -0.17412189191121832
580000000.0 0.2929197054418828 0.09657518965370716
600000000.0 0.18023391092663946 -0.2539058751823591
620000000.0 -0.3169969080731435 0.0518407383564285
640000000.0 -0.34762722809266244 0.02998038871159425
660000000.0 -0.3535038863315912 0.11450362585652278
680000000.0 0.33903996398306546 -0.21939797792342872
700000000.0 -0.25821536845770465 -0.33520753168156486
720000000.0 -0.4068853695709148 0.15905561491210995
740000000.0 -0.3821212042076722 -0.2201159121694902
760000000.0 0.22271959395192714 0.368406369240058
780000000.0 -0.1603660624104055 0.37255290704596533
800000000.0 -0.31185320410590117 -0.2088963005237255
820000000.0 -0.3041993631309263 0.10418979209834234
840000000.0 -0.21305614288446348 -0.1638100763733878
860000000.0 -0.17063580271827908 0.12697662475433458
880000000.0 -0.11367422283272828 -0.11011947256482651
900000000.0 -0.08304767581428704 0.03962663355016981
920000000.0 0.003473964365394219 0.05568815761849799
940000000.0 0.03696565046553335 -0.021646429914826976
960000000.0 -0.036444223048058416 -0.04102428585603507
980000000.0 -0.01899587584748326 0.06374989546793408
1000000000.0 -0.07390377081436289 0.01623318008962468
1020000000.0 0.07844771623997958 -0.03441622545093197
1040000000.0 -0.08307805796711186 0.050024080004967914
1060000000.0 0.02670885929205288 0.12997179327472627
1080000000.0 -0.13573566911469304 -0.060361738710862124
1100000000.0 -0.12036737302428183 -0.12036246599800145
1120000000.0 -0.18609734991950008 -0.045326123719035306
1140000000.0 -0.20066990130195075 -0.11294548715909647
1160000000.0 -0.2512979387057904 0.08888954354071739
1180000000.0 -0.3046167399038789 -0.05864131770452009
1200000000.0 -0.14150788882871668 -0.31077187601450007
1220000000.0 0.37748134827214874 -0.014521012304751313
1240000000.0 -0.3689466683834806 0.16703138536504591
1260000000.0 0.2671221922602624 -0.33943252348836606
1280000000.0 -0.41638701374962794 0.1620598141536877
1300000000.0 0.38621274287014346 -0.23815625903495938
1320000000.0 -0.1630529884258988 -0.4195891362810111
1340000000.0 -0.40007940443516443 -0.18013433044857513
1360000000.0 -0.18355216665437202 -0.3924865537259633
1380000000.0 -0.3113103475576675 -0.2918158981080061
1400000000.0 -0.337523343530517 0.24135429221852375
1420000000.0 0.044174527830711886 0.39394149608924456
1440000000.0 0.3567879243260371 0.09338864563091884
1460000000.0 0.3089924299091355 -0.13807481060078047
1480000000.0 0.15340185151942826 -0.2682620786539226
1500000000.0 0.12950591806813883 -0.24925791416357865
1520000000.0 -0.2510417706672256 -0.057692509204472796
1540000000.0 -0.07872234445547469 0.22121685302059796
1560000000.0 -0.20458272444942574 -0.038035689922912404
1580000000.0 -0.15864337557365366 -0.09616734050198951
1600000000.0 0.08567626125797728 0.12454298649516257
1620000000.0 0.06643770134321239 -0.10175235923692928
1640000000.0 -0.011942147590633036 -0.0949014484873415
1660000000.0 -0.05011476949848245 0.05391689042588166
1680000000.0 0.017854614392715032 -0.04689082951526545
1700000000.0 -0.005747555071450135 -0.03260748856832802
1720000000.0 0.013851601869904933 0.011812404490408093
1740000000.0 -0.014362264528121218 0.017881963677169037
1760000000.0 -0.04200273377513234 0.014264832758225104
1780000000.0 -0.06045637234785068 -0.04878025704971212
1800000000.0 -0.03567550374679375 -0.10890060634218313
1820000000.0 -0.11475077849820606 -0.09575983218691576
1840000000.0 -0.18628532355727037 0.019645423537551634
1860000000.0 -0.07394218706972912 -0.205744737082339
1880000000.0 0.20356501442246572 0.14466442678022814
1900000000.0 -0.19523622695919152 -0.20459313661425513
1920000000.0 0.019456620362415626 0.30704108965859817
1940000000.0 0.27698866092889907 0.18383195586352638
1960000000.0 0.3500158854216811 -0.0661805711685919
1980000000.0 0.19465593269051612 -0.319918725150446
2000000000.0 0.27711925367458007 -0.283432533374255
2020000000.0 -0.004390658994246115 -0.41530970277342677
2040000000.0 -0.17862336265292353 -0.3919479187657506
2060000000.0 -0.425918182452311 0.10724273104353231
2080000000.0 0.09396915289097567 0.43444264437304325
2100000000.0 0.4370371771144112 -0.06339616808896717
2120000000.0 -0.05116767503139007 -0.42849027931622646
2140000000.0 -0.41417291386636995 0.04963390269499973
2160000000.0 -0.38751488146651064 -0.08224286263375383
2180000000.0 -0.3388420648377457 0.1575760380007732
2200000000.0 -0.11233193330989594 0.33587266581256947
2220000000.0 -0.1779565243865938 0.284299890408664
2240000000.0 -0.20992744097159266 0.2510640146048439
2260000000.0 -0.32542187042761006 0.015167689525257173
2280000000.0 -0.3123645517670977 -0.121546272968907
2300000000.0 -0.3212754556887219 0.14818418096456362
2320000000.0 0.2241300400824748 0.3085432227692599
2340000000.0 0.1735821415665126 -0.37826067257961865
2360000000.0 -0.27755149984792093 0.36529725283099385
2380000000.0 0.31089509416799777 -0.400165595079448
2400000000.0 -0.2342730695502671 0.5054309831170046
2420000000.0 -0.03908574143184948 -0.6067920457350002
2440000000.0 0.3676721585028844 0.5444491165095936
2460000000.0 -0.6580347050425869 -0.2343457462125124
2480000000.0 0.7314937282323215 -0.03266175087142234
2500000000.0 -0.7518746279340766 0.07019872314060294
2520000000.0 0.7671202256014321 0.049338160999756596
2540000000.0 -0.6746887808328499 -0.3770802506270859
2560000000.0 0.3360504516010812 0.691354995536529
2580000000.0 0.33841588871751843 -0.6753755159255099
2600000000.0 -0.6878416883599611 0.2526531421587313
2620000000.0 0.6624511517322352 0.23418107570852123
2640000000.0 0.6273264783489875 -0.2213590888065076
2660000000.0 -0.5647400654319125 -0.2534842619110203
2680000000.0 0.23115327022173338 0.5211549946570296
2700000000.0 0.18811869930347347 -0.4849228905668847
2720000000.0 -0.4442794741413776 0.155948111450483
2740000000.0 0.35169442362675835 0.24192901933423772
2760000000.0 -0.1681887190612429 -0.35148863288894466
2780000000.0 0.16816665054416718 0.32084557807593245
2800000000.0 -0.31208581832618765 -0.1380188256150997
2820000000.0 0.07152224683934856 -0.31981627977197175
2840000000.0 0.3142614738689697 -0.045554839498330134
2860000000.0 0.16883841387972195 0.2622786689618118
2880000000.0 -0.22509705764511542 0.21052411644519956
2900000000.0 0.0041491442820551375 -0.3046033261996253
2920000000.0 -0.23006433068382995 0.19532386185811637
2940000000.0 0.002896326079838617 0.3003440396404032
2960000000.0 -0.010529475525197902 0.30094767861612254
2980000000.0 -0.29267091252047267 0.08871788197129146
3000000000.0 -0.03332903869811099 -0.30724663294909615
3020000000.0 0.3109174552313832 0.0544112813133417
3040000000.0 -0.2160524533616776 0.23221141333155904
3060000000.0 0.0010196193175982125 -0.3189973919145886
3080000000.0 0.2422690915439673 0.20277044542891673
3100000000.0 -0.31121124162868125 0.0204541106777021
3120000000.0 0.09977698977431372 -0.2895695267860761
3140000000.0 0.27030149105198537 0.11465655839873631
3160000000.0 -0.16710451011227334 -0.21993405156921533
3180000000.0 0.18504713745844556 -0.176439569995677
3200000000.0 0.1739618101002938 0.14504147021645633
3220000000.0 -0.18545812458145997 0.057208433518727765
3240000000.0 0.15943190308223895 -0.019032100014914007
3260000000.0 0.0725468752694029 -0.10478347792170009
3280000000.0 0.04924354948985801 0.08902381495250723
3300000000.0 0.030798276675326187 0.07306925836104969
3320000000.0 0.02786964977527247 0.05289773960513143
3340000000.0 -0.019475119431740014 -0.037422281522961336
3360000000.0 -0.0027750243946515264 0.024618970967135924
3380000000.0 0.011025237699472482 0.010192742857963837
3400000000.0 -0.006571511687064474 0.026360314806269474
3420000000.0 -0.03746155341945163 -0.027774219185394036
3440000000.0 -0.03361651007808947 0.05038030329315535
3460000000.0 0.07008713800225484 0.004130051373059427
3480000000.0 -0.032205491459536 0.06795238056730027
3500000000.0 0.07853504469995984 0.015028743507221567
3520000000.0 -0.07471732802053116 -0.04077634497915189
3540000000.0 0.02101613503629811 -0.09478934353695648
3560000000.0 0.08452072877915244 -0.0755936074159443
3580000000.0 -0.13013279054099938 -0.029656188033158223
3600000000.0 -0.050405067525415514 -0.14820219871233173
3620000000.0 -0.11083241019320879 -0.1342619625940903
3640000000.0 -0.1767628595103704 -0.06818273366284547
3660000000.0 -0.14524225341731353 0.1371530310125295
3680000000.0 -0.004818115463491344 0.20135530903297116
3700000000.0 0.11706737070679804 0.1588991514258638
3720000000.0 -0.04315562137561923 0.18432946876563452
3740000000.0 -0.1730546451413838 0.04052641995253199
3760000000.0 -0.07656607718937168 0.1493049050679874
3780000000.0 0.07221560175915757 0.14044875557274583
3800000000.0 -0.0572786775285312 0.14529330858520212
3820000000.0 -0.022815437059492977 0.15482454955791278
3840000000.0 0.08995432848318488 0.12882777924217892
3860000000.0 0.1526971086136739 0.04939579873146948
3880000000.0 -0.14722118165369036 -0.06772881788843824
3900000000.0 0.051041130526574 0.15317532519781868
3920000000.0 -0.0680428118639298 -0.14253046694394642
3940000000.0 -0.09577837662766304 0.12368360963100895
3960000000.0 0.15744799504473514 -0.025465607420382293
3980000000.0 0.06582598982426947 0.14715647809290067
4000000000.0 -0.159301438824613 -0.017954975709609626
