!Created with skrf (http://scikit-rf.org).
# Hz S RI R 50.0 
!freq ReS11 ImS11
400000000.0 -0.3800902188640243 0.7919589764088366
420000000.0 0.6721359014979958 0.556847211255325
440000000.0 0.415855965306874 -0.7359866995850208
460000000.0 -0.723664505063033 -0.34672287199793456
480000000.0 -0.7052236704027371 -0.14718801533689904
500000000.0 0.1489905910263329 0.5412690158116213
520000000.0 0.44408521592543865 -0.15344992624928971
540000000.0 -0.2645560867923197 -0.27106045034708715
560000000.0 -0.24457289556163012 -0.22404331624189244
580000000.0 0.2748793495885266 0.13876256031643203
600000000.0 0.22750016085465122 -0.2132806383609437
620000000.0 -0.3218031871176149 -0.010718316285691717
640000000.0 -0.34920458989860514 -0.032352312085481796
660000000.0 -0.36388707580160295 0.07983546266686445
680000000.0 0.329199147665303 -0.23565864160750571
700000000.0 -0.28415347480091296 -0.31480031591404356
720000000.0 -0.38936422702523915 0.2004777851026083
740000000.0 -0.40365735923298823 -0.18104962382557052
760000000.0 0.24138431165348567 0.3567865037868759
780000000.0 -0.12073028538859733 0.3861194225522244
800000000.0 -0.3383633661620421 -0.16045891376202984
820000000.0 -0.2780565924942139 0.1588804479965464
840000000.0 -0.21971140437611497 -0.15302507973448987
860000000.0 -0.18756495178009772 0.09687206725551428
880000000.0 -0.0900573798718129 -0.12809156522108217
900000000.0 -0.08770238784896489 0.023627242614383613
920000000.0 -0.004936617407402849 0.05463421955334143
940000000.0 0.03524648297789162 -0.0224983216992844
960000000.0 -0.04534627938912276 -0.02724483041271911
980000000.0 0.013709287414238071 0.06347505683110834
1000000000.0 -0.06253408601984435 0.04050342539098189
1020000000.0 0.08422159295513154 -0.011257150287551315
1040000000.0 -0.07649314865136926 0.0591860521651698
1060000000.0 0.032193113380610955 0.12812069601762055
1080000000.0 -0.1289037381814116 -0.07274497240954471
1100000000.0 -0.10054302871958581 -0.13735982275599526
1120000000.0 -0.17551520374165383 -0.07838237886393107
1140000000.0 -0.1780124156582971 -0.14841627900136203
1160000000.0 -0.25838483908635773 0.0700982258688874
1180000000.0 -0.3079793271143709 -0.04757146696163825
1200000000.0 -0.2067036597266669 -0.27341141859651436
1220000000.0 0.3622788803892214 -0.10861288826183169
1240000000.0 -0.3138804090917893 0.2558296512371451
1260000000.0 0.19675119077666536 -0.3834667506867762
1280000000.0 -0.3676336407509017 0.25186230060509884
1300000000.0 0.3535276803244692 -0.2825481170558317
1320000000.0 -0.22556857697586438 -0.38867035541333833
1340000000.0 -0.4127112845729062 -0.14749834549695998
1360000000.0 -0.20926063976262926 -0.3795704987349302
1380000000.0 -0.34689093442957813 -0.24944922667027827
1400000000.0 -0.30549854413242267 0.2816970745162484
1420000000.0 0.12315027086431964 0.3773465405914222
1440000000.0 0.3686897293158804 0.026303008942985574
1460000000.0 0.2823817758922529 -0.1873980303433794
1480000000.0 0.10724130233117025 -0.290451023580681
1500000000.0 0.15427465453697306 -0.23592675204195776
1520000000.0 -0.24133874204407105 -0.09219739355370425
1540000000.0 -0.09476797693356054 0.21613270464801365
1560000000.0 -0.2049236102973694 -0.04290610749171803
1580000000.0 -0.15434430337220406 -0.10467428056477514
1600000000.0 0.11378377037858856 0.09984340998657298
1620000000.0 0.058149193716580415 -0.10683777736007871
1640000000.0 -0.04420371618999596 -0.08491502255154057
1660000000.0 -0.03814515302153341 0.062285565167284535
1680000000.0 -0.04025470318995069 -0.029520682794976022
1700000000.0 -0.03251966266964149 0.004500676224593028
1720000000.0 -0.008467259488011402 -0.016598817081826537
1740000000.0 0.019892496466447293 0.012781980628932887
1760000000.0 -0.04485145686290919 -0.0047064564996956056
1780000000.0 -0.03008805858877038 -0.0713154941387191
1800000000.0 -0.0312445356999816 -0.10943352275478124
1820000000.0 -0.11278548428195738 -0.09655964286970288
1840000000.0 -0.18194301297150867 0.041692437803908966
1860000000.0 -0.08432839444883214 -0.20076753189981847
1880000000.0 0.20924524147989254 0.13549384369246661
1900000000.0 -0.18843004689020884 -0.20949993438708636
1920000000.0 0.013258120966589869 0.3061418597021157
1940000000.0 0.26701200217950505 0.19638886597686486
1960000000.0 0.35485353904943634 -0.026776401844051008
1980000000.0 0.24008781329994708 -0.28755904031046187
2000000000.0 0.3139350887847349 -0.24276137537342396
2020000000.0 0.07741340544412462 -0.4090139077191377
2040000000.0 -0.18268536560171206 -0.390634878749248
2060000000.0 -0.4255125190263284 0.11309864424819811
2080000000.0 0.08807605109665459 0.4364492454172166
2100000000.0 0.43199999449327503 -0.09347763220368915
2120000000.0 -0.0974692778990813 -0.4206953354566549
2140000000.0 -0.4128099467209504 0.055333208131272085
2160000000.0 -0.3809229223710487 -0.1046311690493574
2180000000.0 -0.3627338623076781 0.08656874965260815
2200000000.0 -0.14121375376177503 0.32390409150289506
2220000000.0 -0.23928964460216426 0.23501897269030286
2240000000.0 -0.2651627994049342 0.19272857294051085
2260000000.0 -0.3172377883786912 -0.07564970792119152
2280000000.0 -0.27747273843391357 -0.1886008134258884
2300000000.0 -0.3432688427159396 0.0878623944847701
2320000000.0 0.2094045885547186 0.31915089724421125
2340000000.0 0.17796144245618573 -0.3765880732581165
2360000000.0 -0.30420582520891604 0.3434076230616648
2380000000.0 0.35210308783447364 -0.3637078416817782
2400000000.0 -0.2977830121765502 0.46951210776713226
2420000000.0 0.04728378098367649 -0.6048951408726599
2440000000.0 0.3008189762743753 0.5827344578409858
2460000000.0 -0.6187741720539255 -0.32270602130523773
2480000000.0 0.7289304361388116 0.06562376941538617
2500000000.0 -0.7544633564823795 -0.03636763553509111
2520000000.0 0.7562272034212826 0.13814625274775214
2540000000.0 -0.6286266273199596 -0.4501272343098888
2560000000.0 0.27456338943408476 0.7191585214046856
2580000000.0 0.39081186429840714 -0.648274911288562
2600000000.0 -0.7061130726656282 0.20180770023842767
2620000000.0 0.5906642780772487 0.3849044019223204
2640000000.0 0.6595061947688468 -0.1048950761140381
2660000000.0 -0.5380467530653655 -0.3115722725620685
2680000000.0 0.16405487969253899 0.5492437366746367
2700000000.0 0.2245097955737704 -0.4727384255419388
2720000000.0 -0.4461639613553088 0.1617340363558022
2740000000.0 0.33376221518112015 0.27220332274156783
2760000000.0 -0.14573837920761443 -0.3652285530667356
2780000000.0 0.12902502179155967 0.3418375019773475
2800000000.0 -0.30693943082880176 -0.1550161029352633
2820000000.0 0.06620300930717721 -0.32291433909765005
2840000000.0 0.3162854904113727 -0.0373347473693644
2860000000.0 0.13755656200060387 0.2809301462913308
2880000000.0 -0.25295610243312383 0.1748398783367576
2900000000.0 0.045232009078846995 -0.30044960278375843
2920000000.0 -0.25615360030042744 0.15639725422674
2940000000.0 -0.06557374017900398 0.2925523294730947
2960000000.0 -0.09566204458411129 0.285712708387074
2980000000.0 -0.30598517787895474 0.011243492768397163
3000000000.0 0.009969760412554273 -0.3096617521496618
3020000000.0 0.31300602060316784 0.041694648750246706
3040000000.0 -0.1864935750587044 0.2572653765810987
3060000000.0 -0.0902565148818066 -0.30705790130566524
3080000000.0 0.2973238019693169 0.10798667821624666
3100000000.0 -0.30848765521505755 0.04367655398530769
3120000000.0 -0.011021617147017767 -0.30511074411212813
3140000000.0 0.29196549284049017 0.023363534803851747
3160000000.0 -0.20911426210031658 -0.17864438184151593
3180000000.0 0.1355212034828128 -0.2163397005514676
3200000000.0 0.20653712614958805 0.09108170598527407
3220000000.0 -0.18434570349028515 0.05824824123837001
3240000000.0 0.16065258123145412 -0.007289336232457174
3260000000.0 0.06570585207342476 -0.11028035620885701
3280000000.0 0.09587124442033401 0.0363443938007693
3300000000.0 0.08044502510520543 -0.006288291169965432
3320000000.0 0.03083905262235359 -0.053173389798866086
3340000000.0 0.04062357323221922 0.014266345314906002
3360000000.0 -0.008777855198505309 0.024476115264765154
3380000000.0 -0.013994061209380824 -0.009137875275957046
3400000000.0 -0.025025741780574328 -0.013600380592891854
3420000000.0 -0.02073372594917405 -0.0421497689594316
3440000000.0 -0.04357159805074311 0.04153190543667596
3460000000.0 0.060084521398560985 0.033102217014397396
3480000000.0 -0.051860191729364465 0.05176032234178757
3500000000.0 0.0008921314439381582 0.07792144274691051
3520000000.0 0.005236877489350617 -0.08430319099106663
3540000000.0 0.09274256214812837 -0.028272761981847923
3560000000.0 0.11334138075316329 0.009093168953357529
3580000000.0 -0.08883682411108411 -0.10059025548708762
3600000000.0 -0.020471308617773968 -0.1557683413409852
3620000000.0 -0.06518301030532507 -0.16068332114657777
3640000000.0 -0.16509074336262441 -0.09011193046922243
3660000000.0 -0.144302010775198 0.13617220709314326
3680000000.0 0.01942933297110726 0.19817186745018972
3700000000.0 0.0995797651024683 0.16763546110909347
3720000000.0 -0.06611696759581534 0.17542564541389694
3740000000.0 -0.16934823232036744 -0.04967509906399065
3760000000.0 -0.11765784843720031 0.11854991034369314
3780000000.0 -0.021391867087198452 0.15711189957112728
3800000000.0 -0.07600944061971134 0.13638771929085727
3820000000.0 0.012983239315904806 0.1559388259588785
3840000000.0 0.150361237167615 0.04195501210662605
3860000000.0 0.15481016723015636 -0.03748053734798082
3880000000.0 -0.15394278191576252 -0.046832057379248594
3900000000.0 0.06712808186540309 0.1449258306915997
3920000000.0 0.007975254225518773 -0.1560481700996689
3940000000.0 -0.1547047868268251 -0.0140517875001078
3960000000.0 0.14258195012413552 0.07083681642041043
3980000000.0 -0.013049521294216094 0.16212574798452958
4000000000.0 -0.13488622720052276 -0.09052097738980086
