! Created with skrf (http://scikit-rf.org).
# Hz S RI R 50.0 
!freq ReS11 ImS11
400000000.0 0.18658180897987917 0.8528436825973391
420000000.0 0.6767000140679242 0.5297894424680154
440000000.0 0.7837163457561444 -0.2575760344362703
460000000.0 0.17484399086685518 -0.7687798913714257
480000000.0 0.5734420461562267 -0.41389260153321217
500000000.0 0.31526262778490016 -0.4646984990959347
520000000.0 0.38373474032285615 -0.30057824096987995
540000000.0 0.36946932460481535 0.21969344162436089
560000000.0 -0.26231616436558314 -0.24066714265436112
580000000.0 -0.32421333995317264 0.0950275803371172
600000000.0 0.3322835079295863 0.029198130610226282
620000000.0 -0.20458705134698024 -0.28488209128442177
640000000.0 -0.3631093444300141 -0.1275947165348507
660000000.0 -0.31679151294648694 0.24425594612691595
680000000.0 -0.1619141211399815 -0.3965312103253377
700000000.0 0.26275160985730556 0.36350844548087596
720000000.0 -0.0017681553333867871 -0.4497463557191778
740000000.0 0.4099223878620347 -0.163591887681146
760000000.0 -0.39344968146709575 -0.1375836974407802
780000000.0 0.20675200082216175 -0.3251669647846305
800000000.0 0.13889200965898382 0.3210115033048118
820000000.0 0.16310458947635295 0.23659676262980334
840000000.0 0.1895895722887178 0.13419634457268542
860000000.0 0.07496357136206346 0.1831553912343282
880000000.0 -0.13520406210012267 0.0021782659811220685
900000000.0 -0.06774476798386866 -0.013605956357456943
920000000.0 0.025531988574650437 -0.027132158744948086
940000000.0 -0.020792167438078858 -0.023308215005236728
960000000.0 -0.039132060007724956 -0.01313743926341017
980000000.0 -0.04844938192211455 0.016808577870106617
1000000000.0 -0.055636150830718205 -0.01060211955758967
1020000000.0 -0.048237344502359614 -0.05312503568656789
1040000000.0 -0.03421610474620408 -0.07606987343345732
1060000000.0 0.08332068007155309 0.09019691961999375
1080000000.0 -0.021329020205116282 -0.13919353844228757
1100000000.0 -0.058183443594849 -0.15736640319839593
1120000000.0 -0.19327058950697965 0.045753848446125685
1140000000.0 0.23013283903042467 -0.07887826691379365
1160000000.0 0.13127081908540386 -0.2558331376424252
1180000000.0 -0.2609768035748036 -0.2031875266409869
1200000000.0 -0.35368081639242 -0.0972621215391276
1220000000.0 -0.0213082643273701 -0.39668334052637516
1240000000.0 0.4055504911629224 0.10494809271639219
1260000000.0 -0.4366478721960385 0.04860177840086278
1280000000.0 0.4377872125925339 -0.0977181690462014
1300000000.0 -0.4300485045134164 -0.12261384477019865
1320000000.0 -0.0763680657809624 0.42678807526740126
1340000000.0 -0.3660353217203392 0.20156253304818014
1360000000.0 -0.13637375077138655 -0.38325994143982856
1380000000.0 0.2750846684689611 -0.2994597115249798
1400000000.0 0.2561217924011812 -0.3029233202372806
1420000000.0 0.23709023631922477 -0.3065178468987568
1440000000.0 -0.023155934120253224 -0.37342463858997343
1460000000.0 -0.35033056780788824 -0.0730943773165911
1480000000.0 0.15569932019766056 0.3003808281126764
1500000000.0 -0.2363611872066658 -0.20336683087241744
1520000000.0 0.034184171007596555 0.2837782131549767
1540000000.0 0.09196285303374777 0.23705913696970932
1560000000.0 0.21168348242606644 0.02536000597907418
1580000000.0 0.12916771707656777 -0.12134503619763552
1600000000.0 0.03501006397978602 0.1390795407810484
1620000000.0 -0.06478438994495463 -0.07765221606363862
1640000000.0 -0.009068757741786513 0.07199264167832932
1660000000.0 0.04326355703811862 -0.013937833698750443
1680000000.0 0.008278847004066234 0.014085390561843039
1700000000.0 0.010314986860767896 -0.005130440189199827
1720000000.0 -0.01613496593374209 0.027227828140841195
1740000000.0 -0.023579029350002136 0.04537765623476222
1760000000.0 0.025339668486970737 -0.05851547297844413
1780000000.0 -0.019871408278811443 0.08022611840415494
1800000000.0 0.06092617231386302 -0.08764855747113157
1820000000.0 0.11991774136681455 0.011217551431927113
1840000000.0 -0.11496313750224257 0.09039714302699128
1860000000.0 -0.07087093991616591 -0.15733924802110444
1880000000.0 0.20244510893009085 -0.060701556737677166
1900000000.0 0.24905840987177097 -0.06437653108844005
1920000000.0 -0.2691708721431856 -0.1403876323728836
1940000000.0 0.16810199058855793 0.30600905272100926
1960000000.0 -0.13632918500211938 -0.36192791737338004
1980000000.0 0.1927359526210027 0.36687516441017526
2000000000.0 0.05388257484227696 -0.43330455597917905
2020000000.0 -0.11553611131218319 0.43408397629489104
2040000000.0 0.4509567762484006 0.018849812147866078
2060000000.0 -0.26356788822793126 -0.36058047327206666
2080000000.0 -0.4020172843085542 0.1594594171195152
2100000000.0 -0.30975572240181437 0.27751948165288126
2120000000.0 -0.38639061619251414 0.09932791617674742
2140000000.0 -0.36416320233944466 -0.12015611152160124
2160000000.0 0.35441870339208 -0.1071421251189078
2180000000.0 0.34855487196088814 0.09069109944962699
2200000000.0 0.2992424372599002 0.18865054154916194
2220000000.0 0.32182747924797384 -0.14741197857666416
2240000000.0 -0.1460376604983638 -0.32144683752720415
2260000000.0 -0.3394282093872087 0.1077622446065298
2280000000.0 0.1827892079855411 0.30889939572320463
2300000000.0 0.2590867694470109 -0.2658963935668435
2320000000.0 -0.36233033323097136 -0.14152488008056602
2340000000.0 -0.15928226134056017 0.38369876632326894
2360000000.0 0.45008483191084914 0.03829887869631854
2380000000.0 -0.3560765930486102 -0.34852031846021003
2400000000.0 0.19687012705615686 0.513130539119398
2420000000.0 -0.3196488781098415 -0.5121745202356782
2440000000.0 0.6167644071556896 0.2200344528708583
2460000000.0 -0.6497726087198722 0.2533862936871718
2480000000.0 0.42277313361389385 -0.5956109098007702
2500000000.0 -0.359967798600565 0.6602593772364498
2520000000.0 0.49050414041989154 -0.584743007656599
2540000000.0 -0.6923889102074379 0.3273993326293025
2560000000.0 0.7451367049799258 0.15112842299289772
2580000000.0 -0.2907426199609492 -0.6868946129089201
2600000000.0 -0.3224301505574725 0.6453357662864564
2620000000.0 0.6831751194214252 -0.10484225028350566
2640000000.0 0.5783128373159432 -0.3064260600472794
2660000000.0 -0.5492505489710044 -0.26860394960708456
2680000000.0 0.1389444910312038 0.5499616586374451
2700000000.0 0.17725037315646397 -0.491620735031431
2720000000.0 -0.24466481362126907 0.40852089629671934
2740000000.0 0.242552885115797 -0.35746159819362355
2760000000.0 -0.09254224076215763 0.37911406162137895
2780000000.0 -0.18620353475791468 -0.3033545392892808
2800000000.0 0.31014710345774027 0.09353117552781282
2820000000.0 -0.28898116585915995 0.08523740062920342
2840000000.0 0.26838293277315756 -0.10332432813566471
2860000000.0 -0.2625771375919402 0.1070272197636505
2880000000.0 0.27904777059370756 -0.052167798175024226
2900000000.0 -0.25148970860093256 -0.14347050858266458
2920000000.0 0.04412824070534684 0.2982488733159841
2940000000.0 0.19950587763557406 -0.24108753409673286
2960000000.0 -0.3067149821533282 -0.08949988067599578
2980000000.0 -0.2997856999594069 0.12684274305016313
3000000000.0 -0.256372546892409 0.20470630097159778
3020000000.0 -0.3157064030507134 0.08067076252361094
3040000000.0 -0.04712721540174606 -0.31602409116411867
3060000000.0 0.2605857550419792 0.17250206961692735
3080000000.0 -0.2451233001344361 -0.1763420622756267
3100000000.0 0.08526329072973549 0.27997596974035205
3120000000.0 0.09499849246149893 -0.26616746415701176
3140000000.0 -0.20637737860117492 0.17935078844108407
3160000000.0 0.2567112642034287 -0.05246161736763511
3180000000.0 -0.0057238218502294914 -0.24934619177971004
3200000000.0 0.20269006466769074 0.11782001236329089
3220000000.0 -0.005228431464446961 0.21219198404179163
3240000000.0 -0.07723421675619058 0.16921998289852963
3260000000.0 -0.07171403839475221 0.13516440470494454
3280000000.0 0.09168999533521639 0.07180022181330048
3300000000.0 0.080443838308469 -0.001813410344646823
3320000000.0 -0.04389348604764832 0.009332835451694766
3340000000.0 0.00787955708989754 -0.011210143635641292
3360000000.0 -0.011131128828315288 0.00539046747465257
3380000000.0 0.0030097474410107914 -0.02409007575310529
3400000000.0 -0.026467133058926087 -0.014503850258343784
3420000000.0 -0.023758345050900298 0.0197173550380187
3440000000.0 -0.03200973364050404 -0.0023423764150785763
3460000000.0 0.04171849047234291 0.011243811546083858
3480000000.0 0.04446807015046142 -0.045648525434765094
3500000000.0 0.02150555073696168 0.08497914937892198
3520000000.0 0.10297893448517395 0.038428091984964004
3540000000.0 0.05404900975474278 -0.11429543533539603
3560000000.0 0.012737397866251755 -0.13503476110521626
3580000000.0 0.14111892418645056 0.027282896412453753
3600000000.0 -0.1080357397847225 0.10893552163982353
3620000000.0 0.024864889411839133 -0.15831847547195985
3640000000.0 -0.102734007653208 0.13310810961936007
3660000000.0 0.06990559845631868 -0.1644411173346607
3680000000.0 0.1457711535711856 0.11824417339456268
3700000000.0 -0.0026117126570935835 0.193981806324175
3720000000.0 -0.04764512075760037 0.19380255435039423
3740000000.0 0.091870771903309 0.1760898265178189
3760000000.0 -0.08592046569806024 0.171048933739623
3780000000.0 -0.16959820174689866 -0.05760981548419512
3800000000.0 0.1620523507536356 0.011446616280029893
3820000000.0 0.1412315904612089 0.04191369918547771
3840000000.0 -0.12985577223724415 -0.03759906304679829
3860000000.0 -0.12926343238172028 0.04059279129858043
3880000000.0 0.12678648548339863 -0.077573164877557
3900000000.0 -0.10135500781206477 -0.12531535460539872
3920000000.0 0.17271637371086307 -0.0011589638450020831
3940000000.0 0.1801120181972216 0.014091448261905106
3960000000.0 -0.016128482023029415 -0.18450052182178134
3980000000.0 -0.16935805810755583 -0.060521805159190575
4000000000.0 0.12059716828966775 0.11365423984846575
