! Created with skrf (http://scikit-rf.org).
# Hz S RI R 50.0 
!freq ReS11 ImS11
400000000.0 0.20993352680328137 0.8485304812647025
420000000.0 0.6206697758691468 0.5957136267740375
440000000.0 0.8053593719036688 -0.18500873967189954
460000000.0 0.10742431387138843 -0.7817078182385097
480000000.0 0.5451973222372903 -0.4484122524189939
500000000.0 0.45247482058389 -0.33110583309121827
520000000.0 0.20056789522901522 -0.4454791766102238
540000000.0 0.3796814480217275 0.1944490932053742
560000000.0 -0.2672088033676618 -0.23723340217328956
580000000.0 -0.33337024576017876 0.05426965593450449
600000000.0 0.3316142404345981 -0.04203058016056979
620000000.0 -0.1030637894646008 -0.33436924948628427
640000000.0 -0.3698010121135964 -0.10222714975698265
660000000.0 -0.3027583260224048 0.2613039179610271
680000000.0 -0.13305338651596504 -0.40624885711619574
700000000.0 0.25769835372555155 0.3674284235518418
720000000.0 0.127760058610479 -0.4305343953959484
740000000.0 0.4191669817344845 -0.1342396794212801
760000000.0 -0.3994242750488025 -0.12197009726832327
780000000.0 0.1984496720571258 -0.33020542414169557
800000000.0 0.1060252000226644 0.3339128712819491
820000000.0 0.13490505694186067 0.25480428628554413
840000000.0 0.19318726747017942 0.13076223059476721
860000000.0 0.08634008700500313 0.17945528969580002
880000000.0 -0.131581510530275 0.03554529787871908
900000000.0 -0.06365685250101717 -0.030040829070731044
920000000.0 0.025725952547514277 -0.028419677291081444
940000000.0 0.03035568375224536 0.0024249548508649974
960000000.0 -0.03942122506856393 -0.015055364191894249
980000000.0 -0.025243343585430542 0.04477250313920691
1000000000.0 -0.05640220216353939 -0.011241636219033423
1020000000.0 -0.05624573147578523 -0.04467526475978525
1040000000.0 -0.06846111553332807 -0.04832049996273629
1060000000.0 0.10233908495730902 0.06903693214101295
1080000000.0 -0.07208757507218543 -0.12056021416096419
1100000000.0 -0.06320561561297308 -0.15465203061683702
1120000000.0 -0.1947044758945687 0.037101783145747275
1140000000.0 0.24156131337933645 -0.018383201768291883
1160000000.0 0.1000108103735496 -0.2682595249949778
1180000000.0 -0.25135359347923475 -0.21491729693635578
1200000000.0 -0.35333480127316114 -0.09791664309571128
1220000000.0 -0.007204592110207643 -0.3967892817607478
1240000000.0 0.4003390711869963 0.12192613290440649
1260000000.0 -0.43746658246281045 0.042120626798256115
1280000000.0 0.4389490116386411 -0.09317370466756368
1300000000.0 -0.4272452918815548 -0.1338710704220632
1320000000.0 -0.08476346509075662 0.42629654395579053
1340000000.0 -0.34211069202433236 0.24105172903631017
1360000000.0 -0.16222200878377857 -0.37355501571934235
1380000000.0 0.22331953471895274 -0.3397566501282237
1400000000.0 0.2632347652280181 -0.29647634719598764
1420000000.0 0.20380445918125392 -0.3293356995843353
1440000000.0 0.00505438218664308 -0.37365865281434013
1460000000.0 -0.34093471691876487 -0.10711731525072869
1480000000.0 0.11616374767686198 0.31772714340828695
1500000000.0 -0.1993971847710572 -0.24023905719553804
1520000000.0 0.04629808276665897 0.28208428143018416
1540000000.0 0.023024528207945188 0.2532486342830068
1560000000.0 0.18855543183349907 0.10069701559759374
1580000000.0 0.15302092049765134 -0.09167938227714834
1600000000.0 0.03418914079442717 0.1398666892900031
1620000000.0 -0.10182863377331798 -0.0023763849331077938
1640000000.0 0.03692725514049433 0.0637167229712036
1660000000.0 0.046919852117139595 -0.0015509838693132556
1680000000.0 0.010711162538805405 0.012864504108182335
1700000000.0 -0.00404416491707424 0.011153453249944918
1720000000.0 -0.01867570423051742 -0.025220887860255264
1740000000.0 -0.04286871882983956 0.02778850030080297
1760000000.0 0.036281029663168304 -0.05304837728431185
1780000000.0 0.013325142870108476 0.08184813903189261
1800000000.0 0.034282221361939126 -0.10138395192938932
1820000000.0 0.11949217044214704 -0.020360672999292243
1840000000.0 -0.07906022833020566 0.1239618855378258
1860000000.0 -0.13375507620432522 -0.1098922864607371
1880000000.0 0.15015572546561415 -0.14794470476835844
1900000000.0 0.22699877427328244 -0.11844970474710087
1920000000.0 -0.29087570946166774 -0.08353913285760287
1940000000.0 0.14589482535188364 0.31686252356534417
1960000000.0 -0.09382972456691123 -0.3748697211238591
1980000000.0 0.15642588699326304 0.38334594984246245
2000000000.0 0.126038885717431 -0.4182400554616299
2020000000.0 -0.2051334996470092 0.4003224652587772
2040000000.0 0.4500326883012692 0.042313652464486214
2060000000.0 -0.2165182830652519 -0.39183648020856243
2080000000.0 -0.41395983446591744 0.1255375033244227
2100000000.0 -0.3032159756188175 0.2847909013424381
2120000000.0 -0.37817654131861295 0.12609015050745687
2140000000.0 -0.3733046025788464 -0.0844818267925295
2160000000.0 0.29398048231924834 -0.22423723396745937
2180000000.0 0.3596266528309464 0.016693023864132194
2200000000.0 0.32994403177207554 0.12429818083138065
2220000000.0 0.3079348959420155 -0.17209856102312968
2240000000.0 -0.18213138275660107 -0.30133494340599365
2260000000.0 -0.3183628564931969 0.15911457233681495
2280000000.0 0.21241613438656506 0.28948586628921474
2300000000.0 0.22696592505891786 -0.29400251926433835
2320000000.0 -0.3782118554309707 -0.09367807249090045
2340000000.0 -0.09333694502418473 0.4057536584952735
2360000000.0 0.45131257513529227 -0.021808379359062095
2380000000.0 -0.41081254572866105 -0.28240497415897864
2400000000.0 0.25540442658589535 0.4868342214965659
2420000000.0 -0.3976553315204839 -0.45421000737087713
2440000000.0 0.6349979841141996 0.16037244425081928
2460000000.0 -0.6271244359738333 0.30399200728084624
2480000000.0 0.4058008768742546 -0.6066017411715449
2500000000.0 -0.3315470199021667 0.6739308953766786
2520000000.0 0.40890811335782506 -0.6431589000390504
2540000000.0 -0.6296322055676576 0.43446227794058073
2560000000.0 0.7460837302365925 0.14751394257437692
2580000000.0 -0.33410698521950205 -0.6655635266326908
2600000000.0 -0.34302920135917364 0.6335114801270926
2620000000.0 0.6724499038919115 -0.15650137610768788
2640000000.0 0.5394602850879119 -0.36892653753926524
2660000000.0 -0.5652826963405846 -0.2301283939930271
2680000000.0 0.11393163372439491 0.5549106314442607
2700000000.0 0.19764350997266855 -0.48370500453151494
2720000000.0 -0.30470221258190255 0.36563014814306294
2740000000.0 0.24906233234714487 -0.3523816586808748
2760000000.0 -0.10888527095590271 0.3745290105577139
2780000000.0 -0.17581523065648919 -0.30927958511188397
2800000000.0 0.3063630423922877 0.10657302722189843
2820000000.0 -0.28981666438690845 0.08304488855374725
2840000000.0 0.2726758442727065 -0.09056615853142025
2860000000.0 -0.2689246964619234 0.08861417034743341
2880000000.0 0.2759218939119037 -0.06567194781542776
2900000000.0 -0.2626708942998138 -0.12010428552838097
2920000000.0 0.034638215478785234 0.2986561982040926
2940000000.0 0.21632907233115148 -0.2257083776546839
2960000000.0 -0.29729044002043187 -0.11679564076996292
2980000000.0 -0.2947491347023208 0.13713897544698653
3000000000.0 -0.28575837455946035 0.16286755560162414
3020000000.0 -0.32642848850529793 -0.0068209683171457924
3040000000.0 0.014351382997039645 -0.32005214684711586
3060000000.0 0.19511566709363412 0.24279212603098144
3080000000.0 -0.2051918849339243 -0.220497556528666
3100000000.0 0.08717891109411308 0.27921173078528505
3120000000.0 0.06462314756463913 -0.27569691893980597
3140000000.0 -0.21346768164398153 0.16945568779807604
3160000000.0 0.25784097293459973 -0.041472439218205315
3180000000.0 0.020978517403404843 -0.2480087354732598
3200000000.0 0.19534682199129447 0.12711816611475668
3220000000.0 -0.02460409030891783 0.20967718886230316
3240000000.0 -0.07447084931677657 0.16956458854467976
3260000000.0 -0.06449627530609013 0.13839700420353337
3280000000.0 0.09994109627617398 0.060062042278001875
3300000000.0 0.08006504489944216 -0.011466688077944605
3320000000.0 -0.02034561040968866 0.040021657000279286
3340000000.0 0.002376590426578308 0.01431147666542166
3360000000.0 -0.010143705498370762 -0.006215244232467804
3380000000.0 -0.011760181137638971 0.02082853428145149
3400000000.0 0.02784221754278716 0.010414694874554768
3420000000.0 -0.009042106255575846 -0.029251270112530044
3440000000.0 -0.009770922036543239 0.030696799562030166
3460000000.0 0.0288768746381057 0.030125817646992868
3480000000.0 0.05838301528745742 -0.022266705107039323
3500000000.0 -0.0509933273127715 0.06959429323953263
3520000000.0 0.001859755519881725 0.10927508732957286
3540000000.0 0.11374050321071272 -0.0521692716485987
3560000000.0 0.08395341991746252 -0.10633879737160565
3580000000.0 0.12489378843337978 0.07117764417909053
3600000000.0 -0.12352473445522152 0.09123612793257765
3620000000.0 0.015404711266098794 -0.1591401563693557
3640000000.0 -0.05020202435119311 0.1602489760374838
3660000000.0 -0.0342917186539614 -0.17483694194409977
3680000000.0 0.17005318586691362 0.07883050185951972
3700000000.0 0.04814004415153221 0.18730639511984884
3720000000.0 0.006832977526492843 0.19938069728412092
3740000000.0 0.14206757648195759 0.13737282654178914
3760000000.0 -0.040976809665631574 0.18785047899307267
3780000000.0 -0.1800932362907155 4.341923756080632e-05
3800000000.0 0.1629460520827543 -0.016969864048795788
3820000000.0 0.1488775886675277 0.006994636494671784
3840000000.0 -0.1361508957377756 -0.0058644546772071045
3860000000.0 -0.10918498715425871 0.0810714009159219
3880000000.0 0.08533761655658914 -0.12124426309345532
3900000000.0 -0.1357765614412793 -0.08790784772056949
3920000000.0 0.17278844078064498 -0.020676505937022766
3940000000.0 0.18018684202004898 0.02768440111049189
3960000000.0 0.04663390159226535 -0.18144581133069193
3980000000.0 -0.12635413991270547 0.13195171558286178
4000000000.0 -0.00513500460430463 0.16881543283986447
