! Created with skrf (http://scikit-rf.org).
# Hz S RI R 50.0 
!freq ReS11 ImS11
400000000.0 0.21170923850061213 0.8478676529549547
420000000.0 0.6186150315893651 0.5977321261210461
440000000.0 0.8082721622431509 -0.17250527279622868
460000000.0 0.13311365253705162 -0.7780896681707498
480000000.0 0.5549083628745212 -0.43631008235353747
500000000.0 0.45646273213119276 -0.3252434945831249
520000000.0 0.20640568333094067 -0.4430584020159008
540000000.0 0.38936659240457966 0.1750328696957142
560000000.0 -0.2831710458272928 -0.21823290889010655
580000000.0 -0.3305848892966534 0.06916003918906641
600000000.0 0.3306583337396995 -0.048820224782688694
620000000.0 -0.09578139817642337 -0.33650004682976037
640000000.0 -0.36287972488543047 -0.12475169269286938
660000000.0 -0.3118797607728878 0.25058637698675656
680000000.0 -0.11878517302386289 -0.41072373509347365
700000000.0 0.24470138576888317 0.3760665274530283
720000000.0 0.14010389892969774 -0.42651948978607035
740000000.0 0.41002236449521395 -0.15744996221574717
760000000.0 -0.40104471670540603 -0.11601808440038217
780000000.0 0.18973649186355743 -0.3354858921431203
800000000.0 0.11091570153310017 0.3324864512665087
820000000.0 0.13422506047782765 0.25522813133936983
840000000.0 0.19199769666601404 0.13254182145974147
860000000.0 0.09094846795712162 0.1772477463137887
880000000.0 -0.13174695428096905 0.035963233022577146
900000000.0 -0.06192213582843641 -0.03454688045660582
920000000.0 0.03386781565540994 -0.018805554641600275
940000000.0 0.026900286551476957 0.013513895333564932
960000000.0 -0.04032998501722939 -0.011403977301395774
980000000.0 -0.01917270958841604 0.047519836207261655
1000000000.0 -0.05702184504358249 -0.008037619850941286
1020000000.0 -0.05679946751435877 -0.044161275064281524
1040000000.0 -0.0686299981463818 -0.04816118943982485
1060000000.0 0.10246146315208032 0.0689052070705987
1080000000.0 -0.06040054732544942 -0.1269254211014341
1100000000.0 -0.055420167025968775 -0.15767062467507703
1120000000.0 -0.19691951794425383 0.02259252189367461
1140000000.0 0.24024153030941697 -0.03251645015159445
1160000000.0 0.12057866782828419 -0.2595518313267225
1180000000.0 -0.247498077658568 -0.2191883963982978
1200000000.0 -0.3420257571498268 -0.1312819504353296
1220000000.0 0.02729300954736907 -0.3957698461055942
1240000000.0 0.4010646332975966 0.11940706974954633
1260000000.0 -0.43615268019613657 0.05324990725395536
1280000000.0 0.4374551138419272 -0.09991709729565589
1300000000.0 -0.4279107950893033 -0.1314966666778777
1320000000.0 -0.08331421174957934 0.4264757491364193
1340000000.0 -0.3402496696933598 0.24344859814569272
1360000000.0 -0.16732154090415627 -0.37118287569004693
1380000000.0 0.21784431691801515 -0.3432358065099343
1400000000.0 0.2615764597984227 -0.2980402912112401
1420000000.0 0.20025257073127856 -0.33146233651200313
1440000000.0 0.0018571626516170152 -0.37373698497418006
1460000000.0 -0.342463695837499 -0.1022146683036086
1480000000.0 0.13201213018714597 0.31137585070700374
1500000000.0 -0.2021628817292452 -0.23784288616903665
1520000000.0 0.051906157792922306 0.28107946867078926
1540000000.0 0.03220308425032784 0.25226317928492853
1560000000.0 0.19631522357866515 0.08489634010831269
1580000000.0 0.13386983049740653 -0.11787982866701031
1600000000.0 0.013272995577992443 0.143538669269409
1620000000.0 -0.10178995808917365 0.006682684571216214
1640000000.0 0.028702172626769433 0.06758376374819174
1660000000.0 0.0464522799219436 0.00622699808179634
1680000000.0 0.015921059346528058 -0.0036190258529660894
1700000000.0 0.003957578708124351 0.011188452380071491
1720000000.0 -0.02063483413935204 -0.023778726618827857
1740000000.0 -0.0400779989439578 0.032048035850273625
1760000000.0 0.04427400077806233 -0.04679500029940794
1780000000.0 0.0108480097856222 0.08235502133103578
1800000000.0 0.0428345526767572 -0.09815943758624004
1820000000.0 0.11963510341955959 -0.019580234037868082
1840000000.0 -0.077058925014487 0.12500308031833743
1860000000.0 -0.13238114738326254 -0.11122855389208114
1880000000.0 0.14945098319389413 -0.1483637351944359
1900000000.0 0.22741044860258902 -0.11754051569545547
1920000000.0 -0.2902751211468474 -0.0856258319899838
1940000000.0 0.15031941089222667 0.3146185699861755
1960000000.0 -0.09363973061182712 -0.3747698033665315
1980000000.0 0.1577534181157995 0.3827157360201627
2000000000.0 0.12070543904747785 -0.41977172149984343
2020000000.0 -0.20850463477439735 0.3986360338414541
2040000000.0 0.45035410832708633 0.03910772151767432
2060000000.0 -0.193352190513056 -0.40412241165036195
2080000000.0 -0.41360800540664716 0.12686552656533853
2100000000.0 -0.30638280384649147 0.2818136699931093
2120000000.0 -0.37447310324129174 0.13693537809294276
2140000000.0 -0.36309892612852757 -0.12228104599710324
2160000000.0 0.329687417243244 -0.16783052576755386
2180000000.0 0.3592158528880117 0.022823381279661163
2200000000.0 0.3221987159949288 0.14325688612970972
2220000000.0 0.3003594723907357 -0.18504709191771404
2240000000.0 -0.17379803940331967 -0.3060855504214997
2260000000.0 -0.32266980415451185 0.1497089171944261
2280000000.0 0.21198543743623938 0.28953344716044105
2300000000.0 0.22913027378569878 -0.29185440739190893
2320000000.0 -0.3794472275011192 -0.08669954888978162
2340000000.0 -0.09557322610695906 0.40453668689988503
2360000000.0 0.4497729569043178 -0.039785332558929284
2380000000.0 -0.406792090314523 -0.2875794892207585
2400000000.0 0.28697847211442223 0.46887863788524803
2420000000.0 -0.40608485219716073 -0.4466398308409719
2440000000.0 0.6387304506994451 0.14542171835977696
2460000000.0 -0.6347830132152691 0.28849276380841316
2480000000.0 0.3902174474545066 -0.6167530835832769
2500000000.0 -0.36685291700110484 0.6557829044287781
2520000000.0 0.46857811443341896 -0.6022648285642452
2540000000.0 -0.6665179424400126 0.376370670508555
2560000000.0 0.7477933064380156 0.13836706120612427
2580000000.0 -0.3219090849125443 -0.6718132462451915
2600000000.0 -0.3103043507698018 0.6498939132685949
2620000000.0 0.6782069449182653 -0.1284956072356741
2640000000.0 0.5519095271496134 -0.34962903466507456
2660000000.0 -0.5566931034627912 -0.2494806431636427
2680000000.0 0.09186675922795738 0.558519648936921
2700000000.0 0.19170486508132142 -0.4855932975545769
2720000000.0 -0.27468307245038315 0.38818602115482237
2740000000.0 0.2631330672823388 -0.34147998878082547
2760000000.0 -0.09968969731241768 0.37680835416885144
2780000000.0 -0.18477567311438392 -0.30366289321722384
2800000000.0 0.3107507925573221 0.09150733828631998
2820000000.0 -0.28416985059590594 0.09979577692101012
2840000000.0 0.26456150537597184 -0.11177848458663617
2860000000.0 -0.25319148292031224 0.12570481487436916
2880000000.0 0.27238032011742563 -0.07930416249757409
2900000000.0 -0.2696799263554484 -0.10369328464745464
2920000000.0 0.05476124668644981 0.29571968222037576
2940000000.0 0.19394473834422993 -0.24537244529934604
2960000000.0 -0.30175966241534413 -0.10493977351662606
2980000000.0 -0.2981059534916458 0.13050527210659818
3000000000.0 -0.29956242778269515 0.13616541026070558
3020000000.0 -0.32651339682190905 -0.015094975479029712
3040000000.0 0.057794186560737405 -0.31531505222107226
3060000000.0 0.1985649074509421 0.24044006840040302
3080000000.0 -0.18371159963887576 -0.2390722109849921
3100000000.0 0.11616897823108856 0.26904124629282705
3120000000.0 0.13985401144523163 -0.24579671433230124
3140000000.0 -0.23352313195885643 0.14062418102407984
3160000000.0 0.2612906797814914 -0.0042753595152266646
3180000000.0 0.03754045716893116 -0.24639812249906146
3200000000.0 0.17388227238961762 0.15534464063923833
3220000000.0 -0.046802750813958904 0.2062988641378532
3240000000.0 -0.10060286464638385 0.15538243303080362
3260000000.0 -0.09099052870469995 0.12224588774506805
3280000000.0 0.06603998018361834 0.09565832821064908
3300000000.0 0.07798560388707688 -0.020013876213142115
3320000000.0 -0.01015062850864838 0.04339741857146853
3340000000.0 0.003969648784545564 0.013346163386002013
3360000000.0 0.010658690771547519 0.006505453349049589
3380000000.0 -0.012991587380968091 0.020676194514703525
3400000000.0 0.022609920798095335 0.020167724006652062
3420000000.0 -0.008980008183250838 -0.030024658771044634
3440000000.0 -0.017996350351285065 0.02728978762296544
3460000000.0 0.026493838955943334 0.0327218728770268
3480000000.0 0.05603579516870418 -0.02862958592753607
3500000000.0 -0.05913659779223636 0.06342942444348743
3520000000.0 0.051197473071863446 0.09749034530141264
3540000000.0 0.12377255827199103 -0.017602721703471293
3560000000.0 0.1039146260992788 -0.0871974874507757
3580000000.0 0.10223907527117704 0.1006074546294236
3600000000.0 -0.14550056794256078 0.04775522689295903
3620000000.0 0.05033761650080971 -0.15161706925636498
3640000000.0 -0.09119588672508318 0.14025269782231592
3660000000.0 -0.008232460531174572 -0.17787778149125683
3680000000.0 0.15574178027842783 0.10384221261604361
3700000000.0 0.028358163167933357 0.19101046647870332
3720000000.0 -0.015578933679088866 0.1985931418472659
3740000000.0 0.13672239035006337 0.14203818817939853
3760000000.0 -0.05149659338829245 0.18467997335904662
3780000000.0 -0.1798061599797922 0.0018040249182267613
3800000000.0 0.1614949098143856 -0.025447712969696785
3820000000.0 0.14815214249060144 -0.009134808712950642
3840000000.0 -0.13486216345202937 0.016024010463551754
3860000000.0 -0.09957828062010435 0.09207014318568628
3880000000.0 0.07715014476206523 -0.12623623685905655
3900000000.0 -0.14358285102351237 -0.07382801252190864
3920000000.0 0.17171847660577844 -0.027867780096374063
3940000000.0 0.1804579087153862 0.025664096805865576
3960000000.0 0.05531942654083838 -0.1791134990529106
3980000000.0 -0.11205616829387986 0.14395469549719214
4000000000.0 0.017457305574399708 0.16772366001121944
