! Created with skrf (http://scikit-rf.org).
# Hz S RI R 50.0 
!freq ReS11 ImS11
400000000.0 0.23024798835620633 0.8423262787545356
420000000.0 0.6299227667524626 0.5856387346987747
440000000.0 0.7962613935773271 -0.2177278095863463
460000000.0 0.17138045400247245 -0.7718024742377111
480000000.0 0.5410435222819309 -0.4527336883011669
500000000.0 0.3746928263132408 -0.4173819513230221
520000000.0 0.3267392105041076 -0.3662317744322812
540000000.0 0.3925015636118333 0.1673767231635154
560000000.0 -0.3119662213736465 -0.1732219634398685
580000000.0 -0.28250052418675203 0.18586581567937563
600000000.0 0.30412631628975145 0.1358284046770459
620000000.0 -0.16923117234783447 -0.3063606638478439
640000000.0 -0.36233811052343484 -0.12802893580268634
660000000.0 -0.27962154432765374 0.28605584867852674
680000000.0 -0.05532476281426803 -0.4238139336619985
700000000.0 0.28668770543486255 0.34530817730816254
720000000.0 0.059121256648682105 -0.44550389307959337
740000000.0 0.4210954480781133 -0.12603420331352078
760000000.0 -0.3917648574954866 -0.14644341493146865
780000000.0 0.1837705371422883 -0.33804556569431066
800000000.0 0.11833897100527185 0.32998686841781183
820000000.0 0.12844186362767449 0.25800321201016146
840000000.0 0.17483599691271184 0.15429849919337654
860000000.0 0.0784412004622872 0.18299498600364733
880000000.0 -0.13394424651144318 0.02730688043458886
900000000.0 -0.0707407152029762 -0.0028726779488767425
920000000.0 0.03522781314839314 -0.017043136701684787
940000000.0 0.02710450251550515 -0.013634662020092466
960000000.0 -0.030835468213586924 -0.02896098327098442
980000000.0 -0.029968308533368657 0.04204292843153514
1000000000.0 -0.050323866776844126 -0.028164681105871635
1020000000.0 -0.07074061557968622 0.013415097812441532
1040000000.0 -0.06827284281469849 -0.04895526498884557
1060000000.0 0.10335065332540468 0.06771975306392898
1080000000.0 -0.05914117720841355 -0.12735708015181668
1100000000.0 -0.07423228241244823 -0.15013435013609022
1120000000.0 -0.19660410378340581 0.022406585078123684
1140000000.0 0.24112883151951783 -0.021132150797967493
1160000000.0 0.09025168191273765 -0.2717267818031223
1180000000.0 -0.2554537969065901 -0.2097932503205785
1200000000.0 -0.3404248271194414 -0.13546416311975987
1220000000.0 0.0022458191373394107 -0.39650437182269443
1240000000.0 0.4012209550629069 0.11940483932099598
1260000000.0 -0.43720864474535603 0.051178367193020366
1280000000.0 0.43853050029446844 -0.09543700474832364
1300000000.0 -0.426778746446008 -0.1357004816338091
1320000000.0 -0.07882462881623149 0.4276184143515139
1340000000.0 -0.34442224601945487 0.23789662394710284
1360000000.0 -0.1710991942423505 -0.36939561617981914
1380000000.0 0.21367853014954016 -0.34568045504466194
1400000000.0 0.26653531410703607 -0.2932683999747287
1420000000.0 0.2063172732154148 -0.3277077336164634
1440000000.0 -0.022045396566444806 -0.372618604477953
1460000000.0 -0.34043313426595856 -0.10790625552639865
1480000000.0 0.11689453472615631 0.3167059872111044
1500000000.0 -0.21445355759991525 -0.22622508198432545
1520000000.0 0.04125658610849027 0.2829211613978424
1540000000.0 0.04248561162573244 0.25056793968286056
1560000000.0 0.18854530884150988 0.09985541894711272
1580000000.0 0.14732406868344394 -0.10135101575174926
1600000000.0 0.008989305439018979 0.14409528089829302
1620000000.0 -0.10062641329526434 -0.015177879207574548
1640000000.0 0.05144199042358487 0.05254776629302119
1660000000.0 0.04349760944016193 0.01786488620826712
1680000000.0 -0.00714769840612559 0.01580250266980563
1700000000.0 -0.0039579247079654 0.01128185271992282
1720000000.0 -0.020479695461795774 -0.02419652327781742
1740000000.0 -0.0416526464564604 0.03023110264802732
1760000000.0 0.038678436881542225 -0.0521710722317609
1780000000.0 0.020160484123502884 0.08097912751586055
1800000000.0 0.05983584493541945 -0.08911234077847834
1820000000.0 0.11659382064000354 -0.03663435687228386
1840000000.0 -0.09320478965896845 0.1138483352778334
1860000000.0 -0.13244812703543177 -0.1121007834569731
1880000000.0 0.14412659478907797 -0.1532649723948837
1900000000.0 0.2237130427492141 -0.1250212504965329
1920000000.0 -0.2871634548315559 -0.09506039108429727
1940000000.0 0.14875277779572452 0.31510947599977035
1960000000.0 -0.0955227459087307 -0.3742843358616453
1980000000.0 0.12678226166930764 0.39443536487333
2000000000.0 0.15036665555994472 -0.41014513192388424
2020000000.0 -0.18608479505838182 0.40957578902730896
2040000000.0 0.4508094004711644 0.03016548401869614
2060000000.0 -0.21543678264523064 -0.3924682317403124
2080000000.0 -0.3969560321374432 0.17129453801196914
2100000000.0 -0.3018502490477598 0.2866257862036118
2120000000.0 -0.37804349083155714 0.12744865667614844
2140000000.0 -0.3747520478681313 -0.07873137560075735
2160000000.0 0.3016311952688969 -0.2141286183086248
2180000000.0 0.3602484075654357 0.003508062767268307
2200000000.0 0.3353350034913486 0.1091136745258748
2220000000.0 0.3132917015638152 -0.1631279009042289
2240000000.0 -0.19957894342587618 -0.29058560813731493
2260000000.0 -0.31635423109600347 0.16356697495369502
2280000000.0 0.2094256087609024 0.29148586922750497
2300000000.0 0.21703881376221743 -0.30167816728892854
2320000000.0 -0.38202202459727574 -0.0776495164072657
2340000000.0 -0.07699800669860139 0.40937898960513275
2360000000.0 0.450375982372874 -0.03879002032357554
2380000000.0 -0.40737545150868965 -0.28716522907155173
2400000000.0 0.3024003601534205 0.45928393586508337
2420000000.0 -0.41889698986479074 -0.4345825993775238
2440000000.0 0.6434964025072477 0.12189138469401033
2460000000.0 -0.613055528213658 0.33148298642993207
2480000000.0 0.3442018122162701 -0.6429185523742551
2500000000.0 -0.3402958082059706 0.6692856741301866
2520000000.0 0.4257354088137153 -0.6325245483722844
2540000000.0 -0.6389316419865542 0.4201535893099324
2560000000.0 0.7569506150452523 0.06661474731841828
2580000000.0 -0.33912389541160404 -0.662684149575168
2600000000.0 -0.2670930983487139 0.668118938026823
2620000000.0 0.6593890579137627 -0.20183976325080322
2640000000.0 0.49838689514083495 -0.4219676305217075
2660000000.0 -0.5816357942600926 -0.18234820465471144
2680000000.0 0.13552432716865462 0.5491891034863131
2700000000.0 0.15822681011949338 -0.4971480197186361
2720000000.0 -0.27654680156380596 0.3864391853157131
2740000000.0 0.24974277858884264 -0.35103433501575776
2760000000.0 -0.09004364425369211 0.3787900258705401
2780000000.0 -0.1922701983633002 -0.2988479440178688
2800000000.0 0.30686260717795094 0.10374066265358695
2820000000.0 -0.28253019928619033 0.10360153458209373
2840000000.0 0.2658186202368361 -0.1092446730165245
2860000000.0 -0.2582351928831792 0.11464071109394067
2880000000.0 0.2662831536290791 -0.09620616290734925
2900000000.0 -0.2744764713858072 -0.0893895601444075
2920000000.0 0.07158573848638543 0.2916467749846248
2940000000.0 0.1996415287763892 -0.24031563063965794
2960000000.0 -0.29511528311379104 -0.12150678365795752
2980000000.0 -0.2832098910155405 0.15979781042661942
3000000000.0 -0.2826088174881513 0.16695399447281314
3020000000.0 -0.3229448346104482 0.04646765282454862
3040000000.0 0.04383841671903211 -0.3169300994149236
3060000000.0 0.23221939508786726 0.20813309918915202
3080000000.0 -0.19173582318330343 -0.23273691780003983
3100000000.0 0.14133204209919437 0.25647107060660174
3120000000.0 0.12212147423765667 -0.25520873771645863
3140000000.0 -0.22600838326444556 0.1527835463831834
3160000000.0 0.2572257939185446 -0.04586610220138914
3180000000.0 0.04407821026412795 -0.2448509096941507
3200000000.0 0.17382522659751212 0.15575551256997683
3220000000.0 -0.057909829654635016 0.20305724652869178
3240000000.0 -0.10085510512272483 0.1551346014875637
3260000000.0 -0.11677508850779952 0.09801067892390593
3280000000.0 0.07936516442046525 0.08535467569792665
3300000000.0 0.07907634195170937 0.015095253140894807
3320000000.0 -0.035434561468518797 0.027208891491682784
3340000000.0 0.004878315902560662 0.013379407919944799
3360000000.0 -0.011817914965145488 0.003126984827488461
3380000000.0 0.003190856305262669 0.02420697811589842
3400000000.0 0.0060688838293204315 0.029542825903496283
3420000000.0 -0.019358480187390555 -0.024536776308749238
3440000000.0 -0.010297493564833716 0.030579948086693703
3460000000.0 0.023291791111764354 0.035013783895754665
3480000000.0 0.030128325443844257 -0.055279961643730106
3500000000.0 -0.06499447368487672 0.057240219535832505
3520000000.0 0.04839510317725544 0.09889097553809618
3540000000.0 0.12486850482906565 0.0019078641939716634
3560000000.0 0.10133094636221486 -0.0901410597302324
3580000000.0 0.1100186223577438 0.09229231586100244
3600000000.0 -0.12513801125894541 0.08946055667866747
3620000000.0 0.019689381706332637 -0.1589242223095059
3640000000.0 -0.0723543706183318 0.15133622456609447
3660000000.0 -0.022276887500310195 -0.17733777772823667
3680000000.0 0.1646015553718201 0.08936562607062543
3700000000.0 0.03640501056392675 0.1899440979779306
3720000000.0 -0.033150270743184065 0.19618951990645872
3740000000.0 0.12532480869515403 0.15306057172850268
3760000000.0 -0.06146405029428693 0.1820057720201712
3780000000.0 -0.17897309446176607 -0.021210462188827477
3800000000.0 0.16416355433653904 -0.0029620314643962206
3820000000.0 0.14682915849007666 0.028308579023713372
3840000000.0 -0.13647409821610956 0.0013545833372652712
3860000000.0 -0.09571854108878276 0.09654531371801245
3880000000.0 0.08610762164897269 -0.12132957187718937
3900000000.0 -0.1413139557726385 -0.07935829237385665
3920000000.0 0.17322113097292077 -0.02098818587387399
3940000000.0 0.17984718926956725 0.03351133736455019
3960000000.0 0.06162662358430804 -0.17675268006718703
3980000000.0 -0.12278763696305221 0.13528121479386235
4000000000.0 -0.005093855228320251 0.16867767842145848
