! Created with skrf (http://scikit-rf.org).
# Hz S RI R 50.0 
!freq ReS11 ImS11
400000000.0 0.24631951812354513 0.8370167953074373
420000000.0 0.6270776153062771 0.5863930790391537
440000000.0 0.7973485445238357 -0.2121949059164816
460000000.0 0.1305750538132803 -0.7795434556248663
480000000.0 0.5134348974497934 -0.48417010806258143
500000000.0 0.4270462904360408 -0.36249603761406346
520000000.0 0.34566065142196584 -0.3492112844119843
540000000.0 0.42361656537585196 0.06184129712815583
560000000.0 -0.2753075071533336 -0.22516894780234006
580000000.0 -0.33376023800279986 0.05187530016478011
600000000.0 0.331109972716435 0.04245360704609076
620000000.0 -0.23522250106383003 -0.2593288281074067
640000000.0 -0.33277574986094804 -0.18881357827110523
660000000.0 -0.27527777924277386 0.28980151721335523
680000000.0 -0.16521025615237286 -0.395140615702326
700000000.0 0.3036788305352529 0.3286972307211946
720000000.0 0.03650267306050497 -0.44822339335975925
740000000.0 0.41462749277138483 -0.14978707541720512
760000000.0 -0.394811351834384 -0.1358276554011222
780000000.0 0.22102885063254446 -0.31537682214719936
800000000.0 0.10221566324273988 0.3348832771137298
820000000.0 0.1216223365350528 0.26122729141523077
840000000.0 0.18022719677818275 0.14756735558549075
860000000.0 0.02960481318609767 0.19688000320721666
880000000.0 -0.13493732159324773 0.015379791822704847
900000000.0 -0.0689894698612962 0.012092853752834837
920000000.0 -0.011143447451952384 -0.03699965857258219
940000000.0 0.020580912052928526 -0.0230163510160147
960000000.0 -0.006582000372161639 -0.041317033439611864
980000000.0 0.004886185767127262 0.05076622129663066
1000000000.0 -0.05547888908647207 -0.015202180088577343
1020000000.0 -0.06670317300993982 -0.027324927022995875
1040000000.0 -0.058394847961954995 -0.059574691806748965
1060000000.0 0.11710749515233612 0.038860973778028954
1080000000.0 -0.09118259733920178 -0.10597365039578156
1100000000.0 -0.08527856332294224 -0.14294296864035005
1120000000.0 -0.18317892131604954 0.07362152224857946
1140000000.0 0.2343151875489085 -0.057370652659492594
1160000000.0 0.08567224019350445 -0.27300762200253803
1180000000.0 -0.25251849124536224 -0.2123638288676688
1200000000.0 -0.3403307398565112 -0.13501783709979698
1220000000.0 0.025866325926036896 -0.39586968259785854
1240000000.0 0.4015685362296813 0.11991680243374764
1260000000.0 -0.43631816466542456 0.05619509766664641
1280000000.0 0.439122896584705 -0.0940135721574914
1300000000.0 -0.4330282155105238 -0.11714385979757191
1320000000.0 -0.07864917881693036 0.42778587001385754
1340000000.0 -0.332888143165882 0.2544471991498099
1360000000.0 -0.1534996272095836 -0.37755137274190675
1380000000.0 0.22000600080093335 -0.3422859582167251
1400000000.0 0.2617538463163659 -0.29758896609347874
1420000000.0 0.19646803694912654 -0.3332063832154499
1440000000.0 -0.004108700868340499 -0.37314566953278056
1460000000.0 -0.3465577404389697 -0.08586304752226148
1480000000.0 0.14930930634246617 0.30290579946863144
1500000000.0 -0.21689060193317147 -0.2239583681296292
1520000000.0 0.062398723382842025 0.27892807048306223
1540000000.0 0.05176846286360028 0.24858461488989222
1560000000.0 0.20007911907590467 0.07354093675770998
1580000000.0 0.14502705074137867 -0.10398952623454123
1600000000.0 0.06465640289058781 0.1287077737349955
1620000000.0 -0.10209954723407105 0.0022326191135939202
1640000000.0 0.04406878392253073 0.05916344561828228
1660000000.0 0.04688932311220521 -0.003174563137406238
1680000000.0 0.009209605693715567 0.014177550587025883
1700000000.0 -0.010867108734786982 -0.0006581319887834487
1720000000.0 -0.021152785129227598 -0.022414737944109475
1740000000.0 -0.022726257782212093 0.04572447832203879
1760000000.0 0.0017603855463065499 -0.06472806784957241
1780000000.0 0.04678948647684536 0.069408216916188
1800000000.0 0.03692347931140991 -0.10113946301418505
1820000000.0 0.11293799839210888 -0.046060976681299985
1840000000.0 -0.08217634849989723 0.12280878188030524
1860000000.0 -0.14016723047652388 -0.10337136437795474
1880000000.0 0.16021129395616765 -0.13782438084488036
1900000000.0 0.22512217008680743 -0.12276927980701557
1920000000.0 -0.283646319904375 -0.10556597069204411
1940000000.0 0.12838327268417904 0.32406027748711885
1960000000.0 -0.08561508971000316 -0.3765261808690665
1980000000.0 0.1321307266406683 0.3924312545761153
2000000000.0 0.1462928391534633 -0.41094372015987546
2020000000.0 -0.19378858548780745 0.40545306708295226
2040000000.0 0.4465348930943053 0.06852840186891092
2060000000.0 -0.21049700112853661 -0.39470348808584943
2080000000.0 -0.3978113415133912 0.16874004785785565
2100000000.0 -0.32454805733260844 0.2600458731687162
2120000000.0 -0.35719207101857375 0.1764610767039805
2140000000.0 -0.38033061807696567 -0.0433850956503209
2160000000.0 0.2971977510724955 -0.21898409763941573
2180000000.0 0.35819969267741864 -0.024557050670112747
2200000000.0 0.34813215689826504 0.05946176471715285
2220000000.0 0.26916870511957713 -0.22876692119705308
2240000000.0 -0.20936704542883217 -0.28411110989654154
2260000000.0 -0.2978157010951239 0.19566192409363617
2280000000.0 0.21167227535138636 0.29053632212957753
2300000000.0 0.22170284506052498 -0.29916834105028206
2320000000.0 -0.3833256357061973 -0.07224730164356065
2340000000.0 -0.0650063342075222 0.41161791143769094
2360000000.0 0.4486303158795888 -0.059155825552450664
2380000000.0 -0.42176506330078245 -0.26655726157170856
2400000000.0 0.3091287532542813 0.4550042799234703
2420000000.0 -0.41846278445975593 -0.43512154172542805
2440000000.0 0.6456524840735755 0.10824259980303685
2460000000.0 -0.6090044450976079 0.33859449156144117
2480000000.0 0.34306138850018103 -0.6431372708697973
2500000000.0 -0.3514305393100113 0.6637538889994687
2520000000.0 0.39017746374888296 -0.6542048445273364
2540000000.0 -0.6179585886940023 0.44933894116230316
2560000000.0 0.7549986237792301 0.07574445473877507
2580000000.0 -0.42481719802277834 -0.6107915364026717
2600000000.0 -0.23076166041424703 0.682061033173431
2620000000.0 0.678237248665983 -0.12293973037237382
2640000000.0 0.5231699037704776 -0.3888724598654438
2660000000.0 -0.5917578291925503 -0.14453018177224447
2680000000.0 0.22061065900344842 0.5205018559681769
2700000000.0 0.1459575475570498 -0.4999892403505098
2720000000.0 -0.2261934123700901 0.41772665432696054
2740000000.0 0.2288945245840764 -0.36463849141878335
2760000000.0 -0.09976371273535992 0.376444556789392
2780000000.0 -0.18870713400089678 -0.30097784555728385
2800000000.0 0.3121775233511756 0.08549290034597092
2820000000.0 -0.2883228060938494 0.08621735870440016
2840000000.0 0.25683697231176467 -0.12698181619480717
2860000000.0 -0.2533279292319026 0.1245480888073168
2880000000.0 0.27112748739355075 -0.08041479121452312
2900000000.0 -0.26246325378518 -0.1186351783875128
2920000000.0 0.032627505988349695 0.29825758112790124
2940000000.0 0.2036842477764386 -0.23612407880601782
2960000000.0 -0.2922168971252195 -0.12646624915071386
2980000000.0 -0.2919480852522595 0.14119622183086875
3000000000.0 -0.27759639367377814 0.17230534485917168
3020000000.0 -0.3152952248162162 0.07790222924966823
3040000000.0 -0.11252464378366787 -0.2981195081192972
3060000000.0 0.2807381936228345 0.13422111086406097
3080000000.0 -0.25316824425315515 -0.16413887067762117
3100000000.0 0.16148773885005477 0.24389663905748693
3120000000.0 0.01770355191504339 -0.2816381350985345
3140000000.0 -0.1530640211758557 0.22651147851622078
3160000000.0 0.24146555467768852 -0.1017936848510707
3180000000.0 -0.013642989795212515 -0.24949658027932733
3200000000.0 0.19566932164369738 0.12860492880081767
3220000000.0 -0.029408223409253333 0.21104188191602
3240000000.0 -0.11602984470789944 0.14606380600686567
3260000000.0 -0.12549331140967115 0.0891417150000728
3280000000.0 0.01783100503991868 0.11645451321068252
3300000000.0 0.06040456326418589 0.05464558830110912
3320000000.0 -0.04271210180564004 0.01567206633878811
3340000000.0 0.013183329975109596 -0.005247534696765271
3360000000.0 0.0065482180969492695 -0.010398871203905908
3380000000.0 0.02007795305442199 -0.014284360605617788
3400000000.0 -0.012401194811284199 -0.027959197173373945
3420000000.0 0.015135961570377207 0.027819090108910975
3440000000.0 0.03191314742514763 0.004007064300607931
3460000000.0 -0.009604927512159713 -0.04049748345408782
3480000000.0 0.02006055493363001 -0.05872799665020914
3500000000.0 -0.00022301012454383122 0.08619089440402797
3520000000.0 0.07824692053102153 0.07635185082229562
3540000000.0 0.10893507267023841 -0.06183624220845032
3560000000.0 0.04399626908567033 -0.1282935337863453
3580000000.0 0.13238259614220166 0.05631924684586196
3600000000.0 -0.13420670560350706 0.0723840551788671
3620000000.0 -0.025895878665449287 -0.15778633426035427
3640000000.0 -0.04823991764118567 0.15979060589565602
3660000000.0 -0.06081942734118138 -0.1680360738451236
3680000000.0 0.1760984950252191 0.06355116349521944
3700000000.0 0.08296201102748198 0.1745585181881614
3720000000.0 0.012119506468289284 0.1988256060960925
3740000000.0 0.11051593033644035 0.16542654066110446
3760000000.0 -0.05337974141257769 0.18507986659230966
3780000000.0 -0.1790196700206002 -0.028370524486175466
3800000000.0 0.16204356627781344 -0.028064998107322374
3820000000.0 0.14055283937429627 -0.04963089460296628
3840000000.0 -0.13154442737285799 0.03929830585280123
3860000000.0 -0.05911569642511879 0.12385052612947382
3880000000.0 0.032295468176809485 -0.14574185637706552
3900000000.0 -0.1536241501509211 -0.0498601707100444
3920000000.0 0.16129004237800162 -0.06788908163573865
3940000000.0 0.18149432668609033 -0.025968728794097114
3960000000.0 0.019435791871382977 -0.18672335608422197
3980000000.0 -0.1730991798092192 -0.060191627977537236
4000000000.0 0.12541261772751766 0.11347598322917145
