! Created with skrf (http://scikit-rf.org).
# Hz S RI R 50.0 
!freq ReS11 ImS11
400000000.0 0.2149136006682206 0.8463332224572226
420000000.0 0.611837087738905 0.6037773849800127
440000000.0 0.8074262048616018 -0.1753357759482799
460000000.0 0.1290260764693638 -0.7787607555219543
480000000.0 0.5492380217519472 -0.44382964300182
500000000.0 0.46174811783633835 -0.318143051716114
520000000.0 0.20712702189415672 -0.4433433826885259
540000000.0 0.3971524283578915 0.1574247244411553
560000000.0 -0.2955157539136532 -0.20166820195888852
580000000.0 -0.3282965167272388 0.07909773037540833
600000000.0 0.3285071419259427 -0.05816494180100745
620000000.0 -0.10033999399306884 -0.3348729867554099
640000000.0 -0.3707398310650998 -0.09778028164890658
660000000.0 -0.2818150890374443 0.28329002478120185
680000000.0 -0.1476086440717776 -0.40139732743285905
700000000.0 0.24976645216852192 0.37264463298817246
720000000.0 0.10205103923192643 -0.43751308315668824
740000000.0 0.40946963949665277 -0.15932362669072633
760000000.0 -0.4010238260156908 -0.11605406261851542
780000000.0 0.18472110347693096 -0.3380564777652152
800000000.0 0.12222505011858635 0.3283945066291116
820000000.0 0.1302511974738688 0.25728397827717026
840000000.0 0.17890002192838972 0.14992774742705053
860000000.0 0.07789844992619938 0.18307858881127606
880000000.0 -0.1336183773210841 0.02486580013788788
900000000.0 -0.06701769198484857 -0.02095382644235148
920000000.0 0.016529075035965957 -0.03471529722752637
940000000.0 0.03039649760774075 -0.0004945799068211957
960000000.0 -0.03270700933381156 -0.026409837867425543
980000000.0 -0.02504856920715964 0.0445754375077455
1000000000.0 -0.05463577301640192 -0.01826292489269244
1020000000.0 -0.0585853048341024 -0.04155411211993325
1040000000.0 -0.07206243339000892 -0.04265676504056084
1060000000.0 0.10966606795976067 0.05650310238066353
1080000000.0 -0.0674346902129015 -0.12308320479178549
1100000000.0 -0.06202659317299483 -0.15514221863369818
1120000000.0 -0.19555129208753722 0.03158879278349422
1140000000.0 0.2401576535979002 -0.032799544494495035
1160000000.0 0.12044910307944125 -0.25956448206004373
1180000000.0 -0.2531812045221085 -0.21258673182332763
1200000000.0 -0.35097475858910826 -0.10610865551915474
1220000000.0 8.805090342955585e-05 -0.3969813235606035
1240000000.0 0.3994052581164044 0.12539892955085616
1260000000.0 -0.4356668238462768 0.058772728194228206
1280000000.0 0.4360688498271344 -0.10641295693736326
1300000000.0 -0.43266460619872094 -0.11575775491908545
1320000000.0 -0.09414239492684551 0.4242638699967515
1340000000.0 -0.34095775523472976 0.24258255346362625
1360000000.0 -0.16829181624869122 -0.3708811538077345
1380000000.0 0.22188317695148568 -0.34079537745116806
1400000000.0 0.2671085536844036 -0.2930819785434174
1420000000.0 0.21086244652877553 -0.3249882620348078
1440000000.0 0.000405341586567713 -0.37364121616654056
1460000000.0 -0.3409790412511198 -0.10684133398610265
1480000000.0 0.1158163551064231 0.3175559360458145
1500000000.0 -0.2043570208976644 -0.2354040109966901
1520000000.0 0.024037789842737103 0.2849305301090231
1540000000.0 0.04256351451557829 0.2503490270629333
1560000000.0 0.19645434142754448 0.08396178500710484
1580000000.0 0.13415164254405684 -0.11728173889106513
1600000000.0 0.03944175090129107 0.13845142423116988
1620000000.0 -0.10138212691766568 0.011017024776591439
1640000000.0 0.043281996285213356 0.05948251047283856
1660000000.0 0.04693691857612987 0.004276009277861415
1680000000.0 0.01656988335258019 0.004186635428802948
1700000000.0 -0.0034574986832183493 0.011394837133257021
1720000000.0 -0.01487801971940203 -0.027494495724607607
1740000000.0 -0.05057882902688395 0.007138565484033021
1760000000.0 0.022827351033866825 -0.06072328906273508
1780000000.0 0.011766869195353384 0.0823515929274972
1800000000.0 0.04066590444403867 -0.0988179588968556
1820000000.0 0.11978508022018541 -0.021201112386934295
1840000000.0 -0.07031455697058916 0.12948549135611898
1860000000.0 -0.13581459830451706 -0.10737794015315306
1880000000.0 0.15259479010470545 -0.14567049229808982
1900000000.0 0.2284790119971643 -0.11553254819511106
1920000000.0 -0.2893246509977435 -0.08916620993799163
1940000000.0 0.14591319487863788 0.31674175893148415
1960000000.0 -0.09078157161003339 -0.375481581734033
1980000000.0 0.15797556045363684 0.3826232927743347
2000000000.0 0.12312210770161904 -0.41876761668753937
2020000000.0 -0.18411691084438012 0.4103108912481676
2040000000.0 0.4473762753143693 0.06386895518159774
2060000000.0 -0.23438655409185227 -0.38103330869470414
2080000000.0 -0.40385889456487334 0.15502422407581726
2100000000.0 -0.30631911616537705 0.28154269167232965
2120000000.0 -0.3777034265557085 0.12794365500024343
2140000000.0 -0.37504205347558667 -0.07748847934219148
2160000000.0 0.30872674965860236 -0.2037552869018406
2180000000.0 0.3600656864424547 -0.002944618929477782
2200000000.0 0.3333321517885202 0.11525813872265261
2220000000.0 0.3020478261744388 -0.18245859105846496
2240000000.0 -0.1799171752954454 -0.3030868618185843
2260000000.0 -0.3177382665167075 0.160874579996035
2280000000.0 0.19883391992977012 0.29882676762869226
2300000000.0 0.23040706961764434 -0.2914165487125833
2320000000.0 -0.37863157142724696 -0.09213367640272377
2340000000.0 -0.0908809315692172 0.40639157963095923
2360000000.0 0.45023925356566213 -0.03901173278109342
2380000000.0 -0.4057203850515046 -0.2894845511511417
2400000000.0 0.29611556277461015 0.46326745528571384
2420000000.0 -0.4137809007595105 -0.4391775118469721
2440000000.0 0.6400839695346368 0.13841564946639073
2460000000.0 -0.6229297209139298 0.31254560683239474
2480000000.0 0.36660424443762246 -0.6308360750412048
2500000000.0 -0.29720381333149914 0.6895597000846815
2520000000.0 0.44380541819717745 -0.6201092429189726
2540000000.0 -0.6574879835299674 0.39086935362460495
2560000000.0 0.7544381434774856 0.09251159685981368
2580000000.0 -0.3221677834477305 -0.6715167537012539
2600000000.0 -0.2932311846157827 0.6574335872351087
2620000000.0 0.679544796339173 -0.11928222465755081
2640000000.0 0.525173013247352 -0.3883444528995321
2660000000.0 -0.5682368936230059 -0.22197119045660735
2680000000.0 0.09413643696499108 0.5581191368308811
2700000000.0 0.19572683079418182 -0.4838591786777126
2720000000.0 -0.28595534240316345 0.38007922696960994
2740000000.0 0.23964968576790477 -0.3585581105002525
2760000000.0 -0.10187332149406277 0.3764109406033916
2780000000.0 -0.18459040320564363 -0.30417079994331614
2800000000.0 0.3082741019075385 0.10036069440147943
2820000000.0 -0.2889116920570518 0.08608374857876162
2840000000.0 0.2724224050060306 -0.09088125268816305
2860000000.0 -0.26223697608417573 0.10540843750056081
2880000000.0 0.2752957371508515 -0.06760011643679834
2900000000.0 -0.2665817288332712 -0.10999922537326706
2920000000.0 0.0658814608747045 0.29280305708890086
2940000000.0 0.18970167415317002 -0.2481037001223978
2960000000.0 -0.2966109115384209 -0.11787888617505118
2980000000.0 -0.2905460592786858 0.14522432838437588
3000000000.0 -0.279025900408789 0.1730613637702633
3020000000.0 -0.3248212000201787 0.028767762031189744
3040000000.0 0.04038290557230293 -0.31745190088148745
3060000000.0 0.2589192127151326 0.17374460308945458
3080000000.0 -0.19987371390578115 -0.22557253875309063
3100000000.0 0.13734248784662745 0.2587269873207153
3120000000.0 0.10925327585058818 -0.26099850920184237
3140000000.0 -0.22183399219850644 0.15838765166228413
3160000000.0 0.26005003986063563 -0.0255960550831498
3180000000.0 0.043324716196453165 -0.2451153257689382
3200000000.0 0.186496539613648 0.14011878217673424
3220000000.0 -0.0429367897772016 0.20690106346663578
3240000000.0 -0.08181279315881317 0.166341917620552
3260000000.0 -0.09071043479789924 0.12298139447481929
3280000000.0 0.08901787256824009 0.07532578914364288
3300000000.0 0.0807701418774577 0.0025264645362901195
3320000000.0 -0.032571125604687313 0.03072605562127492
3340000000.0 0.0004720539286385891 0.014519221389605885
3360000000.0 -0.011468293867005293 0.003801449679126911
3380000000.0 0.007166239472551232 0.023416054209287794
3400000000.0 0.023223651383885772 0.01896251319477103
3420000000.0 -0.019540100695762983 -0.024367498950051455
3440000000.0 -0.004186420553271687 0.03231881446420314
3460000000.0 0.031570264610410466 0.027878537192840707
3480000000.0 0.045928414132103676 -0.042918927914140474
3500000000.0 -0.05958378653609507 0.06264814319246259
3520000000.0 -0.002372721896248913 0.10951259980159131
3540000000.0 0.1241700492608605 -0.015066788147701732
3560000000.0 0.09277275916891833 -0.0988307309690328
3580000000.0 0.11100255484167373 0.09096148200040463
3600000000.0 -0.12506131672972506 0.08954445463782024
3620000000.0 0.029413492223402275 -0.15704515225917723
3640000000.0 -0.07454116441118641 0.1498520318450313
3660000000.0 -0.029441505482177995 -0.17590774213057908
3680000000.0 0.1633775836940831 0.09113287545178472
3700000000.0 0.046880652849049284 0.1873598209384267
3720000000.0 -0.019358747488963445 0.19807127073631095
3740000000.0 0.1306016671464064 0.1482872557615795
3760000000.0 -0.06145544903696596 0.18234127556641744
3780000000.0 -0.17963154381836116 -0.018591595728323727
3800000000.0 0.16227260544966013 -0.02150970366419871
3820000000.0 0.1488426156000709 0.0004893864542222231
3840000000.0 -0.13529133119722223 0.013828577351185797
3860000000.0 -0.09508510784375306 0.09697630911578918
3880000000.0 0.07189989394913544 -0.12936745426725405
3900000000.0 -0.14735676369403863 -0.06608354751200113
3920000000.0 0.17085647792792316 -0.03375240850269551
3940000000.0 0.18032755041500506 0.029099232053435852
3960000000.0 0.05656222694141764 -0.17905872594691424
3980000000.0 -0.13086318970246485 0.1277441509285222
4000000000.0 -0.031921421704599585 0.16595936671126205
