! Created with skrf (http://scikit-rf.org).
# Hz S RI R 50.0 
!freq ReS11 ImS11
400000000.0 0.19895998068498028 0.851488653007942
420000000.0 0.6114301784133898 0.6060571519543091
440000000.0 0.8126390384827633 -0.1538602184209278
460000000.0 0.15032839416511276 -0.7752799568163711
480000000.0 0.5692415337973609 -0.41735869059183267
500000000.0 0.4662888034616776 -0.31072157341970813
520000000.0 0.20512408125386808 -0.44289709985805775
540000000.0 0.3905636658816629 0.17144721919770503
560000000.0 -0.2884942000823381 -0.21117661739053745
580000000.0 -0.330731090177109 0.07061914963018835
600000000.0 0.3316420988105254 -0.045274655549014844
620000000.0 -0.08896814167186903 -0.3393046753937392
640000000.0 -0.3620164893189972 -0.12926663223390025
660000000.0 -0.3195922774962552 0.24138716346610337
680000000.0 -0.09902502538810162 -0.41600540206160236
700000000.0 0.22734966706100837 0.386894447333037
720000000.0 0.15769896755855434 -0.42011247553066416
740000000.0 0.41917719541998016 -0.13251040531366956
760000000.0 -0.4009466919092501 -0.11587675307394965
780000000.0 0.1818524510597316 -0.3395708827660084
800000000.0 0.12691978543948196 0.3262488899041222
820000000.0 0.1504948169138784 0.24594771988918573
840000000.0 0.20077800643386864 0.11891073846101322
860000000.0 0.10435443641114282 0.170046744745563
880000000.0 -0.1307854724612901 0.040382207714377415
900000000.0 -0.06516037243328601 -0.028990917751624795
920000000.0 0.03880135599513037 -0.0021739714008827808
940000000.0 0.01231889983527455 0.027111801019406814
960000000.0 -0.04148311441454291 0.002720226915184948
980000000.0 -0.0011048087733483108 0.05086938681957303
1000000000.0 -0.05576282094296639 0.013389087031128928
1020000000.0 -0.0631747474876329 -0.03388238223985589
1040000000.0 -0.07591214437780804 -0.03579827424064233
1060000000.0 0.11174253612401408 0.05257796348186022
1080000000.0 -0.06845612442787558 -0.12324776034103348
1100000000.0 -0.05313158175133934 -0.1591309290782665
1120000000.0 -0.1983748571457472 0.015073752804096995
1140000000.0 0.2428863098872706 0.003983594788280421
1160000000.0 0.14027407642191625 -0.2502219066273334
1180000000.0 -0.22843853213788765 -0.23966146233405916
1200000000.0 -0.3363235179221796 -0.14609209341184848
1220000000.0 0.025432475896935296 -0.39596255739704855
1240000000.0 0.3886132519296546 0.154437991584585
1260000000.0 -0.4386919423459694 0.01906715128490791
1280000000.0 0.44188569853410725 -0.07518803407931368
1300000000.0 -0.4245547301467277 -0.14032665111069173
1320000000.0 -0.09025587279462254 0.4247057990900916
1340000000.0 -0.33963869057729157 0.2436040320096879
1360000000.0 -0.17191488437652377 -0.36886007827254447
1380000000.0 0.2053956554181881 -0.350765681273661
1400000000.0 0.2502788526462977 -0.30769739710537997
1420000000.0 0.1857279710449191 -0.34013421155354573
1440000000.0 -0.024340350261376827 -0.3733513607606546
1460000000.0 -0.3464687973229738 -0.09022482640103299
1480000000.0 0.1291619800669637 0.313383392153318
1500000000.0 -0.21886125122190309 -0.2234853619694054
1520000000.0 0.04737647778304696 0.28279268532348223
1540000000.0 0.037902594175863884 0.25234001327457806
1560000000.0 0.1656301381520162 0.13659010810947433
1580000000.0 0.15736981660969995 -0.08477249246600514
1600000000.0 -0.0183032187519501 0.1430025633658679
1620000000.0 -0.08959591595059543 -0.04803944906215852
1640000000.0 5.8857997605113544e-05 0.07295256392403722
1660000000.0 0.04502069324910007 0.009878474759810935
1680000000.0 -0.0022444718708385402 -0.0160878585422895
1700000000.0 -0.012207218657383731 0.0019702543812393494
1720000000.0 -0.0007165009689717285 -0.03225369059638844
1740000000.0 -0.04555677316481788 -0.023732788596652774
1760000000.0 0.06247080826523348 -0.014965208189903732
1780000000.0 -0.038466143610040464 0.07284605676845392
1800000000.0 0.07245389688314681 -0.07747464229904671
1820000000.0 0.11881592383286371 0.017810589185980143
1840000000.0 -0.10210836490978809 0.1039073758563802
1860000000.0 -0.12084217534727865 -0.12218245614274849
1880000000.0 0.15623905525495396 -0.139662401324067
1900000000.0 0.22463255458205997 -0.12093623434010219
1920000000.0 -0.2944413117448305 -0.06701301168284989
1940000000.0 0.181724306488117 0.2972480072791105
1960000000.0 -0.1399345477496935 -0.36019446041808456
1980000000.0 0.20073623681994063 0.3625713048502891
2000000000.0 0.07627029042311108 -0.4307181018272868
2020000000.0 -0.16854849054852583 0.41796425709018387
2040000000.0 0.45288858512318214 0.010753666715441458
2060000000.0 -0.21536455784668218 -0.39390532889239915
2080000000.0 -0.41059365954763694 0.14012673826778813
2100000000.0 -0.3466822642956883 0.23290776375271455
2120000000.0 -0.3930825260619639 0.07508956157885266
2140000000.0 -0.33116277432032887 -0.1953792744548295
2160000000.0 0.3585198926952097 -0.09538934461958722
2180000000.0 0.34291257138654824 0.11264224574526088
2200000000.0 0.2729349340864617 0.22409002893965474
2220000000.0 0.3442003164035015 -0.07992551133266416
2240000000.0 -0.09494632658604382 -0.3390364813352419
2260000000.0 -0.3483357697750749 0.06956954290058052
2280000000.0 0.14081782904376172 0.32887950509095654
2300000000.0 0.2589230397678167 -0.26461481191991604
2320000000.0 -0.3705066881010169 -0.11597445949253447
2340000000.0 -0.10991306736347185 0.39993162195344045
2360000000.0 0.4488230067094882 -0.04353882644056377
2380000000.0 -0.4226029215423201 -0.26303571959495026
2400000000.0 0.3069607229665525 0.455937507939797
2420000000.0 -0.406424985272519 -0.4469572571574183
2440000000.0 0.6424336848989985 0.13186823271423545
2460000000.0 -0.6259064749716576 0.30979610689587145
2480000000.0 0.40722550769842575 -0.6076222034467047
2500000000.0 -0.3536954254536652 0.6645674027262278
2520000000.0 0.47656302373104564 -0.5978286113353545
2540000000.0 -0.6772515942935345 0.35998490790725296
2560000000.0 0.7288898296012758 0.22297467802724666
2580000000.0 -0.2602323234708569 -0.6995200471406151
2600000000.0 -0.4012883209957284 0.5995943678920159
2620000000.0 0.691370336908177 -0.005914019545906144
2640000000.0 0.6041101103674407 -0.2511013388593385
2660000000.0 -0.5152696269938102 -0.32764965011611874
2680000000.0 0.009436483847022975 0.5663269961390025
2700000000.0 0.2560283803797365 -0.455067510792234
2720000000.0 -0.3255867030264248 0.3465785683424178
2740000000.0 0.28928993447171236 -0.3192649575701856
2760000000.0 -0.11517142262173187 0.37198937102376717
2780000000.0 -0.1946954399008 -0.2969880273211347
2800000000.0 0.3142872534333244 0.07784240128479948
2820000000.0 -0.2746694941435839 0.12359656239653129
2840000000.0 0.2581385386061868 -0.1275341015037494
2860000000.0 -0.25115392763776767 0.1317181531973292
2880000000.0 0.26398793344574967 -0.1057874508598164
2900000000.0 -0.27418521167582666 -0.09465268431525119
2920000000.0 0.053055804314228176 0.29736289188965315
2940000000.0 0.1951391509485932 -0.24626786360836933
2960000000.0 -0.28412488855384377 -0.1495233639881765
2980000000.0 -0.30332824568806466 0.12197638845320144
3000000000.0 -0.3149608332813768 0.09747728198678704
3020000000.0 -0.3224211776674211 -0.05887769140738608
3040000000.0 0.1180113450681688 -0.2990762315198603
3060000000.0 0.11666372219413162 0.28984953540226294
3080000000.0 -0.11195081517741104 -0.2804817247328812
3100000000.0 0.001927464312574903 0.29333258306362187
3120000000.0 0.20544940396079617 -0.19473494484224615
3140000000.0 -0.262162249153869 0.07623358480058016
3160000000.0 0.2520635060940241 0.0682097194905872
3180000000.0 0.1233469694343374 -0.2157946915997833
3200000000.0 0.13562580851561773 0.18897738110038464
3220000000.0 -0.08205303425555519 0.19390861007412877
3240000000.0 -0.09642814599301733 0.15719619164535942
3260000000.0 -0.07156072071907192 0.13323160080808957
3280000000.0 0.09609366987575478 0.06286838436774901
3300000000.0 0.030569255640579173 -0.07322076931821213
3320000000.0 0.041683805036260055 -0.01321627149439102
3340000000.0 0.014044951929056144 -0.0010335396221695038
3360000000.0 -0.0048938200545905084 0.012496610079203729
3380000000.0 0.024576323834187615 0.0006342356736090167
3400000000.0 -0.02250488020329661 -0.020040702372875165
3420000000.0 0.0015475510453855628 0.031133649762415533
3440000000.0 0.03139178453990398 -0.008959621781740377
3460000000.0 -0.04013873202235074 -0.01574199779491406
3480000000.0 0.018666699190925 0.06113336896548231
3500000000.0 -0.08419988917688072 -0.024174100471420712
3520000000.0 -0.08908911710826624 0.06495984723003609
3540000000.0 0.10993617511621057 0.06113686917983651
3560000000.0 0.13575194750396197 -0.00332861513594503
3580000000.0 0.017242780721362625 0.14243470675562228
3600000000.0 -0.14324043741802334 -0.05330681986707772
3620000000.0 0.12597483906946072 -0.0976027600623792
3640000000.0 -0.15809525250021353 0.052708465565820255
3660000000.0 0.09104150874860072 -0.15228691103148653
3680000000.0 0.07686108611683994 0.16993798491482254
3700000000.0 -0.06185425237219174 0.18198951800854588
3720000000.0 -0.09746165903429287 0.17173098916927002
3740000000.0 0.07088372026754143 0.18251317177567303
3760000000.0 -0.09221924763443279 0.1661729187037773
3780000000.0 -0.17081498173757909 -0.049702254922977196
3800000000.0 0.1612644085762964 -0.001304636196149039
3820000000.0 0.14070848309272452 0.04110430597712086
3840000000.0 -0.1288317804342877 -0.035380526259053365
3860000000.0 -0.12081429043269379 0.05662012521164163
3880000000.0 0.11892735707456568 -0.08510058774643318
3900000000.0 -0.11600828380620433 -0.10962483256193277
3920000000.0 0.17190913249266682 0.0027407727509848193
3940000000.0 0.1750166899237003 0.04350387351807544
3960000000.0 0.03354734858837092 -0.1819447636401977
3980000000.0 -0.13106383072665045 -0.12378531811949417
4000000000.0 0.06786392110508768 0.15240317030311581
