! Created with skrf (http://scikit-rf.org).
# Hz S RI R 50.0 
!freq ReS11 ImS11
400000000.0 0.21856347905285894 0.8464212358704272
420000000.0 0.6202235708687431 0.5963449901799391
440000000.0 0.8103202893424165 -0.16357738369743235
460000000.0 0.13289440780182407 -0.778189893178259
480000000.0 0.5557696008815541 -0.4353131216255281
500000000.0 0.46582075456419264 -0.31183831275678486
520000000.0 0.20506512412432998 -0.4431821179703819
540000000.0 0.3907014205018753 0.17101501797791566
560000000.0 -0.28959464277355135 -0.2095430712760876
580000000.0 -0.3318216596938615 0.06400256515484472
600000000.0 0.3309273973528492 -0.048357528303860614
620000000.0 -0.09927615667784541 -0.33573017466441424
640000000.0 -0.3662635213855752 -0.11550030866023657
660000000.0 -0.3144430159625212 0.2474453643120855
680000000.0 -0.09506469797701413 -0.41703932023748297
700000000.0 0.2460860239095144 0.3751077882108988
720000000.0 0.13475623021765137 -0.42828345912130034
740000000.0 0.411929569227554 -0.15328311095953118
760000000.0 -0.4028204762101344 -0.11037878691017732
780000000.0 0.18657664180664968 -0.3369746617759005
800000000.0 0.13171136474103678 0.3245402277517166
820000000.0 0.1383306439318838 0.2527644713215045
840000000.0 0.19020530957548476 0.13550443449740104
860000000.0 0.08887096548533613 0.17832058288146682
880000000.0 -0.13199066733415762 0.03512129214878334
900000000.0 -0.06561789593286169 -0.027479953826770733
920000000.0 0.03496082158585651 -0.01701277015309266
940000000.0 0.0198324334687606 0.022723042259562672
960000000.0 -0.0385620811851532 -0.016474682124644965
980000000.0 -0.0177408523519536 0.04797362312471806
1000000000.0 -0.0567665254609132 -0.008535662270507683
1020000000.0 -0.06102309850415682 -0.03805206017057337
1040000000.0 -0.07014293260164746 -0.04596293317623316
1060000000.0 0.10743631458707865 0.06049808199928286
1080000000.0 -0.06363569317630503 -0.1252850752020116
1100000000.0 -0.05555888128026844 -0.15782726075808087
1120000000.0 -0.19813124058562448 0.011779584580498327
1140000000.0 0.2419600820172688 -0.018066413791802655
1160000000.0 0.10487247221887971 -0.2668078140737672
1180000000.0 -0.23638831702696372 -0.23152952936620777
1200000000.0 -0.3431573200808024 -0.128960200866073
1220000000.0 0.038630289950834486 -0.3946522198044748
1240000000.0 0.39704330662035386 0.13196150126637426
1260000000.0 -0.4374824355225611 0.0409919648864136
1280000000.0 0.4398925609215643 -0.08772965992133118
1300000000.0 -0.42974109266734317 -0.1250928512029559
1320000000.0 -0.09682100123188385 0.42345406274373637
1340000000.0 -0.34118769560135426 0.2420876611972656
1360000000.0 -0.16578893486497262 -0.37181400599471953
1380000000.0 0.2195251399673374 -0.3422743656763556
1400000000.0 0.259486329875919 -0.2999382867412247
1420000000.0 0.20110677488450807 -0.331033882369711
1440000000.0 -0.0048947943957492945 -0.3737512723497814
1460000000.0 -0.3419848154391437 -0.1042702042329145
1480000000.0 0.1210238665211323 0.31616880286078397
1500000000.0 -0.21198554291676247 -0.22912215188142881
1520000000.0 0.05748185698088909 0.28015586668305126
1540000000.0 0.03774316114879818 0.25157778113408696
1560000000.0 0.19096905505882192 0.09618495828602316
1580000000.0 0.15369943619638182 -0.09081736501808939
1600000000.0 0.016427908305165977 0.14317037449010997
1620000000.0 -0.1003072437805977 -0.017635764675694065
1640000000.0 0.016030459265838463 0.07153228469392373
1660000000.0 0.046328528788543065 0.006076428562821462
1680000000.0 0.013721050491227616 0.009413045993859944
1700000000.0 0.0008790922394752457 0.012069846081444204
1720000000.0 -0.010348842722855306 -0.02991204696871137
1740000000.0 -0.050675378817271334 -0.00676120407002547
1760000000.0 0.04003832509620879 -0.05072293271056176
1780000000.0 0.0005643885261423983 0.0829780297253389
1800000000.0 0.045152039704855054 -0.09696675548924633
1820000000.0 0.12015563366618176 -0.012813306181668965
1840000000.0 -0.08592437572988587 0.11882921583803462
1860000000.0 -0.13342788911374476 -0.10981127613298666
1880000000.0 0.15238097771234793 -0.14488879311118907
1900000000.0 0.2274352612882363 -0.11711077683740988
1920000000.0 -0.2926045079124722 -0.07712150817393061
1940000000.0 0.15595672400766708 0.31190912334089704
1960000000.0 -0.10454889326156737 -0.3720393880925564
1980000000.0 0.16222673312419789 0.3811078661245402
2000000000.0 0.11517060620744367 -0.42152891114920293
2020000000.0 -0.1842309815233378 0.4105087410238847
2040000000.0 0.45032775263152613 0.04248965954108052
2060000000.0 -0.20326079275516276 -0.39928591488255327
2080000000.0 -0.4061481757984277 0.14951174453929555
2100000000.0 -0.32013427634845043 0.2664817473792654
2120000000.0 -0.3735774435820923 0.1397527707032746
2140000000.0 -0.36673639750383064 -0.11139049860058864
2160000000.0 0.33117881406993016 -0.16552358983893473
2180000000.0 0.35851523309293726 0.034120126020064374
2200000000.0 0.32019970902801065 0.14785099757455655
2220000000.0 0.31746237349379486 -0.154042242017942
2240000000.0 -0.15940814231310393 -0.3137939678374985
2260000000.0 -0.3302076583138871 0.13215350490339187
2280000000.0 0.19131278811477767 0.3032987622083925
2300000000.0 0.2354359934508241 -0.2867589281193632
2320000000.0 -0.37910572361953776 -0.08795572462562339
2340000000.0 -0.11945591980906918 0.39792708130321913
2360000000.0 0.45066346766589227 -0.022080686574273825
2380000000.0 -0.4157435840200989 -0.27441535937408396
2400000000.0 0.2820285963352941 0.47171446072567397
2420000000.0 -0.40118178233452545 -0.45119694536769095
2440000000.0 0.6398329743621104 0.140717755570424
2460000000.0 -0.6247536019460465 0.3103443706312478
2480000000.0 0.36764096066963475 -0.6309443114154789
2500000000.0 -0.2931973986396222 0.6921243160450414
2520000000.0 0.4409788967731779 -0.623224533605684
2540000000.0 -0.6473589717941401 0.40892867952975936
2560000000.0 0.7537531897338181 0.10377255162448376
2580000000.0 -0.30849384461076484 -0.6784282016663006
2600000000.0 -0.3244636093589874 0.6430660987542897
2620000000.0 0.6863339519276199 -0.07060140511455747
2640000000.0 0.5433640997926269 -0.3621405419691365
2660000000.0 -0.5655908030254108 -0.22695595064912455
2680000000.0 0.13999475915250495 0.5478145066139625
2700000000.0 0.19451571857730224 -0.4834984709788732
2720000000.0 -0.27589102165839613 0.386332160559629
2740000000.0 0.2551064453739512 -0.3463865575656391
2760000000.0 -0.09283731973190046 0.3775364735582607
2780000000.0 -0.20644320960865212 -0.2883146188701789
2800000000.0 0.3164391853849248 0.0660440872965331
2820000000.0 -0.27436158597030613 0.12320611713145774
2840000000.0 0.25114734440587017 -0.13857181401670066
2860000000.0 -0.23807246710965532 0.15202307703676515
2880000000.0 0.266662610171812 -0.09723458464912782
2900000000.0 -0.27516315819011455 -0.08842989747136516
2920000000.0 0.0655654832637105 0.2936472030058865
2940000000.0 0.186659818629382 -0.25110385185189416
2960000000.0 -0.29622734875269957 -0.12076262792314738
2980000000.0 -0.30475977157677914 0.11440980935623407
3000000000.0 -0.2956564017972311 0.14549478076888583
3020000000.0 -0.3267833810511045 0.001456828799677525
3040000000.0 0.03752769869869548 -0.3183245175433504
3060000000.0 0.18946968338148826 0.2475796836551409
3080000000.0 -0.1702108038506091 -0.24866986076037736
3100000000.0 0.09894655560565038 0.2756236641765321
3120000000.0 0.1444249992803525 -0.24312911312818256
3140000000.0 -0.24034818781741904 0.1284168310690788
3160000000.0 0.26113649478022655 0.005067852262795527
3180000000.0 0.043793573539522054 -0.24517810972262385
3200000000.0 0.17838396174903562 0.1500735949196455
3220000000.0 -0.0648817964310238 0.20083992544963822
3240000000.0 -0.09027854257229011 0.16168017061455803
3260000000.0 -0.0890763687984448 0.12366762659599105
3280000000.0 0.09079674539104143 0.0722644420034392
3300000000.0 0.0801695302566862 -0.006230153064794474
3320000000.0 -0.00668006117441457 0.043942384109286775
3340000000.0 0.013396850511512874 -0.005089321854173965
3360000000.0 0.0001954542174171542 -0.012298307175165503
3380000000.0 -0.01441400297083865 0.019826822638246148
3400000000.0 0.016725394598724682 0.025137431842011334
3420000000.0 -0.0008302079607704653 -0.0312544923402473
3440000000.0 -0.020636446233643663 0.025470008448774093
3460000000.0 0.0166684127920778 0.03890839324405954
3480000000.0 0.06291262904491934 -0.002517143486747279
3500000000.0 -0.06316760095000302 0.05971505007550605
3520000000.0 -0.025090438006922643 0.10678666488053314
3540000000.0 0.1253341680204682 -0.007358354611020069
3560000000.0 0.11112551441970232 -0.07833966782693311
3580000000.0 0.10364919335561315 0.10005411237123066
3600000000.0 -0.13718881016835394 0.06980076938401392
3620000000.0 0.051063630334432564 -0.15161710463311007
3640000000.0 -0.10469963760595499 0.13033185526102378
3660000000.0 0.004266859080235698 -0.17842298988025476
3680000000.0 0.1445474939819876 0.11918699610780731
3700000000.0 0.009312651833877106 0.1932096759104767
3720000000.0 -0.03822866464820643 0.19508306866271968
3740000000.0 0.10980252050306762 0.16362849900293264
3760000000.0 -0.07454759476506605 0.1764163247467446
3780000000.0 -0.17888122216291777 -0.01225237350680678
3800000000.0 0.1624904715383118 -0.011547845175193843
3820000000.0 0.14770435017442612 0.00673790018536441
3840000000.0 -0.1304611982754187 -0.03743219271331926
3860000000.0 -0.10985491672144386 0.07880690139473359
3880000000.0 0.09459693758707784 -0.11324024583407509
3900000000.0 -0.13563177487275377 -0.08685052530755112
3920000000.0 0.17307926802307513 -0.010212418507746384
3940000000.0 0.1787443221470348 0.030627556808042963
3960000000.0 0.04374067803458386 -0.1812705898289792
3980000000.0 -0.1148690879439243 -0.14104856992557097
4000000000.0 0.039138298397416615 0.16352847312530042
