! Created with skrf (http://scikit-rf.org).
# Hz S RI R 50.0 
!freq ReS11 ImS11
400000000.0 0.20403566073240997 0.8500027511867023
420000000.0 0.6005263643974088 0.6164695473606593
440000000.0 0.8159692040538659 -0.13413795631768355
460000000.0 0.17120318892008224 -0.7712137396481983
480000000.0 0.5731358906572185 -0.41253917255859424
500000000.0 0.47946043018051504 -0.29032030273585874
520000000.0 0.22276196914085322 -0.4350423941637394
540000000.0 0.39850022688379144 0.1531001749517015
560000000.0 -0.30642188768145906 -0.1843947517196221
580000000.0 -0.3210514467683528 0.10546591863157491
600000000.0 0.32805682128230257 -0.0663223328275359
620000000.0 -0.0943985950690239 -0.33769872007504664
640000000.0 -0.3582621206047571 -0.139270613090728
660000000.0 -0.33597191449612673 0.2181863499055081
680000000.0 -0.09837991673858118 -0.4162299272369881
700000000.0 0.22727179490260122 0.38699172548137195
720000000.0 0.15911663013843502 -0.41966978222812207
740000000.0 0.4164403186539457 -0.13867862339090042
760000000.0 -0.3977070455989526 -0.12543096090218697
780000000.0 0.19012875706999338 -0.33475135642085774
800000000.0 0.1349687371857486 0.3228264198107623
820000000.0 0.1643565139051398 0.23649895075427874
840000000.0 0.2057390351251739 0.11057350623435638
860000000.0 0.10727544480671367 0.16816026837843603
880000000.0 -0.13208166423284404 0.035380907806930394
900000000.0 -0.06284361619450485 -0.0332158388153731
920000000.0 0.038085932957413 -0.006785504761213341
940000000.0 0.021397255919949988 0.020715567353970798
960000000.0 -0.041200346580480475 -0.005384489202451261
980000000.0 -0.007768363705888898 0.05017915155411702
1000000000.0 -0.05588141096513887 0.012631204671099884
1020000000.0 -0.0685095940388413 -0.02161515415936422
1040000000.0 -0.08098135943292402 -0.02172131329847289
1060000000.0 0.11454292424145096 0.046616033437798035
1080000000.0 -0.07077580299485914 -0.12215808333495529
1100000000.0 -0.05346010891079172 -0.15924039368912835
1120000000.0 -0.1990038554002324 0.0025107964478736345
1140000000.0 0.2429976393310137 -0.006099340101582914
1160000000.0 0.1630574288588281 -0.23577646567065572
1180000000.0 -0.21995163145829605 -0.24732609740238473
1200000000.0 -0.3346005708970111 -0.14974517514127658
1220000000.0 0.042665376190547506 -0.39435632265206433
1240000000.0 0.38554269972780164 0.1615349876782936
1260000000.0 -0.4379338417135388 0.03001758842936599
1280000000.0 0.44107979749705273 -0.07937676920169637
1300000000.0 -0.4292032374195153 -0.12551893958203544
1320000000.0 -0.08627424019791304 0.42536087977673487
1340000000.0 -0.3347441417824775 0.25031160145879167
1360000000.0 -0.17573632636049116 -0.36720161005548396
1380000000.0 0.2072516473308524 -0.3498938143855556
1400000000.0 0.24667296895508592 -0.3108568694133692
1420000000.0 0.18814646406103977 -0.33914338519923154
1440000000.0 -0.029673536339433627 -0.37314605089857933
1460000000.0 -0.3473809484426744 -0.0876862509923625
1480000000.0 0.13521309674362658 0.31104096869464554
1500000000.0 -0.2052061367723782 -0.23601703447488592
1520000000.0 0.013165277684615513 0.28680658792534214
1540000000.0 0.017284040469605005 0.25462603021594304
1560000000.0 0.17998903948196415 0.11637811310007377
1580000000.0 0.163407460707529 -0.07213073737910776
1600000000.0 -0.010442826990194368 0.14361808884163996
1620000000.0 -0.09343218142284722 -0.040051376351584574
1640000000.0 -0.0030475479357376344 0.07283853772451743
1660000000.0 0.045640986888273255 0.006884338403364146
1680000000.0 0.004622322387851798 -0.015684544267152656
1700000000.0 0.003859067594459556 -0.01173833970875753
1720000000.0 0.020437929115384265 -0.024642326401058453
1740000000.0 -0.04572293901837219 -0.02298446518843478
1760000000.0 0.0627327071687183 -0.012004806873828116
1780000000.0 -0.024545433869479123 0.0787149960185793
1800000000.0 0.0638425487924907 -0.08471373757434107
1820000000.0 0.1202378027000312 -0.0009292927017069342
1840000000.0 -0.09310844663435137 0.11238253146095512
1860000000.0 -0.12254552690363472 -0.12070418843195478
1880000000.0 0.15417290540012688 -0.14229700833182832
1900000000.0 0.2254430051835883 -0.11967958541872897
1920000000.0 -0.29325804094020336 -0.07277613613936972
1940000000.0 0.17786047346556086 0.2997812103784462
1960000000.0 -0.12688378526719207 -0.36499927733715115
1980000000.0 0.19201533093946999 0.36712747031568294
2000000000.0 0.1322444277643736 -0.41713248392909763
2020000000.0 -0.162272050979051 0.42038397937277006
2040000000.0 0.4496926983428349 0.054261634293769935
2060000000.0 -0.22226246846067013 -0.3897112240513209
2080000000.0 -0.40910810025490013 0.14340933721985205
2100000000.0 -0.3465672803738312 0.23282370664126847
2120000000.0 -0.3930695613242512 0.074252458615687
2140000000.0 -0.3499441602226804 -0.15844370754350853
2160000000.0 0.34828329108925543 -0.12778438258997246
2180000000.0 0.3435430678470978 0.11063327455109132
2200000000.0 0.27558804538285 0.22094769732349573
2220000000.0 0.35148501311179764 -0.03681540717139145
2240000000.0 -0.10112528530388697 -0.33704562889743117
2260000000.0 -0.349115763323057 0.06551202216121593
2280000000.0 0.1223667096470525 0.33612501485568647
2300000000.0 0.2752120081147519 -0.2472136145328079
2320000000.0 -0.36675442417925896 -0.1270615429567224
2340000000.0 -0.14754645687508955 0.3872078240585919
2360000000.0 0.45004414694853684 0.005177459959262619
2380000000.0 -0.40602652416591944 -0.2870455265247413
2400000000.0 0.26260819624613496 0.48207729883872535
2420000000.0 -0.3768705821407896 -0.4712999343857979
2440000000.0 0.6334617231361027 0.16765706226639368
2460000000.0 -0.6339323105400386 0.2917243010071963
2480000000.0 0.44823319850764093 -0.5779666007389125
2500000000.0 -0.3870998726833123 0.645646808398182
2520000000.0 0.5189076152197232 -0.5616932383919521
2540000000.0 -0.7175755977532898 0.27165419924432255
2560000000.0 0.7240228848668631 0.23904658232767742
2580000000.0 -0.16014120131359574 -0.7295039745176554
2600000000.0 -0.44838448558314925 0.5658913624278601
2620000000.0 0.6900969598281068 0.04802383109105829
2640000000.0 0.6101077518569727 -0.23754773064113624
2660000000.0 -0.4866422027792483 -0.3695453138380084
2680000000.0 -0.05666134806043217 0.5638348186867967
2700000000.0 0.3037211707183624 -0.4250238592769164
2720000000.0 -0.3453301710917962 0.3272659350673995
2740000000.0 0.28878541421136944 -0.32014113885228607
2760000000.0 -0.12159719773133304 0.3701881316498236
2780000000.0 -0.19335368422621538 -0.29824723669584347
2800000000.0 0.317394844807583 0.065969171432914
2820000000.0 -0.2683124030581043 0.1377916248146173
2840000000.0 0.2530568116783545 -0.137054020749624
2860000000.0 -0.23636530378631085 0.15669814615190725
2880000000.0 0.2653363193710644 -0.10363925117735441
2900000000.0 -0.2762055251191088 -0.08927059594949831
2920000000.0 0.059964192618134834 0.29608577841860495
2940000000.0 0.20851551073247082 -0.2352884270246009
2960000000.0 -0.2803049984777586 -0.1571885865140958
2980000000.0 -0.31478517359001484 0.08910130261523598
3000000000.0 -0.3143531373389541 0.09999977279244265
3020000000.0 -0.31783481143797154 -0.07970964979331585
3040000000.0 0.048282934733472754 -0.31780717551169524
3060000000.0 0.13970649754002593 0.27929435450459233
3080000000.0 -0.11119880922511888 -0.28072080144889705
3100000000.0 0.017723244480153666 0.29268117055339826
3120000000.0 0.19893623601763813 -0.2012854578811164
3140000000.0 -0.2644773315472086 0.06553941808705054
3160000000.0 0.2525264340170223 0.06541565790068926
3180000000.0 0.0905986876663425 -0.2315619330981747
3200000000.0 0.14911890785967832 0.17829600795205203
3220000000.0 -0.0652221341679277 0.20029470776743594
3240000000.0 -0.09172025065455001 0.1597169082547344
3260000000.0 -0.06495521609911217 0.13695904397637051
3280000000.0 0.0935579901928059 0.06737889155131069
3300000000.0 0.04973429511245959 -0.06233962337655172
3320000000.0 0.04362944723499935 0.005843045429240818
3340000000.0 -0.005997565587831149 0.01296469312622926
3360000000.0 -0.009720138904977095 -0.00900068311880392
3380000000.0 0.013515748302516301 -0.020241453243255155
3400000000.0 -0.0301730988289512 -0.00015211648467769055
3420000000.0 0.019518432639184152 0.023962338689574723
3440000000.0 0.005759829674301275 -0.03220724068008049
3460000000.0 -0.042373251181262006 0.006481023368020568
3480000000.0 0.03411781658973611 0.05388301579528259
3500000000.0 -0.08596267729349742 -0.015316302922102211
3520000000.0 -0.08177452124204097 0.07389872838925979
3540000000.0 0.10762361896043215 0.06495426437714583
3560000000.0 0.13576644483682007 -0.0021326642770733983
3580000000.0 0.028488241088711393 0.14065800958677088
3600000000.0 -0.15206574608457654 -0.019380435284621064
3620000000.0 0.1208341914431159 -0.10442914706899967
3640000000.0 -0.15539652284968025 0.060444642747541494
3660000000.0 0.08467133176692074 -0.1561120574043842
3680000000.0 0.08404443014385321 0.16649683402327375
3700000000.0 -0.057186630692131944 0.18366809812308976
3720000000.0 -0.09943260169703468 0.17071607243944167
3740000000.0 0.06927283354505513 0.18341189610893607
3760000000.0 -0.10601647712320951 0.15814623061253383
3780000000.0 -0.172971204164866 -0.04182475626680323
3800000000.0 0.16086838570977147 0.015893278649271068
3820000000.0 0.1377130946353284 0.05138932056412526
3840000000.0 -0.12563181638346405 -0.04643255204739633
3860000000.0 -0.12369301630990592 0.0499517583099158
3880000000.0 0.11564533062439818 -0.08862121786076911
3900000000.0 -0.11393820614082703 -0.11151823145099596
3920000000.0 0.17170537427883165 0.003763103834770604
3940000000.0 0.175645341009795 0.041116412482887874
3960000000.0 0.03236608263808761 -0.18191831122738994
3980000000.0 -0.12289375032952107 -0.13183803808951558
4000000000.0 0.03904228622671184 0.16221929864240722
