! Created with skrf (http://scikit-rf.org).
# Hz S RI R 50.0 
!freq ReS11 ImS11
400000000.0 0.25554116206032934 0.8338877394225851
420000000.0 0.635648227066832 0.5782321049904119
440000000.0 0.7793770638561153 -0.2702488687818418
460000000.0 0.2017030322007934 -0.7630878279638407
480000000.0 0.5422286873866298 -0.45292014146936
500000000.0 0.34225116849460957 -0.44568545601578935
520000000.0 0.32003604733535757 -0.3689083751243446
540000000.0 0.37874065444783817 0.20082232652270451
560000000.0 -0.26124709145823855 -0.2432778362029391
580000000.0 -0.2848406265541188 0.18018792764125763
600000000.0 0.3154547032199809 0.10372232503558668
620000000.0 -0.16217128929219127 -0.3109417126160864
640000000.0 -0.3622300543718931 -0.12628429992657642
660000000.0 -0.2923572919919983 0.27287306379158666
680000000.0 -0.17025585748804278 -0.3921802791467157
700000000.0 0.2882340598341368 0.3430007496955017
720000000.0 0.027532716255830612 -0.4492832214164201
740000000.0 0.41036395114772356 -0.16076990193842067
760000000.0 -0.37921619033378706 -0.1765852302742125
780000000.0 0.19657311681924208 -0.3311409612082439
800000000.0 0.08291730964397598 0.3399294200017432
820000000.0 0.09883710590008557 0.2710578501948448
840000000.0 0.18231897087610022 0.14492247863913454
860000000.0 0.04492965524306723 0.19336308013674502
880000000.0 -0.13584478322762544 0.010816400526848185
900000000.0 -0.06744574227875001 0.01959931405417726
920000000.0 0.003572666434020633 -0.03874697202477414
940000000.0 0.031122647508041598 -0.0009642699157314166
960000000.0 -0.032163349247585835 -0.026405387143644033
980000000.0 -0.01913401533688479 0.047579628647696014
1000000000.0 -0.05703821145658508 -0.006498313889038377
1020000000.0 -0.06425699930844414 -0.03282588995064028
1040000000.0 -0.05939832998115963 -0.058677839191607385
1060000000.0 0.11353626207902723 0.04784991161784655
1080000000.0 -0.08633057919657113 -0.10966214145916652
1100000000.0 -0.09491958603788918 -0.13692977663998745
1120000000.0 -0.18392474618934695 0.07167284786168493
1140000000.0 0.2301134210283991 -0.07217256729940179
1160000000.0 0.10010902915522443 -0.26825295284000134
1180000000.0 -0.26213571016948334 -0.2009405302116713
1200000000.0 -0.35216713258827126 -0.10169052212034185
1220000000.0 -0.013471830673107333 -0.39671544754133564
1240000000.0 0.3993063822843945 0.12742191709738634
1260000000.0 -0.4352722516627259 0.06490887041505478
1280000000.0 0.4368932916098295 -0.10385213981084648
1300000000.0 -0.4314902481964263 -0.12269297228200353
1320000000.0 -0.07174263297204178 0.4289726356869403
1340000000.0 -0.3288956670044661 0.25968628647226377
1360000000.0 -0.1619412643625614 -0.37396629159852274
1380000000.0 0.21909446867438348 -0.3426928935577467
1400000000.0 0.25862582902040293 -0.30042792548820507
1420000000.0 0.19927261670436622 -0.3317532923338665
1440000000.0 -0.011705990078264785 -0.37287701175478044
1460000000.0 -0.3434892047297847 -0.09659497505723298
1480000000.0 0.17344324511682838 0.2897260188503121
1500000000.0 -0.22694206797409655 -0.21339731389495487
1520000000.0 0.033044930467886154 0.28406925084660933
1540000000.0 0.056605953962483496 0.24765601112003932
1560000000.0 0.20173005768267913 0.06959728507358415
1580000000.0 0.133353432094076 -0.11840772215903411
1600000000.0 0.04893089985622714 0.13566524417470757
1620000000.0 -0.0993078546783692 0.025098612869543985
1640000000.0 0.05111509988279558 0.05372084071488818
1660000000.0 0.04700037008321123 -0.003189236556019032
1680000000.0 0.008892652080721852 0.014696484711760249
1700000000.0 -0.0107302157533438 0.001456611808082711
1720000000.0 -0.030873223562896176 -0.0009380535733169005
1740000000.0 -0.027568000173023428 0.04313830534295323
1760000000.0 0.028572673074568122 -0.05837552164704653
1780000000.0 0.04066824729796496 0.07295915460051715
1800000000.0 0.048906128251764505 -0.09552113417730938
1820000000.0 0.11751603964999882 -0.03349984636141841
1840000000.0 -0.07038611523712425 0.12984213316265758
1860000000.0 -0.13885260175092495 -0.10476951035725625
1880000000.0 0.15577524294953446 -0.14250442719812856
1900000000.0 0.22333918803108876 -0.12628693816062317
1920000000.0 -0.28413542651964846 -0.10347071908408556
1940000000.0 0.14332661049770667 0.3176329364599456
1960000000.0 -0.09443265735208331 -0.37423287980461983
1980000000.0 0.12281309642480347 0.39558380631045953
2000000000.0 0.16645331537705693 -0.4035680946367358
2020000000.0 -0.19444466393152465 0.4051380619416079
2040000000.0 0.4498214130972065 0.04085298740246679
2060000000.0 -0.23682331593411626 -0.37927270786297346
2080000000.0 -0.38837874385446614 0.1894449614008117
2100000000.0 -0.30817709027923024 0.2791757012410199
2120000000.0 -0.37307915953859033 0.14031409472027442
2140000000.0 -0.38030452550391486 -0.044763899598425354
2160000000.0 0.297424234691697 -0.2187384462686112
2180000000.0 0.35829470506604844 -0.024292525931810884
2200000000.0 0.3462292028057851 0.0697559654349096
2220000000.0 0.27123301075358675 -0.22628526497730753
2240000000.0 -0.21777956605601204 -0.27762035056578094
2260000000.0 -0.2862436692909626 0.212419985702248
2280000000.0 0.22889910119121337 0.2773180676692264
2300000000.0 0.20210325971002688 -0.3130815329337437
2320000000.0 -0.38600341575780484 -0.05731561686597041
2340000000.0 -0.06163291760248472 0.41204922232736346
2360000000.0 0.44845150255977195 -0.059970408993106
2380000000.0 -0.42558676310149973 -0.2604989555194484
2400000000.0 0.29932154347075535 0.4613193179972793
2420000000.0 -0.41090347315272124 -0.44223956344568727
2440000000.0 0.6451884113612127 0.11083933881342703
2460000000.0 -0.6091828096610327 0.33798635623152284
2480000000.0 0.3528923789881152 -0.6380154850521873
2500000000.0 -0.29064279599466336 0.6922169041277418
2520000000.0 0.4112511582395713 -0.6412694295270379
2540000000.0 -0.6353789818955937 0.42415984198566087
2560000000.0 0.7564230930223951 0.058224643653192854
2580000000.0 -0.40493215244351866 -0.6241801959389827
2600000000.0 -0.23957760234615136 0.6786615190378735
2620000000.0 0.6769089516713536 -0.1313654371457552
2640000000.0 0.47490323633488596 -0.4469778777925623
2660000000.0 -0.585998969085346 -0.1659810526974301
2680000000.0 0.14703596701826993 0.545656928233637
2700000000.0 0.1899639724948065 -0.48486680850116426
2720000000.0 -0.23321699314868485 0.41395381610445336
2740000000.0 0.21479396143189053 -0.3731742669165647
2760000000.0 -0.10844186979602548 0.3739751504016198
2780000000.0 -0.1807512694687674 -0.3058850447717339
2800000000.0 0.3120010172896506 0.08563545093343089
2820000000.0 -0.28768732203523617 0.08783171086900636
2840000000.0 0.26698916294356395 -0.1045886649125645
2860000000.0 -0.2511166032987521 0.12845028986094295
2880000000.0 0.2700407128538781 -0.08314963653166572
2900000000.0 -0.27198859349033944 -0.09347593430177843
2920000000.0 0.05595718010037398 0.2942393320181943
2940000000.0 0.1631951832358199 -0.26530866187042035
2960000000.0 -0.30797876739087715 -0.08091564456638185
2980000000.0 -0.28837953483041673 0.14917129233680917
3000000000.0 -0.2731859199721271 0.17985497615676338
3020000000.0 -0.3134875526350769 0.08761997166287672
3040000000.0 -0.048278390699561975 -0.31551984492323154
3060000000.0 0.2584344097255142 0.17356563613881246
3080000000.0 -0.22688645572131555 -0.1995111754451574
3100000000.0 0.16892940059107572 0.23949478174651856
3120000000.0 0.03312685635157351 -0.2805915914178495
3140000000.0 -0.1828451578794845 0.2030519538831248
3160000000.0 0.25593083082892226 -0.05520232486269736
3180000000.0 0.032184060363704206 -0.24720891743985887
3200000000.0 0.18607180482952437 0.14150414441352688
3220000000.0 -0.05330073258929565 0.20597572348228596
3240000000.0 -0.13006358630818787 0.1333022263476071
3260000000.0 -0.12948126272757532 0.08250014438862786
3280000000.0 0.01386973906133413 0.11662569294812483
3300000000.0 0.06795092061298477 0.04423885471991204
3320000000.0 -0.03435005979759003 0.029415371421639868
3340000000.0 0.011040903587968234 -0.00888630098085369
3360000000.0 -0.006989323573903985 0.010043437171226586
3380000000.0 0.02459948128632338 -0.0028253003841664705
3400000000.0 0.00727736474813947 -0.029985101254773994
3420000000.0 0.004648113653076394 0.0315344228327902
3440000000.0 0.031252729713742274 0.0083170341053821
3460000000.0 -0.011533797722911278 -0.04016355420730608
3480000000.0 0.01856230938957943 -0.0593544496320534
3500000000.0 0.0016256733536131713 0.08617762950265818
3520000000.0 0.047847181424659796 0.09819964855437238
3540000000.0 0.10705576372379755 -0.06570370698224753
3560000000.0 0.07496846421873635 -0.11257532787741115
3580000000.0 0.12564663617183452 0.06969593148921323
3600000000.0 -0.12453849992396528 0.08885297700931852
3620000000.0 -0.029356156081492963 -0.15723484209194247
3640000000.0 -0.04190802314502828 0.16192063152496822
3660000000.0 -0.04734990897708774 -0.1717417059304036
3680000000.0 0.17735551468343305 0.05965768938414594
3700000000.0 0.07230449377853725 0.17888202308035234
3720000000.0 0.017282775402733853 0.1982192952598978
3740000000.0 0.12244314727516939 0.15685661784542768
3760000000.0 -0.06478971174608951 0.18144389389179805
3780000000.0 -0.17944270742305146 -0.022717613382939268
3800000000.0 0.1621089861163756 -0.02738938183794095
3820000000.0 0.13146373551571056 -0.06996010651120024
3840000000.0 -0.1350105086581125 0.025978885302551536
3860000000.0 -0.06931492090809943 0.1185822009689854
3880000000.0 0.03916680635349142 -0.14381106555280318
3900000000.0 -0.15227372350204213 -0.05463135864788106
3920000000.0 0.1730026970538733 -0.02740276416049469
3940000000.0 0.18340002661136134 0.010733514668260828
3960000000.0 0.0724024309671021 -0.17377967982486117
3980000000.0 -0.13101382985825974 -0.1283661471104446
4000000000.0 0.03828783060213915 0.1645602999046309
