! Created with skrf (http://scikit-rf.org).
# Hz S RI R 50.0 
!freq ReS11 ImS11
400000000.0 -0.08024296251202943 0.865521533165726
420000000.0 0.38970361318439867 0.7678403692726528
440000000.0 0.818553982734114 -0.1348436702086408
460000000.0 0.3159916749185917 -0.7264122752473997
480000000.0 0.6381147708993148 -0.3229979809435338
500000000.0 -0.04490960215833165 -0.5700697414924663
520000000.0 -0.13471962532477277 -0.47467132017659125
540000000.0 0.31025061875589804 -0.3043922584253743
560000000.0 -0.29126473270048414 0.2071497628028301
580000000.0 -0.04731879229452456 0.3349489298484419
600000000.0 0.30333338130541293 -0.14598328437119698
620000000.0 -0.338582381994389 0.11396323517111094
640000000.0 0.11993254259438521 0.3682722720116443
660000000.0 0.39679558113109575 -0.05646078539291165
680000000.0 0.020917212658552443 0.4194677016167319
700000000.0 0.19030517776683747 -0.389255248294453
720000000.0 -0.3152017879100406 -0.2891560596021851
740000000.0 0.39870107967361107 0.12801908870790035
760000000.0 0.15836316611528897 -0.36993157761643186
780000000.0 0.10198262654080836 0.35892309106221276
800000000.0 0.14543086574957803 -0.3123846092951684
820000000.0 0.2926837349397548 -0.03465967186119385
840000000.0 -0.042321194705810035 -0.24459930733815388
860000000.0 0.1750250450590298 -0.12194019839991366
880000000.0 -0.08523225145108614 0.13327335600326953
900000000.0 -0.04161094659487265 0.08379550158731926
920000000.0 -0.0492310320313436 0.03866728157312357
940000000.0 0.04625330779969644 0.012000289311152677
960000000.0 0.04350846424705399 -0.032560569572978974
980000000.0 0.055380855002160535 0.04450006935040216
1000000000.0 0.03799526493187969 -0.07071593719183407
1020000000.0 -0.03429437151820622 0.09219865387730634
1040000000.0 0.07467764826275251 0.08128545153308503
1060000000.0 -0.06266936240891176 0.13137952949553774
1080000000.0 -0.1544968973331429 -0.03756551083969997
1100000000.0 -0.09954157424506871 0.15066638137184513
1120000000.0 0.15933656341239277 0.12373697330773543
1140000000.0 0.2012610181415245 -0.11777415031900185
1160000000.0 0.26918637235282783 0.020793768787537994
1180000000.0 0.2310315859532994 0.203566717025152
1200000000.0 -0.04625046692850876 0.33670404387171643
1220000000.0 0.026737397433023582 -0.3661176475372947
1240000000.0 -0.17301148132414432 0.3546293040743704
1260000000.0 0.40744739593994633 -0.11446569798597558
1280000000.0 -0.4414501342712916 0.05352241478283745
1300000000.0 0.4257589957506535 0.16673813884253857
1320000000.0 -0.21071513667726166 -0.40223274913267393
1340000000.0 -0.3828807364782836 -0.22575390611968443
1360000000.0 -0.33058452762687485 -0.27974944188814843
1380000000.0 -0.3577657204967859 -0.23589786321537992
1400000000.0 -0.39663892254862076 0.1201768828911173
1420000000.0 0.037423369687307854 0.3947581336136441
1440000000.0 0.3136407218067218 0.19890086815903216
1460000000.0 0.23613725817391684 -0.24909408800813862
1480000000.0 -0.08142708689615265 -0.30222708510809987
1500000000.0 -0.2606341329914331 -0.10981198254163424
1520000000.0 -0.2548007204996053 -0.00047531022694806093
1540000000.0 0.21191585832373025 -0.08278127208484838
1560000000.0 -0.016061417031129687 0.19514558296973528
1580000000.0 -0.16290903424813646 -0.05768302569746741
1600000000.0 -0.033491773412876895 0.142174787797049
1620000000.0 0.11607976542749508 -0.02064997382436833
1640000000.0 0.05415147315653055 -0.0775688185476929
1660000000.0 -0.061297015469112495 0.035642087800429316
1680000000.0 0.0149484593253 0.04483211454605896
1700000000.0 -0.02788971697950634 0.007363514679576868
1720000000.0 -0.011203729142134036 0.006421864081173102
1740000000.0 -0.018502115289026736 0.008957471210753258
1760000000.0 -0.007154747345142642 -0.0415763227075566
1780000000.0 0.005986380131122657 0.07579759913592787
1800000000.0 -0.009673694859136502 -0.11351216603943158
1820000000.0 0.03866436714108468 -0.14133877003713274
1840000000.0 0.1457811938208907 0.10537715035558196
1860000000.0 -0.2101275742679313 0.01681519415186738
1880000000.0 0.10818949189438751 0.21593804291821608
1900000000.0 0.23091770150372803 -0.1485290537143127
1920000000.0 -0.191620677877059 -0.23796615240496807
1940000000.0 -0.33645501129386307 0.02133096421336055
1960000000.0 -0.058933816252298724 0.3629456975297998
1980000000.0 0.3928117238734348 0.004663408943592168
2000000000.0 0.13122938828523567 -0.3928976412148927
2020000000.0 -0.43010615088070625 0.005630407922636476
2040000000.0 -0.09887139822028397 0.42561263694675605
2060000000.0 0.43143637420676534 0.07121585592038014
2080000000.0 0.30542119496150105 -0.30695900704151746
2100000000.0 0.07962188472057856 -0.4188232000226849
2120000000.0 -0.16120822967628493 -0.38485373630510844
2140000000.0 -0.394356860407052 -0.09728162613827218
2160000000.0 -0.23612410951349916 -0.31237578910394187
2180000000.0 -0.3663746505192592 -0.07662542592516126
2200000000.0 -0.2792595497746675 0.22708897569379763
2220000000.0 -0.15855644235685137 0.30784969333648105
2240000000.0 0.011415696258982073 0.34059103467414276
2260000000.0 0.06730929018022418 0.3341807552016647
2280000000.0 0.13834422877670205 0.3178627748455233
2300000000.0 0.36305907740884463 -0.014090769032759248
2320000000.0 -0.02123028463837035 -0.3891560031943634
2340000000.0 -0.3833923246066284 0.17830734428374126
2360000000.0 0.46398542038884893 0.03073181550729386
2380000000.0 -0.5102372949064095 -0.029535867636851253
2400000000.0 0.5602305547613797 0.0033670313787079
2420000000.0 -0.5687112522728079 0.22178649400969355
2440000000.0 0.34491833704572844 -0.5602981149985776
2460000000.0 0.0967598734789665 0.6905493788737921
2480000000.0 -0.4139873863778871 -0.5981695948034972
2500000000.0 0.44664847660552565 0.5983652460222031
2520000000.0 -0.35316060071298383 -0.669023062729309
2540000000.0 -0.03723921198298876 0.7578747026598414
2560000000.0 0.5138433933991539 -0.5501271619760342
2580000000.0 -0.7259801654801484 -0.1292085418589141
2600000000.0 0.35417401987419006 0.6191844461637405
2620000000.0 0.2665756149957295 -0.6291185762365221
2640000000.0 -0.06496150184166397 -0.6418210086398488
2660000000.0 -0.43082398808520744 0.41792541494267255
2680000000.0 0.5416114470039822 0.1099169624179033
2700000000.0 -0.20094450000831274 -0.4635285886198385
2720000000.0 -0.24647741469224593 0.3857240419524461
2740000000.0 0.4159192170183987 0.0037765415749972404
2760000000.0 -0.3083519653933247 -0.22082176488925462
2780000000.0 0.33131712623254467 0.11728687097013003
2800000000.0 -0.3187746582533198 0.07861481336436585
2820000000.0 -0.004463551902679366 -0.3119667349813399
2840000000.0 0.2989006687990689 0.027927566601379225
2860000000.0 -0.09374745394581603 0.2797563335509511
2880000000.0 -0.2328665539384933 -0.17660645256728372
2900000000.0 0.2699996582852592 0.1093869745555684
2920000000.0 -0.07338177239434053 -0.2838700451377649
2940000000.0 -0.2849768016772783 0.0875527849729725
2960000000.0 -0.20739588930264535 0.21806036263719356
2980000000.0 -0.28401089261145485 0.114198347370947
3000000000.0 -0.2864642158671536 -0.11922067866259131
3020000000.0 0.015541184851938191 -0.3120975561445852
3040000000.0 0.27669148070469635 0.14268075096664
3060000000.0 -0.2691602176487198 0.15307674985477351
3080000000.0 0.16951833268100913 -0.25352207707649627
3100000000.0 -0.07150969305707433 0.2907118390056853
3120000000.0 -0.065312157624931 -0.2831186842778363
3140000000.0 0.2051783259314133 0.19264556875783356
3160000000.0 -0.26502122677110573 -0.04028577430417441
3180000000.0 0.16472163679118396 0.18937823188923658
3200000000.0 -0.16452667635773566 0.15824094305714942
3220000000.0 -0.16875294710408315 -0.10786156384107452
3240000000.0 0.11637574303287218 -0.12268935124297255
3260000000.0 -0.11959584726683024 0.061245717680549185
3280000000.0 0.09064180101817196 0.04838667117422231
3300000000.0 0.07261088696297362 0.023234842610716053
3320000000.0 0.02763371994288015 0.04300482665612573
3340000000.0 -0.029142705098955297 0.007831316943722223
3360000000.0 0.01277575760140299 0.002178080555086127
3380000000.0 0.002076111339199311 0.002991385411535652
3400000000.0 0.005484546216469053 -0.018223088407038707
3420000000.0 0.026529992038267072 -0.024052336429886623
3440000000.0 0.04668712753431745 0.017582221991734842
3460000000.0 -0.030357821204207647 0.04930402204138231
3480000000.0 0.024493280094111083 0.06303624635729992
3500000000.0 0.055849810394497074 0.05365543802055684
3520000000.0 0.08123569145478816 -0.04011507087114622
3540000000.0 -0.03480043588727246 -0.09720642205725288
3560000000.0 -0.05299014620645269 0.10499174463880381
3580000000.0 0.13372001389125518 -0.003473705119021532
3600000000.0 -0.050731534431220776 0.14693584424978387
3620000000.0 -0.02229730761077529 0.16821068388682342
3640000000.0 -0.10847258713850845 0.14519533199199605
3660000000.0 -0.03052846854701596 0.18839531673244833
3680000000.0 -0.12717712007781742 0.14555694227720684
3700000000.0 -0.19192793693731344 0.011495371730134245
3720000000.0 -0.07420130167301632 -0.17499509022216383
3740000000.0 0.12556483135155402 -0.13612507442137373
3760000000.0 -0.16704376296378354 0.06527045531702075
3780000000.0 0.17058911827699705 -0.009637791172342836
3800000000.0 0.006359191300184608 -0.16331754206369647
3820000000.0 -0.13769233130685635 -0.07391103106093773
3840000000.0 -0.06130430575648671 -0.13672593460229768
3860000000.0 0.14853800618581475 0.021903146347024234
3880000000.0 0.1520880971726783 -0.03424389604510052
3900000000.0 -0.021479117219380787 -0.15682275650820057
3920000000.0 -0.13358129297933977 0.09397089653866057
3940000000.0 0.12540469608469768 -0.11188353965682107
3960000000.0 0.16827214323726633 0.04041912125464675
3980000000.0 0.1447301495354579 -0.09720770121249056
4000000000.0 0.14950010779709358 -0.07548390834442563
