!Created with skrf (http://scikit-rf.org).
# Hz S RI R 50.0 
!freq ReS11 ImS11
400000000.0 -0.439255680254242 0.7560769869536996
420000000.0 0.6166864999101865 0.6249013289125731
440000000.0 0.22591515367283288 -0.8203969658651366
460000000.0 -0.7745257188862179 0.20764023188188485
480000000.0 -0.706362696074255 -0.09651681352644963
500000000.0 -0.232039381858967 0.5107576240378198
520000000.0 0.4485648188576143 0.16028691132025433
540000000.0 -0.357484797283031 -0.1351613310889036
560000000.0 -0.255429867799146 0.21278864900070926
580000000.0 0.1740088895531856 0.2598208559177174
600000000.0 0.17664247436035846 -0.26793681899042393
620000000.0 0.17375152227148116 0.2788548331217028
640000000.0 -0.13116601295861016 0.32502915943008875
660000000.0 -0.15954730514710305 0.33792656291870904
680000000.0 -0.14143267060483516 -0.379009843236229
700000000.0 -0.4012554419192702 -0.12656022617903528
720000000.0 -0.23437069741123367 0.36859052563018324
740000000.0 -0.43233560431429185 0.08352495507163492
760000000.0 0.4164348464692831 0.10179266083527527
780000000.0 0.059428918693765674 0.3947856975956087
800000000.0 -0.34957865241837605 -0.11054316936556605
820000000.0 -0.30953825384393313 -0.038709382957125955
840000000.0 0.21277003428290445 -0.14498879805169254
860000000.0 0.2043156319703206 0.03313867625454221
880000000.0 -0.12705175689490408 -0.08825178437279485
900000000.0 -0.09276944163375749 -0.01701949098538546
920000000.0 0.05404973974707162 -0.005424744428972414
940000000.0 -0.001450968939251958 0.035680704350375375
960000000.0 0.04444522519057657 0.014263258571705434
980000000.0 -0.013545177583148839 0.059825179572009245
1000000000.0 -0.05372109831714945 -0.05571684813706459
1020000000.0 -0.09623814305280882 0.00997264283685984
1040000000.0 0.0825395420344878 -0.07491220011280661
1060000000.0 0.046239683722438585 0.14102447635451196
1080000000.0 -0.05449136378191609 0.1552941830185312
1100000000.0 0.181972222273458 -0.008779577823108528
1120000000.0 0.0004038916346042467 -0.1967014675409036
1140000000.0 0.19014210231426706 -0.12574128836110898
1160000000.0 0.2596359282340791 0.023480340988219484
1180000000.0 -0.07106942578755875 0.2937398513569672
1200000000.0 -0.33595139329838336 0.002376701209638438
1220000000.0 0.2357806643194036 -0.28707355478622293
1240000000.0 -0.20535228338238992 0.34130866403682997
1260000000.0 0.2133733613879751 -0.36846416164371093
1280000000.0 -0.43565850607203166 0.06552850070539724
1300000000.0 0.45084134829108735 -0.018335116368474957
1320000000.0 0.22459528777705862 -0.38971358930796574
1340000000.0 -0.08865428121589543 -0.43442310300794623
1360000000.0 0.18028800163407513 -0.40243969337390195
1380000000.0 -0.1243865561411736 -0.41894328031114103
1400000000.0 -0.3731956563412011 0.21192048178835673
1420000000.0 0.2982837828348996 0.2799053030684715
1440000000.0 0.05795738934423206 -0.3756362888282574
1460000000.0 -0.3322833432822673 -0.09010913317500187
1480000000.0 -0.2226714176397321 0.21124581264255624
1500000000.0 -0.2574609119870318 0.09010447580857558
1520000000.0 -0.20839778857214086 -0.12472556365674914
1540000000.0 -0.0563020948872197 0.21223347555774869
1560000000.0 0.05258162519183053 -0.18590196572682596
1580000000.0 0.056386968433321874 0.16518137467631114
1600000000.0 0.1451313055630407 0.013232184914119562
1620000000.0 0.04460529627504129 -0.1140362363453409
1640000000.0 0.05616215953562577 -0.08213489567552912
1660000000.0 0.012160940866200457 -0.07734245037042096
1680000000.0 -0.010037030033811463 0.05716360461518966
1700000000.0 -0.0382664096344052 -0.009554269754992134
1720000000.0 0.0032810722745963117 0.020145417925386405
1740000000.0 -0.0011098094782734163 -0.015161616283371477
1760000000.0 0.006563738591711576 0.03586622284842016
1780000000.0 -0.04375710373256186 0.05468831682510141
1800000000.0 -0.039470194034473965 -0.0993014375411743
1820000000.0 -0.0372165289931288 -0.14209443560196064
1840000000.0 -0.1299123014743108 -0.13306910111958423
1860000000.0 0.16359547989301973 -0.14842412133782504
1880000000.0 0.002392071085934412 0.2554976944550208
1900000000.0 -0.07459719893237182 -0.28225251085139896
1920000000.0 0.03616288579957112 0.31772596707669926
1940000000.0 0.3271865364664054 -0.11242946192272685
1960000000.0 0.025510117236684754 -0.36713624807471984
1980000000.0 -0.34834508985575213 -0.16488037178752898
2000000000.0 -0.38583104640151167 -0.11957798262583962
2020000000.0 -0.3710969447538687 0.19632579328901134
2040000000.0 -0.24199574876750132 0.3574439002966552
2060000000.0 0.31570989776846925 0.3008177106014697
2080000000.0 0.42471540218192394 -0.109591482947931
2100000000.0 0.17723431653853858 -0.3979864858296297
2120000000.0 -0.29170160690956926 -0.312107614888579
2140000000.0 -0.40986017033133393 0.07775119078987976
2160000000.0 -0.3833310266820774 -0.11872373766344468
2180000000.0 -0.3695688800762082 0.10709732013093266
2200000000.0 0.016022260013173684 0.37209939181280854
2220000000.0 0.2598349608632986 0.24530301036707086
2240000000.0 0.3533930478837316 0.003711083028853075
2260000000.0 0.31764809092724283 -0.15090871896093372
2280000000.0 0.21149744858618566 -0.289316091506513
2300000000.0 -0.31748833147025524 -0.19586154002623
2320000000.0 -0.17350882229961845 0.35811608388477917
2340000000.0 0.4271660476782209 -0.057463968257625994
2360000000.0 -0.40990215595171753 -0.23372506190257242
2380000000.0 0.4397121457022199 0.2759914116320745
2400000000.0 -0.5589079510435498 -0.10322436514004997
2420000000.0 0.5149422829989242 -0.33735584617206305
2440000000.0 -0.23230809120460108 0.6156410527936899
2460000000.0 -0.25394027404259717 -0.6438269842743142
2480000000.0 0.47055092897807843 0.540753961672943
2500000000.0 -0.33377173087909534 -0.6515510833603804
2520000000.0 0.08240678132847545 0.7342451492065736
2540000000.0 0.36729500783365354 -0.6390044128177451
2560000000.0 -0.7278213920186114 0.03281384659213976
2580000000.0 0.3215711170639694 0.6345547924504792
2600000000.0 0.4610515095068781 -0.5087469727351345
2620000000.0 -0.6113425344650962 -0.2352554444200933
2640000000.0 -0.6164717058849758 -0.0572513906293349
2660000000.0 0.2374735307502391 0.5227514325639491
2680000000.0 0.26319260367903907 -0.45691446400904456
2700000000.0 -0.4783540003299969 -0.030398346805471356
2720000000.0 0.21078559643532543 0.37583140879927507
2740000000.0 0.32316586399121594 -0.21146195457643224
2760000000.0 -0.25442761891865484 -0.23801457456268157
2780000000.0 -0.09090521880127009 0.308612707392319
2800000000.0 0.2191142816489778 -0.2077421942853796
2820000000.0 -0.011977901921068231 0.29111806581983496
2840000000.0 -0.2447445336248543 -0.1491791604370017
2860000000.0 0.01631381979259888 -0.2870761532660299
2880000000.0 0.28252035621369503 -0.06749882117132125
2900000000.0 0.11339472964497835 0.269859249223837
2920000000.0 -0.22423823775728555 -0.19365129364781158
2940000000.0 0.16477385644042003 0.24880928169511693
2960000000.0 0.26931544559315884 -0.12472706067618665
2980000000.0 0.2937266375232388 -0.036129939552545044
3000000000.0 0.1463123385590331 0.2527167816771663
3020000000.0 -0.28197529973766755 -0.06745128167792201
3040000000.0 0.2564406292301196 0.13030306526770413
3060000000.0 -0.16455695053021796 -0.23921299913583363
3080000000.0 0.13302517217228 0.25861288132899457
3100000000.0 -0.038298580284683706 -0.2890355153564853
3120000000.0 0.257263307712858 0.1359440726617603
3140000000.0 -0.18844892241087882 0.2141366061935074
3160000000.0 -0.20314148195145476 -0.18229212140440237
3180000000.0 0.2073719604113597 0.1526884131291833
3200000000.0 0.1460925127416826 0.18225513011287142
3220000000.0 0.03859552001161745 0.19906202287811006
3240000000.0 -0.11516903584578296 0.12249621361610016
3260000000.0 -0.059656489522987924 -0.11383699925606437
3280000000.0 -0.09225324133696264 -0.0023834923857442305
3300000000.0 0.015601491686248754 0.059366665782341746
3320000000.0 0.005497166487310168 0.04001944804464513
3340000000.0 0.0010497414204836452 -0.029786703533401366
3360000000.0 0.011228314148150226 0.020049977340551466
3380000000.0 -0.013248544451395327 -0.0008064136452019854
3400000000.0 0.0003256788593777406 -0.0047922088349049465
3420000000.0 0.006886060981313903 0.019091954639541046
3440000000.0 0.03779795509891185 0.005707846392284943
3460000000.0 -0.05563632766072 0.00337333776773646
3480000000.0 -0.07180121357127359 0.007640204414160484
3500000000.0 -0.04486135583398075 0.0734889699687237
3520000000.0 -0.07416621092246328 -0.06265736950865755
3540000000.0 0.10315641208092803 0.02426297985276464
3560000000.0 -0.07718663244279667 -0.08491458904715675
3580000000.0 -0.12184113411161546 0.023318830327437822
3600000000.0 0.09845544635493753 0.09977535402326353
3620000000.0 -0.12150739787022857 -0.09331608808237576
3640000000.0 0.16909394543002965 0.00398909971321269
3660000000.0 0.1242490600523153 0.13752316340282167
3680000000.0 0.1262590452421234 0.14960944119371428
3700000000.0 0.19739529831032848 0.03578722997051759
3720000000.0 0.19004890235707114 -0.0701450316024676
3740000000.0 0.01909401632966833 -0.19417830220340848
3760000000.0 0.15675109062364723 0.09839105337583415
3780000000.0 -0.1623044273466191 0.04433485620449086
3800000000.0 -0.11571494298375387 0.10075706079384682
3820000000.0 -0.035748278961602896 -0.13827254686408352
3840000000.0 -0.04779649694672 0.13021983018887767
3860000000.0 0.14740603563535806 -0.01606276431633854
3880000000.0 0.11311724486580392 -0.11566419643126409
3900000000.0 0.09782117832043707 0.1451678759940786
3920000000.0 0.06840939655925153 0.16558161637274352
3940000000.0 0.12537898977908923 0.12706809697330143
3960000000.0 0.06104120499711759 0.1641409998809983
3980000000.0 -0.08451133676441892 0.14500285219179485
4000000000.0 -0.01173640668620156 0.15433059834995264
