!Created with skrf (http://scikit-rf.org).
# Hz S RI R 50.0 
!freq ReS11 ImS11
400000000.0 -0.42874117318345006 0.7636311988930546
420000000.0 0.6077790368941107 0.633697847575071
440000000.0 0.23307881283327997 -0.8185187102400918
460000000.0 -0.7823809721661188 0.17632715543575547
480000000.0 -0.7082190070601111 -0.08066069809734952
500000000.0 -0.2410089701956192 0.5069506012474009
520000000.0 0.44718803739610674 0.16394423679407488
540000000.0 -0.3537185533979441 -0.14457283439456092
560000000.0 -0.2620608580599759 0.20466490995700473
580000000.0 0.175534521612493 0.2587426839300882
600000000.0 0.17421079294302597 -0.2694505042179948
620000000.0 0.13492618592927638 0.2995643149341147
640000000.0 -0.13634784993079327 0.32309056926435564
660000000.0 -0.18450010935572822 0.32535121438431064
680000000.0 -0.13050383891438314 -0.38301715563164757
700000000.0 -0.4048188811426442 -0.1152311373864126
720000000.0 -0.24150848101250214 0.3639957096944027
740000000.0 -0.42719833678727587 0.1055074696366042
760000000.0 0.4151987471534914 0.10764176247229448
780000000.0 0.062370817945815143 0.3943768821718069
800000000.0 -0.3471002992259495 -0.1178566156502687
820000000.0 -0.3091293708409798 -0.040837256934691556
840000000.0 0.20814762360822903 -0.15132544946068113
860000000.0 0.20709284610554252 0.0036719657423647024
880000000.0 -0.12836602631489402 -0.08661869549196129
900000000.0 -0.09226959278119447 -0.01924758646718332
920000000.0 0.05384470021079969 0.007115809905890593
940000000.0 -0.00783539697319164 0.03472386186019889
960000000.0 0.045749107184146987 0.009496778001693405
980000000.0 -0.014756382640946473 0.05966498708014137
1000000000.0 -0.04700551318924143 -0.061630466119174214
1020000000.0 -0.09701598868241629 -0.0005545706139419609
1040000000.0 0.08537485588266723 -0.07169587091768746
1060000000.0 0.04476867170955499 0.1414704260977608
1080000000.0 -0.058351987502467347 0.15372372182225427
1100000000.0 0.18114772974171123 0.018341953654405777
1120000000.0 0.013009309771642332 -0.1961367495778386
1140000000.0 0.19357319841535672 -0.11972002792391756
1160000000.0 0.26084018336560744 -0.0022436072722070515
1180000000.0 -0.06613092002758718 0.29498208491785155
1200000000.0 -0.33589053075048747 0.004736611657010316
1220000000.0 0.22987752513858462 -0.29187072421642063
1240000000.0 -0.1996933894875576 0.3448888695979649
1260000000.0 0.21378373818193105 -0.36815375761621527
1280000000.0 -0.43558748856389246 0.06567777979864775
1300000000.0 0.45010510904969786 -0.03280861307116365
1320000000.0 0.23605332483044478 -0.38269980888157457
1340000000.0 -0.08306130520907519 -0.4356436620353387
1360000000.0 0.18196388939476604 -0.40181287737245575
1380000000.0 -0.11260764129987276 -0.42219184322500053
1400000000.0 -0.3755489536174971 0.20757952211637712
1420000000.0 0.2939617107537907 0.284366304019966
1440000000.0 0.06733640265867255 -0.3740347074361912
1460000000.0 -0.3305150000120025 -0.09595370625792062
1480000000.0 -0.2333694185213545 0.19911615758515963
1500000000.0 -0.2585605979576593 0.08669917390364354
1520000000.0 -0.2023913114516734 -0.1343390713764287
1540000000.0 -0.05709425754449612 0.21199550888533847
1560000000.0 0.07080421845807912 -0.17994578882561588
1580000000.0 0.04679854026279169 0.16810924380124637
1600000000.0 0.14402685632457388 0.022757649497272426
1620000000.0 0.05902862899392696 -0.10720730310804216
1640000000.0 0.0496020017466733 -0.08624390032304634
1660000000.0 0.006132893871421533 -0.07792428365723783
1680000000.0 -0.0013655300379260666 0.0579538355250381
1700000000.0 -0.039110982223137525 0.005442265268506105
1720000000.0 0.017271196908665118 0.01121689055442608
1740000000.0 -0.014392642402019217 0.003953346727553905
1760000000.0 -0.028263650745201964 0.022597391485788498
1780000000.0 -0.036952263016783594 0.05944266908062894
1800000000.0 -0.04254514772886111 -0.09810799712629671
1820000000.0 -0.036585550334455826 -0.14201398798362044
1840000000.0 -0.12960807544661468 -0.13325263910327276
1860000000.0 0.1578665292380935 -0.15424135410125225
1880000000.0 0.005880065523780172 0.2553749577649309
1900000000.0 -0.08339021192057058 -0.27989735175987634
1920000000.0 0.04464437758353588 0.31670781922075614
1940000000.0 0.3278537152618314 -0.11035427914788537
1960000000.0 0.028135332634003595 -0.3670741318239525
1980000000.0 -0.3463822711485074 -0.1691629482791732
2000000000.0 -0.38405532279564286 -0.12531981778116863
2020000000.0 -0.38479758942650766 0.1677160148544291
2040000000.0 -0.22953254039508875 0.3653335994822193
2060000000.0 0.3008171679202882 0.3158877220369572
2080000000.0 0.4303852483898611 -0.0838182378694327
2100000000.0 0.19011288105881388 -0.3918743943587244
2120000000.0 -0.31264870000500583 -0.29074217701293154
2140000000.0 -0.41210067427433567 0.06441101407428187
2160000000.0 -0.3832346314616404 -0.11795633636825431
2180000000.0 -0.36647431029620464 0.11615321426818595
2200000000.0 0.020803010768136017 0.3715881637453667
2220000000.0 0.2621020620593248 0.24271934684766083
2240000000.0 0.3529464973426603 -0.0007333147178143223
2260000000.0 0.3060691730787365 -0.17349754294765146
2280000000.0 0.18977577674706578 -0.3043894525499684
2300000000.0 -0.3346284854096221 -0.1661501858864918
2320000000.0 -0.16792362247621337 0.3609994223628727
2340000000.0 0.4281133552810349 -0.05180273219333365
2360000000.0 -0.40245703057055643 -0.24642605014830116
2380000000.0 0.4478602130437794 0.26328149037287424
2400000000.0 -0.5555061289108709 -0.1208046653662831
2420000000.0 0.5146811760560815 -0.3377934070819219
2440000000.0 -0.21022264638269722 0.6233452379095861
2460000000.0 -0.2489585702444547 -0.6456897778763312
2480000000.0 0.46565737117813744 0.5446072165789936
2500000000.0 -0.3363180611225168 -0.6498514874983402
2520000000.0 0.08887500105639265 0.7329861937996038
2540000000.0 0.34417270791607635 -0.6512431520420726
2560000000.0 -0.7256728296333753 0.0592439367609242
2580000000.0 0.31842386993285193 0.6358624624866753
2600000000.0 0.42751888324055565 -0.5367458716645229
2620000000.0 -0.6250798600624726 -0.19538215801699935
2640000000.0 -0.6190219400148791 -0.000594571066910253
2660000000.0 0.2704450150348184 0.5064487498648736
2680000000.0 0.2623211297665209 -0.45761157557628834
2700000000.0 -0.47977274657368385 -0.001767152654648413
2720000000.0 0.20224265305722336 0.38080059163241364
2740000000.0 0.32409295502365215 -0.21052942484869624
2760000000.0 -0.24284603889170633 -0.2502319077608349
2780000000.0 -0.11001409619435971 0.3023471293970451
2800000000.0 0.23482848937788936 -0.18986057809188747
2820000000.0 -0.02901334130379369 0.290023395990475
2840000000.0 -0.2357441902111445 -0.1627998261038158
2860000000.0 0.03991380908170989 -0.28464666602834326
2880000000.0 0.27949510866735866 -0.0773668250828828
2900000000.0 0.10827579443643562 0.2717633142609947
2920000000.0 -0.2046812241995333 -0.2141235041233664
2940000000.0 0.17803739778290045 0.23905602250299696
2960000000.0 0.24945762337209504 -0.15955098177650703
2980000000.0 0.28785087652415714 -0.06742804861766231
3000000000.0 0.17207066451677303 0.23612820919557345
3020000000.0 -0.28911202484459 -0.024696227351889224
3040000000.0 0.2525859153963646 0.1380083213652742
3060000000.0 -0.14466199876607674 -0.25185642545902326
3080000000.0 0.11276178056293945 0.26813047291681047
3100000000.0 -0.10853377921796775 -0.27117182581886906
3120000000.0 0.24062879979926713 0.16309420969377328
3140000000.0 -0.2019699675303959 0.20123489758141713
3160000000.0 -0.19736860305258988 -0.18803030321943517
3180000000.0 0.2097534714129853 0.14919640157434014
3200000000.0 0.15622503289223358 0.17353890734329466
3220000000.0 0.044886925534575996 0.1977157199139969
3240000000.0 -0.10332774267753478 0.1322250789577083
3260000000.0 -0.07156723742227386 -0.10659727591729297
3280000000.0 -0.09123743944061348 -0.013815176418212513
3300000000.0 0.03461055492818876 0.05063690979967881
3320000000.0 0.01673308811783438 0.03685078895871072
3340000000.0 -0.008854266251468677 -0.028587570743118757
3360000000.0 0.014798691044165188 0.017750785040722
3380000000.0 -2.9240680959957657e-05 0.013124801299287876
3400000000.0 0.0004819213844704018 -0.004601426446058351
3420000000.0 -0.007856713658663002 0.018452713102032964
3440000000.0 0.035277330143266734 0.014209783278762166
3460000000.0 -0.05522750799652057 0.0054157897940434714
3480000000.0 -0.06764592936586329 0.024786355173816242
3500000000.0 -0.032624964040038854 0.0793954272689927
3520000000.0 -0.03820229395809447 -0.08814468588056143
3540000000.0 0.10313220587257915 -0.025401766673071657
3560000000.0 -0.09140822634872639 -0.06882610624866486
3580000000.0 -0.11679893942976358 0.04024420337090782
3600000000.0 0.10592849474685175 0.09098581142825843
3620000000.0 -0.13304911224711324 -0.07497132994368085
3640000000.0 0.16721641553398173 -0.023003293720165678
3660000000.0 0.14851970120205327 0.11074737789171267
3680000000.0 0.15768374737276883 0.11580971637783163
3700000000.0 0.20022740783049603 -0.00814474202629249
3720000000.0 0.17185811257145933 -0.10656236013363692
3740000000.0 -0.01678851935577683 -0.1945592710529959
3760000000.0 0.17125000873305485 0.07111804013353154
3780000000.0 -0.15583935023160655 0.06396596675924329
3800000000.0 -0.09718085720094097 0.11919940664738692
3820000000.0 -0.0692999755420145 -0.12489263153116419
3840000000.0 -0.010528347038870888 0.13858828911534615
3860000000.0 0.13799856554588405 -0.05596107917434457
3880000000.0 0.09163257905690143 -0.13432489241219847
3900000000.0 0.11051448047188042 0.13649996425449412
3920000000.0 0.0751951420592562 0.16320957754238738
3940000000.0 0.12122242281186375 0.13200071659855872
3960000000.0 0.052257719441473935 0.16766766063174943
3980000000.0 -0.10818587542633765 0.12886204414520133
4000000000.0 -0.062642137082079 0.14183055010517917
