!Created with skrf (http://scikit-rf.org).
# Hz S RI R 50.0 
!freq ReS11 ImS11
400000000.0 -0.45034177449540086 0.7503316123529721
420000000.0 0.6248325573095469 0.6152099658668077
440000000.0 0.17398189251796062 -0.8324964500969101
460000000.0 -0.772052860850269 0.2169615739619234
480000000.0 -0.709038557112224 -0.08188457469630314
500000000.0 -0.2171608884247532 0.5170200134831022
520000000.0 0.44221858592630015 0.17784717287853258
540000000.0 -0.36461919684572175 -0.11602323964128347
560000000.0 -0.22222517894404628 0.24730158187869766
580000000.0 0.1798900657654324 0.2543481094028815
600000000.0 0.19911307103733442 -0.2527567318009321
620000000.0 0.23356645212406346 0.23053419609524892
640000000.0 -0.07886907851675017 0.34073903961022584
660000000.0 -0.17742099196471095 0.3281677451096449
680000000.0 -0.17193884449775834 -0.36580255955924895
700000000.0 -0.402617567089618 -0.12045160502649013
720000000.0 -0.2219441335082581 0.3756864706914817
740000000.0 -0.43332241709088953 0.0741806322705114
760000000.0 0.41495706068417854 0.1059754683518261
780000000.0 -0.005032351150923233 0.3995767803686863
800000000.0 -0.3478907986214984 -0.1153459822953443
820000000.0 -0.30197704315431495 -0.07937505622349848
840000000.0 0.1777820611535498 -0.1878409626085676
860000000.0 0.20503775125573362 -0.031939727810188924
880000000.0 -0.15039974623584798 -0.044074227318626216
900000000.0 -0.08883222558286974 0.033891463685300764
920000000.0 0.03639401363741222 0.0411141783205833
940000000.0 -0.020979647157380064 0.029568093512463114
960000000.0 0.03368296635416247 -0.033120619914400934
980000000.0 -0.016939322755251424 0.059028626008048486
1000000000.0 -0.0682255402525586 -0.03790259800541119
1020000000.0 -0.0584202093918888 0.07794471206617454
1040000000.0 0.085307568067873 -0.07228070746235779
1060000000.0 0.07802516954152255 0.12728915527325177
1080000000.0 -0.03098318115688352 0.16213093057673414
1100000000.0 0.18244215448769613 -0.006285545036355786
1120000000.0 -0.02423693389407558 -0.19588500909780074
1140000000.0 0.17365004478469745 -0.14665137611297369
1160000000.0 0.2599275141372122 -0.011806825819957014
1180000000.0 -0.06747175477246574 0.29330676117078996
1200000000.0 -0.33451579515773605 -0.012237202461603596
1220000000.0 0.22896487810212135 -0.29177174799241073
1240000000.0 -0.21440993745235395 0.3348907362277958
1260000000.0 0.2024782478592156 -0.3744765581744208
1280000000.0 -0.4341686294597861 0.07231523277955401
1300000000.0 0.45077171106898634 0.007875265498702193
1320000000.0 0.22974709900469484 -0.3865869390185856
1340000000.0 -0.11496887278860442 -0.4280035736327301
1360000000.0 0.1513064090914158 -0.41447956463642843
1380000000.0 -0.11797321005753778 -0.4208445795477225
1400000000.0 -0.3801663255042414 0.19938554191401517
1420000000.0 0.30032104052591846 0.2783014492690474
1440000000.0 0.0644574387826271 -0.37476228611986173
1460000000.0 -0.33029569374008816 -0.09869294412210951
1480000000.0 -0.2282426431334073 0.20511397713002355
1500000000.0 -0.2575372805656049 0.08845122741034919
1520000000.0 -0.2034498422297859 -0.13182659147816697
1540000000.0 -0.06882747358532566 0.20738595452675693
1560000000.0 0.09426601381902308 -0.16724900838230286
1580000000.0 0.05685404692354008 0.16382953472414882
1600000000.0 0.14356295763748467 0.02064502739498731
1620000000.0 0.059407517823493 -0.1071034994302712
1640000000.0 0.05918801725117141 -0.07999258171638772
1660000000.0 0.020701213106646934 -0.07577792916428588
1680000000.0 -0.032076923859878266 0.048940185246679056
1700000000.0 -0.02813917977124741 -0.028999024050070148
1720000000.0 -0.006245919896987417 -0.02000813445636855
1740000000.0 0.010788124649226363 0.008933600815835614
1760000000.0 -0.005862188519089331 0.03460664725041707
1780000000.0 -0.007085528883007339 0.06904681757574342
1800000000.0 -0.06726063267209989 -0.08261100648422239
1820000000.0 -0.028008369097089862 -0.14425199315162207
1840000000.0 -0.11864019239859104 -0.14421965335107434
1860000000.0 0.15374999837186887 -0.1598927159569936
1880000000.0 -0.014143623974075056 0.2563153826784882
1900000000.0 -0.05948996633129658 -0.287530226085011
1920000000.0 0.015437686685660935 0.32099531638630946
1940000000.0 0.3291054151976852 -0.10985073296687564
1960000000.0 0.023501554073124972 -0.36794063462249926
1980000000.0 -0.35470808097445095 -0.1518226838257391
2000000000.0 -0.3913133505789421 -0.09978427114428816
2020000000.0 -0.3790504435609293 0.17867533212960704
2040000000.0 -0.19702723481425752 0.382106915541524
2060000000.0 0.3033708576021432 0.31139229493631315
2080000000.0 0.42219467881328976 -0.11319746402518159
2100000000.0 0.15734106332258205 -0.4044797960524095
2120000000.0 -0.3291446418248901 -0.2704383473437967
2140000000.0 -0.4141027829736434 0.044965030613815564
2160000000.0 -0.39702407647023386 -0.0546814668437815
2180000000.0 -0.3243643664126493 0.20641452351956083
2200000000.0 0.10993793254828484 0.3559355415040564
2220000000.0 0.31264125816219424 0.17305108160554725
2240000000.0 0.34235726311589504 -0.08693371060584769
2260000000.0 0.24820279347706742 -0.2505494827205926
2280000000.0 0.12207298852549939 -0.337719869047538
2300000000.0 -0.3644962715011242 -0.08513598359349282
2320000000.0 -0.08463817153814074 0.38927940718402265
2340000000.0 0.41085913931255885 -0.1304273703101852
2360000000.0 -0.4550840408666352 -0.12603256734809268
2380000000.0 0.49601704829425186 0.1546915802732031
2400000000.0 -0.568017000304126 0.0285805400776405
2420000000.0 0.42887226189141736 -0.441784986607202
2440000000.0 -0.07076401242783684 0.6539704893880187
2460000000.0 -0.3683918328244492 -0.5857124669912921
2480000000.0 0.5710827595160537 0.4320304373652865
2500000000.0 -0.42509658912462633 -0.5954251525316263
2520000000.0 0.16969050762777158 0.7181466730144307
2540000000.0 0.329256136552236 -0.6578746903659233
2560000000.0 -0.7190410501669527 0.10549107716944445
2580000000.0 0.3692283936802623 0.6051483363823179
2600000000.0 0.3930229399699519 -0.5593842743551748
2620000000.0 -0.636306379474709 -0.13890845992810963
2640000000.0 -0.6147893559420897 0.016670705058855106
2660000000.0 0.298306554216333 0.4859344223046407
2680000000.0 0.22346395624379187 -0.4733567856106931
2700000000.0 -0.4755487917800069 -0.016399486115327974
2720000000.0 0.2236624697455084 0.3646546264883878
2740000000.0 0.31435625942883283 -0.2194666132067357
2760000000.0 -0.288181420393109 -0.19188325356826924
2780000000.0 -0.03535406646054438 0.31737256712414386
2800000000.0 0.19621259031067334 -0.22702774471543224
2820000000.0 0.038397273401655295 0.28722315911300117
2840000000.0 -0.25713878554257014 -0.12446722087773562
2860000000.0 0.02503158712389074 -0.2856996725930382
2880000000.0 0.2854789620445493 -0.050098570804641224
2900000000.0 0.07849894357876296 0.2819621483073357
2920000000.0 -0.15957958579788864 -0.25022263342529155
2940000000.0 0.10319276779922387 0.2794826655772322
2960000000.0 0.28045335732775833 -0.09401439167255077
2980000000.0 0.2944033779859866 -0.024009144480750137
3000000000.0 0.18485774727255672 0.22601040303461029
3020000000.0 -0.2868585420322898 -0.03426827761180158
3040000000.0 0.27343671071096926 0.08528475821931963
3060000000.0 -0.19729783642628318 -0.2107765799209461
3080000000.0 0.13582386815931127 0.25504313675133294
3100000000.0 -0.06967958348154772 -0.281372445123475
3120000000.0 0.25130255247659466 0.1444813349067286
3140000000.0 -0.23088688761521392 0.16665852995878552
3160000000.0 -0.15035462097241517 -0.22693039091184664
3180000000.0 0.1567197987026236 0.20349592429068797
3200000000.0 0.07073670060009768 0.22283121166026865
3220000000.0 0.005019960780318982 0.20297216125670853
3240000000.0 -0.12676570569945805 0.11134253267104248
3260000000.0 -0.0690749366059529 -0.10912177655039831
3280000000.0 -0.08900635641390663 -0.02490242759693026
3300000000.0 0.04461354686971849 0.04159233165662421
3320000000.0 -0.029790046415237074 0.026387214735632138
3340000000.0 0.003424044807120379 0.029214267793147484
3360000000.0 0.017659228341183268 -0.015076981694401933
3380000000.0 0.006269661116853574 0.01340147431708932
3400000000.0 0.002347273801659744 0.006054140506111919
3420000000.0 -0.016118881122435976 -0.00968946176467639
3440000000.0 -0.004390269074991237 -0.03712392334733813
3460000000.0 -0.04004735195372095 0.03731383212134204
3480000000.0 -0.0706074913532017 0.016049654892548903
3500000000.0 -0.030281618782142857 0.08113238279944456
3520000000.0 -0.06636879048966486 -0.07176588054617464
3540000000.0 0.10149892710898722 -0.036170745873729204
3560000000.0 -0.11502173808405254 -0.010454305853803627
3580000000.0 -0.07594776883764805 0.09709528521650652
3600000000.0 0.12907149962922773 0.052055584256233654
3620000000.0 -0.1477172459699264 -0.03699896522250389
3640000000.0 0.15778766686708245 -0.05991316789736422
3660000000.0 0.14056060846746507 0.12023510408782188
3680000000.0 0.12164409622416603 0.1525352618156519
3700000000.0 0.19884814038471404 0.01871585633233332
3720000000.0 0.17338923566772815 -0.10376774479928791
3740000000.0 -0.005070403783649439 -0.19557735989441244
3760000000.0 0.17596190959845132 0.06137070961767871
3780000000.0 -0.13551691609210462 0.10160639115178144
3800000000.0 -0.06057256392636106 0.1422064813645862
3820000000.0 -0.10959719432986477 -0.09324865971313118
3840000000.0 0.007691811613201253 0.13835140839275867
3860000000.0 0.1426723212794387 -0.03751169655147533
3880000000.0 0.06147336540787397 -0.14999774461441703
3900000000.0 0.07852408164176095 0.15764834970570327
3920000000.0 0.0357289446485667 0.17751873243225935
3940000000.0 0.07984661291524234 0.16209293013928333
3960000000.0 0.040671408458889495 0.17253587110282803
3980000000.0 -0.05746233615828649 0.16098468556815057
4000000000.0 -0.024265445649872926 0.15497798845613037
