!Created with skrf (http://scikit-rf.org).
# Hz S RI R 50.0 
!freq ReS11 ImS11
400000000.0 -0.45840311773335785 0.7454456205018364
420000000.0 0.6371685415392406 0.6034662238190954
440000000.0 0.17870569186555774 -0.8313425756751346
460000000.0 -0.7863425159888402 0.15447797884786427
480000000.0 -0.7056025547469855 -0.10455738831760211
500000000.0 -0.19865020839116834 0.5246585479821521
520000000.0 0.4419405445167498 0.1777023232812116
540000000.0 -0.34756715552459305 -0.1589269483175771
560000000.0 -0.2626993211113015 0.20483636875921124
580000000.0 0.18330032686819792 0.25259843958833866
600000000.0 0.19492742680891556 -0.255397665704818
620000000.0 0.16257580605604408 0.2852233728125679
640000000.0 -0.12553698908234256 0.32705099107929525
660000000.0 -0.1423962930825469 0.3449013785354814
680000000.0 -0.1481676488215136 -0.37738741770768675
700000000.0 -0.40582466683836366 -0.10983781531682886
720000000.0 -0.20813863075134081 0.38355659180961105
740000000.0 -0.43139604004547955 0.09018489598027994
760000000.0 0.41737860320159 0.09892645559269687
780000000.0 0.029256763914147253 0.39833962806504586
800000000.0 -0.34755185111081555 -0.11695407616226579
820000000.0 -0.30690671109772544 -0.056795652108093155
840000000.0 0.20776985963428615 -0.15292846322427042
860000000.0 0.20712722388649346 -0.006867402513725648
880000000.0 -0.12244926452359246 -0.09553185985496564
900000000.0 -0.0902585056014894 -0.027309480523698464
920000000.0 0.04970387209840997 0.020769593368438817
940000000.0 0.019058180708033577 0.03033760651944808
960000000.0 0.030348695490571766 -0.03562985904757022
980000000.0 -0.004297700883229849 0.061856010311434034
1000000000.0 -0.04943067988612408 -0.0597951007585198
1020000000.0 -0.08897612055350236 0.039867234721505114
1040000000.0 0.0797585456572679 -0.07848109546347445
1060000000.0 0.05096757109265308 0.13941597223530863
1080000000.0 -0.05385641193781169 0.1556940118589379
1100000000.0 0.1820183978478835 0.0027131436191483315
1120000000.0 0.0019662083317998394 -0.1966104238518966
1140000000.0 0.1684049059254567 -0.15344519442336577
1160000000.0 0.25901201009956987 0.02316719537616916
1180000000.0 -0.04242812058006061 0.29836995994925186
1200000000.0 -0.3338645125514874 0.029056356159071754
1220000000.0 0.21006425060171607 -0.3057517530688497
1240000000.0 -0.2061912945746836 0.3402058200426442
1260000000.0 0.17027146515556654 -0.39015081100620985
1280000000.0 -0.436773975374405 0.059594814319830505
1300000000.0 0.45047504090454404 0.004754032263168888
1320000000.0 0.21866356866952982 -0.3928825830777124
1340000000.0 -0.09326297243079436 -0.433265197652853
1360000000.0 0.18144450069537882 -0.40182873972723754
1380000000.0 -0.10953470179694917 -0.42284937499783626
1400000000.0 -0.3685277902727698 0.2198496253327437
1420000000.0 0.30463744107035967 0.27350537919995127
1440000000.0 0.0951631367163077 -0.36798611322576835
1460000000.0 -0.3320122867627684 -0.09100280562293249
1480000000.0 -0.2328939189531795 0.19966060721154227
1500000000.0 -0.25327998711554417 0.10027810288976009
1520000000.0 -0.20452734816368842 -0.1301843786604091
1540000000.0 -0.055519489508937744 0.2123986069013118
1560000000.0 0.09288691310864686 -0.16914101864593303
1580000000.0 0.04729356556049768 0.16806704349360108
1600000000.0 0.14110210134944143 0.03628487678023652
1620000000.0 0.0473002985244847 -0.113122226454024
1640000000.0 0.050016104278062405 -0.08584012289852795
1660000000.0 0.006459451057903251 -0.07827718314148643
1680000000.0 -0.03654245944135979 0.04490127094568167
1700000000.0 -0.03728148189793708 -0.013398304162793695
1720000000.0 -0.004561054888507775 0.020014436714955064
1740000000.0 -0.012192093342365573 -0.008446064567074337
1760000000.0 -0.0214427443997625 0.02897906804570285
1780000000.0 -0.04361125523271903 0.054281156318475805
1800000000.0 -0.026763147524360653 -0.10344946370684673
1820000000.0 -0.014882524114060217 -0.14593793652682632
1840000000.0 -0.11516832746011961 -0.14633072364695673
1860000000.0 0.16142100518286248 -0.1507163009575007
1880000000.0 -0.013445153023609963 0.25570719831951705
1900000000.0 -0.07046437243344834 -0.2838417084849608
1920000000.0 0.035083277477301104 0.31819844418711674
1940000000.0 0.32642826668820374 -0.11491627052111147
1960000000.0 0.013892519480034662 -0.36780100890199857
1980000000.0 -0.3605580597804589 -0.13618903125242238
2000000000.0 -0.3891076201547508 -0.10886477529687845
2020000000.0 -0.36609060067279064 0.20399179469803325
2040000000.0 -0.21231802897257196 0.3752922123860852
2060000000.0 0.2890329994380996 0.32675969511786285
2080000000.0 0.42978578716034244 -0.08978566338568307
2100000000.0 0.1819847487969577 -0.39625563513608936
2120000000.0 -0.2825742617651721 -0.3202436408466174
2140000000.0 -0.4172586989356946 0.00728177858581942
2160000000.0 -0.38292467156255316 -0.1198801245651178
2180000000.0 -0.35564801823113884 0.14710897044603666
2200000000.0 0.010435346106658975 0.372717944834029
2220000000.0 0.2579583147292897 0.24713506899917365
2240000000.0 0.3524665849696972 0.022486361735571066
2260000000.0 0.3111508941071779 -0.16382070997237025
2280000000.0 0.21120986578474035 -0.2890434477404638
2300000000.0 -0.3300233296260955 -0.17395922234065703
2320000000.0 -0.15230221328224552 0.367444798716452
2340000000.0 0.4262947761158723 -0.06045714441473859
2360000000.0 -0.4306343599363199 -0.19282167883136522
2380000000.0 0.4663712528611429 0.22838094374611412
2400000000.0 -0.5634630922773053 -0.0757766998605522
2420000000.0 0.5036463888562858 -0.3549030386097168
2440000000.0 -0.20687257243314472 0.6249467770547311
2460000000.0 -0.23174146259649483 -0.6526203111595679
2480000000.0 0.46287892917665224 0.5479215356144319
2500000000.0 -0.32689215492480783 -0.6548614965849822
2520000000.0 0.03740697797935281 0.7374081909740458
2540000000.0 0.39008240621662094 -0.6252598342528094
2560000000.0 -0.7279353957339465 0.011298836923919788
2580000000.0 0.2944799737813035 0.6471237372254359
2600000000.0 0.4605803207390093 -0.5084558974007396
2620000000.0 -0.6112844923790355 -0.23316388327185786
2640000000.0 -0.6129634454640017 -0.07621540284810122
2660000000.0 0.2725247568179871 0.5029809001119147
2680000000.0 0.25210460260191014 -0.46129944668101525
2700000000.0 -0.4751635126497357 -0.05004024781749488
2720000000.0 0.22402076934872742 0.36667588774671483
2740000000.0 0.3229790227559506 -0.21059093185201583
2760000000.0 -0.2838623711509612 -0.20185378370602322
2780000000.0 -0.0683709086358464 0.3143066099267782
2800000000.0 0.21752423351211664 -0.2093644859544826
2820000000.0 -0.0018252833397016887 0.2913383300361448
2840000000.0 -0.24630138410761854 -0.1463415796497484
2860000000.0 0.02417406694565359 -0.28655587341520483
2880000000.0 0.2896695054918597 -0.025605022945841573
2900000000.0 0.08280120700081889 0.2807822438509914
2920000000.0 -0.19701497457869982 -0.22110901293069696
2940000000.0 0.10151621114745779 0.28044341116011107
2960000000.0 0.2661906575009681 -0.13019893234951072
2980000000.0 0.2874573419851896 -0.0675335089957141
3000000000.0 0.173348075464871 0.23470556204748894
3020000000.0 -0.28903743010492344 -0.020100992654870295
3040000000.0 0.2589879400071169 0.12449509025470688
3060000000.0 -0.1647676026666431 -0.2379898166693432
3080000000.0 0.11419323329542547 0.2663159461480954
3100000000.0 -0.006296639201251348 -0.2905136382812176
3120000000.0 0.25126779663115417 0.14569689642986403
3140000000.0 -0.20820584086917227 0.19458651769051766
3160000000.0 -0.17729707444133458 -0.20672246469118827
3180000000.0 0.1961679460289978 0.1664384291962377
3200000000.0 0.124831859775437 0.19746702840011743
3220000000.0 0.036677856791877884 0.19886558343745264
3240000000.0 -0.12796845213922386 0.10855863044881944
3260000000.0 -0.06802891524434923 -0.10920400265989545
3280000000.0 -0.09208463075384496 -0.007663275176286495
3300000000.0 -0.005993860003618732 0.06075668838068335
3320000000.0 -0.01757676700663402 0.03585112717345989
3340000000.0 0.020923750612355185 -0.020383445459550804
3360000000.0 -0.022230522495764175 -0.0016410314017489714
3380000000.0 0.011898807648122492 -0.005468707636417797
3400000000.0 0.005744136238208687 -0.0006787397670247635
3420000000.0 0.018987122127991682 0.007838489490534513
3440000000.0 0.025226429405871487 -0.02990628767995445
3460000000.0 -0.054495097582277816 0.014812519325894637
3480000000.0 -0.07129442725913557 -0.014152168886747044
3500000000.0 -0.06490852158523967 0.0579134289179757
3520000000.0 -0.06092160401587411 -0.07691082573643353
3540000000.0 0.10473936065016148 0.02185402174292804
3560000000.0 -0.07255814367312914 -0.0883578086902109
3580000000.0 -0.12331179875819202 0.009434996189751221
3600000000.0 0.1032523356011121 0.09371275550101205
3620000000.0 -0.11039193778941798 -0.10496632542588208
3640000000.0 0.16856033764974762 0.006889062164789849
3660000000.0 0.09081852543888286 0.16125835620368098
3680000000.0 0.08622984842212242 0.1748280174490885
3700000000.0 0.19283965092142688 0.05217338411552579
3720000000.0 0.1812893746566108 -0.08966066962898588
3740000000.0 0.015017213420093545 -0.19486714839657157
3760000000.0 0.16617460549169158 0.08147445502738564
3780000000.0 -0.15328627621313054 0.06936221426861934
3800000000.0 -0.09845597172378828 0.11826989658754757
3820000000.0 -0.05051890340561547 -0.13310798285867462
3840000000.0 -0.0725800715129253 0.11723827629888331
3860000000.0 0.145275157650462 -0.025943024872583157
3880000000.0 0.09792115652404002 -0.1285545534939904
3900000000.0 0.04330540973674967 0.1694145386997811
3920000000.0 0.04124097185039866 0.17405180365301107
3940000000.0 0.10008391465785359 0.14885801273818663
3960000000.0 0.03602145910410429 0.172006291938076
3980000000.0 -0.08776110013265948 0.1439884945075119
4000000000.0 -0.05022873215119282 0.14645966840905958
