!Created with skrf (http://scikit-rf.org).
# Hz S RI R 50.0 
!freq ReS11 ImS11
400000000.0 -0.4669788339806679 0.7403282491326922
420000000.0 0.6250608279476171 0.6155732704938662
440000000.0 0.18750196793831922 -0.8288977772915317
460000000.0 -0.7841687402750608 0.16584255375063758
480000000.0 -0.7068286497401461 -0.09496466350703217
500000000.0 -0.2155954591689461 0.5182023262846394
520000000.0 0.4499214519056022 0.15614928784116106
540000000.0 -0.35511193454131773 -0.14205914353447913
560000000.0 -0.25945181057471545 0.2075631236852567
580000000.0 0.15939048120518579 0.2688530696195997
600000000.0 0.18552621757098325 -0.2616582664943047
620000000.0 0.16267289502723625 0.2851028948519166
640000000.0 -0.13017747392729326 0.32523191103293625
660000000.0 -0.16966404280312072 0.33251928130905684
680000000.0 -0.16681395976934504 -0.36849819990795524
700000000.0 -0.4141292390510063 -0.07384889701570112
720000000.0 -0.21988751735264844 0.3770864753363912
740000000.0 -0.4317233968765889 0.08914447205020777
760000000.0 0.4195043381164261 0.08933624903472066
780000000.0 0.033683404248897 0.39789714902465595
800000000.0 -0.34816290293376345 -0.11483375288451858
820000000.0 -0.30931259020381585 -0.041023520954853995
840000000.0 0.19708590360294262 -0.166257119123415
860000000.0 0.20719764337530774 -0.002801245897008589
880000000.0 -0.1210857097842797 -0.09688063780190133
900000000.0 -0.0865275176245352 -0.03685971334393788
920000000.0 0.052871295707063365 -0.009883849492796252
940000000.0 0.01874348291184176 0.030473724673427096
960000000.0 0.047074927367378644 -0.002254867196083372
980000000.0 -0.014717314984295354 0.06013628461557698
1000000000.0 -0.04705343256817565 -0.0617640228798955
1020000000.0 -0.09599491920164725 0.016249964987298342
1040000000.0 0.08858088734555994 -0.06806430310843614
1060000000.0 0.04328260421910269 0.14195067051897386
1080000000.0 -0.05436397864783747 0.1551833001065274
1100000000.0 0.18130849473447455 0.016148622018889464
1120000000.0 0.014474671595670617 -0.19586855284769014
1140000000.0 0.1695374003509652 -0.15191108619721003
1160000000.0 0.2599789813670612 0.004387683880579937
1180000000.0 -0.0401993390283283 0.29873303614518604
1200000000.0 -0.3317993682997598 0.04794246303976564
1220000000.0 0.20678905059071112 -0.3080194073271175
1240000000.0 -0.18521102589357474 0.3523110382930252
1260000000.0 0.19104628820997063 -0.38061267631457807
1280000000.0 -0.43596917588372724 0.0638488638726466
1300000000.0 0.45111224933751987 0.005069261952793823
1320000000.0 0.23443011158505322 -0.38378002222394114
1340000000.0 -0.08710445084440004 -0.43479097079404977
1360000000.0 0.17746368400579351 -0.40377529685622027
1380000000.0 -0.11198499599113435 -0.42267822163435376
1400000000.0 -0.3863184860900567 0.18750888543957497
1420000000.0 0.2876203061047697 0.2908990476897059
1440000000.0 0.09973118741677854 -0.36655651499047276
1460000000.0 -0.32651715603118714 -0.10861349642943585
1480000000.0 -0.20443699579317828 0.2282566973802641
1500000000.0 -0.25379825164626324 0.09812973564102921
1520000000.0 -0.20040494095014333 -0.1368076603800406
1540000000.0 -0.01733568657774334 0.21838748745173342
1560000000.0 0.08292637396807619 -0.17433139865580366
1580000000.0 0.06196415210925992 0.16309191918167038
1600000000.0 0.1456914329593839 -0.002849199889032445
1620000000.0 0.008831501737519721 -0.12223829617831639
1640000000.0 0.018617772088516418 -0.09776020817458314
1660000000.0 -0.004332852410116949 -0.0785755354604698
1680000000.0 -0.002434144821760869 0.058623975936678265
1700000000.0 -0.031214532175497883 -0.025103153657323476
1720000000.0 -0.013368992453673227 0.015720184335970763
1740000000.0 0.0006286819719952301 -0.01450752705835045
1760000000.0 0.020292521784688673 0.029546773766230584
1780000000.0 -0.028285973328573754 0.06396998160302356
1800000000.0 -0.06627172695935611 -0.08437421247007514
1820000000.0 -0.055450341170011914 -0.13607308800420526
1840000000.0 -0.12760979203518327 -0.13607919179707054
1860000000.0 0.14617913897159374 -0.16588132699851657
1880000000.0 -0.010043623171039786 0.25606343386959907
1900000000.0 -0.06011049819134874 -0.2862664414651325
1920000000.0 0.019025120035553275 0.31942059031380393
1940000000.0 0.33373982048710765 -0.09089474330471665
1960000000.0 0.03334885008386186 -0.36628909899631296
1980000000.0 -0.3493093375997104 -0.16206624255865051
2000000000.0 -0.3812222115148338 -0.13274711955330382
2020000000.0 -0.3695808799052489 0.19681074926417866
2040000000.0 -0.2264771783596896 0.3664968988826165
2060000000.0 0.2938215140975014 0.321695289356728
2080000000.0 0.42204087507144306 -0.11805279783035373
2100000000.0 0.17896778069076835 -0.39695400974932027
2120000000.0 -0.3029077525778065 -0.3001267141679331
2140000000.0 -0.4144211993980939 0.04327439814768804
2160000000.0 -0.38976403528995324 -0.09311913803488095
2180000000.0 -0.3384062184816794 0.1822973671335449
2200000000.0 0.03479350845609407 0.37102194232020225
2220000000.0 0.26891950530657127 0.2352720443149094
2240000000.0 0.35328175738723566 0.002747358411210194
2260000000.0 0.29786071395466773 -0.1875933186639249
2280000000.0 0.20647465106991875 -0.2926268483296397
2300000000.0 -0.3302471225066224 -0.17388911433870793
2320000000.0 -0.15694660285662446 0.36567435158836753
2340000000.0 0.42678945051670547 -0.06019458367596034
2360000000.0 -0.4178083682742969 -0.21951159091302905
2380000000.0 0.4387739944233933 0.27762090258807826
2400000000.0 -0.5579432203162846 -0.10904435971647286
2420000000.0 0.5183973299205624 -0.3323277367209835
2440000000.0 -0.2184485645476329 0.6204660919855004
2460000000.0 -0.22375434006515313 -0.654623322641655
2480000000.0 0.438955113177202 0.566667662843426
2500000000.0 -0.2909500617921061 -0.6712677729445716
2520000000.0 -0.017299309555256298 0.7377721067941733
2540000000.0 0.38357384631479247 -0.6287590171013532
2560000000.0 -0.7277801174628428 0.011799891689901107
2580000000.0 0.3432999110060618 0.6223606701300182
2600000000.0 0.43959017404728323 -0.5267385600381419
2620000000.0 -0.6317869415172975 -0.17027444183310828
2640000000.0 -0.6173969652641874 -0.025962122595247637
2660000000.0 0.3042680593661248 0.4850931485832457
2680000000.0 0.22403459411796825 -0.4763655311421493
2700000000.0 -0.4782360883350169 -0.01598612859276676
2720000000.0 0.2325644146566225 0.36229259977434963
2740000000.0 0.29999307754722504 -0.24389846738798207
2760000000.0 -0.2856908712868583 -0.20069093325539997
2780000000.0 -0.0816484067845033 0.31184149765562974
2800000000.0 0.22840172281705404 -0.19837931294143718
2820000000.0 -0.018955817829557322 0.2913407003817052
2840000000.0 -0.23162586259438786 -0.1695903299209687
2860000000.0 0.07120199868924376 -0.27898561897452717
2880000000.0 0.29032615691237196 -0.013469275157412348
2900000000.0 0.05464369292539687 0.2874509716979993
2920000000.0 -0.18077751980900877 -0.23391060717283063
2940000000.0 0.1041645903234517 0.2784919018979303
2960000000.0 0.2589427282016594 -0.14213610663314594
2980000000.0 0.2782093395098771 -0.09656689127244193
3000000000.0 0.18435131716299694 0.22540125105839526
3020000000.0 -0.28713980534476613 -0.03558522094981606
3040000000.0 0.26648596990165446 0.10682393440733426
3060000000.0 -0.1864028727112114 -0.22104127616221017
3080000000.0 0.15316703253425842 0.24589417688898052
3100000000.0 -0.1321444808332258 -0.25928394383104425
3120000000.0 0.28650848049355804 0.05177402847867299
3140000000.0 -0.18514095868503017 0.2168829600530829
3160000000.0 -0.20978252630241714 -0.174470625666954
3180000000.0 0.21994490221680452 0.13404783164351466
3200000000.0 0.14664818245419745 0.1826583163586525
3220000000.0 0.06505040020668845 0.19264687004441872
3240000000.0 -0.12108959255981387 0.11699679298358834
3260000000.0 -0.06665113796675845 -0.11074476040406837
3280000000.0 -0.06752058679786034 -0.06436744729347513
3300000000.0 0.008712867422503797 0.0613388659964056
3320000000.0 -0.028660382818922654 0.02908333115888635
3340000000.0 0.02448657178848757 -0.017995395563500063
3360000000.0 -0.0226253844063326 -0.0066862026509100034
3380000000.0 0.011762585365066393 -0.00746404382482018
3400000000.0 0.0027235123348169966 -0.005407947897430152
3420000000.0 0.012297083465296278 -0.016080783128100917
3440000000.0 -0.0009972908729307557 -0.038602075966547675
3460000000.0 -0.018269589713015403 0.05299461100716427
3480000000.0 -0.046098756560319455 0.0560632523717553
3500000000.0 -0.01812288653833365 0.08464167238370815
3520000000.0 -0.05870958248033653 -0.07707657398687626
3540000000.0 0.10623583479428289 -0.0019263183411496532
3560000000.0 -0.0981832285323151 -0.05836220639831861
3580000000.0 -0.11342760576025918 0.04848020423067593
3600000000.0 0.11897848553174722 0.07222568576852612
3620000000.0 -0.1419598865671989 -0.05647467053042213
3640000000.0 0.1670608299581771 -0.021585630224777476
3660000000.0 0.12572250475171878 0.13638820374835428
3680000000.0 0.14326006415920342 0.1329707365654252
3700000000.0 0.20046474226861064 -0.006665326236658005
3720000000.0 0.14720250989665878 -0.13954720120226857
3740000000.0 -0.03225159180168646 -0.19296907214750778
3760000000.0 0.18218674613589186 0.03613512964447257
3780000000.0 -0.13820111361700174 0.09712947519449819
3800000000.0 -0.0842297229358768 0.12983392270927935
3820000000.0 -0.06387313406698701 -0.1281905493786986
3840000000.0 -0.040837483945656956 0.1329583498037798
3860000000.0 0.13492401894184122 -0.06213348483508858
3880000000.0 0.05049947383303893 -0.15428357394434153
3900000000.0 0.08964761092176995 0.15092163477841888
3920000000.0 0.07479626346332566 0.16330269653599822
3940000000.0 0.1187234100284521 0.1349624912802103
3960000000.0 0.05571329745709613 0.1670623061544847
3980000000.0 -0.0658312126829389 0.1560429237964218
4000000000.0 -0.04371301042378966 0.14947806726161644
