!Created with skrf (http://scikit-rf.org).
# Hz S RI R 50.0 
!freq ReS11 ImS11
400000000.0 -0.44214727724993946 0.754317995280364
420000000.0 0.6447427045976236 0.5923551127177433
440000000.0 0.20532370531513602 -0.8254958854379576
460000000.0 -0.7787133804278259 0.18491741814948215
480000000.0 -0.7088063271514405 -0.07779465838845853
500000000.0 -0.16569166059838078 0.5363675279829478
520000000.0 0.4379904798535221 0.185399322593768
540000000.0 -0.362126158481944 -0.12340620837770748
560000000.0 -0.22255486881119985 0.24847210070466635
580000000.0 0.18221094569357038 0.25406682674871117
600000000.0 0.1365360948613705 -0.29183015791549427
620000000.0 0.17705172555394 0.2775164486323503
640000000.0 -0.1339805252381054 0.3252475144062196
660000000.0 -0.25237716357933143 0.27585614799345565
680000000.0 -0.10806801774849475 -0.39057660201294175
700000000.0 -0.39836162106421796 -0.13367982729173497
720000000.0 -0.28005729708282984 0.33466012812972706
740000000.0 -0.4403406209523871 0.000433823752287136
760000000.0 0.40468703207956436 0.13826347684382295
780000000.0 -0.016035843196620905 0.39800243022216125
800000000.0 -0.35493853954094845 -0.08926711274394561
820000000.0 -0.31142421916260293 0.010412996231955695
840000000.0 0.15499019259298824 -0.2064675228501618
860000000.0 0.18775406093843147 -0.08991644248376661
880000000.0 -0.15621068138438132 -0.009391321081800722
900000000.0 -0.09009901632630973 0.03328058280685196
920000000.0 -0.01092997038785913 0.055126704176858464
940000000.0 -0.02336655301468531 -0.027576415748892795
960000000.0 0.01115515169916579 0.04398803978092993
980000000.0 -0.024551408957132505 0.05492272024569221
1000000000.0 -0.07532932169814706 0.011716926514114089
1020000000.0 -0.04208570462512863 0.08676358732843183
1040000000.0 -0.016537909430019652 -0.11012851248927885
1060000000.0 0.13985761064497365 0.051058777070315454
1080000000.0 0.052716162103740694 0.1578558364909692
1100000000.0 0.15092034559224193 -0.10563193824608999
1120000000.0 -0.06583740325802402 -0.18820918523401375
1140000000.0 0.1799179571460905 -0.14366987180611934
1160000000.0 0.2502118389450686 0.07971621087235373
1180000000.0 -0.15720611361391185 0.25998017613486357
1200000000.0 -0.3128751756327688 -0.12435204151097766
1220000000.0 0.32612645885776265 -0.17898615150321318
1240000000.0 -0.3245541900940099 0.2312487602197921
1260000000.0 0.3293590063641151 -0.26965135403311324
1280000000.0 -0.4365595375090251 -0.053206909602240844
1300000000.0 0.43971736338968637 0.09628702549884824
1320000000.0 0.2615285570814987 -0.36437590907615375
1340000000.0 -0.09283007471383418 -0.4320768904587557
1360000000.0 0.15279725451157136 -0.4126695137044318
1380000000.0 -0.15826129199389222 -0.4063769751287857
1400000000.0 -0.34144240682399013 0.2590245819925211
1420000000.0 0.3532883831252368 0.2056189173650866
1440000000.0 -0.013502224207441703 -0.380319876052603
1460000000.0 -0.34493138734488693 0.0035440307228156265
1480000000.0 -0.1596015568098955 0.2632332690212888
1500000000.0 -0.20808766436154813 0.17791428158994874
1520000000.0 -0.23223757108806403 -0.07556128587896353
1540000000.0 -0.018281526745486668 0.2202926987540634
1560000000.0 0.06581244810551448 -0.18281369231593197
1580000000.0 0.021393583198156752 0.17433486297927883
1600000000.0 0.12340854104978373 0.07975675133207474
1620000000.0 0.10666268537686853 -0.06235546549202439
1640000000.0 0.09988507705784129 0.0020639603505091565
1660000000.0 0.0708967343956904 -0.033230801664313664
1680000000.0 -0.056217582704234374 -0.011706813857878973
1700000000.0 -0.007152001095001371 -0.03831852430836943
1720000000.0 0.009215890788450507 0.01724098552050654
1740000000.0 -0.013591906276953227 0.007469029163942723
1760000000.0 -0.03007263676272159 0.020857045227269864
1780000000.0 -0.07015280460360895 -0.004470017795106412
1800000000.0 0.022120367588122344 -0.10418943135841158
1820000000.0 0.04187473659764652 -0.14032649658596208
1840000000.0 -0.08018264524766815 -0.16782182265807818
1860000000.0 0.18439362947799268 -0.12081249291336
1880000000.0 -0.041331173979613604 0.25216307640903124
1900000000.0 -0.07694062995970098 -0.2817801884051311
1920000000.0 0.05137500063533935 0.3159751217160096
1940000000.0 0.30371747356853507 -0.16667147736558466
1960000000.0 -0.054245991267274925 -0.3645503380568794
1980000000.0 -0.3754568382409076 -0.08939758794943888
2000000000.0 -0.4015556853852817 -0.04769140823021971
2020000000.0 -0.35541893602174385 0.22419718463555477
2040000000.0 -0.14372691603855292 0.4068862062223597
2060000000.0 0.33222551464928796 0.283379687816789
2080000000.0 0.42036809824998644 -0.1284177633203616
2100000000.0 0.18317652640224583 -0.3959097157134546
2120000000.0 -0.28150133625562834 -0.3220358288935924
2140000000.0 -0.4172770600688351 0.02316078283022095
2160000000.0 -0.37314503737863003 -0.14923956957411202
2180000000.0 -0.37016089461228296 0.10768979862086984
2200000000.0 0.010511431177655677 0.3731023500632436
2220000000.0 0.26989730436944964 0.23439104824301046
2240000000.0 0.3536685055121509 0.0073729980966402275
2260000000.0 0.27852865161066725 -0.21519457804008849
2280000000.0 0.188276999936393 -0.3042934808661511
2300000000.0 -0.33973734163820524 -0.15515930017984372
2320000000.0 -0.114398179607346 0.3806749359517836
2340000000.0 0.4115529604629751 -0.12745480258773043
2360000000.0 -0.45461709254970023 -0.12746697550537428
2380000000.0 0.497508948858742 0.15053302452731646
2400000000.0 -0.5689838549366385 -0.002049062835383948
2420000000.0 0.4302653150524056 -0.44118265151604813
2440000000.0 -0.07673518487171015 0.6543061878648949
2460000000.0 -0.35449544714681347 -0.594960225355547
2480000000.0 0.5446404203107836 0.4668964328389092
2500000000.0 -0.4127902904898212 -0.6049891131863298
2520000000.0 0.14788601402841076 0.7235990550295915
2540000000.0 0.3656677743339811 -0.6388771017702012
2560000000.0 -0.7260355078840118 0.03844761218568889
2580000000.0 0.2716589952682905 0.6558762192090583
2600000000.0 0.48283934751327695 -0.48437047365828056
2620000000.0 -0.6273457559932513 -0.17983058635299015
2640000000.0 -0.6144869803552905 -0.035045934288375824
2660000000.0 0.2507946204094032 0.5128423026256534
2680000000.0 0.28677228869766536 -0.43913822183622464
2700000000.0 -0.47629608963612924 -0.022839226129007115
2720000000.0 0.19397857413327843 0.3818989717156952
2740000000.0 0.33069359913136376 -0.19469723814743717
2760000000.0 -0.2768141079914529 -0.2079532450806529
2780000000.0 -0.05749311470240448 0.3143016259275699
2800000000.0 0.1954154452359664 -0.22731044198528444
2820000000.0 0.036759748183098136 0.28739795056777234
2840000000.0 -0.26890592588671386 -0.0961678625061568
2860000000.0 -0.025037739786626892 -0.2853029512135628
2880000000.0 0.2776515217947829 -0.08484426788801262
2900000000.0 0.1364824081949289 0.25910638460542973
2920000000.0 -0.19843877966317996 -0.2211547503630845
2940000000.0 0.12555262848444104 0.27142296143100764
2960000000.0 0.2824577363471698 -0.09350035176290616
2980000000.0 0.2960678772584844 -0.012624589434031195
3000000000.0 0.14371168929634331 0.2545653687497319
3020000000.0 -0.27676215892270234 -0.08692147291714561
3040000000.0 0.2410578338245092 0.15747494384044738
3060000000.0 -0.08807648583962953 -0.27603411519571497
3080000000.0 0.05050380534506043 0.28506228247385207
3100000000.0 0.054497276459414254 -0.28488565101253754
3120000000.0 0.17289733209965025 0.23248584149951787
3140000000.0 -0.26687281668371693 0.09729637499962408
3160000000.0 -0.07045484075338539 -0.26230825346170245
3180000000.0 0.12759492490586474 0.2225684742995281
3200000000.0 0.04284331240429521 0.22834667993994742
3220000000.0 0.0015149033047876508 0.20150735348119392
3240000000.0 -0.1300766004895095 0.10420882146151807
3260000000.0 -0.09616106122608449 -0.08305429119604055
3280000000.0 -0.0878886653703691 0.023910307114036872
3300000000.0 0.05942392084604964 -0.004091325477543049
3320000000.0 0.0347278496425382 0.016048012854451232
3340000000.0 0.02257303169643715 -0.0165364201382464
3360000000.0 0.018193271269149842 -0.013304002609215982
3380000000.0 -0.006852713499911148 -0.011369470792588515
3400000000.0 -0.00011759449857069116 -0.005305482944117986
3420000000.0 0.018422106622120685 0.005662943021284843
3440000000.0 0.018109242184378715 0.033570672620756324
3460000000.0 -0.023996311150860795 -0.05013179702936095
3480000000.0 -0.05442773266260155 -0.047893232637629776
3500000000.0 -0.08288826213028745 0.02504342600617113
3520000000.0 0.02657626186583705 -0.0930512985046726
3540000000.0 0.10718909339391845 -0.008502042998611237
3560000000.0 -0.09198542323732088 -0.06894691877418761
3580000000.0 -0.11361939824219244 0.04900413871299793
3600000000.0 0.11890071985775019 0.07291878656552792
3620000000.0 -0.13433276560866528 -0.07105574368297499
3640000000.0 0.1686688861918141 -0.0077533611914193295
3660000000.0 0.08634969692889749 0.1628569319984068
3680000000.0 0.08407606765611413 0.17471855620373725
3700000000.0 0.19062805155935242 0.056683228902248875
3720000000.0 0.18511834997368776 -0.07918750452255949
3740000000.0 -0.018026538872115496 -0.19303637900072554
3760000000.0 0.17646027104965964 0.05553058709751693
3780000000.0 -0.10268001549930095 0.13313762929697748
3800000000.0 -0.0012719229881702732 0.1533439043622979
3820000000.0 -0.109326363728462 -0.09158229910380072
3840000000.0 0.03598966589263139 0.13252478884153823
3860000000.0 0.11837291627625811 -0.0864388923260788
3880000000.0 0.03904400018036414 -0.1560071259034481
3900000000.0 0.09124557021477177 0.14966181478032062
3920000000.0 0.0653194199734878 0.1677721794047132
3940000000.0 0.08831368781526512 0.15749266945741355
3960000000.0 0.05683158625123086 0.1683546583717416
3980000000.0 -0.07565062052942713 0.15258693511738705
4000000000.0 -0.05247227603304433 0.14718353358349334
