!Created with skrf (http://scikit-rf.org).
# Hz S RI R 50.0 
!freq ReS11 ImS11
400000000.0 -0.4665706145716755 0.73844681166412
420000000.0 0.626400660276719 0.6129312387835251
440000000.0 0.1443828848465024 -0.836953754112624
460000000.0 -0.7764244602401585 0.19734376336194068
480000000.0 -0.7090566719984883 -0.07551073007713129
500000000.0 -0.183324195914053 0.5302908823800166
520000000.0 0.44925502405638823 0.1581067530352894
540000000.0 -0.3631077977224418 -0.11897392505980449
560000000.0 -0.2524144111802952 0.21709713553126941
580000000.0 0.20109538526374643 0.238335333686881
600000000.0 0.18205304478744913 -0.2654555101242812
620000000.0 0.1608668683870929 0.2870753013371275
640000000.0 -0.14978066065588658 0.3181451210912149
660000000.0 -0.2072925529383301 0.3112774679186079
680000000.0 -0.09152956067064527 -0.39516980221874437
700000000.0 -0.37933876023224866 -0.1808804699333123
720000000.0 -0.24680213077010046 0.35978884008734435
740000000.0 -0.4384128928182482 0.030486512726467598
760000000.0 0.4081023173640356 0.1285518156499675
780000000.0 0.015727476148776804 0.3982856633510755
800000000.0 -0.35468314255594274 -0.0909316993619304
820000000.0 -0.31149109353079646 -0.003343366972540948
840000000.0 0.1574271515070887 -0.20444939555090433
860000000.0 0.19200768133283805 -0.07907529149353842
880000000.0 -0.15042255103973856 -0.04486577832264632
900000000.0 -0.0949059469349068 0.013332100728769121
920000000.0 0.0013708285399566679 0.05553067757739951
940000000.0 -0.014624959996548418 -0.03221855562511635
960000000.0 0.0263051526289733 0.03672311833372681
980000000.0 -0.03481921586197035 0.048900480838514435
1000000000.0 -0.07568409267124032 -0.0031482950532173387
1020000000.0 -0.03831086506898159 0.08838321569184808
1040000000.0 -0.029933707296893885 -0.10726909852844807
1060000000.0 0.13456784260330104 0.06393983176671646
1080000000.0 0.04232179968504893 0.16065556445335605
1100000000.0 0.17348166218676983 -0.061541255625508336
1120000000.0 -0.027235994287160486 -0.1973282002309703
1140000000.0 0.1806534165555528 -0.14275159358299522
1160000000.0 0.2511584711395735 0.07776089430760103
1180000000.0 -0.15791570038620048 0.25937372503027006
1200000000.0 -0.3248710424974508 -0.089119776083513
1220000000.0 0.3269408940011785 -0.178011591306085
1240000000.0 -0.3097610608542264 0.25068122355798755
1260000000.0 0.30222003687046095 -0.30019125595016666
1280000000.0 -0.43813792892951947 -0.04110087426165581
1300000000.0 0.44090908735289025 0.08966488840405784
1320000000.0 0.2716984636412972 -0.35701327878082734
1340000000.0 -0.08078762996568445 -0.43444016645613676
1360000000.0 0.15884266847183964 -0.41028000161192074
1380000000.0 -0.15408946655450614 -0.4082341728817348
1400000000.0 -0.34544983044242766 0.25387834311399915
1420000000.0 0.35062133031507275 0.21050484150131463
1440000000.0 0.012836076512513688 -0.38017623823935753
1460000000.0 -0.3449122419087845 0.005605941478293123
1480000000.0 -0.17846685909587248 0.2510468453171217
1500000000.0 -0.21649552155521118 0.16716001534013303
1520000000.0 -0.23136031879562005 -0.07942245219203535
1540000000.0 -0.012283680595700166 0.22065752707154412
1560000000.0 0.05498305054691551 -0.18667803730174162
1580000000.0 0.03701373451004258 0.17250884035045624
1600000000.0 0.14128712548985517 0.04127238776362608
1620000000.0 0.10889018891050903 -0.05884350783708988
1640000000.0 0.09854563988369788 -0.01587491245326002
1660000000.0 0.07750612876067585 -0.009673624380819595
1680000000.0 -0.05684227666356781 -0.00758078087606594
1700000000.0 -0.03444027585424044 -0.017495522008974453
1720000000.0 0.015109028431322044 0.012012214613182493
1740000000.0 0.0067822565989755735 0.014324508869593716
1760000000.0 -0.02241915312528375 0.029667126271280778
1780000000.0 -0.06993974409034663 -0.008843046818162673
1800000000.0 0.04543075379361825 -0.09673830419724516
1820000000.0 0.04121359230572206 -0.14068599693161107
1840000000.0 -0.05255552899496618 -0.1779810024606242
1860000000.0 0.177072882965711 -0.1310019583052983
1880000000.0 -0.04058299569532424 0.2519352127959466
1900000000.0 -0.07293990461548283 -0.28252104973832204
1920000000.0 0.05155422169272562 0.315417745880125
1940000000.0 0.3135937284317604 -0.14569128774225704
1960000000.0 -0.025917476065868122 -0.36688460776903925
1980000000.0 -0.372875406372022 -0.09806803142366478
2000000000.0 -0.4000157445649394 -0.058162885181452594
2020000000.0 -0.33910123303395656 0.2472098958158752
2040000000.0 -0.17600136216721382 0.3944300172635892
2060000000.0 0.32511040108364025 0.292067835105206
2080000000.0 0.42203462300337724 -0.124755811157831
2100000000.0 0.18648507727041042 -0.3953796773004308
2120000000.0 -0.277799191373889 -0.32594597990168456
2140000000.0 -0.4178902000371833 -0.02037978524388494
2160000000.0 -0.3734054239696141 -0.14978709374866295
2180000000.0 -0.37364515245854035 0.095862835452146
2200000000.0 -0.04653648309405998 0.37045700625671624
2220000000.0 0.2198533210789526 0.28216445859793926
2240000000.0 0.3468838279191597 0.06635925025247329
2260000000.0 0.3249048566269165 -0.13433102327814994
2280000000.0 0.2391802173452023 -0.2657137608672271
2300000000.0 -0.3167453525964222 -0.19626775731965634
2320000000.0 -0.15959761311731396 0.36368426130609033
2340000000.0 0.4228818001817088 -0.07890794292663907
2360000000.0 -0.4344607254766922 -0.18294892045204658
2380000000.0 0.46372380995997725 0.2327627077833595
2400000000.0 -0.5671369891989645 -0.03744804799465397
2420000000.0 0.46399257559959944 -0.405548336657742
2440000000.0 -0.15610039889831062 0.6398373396231913
2460000000.0 -0.28266548225233545 -0.6327163709094251
2480000000.0 0.4986721121026087 0.5162166271367835
2500000000.0 -0.3214983897186066 -0.6584641136063861
2520000000.0 0.026247114103548942 0.7388353424107139
2540000000.0 0.4341615358730773 -0.596563997002809
2560000000.0 -0.7277159404985729 -0.03696575645398864
2580000000.0 0.2749877800441401 0.6560579200563663
2600000000.0 0.5114817510263011 -0.45737850577695643
2620000000.0 -0.5907940700085659 -0.2800589079657836
2640000000.0 -0.6051692904476822 -0.1206450874847837
2660000000.0 0.21687652033176952 0.5287396185226116
2680000000.0 0.300189645613159 -0.43047197280635774
2700000000.0 -0.47192286604545575 -0.06864414105545757
2720000000.0 0.21904532036995833 0.3686037269897836
2740000000.0 0.30298647572703385 -0.23713915637964067
2760000000.0 -0.29653134731365105 -0.18104664653163557
2780000000.0 -0.033165413946726154 0.31932438815561304
2800000000.0 0.19190070894610312 -0.23258025089382042
2820000000.0 0.0376604708624385 0.28867075369975415
2840000000.0 -0.25923966686137073 -0.12260772061400833
2860000000.0 0.008153432938045175 -0.2880124493882304
2880000000.0 0.2865589850183037 -0.052615633807158585
2900000000.0 0.07507243748350588 0.28383122989252907
2920000000.0 -0.15721683976384188 -0.2522318976922852
2940000000.0 0.09517881421543868 0.28338921227719244
2960000000.0 0.2830323761591984 -0.08963499159651057
2980000000.0 0.294661693065087 -0.02306202251100871
3000000000.0 0.1223892196416725 0.26520027914153294
3020000000.0 -0.276439685994623 -0.08706551717538345
3040000000.0 0.23492419858998054 0.16515990945181877
3060000000.0 -0.13800504576431125 -0.25425729891535476
3080000000.0 0.06501546951902634 0.282071836975624
3100000000.0 -0.0035916607919239227 -0.2904726129405657
3120000000.0 0.20310092575589744 0.20642480204038682
3140000000.0 -0.23812535860385914 0.15533058168181088
3160000000.0 -0.15288928174818195 -0.224604595391462
3180000000.0 0.18886066720435438 0.17362385111493842
3200000000.0 0.11112936124825488 0.20458587778433562
3220000000.0 0.03413343046297721 0.19889536896519544
3240000000.0 -0.10515450095265082 0.12987618902134995
3260000000.0 -0.10245122116903585 -0.07690368266151267
3280000000.0 -0.0916561346036196 -0.006525499681178916
3300000000.0 0.017437650436830977 0.05803806240158004
3320000000.0 0.017996286491021828 0.034973770453131395
3340000000.0 0.0052491974954193355 -0.027892173131754346
3360000000.0 -0.02131497442055033 0.0056360045709014876
3380000000.0 0.012075239127245313 -0.003216324546081411
3400000000.0 -0.004741838988746005 -0.00303908706190666
3420000000.0 -0.003239363220806593 0.020637339448695478
3440000000.0 0.034543560208892196 0.018646072904090188
3460000000.0 -0.0523463632762929 -0.021097237104303317
3480000000.0 -0.049185137696289384 -0.05390325656491794
3500000000.0 -0.0869941549168107 0.0009730766402347942
3520000000.0 0.028701101686743998 -0.09315174352850601
3540000000.0 0.08523671101087948 0.06433667064125358
3560000000.0 -0.02209756578602106 -0.11208795895302963
3580000000.0 -0.11609399471966232 -0.040609478727649306
3600000000.0 0.06852355253397872 0.12112033117045717
3620000000.0 -0.08413886626876561 -0.12610708177180685
3640000000.0 0.16280514815429056 0.04264778307732293
3660000000.0 0.05467021502005708 0.17631776328799825
3680000000.0 0.05489410722836372 0.18647889086921
3700000000.0 0.17752089091106846 0.08992047405528263
3720000000.0 0.18701498919501833 -0.0746320959954368
3740000000.0 0.04645193660311913 -0.18901086052125732
3760000000.0 0.16344323632735316 0.08556086534219974
3780000000.0 -0.15569293839507758 0.06180210644329013
3800000000.0 -0.09387890193807696 0.12060799376024112
3820000000.0 -0.04912580058435352 -0.13244028403869315
3840000000.0 -0.08448039650853761 0.10838561102932574
3860000000.0 0.14322995444299402 -0.02993254812488643
3880000000.0 0.09433049544818536 -0.1297604064596216
3900000000.0 0.05355186746569442 0.16533058512551746
3920000000.0 0.04487217043251575 0.17213615625569753
3940000000.0 0.12414797903752918 0.1281165192956974
3960000000.0 0.07101367300273899 0.1596800994540119
3980000000.0 -0.04266713544795843 0.16257982801018045
4000000000.0 -0.000394985186026572 0.1541746764367971
