!Created with skrf (http://scikit-rf.org).
# Hz S RI R 50.0 
!freq ReS11 ImS11
400000000.0 -0.4712295947881217 0.7352127934260035
420000000.0 0.6082063129137438 0.6325076926479289
440000000.0 0.21525056081215047 -0.8223434526145851
460000000.0 -0.7778704861208047 0.192898692873249
480000000.0 -0.7073685728330456 -0.0899880704756387
500000000.0 -0.2159223088986969 0.5180062102993538
520000000.0 0.4488283200700787 0.15902661130985363
540000000.0 -0.3540832562560288 -0.14422280428222298
560000000.0 -0.26000243678190743 0.20685574090082184
580000000.0 0.17520705789154664 0.2587991276868585
600000000.0 0.1878445824468442 -0.2602380354487904
620000000.0 0.15852677603242235 0.2878918696753076
640000000.0 -0.12948570638177304 0.3257255193263771
660000000.0 -0.14903421363819774 0.3422305822395347
680000000.0 -0.14466463734170368 -0.3781404232492981
700000000.0 -0.4110251398974502 -0.08874036971129902
720000000.0 -0.20582609495367574 0.38485451584330405
740000000.0 -0.43324347532792623 0.08174370436086992
760000000.0 0.4144839885622393 0.11003216636672966
780000000.0 0.054228758914528566 0.3956686710634975
800000000.0 -0.3510621872847943 -0.10503023946791423
820000000.0 -0.3100152959047811 -0.033973727421960365
840000000.0 0.19081417585985616 -0.17352836615112363
860000000.0 0.20692962083245944 -0.011790629313569998
880000000.0 -0.1204850445514193 -0.0977304148537905
900000000.0 -0.0836896636218305 -0.043069927425925844
920000000.0 0.052577542689518565 0.011487215367631785
940000000.0 0.02070844616866182 0.0288384241480843
960000000.0 0.046731983005076035 -0.00553753623578219
980000000.0 -0.013425629407420755 0.06053792519084449
1000000000.0 -0.0523000122424218 -0.05754852817198823
1020000000.0 -0.09166973720371943 0.033012770510351425
1040000000.0 0.08094573558233427 -0.07710579929060912
1060000000.0 0.04723978327018214 0.1407942992399975
1080000000.0 -0.06095970535820925 0.15280606610836917
1100000000.0 0.17954378366996493 0.030717000955901002
1120000000.0 0.005265979590222471 -0.19642179678129104
1140000000.0 0.18258021731547236 -0.1355397382184957
1160000000.0 0.2601402944123668 -0.007543899340966975
1180000000.0 -0.05290579693492912 0.2967456159055298
1200000000.0 -0.33354784183303515 0.03180676749919844
1220000000.0 0.22646469185771415 -0.2936890859563433
1240000000.0 -0.18403256993022535 0.3527933474043692
1260000000.0 0.17882809005589614 -0.3863665547004367
1280000000.0 -0.43584140630032975 0.06413796359744722
1300000000.0 0.4507145873544667 -0.021120689997665216
1320000000.0 0.24024460001390976 -0.3800966058529459
1340000000.0 -0.08985288106661461 -0.43433801477675194
1360000000.0 0.17178665902773782 -0.40635732660618473
1380000000.0 -0.10617907482371997 -0.424236289810603
1400000000.0 -0.37910751276321525 0.20151611102530798
1420000000.0 0.3015065204526054 0.27615185871454534
1440000000.0 0.11268047251480119 -0.363170181937152
1460000000.0 -0.32673171693868436 -0.10882264904245688
1480000000.0 -0.21618097109005172 0.21739192389082038
1500000000.0 -0.2564293953274253 0.09173098830280567
1520000000.0 -0.2039602639728663 -0.13145992268250184
1540000000.0 -0.01617969352432373 0.21844177947975768
1560000000.0 0.09152600557708272 -0.1699701859848528
1580000000.0 0.05021973508029443 0.16717319935496563
1600000000.0 0.1456564177867382 0.0011983706562760522
1620000000.0 0.010993521791609319 -0.12204770754578809
1640000000.0 0.022344780615754876 -0.09696390085513976
1660000000.0 0.005473680788230366 -0.07845750737840576
1680000000.0 -0.017779016601462305 0.0556180226526387
1700000000.0 -0.03796927204675116 -0.012653626282276065
1720000000.0 -0.015027080857017247 0.014004648145811038
1740000000.0 -0.004107747310042605 -0.013978305205485986
1760000000.0 -0.007530680445453772 0.03498076333062097
1780000000.0 -0.03023266876762446 0.06287567384210092
1800000000.0 -0.05491661973157362 -0.09172428487358937
1820000000.0 -0.04966234451168071 -0.13817665926261427
1840000000.0 -0.12786871754472973 -0.13577194764792194
1860000000.0 0.14709467446462487 -0.16517313186169946
1880000000.0 -0.01594238549965759 0.25561470435498823
1900000000.0 -0.05535835961263482 -0.287213235288931
1920000000.0 0.021760987842682232 0.31939181231919955
1940000000.0 0.334383043389369 -0.08903704785511235
1960000000.0 0.03745577074997922 -0.36602214172837977
1980000000.0 -0.3506131450367068 -0.1593895723227199
2000000000.0 -0.38591489878975677 -0.1182052344880945
2020000000.0 -0.36084861042295086 0.21256775867474167
2040000000.0 -0.18969100793908136 0.38670611821680756
2060000000.0 0.2934571257229802 0.3224953679848824
2080000000.0 0.4236280115040107 -0.11294590898976886
2100000000.0 0.18346492698212072 -0.3951963717786314
2120000000.0 -0.28155020048550616 -0.3207461173754249
2140000000.0 -0.4134480137388496 0.052696459490283745
2160000000.0 -0.38249178738699957 -0.12062791997919754
2180000000.0 -0.3545748859848809 0.1487409795840505
2200000000.0 0.020235424037815284 0.3722922855244329
2220000000.0 0.273107959140953 0.23047457234001434
2240000000.0 0.35296642024291347 0.014348004144312055
2260000000.0 0.3106647580428344 -0.1648708508372006
2280000000.0 0.217155543457002 -0.2844124194506541
2300000000.0 -0.32566753607040977 -0.18198756331005406
2320000000.0 -0.16815356374988358 0.36029452384095556
2340000000.0 0.4279403927657824 -0.04918216681827361
2360000000.0 -0.4171458820247387 -0.2199511269978928
2380000000.0 0.453236227265032 0.2534488664567329
2400000000.0 -0.5573492078790592 -0.1114692921827652
2420000000.0 0.5120088904513442 -0.342278822480697
2440000000.0 -0.22581990040568004 0.618071114037074
2460000000.0 -0.21980873244803514 -0.6564719174952611
2480000000.0 0.4531111653884572 0.5557124290939478
2500000000.0 -0.3090896336787984 -0.6632278343241305
2520000000.0 0.048163595415354005 0.7367229668874844
2540000000.0 0.40894979875289234 -0.6130295911386558
2560000000.0 -0.7278036990167828 0.016440093672770023
2580000000.0 0.2624063962083219 0.6612454696522876
2600000000.0 0.49894348097361757 -0.47081130510857777
2620000000.0 -0.6322457919238925 -0.1688107625699478
2640000000.0 -0.6174147597027271 -0.02547568562993118
2660000000.0 0.28570354403068227 0.4961930278403748
2680000000.0 0.2562384406153598 -0.45941760478629956
2700000000.0 -0.47594471825904944 -0.048400352572265
2720000000.0 0.20054177662440112 0.38049332733038593
2740000000.0 0.3026665746639572 -0.24019582556936991
2760000000.0 -0.29414030210899456 -0.18787625656538653
2780000000.0 -0.0690513646577187 0.31474740703637216
2800000000.0 0.2210361969331917 -0.2065566733300567
2820000000.0 -0.006754077543681737 0.29185115829293956
2840000000.0 -0.2381398005185358 -0.1603203171557874
2860000000.0 0.058024037908657525 -0.282133315905756
2880000000.0 0.29047997473204995 -0.013995276926543286
2900000000.0 0.04727661946948589 0.2890283577132863
2920000000.0 -0.18057901334001644 -0.23459118441809557
2940000000.0 0.11198972514662271 0.27578196953221645
2960000000.0 0.2676690040220475 -0.12604024930840813
2980000000.0 0.2839079886970467 -0.07827810419443078
3000000000.0 0.1771945972236525 0.23118651398236484
3020000000.0 -0.2848502979918472 -0.05058791048329488
3040000000.0 0.26852724529536615 0.10172457549722462
3060000000.0 -0.1781397959254387 -0.22768737671551176
3080000000.0 0.14303225152829138 0.2520698882907312
3100000000.0 -0.09339109836969535 -0.2754801350848355
3120000000.0 0.2685865129065447 0.1109776779766426
3140000000.0 -0.1905185822083228 0.21212563211365318
3160000000.0 -0.201246958913806 -0.18387109414764585
3180000000.0 0.21411908106220184 0.14313887608601017
3200000000.0 0.14127300478267046 0.18676381181539767
3220000000.0 0.055714042977032335 0.1950538212066542
3240000000.0 -0.12802099711885875 0.1095520040428251
3260000000.0 -0.0660180723155479 -0.11091945870118142
3280000000.0 -0.08803560168838423 -0.029947417035755094
3300000000.0 -0.011936727872658722 0.06058226931620798
3320000000.0 -0.0242949412334971 0.03250371843906413
3340000000.0 0.01920572992225091 -0.022817466738142413
3360000000.0 -0.02100490568346071 0.0094489859962329
3380000000.0 0.01305806759401863 0.004178756005078975
3400000000.0 -0.005535622583960314 4.0687193226513795e-05
3420000000.0 0.01977963278844699 0.004733446567055694
3440000000.0 0.005708421293986608 -0.03846679224585628
3460000000.0 -0.04306640077715089 0.03621139311346464
3480000000.0 -0.06914845656129143 0.022556817503153352
3500000000.0 -0.04959563031420816 0.07123095196810243
3520000000.0 -0.05725188413063785 -0.07880645814817047
3540000000.0 0.10683549090303585 -0.0024842681632744525
3560000000.0 -0.09666037430144547 -0.06159796746191094
3580000000.0 -0.12253899512234558 0.016562100620664107
3600000000.0 0.09110032184171717 0.10461993510912335
3620000000.0 -0.11500855980852513 -0.09921535791656592
3640000000.0 0.16842606355035697 0.0017731983542400285
3660000000.0 0.10769974131387984 0.15089666852383615
3680000000.0 0.11549386283245652 0.1576456307435207
3700000000.0 0.19783101897886213 0.03054398695538264
3720000000.0 0.1698799818303693 -0.11033531133627729
3740000000.0 -0.005353312389090086 -0.19553448022493253
3760000000.0 0.1749618061989213 0.061078709369064954
3780000000.0 -0.1459174728749368 0.08414768606622738
3800000000.0 -0.08993115554169807 0.12527879198326763
3820000000.0 -0.06074653069147601 -0.1292538797612913
3840000000.0 -0.06917603200444032 0.12015949660015418
3860000000.0 0.14343879640327875 -0.03659343944426155
3880000000.0 0.07929457096460818 -0.1414000348612554
3900000000.0 0.06152040650942707 0.16414775648952262
3920000000.0 0.04899027990734414 0.17252762509157393
3940000000.0 0.11166969811245539 0.14083179477130442
3960000000.0 0.05762083115956752 0.16603961740663398
3980000000.0 -0.047540188651193596 0.16198871856177438
4000000000.0 0.012537997799867267 0.1547312511883911
