!Created with skrf (http://scikit-rf.org).
# Hz S RI R 50.0 
!freq ReS11 ImS11
400000000.0 -0.4583707215054673 0.7454060263569386
420000000.0 0.6231625993041886 0.6167182837576821
440000000.0 0.17175548456549974 -0.832801106731481
460000000.0 -0.7745654295544772 0.20819257860345075
480000000.0 -0.7103813073727356 -0.07026808268988761
500000000.0 -0.18633767571844964 0.5289244691041395
520000000.0 0.4393626606586206 0.18453006977422579
540000000.0 -0.36274244212102363 -0.12219404618507008
560000000.0 -0.21980279512850862 0.24970921621175227
580000000.0 0.18789709202091834 0.24845271318938553
600000000.0 0.2011407853206566 -0.2512160270067989
620000000.0 0.20984071848353633 0.2527806060205418
640000000.0 -0.06363733375890138 0.34402673242239296
660000000.0 -0.18837169113235788 0.3218533340241873
680000000.0 -0.17188377845311986 -0.3655543795408545
700000000.0 -0.4089417579447297 -0.09648268881992222
720000000.0 -0.23500118420031468 0.36750836166503803
740000000.0 -0.43379071801105 0.07022371118460323
760000000.0 0.41322814817393794 0.112538588335761
780000000.0 -0.024461712064529326 0.3989930378148216
800000000.0 -0.3464390046243759 -0.11966307723957996
820000000.0 -0.30231705509377693 -0.07840758477867414
840000000.0 0.16430223513790812 -0.19988082515112948
860000000.0 0.20074731998696177 -0.05431676423896731
880000000.0 -0.15246849672260895 -0.03727706751340688
900000000.0 -0.08888591261515587 0.03423917073779917
920000000.0 0.05139479449443389 0.019344587066705523
940000000.0 -0.024036522085475114 0.02728690013335899
960000000.0 0.03150869559568442 -0.03539106770200956
980000000.0 -0.014437627780779857 0.05992776669194304
1000000000.0 -0.06961975235221544 -0.03547826967656499
1020000000.0 -0.056589876387269505 0.07905425982215966
1040000000.0 0.0827823473423799 -0.07492607826673983
1060000000.0 0.08476060971781717 0.12282781782909752
1080000000.0 -0.022411424883460235 0.16370207793921457
1100000000.0 0.18094055540307924 -0.025730855706911422
1120000000.0 -0.0524706512170918 -0.19062115914204106
1140000000.0 0.16961201341809423 -0.1516502650718093
1160000000.0 0.25970846371796646 -0.02051965083936847
1180000000.0 -0.06541102682210463 0.29393262951573285
1200000000.0 -0.3348885029096359 -0.006973879761321345
1220000000.0 0.2250314639133069 -0.2949902493319209
1240000000.0 -0.2250573958971911 0.32775180499505535
1260000000.0 0.21434067645096605 -0.36766834874153104
1280000000.0 -0.4363514079369291 0.0561207372201405
1300000000.0 0.45077257802856874 0.003440654312089329
1320000000.0 0.2258759856888465 -0.3887525312541846
1340000000.0 -0.1173552161596308 -0.427173852709485
1360000000.0 0.14704821086532205 -0.41585099226355304
1380000000.0 -0.13130470304691857 -0.41672589259991893
1400000000.0 -0.3780242815249129 0.20349417215667184
1420000000.0 0.31400313407703534 0.26271943118339935
1440000000.0 0.047781502209123326 -0.3773036687021261
1460000000.0 -0.33853978531105716 -0.06433986792090463
1480000000.0 -0.21517980518793786 0.21868307158312522
1500000000.0 -0.2532793716560471 0.10021409700115023
1520000000.0 -0.20534613286927422 -0.12936565868967315
1540000000.0 -0.04333515145956527 0.21437468201340815
1560000000.0 0.0963273576603548 -0.16629770675197655
1580000000.0 0.038005593440595294 0.16937860078372968
1600000000.0 0.1449178349035877 -0.007040817834611593
1620000000.0 0.06647634153755473 -0.10288134901842486
1640000000.0 0.07652915236131046 -0.06355960743314326
1660000000.0 0.03211471873872087 -0.07172278423929551
1680000000.0 -0.04780716990678373 0.03352589638211459
1700000000.0 -0.0236952574479423 -0.03251643331188779
1720000000.0 -0.005840637246301071 -0.020116678797912752
1740000000.0 0.010748840262518862 0.009072755258171618
1760000000.0 0.01006428239610991 0.03364781252730537
1780000000.0 -0.017915986805307413 0.06709828932377285
1800000000.0 -0.05068982982987002 -0.09334181787217444
1820000000.0 -0.02590867786206998 -0.14466168244856342
1840000000.0 -0.11973214532790326 -0.14308621254859216
1860000000.0 0.15744225525274289 -0.15611157877044723
1880000000.0 -0.012398883585686108 0.25637125507700764
1900000000.0 -0.06707257720537524 -0.2859416304419028
1920000000.0 0.028664283513917425 0.32024350379892863
1940000000.0 0.3250533495120175 -0.12198725819493149
1960000000.0 0.010563168351337252 -0.36871073204619537
1980000000.0 -0.3612431947915983 -0.13620696354246323
2000000000.0 -0.39593567185194767 -0.08081293016961154
2020000000.0 -0.3576982903252885 0.21838146189996213
2040000000.0 -0.22950900048220246 0.36391976364009326
2060000000.0 0.30518784287961337 0.30987161602312685
2080000000.0 0.4195108544941584 -0.12282435421547944
2100000000.0 0.164838588771025 -0.40153134288346026
2120000000.0 -0.2966397850715205 -0.30578052730273814
2140000000.0 -0.4097267148878523 0.0738013988950271
2160000000.0 -0.39402659894734876 -0.07320001580909974
2180000000.0 -0.3285959586918559 0.19936721037867192
2200000000.0 0.11306745154587577 0.35490828374172834
2220000000.0 0.3117228776552088 0.17402997593949093
2240000000.0 0.3378469180824804 -0.10150269650093578
2260000000.0 0.2259429772729006 -0.2702691843612572
2280000000.0 0.0931750000729496 -0.34625015971961093
2300000000.0 -0.36918118795411287 -0.058722513305004775
2320000000.0 -0.05789929397781984 0.39376388934538115
2340000000.0 0.3976400714977431 -0.16578563098567026
2360000000.0 -0.46203333145208864 -0.09602190315426253
2380000000.0 0.5060892128345992 0.11755362521902636
2400000000.0 -0.5663204574595132 0.05300480323541222
2420000000.0 0.423543756464851 -0.44734226545264105
2440000000.0 -0.07449764542803496 0.6536730543134396
2460000000.0 -0.3780587001659091 -0.5796506757338414
2480000000.0 0.5660009358040818 0.4395435882466285
2500000000.0 -0.4907696934097706 -0.5424448749374275
2520000000.0 0.1897344455232154 0.7130023992026653
2540000000.0 0.3422467779020108 -0.651181061118656
2560000000.0 -0.7167264722849181 0.11880220898215357
2580000000.0 0.3203979650858649 0.6321836364306023
2600000000.0 0.40542669068696807 -0.5498269924977653
2620000000.0 -0.635330874607416 -0.14008785692088108
2640000000.0 -0.6140334149657783 -0.0007506215624595278
2660000000.0 0.2759352841619348 0.49770605281592256
2680000000.0 0.25499523644904876 -0.45574104263964665
2700000000.0 -0.47425239402010205 -0.023462441501098903
2720000000.0 0.2221010850977519 0.3642614097554671
2740000000.0 0.2994422111622957 -0.2378731252375026
2760000000.0 -0.28957616083850213 -0.18773194247748046
2780000000.0 -0.021348398386000007 0.3173895691519373
2800000000.0 0.17788768559017612 -0.24042984671056894
2820000000.0 0.06695127767357256 0.2808628269346962
2840000000.0 -0.26893451805391405 -0.09376086424621184
2860000000.0 -0.003906907131305973 -0.2864856088818572
2880000000.0 0.2777709879154136 -0.08233898514466675
2900000000.0 0.10662999139101656 0.27267846181063254
2920000000.0 -0.18384848097744394 -0.2331701574335479
2940000000.0 0.1042104505513829 0.27983192685196984
2960000000.0 0.28093058234358315 -0.09464928864190562
2980000000.0 0.29322268735680346 -0.042515823780029126
3000000000.0 0.16700360447596127 0.24039920130895287
3020000000.0 -0.2835139547430005 -0.059872309338119475
3040000000.0 0.25607852080624305 0.13007431451695312
3060000000.0 -0.11579670422490335 -0.26441860198442824
3080000000.0 0.07695847071385294 0.2785048771201426
3100000000.0 -0.02588506965790673 -0.28877262357589717
3120000000.0 0.1888764142328649 0.21908387028249582
3140000000.0 -0.2635463870856812 0.10642396031940321
3160000000.0 -0.09562140276515033 -0.2546407772353273
3180000000.0 0.14045319478743884 0.21532634475128765
3200000000.0 0.028721356577155153 0.2315245684169067
3220000000.0 -0.03815681626214005 0.19879095689763568
3240000000.0 -0.14218966041785872 0.0893674612660477
3260000000.0 -0.056409124467682335 -0.11545286174583409
3280000000.0 -0.09155443977334676 0.0018578626967694582
3300000000.0 0.023011419233183398 0.055662247289742915
3320000000.0 -0.03430739701432151 0.018359925454326034
3340000000.0 -0.009828363743806029 0.026639796379442256
3360000000.0 0.02145706081338106 0.007018660944526934
3380000000.0 -0.003751906600422546 -0.014202235024883377
3400000000.0 -0.0012620385736607156 -0.006610829768472837
3420000000.0 -0.010346224891928407 -0.016460815782147836
3440000000.0 0.009180904276137297 -0.036722752901021984
3460000000.0 -0.05464858406130611 -0.006885544262940911
3480000000.0 -0.04198949335582128 -0.05893392176892225
3500000000.0 -0.06629302133470787 0.05603264603126145
3520000000.0 -0.05111946575141822 -0.08383266419398072
3540000000.0 0.10330789086057456 -0.03309203537619356
3560000000.0 -0.11058675349110807 -0.03335386491084555
3580000000.0 -0.07662315705263688 0.09705341042261796
3600000000.0 0.11985847197991165 0.07068557074999107
3620000000.0 -0.14432501709408102 -0.04818056959310236
3640000000.0 0.16124774946085557 -0.0490260739164704
3660000000.0 0.11651904742129977 0.1427584194152766
3680000000.0 0.11280540762696105 0.159401811558725
3700000000.0 0.19465901176349865 0.04430368300258862
3720000000.0 0.18075365538931312 -0.09146237681763204
3740000000.0 0.007095956713184854 -0.1955528237542129
3760000000.0 0.17583813019534764 0.061685598749838436
3780000000.0 -0.13364955461761124 0.1039786633621133
3800000000.0 -0.05815197482453775 0.14323421253112945
3820000000.0 -0.11521596591713311 -0.08630581773581217
3840000000.0 0.001959206455110556 0.13862717118436294
3860000000.0 0.1441793584531522 -0.03226841245998324
3880000000.0 0.06583286503992174 -0.14789977723254835
3900000000.0 0.05610882577270994 0.16709293669675915
3920000000.0 0.0067125470695374445 0.18127067022439097
3940000000.0 0.04690455166335241 0.1747730487065617
3960000000.0 0.0005242839210867247 0.17741102911870385
3980000000.0 -0.10794878489601537 0.13251099276295605
4000000000.0 -0.08317079746661887 0.13252853306410498
