!Created with skrf (http://scikit-rf.org).
# Hz S RI R 50.0 
!freq ReS11 ImS11
400000000.0 -0.4757303804834762 0.7330298960228351
420000000.0 0.60294807963259 0.6372771961171347
440000000.0 0.23346584880924193 -0.8183431511586767
460000000.0 -0.7846835638106007 0.1687908095753496
480000000.0 -0.7112503840832013 -0.05284325751961784
500000000.0 -0.22164909988367046 0.5152300576163555
520000000.0 0.43658391524927564 0.19105693386440428
540000000.0 -0.36117202393530656 -0.12874910798972902
560000000.0 -0.2359087265273342 0.23501589659502287
580000000.0 0.15354120024422635 0.2705177024106749
600000000.0 0.2065470882970059 -0.24708104956430194
620000000.0 0.17680808822958502 0.27674063588089093
640000000.0 -0.1278243732781884 0.325851761887837
660000000.0 -0.1521199313269767 0.34009756310821504
680000000.0 -0.1634549601938315 -0.3701551133290142
700000000.0 -0.4130305844648475 -0.08022470246929374
720000000.0 -0.20283614991817697 0.38706787962253925
740000000.0 -0.43119296601722845 0.0848974643848349
760000000.0 0.41453010627574866 0.10917378060439928
780000000.0 0.031148048403875053 0.39795340325729484
800000000.0 -0.3487942632457753 -0.1134950284724246
820000000.0 -0.30395298257386916 -0.07063608092926202
840000000.0 0.21827566743086438 -0.13765849403571756
860000000.0 0.20483252843860633 0.030199309452953033
880000000.0 -0.12758475475774125 -0.0881690767867722
900000000.0 -0.09194411424895108 -0.021390146710311805
920000000.0 0.04215874479281645 0.034578926031821916
940000000.0 -0.008676421692100738 0.03519272769021075
960000000.0 0.046396710031903446 -0.0004615038906384077
980000000.0 -0.014209766136815119 0.05990588097385167
1000000000.0 -0.06282393637562853 -0.04626968260290893
1020000000.0 -0.09427391359600229 0.02582300911738073
1040000000.0 0.09202199379829346 -0.06348235250246227
1060000000.0 0.04415658182565462 0.14171035257456768
1080000000.0 -0.062222763430252535 0.15224804576722642
1100000000.0 0.18121466121781812 -0.013474318598163552
1120000000.0 -0.017844336449583813 -0.19569659891933505
1140000000.0 0.18969111262743654 -0.12456452970219432
1160000000.0 0.2595058950870843 0.014950855146771719
1180000000.0 -0.05926440654423786 0.295686553073486
1200000000.0 -0.3345748565189944 0.01499506804878242
1220000000.0 0.21948926422176557 -0.29856311838264477
1240000000.0 -0.19621663618240115 0.34621682338591475
1260000000.0 0.19738586428675206 -0.3771862016079721
1280000000.0 -0.43432917539972415 0.07190104457458804
1300000000.0 0.45071619933632434 -0.020213048678476966
1320000000.0 0.23082344652372377 -0.3858125660295422
1340000000.0 -0.10562792856816981 -0.43044339006137633
1360000000.0 0.1589328646455735 -0.41149200211591536
1380000000.0 -0.11801665313337352 -0.42096854927912125
1400000000.0 -0.3810010272658253 0.19812786633227533
1420000000.0 0.29782735188525644 0.28059546403140057
1440000000.0 0.09260162890157914 -0.3687028688658655
1460000000.0 -0.3300922787418249 -0.09767690047355583
1480000000.0 -0.25443878814130383 0.17124435205406074
1500000000.0 -0.2523433878230848 0.10186968547868878
1520000000.0 -0.20165283116045504 -0.13424569940311326
1540000000.0 -0.07539022989279107 0.2057616063518572
1560000000.0 0.07417627700425018 -0.17758414914218187
1580000000.0 0.04014950474609858 0.16906098104402464
1600000000.0 0.14123222411097464 0.033199526590769655
1620000000.0 0.06171938098255981 -0.10543381189590502
1640000000.0 0.04009864309132578 -0.09077655880303538
1660000000.0 -0.027235842743139088 -0.07378692896571208
1680000000.0 -0.003936067179484587 0.05829530200552911
1700000000.0 -0.040095900261373094 -0.006866376701771754
1720000000.0 -0.019709587780833194 -0.007024548575339878
1740000000.0 0.014118508270300175 0.0022663667753387694
1760000000.0 -0.006215457868403223 0.034567606400085785
1780000000.0 -0.02669724622745032 0.06414411277620202
1800000000.0 -0.07321216311860375 -0.07774223249255661
1820000000.0 -0.04887701976339925 -0.13838905787800238
1840000000.0 -0.1281999553905623 -0.13562487330963202
1860000000.0 0.15142684603318923 -0.16141380349132248
1880000000.0 -0.017412933697013275 0.2556340449043464
1900000000.0 -0.08141035695484106 -0.28140390664898296
1920000000.0 0.03543242403040853 0.3187784799975968
1940000000.0 0.3208751786435122 -0.13111110778213753
1960000000.0 0.005253371997908395 -0.36860297576513706
1980000000.0 -0.3476234113630877 -0.16724434569034843
2000000000.0 -0.3826296544208315 -0.12888147538003064
2020000000.0 -0.3866164462272135 0.16222486367680541
2040000000.0 -0.22715830967655737 0.36567439952791747
2060000000.0 0.2996741114116628 0.31575879572030285
2080000000.0 0.4261858833079607 -0.1014148434854016
2100000000.0 0.17381538698038607 -0.39827449583081675
2120000000.0 -0.3082355091392198 -0.29406362650460494
2140000000.0 -0.4085959598297167 0.07960464144388382
2160000000.0 -0.3890999129917381 -0.09429427445847416
2180000000.0 -0.3421589944287084 0.1746894801753106
2200000000.0 0.08244177318096094 0.3629348616687617
2220000000.0 0.31124548537721064 0.17472759421852593
2240000000.0 0.3502294650391872 -0.04922212299689297
2260000000.0 0.2737695908461879 -0.22145720699672872
2280000000.0 0.1668513953949199 -0.3174652053321037
2300000000.0 -0.34107353779688654 -0.15343504099306202
2320000000.0 -0.12674510563635838 0.37755678702272494
2340000000.0 0.42234578589985017 -0.08858134951883034
2360000000.0 -0.4345001597063903 -0.18548688331351282
2380000000.0 0.46949919457841277 0.22322036983474086
2400000000.0 -0.5636267998994294 -0.07658817456610595
2420000000.0 0.4911381062221494 -0.37200646742641197
2440000000.0 -0.17844917361681886 0.6334846942878058
2460000000.0 -0.23852296293698141 -0.6495851756338614
2480000000.0 0.48407522760288624 0.5281443303509213
2500000000.0 -0.3468107039382477 -0.6438604692079394
2520000000.0 0.07814297121427641 0.7333947355347525
2540000000.0 0.3674018462374436 -0.6367624833847563
2560000000.0 -0.7248801593064641 0.04992694096531347
2580000000.0 0.35653357705143984 0.6133794997322644
2600000000.0 0.3993474366461555 -0.5558895835880824
2620000000.0 -0.6242962867384386 -0.19199698148165756
2640000000.0 -0.6160582600766562 0.02614564528287926
2660000000.0 0.3209648575838329 0.4742988988265009
2680000000.0 0.23482622858248967 -0.4712100511559504
2700000000.0 -0.47879562109978363 -0.0011081917099270316
2720000000.0 0.2325302856404199 0.3624859091819027
2740000000.0 0.3289884103712513 -0.20198388466337203
2760000000.0 -0.2637730373078414 -0.2276188020213902
2780000000.0 -0.0954273973099848 0.3070785299469513
2800000000.0 0.23110492398985838 -0.19371904847236307
2820000000.0 -0.027207540998688332 0.289428065735175
2840000000.0 -0.2333682559160774 -0.1658432089776166
2860000000.0 0.05796639964559938 -0.2807714505066162
2880000000.0 0.28710509575012694 -0.03914017580546968
2900000000.0 0.08209655237038907 0.2804384608978097
2920000000.0 -0.17676595014320573 -0.23751086042562217
2940000000.0 0.1486021851204822 0.25786308800066504
2960000000.0 0.2594342990205389 -0.14216501062620907
2980000000.0 0.28908912474566056 -0.05768995534697145
3000000000.0 0.19089011734455796 0.22005655078112746
3020000000.0 -0.28860975902106917 -0.014884291508215264
3040000000.0 0.2754448970143654 0.08074407850851995
3060000000.0 -0.17692065692888398 -0.22910809500907525
3080000000.0 0.1327298032047181 0.2575001017413665
3100000000.0 -0.08981855399458077 -0.2763430135273417
3120000000.0 0.25294536451077104 0.14253323672389837
3140000000.0 -0.21519641190968203 0.18685915184533872
3160000000.0 -0.16845112505975895 -0.21423186468577787
3180000000.0 0.18605890479462853 0.177403889916208
3200000000.0 0.11623089906588933 0.20251149076792407
3220000000.0 0.04714327486159361 0.19697896591882502
3240000000.0 -0.10691475892334217 0.12976665254928443
3260000000.0 -0.09295714512274948 -0.08848751355534222
3280000000.0 -0.08864877564469277 0.0253313969855427
3300000000.0 0.046488036592429165 0.03972445180877863
3320000000.0 0.02019609661481625 0.03438520287074991
3340000000.0 -0.01264142415698574 -0.02633145397384746
3360000000.0 0.0015627857261739364 0.023009481035428304
3380000000.0 0.013909316709630018 0.0013475423666827067
3400000000.0 -0.004185651819379196 -0.002567531879951241
3420000000.0 0.007577811690874783 0.017196905190130708
3440000000.0 0.033160764397851886 -0.018280261307317438
3460000000.0 -0.05367742280739064 -0.013096252579830391
3480000000.0 -0.07130209547663713 -0.010623348392549034
3500000000.0 -0.027241169155458572 0.08252863930324078
3520000000.0 -0.08460467250263626 -0.04842073355516302
3540000000.0 0.10592688378332936 -0.012868526872539901
3560000000.0 -0.11535976731761848 -0.007057471079904044
3580000000.0 -0.06042355845117152 0.1090131240091747
3600000000.0 0.13068303249384172 0.04906131377376277
3620000000.0 -0.15265687266226294 -0.010707120194088047
3640000000.0 0.1611458531783402 -0.051672076266991135
3660000000.0 0.1329577746415989 0.12839889215683123
3680000000.0 0.14614913786702183 0.12925039054374307
3700000000.0 0.2000606656053385 -0.0027312909967741558
3720000000.0 0.15993762741229228 -0.12404149948810278
3740000000.0 -0.04642856666809793 -0.1895730534735909
3760000000.0 0.18438907704968427 0.02550598889952489
3780000000.0 -0.10947920314548827 0.12911930511461384
3800000000.0 -0.03681566041502617 0.14983344498979428
3820000000.0 -0.091666229058603 -0.11043482221228718
3840000000.0 -0.005340916738212527 0.13887258064424604
3860000000.0 0.1229434735508393 -0.08260690101088329
3880000000.0 0.06363521932218982 -0.14965927114350544
3900000000.0 0.08249986658167953 0.15604196831406691
3920000000.0 0.05024685664756825 0.17397205916567318
3940000000.0 0.07292248521581131 0.1658191985591323
3960000000.0 -0.012987416145354277 0.1782001063397194
3980000000.0 -0.14360758478878613 0.09329118559654175
4000000000.0 -0.1374336042967879 0.07557997120907962
