!Created with skrf (http://scikit-rf.org).
# Hz S RI R 50.0 
!freq ReS11 ImS11
400000000.0 -0.4753980942955018 0.7340460584121498
420000000.0 0.6359093406794998 0.6041354111011586
440000000.0 0.186395385465359 -0.8298721712045877
460000000.0 -0.7833306274392555 0.17022379252111372
480000000.0 -0.7064545107216142 -0.10075114179023408
500000000.0 -0.19158769840727177 0.5275007119529997
520000000.0 0.44382542183011814 0.17227090325198546
540000000.0 -0.35272878516203926 -0.14850352052879734
560000000.0 -0.24684119336698565 0.22366666520668618
580000000.0 0.18897545579429867 0.24795692148590426
600000000.0 0.18543350500918093 -0.26244924150269294
620000000.0 0.1592030779352157 0.2876179431468013
640000000.0 -0.1113427262475613 0.33226918264302036
660000000.0 -0.17855422507569893 0.3272238390760498
680000000.0 -0.16240357289424046 -0.37040373950460975
700000000.0 -0.41471894151330185 -0.07000639026168595
720000000.0 -0.22985258468385542 0.3711100273005393
740000000.0 -0.4362927987974062 0.06071257444605664
760000000.0 0.4118940746488164 0.11794975822185604
780000000.0 0.020242313460372162 0.3985115898589215
800000000.0 -0.34769705451627175 -0.11705794806510789
820000000.0 -0.3080728371954276 -0.04984637905867395
840000000.0 0.2086790992165682 -0.1520761796427376
860000000.0 0.20687833637695183 0.013256440950085593
880000000.0 -0.13157236195351357 -0.08216809795703339
900000000.0 -0.09384500677746094 0.007157972453745917
920000000.0 0.05406698837647888 0.0038624746279033117
940000000.0 0.013242848781231454 0.03400967057401338
960000000.0 0.045575261715282527 -0.009710282402496176
980000000.0 -0.00264752590984897 0.06181881866645095
1000000000.0 -0.063923562452692 -0.04470881658037625
1020000000.0 -0.09075987958330936 0.03661588610377767
1040000000.0 0.08372022727381538 -0.07441649431376778
1060000000.0 0.05136051365103423 0.1395258318327107
1080000000.0 -0.04841186218048673 0.15743398062210823
1100000000.0 0.17920869224165972 -0.031614480993845895
1120000000.0 -0.03828680394048873 -0.19304236570839597
1140000000.0 0.17286042738063723 -0.14762050598128193
1160000000.0 0.2592497197718472 0.020097072260054003
1180000000.0 -0.07080912862462102 0.29297834010542223
1200000000.0 -0.3348641569391875 0.0011133697537800084
1220000000.0 0.23135757795777087 -0.28949083841236906
1240000000.0 -0.2219488380241127 0.3300945941807446
1260000000.0 0.22359330287328313 -0.3620757604713955
1280000000.0 -0.4356304740968134 0.06323291681500479
1300000000.0 0.4509625149011528 0.005355101970548818
1320000000.0 0.22444934988582727 -0.38976957348314567
1340000000.0 -0.10757917516318977 -0.4300089211762743
1360000000.0 0.16238956639966107 -0.4102011976244394
1380000000.0 -0.12043245060343008 -0.42022965603158424
1400000000.0 -0.3736576308840064 0.2112560489942276
1420000000.0 0.3013448688694822 0.27659265111868236
1440000000.0 0.09201943602787126 -0.36911702907034294
1460000000.0 -0.3325776235285726 -0.08942137379360113
1480000000.0 -0.2140382103315168 0.2196737138101812
1500000000.0 -0.2561303463503451 0.09202594843216554
1520000000.0 -0.19144751615080574 -0.14947129464015474
1540000000.0 -0.05272028211153306 0.2127187904274607
1560000000.0 0.07795987851694511 -0.17598230217262792
1580000000.0 -0.005765692361081984 0.17394190553560118
1600000000.0 0.14461923121585069 0.011190063565697891
1620000000.0 0.04963516106642958 -0.11180305308100573
1640000000.0 0.056730783338651815 -0.08157324648987797
1660000000.0 0.006715520220176911 -0.07818878349597722
1680000000.0 -0.028220102806271418 0.051125090923036944
1700000000.0 -0.03067626108233082 -0.025855632979296758
1720000000.0 -0.0188259638302992 0.008578249853500633
1740000000.0 0.012812349626336877 -0.0068336937138018415
1760000000.0 -0.005012127278087739 0.035089777976283064
1780000000.0 -0.04729393981750153 0.05099573889365212
1800000000.0 -0.038451390551416234 -0.09922918507349414
1820000000.0 -0.01761218879710211 -0.14540903540058686
1840000000.0 -0.11174956626765363 -0.14926463679120236
1860000000.0 0.1645785852991726 -0.14755814908333587
1880000000.0 -0.020911228582056837 0.2552884185636738
1900000000.0 -0.074954317124855 -0.2829620352434539
1920000000.0 0.04678710796725713 0.31728238596032077
1940000000.0 0.31630915495907597 -0.1419866067997879
1960000000.0 -0.014454548278028303 -0.36851634966828317
1980000000.0 -0.36253888135345025 -0.13208861082595347
2000000000.0 -0.39321830354752924 -0.09294789515472256
2020000000.0 -0.3692462257725733 0.19913554458160265
2040000000.0 -0.21885562727888597 0.37122058012189907
2060000000.0 0.29896924654656076 0.31725657466242835
2080000000.0 0.42848464387087337 -0.09338296438552013
2100000000.0 0.17535516239494028 -0.3982192564590143
2120000000.0 -0.2895214270425341 -0.313522871655886
2140000000.0 -0.41441611062179023 0.046764504587640476
2160000000.0 -0.38453689983092726 -0.11385608961687962
2180000000.0 -0.354920071255396 0.14850704316187138
2200000000.0 0.0546705805670414 0.3685492341056821
2220000000.0 0.29963233926138716 0.19486388783493536
2240000000.0 0.3516046324166077 -0.03546109490402806
2260000000.0 0.2712292862821079 -0.2247268397025022
2280000000.0 0.16260655710829586 -0.3196646691473055
2300000000.0 -0.3484144923693993 -0.1362396428875404
2320000000.0 -0.12641785169511174 0.37747412180634454
2340000000.0 0.4157561983787837 -0.11591551132940121
2360000000.0 -0.44615850450563777 -0.15607366948373683
2380000000.0 0.4913649222897763 0.170826778989031
2400000000.0 -0.5677282168358561 -0.03814710040628562
2420000000.0 0.4727108737398397 -0.3957320737411876
2440000000.0 -0.13240149512079782 0.6449295101636565
2460000000.0 -0.3052926352181937 -0.6211223839506421
2480000000.0 0.5164304302650339 0.49695631415004543
2500000000.0 -0.44566351823050404 -0.5797382183105907
2520000000.0 0.16386567956380907 0.7192598927642463
2540000000.0 0.33012299557544034 -0.6570559445053914
2560000000.0 -0.7221293252770228 0.08050740790258659
2580000000.0 0.31538416406609654 0.635536261311407
2600000000.0 0.3922634138685282 -0.5603519798151153
2620000000.0 -0.6426897522190164 -0.11366399636654388
2640000000.0 -0.6161814614068513 0.00041373518068655397
2660000000.0 0.2971673131587038 0.4884944024039701
2680000000.0 0.2457929664133417 -0.46473977938443445
2700000000.0 -0.47772250710038827 -0.011758071194825716
2720000000.0 0.20861115788067508 0.37555233119778203
2740000000.0 0.31745044324883404 -0.21820869231995088
2760000000.0 -0.2534691376240798 -0.23736802027850226
2780000000.0 -0.09207995144948841 0.30687990681459126
2800000000.0 0.2241206325533417 -0.20032784945928198
2820000000.0 0.003609789348260032 0.29005266715759237
2840000000.0 -0.24377517172302607 -0.1490148522054593
2860000000.0 0.04341951776692674 -0.2832682020523022
2880000000.0 0.2843108725081688 -0.05646452052650253
2900000000.0 0.1062090776570041 0.27211915896866345
2920000000.0 -0.1644848367921472 -0.2466422021436789
2940000000.0 0.14030871924001062 0.2630514117241593
2960000000.0 0.2595939079673217 -0.14350859052631199
2980000000.0 0.28840163754820863 -0.06493263401805349
3000000000.0 0.17774657656859458 0.23164733956704495
3020000000.0 -0.28944425767127785 -0.009817792685382564
3040000000.0 0.2622445254846908 0.11810136409815358
3060000000.0 -0.1454905371013794 -0.2504434318248751
3080000000.0 0.09971938898019651 0.27189121608573746
3100000000.0 -0.018327987664746484 -0.28989360751290716
3120000000.0 0.2267776878721841 0.1813486445332441
3140000000.0 -0.23648141567284814 0.15865941304619774
3160000000.0 -0.13382354254319528 -0.23703113893860844
3180000000.0 0.15921963162920927 0.2018194156112848
3200000000.0 0.08490968539327412 0.2169701095167761
3220000000.0 0.025354810561044817 0.2001267987512659
3240000000.0 -0.12326624455634723 0.1133644556816886
3260000000.0 -0.09201013974236431 -0.08854746263564883
3280000000.0 -0.07814262508277187 0.047542386054093146
3300000000.0 0.05587983969287102 0.02230642061330555
3320000000.0 0.026538764232026453 0.028705777877994793
3340000000.0 0.015806381972187703 -0.023794196730628818
3360000000.0 -0.018010954466777886 0.013407441173537081
3380000000.0 -0.012551296348262271 -0.005266838592201134
3400000000.0 0.001869210068117462 -0.00495521640980607
3420000000.0 0.00629812304321587 0.01787961647093829
3440000000.0 0.037690480141312745 -0.005740768791434883
3460000000.0 -0.028666754455413477 -0.0473802995080805
3480000000.0 -0.05207523849460218 -0.04978996718945142
3500000000.0 -0.06523750095294199 0.05731326093493984
3520000000.0 -0.06133635703574032 -0.07611717385123637
3540000000.0 0.10690885255071646 -0.0064637413469156735
3560000000.0 -0.10297454093752542 -0.051342749181444186
3580000000.0 -0.09619816616194439 0.07807860980144614
3600000000.0 0.13045915168703542 0.050702019911230044
3620000000.0 -0.14844822453813136 -0.03503679710423173
3640000000.0 0.16572167462174323 -0.0362440624044517
3660000000.0 0.1085745981843533 0.1491261897671757
3680000000.0 0.11847302399403836 0.15457748596936657
3700000000.0 0.1958196103224612 0.03817797310626524
3720000000.0 0.18073769288368202 -0.09098698483658268
3740000000.0 -0.02976621448250051 -0.19228394965305914
3760000000.0 0.1786084918690829 0.05064807869981704
3780000000.0 -0.11126393064194394 0.12688836312830395
3800000000.0 -0.04246693495451107 0.14782113766214122
3820000000.0 -0.0882537174706691 -0.11284389478168451
3840000000.0 -0.006035592071697774 0.13789821160690358
3860000000.0 0.1324358718067404 -0.06487878592187238
3880000000.0 0.07510402202817287 -0.14334866140893635
3900000000.0 0.0685919673176694 0.16232038736577803
3920000000.0 0.03311076474641577 0.17723053991223026
3940000000.0 0.07205212323818751 0.16552384456240377
3960000000.0 0.012238805186179822 0.17774489264137922
3980000000.0 -0.12208855379377985 0.11913435901807828
4000000000.0 -0.10492760132187058 0.11592905416908074
