! Created with skrf (http://scikit-rf.org).
# Hz S RI R 50.0 
!freq ReS11 ImS11
400000000.0 0.1649690364694213 0.8572574345183815
420000000.0 0.6416476867666461 0.5732472761517438
440000000.0 0.7932457032174576 -0.23283410236347282
460000000.0 0.16049014860187552 -0.7732484400106219
480000000.0 0.5177123611301989 -0.48276725547844573
500000000.0 0.25694686299852804 -0.49964142471507533
520000000.0 0.2394713882437043 -0.4240468124150226
540000000.0 0.42753300887053924 -0.015424977803141315
560000000.0 -0.3183033206379673 -0.1509097239772141
580000000.0 -0.31161857026569806 0.11555198942575615
600000000.0 0.2728835139122356 0.18555446438895123
620000000.0 -0.143122204181127 -0.3191677948164019
640000000.0 -0.3322415647555115 -0.18782355220136676
660000000.0 -0.38922300283413036 0.0862120527847397
680000000.0 0.07840847545882676 -0.420758107012912
700000000.0 0.0803890278597225 0.4422387757444265
720000000.0 0.16065475641599405 -0.423763448764555
740000000.0 0.39272779690033804 -0.20923991986291274
760000000.0 -0.41577525188612546 0.04515193613392768
780000000.0 0.1267509731754798 -0.3609801588882641
800000000.0 -0.008455333548362351 0.348322660469767
820000000.0 0.06636517784883245 0.28336507578246317
840000000.0 0.22675378105538888 -0.05399261447967144
860000000.0 0.0073866901217996515 0.19723719952451255
880000000.0 -0.12509564851147095 -0.05642541343050324
900000000.0 -0.05497460017151699 0.04764758443499545
920000000.0 -0.03280144095025316 0.02496606501470381
940000000.0 0.0343990458153632 0.0072465753386958195
960000000.0 -0.04422858656447452 -0.016750296533592186
980000000.0 0.051431292093101974 -0.01221040011281508
1000000000.0 0.017633387526661548 0.05676281601002924
1020000000.0 0.0715318290504748 0.013684566729747865
1040000000.0 -0.038912055461829076 0.07141538454301351
1060000000.0 0.11711204268103688 -0.028870348020512734
1080000000.0 -0.08087677699021742 -0.11209258551839835
1100000000.0 -0.04515757552699573 -0.1584253253058786
1120000000.0 -0.19466250014921055 -0.02037398865888751
1140000000.0 0.21486632509859102 0.10988618749418748
1160000000.0 0.2184545303890739 -0.1853403139474989
1180000000.0 -0.16365053967128457 -0.28769999634430854
1200000000.0 -0.3326979591692231 -0.1582526673264238
1220000000.0 -0.022815565038711884 -0.39733173172203295
1240000000.0 0.4082043774834686 0.09482943126685651
1260000000.0 -0.43871452293406993 0.032845967755093984
1280000000.0 0.4417811188533279 -0.07771629961445636
1300000000.0 -0.41885353049364443 -0.15814030344760327
1320000000.0 -0.14927053306924107 0.40778115831782874
1340000000.0 -0.3676422896175135 0.2010860186452931
1360000000.0 -0.13790020019186747 -0.38385141230653724
1380000000.0 0.2168940297428053 -0.3452823964460825
1400000000.0 0.15254582975598924 -0.3661541365543296
1420000000.0 0.12455033703196884 -0.3662627815908384
1440000000.0 -0.15639369086329963 -0.33812292809289524
1460000000.0 -0.3536042080915644 0.01013701735754206
1480000000.0 0.11118612645667061 0.3149164628769437
1500000000.0 -0.11525422356135628 -0.2864657890759597
1520000000.0 -0.17977610127757226 0.21944991999740296
1540000000.0 -0.1791263503084268 0.1800209822163181
1560000000.0 0.0797895523394258 0.20037351025298253
1580000000.0 0.172147156906087 0.053935099044972026
1600000000.0 -0.130567969181406 0.06738309378341559
1620000000.0 -0.035004500821707085 -0.09948096400685134
1640000000.0 -0.06667573691392674 0.0410778024550525
1660000000.0 -0.03230815227832557 0.04242023551345339
1680000000.0 -0.023301333506431987 0.0017721999509256459
1700000000.0 0.005400258979499648 -0.012158703805588922
1720000000.0 -0.004530842559224485 -0.031137417485568187
1740000000.0 0.03325278958260451 -0.04180532496939652
1760000000.0 -0.017472038004711945 -0.06688795497458296
1780000000.0 -0.028414540013693854 -0.08320669174053463
1800000000.0 0.11409246835936829 -0.003355951437369395
1820000000.0 0.05826416443049865 -0.11246513158763997
1840000000.0 0.13628335215376702 0.06428160089981
1860000000.0 -0.04253341675403123 0.16804577262831671
1880000000.0 -0.09952282065793451 -0.1835056233380025
1900000000.0 0.11400860978981907 -0.22336103202436666
1920000000.0 -0.2839438106952179 -0.08534984246716845
1940000000.0 0.01762331057425142 0.3428699387185444
1960000000.0 0.11907707038905578 -0.36495104462332684
1980000000.0 -0.05065751740764158 0.409437292885021
2000000000.0 0.2978411842405984 -0.3192686139505842
2020000000.0 -0.38227142465386843 0.24170779965722278
2040000000.0 0.4312419709336972 0.14529264506619077
2060000000.0 -0.1690339271821116 -0.4183666982974592
2080000000.0 -0.3786384330567593 0.21805550522939798
2100000000.0 -0.1974434435888069 0.3706151220150329
2120000000.0 -0.25943025073393766 0.3041449138294485
2140000000.0 -0.37003918404899866 0.09550478909719085
2160000000.0 0.2634395949693728 -0.25456898452753773
2180000000.0 0.35026784860581184 0.06140266256338858
2200000000.0 0.22301028797078717 0.2685780467325542
2220000000.0 0.32188884348630514 0.1448874804285587
2240000000.0 0.0017670173406585737 -0.3532049569389195
2260000000.0 -0.35675785338396937 0.01102680242029938
2280000000.0 0.16347986791536828 0.32068866219171305
2300000000.0 0.2592225782745206 -0.26558272316738446
2320000000.0 -0.380243940347108 -0.08126928857877683
2340000000.0 -0.11990828450242387 0.39741532483872466
2360000000.0 0.449363637401645 0.028141267420595886
2380000000.0 -0.34168381590541436 -0.3613607624446962
2400000000.0 0.18412364293482472 0.5170949522818901
2420000000.0 -0.29555022374795287 -0.5254328043733639
2440000000.0 0.5948790072770426 0.27301738253511637
2460000000.0 -0.6805025924464323 0.15104664667904374
2480000000.0 0.52390942008122 -0.5086116768976958
2500000000.0 -0.4776523865913713 0.5809524788477618
2520000000.0 0.5370771714299802 -0.5424601938244553
2540000000.0 -0.7202303576557624 0.26088723341264647
2560000000.0 0.7032130460519306 0.2908462865095993
2580000000.0 -0.2486734447389805 -0.7039652291093308
2600000000.0 -0.41579361245564694 0.5900964992335355
2620000000.0 0.6911846685974402 0.025502433547126658
2640000000.0 0.6089406172323231 -0.240159130214759
2660000000.0 -0.5080687133867908 -0.34026758302607574
2680000000.0 0.032044916129272405 0.566942523595395
2700000000.0 0.22223106184284291 -0.47464982726629534
2720000000.0 -0.2601824381638506 0.40019850824855896
2740000000.0 0.24651520940298355 -0.35606782837898865
2760000000.0 -0.07552917591928132 0.38326392411130106
2780000000.0 -0.20066403969633426 -0.2933864072648154
2800000000.0 0.3133460647125294 0.08323644047981052
2820000000.0 -0.2879052490712036 0.08995131373866648
2840000000.0 0.2703893545835744 -0.09793495629003822
2860000000.0 -0.26271354672171104 0.10612313874899164
2880000000.0 0.277734138470576 -0.06261123421156878
2900000000.0 -0.2743968780773605 -0.09364858626648719
2920000000.0 0.08195703313408971 0.29068284636066194
2940000000.0 0.11471635096475027 -0.29059437427556095
2960000000.0 -0.3024827510353355 -0.10307607311898485
2980000000.0 -0.284298026183591 0.15934304654093412
3000000000.0 -0.27917558736260606 0.1716565172684837
3020000000.0 -0.32591611027442186 0.0030211984431940384
3040000000.0 0.0315994787879726 -0.318461673854942
3060000000.0 0.2029634329566969 0.23902179923607908
3080000000.0 -0.1661026517728195 -0.2536191800705648
3100000000.0 0.0316574144875322 0.2928152465204374
3120000000.0 0.04900785033181499 -0.28037835740309797
3140000000.0 -0.16333208363899254 0.22015354349041819
3160000000.0 0.25063712436716823 -0.0787917214989954
3180000000.0 -0.05760795873029733 -0.2433141978873914
3200000000.0 0.2179274985212435 0.08115935632004054
3220000000.0 -0.028993298012774577 0.20698650333990432
3240000000.0 -0.1395235735025563 0.11898390611483117
3260000000.0 -0.15107502112117785 0.007211016200701728
3280000000.0 -0.090665697436492 0.07215742292113285
3300000000.0 -0.06044012139613879 0.054506502217449945
3320000000.0 0.04586643501473219 0.009093531859356406
3340000000.0 0.005035127173779639 -0.016338635406206968
3360000000.0 -0.007002664832803938 -0.0059986981491359625
3380000000.0 -0.0068412385513417495 -0.021761743349242788
3400000000.0 -0.024794454990584913 0.018704021702526247
3420000000.0 -0.024731371816945735 -0.02465084123621875
3440000000.0 0.012713869101874196 0.03534540607784305
3460000000.0 0.012352920753477886 0.04221816266363997
3480000000.0 -0.0053745806334444205 0.06029716966718406
3500000000.0 -0.015057889414867404 0.0811891182482442
3520000000.0 -0.02479468169486184 0.1038705832715499
3540000000.0 0.10042217523216208 0.07263904445555955
3560000000.0 0.12217365086569655 0.05706709670572336
3580000000.0 -0.013275283525657348 0.14439665114406688
3600000000.0 -0.1304670663788676 -0.08577773861825494
3620000000.0 0.0909974345638361 -0.13661523449802584
3640000000.0 0.07552297402183267 0.1539800675937072
3660000000.0 -0.16648930758526986 -0.06899781860833216
3680000000.0 0.15210043108811355 -0.10810102734600352
3700000000.0 0.16577515039004878 0.09431997653361789
3720000000.0 0.03956467282875521 0.19055940703167307
3740000000.0 0.07116162454596713 0.1798365075710007
3760000000.0 -0.16716487955266005 0.08731453731688692
3780000000.0 -0.009218354501960511 -0.17852532337085036
3800000000.0 0.05183511823953115 0.15643352923413192
3820000000.0 0.10515821423334688 0.10990897964838224
3840000000.0 -0.11460486108587037 0.08136932551067166
3860000000.0 0.1177820935646734 0.07276314105610547
3880000000.0 -0.1469967001851922 -0.004286691076659642
3900000000.0 -0.12030249632400075 0.10001509772506308
3920000000.0 0.16603759593035772 -0.02374244275420997
3940000000.0 0.05163396458048258 0.1698542021411332
3960000000.0 0.18218546180151904 0.023460772760524287
3980000000.0 -0.1685518213656954 -0.06932816309865414
4000000000.0 -0.10249529437714025 0.13772755794197813
