! Created with skrf (http://scikit-rf.org).
# Hz S RI R 50.0 
!freq ReS11 ImS11
400000000.0 0.2582731181138427 0.8333333458246682
420000000.0 0.667424308316703 0.5403284891008607
440000000.0 0.7787946883664022 -0.26902433483349764
460000000.0 0.21756964537591816 -0.7542327652322559
480000000.0 0.6986108387341268 0.007121173744934346
500000000.0 0.5302158555499661 0.21078644186592888
520000000.0 0.40467963899516785 -0.2926272815810004
540000000.0 0.39974522148526803 0.18361071898102066
560000000.0 -0.34570594631000273 -0.12081728409212082
580000000.0 -0.05454633696130163 0.34165798887108256
600000000.0 0.2725110627185014 -0.21053340235142573
620000000.0 -0.27004089089294553 0.23504374442026155
640000000.0 -0.00973999198400637 0.3840003243354806
660000000.0 0.117124363666282 0.3816024956003661
680000000.0 -0.42349892911783416 -0.049482038722023024
700000000.0 0.4271325669829664 0.12007770984272828
720000000.0 -0.3168934748244481 -0.312510595736083
740000000.0 0.20425040144723533 -0.3829836180552868
760000000.0 -0.3551029381741795 0.20570843388030716
780000000.0 0.0030603542832346557 -0.3703177766928729
800000000.0 -0.18592862172472407 0.27535268531616325
820000000.0 0.01088089594962919 -0.2751595669154171
840000000.0 0.18890472841871125 -0.13400726377615538
860000000.0 0.07421684112398765 0.18789038377449768
880000000.0 0.13169137079090495 0.06501942254593426
900000000.0 -0.035883615890587445 -0.08551083697625571
920000000.0 0.06182173068012511 0.01532181857020865
940000000.0 -0.034283491774938835 -0.026070355843766643
960000000.0 -0.04629291118719332 0.018934073523827883
980000000.0 -0.006276777904236723 0.07116879754002697
1000000000.0 0.08334902688598626 -0.015626785546511802
1020000000.0 0.05768560378165917 -0.0864905403919546
1040000000.0 -0.008423228403384756 0.1101053792816073
1060000000.0 0.03506329045413052 -0.1325522057402205
1080000000.0 -0.0691276651163667 0.12770789916226247
1100000000.0 0.012337172518862984 -0.16440008502576767
1120000000.0 0.19059421761779455 -0.02010023310913814
1140000000.0 0.05679506244042099 -0.22952881976726347
1160000000.0 -0.1371339539166623 -0.2475053287504345
1180000000.0 -0.2929291876718416 0.1464791297317174
1200000000.0 -0.1363671894062097 0.33226624987671327
1220000000.0 -0.31908192179379546 -0.2109543412926853
1240000000.0 0.39101113171435886 0.09509901732613668
1260000000.0 -0.2555154375311166 -0.3375571922139854
1280000000.0 -0.006560726432670774 0.4371456059694866
1300000000.0 0.406991190588171 -0.17991040057590008
1320000000.0 -0.20825538407269273 -0.38783081929298197
1340000000.0 -0.13521116485566542 -0.41192694784955686
1360000000.0 0.05865327429053505 -0.42325751798286715
1380000000.0 -0.10088304443630106 -0.4137150359688184
1400000000.0 -0.37145804012235606 -0.17653711878405273
1420000000.0 -0.30211332726491746 0.25226930749543575
1440000000.0 -0.10117434765728389 0.3575622457245724
1460000000.0 0.252221898935544 0.23959712952822523
1480000000.0 0.25537507497873607 -0.1977268469756129
1500000000.0 -0.2702739265159377 -0.1197706109709781
1520000000.0 -0.08492725557400871 0.255027033279909
1540000000.0 -0.23482912243344312 0.034774717310045646
1560000000.0 -0.17727998601223371 -0.0914979038014908
1580000000.0 -0.0043643315788159534 -0.16809923172202434
1600000000.0 -0.13482942388672142 0.007868654427146602
1620000000.0 -0.07644035892378447 -0.06896578469206019
1640000000.0 0.06823032643728597 0.044840400573198755
1660000000.0 0.05617356075068821 -0.021114869580750244
1680000000.0 -0.0154124359513709 0.03521183500444405
1700000000.0 0.020915952001038057 -0.003728142336211889
1720000000.0 0.004148580821176653 -0.0018228531285728157
1740000000.0 -0.00843099407050051 -0.019565149516330038
1760000000.0 0.015471346170671436 0.040399222007320906
1780000000.0 -0.07518681173414225 -0.0072582580463454996
1800000000.0 0.032555124031593295 0.1058905362885544
1820000000.0 -0.1348946021413664 0.03546346733176725
1840000000.0 0.14261058242859545 -0.0951516586186639
1860000000.0 -0.19834075766039597 0.019245592991017493
1880000000.0 -0.15069987197810508 0.1737031838156689
1900000000.0 0.003415781982393739 0.2670972722792433
1920000000.0 0.30257977291464805 -0.03031112933664544
1940000000.0 0.04137243833745025 -0.33986060428801584
1960000000.0 -0.32470813386036407 0.1896580009191409
1980000000.0 0.3915805672259764 0.09034562176609652
2000000000.0 -0.01986953098860632 -0.4222891161089592
2020000000.0 -0.34909466389719424 0.2590971574913947
2040000000.0 0.2177370223951436 0.38164008853014253
2060000000.0 0.37896322738499194 -0.21809080582059034
2080000000.0 0.06284857048859975 -0.4253271301353309
2100000000.0 -0.04973572733651361 -0.418787123750139
2120000000.0 -0.152466984442667 -0.3824221310534882
2140000000.0 -0.3604804671078014 -0.1745781564304626
2160000000.0 -0.009764974674253272 -0.3859191608473861
2180000000.0 -0.18567610519143382 -0.320554829555695
2200000000.0 -0.28100355274093536 -0.2196744254171906
2220000000.0 -0.3450662715622031 -0.04082927873839156
2240000000.0 -0.28618916547383844 0.19008012643141342
2260000000.0 -0.1355450302852387 0.31519298625389797
2280000000.0 0.0332050489295699 0.3469210741413954
2300000000.0 0.3636165339778045 0.0002035125863943421
2320000000.0 -0.0618106336793202 -0.3836819666741999
2340000000.0 -0.35324641119685213 0.2261385649793318
2360000000.0 0.4509680296222254 0.08235058020549905
2380000000.0 -0.4539658354074984 -0.22029035398926639
2400000000.0 0.4418258612964071 0.33595003466408546
2420000000.0 -0.5698984672647102 -0.20943549389103547
2440000000.0 0.6274555865159892 -0.19389793976070713
2460000000.0 -0.3977873707384554 0.5734951398105149
2480000000.0 0.07395300861788162 -0.7255006976880232
2500000000.0 -0.15198331974185444 0.7351636170275859
2520000000.0 0.26319536761149726 -0.7144040961591209
2540000000.0 -0.5090534478674505 0.5685472745972575
2560000000.0 0.7528630216029887 -0.08504147619046074
2580000000.0 -0.48096654407365813 -0.5655784365216279
2600000000.0 -0.14713323438124742 0.7034949285852482
2620000000.0 0.6373923258450787 -0.258768966871356
2640000000.0 0.40230339638590074 -0.5099091244445371
2660000000.0 -0.6055190364841616 0.006401898908894088
2680000000.0 0.3850947281053977 0.4045574561354147
2700000000.0 -0.01742423037813101 -0.511740381619198
2720000000.0 -0.23973383673850962 0.3978438399886579
2740000000.0 0.36083215631921794 -0.21666726754449542
2760000000.0 -0.36363873150075854 0.11643293435416958
2780000000.0 0.24360685082454098 -0.25297052052891084
2800000000.0 -0.0631328956328768 0.3191783186090621
2820000000.0 -0.2350153823473659 -0.19846376211742836
2840000000.0 0.2845576890079954 -0.08103540062473594
2860000000.0 -0.14923939285252513 0.2512369553549
2880000000.0 -0.08847928131106753 -0.27808145865871764
2900000000.0 0.08762315335954282 0.2815884331267041
2920000000.0 0.19074503684548388 -0.23136360795123145
2940000000.0 -0.28109148566107334 -0.12422086945020042
2960000000.0 -0.262062581853266 0.16515588423620156
2980000000.0 -0.2767057864103841 0.14899509928920518
3000000000.0 -0.310635267937879 -0.06805037416249649
3020000000.0 -0.06852605326180072 -0.3108751704971658
3040000000.0 0.3162700379544177 0.003699050656820714
3060000000.0 -0.2822139830771283 0.13417260497807554
3080000000.0 0.20604948816578728 -0.22604596158759238
3100000000.0 -0.15202438367762752 0.2571825199348694
3120000000.0 0.17134137361550283 -0.23363816092736908
3140000000.0 -0.06094598150117128 0.2738083400173392
3160000000.0 -0.013906259367999019 -0.26502464401104536
3180000000.0 -0.22608591901950228 0.10621014494858046
3200000000.0 -0.046547145088805954 -0.22443497051842823
3220000000.0 0.15757448637811003 -0.12700853701106687
3240000000.0 0.12815107388237706 0.1146265811866956
3260000000.0 -0.13486193821113462 -0.028199781175774236
3280000000.0 0.07667775249660005 -0.07133242559735312
3300000000.0 -0.0743384947660314 -0.009268202032279734
3320000000.0 -0.025969855722451012 0.03864532645401127
3340000000.0 -0.021186958475230475 0.007875120666659106
3360000000.0 0.004425867751535546 -0.0008680510174747896
3380000000.0 -0.008182814086611225 -0.005540108430323528
3400000000.0 -0.021451441980007355 0.005965321555616091
3420000000.0 0.02321374460814205 -0.026674709784396088
3440000000.0 0.001428404063520998 -0.047475348655598854
3460000000.0 -0.012371363089969703 -0.0549560416133642
3480000000.0 0.06826870948219453 -0.0024490719069916764
3500000000.0 -0.021202602032863057 -0.08020078235302847
3520000000.0 -0.04008738537423457 0.08874795418844383
3540000000.0 0.036213857105834225 -0.1055390390065682
3560000000.0 -0.03736222624355841 0.11870599497046778
3580000000.0 0.04556341521963069 -0.13078233257925628
3600000000.0 0.11271780583473068 0.10893229595120921
3620000000.0 0.06165709023518489 0.15698765866493702
3640000000.0 -0.12643031568829272 0.12766928954616855
3660000000.0 -0.1876268678353381 0.012940588883309283
3680000000.0 -0.14818658507902516 -0.1238477878756764
3700000000.0 -0.03581014847883245 -0.18999472627253552
3720000000.0 0.1627637106062404 -0.10520674913098758
3740000000.0 0.18931165444271084 -0.01404526677807447
3760000000.0 -0.16806006135360196 0.07083999858493502
3780000000.0 0.1289556754088314 -0.11423453384153333
3800000000.0 -0.1071502712323984 -0.12139853886006848
3820000000.0 -0.14346420404582566 -0.053734993310630357
3840000000.0 0.06681443248656778 -0.1300829347763439
3860000000.0 -0.008453855961282838 0.1475628278359383
3880000000.0 -0.041811382859950195 0.1488229734983741
3900000000.0 0.15553771341380307 0.04130321880685717
3920000000.0 -0.1631543504176874 -0.03717148429226481
3940000000.0 0.10382712328622365 -0.1365996223343775
3960000000.0 0.17283406703110407 -0.023415550038195492
3980000000.0 0.079631759802552 -0.1541310897098419
4000000000.0 0.0325410711819543 -0.16208411322320426
