! Created with skrf (http://scikit-rf.org).
# Hz S RI R 50.0 
!freq ReS11 ImS11
400000000.0 0.21654667252386964 0.8447093152493687
420000000.0 0.6426201074250588 0.5699858220457488
440000000.0 0.7489001766524932 -0.34524239341577395
460000000.0 0.018920326085641176 -0.7855415574406268
480000000.0 0.5275241916305882 -0.4531861565873876
500000000.0 0.49429189769329424 0.2541518373283716
520000000.0 0.3391271126838871 0.35757752776574403
540000000.0 -0.3409401802264305 0.28218796427370413
560000000.0 0.2280702426744388 -0.30297981780146793
580000000.0 -0.2792248017954701 0.23184202465110365
600000000.0 0.24399516879209293 -0.26570910568393785
620000000.0 0.10808245324963948 0.35995094864053606
640000000.0 0.15749608636839954 -0.36514353262548077
660000000.0 -0.22809887755975408 -0.33123705607666376
680000000.0 0.40914767984098693 -0.04164608866133282
700000000.0 0.22937287551680244 -0.3545153227580319
720000000.0 0.0706965772848463 -0.4170711770844956
740000000.0 0.18536515451284594 0.3820123900484612
760000000.0 0.12059819310429243 -0.39260694800536644
780000000.0 0.35411175330309846 0.13398428895220857
800000000.0 -0.31826128476019167 -0.1336643923976753
820000000.0 -0.18236573606527906 -0.22570896959455822
840000000.0 -0.22703212449184537 0.06585554442730951
860000000.0 0.16790286104701205 -0.10963378480613074
880000000.0 -0.13037989495826227 -0.05361695067569939
900000000.0 0.08138323553624524 -0.0010404861599382475
920000000.0 -0.057431552017059115 -0.009301838321859199
940000000.0 0.006680049491680575 -0.03682739751089171
960000000.0 -0.032866091458199125 0.028067597347634785
980000000.0 0.03843455102468141 0.05121373883461321
1000000000.0 0.05900103300430624 0.061139265357303046
1020000000.0 -0.09895700264099355 -0.05204045254169993
1040000000.0 -0.11618484139501233 0.053129800304207796
1060000000.0 0.10686823699482696 0.11923321611195074
1080000000.0 0.1518121502457077 0.07503004532725217
1100000000.0 -0.027083094959612447 -0.18174266491880542
1120000000.0 -0.04123938672621122 -0.19289888598801183
1140000000.0 0.05362770846459852 -0.22047069084981
1160000000.0 0.16602584255887878 0.20313203806863056
1180000000.0 -0.20411612382684893 0.22812340851579344
1200000000.0 -0.3432096245814787 0.005669159913804986
1220000000.0 0.22097687461837517 -0.30313603822551655
1240000000.0 -0.023401737890579418 0.4009427410536404
1260000000.0 0.14468217438554662 -0.40107337095249823
1280000000.0 -0.2934387588376697 0.3283214703342155
1300000000.0 0.4451939533596979 0.05727517181743352
1320000000.0 -0.016933924502414117 -0.4443597526172608
1340000000.0 0.010244132743793174 -0.43857438434109103
1360000000.0 0.1522132492470109 -0.40429366674442074
1380000000.0 -0.09009588619735089 -0.42273556482160124
1400000000.0 -0.4166011348042639 0.026613687271397565
1420000000.0 0.030783065153739516 0.39737107402070854
1440000000.0 0.3425685518531511 0.14796038648324292
1460000000.0 0.1636929475913557 -0.30331472967697365
1480000000.0 -0.24139596834061794 -0.2009444365296458
1500000000.0 -0.2733945896162751 0.07640921894701082
1520000000.0 -0.19183699728741108 0.16952839245053605
1540000000.0 0.02922054957912589 -0.22588772835632048
1560000000.0 0.18724964637511957 0.05306232069235348
1580000000.0 -0.05723439627278973 0.15863928292696652
1600000000.0 0.10040591598317 0.09792984125450885
1620000000.0 0.06958139762916596 0.08665167889578641
1640000000.0 -0.074984427706236 0.047433983408026674
1660000000.0 -0.060985695435843194 0.027015926512127458
1680000000.0 -0.006584438677996466 -0.045725877129314585
1700000000.0 -0.007074223493369783 -0.029612242758906053
1720000000.0 0.0016951474326920635 0.010016368130624074
1740000000.0 0.01009883345635683 0.00974167004229595
1760000000.0 0.036821564515883566 0.0025584881240535455
1780000000.0 0.012076325667397346 -0.07179484746047046
1800000000.0 0.06928800566558037 0.08694606935180578
1820000000.0 0.11605504367040888 0.08872444538005672
1840000000.0 -0.01282161207376061 0.18139029523933167
1860000000.0 -0.2023046090007641 -0.06319363799359262
1880000000.0 0.11446041795363325 0.21213119166917047
1900000000.0 0.2477818493400358 -0.11519981968064859
1920000000.0 -0.11293920123280099 -0.2820263597686363
1940000000.0 -0.3113664516726668 -0.12761965846285164
1960000000.0 -0.1515686778827925 0.3349507887054595
1980000000.0 0.3812831721835933 0.09503431726175567
2000000000.0 0.21955702193582108 -0.35375585402747556
2020000000.0 -0.42955599056663063 -0.04961864944459938
2040000000.0 -0.06618410250207218 0.4347914280248715
2060000000.0 0.4368709976242931 -0.054850641721350055
2080000000.0 0.10120031769539041 -0.42134776305455773
2100000000.0 -0.17838109976271305 -0.38422066608848066
2120000000.0 -0.35001508456877894 -0.21802943122526472
2140000000.0 -0.39904101787610324 -0.010443739480056518
2160000000.0 -0.11176581385353439 -0.36727762183814044
2180000000.0 -0.1902628492329322 -0.3140426168477938
2200000000.0 -0.2593680833491401 -0.24356380808513206
2220000000.0 -0.3132325619702823 -0.1504290113774918
2240000000.0 -0.3013320523338664 0.17004421028158145
2260000000.0 -0.053855554674902176 0.34285114175214587
2280000000.0 0.2257781908073226 0.27010425874488797
2300000000.0 0.20660353797967726 -0.3008226692799067
2320000000.0 -0.33211301702784557 -0.19573295845573224
2340000000.0 -0.20999918419895341 0.3565167977812321
2360000000.0 0.4445503359577156 0.08655689083623176
2380000000.0 -0.33593626580189717 -0.3709879862556804
2400000000.0 0.2920514108038106 0.47113975848594875
2420000000.0 -0.5211344488986899 -0.3142119246468173
2440000000.0 0.6491695705452792 -0.11087751429187649
2460000000.0 -0.4028557916314922 0.5714785703600304
2480000000.0 0.09188805867989108 -0.724478936038569
2500000000.0 -0.09795275169122872 0.7443363818984013
2520000000.0 0.22657135049338653 -0.7269600320039871
2540000000.0 -0.5416124401234008 0.5375715973315518
2560000000.0 0.7542203576559761 -0.06628857176921714
2580000000.0 -0.5135294921557427 -0.5359624986403054
2600000000.0 -0.07784669968239667 0.7137804103635277
2620000000.0 0.590605931508127 -0.3520740304022562
2640000000.0 0.3166471663264345 -0.5676417114021111
2660000000.0 -0.5833472783610566 0.15799675955705042
2680000000.0 0.4691865757807557 0.29984896848355147
2700000000.0 -0.11462504531891385 -0.49597649972860613
2720000000.0 -0.22324380637682148 0.4034292416451192
2740000000.0 0.3914105019859681 -0.1480142946203434
2760000000.0 -0.38035465927221623 0.00562823639668273
2780000000.0 0.32551006653004994 -0.1310800024542542
2800000000.0 -0.19304351811126907 0.2632011169899051
2820000000.0 -0.14454701467930656 -0.2731222444869162
2840000000.0 0.2971949554020996 -0.021929348682272146
2860000000.0 -0.16353340341215425 0.24426969544847513
2880000000.0 -0.11711285321962628 -0.26866764964938816
2900000000.0 0.15536408411728947 0.2501850675398601
2920000000.0 0.11041988051502165 -0.2779634958753838
2940000000.0 -0.305270714175375 -0.015828485814619462
2960000000.0 -0.19978596595493722 0.2360047819565419
2980000000.0 -0.21315169474056084 0.23063090759436686
3000000000.0 -0.31382971753599725 0.026183485527924488
3020000000.0 -0.10578942794772822 -0.29720159049416534
3040000000.0 0.3104102480457362 0.03980728589511783
3060000000.0 -0.26514608457860034 0.16178849108162158
3080000000.0 0.24505103963338493 -0.18242016000385367
3100000000.0 -0.19973298183069907 0.2241257827432151
3120000000.0 0.17936673783840626 -0.2308498941954676
3140000000.0 -0.023961097004834654 0.28156617316799104
3160000000.0 -0.14771384766922327 -0.22410039755864894
3180000000.0 -0.10299285382365328 0.22972229406807862
3200000000.0 -0.17736508226345066 -0.14648432600720795
3220000000.0 0.09854723237750365 -0.17751726929579634
3240000000.0 0.12492766772009384 0.11940139844210992
3260000000.0 -0.12136920774079553 -0.06786625282114861
3280000000.0 0.10577142922372362 0.006648377858212626
3300000000.0 -0.025719841456546856 -0.07171554942606666
3320000000.0 -0.015171157239344792 -0.04491149344785139
3340000000.0 0.0196255194217865 0.011752897478972199
3360000000.0 -0.0018731030596550395 0.005276045517025824
3380000000.0 0.002873806701075249 -0.010257618381390464
3400000000.0 -0.010584967235109051 0.01958194017948381
3420000000.0 0.02614355355007975 0.022602154405669404
3440000000.0 -0.03730198559503921 -0.026811107761843644
3460000000.0 0.01728400041501498 -0.05259859633821312
3480000000.0 0.06715196980700126 0.012200580865059728
3500000000.0 0.0400371167333719 -0.07326434095223815
3520000000.0 -0.01507952206775627 0.09859831207182991
3540000000.0 -0.061673170897449725 -0.09538537976097447
3560000000.0 0.12563990457770335 0.0064429189135957595
3580000000.0 -0.13640425223876287 -0.02074834001370113
3600000000.0 0.1435377729387799 -0.05871700885358569
3620000000.0 0.055083867860715924 0.15712776543889376
3640000000.0 -0.1759248101008246 0.0274194056930622
3660000000.0 -0.15108886281897843 -0.11328318425895045
3680000000.0 -0.06117992695591935 -0.1851241205911139
3700000000.0 -0.018660392951549944 -0.19543051204536477
3720000000.0 0.13475112945893222 -0.14151140189143402
3740000000.0 0.1443049948460726 -0.1266135787848084
3760000000.0 -0.07773470844007216 0.16637270575277677
3780000000.0 0.015502622539641554 -0.1707116113703983
3800000000.0 -0.14851474725807406 -0.05998834992526751
3820000000.0 -0.14144456680929168 -0.05396916234279789
3840000000.0 0.10395996437167394 -0.10311113610043077
3860000000.0 0.0020805632512345394 0.1484182563083525
3880000000.0 0.07233737871736072 0.13873669345018838
3900000000.0 0.10516410507703756 -0.12089381566569539
3920000000.0 -0.1595906842379616 0.04299250471425664
3940000000.0 0.07631591063033204 -0.15126774335951615
3960000000.0 0.17239839831941065 0.014497486172339438
3980000000.0 0.12306932310349182 -0.12220303220888981
4000000000.0 0.09428141799395603 -0.1371377084438298
