! Created with skrf (http://scikit-rf.org).
# Hz S RI R 50.0 
!freq ReS11 ImS11
400000000.0 -0.8602618623589188 0.0609643961827509
420000000.0 0.005488540868904983 0.8650606864329273
440000000.0 0.8348395925871998 0.08537428058023495
460000000.0 0.6044622373458262 -0.51116020641819
480000000.0 0.731484490178682 0.058971608526100144
500000000.0 -0.5718355360114795 -0.09762730149002644
520000000.0 -0.36596381748774753 0.33569933257881934
540000000.0 -0.4128232922807215 -0.07540787814545412
560000000.0 -0.0591590348353786 0.36355177824690627
580000000.0 -0.27590672798972576 -0.163501959144934
600000000.0 -0.3271811364982231 0.02840079437710576
620000000.0 -0.15226025765974788 -0.29244150891204973
640000000.0 -0.038030600419410095 0.343341496986112
660000000.0 -0.042440401251440364 0.3739078633386276
680000000.0 -0.06183810902408938 -0.3926721800496423
700000000.0 -0.40195491175725984 0.15785274895008802
720000000.0 0.047427877402603534 0.4332772984133483
740000000.0 -0.4229868230261173 0.15228392638625762
760000000.0 -0.018276189819595164 -0.42874613230543296
780000000.0 0.27310783942567185 0.28396538215477846
800000000.0 -0.33809400052331956 0.12183568622061064
820000000.0 -0.25322187946203295 -0.16067742052925907
840000000.0 0.2316204382479671 0.09841446024394046
860000000.0 0.005579843701844844 0.19725496145788468
880000000.0 -0.05500071397641593 -0.14736373549659804
900000000.0 0.012676209706243117 -0.0815350258506281
920000000.0 0.02732961449026754 -0.037301957882850505
940000000.0 0.024242911828667477 0.03800913660837692
960000000.0 0.03154159121393287 0.04386884725945103
980000000.0 0.04926288026314593 -0.04171740713774134
1000000000.0 -0.06302274764312873 -0.03474307298483114
1020000000.0 0.04381980409639624 0.06719358945520162
1040000000.0 0.03002802570661877 0.08833374981693659
1060000000.0 0.01866845431027864 -0.12176023566467233
1080000000.0 -0.1458246898034204 -0.006783147264856738
1100000000.0 -0.01838703380614506 0.16912559677825423
1120000000.0 0.0400097047380781 0.1971297807238279
1140000000.0 -0.24208521110472228 0.00336014005179972
1160000000.0 -0.24108586447618893 0.14319503773934666
1180000000.0 0.16674961808584193 0.276077642711578
1200000000.0 -0.18598056638508403 0.2991248434568175
1220000000.0 -0.33701406176081583 -0.18646901443076694
1240000000.0 0.336574321002669 0.22448866197778253
1260000000.0 -0.3988625500787595 -0.16604389959587076
1280000000.0 0.33435770539356957 0.2818277497234809
1300000000.0 0.21802026824117604 -0.38591329625464094
1320000000.0 -0.29316718145508963 -0.32031082102967146
1340000000.0 0.14369219094986824 -0.4068908394995694
1360000000.0 0.2871397148017155 -0.3196772418676842
1380000000.0 0.1967321543653045 -0.384647547346421
1400000000.0 -0.4190520103820634 -0.024104834582762698
1420000000.0 -0.10370868226029169 0.38857804083004727
1440000000.0 0.37369081961612655 -0.042529066361574594
1460000000.0 0.28888844978330497 -0.18657309287670232
1480000000.0 -0.10512866631876183 -0.2979615951484137
1500000000.0 -0.252520830008248 -0.13625979942345884
1520000000.0 -0.254633993423693 0.0517688102842475
1540000000.0 0.13043068087109735 -0.19526452492984095
1560000000.0 0.202599243704372 -0.007528423733123769
1580000000.0 0.13012966208417123 0.1150970780645758
1600000000.0 -0.09118360325417958 -0.11175054181885034
1620000000.0 -0.08695078439462278 0.06688913173579628
1640000000.0 -0.05864622467391966 -0.060225850768580336
1660000000.0 0.010920161874643465 0.05733248031209433
1680000000.0 0.024650444018304237 -0.024073008848574388
1700000000.0 0.0017620882415874462 0.0172339350028095
1720000000.0 -0.0017913383484812328 0.001319387873941821
1740000000.0 0.019874957667204294 5.032772017234962e-05
1760000000.0 0.037475087051767664 -0.00639877753518119
1780000000.0 0.059821342186994815 -0.029474165102555676
1800000000.0 -0.09923448672333048 0.02088964010994425
1820000000.0 0.0957496436272966 0.09270034065152205
1840000000.0 0.03135978831835394 -0.16755821495321643
1860000000.0 0.11901882831428574 0.17156820236589893
1880000000.0 -0.11431291488957845 -0.21832945701972964
1900000000.0 0.15884048778682172 0.23997851847056026
1920000000.0 -0.2936620436585111 -0.12342343876969754
1940000000.0 0.09174922346275623 0.3329183126882215
1960000000.0 0.33569287440465806 -0.15171283799041232
1980000000.0 0.06670054135673083 -0.3798083200075089
2000000000.0 -0.0694628050778771 -0.398536487282188
2020000000.0 -0.35819425625486606 -0.22088163398251232
2040000000.0 -0.41223154987027966 0.1400966437357196
2060000000.0 0.10203334516502895 0.42998406807471723
2080000000.0 0.44206127509926474 -0.03297332027211775
2100000000.0 -0.019444153087886357 -0.43678428455068424
2120000000.0 -0.40158023405765025 -0.14298271040706328
2140000000.0 -0.2766458361898868 0.30252830185968954
2160000000.0 -0.391784059094472 -0.02649849980166407
2180000000.0 -0.3667814441167462 0.07357006733890253
2200000000.0 -0.3263544924115544 0.14911332340518235
2220000000.0 -0.31209867559714677 0.15794667909626048
2240000000.0 -0.2182115887537483 0.26926582668166915
2260000000.0 -0.09318678453167835 0.3376496172413174
2280000000.0 0.23250854433722198 0.2693864697159621
2300000000.0 0.3099093103587074 -0.20601784017931837
2320000000.0 -0.23007288919986515 -0.32245494721208795
2340000000.0 -0.24668533315266877 0.3503772441023702
2360000000.0 0.4115500020451478 -0.222271923632344
2380000000.0 -0.49434944171702033 0.14369832026442328
2400000000.0 0.5025747214567152 -0.2573121803037857
2420000000.0 -0.30142484207196607 0.5355050531558854
2440000000.0 -0.17492433625087564 -0.6364198576121873
2460000000.0 0.5892322722935908 0.3723765399962832
2480000000.0 -0.7228938915793376 -0.06154522671368827
2500000000.0 0.7430395863916571 -0.0029435011851144865
2520000000.0 -0.7400733928620777 -0.13314604357048013
2540000000.0 0.6022880729224012 0.4516891534352221
2560000000.0 -0.15119901275805447 -0.730891304949115
2580000000.0 -0.5373054255712952 0.49611998820730563
2600000000.0 0.7042203821908657 0.05758415442867208
2620000000.0 -0.3987641282834922 -0.5460163595653635
2640000000.0 -0.588746978783134 -0.24806882220821622
2660000000.0 0.07470390739884253 0.5888961887328628
2680000000.0 0.43471246281240633 -0.3342095458909628
2700000000.0 -0.47031720100789864 -0.17545789006252913
2720000000.0 0.16473180310625518 0.42489521895745797
2740000000.0 0.28607234938371034 -0.2987004184222777
2760000000.0 -0.3775282391017391 -0.004363868441535429
2780000000.0 0.3476087662757949 -0.0009739311584779618
2800000000.0 -0.32171749905382874 0.03433563691964763
2820000000.0 0.19476146283466825 -0.23724062265848034
2840000000.0 0.13026997677444183 0.2666062075600701
2860000000.0 -0.2912913522168002 0.0016412243287537234
2880000000.0 0.07943192673673674 -0.27838546006792986
2900000000.0 0.1098007793363377 0.267065044488664
2920000000.0 0.0526989093363844 -0.2863334863747656
2940000000.0 -0.2806582332759925 0.09203169535524287
2960000000.0 -0.09007345915966541 0.28309051790388584
2980000000.0 -0.03410636123988604 0.2984648262007708
3000000000.0 -0.26389119255319055 0.14694245037978845
3020000000.0 -0.21430881496288298 -0.21605971554002124
3040000000.0 0.30069933306641733 -0.03407573068018838
3060000000.0 -0.22087734252401264 0.2064515020430503
3080000000.0 0.17236989708813075 -0.24510336069596825
3100000000.0 -0.055073110455369764 0.2908543705547704
3120000000.0 -0.1322166484783302 -0.25801414004363016
3140000000.0 0.28105684085241417 0.010306347254979841
3160000000.0 -0.17654159132586353 0.1998141324466128
3180000000.0 0.24840905521625115 -0.020252269066101572
3200000000.0 -0.004870868847253672 0.22564853236459856
3220000000.0 -0.19757684927014926 0.008254915484284815
3240000000.0 0.04988824648104243 -0.15916005059104024
3260000000.0 -0.07008277829379625 0.1132787489480115
3280000000.0 0.10136312769205304 0.005143286513605897
3300000000.0 0.06233526373402289 0.0393491882525152
3320000000.0 -0.002623531190088886 0.0498848511647475
3340000000.0 0.024785992172015915 -0.014987411765079455
3360000000.0 0.012022032554595451 -0.00021134751567374816
3380000000.0 0.0033165813420181463 0.004193008527341693
3400000000.0 0.016422380546162803 0.010823211925464846
3420000000.0 -0.003947121561003306 -0.03548865034016802
3440000000.0 0.04882322993752945 -0.0008677511499416336
3460000000.0 -0.042567023668395314 -0.03795448035163501
3480000000.0 -0.06427143975553795 0.020116483844811253
3500000000.0 -0.023027181720158683 0.07520678118118396
3520000000.0 0.06772144454146635 0.06107385375880337
3540000000.0 0.05254935131890264 -0.09005503776326412
3560000000.0 -0.11751054222332978 -0.0029612907745718508
3580000000.0 0.07277733268423348 0.11023388506123473
3600000000.0 -0.15093111166178247 -0.026474485952229048
3620000000.0 -0.152363594178824 -0.06863183989703733
3640000000.0 -0.16421802781160408 -0.07621989392167039
3660000000.0 -0.17782138398920994 -0.06988843223014517
3680000000.0 -0.19112163065723686 -0.04437049643829677
3700000000.0 -0.19005393556837397 -0.04028050225343103
3720000000.0 -0.09746928735982137 -0.1651993615461366
3740000000.0 -0.0020693344644569897 -0.18282695809157903
3760000000.0 -0.1477886148466795 0.09258877355165238
3780000000.0 0.14889771078484534 0.07018709978472965
3800000000.0 0.15191060328937844 0.03724709551526882
3820000000.0 0.14342612460291554 0.05375152503664594
3840000000.0 -0.014890669511387705 0.150406188267954
3860000000.0 -0.09330653371626298 0.12297924565721845
3880000000.0 0.08930001080198738 0.13368803497836546
3900000000.0 -0.004794219338462109 -0.16303108866716723
3920000000.0 -0.06985662504203702 0.14944667825587493
3940000000.0 -0.0036898816236644954 -0.1681117216597441
3960000000.0 0.16818139869452958 0.028771579987637276
3980000000.0 0.1625361652213449 -0.05137123676468314
4000000000.0 0.1619956582694204 -0.018029901935933342
