! Created with skrf (http://scikit-rf.org).
# Hz S RI R 50.0 
!freq ReS11 ImS11
400000000.0 0.22535878136305662 0.8430950342389909
420000000.0 0.6679130106880978 0.5398532231966768
440000000.0 0.7582787398242293 -0.3242463612081558
460000000.0 -0.09016996068143356 -0.7817455541122684
480000000.0 0.48130229407693426 -0.5012852360362842
500000000.0 0.4484819767191384 0.3256743546577667
520000000.0 0.29895230301603853 0.3935309633765613
540000000.0 -0.30751750201073963 0.3152650352141858
560000000.0 0.24881783590580536 -0.28736378631738174
580000000.0 -0.2615288638829174 0.24981072384209238
600000000.0 0.22280020249473606 -0.2858548494546868
620000000.0 0.1449838692453357 0.34575665527667004
640000000.0 0.11754578655989698 -0.37975325567357215
660000000.0 -0.14337550283795272 -0.3758478733859028
680000000.0 0.4097648272097693 0.028266490843910627
700000000.0 0.26657560992075113 -0.32726176375430716
720000000.0 0.17855030083503917 -0.3832442644294867
740000000.0 0.11611397102023105 0.40810959184113704
760000000.0 0.08369323740390805 -0.4015959974361153
780000000.0 0.32932244026050717 0.18777300392748497
800000000.0 -0.3358793568924974 -0.08491003529716545
820000000.0 -0.2427342917119532 -0.15878921271926633
840000000.0 -0.19641340277786304 0.1302683545499444
860000000.0 0.16482667909753632 -0.11164957286157247
880000000.0 -0.13801629800272772 -0.02090059950953806
900000000.0 0.07844813037952642 0.01921767095529426
920000000.0 -0.041023901412644115 -0.03988658067116932
940000000.0 0.03484266434234419 -0.010852829972798234
960000000.0 -0.03713291446255459 0.01894515605386685
980000000.0 0.025580400423945413 0.05661546362912336
1000000000.0 0.026755338550392298 0.07884382996172082
1020000000.0 -0.035315933874954374 -0.10437635155022942
1040000000.0 -0.12766708466858723 -0.008168652488420457
1060000000.0 0.07172891345082424 0.1445341152623661
1080000000.0 0.13058484096012365 0.11228195101785714
1100000000.0 -0.0234684429912076 -0.1850384657669921
1120000000.0 -0.07403378600639088 -0.18530154212569824
1140000000.0 0.007508256875872977 -0.22750947770945126
1160000000.0 0.22152608495593926 0.14215544704823327
1180000000.0 -0.16284479255662226 0.2599284441001596
1200000000.0 -0.3358931999116507 0.07235405355546012
1220000000.0 0.18287943136931797 -0.3267020271936432
1240000000.0 -0.012008139429436513 0.40068047255291667
1260000000.0 0.1317611749817567 -0.4047292592045649
1280000000.0 -0.2467083458635353 0.36430949588581596
1300000000.0 0.44868440710360546 -0.00024567112601229683
1320000000.0 -0.06453486097631389 -0.43990854428579845
1340000000.0 -0.04023523334612878 -0.4371840168933586
1360000000.0 0.09691922613095119 -0.4216395995482067
1380000000.0 -0.1567963060706478 -0.4033354570400991
1400000000.0 -0.4129140736474263 0.06758554218730935
1420000000.0 0.08510805107005949 0.3907016560287958
1440000000.0 0.36046697532576205 0.10114016842742259
1460000000.0 0.15494736968844455 -0.3088529789157628
1480000000.0 -0.20104545750358246 -0.24240216515203544
1500000000.0 -0.2770323447463247 0.06476508805174651
1520000000.0 -0.22156882638616893 0.13058992655413987
1540000000.0 0.09700160797906059 -0.20717331151405566
1560000000.0 0.15681635023858134 0.11736499421149026
1580000000.0 -0.1289833837566251 0.10932115053720663
1600000000.0 0.11095383681924734 0.08532217230096316
1620000000.0 0.06011314195299142 0.0920293988810467
1640000000.0 -0.07001071570190309 0.051336162852345095
1660000000.0 -0.04933982044788189 0.041735256899272474
1680000000.0 -0.0005306620794571261 -0.044348708048583055
1700000000.0 -0.00805437634867945 -0.02791119090268342
1720000000.0 0.006583279539734888 0.006858303849899508
1740000000.0 -0.007801681857173806 -0.011094975981185397
1760000000.0 0.0224213682504035 0.027877701477305478
1780000000.0 0.04066777688431507 -0.058502673306827145
1800000000.0 0.02302584944678544 0.10759491801280267
1820000000.0 0.06316544968691191 0.13051440771122563
1840000000.0 -0.08229260112063265 0.16162774587402748
1860000000.0 -0.18209645708571123 -0.10877788546995235
1880000000.0 0.07393416458973372 0.23040743851460713
1900000000.0 0.24432956044111154 -0.12492933276542421
1920000000.0 -0.15330223088487388 -0.2633910951118249
1940000000.0 -0.33080642969816165 -0.06143206946564883
1960000000.0 -0.1050920360676139 0.3519687926634037
1980000000.0 0.3764037984279493 0.11162837146550622
2000000000.0 0.23557923420077004 -0.3428565480489313
2020000000.0 -0.4296907176174373 -0.04909777379424014
2040000000.0 -0.11231030933409031 0.42576597608515077
2060000000.0 0.43901781371900495 -0.04221852868191839
2080000000.0 0.08257541378757452 -0.42650733066838536
2100000000.0 -0.18953442932759176 -0.38018468839702363
2120000000.0 -0.3179922179449883 -0.26384755406149973
2140000000.0 -0.3998341441148627 -0.005346245645163477
2160000000.0 -0.06769104602889443 -0.3785445403913372
2180000000.0 -0.14486992643847169 -0.33904288444211444
2200000000.0 -0.21160004721209127 -0.28748888098094233
2220000000.0 -0.29568605721195673 -0.1851792822672285
2240000000.0 -0.3150466343415815 0.14517366038040333
2260000000.0 -0.06797122562223419 0.3411280891383509
2280000000.0 0.19501365133859527 0.29367271070077666
2300000000.0 0.2720333157474919 -0.24446076347674975
2320000000.0 -0.26852715983595377 -0.2782679937934619
2340000000.0 -0.2907957250796149 0.2964298647434668
2360000000.0 0.4404335060491471 0.11303799825293354
2380000000.0 -0.369780825676677 -0.3393088361643116
2400000000.0 0.3146669416834234 0.45684535373378415
2420000000.0 -0.5466275748321202 -0.2685070248915632
2440000000.0 0.6255391795774148 -0.20632179609591778
2460000000.0 -0.30600238178749106 0.6286446342917692
2480000000.0 -0.05622317632626845 -0.7281374109115185
2500000000.0 0.06119494739758735 0.7482532026779688
2520000000.0 0.04325696004161506 -0.760503228223843
2540000000.0 -0.3866194553040311 0.6590026095802705
2560000000.0 0.7318968974854266 -0.19738904020337547
2580000000.0 -0.5776688330414662 -0.4676655027455305
2600000000.0 -0.013260209004485218 0.7190924533785324
2620000000.0 0.5014259750358389 -0.4720864639757448
2640000000.0 0.21285216575112664 -0.615172096042227
2660000000.0 -0.577016551931961 0.1852101095385144
2680000000.0 0.47348971348138436 0.2953031085791471
2700000000.0 -0.1138197765803833 -0.49729102258517555
2720000000.0 -0.2570590558450772 0.3834051989613518
2740000000.0 0.4039307530335935 -0.10948754332222553
2760000000.0 -0.3775567786193976 -0.04511447632935151
2780000000.0 0.3394041438718975 -0.08873584517160857
2800000000.0 -0.2231493531608895 0.2383246992556435
2820000000.0 -0.10708328379418018 -0.28965989151360527
2840000000.0 0.29733432700457063 0.0015222162661635483
2860000000.0 -0.17171947804575968 0.2385109140521994
2880000000.0 -0.08359142310347444 -0.28093046276389616
2900000000.0 0.13173542635744237 0.26422860443970275
2920000000.0 0.14691000859085276 -0.26094539248255605
2940000000.0 -0.30286850952891836 -0.04452438088041929
2960000000.0 -0.17857161820636158 0.2521436733935341
2980000000.0 -0.21598950873435432 0.22764542022822215
3000000000.0 -0.31294662266903495 0.034326113337611895
3020000000.0 -0.09213739452136957 -0.30154338180745704
3040000000.0 0.31131075536322694 -0.02834361979242355
3060000000.0 -0.2857404880847166 0.1185546618523057
3080000000.0 0.2643099096825146 -0.15093770216869573
3100000000.0 -0.16803427098561358 0.24761317174425304
3120000000.0 0.18209369091851801 -0.22751231008701225
3140000000.0 -0.05714161015086405 0.2759038631737062
3160000000.0 -0.13332874006777956 -0.23219325198928134
3180000000.0 -0.09745626914581862 0.23166563314285316
3200000000.0 -0.17818468368306697 -0.14356280730240473
3220000000.0 0.06049252771972319 -0.1934062498789974
3240000000.0 0.16130023036430854 0.058318967349714486
3260000000.0 -0.13584872578013824 0.02203264231934542
3280000000.0 0.10067140462655197 -0.029797232997508433
3300000000.0 -0.06583698717403409 -0.03623128998976196
3320000000.0 -0.016162323559833804 0.043803481552031766
3340000000.0 -0.005058629589436636 -0.022149740700703194
3360000000.0 0.004930013374187099 0.0005989521306850921
3380000000.0 0.0022770044220870437 0.009476699572025616
3400000000.0 0.0206804519712668 -0.003999207292877691
3420000000.0 -0.019355435470243355 -0.027602251220555363
3440000000.0 -0.02172461683014877 -0.039886547636089065
3460000000.0 0.05186395144448992 -0.016728752661917166
3480000000.0 0.005711640920173037 0.06756221168027891
3500000000.0 0.07213054335053279 -0.04016729981326953
3520000000.0 -0.09840420414062222 0.005206197927381516
3540000000.0 -0.0037479045073969975 -0.11285836099594852
3560000000.0 0.10820068412351212 0.06206045612105874
3580000000.0 -0.09418129414008358 -0.0984908169280648
3600000000.0 0.152847691950703 0.00286467808821358
3620000000.0 0.053212263440123385 0.15678678762461273
3640000000.0 -0.17650002301228804 -0.007615493864775346
3660000000.0 -0.14621825504421376 -0.1176413989462566
3680000000.0 -0.029263149064431417 -0.19145231887278638
3700000000.0 0.00816195349559913 -0.19492623960326264
3720000000.0 0.129901413287991 -0.14482057552198802
3740000000.0 0.12940303323955746 -0.1393264693337595
3760000000.0 -0.05841053288184638 0.17296395681524399
3780000000.0 0.041702496326783564 -0.1663428945423279
3800000000.0 -0.13463828109722514 -0.08641186590871158
3820000000.0 -0.1094527540371688 -0.10479593975278373
3840000000.0 0.13339785298090942 -0.06234617579196226
3860000000.0 -0.04053591808247074 0.1434349627512214
3880000000.0 0.03921185537011876 0.1519146520542406
3900000000.0 0.13894623038850196 -0.08207067271751123
3920000000.0 -0.16300808351552404 0.03277979750115654
3940000000.0 0.07743043055384587 -0.15138581549709199
3960000000.0 0.1729999418064343 0.00202539454621803
3980000000.0 0.0842009008946593 -0.15078645915534258
4000000000.0 0.028875378073448685 -0.16338223650758432
