! Created with skrf (http://scikit-rf.org).
# Hz S RI R 50.0 
!freq ReS11 ImS11
400000000.0 -0.8608556468634182 0.04966718396621403
420000000.0 -0.005184729898684936 0.8656025285994637
440000000.0 0.8382330582853194 0.03879129011584922
460000000.0 0.5686177697827703 -0.5497099871726712
480000000.0 0.7284510178517382 0.08859602032074222
500000000.0 -0.5755224618523289 -0.07832898273802559
520000000.0 -0.40399306357977366 0.29004362686529095
540000000.0 -0.40586596808904946 -0.09779204756770747
560000000.0 -0.185428027673082 0.31962084835536164
580000000.0 -0.2578410704561213 -0.19182061472080608
600000000.0 -0.32748456540425963 0.0015614697740691452
620000000.0 -0.1804044235223123 -0.27608030772749154
640000000.0 0.011361090010120936 0.34559468569243346
660000000.0 -0.021735026534186037 0.3779208882706822
680000000.0 -0.1364599600464316 -0.37406271076620434
700000000.0 -0.38463968625592826 0.19810303331289567
720000000.0 0.05880170968196834 0.43168372412329037
740000000.0 -0.419231929248774 0.16441939857087062
760000000.0 -0.03247807637885015 -0.42742831376948615
780000000.0 0.25662770410957 0.2990298645049561
800000000.0 -0.3333559087620427 0.13229708459011819
820000000.0 -0.2642228308652256 -0.1402365629791919
840000000.0 0.23271331096346815 0.09497431384440091
860000000.0 0.006694984982939997 0.1969604127007546
880000000.0 0.006569780936683332 -0.15667395667650863
900000000.0 0.01888533759821935 -0.0792336304816566
920000000.0 0.029289223243557164 -0.035890657586885734
940000000.0 0.031019201225684957 0.033166262446696945
960000000.0 -0.009412589119665608 0.05295723105313477
980000000.0 0.05761928825627446 -0.02860400857575468
1000000000.0 -0.06194249395664424 -0.03635023028446113
1020000000.0 0.04219399144050528 0.06780438756295419
1040000000.0 0.04899917706270165 0.07963420862274632
1060000000.0 -0.012852020343715471 -0.1229142919690262
1080000000.0 -0.14440146397668155 -0.02111259587779758
1100000000.0 -0.003254067069450071 0.16979011150578557
1120000000.0 0.10220682111147983 0.17273703675943397
1140000000.0 -0.233691630451359 0.0628838742634454
1160000000.0 -0.2293338153035947 0.161610165433848
1180000000.0 0.12371612227012205 0.2974914266281629
1200000000.0 -0.21279686808497222 0.28024594232154615
1220000000.0 -0.3081107628836656 -0.23010610329741393
1240000000.0 0.32645670357714396 0.23863331199293417
1260000000.0 -0.38171908920880976 -0.20336296434721282
1280000000.0 0.33504514998407947 0.28162586844699405
1300000000.0 0.18461700226211408 -0.4035555479657475
1320000000.0 -0.3197646672805599 -0.29429034608943394
1340000000.0 0.130771060262461 -0.41153515927728196
1360000000.0 0.27757563588861844 -0.3280655688434159
1380000000.0 0.2021881144142921 -0.3819089263602679
1400000000.0 -0.41909233716984134 -0.021873008850253353
1420000000.0 -0.09192054327962748 0.39178796604074917
1440000000.0 0.3731939628422925 -0.0451529216941765
1460000000.0 0.2723014371404171 -0.2090402234647881
1480000000.0 -0.14945096275573252 -0.2775217754556075
1500000000.0 -0.2519246212131604 -0.1372365960340006
1520000000.0 -0.25720998136344375 0.03553861216701686
1540000000.0 0.13461412966723568 -0.19287277089615776
1560000000.0 0.19938707818340257 0.04027821519889585
1580000000.0 0.13310108515770422 0.1127953935216158
1600000000.0 -0.102582573538885 -0.10286296841978274
1620000000.0 -0.07524373019788784 0.0810950996367865
1640000000.0 -0.08481614426951553 0.0011290906233182522
1660000000.0 0.03270890454529309 0.04796762199249836
1680000000.0 0.007121110321458987 -0.032823018193028596
1700000000.0 0.01661221840311365 0.003656555301575375
1720000000.0 -0.002667176094904425 -0.0008853388442463661
1740000000.0 -0.011984903699391683 -0.01809767796836509
1760000000.0 0.016539634091500433 -0.03557164832094497
1780000000.0 0.03791879258278329 -0.05560213683885845
1800000000.0 -0.09203436361471465 0.04107317931220437
1820000000.0 0.08325167995909649 0.10241136520749516
1840000000.0 0.07834539746700253 -0.14947762001356965
1860000000.0 0.06888734804429465 0.1966681965676338
1880000000.0 -0.02371147823126267 -0.24535076990302565
1900000000.0 0.11162585522471899 0.26538664384540694
1920000000.0 -0.28063760504911195 -0.15128917278818305
1940000000.0 0.07674620425392048 0.3366015169402486
1960000000.0 0.32891990886658495 -0.16585758027072717
1980000000.0 0.04463803399763617 -0.38275481393566924
2000000000.0 -0.0622325564269135 -0.3998503492043169
2020000000.0 -0.35257219054834676 -0.2309775129644426
2040000000.0 -0.3929692843468203 0.1879752465374463
2060000000.0 0.16913984443513658 0.4083483605473979
2080000000.0 0.42920971471844677 -0.11182763022393635
2100000000.0 -0.11361288600341363 -0.4222410251515325
2120000000.0 -0.41623878874854386 -0.09420845008967213
2140000000.0 -0.25046278476655853 0.3253297751740943
2160000000.0 -0.3851897578766245 -0.07701362311287804
2180000000.0 -0.3718788198907848 0.04576975491637332
2200000000.0 -0.34606928430562045 0.09961147355994622
2220000000.0 -0.3262002679963734 0.12934712526211842
2240000000.0 -0.23858083013841183 0.2540697412677893
2260000000.0 -0.13276141343657882 0.32600736396420554
2280000000.0 0.19778329164960834 0.29710780942501525
2300000000.0 0.3440707098845484 -0.14335797422262833
2320000000.0 -0.174282611290522 -0.3556868088732164
2340000000.0 -0.28874573174951046 0.3163510009053153
2360000000.0 0.43117219055099265 -0.1803778544189018
2380000000.0 -0.5083712900555718 0.07817099723253465
2400000000.0 0.525912623817603 -0.20445695938021002
2420000000.0 -0.33490203794951146 0.5149710927526625
2440000000.0 -0.13022539178070808 -0.6471258800937508
2460000000.0 0.5835021937223509 0.3824637295021542
2480000000.0 -0.7244886729165293 -0.05264710225092526
2500000000.0 0.7441634942462477 0.012929964209447569
2520000000.0 -0.7396479088960095 -0.14306620721716803
2540000000.0 0.571649652700415 0.49241416463930093
2560000000.0 -0.07069632951402348 -0.7438211852667223
2580000000.0 -0.5526324742920103 0.4796722015005929
2600000000.0 0.6962487068015427 0.13044726719341032
2620000000.0 -0.33458328080243865 -0.589677905372806
2640000000.0 -0.5187743934421025 -0.37659073885098915
2660000000.0 -0.018901719361840968 0.5952612437980082
2680000000.0 0.4835643120680035 -0.2615447035654157
2700000000.0 -0.44993346285345903 -0.2244085023528588
2720000000.0 0.10890619711998943 0.44345738231112386
2740000000.0 0.2806987820666302 -0.30475281609185273
2760000000.0 -0.377465017176972 0.00702957144310605
2780000000.0 0.3468827365714354 -0.020260443870667964
2800000000.0 -0.3216878729260661 0.03838775488902619
2820000000.0 0.1702475238788475 -0.2560068011212341
2840000000.0 0.13315059767753004 0.2663087511960562
2860000000.0 -0.2925915349157727 0.010671397095893728
2880000000.0 0.0954025824568226 -0.2748637239955805
2900000000.0 0.0921195305077157 0.2753702902661154
2920000000.0 0.10191624648842468 -0.27423421801999204
2940000000.0 -0.2791444873008117 0.09909864215858007
2960000000.0 -0.0693090726630276 0.2895857944745721
2980000000.0 -0.03374282531182268 0.29912033445745856
3000000000.0 -0.2948576253200698 0.06363415088642106
3020000000.0 -0.13990962948331498 -0.27041016748883556
3040000000.0 0.30238078567116305 -0.011373783522151345
3060000000.0 -0.2543598910493939 0.16458300108486157
3080000000.0 0.19995564403691932 -0.22445254275785056
3100000000.0 -0.045096803801969884 0.29298467764929964
3120000000.0 -0.10445221832710617 -0.27056299587907695
3140000000.0 0.27467212564303856 0.05574852654032574
3160000000.0 -0.16260077495943592 0.21026789530211729
3180000000.0 0.24464372056890732 -0.046877838317907844
3200000000.0 0.06350255162276325 0.21627773406153508
3220000000.0 -0.18852334405984766 0.06021917992556482
3240000000.0 0.008834664139488052 -0.166201034244601
3260000000.0 -0.04859194090553606 0.12417816615796237
3280000000.0 0.10060901008986045 -0.01275380374342518
3300000000.0 0.0729268251189179 -0.012801025125288603
3320000000.0 0.0013673326371165203 0.050459783438359246
3340000000.0 -0.01463854488504662 -0.026577591358673158
3360000000.0 -0.0022979332833731264 -0.01368201971566253
3380000000.0 -0.00026008460679698733 0.00404741885453979
3400000000.0 -0.01802175044458003 -0.00518775180912424
3420000000.0 0.035048982335286825 0.005693178787532229
3440000000.0 0.03742382698627853 0.030965827090837214
3460000000.0 -0.030195353176480817 -0.048728657811927756
3480000000.0 -0.05849405524443853 0.0348358186715184
3500000000.0 0.0036962800561352867 0.07893103319507383
3520000000.0 0.07510165984424423 0.051817554402922066
3540000000.0 3.4141927729398338e-06 -0.10437105134658578
3560000000.0 -0.11448695396716 0.02377858244164182
3580000000.0 0.07258724240321582 0.1099851474799713
3600000000.0 -0.15360320959027304 0.01229484525312579
3620000000.0 -0.15079849998555941 -0.07227374095760132
3640000000.0 -0.1459763588826369 -0.10879726059201825
3660000000.0 -0.16908679491424683 -0.08924098875314969
3680000000.0 -0.190933603458034 -0.04832696735470895
3700000000.0 -0.1921067320539613 -0.02895425561895562
3720000000.0 -0.06346792671009838 -0.1811511836706154
3740000000.0 0.054491565675510514 -0.1751059325783632
3760000000.0 -0.16766459731544175 0.05053237883180466
3780000000.0 0.10876628747468045 0.1246641218501216
3800000000.0 0.12323216215776026 0.09712351342137533
3820000000.0 0.08987885933347692 0.1233832269263176
3840000000.0 -0.07791674600942515 0.12968410008112707
3860000000.0 -0.13341233199953056 0.07869154623958477
3880000000.0 0.05091845314433025 0.1531725339806383
3900000000.0 0.02331203780003631 -0.1617512805853813
3920000000.0 -0.13855625973381772 0.08959282777506662
3940000000.0 0.09647145424664764 -0.13698490037174993
3960000000.0 0.1135020883840846 0.12696873198326
3980000000.0 0.15142189378076085 0.0786208144930818
4000000000.0 0.11963661654804889 0.11042492361188566
