! Created with skrf (http://scikit-rf.org).
# Hz S RI R 50.0 
!freq ReS11 ImS11
400000000.0 0.22629295801212188 0.8412169284210006
420000000.0 0.6471881858237624 0.5652337702986087
440000000.0 0.7516601325024904 -0.3383798798713217
460000000.0 -0.08882694534935823 -0.7819334912801923
480000000.0 0.5190169051347793 -0.462402456235186
500000000.0 0.43861339864475746 0.3393599036320207
520000000.0 0.3594834482766195 0.34026599699875093
540000000.0 -0.3295039185791109 0.29215151168660136
560000000.0 0.20852436756715123 -0.3179176959122362
580000000.0 -0.270829422991953 0.23928360355810752
600000000.0 0.1354418276867828 -0.3364661239784521
620000000.0 0.14768377221893025 0.3438390249496599
640000000.0 0.21024348635802506 -0.33764441677751217
660000000.0 -0.1980777594909263 -0.35064347202244966
680000000.0 0.4021230952938574 0.08458328579732495
700000000.0 0.32074809191435655 -0.2734805552009982
720000000.0 0.11868200284946498 -0.4067427211327418
740000000.0 0.09495152654282038 0.4117991177709684
760000000.0 0.1025146619089008 -0.39734823253985335
780000000.0 0.3354917827158682 0.17648474479348988
800000000.0 -0.3428605348552485 -0.04671771635214947
820000000.0 -0.2340196859585742 -0.1722633195905285
840000000.0 -0.176030778216735 0.15706691087310976
860000000.0 0.15679139766781117 -0.12238610866659717
880000000.0 -0.12922589539905519 -0.05153431043255341
900000000.0 0.07971475404954671 0.014319418802923275
920000000.0 -0.04496732466972407 -0.03518127790412305
940000000.0 0.03190351357727607 -0.016138178901611223
960000000.0 -0.04045511437162287 0.008570365057018721
980000000.0 0.005459078231149346 0.061370893322199256
1000000000.0 0.03337096837889727 0.0760848548038656
1020000000.0 -0.04210806486474245 -0.10171746473348023
1040000000.0 -0.12026769126337956 -0.04346453277528063
1060000000.0 0.04218200035633058 0.15640752000830874
1080000000.0 0.13659841805129025 0.10559960190092056
1100000000.0 -0.005018504475646753 -0.18663305841290714
1120000000.0 -0.07148152845823014 -0.18658389044561197
1140000000.0 0.006198877793543011 -0.22738985932786926
1160000000.0 0.23644031940476135 0.11639382156696446
1180000000.0 -0.16016369663021393 0.26160253766722324
1200000000.0 -0.33412956772032615 0.07849970704371317
1220000000.0 0.1910324519409237 -0.32190068759875795
1240000000.0 -0.024426928167131313 0.39997261488487545
1260000000.0 0.13847096178467266 -0.40262280759898905
1280000000.0 -0.24765964983914865 0.3638525392239872
1300000000.0 0.44878609162959004 0.0012736041727056478
1320000000.0 -0.03422404691311705 -0.44342511320809974
1340000000.0 -0.0465763644687123 -0.4366527828160437
1360000000.0 0.10087885553001101 -0.4209375046166387
1380000000.0 -0.15480411344001094 -0.4039957802250574
1400000000.0 -0.41354133430645096 0.06424486485070392
1420000000.0 0.09628689660014438 0.3878975650871072
1440000000.0 0.3574282910632645 0.11135792520170644
1460000000.0 0.15088172111596085 -0.31095543924288893
1480000000.0 -0.22907263970294348 -0.21626659275978063
1500000000.0 -0.27208185789976425 0.08322394310422072
1520000000.0 -0.19554636081595417 0.1665071033612682
1540000000.0 0.0784709879728095 -0.21482694394702656
1560000000.0 0.17161744876449778 0.09472943169412995
1580000000.0 -0.10562171623490142 0.1323200512928636
1600000000.0 0.10416536747506379 0.093731257501519
1620000000.0 0.061812943819927815 0.09130854049237093
1640000000.0 -0.08393828472649753 0.021881113623970657
1660000000.0 -0.059487015389461176 0.025341629685472506
1680000000.0 0.026637870641104486 -0.035123935572563436
1700000000.0 0.02732288713170034 -0.007726838897895579
1720000000.0 -0.006448179743166108 0.006318602380097924
1740000000.0 0.0015479474823327077 -0.013704721110966534
1760000000.0 0.011972568775601794 0.033779029725280095
1780000000.0 0.04975203899619136 -0.05106951905783044
1800000000.0 -0.00015354285473317711 0.10998936722909014
1820000000.0 0.028888747397903647 0.1419729951243794
1840000000.0 -0.10931936707056224 0.1442421518179492
1860000000.0 -0.1678202172057163 -0.12950037261382685
1880000000.0 0.05480290894581216 0.23524365152321317
1900000000.0 0.2436569162018032 -0.1261951826179954
1920000000.0 -0.1646522972953607 -0.25624412941363806
1940000000.0 -0.33317598972353857 -0.04525949139488595
1960000000.0 -0.09546932293758573 0.3545380327428675
1980000000.0 0.3823138899882444 0.08803009842644062
2000000000.0 0.22358077208082835 -0.35060602142322245
2020000000.0 -0.43102692855039865 -0.03523617516304172
2040000000.0 -0.10765915622114938 0.4272897351936553
2060000000.0 0.43857842279558495 -0.04861925070578929
2080000000.0 0.03954889355915412 -0.43277937532079364
2100000000.0 -0.2039965682433587 -0.3731355130226002
2120000000.0 -0.32408751835634336 -0.2568878955012226
2140000000.0 -0.3995333645014053 -0.022586537108825168
2160000000.0 -0.048557848524607455 -0.38191454630771593
2180000000.0 -0.1220371355294768 -0.348151958015004
2200000000.0 -0.19962597454461634 -0.2957466035392936
2220000000.0 -0.2956931008723476 -0.18515093416423486
2240000000.0 -0.3221102646493667 0.12913217626920045
2260000000.0 -0.08256090822158257 0.33726198420491704
2280000000.0 0.16296033502071874 0.31164152303596765
2300000000.0 0.2912622033265169 -0.21991744635818905
2320000000.0 -0.25560342493291494 -0.28937865750486413
2340000000.0 -0.2787699802419991 0.3071117337602629
2360000000.0 0.43854683249080983 0.11860344469029928
2380000000.0 -0.3462721817955182 -0.36249373179435646
2400000000.0 0.31329124112471224 0.4574623388568376
2420000000.0 -0.5404033748858422 -0.2800529677799533
2440000000.0 0.6406331966826077 -0.15381623562412708
2460000000.0 -0.34080968227738356 0.6107958437244142
2480000000.0 0.010627415153213804 -0.7306386736481766
2500000000.0 0.013547777538290767 0.751251812046826
2520000000.0 0.17167316305984204 -0.742776289014086
2540000000.0 -0.4330231480049507 0.6300551091424018
2560000000.0 0.7433437666354479 -0.15109504796769768
2580000000.0 -0.5480037246539985 -0.502611578879308
2600000000.0 -0.08763628649098477 0.714600410620272
2620000000.0 0.589068614872461 -0.3574675686290893
2640000000.0 0.2509615212702038 -0.6013945005072471
2660000000.0 -0.5846550291097184 0.16238456083994438
2680000000.0 0.4862845424453798 0.2752306600172048
2700000000.0 -0.0973845961514178 -0.5014865169026582
2720000000.0 -0.2677037758919982 0.376832981801215
2740000000.0 0.40241455330172193 -0.11679854689449075
2760000000.0 -0.3759039267664553 -0.06055311069896656
2780000000.0 0.3419429899038494 -0.07988267781316913
2800000000.0 -0.22540308522723704 0.2365568936329007
2820000000.0 -0.10230977392258679 -0.29205304000312715
2840000000.0 0.2975473766182442 0.00403208307761973
2860000000.0 -0.17027763674261476 0.23985534864212954
2880000000.0 -0.08391829304491949 -0.2813233120349084
2900000000.0 0.1363628898374334 0.26230747835645246
2920000000.0 0.12806168055609715 -0.27070674142865386
2940000000.0 -0.30629244181709225 -0.011466921336374346
2960000000.0 -0.18031073773179507 0.2514557445858698
2980000000.0 -0.23410464510773818 0.20932257757896827
3000000000.0 -0.3128086696998991 0.04619827330780035
3020000000.0 -0.14023921303968753 -0.28319765994635493
3040000000.0 0.31316778724358063 -0.0006014727530358664
3060000000.0 -0.28297767343747104 0.12699399689764002
3080000000.0 0.26238701400712333 -0.15525043857467663
3100000000.0 -0.20558540528078467 0.2179496659957519
3120000000.0 0.18526948105194718 -0.22620746214037177
3140000000.0 -0.05696411740138592 0.2764130727240049
3160000000.0 -0.10330408059046495 -0.2471928667711299
3180000000.0 -0.1360981772033584 0.2117766724536296
3200000000.0 -0.173384809325836 -0.14965338257962607
3220000000.0 0.0923482914133872 -0.17984157260473888
3240000000.0 0.14957950141489829 0.08449779112778631
3260000000.0 -0.13726872373777677 0.0028894856819485664
3280000000.0 0.0994560960921984 -0.03215921424362185
3300000000.0 -0.055833027470573844 -0.04950878706757417
3320000000.0 -0.02238013441697851 0.04018853480267474
3340000000.0 -0.013058321785180117 -0.0179306594965493
3360000000.0 0.0019399735597789966 0.003700319278842042
3380000000.0 -0.010077446499128862 -0.00241169281836665
3400000000.0 0.005328878569261626 0.020847335152208653
3420000000.0 0.02707953972241547 -0.02051048827858329
3440000000.0 0.004908161957850924 -0.0457325304135554
3460000000.0 0.052926049130616444 0.014070233800320122
3480000000.0 -0.03392750288115487 0.05904505162381285
3500000000.0 0.08178580593346862 -0.013371871624638836
3520000000.0 -0.09229818091282668 -0.03536402837831412
3540000000.0 0.04514570077368667 -0.10366740320147717
3560000000.0 0.08869641703947516 0.08822195467563933
3580000000.0 -0.07394737878366987 -0.11482319912836281
3600000000.0 0.15087839549156135 0.026398472775332464
3620000000.0 0.029655831156795816 0.16272781372089562
3640000000.0 -0.17581663451008905 -0.019193457587028135
3660000000.0 -0.13916847011299555 -0.12629328745556712
3680000000.0 0.007541060524899923 -0.19324121112064607
3700000000.0 0.024192391803966696 -0.193265976441016
3720000000.0 0.14227358492138428 -0.13240536888345567
3740000000.0 0.1377714703295523 -0.1305971589630757
3760000000.0 -0.056184512334330236 0.17314988092718755
3780000000.0 0.049867797678706825 -0.1638989943352343
3800000000.0 -0.13250807716064167 -0.08888267593480073
3820000000.0 -0.11094315212284078 -0.10230403379159755
3840000000.0 0.11534118210224155 -0.08953041696170402
3860000000.0 -0.048492828852486625 0.1404794120867453
3880000000.0 0.04421337656189004 0.1499781695501307
3900000000.0 0.13016747710131374 -0.09409803605651958
3920000000.0 -0.1621262330320612 0.034890910237834104
3940000000.0 0.07083631148068385 -0.1544559987777745
3960000000.0 0.17254679510926338 0.0066672452826403005
3980000000.0 0.07681969996763346 -0.15450810030709278
4000000000.0 0.03535433769562005 -0.16189275427034694
