! Created with skrf (http://scikit-rf.org).
# Hz S RI R 50.0 
!freq ReS11 ImS11
400000000.0 0.2148196080644342 0.845628301989044
420000000.0 0.6383001886775318 0.5750931283505651
440000000.0 0.7510834482024692 -0.3406407487054188
460000000.0 -0.1015258163352439 -0.7805657843188916
480000000.0 0.5332465876823201 -0.4455717874900984
500000000.0 0.4377303037012794 0.3420947759433986
520000000.0 0.3426997422165441 0.3551407759576071
540000000.0 -0.31673700128415166 0.30529092651655176
560000000.0 0.22068865207983537 -0.31087628035303166
580000000.0 -0.31028097127828297 0.18504235508872127
600000000.0 0.1449119796241688 -0.33293482616983755
620000000.0 0.0873264507625527 0.36491864698411136
640000000.0 0.1837876302899103 -0.3522532101672773
660000000.0 -0.23280003158725698 -0.3296586936179081
680000000.0 0.38395372937320227 0.14390936568743642
700000000.0 0.23501008096652998 -0.34959906459036955
720000000.0 0.1676284567252423 -0.3889926917238333
740000000.0 0.09978894528799662 0.4115502211728541
760000000.0 0.10893518362654407 -0.3954480762792737
780000000.0 0.34997138146250006 0.14374755916954624
800000000.0 -0.334961776245992 -0.08549491475227458
820000000.0 -0.20349861132324193 -0.20741784150868708
840000000.0 -0.1909000139065168 0.139273188108476
860000000.0 0.16471847212693977 -0.11176748574793278
880000000.0 -0.13463590176278423 -0.03829751171656174
900000000.0 0.08058095136019655 -0.00976582987926311
920000000.0 -0.03203107018022102 -0.04827243585796044
940000000.0 0.028337559887609644 -0.023722380861723843
960000000.0 -0.04067269432682884 -0.006607028929741724
980000000.0 0.011583871388573436 0.06102813891427929
1000000000.0 0.061754680492538024 0.056882830223107826
1020000000.0 -0.08933984445232583 -0.06455931504220451
1040000000.0 -0.12784791536521262 0.005709585144795132
1060000000.0 0.1026336052689067 0.1245894734540011
1080000000.0 0.14916874606819297 0.08573173817073841
1100000000.0 -0.016510346774150874 -0.18508115237436226
1120000000.0 -0.05342915632708879 -0.19219133658432855
1140000000.0 0.048302331852146906 -0.2221499868059447
1160000000.0 0.1988083736363628 0.17255609827840723
1180000000.0 -0.20087185419757583 0.2324621393495843
1200000000.0 -0.34177126064220176 0.03792754575724072
1220000000.0 0.20040134401772938 -0.31679840385227814
1240000000.0 -0.03080508083158019 0.39979628866042516
1260000000.0 0.12249032072555571 -0.40779419718781146
1280000000.0 -0.24811407156702905 0.3632259932248369
1300000000.0 0.44817593176784665 0.01310510026734168
1320000000.0 -0.04595218814739987 -0.4421875930611555
1340000000.0 -0.03727550130470022 -0.43695420370783933
1360000000.0 0.09877638419947964 -0.4212409160600712
1380000000.0 -0.13911687065892506 -0.4096117424127441
1400000000.0 -0.41251332674168184 0.07177196859684846
1420000000.0 0.08295859649560776 0.39094878659578713
1440000000.0 0.35948481384148046 0.10495358486092744
1460000000.0 0.1552242060913029 -0.3087614485891374
1480000000.0 -0.21570088834043089 -0.22953555533951334
1500000000.0 -0.27767694720729164 0.06255996332197171
1520000000.0 -0.2157152524168394 0.13961619398445588
1540000000.0 0.08372477465456402 -0.21293899436653135
1560000000.0 0.15225883899246948 0.12324656881710318
1580000000.0 -0.11297199806045674 0.12609570903881587
1600000000.0 0.08422952602109637 0.11221216156375075
1620000000.0 0.03228312180017618 0.10529639098422078
1640000000.0 -0.08206922046729588 0.029484510877572465
1660000000.0 -0.05379508688215394 0.03639440989449263
1680000000.0 0.016640235033581655 -0.04116616050778885
1700000000.0 -0.01537599582821015 -0.024685805877986248
1720000000.0 -0.0022222984916749956 -0.009594091041513335
1740000000.0 0.010145250867277283 0.00966590292856178
1760000000.0 0.026941459305886345 0.024658001317251432
1780000000.0 0.050599360772474344 -0.05083958332345549
1800000000.0 0.02107808761794177 0.1084396984569677
1820000000.0 0.0533224207203835 0.13475522768901652
1840000000.0 -0.08102792122870495 0.16190911664688712
1860000000.0 -0.18218646096459745 -0.10756442552537843
1880000000.0 0.06895795228572422 0.23098692998044734
1900000000.0 0.24592956715951178 -0.1203559135173672
1920000000.0 -0.14763789750701903 -0.26580024016880094
1940000000.0 -0.3286298081949731 -0.07119662335553006
1960000000.0 -0.11853760218155723 0.34772296581859213
1980000000.0 0.38241343603132477 0.08879875834809754
2000000000.0 0.2265227358033674 -0.3490760527578108
2020000000.0 -0.4273232722476605 -0.06840165638329652
2040000000.0 -0.06550218973746694 0.43563340233089115
2060000000.0 0.4387190255028871 -0.04769135320765919
2080000000.0 0.0725088690008807 -0.428475722586977
2100000000.0 -0.16893508323990702 -0.39027726383460887
2120000000.0 -0.308299829298486 -0.2756253052559927
2140000000.0 -0.3981889036912818 -0.04195387172478959
2160000000.0 -0.03408673144873908 -0.38334205612177985
2180000000.0 -0.11951338874721436 -0.34885801999841615
2200000000.0 -0.19121869152075355 -0.3008409558356044
2220000000.0 -0.27393372051711967 -0.21545756965575225
2240000000.0 -0.32788604657868503 0.1124773320451962
2260000000.0 -0.10006571789894875 0.3325677511303011
2280000000.0 0.16041060833783846 0.31309638328699585
2300000000.0 0.2905533868280232 -0.22125597081489223
2320000000.0 -0.25241844653159684 -0.29175892559537636
2340000000.0 -0.28299337165115895 0.30273701907002126
2360000000.0 0.432699033751089 0.13643389424156163
2380000000.0 -0.34272980887231724 -0.36542865761071075
2400000000.0 0.2906344159250097 0.4719202273969978
2420000000.0 -0.5222730161004041 -0.3126370859594257
2440000000.0 0.6462951742080499 -0.12884660546124366
2460000000.0 -0.3759036721525635 0.5901391870754432
2480000000.0 0.014441984818509982 -0.7306542758000195
2500000000.0 -0.020239828095025843 0.7511952388951273
2520000000.0 0.13033864771899822 -0.7513108237152917
2540000000.0 -0.49639825167299173 0.5823147513470281
2560000000.0 0.7498631649591817 -0.11668383802798502
2580000000.0 -0.5053517182386038 -0.5462437629258456
2600000000.0 -0.1353965715389673 0.7074077578533379
2620000000.0 0.5701951576435017 -0.38856288839694664
2640000000.0 0.32597368230258755 -0.5645999894135699
2660000000.0 -0.5936495863960987 0.12666221559436722
2680000000.0 0.4641149480214628 0.31171068886852826
2700000000.0 -0.08504838669975986 -0.5040847496645873
2720000000.0 -0.2798896735394062 0.36832109904447974
2740000000.0 0.39738010761049336 -0.13489366472812755
2760000000.0 -0.37937958119054266 -0.03864502438227618
2780000000.0 0.3387971000963527 -0.09387031231263847
2800000000.0 -0.22532412320045644 0.23706771744798077
2820000000.0 -0.11360806676933624 -0.2882552247329848
2840000000.0 0.2978029980264533 0.002985378794302881
2860000000.0 -0.15559426243293517 0.24965210495242965
2880000000.0 -0.08050776585841839 -0.28250295211671067
2900000000.0 0.13412475144424585 0.2635550241161791
2920000000.0 0.1530575598709074 -0.257758753659745
2940000000.0 -0.30605588697328046 -0.019861411343576156
2960000000.0 -0.2010012276932132 0.23544127748251562
2980000000.0 -0.23408688543959186 0.2097307555184594
3000000000.0 -0.31541323565103024 0.020891492233652473
3020000000.0 -0.09199373522572231 -0.30245119078951216
3040000000.0 0.31330027808292343 0.0017477368529215914
3060000000.0 -0.28819394281391986 0.11430378586816502
3080000000.0 0.25820268357088033 -0.16182683607281048
3100000000.0 -0.24417032791061172 0.173141408462713
3120000000.0 0.1604951191765884 -0.24458090249658804
3140000000.0 -0.04035142171587254 0.2793222630356632
3160000000.0 -0.10955903458058226 -0.24453975888159288
3180000000.0 -0.130033465848693 0.2154627137794359
3200000000.0 -0.1852840136847787 -0.13451632698932958
3220000000.0 0.09243860936888053 -0.1797503801325284
3240000000.0 0.15746446605560743 0.06829775055041971
3260000000.0 -0.13571110795368743 0.021192737055336166
3280000000.0 0.09000011946569614 -0.053088866607211516
3300000000.0 -0.06911872123516427 -0.028864960828381248
3320000000.0 -0.009277265045803246 0.04544716452612427
3340000000.0 -0.019963081947576997 0.010245719409310336
3360000000.0 0.001601990752086972 -0.003938937019344664
3380000000.0 -0.008004588982866854 -0.00627791817153559
3400000000.0 0.00029780459964391984 0.02144252701964136
3420000000.0 0.01529212991706415 -0.030302031106693186
3440000000.0 0.01946468023546689 -0.041214935549961904
3460000000.0 0.05258415657640667 0.015537921169202521
3480000000.0 -0.0347374027325511 0.05837712714481482
3500000000.0 0.08261880122659915 -0.0027418883461313394
3520000000.0 -0.09732552988855644 0.019230385713225856
3540000000.0 0.04471106342738744 -0.10364829845519526
3560000000.0 0.09732871963558866 0.07840505031757371
3580000000.0 -0.057513466411936644 -0.12324891892893941
3600000000.0 0.15276863572795862 0.011266579124285036
3620000000.0 0.03146905370686966 0.16221210597683516
3640000000.0 -0.17578920777683008 -0.017386834091961012
3660000000.0 -0.1402148237099805 -0.12466418180451407
3680000000.0 -0.007550406143536041 -0.19324598665165874
3700000000.0 0.017301813044816813 -0.19382891184718085
3720000000.0 0.13430550927296775 -0.14092621231346747
3740000000.0 0.1332908899883164 -0.135299755917886
3760000000.0 -0.05682819701541637 0.172980521891465
3780000000.0 0.03681180787209331 -0.16705778164236432
3800000000.0 -0.1302573035080506 -0.09228685855275287
3820000000.0 -0.10463217819300695 -0.10944497749984881
3840000000.0 0.12034479567620801 -0.08327641293256707
3860000000.0 -0.046452985443670526 0.14126592887396097
3880000000.0 0.054540980526933375 0.14663523611001733
3900000000.0 0.12276138573378498 -0.10379306190095043
3920000000.0 -0.15964045070358548 0.04428547826032261
3940000000.0 0.06306278676563999 -0.1575922315332317
3960000000.0 0.17233842538838448 -0.006988707011970195
3980000000.0 0.0701840099622153 -0.15768672949710127
4000000000.0 0.022091429136852914 -0.16456063289146375
