! Created with skrf (http://scikit-rf.org).
# Hz S RI R 50.0 
!freq ReS11 ImS11
400000000.0 -0.8600045362166747 0.06891401317976774
420000000.0 -0.021241900393136774 0.865189674917831
440000000.0 0.8376829386324682 0.054001887272416386
460000000.0 0.6028149352619383 -0.5121862590239846
480000000.0 0.7288032842351163 0.08700349644604953
500000000.0 -0.5806033882240454 -0.023217343921255178
520000000.0 -0.3624908857494349 0.3410542532297225
540000000.0 -0.41271341422591096 -0.06625470530774157
560000000.0 -0.1091150889859143 0.3524572970524905
580000000.0 -0.28926824273718454 -0.1394560342380445
600000000.0 -0.31893904992279876 0.07535145362125138
620000000.0 -0.13630846360489832 -0.2997557021654461
640000000.0 -0.026627931435605875 0.3435996905351446
660000000.0 -0.042256699103025895 0.37435603387177097
680000000.0 -0.08044107617260221 -0.3892621397158689
700000000.0 -0.4034145818258815 0.15469855049527886
720000000.0 0.03652555317885005 0.4342979835948606
740000000.0 -0.41872051234516344 0.1631575221249946
760000000.0 -0.0007801889419264271 -0.4292319643789479
780000000.0 0.2592168780444463 0.29795893344731983
800000000.0 -0.32936451747389994 0.143264755720094
820000000.0 -0.2607474272992158 -0.1477286921306094
840000000.0 0.24291840302814421 0.06608633158147542
860000000.0 0.05873020200823212 0.18809778779620817
880000000.0 -0.05747848451177478 -0.1459625411847114
900000000.0 -0.011812396146195015 -0.0812531259832707
920000000.0 0.014847845210613107 -0.043759306238141
940000000.0 0.039508798875857794 0.021757231391671517
960000000.0 0.02606417136246268 0.047104482391805896
980000000.0 0.046353506727328034 -0.04494892781880946
1000000000.0 -0.06701269795833856 -0.026255712511946177
1020000000.0 0.05252110837145214 0.05984396757974872
1040000000.0 0.0425903655638812 0.08245454335464249
1060000000.0 -0.004600642831012482 -0.12271635553953752
1080000000.0 -0.14575417253331804 0.0006718086640082228
1100000000.0 -0.029343327439712633 0.16727422636664627
1120000000.0 0.0379461479516057 0.1975606678316807
1140000000.0 -0.242168822064291 -0.010320416249169101
1160000000.0 -0.25152562844093923 0.12465038957471421
1180000000.0 0.13985497442735814 0.2913442124304672
1200000000.0 -0.20016379834926143 0.29037078847223097
1220000000.0 -0.3390842406168685 -0.1832456937044288
1240000000.0 0.3478072272930168 0.20683123909548917
1260000000.0 -0.39467830238240326 -0.1763820549916926
1280000000.0 0.34637661205564757 0.26700201681388447
1300000000.0 0.19622421132534737 -0.3973597485262042
1320000000.0 -0.304613179931769 -0.30930852447730767
1340000000.0 0.1479512777764915 -0.40528478868458456
1360000000.0 0.28493048928523634 -0.32119897998781527
1380000000.0 0.1941223031728003 -0.38564346685916
1400000000.0 -0.41903720218866675 -0.018232747887591758
1420000000.0 -0.10292915431719105 0.3887923633033124
1440000000.0 0.37413438814468325 -0.035877913097194035
1460000000.0 0.2840635830215121 -0.19398639653012345
1480000000.0 -0.15335840008675927 -0.27627805874009403
1500000000.0 -0.2587277933333084 -0.12556369816336244
1520000000.0 -0.24915060239207307 0.07470722594321683
1540000000.0 0.1053145827749936 -0.20998638894578658
1560000000.0 0.20250261277119913 -0.008537282440719194
1580000000.0 0.1323297157691234 0.11225309845861618
1600000000.0 -0.07778022702789165 -0.12115257227252886
1620000000.0 -0.09786522455838907 0.049172121122839654
1640000000.0 -0.053975783567525394 -0.06443911949179845
1660000000.0 -0.012156942974886856 0.05676845293506487
1680000000.0 0.0341223356269655 -0.004539520319007581
1700000000.0 -0.014779458642413007 0.00942536828437907
1720000000.0 0.0006758788463975148 -0.0016659466862207427
1740000000.0 0.01906153545697185 0.003162018371236096
1760000000.0 0.0367515859871934 0.006312998529504229
1780000000.0 0.06433851000092497 -0.016650505924167985
1800000000.0 -0.09902506232804739 -0.018701110584329765
1820000000.0 0.07952667160580237 0.107471065262895
1840000000.0 0.029652802982878246 -0.1682832996668654
1860000000.0 0.13460318857405326 0.16016950394134127
1880000000.0 -0.13926121053172788 -0.20331706301689834
1900000000.0 0.19313405824308824 0.21348013236305213
1920000000.0 -0.3024251876676944 -0.0994470596641457
1940000000.0 0.09678184449911417 0.331080209357387
1960000000.0 0.33788103132807384 -0.14667611633900599
1980000000.0 0.09339442093146211 -0.37432699071185965
2000000000.0 -0.026259925157186576 -0.4042241430970441
2020000000.0 -0.35643556792875597 -0.22465526814369283
2040000000.0 -0.3979797867344482 0.17640453588724364
2060000000.0 0.1284900837064983 0.42267587834281395
2080000000.0 0.4422860531246988 -0.025792933005484076
2100000000.0 -0.046857521643151795 -0.434312679777568
2120000000.0 -0.410003007660078 -0.11551771039968352
2140000000.0 -0.2653549074653361 0.3122853784617599
2160000000.0 -0.3921932743150396 -0.011848934649831564
2180000000.0 -0.358796936889684 0.10482407970287991
2200000000.0 -0.3220448814000984 0.15774867092244438
2220000000.0 -0.3012379036953632 0.17693604579843386
2240000000.0 -0.2020782355852898 0.28129706763427614
2260000000.0 -0.07980465140760064 0.3409858161339363
2280000000.0 0.24749814882136606 0.2560299184593391
2300000000.0 0.30347976563464646 -0.21587166386695567
2320000000.0 -0.25258957848272795 -0.30582937250901254
2340000000.0 -0.22244738954611057 0.3666030129099061
2360000000.0 0.39154677994315457 -0.256816120809309
2380000000.0 -0.4898202982548796 0.158651691091089
2400000000.0 0.49596612552690456 -0.2699670556417905
2420000000.0 -0.3058507624888837 0.5331220151077168
2440000000.0 -0.2189020599226795 -0.6225442533718433
2460000000.0 0.5977249760723712 0.35849910677087127
2480000000.0 -0.7246605580142436 0.016458025605120503
2500000000.0 0.7415657893681754 -0.044998713530518264
2520000000.0 -0.7460350427054757 -0.09192426372652093
2540000000.0 0.6264775836651639 0.4170553812184267
2560000000.0 -0.1735570007753787 -0.7256835040575992
2580000000.0 -0.5155287830825538 0.5182712315627116
2600000000.0 0.7049181085424117 0.04147019920564022
2620000000.0 -0.41064626402634125 -0.5366801965342208
2640000000.0 -0.5676879575154606 -0.29172966376406667
2660000000.0 0.08787540060439067 0.5865998050410357
2680000000.0 0.42213440324723733 -0.34903344194994235
2700000000.0 -0.4670676772324934 -0.1819635866532582
2720000000.0 0.14251415923229152 0.43219758335285696
2740000000.0 0.2916654464611618 -0.2923076033924302
2760000000.0 -0.376758806615181 -0.005672780896697038
2780000000.0 0.3471489201432582 0.0022052782812595935
2800000000.0 -0.32018893753840505 0.04307770486115131
2820000000.0 0.1746950737175895 -0.2519979725591726
2840000000.0 0.14548950900326396 0.2582603028088229
2860000000.0 -0.2912912904270927 0.006567288186272761
2880000000.0 0.05422076521647987 -0.2841657653870184
2900000000.0 0.12793017361934525 0.25853583166963034
2920000000.0 0.11206492274647928 -0.26912929179879247
2940000000.0 -0.28787525744857945 0.06739045258619002
2960000000.0 -0.1003477273266479 0.2796626147490477
2980000000.0 -0.02828118859957561 0.2992083002295078
3000000000.0 -0.2696280064508164 0.1372064059035839
3020000000.0 -0.21718321990481806 -0.21369377848398874
3040000000.0 0.30096585334166104 -0.035910544645626465
3060000000.0 -0.2366683625452657 0.18796776464633763
3080000000.0 0.20316043248864735 -0.22088072799338698
3100000000.0 -0.01998410149067739 0.2959870490264194
3120000000.0 -0.11155693359002754 -0.26700844752453906
3140000000.0 0.2764189724813041 0.05111638470897942
3160000000.0 -0.18482622198083629 0.1921637188090285
3180000000.0 0.24844452835013256 -0.01591321056768546
3200000000.0 -0.028682537534757305 0.22343885749171144
3220000000.0 -0.19586633972521553 -0.024265695786300025
3240000000.0 0.059906137258922014 -0.1551796109601091
3260000000.0 -0.07665712993416329 0.10859256998994939
3280000000.0 0.09738477977882096 0.02676631221742682
3300000000.0 0.06488976267868206 0.034533221653710894
3320000000.0 4.536145359325174e-06 0.04984187106615467
3340000000.0 0.015573881318160164 -0.02389214012666527
3360000000.0 0.006734314704357157 -0.00970264958764603
3380000000.0 -0.0009824863293368762 0.005564835087692176
3400000000.0 0.017238439775830332 0.010181301356990346
3420000000.0 0.008012008766612486 -0.03501140534749121
3440000000.0 0.04558124344023606 -0.017997134480474776
3460000000.0 -0.042258151794328305 -0.038544410929123966
3480000000.0 -0.06290996740907466 0.024263431927668166
3500000000.0 -0.01161712432667898 0.07783385305244594
3520000000.0 0.07268441934947259 0.05566804759606034
3540000000.0 0.06578476572663139 -0.08079727196210078
3560000000.0 -0.11685890528150276 -0.01437099429056174
3580000000.0 0.0618530919940053 0.11667236295839173
3600000000.0 -0.15275862810865862 -0.01832924489819696
3620000000.0 -0.1554534315896747 -0.06139108366468733
3640000000.0 -0.15621267421999877 -0.09156519348823469
3660000000.0 -0.1737357611619118 -0.08009936538761643
3680000000.0 -0.18815278149252132 -0.05682740501905492
3700000000.0 -0.18792367749254113 -0.050439403752532114
3720000000.0 -0.08345431700639004 -0.17293169064748112
3740000000.0 0.019373612907673022 -0.18214244202865904
3760000000.0 -0.1560429721726593 0.0786555548718425
3780000000.0 0.14762392626713963 0.07247735679108981
3800000000.0 0.152849319884261 0.03508883591764699
3820000000.0 0.14134832272753087 0.05937953271690537
3840000000.0 -0.026187037898685015 0.14917394987951424
3860000000.0 -0.10155594266926868 0.11687168876476385
3880000000.0 0.08867468368971948 0.1344739115319241
3900000000.0 0.018102045170574288 -0.16254824141703725
3920000000.0 -0.0759296289141816 0.14622269874807237
3940000000.0 0.006749008113666602 -0.16834542879442918
3960000000.0 0.16997782165575634 0.001724317047614436
3980000000.0 0.153645055158401 -0.07337340502655235
4000000000.0 0.1553237071728349 -0.04913624375705957
