! Created with skrf (http://scikit-rf.org).
# Hz S RI R 50.0 
!freq ReS11 ImS11
400000000.0 -0.859597587844338 0.05186660199619917
420000000.0 0.007963366716852306 0.8639190948758595
440000000.0 0.8378104060878179 0.005234944041110936
460000000.0 0.5646821065343479 -0.5526893953530851
480000000.0 0.7305111547757106 0.06739472286517992
500000000.0 -0.5765612311516859 -0.07056881534035571
520000000.0 -0.3984703504395475 0.29736602780456384
540000000.0 -0.40868864223509965 -0.08457683200656813
560000000.0 -0.118927976152748 0.34921789399056996
580000000.0 -0.2952249138802228 -0.12757013003980466
600000000.0 -0.3251448180522724 0.04863658953981716
620000000.0 -0.1602126651361288 -0.29011898574920625
640000000.0 -0.04767205877461335 0.3439512241889636
660000000.0 -0.1201186045433619 0.3604436447353176
680000000.0 -0.015523237450346403 -0.39878054770515214
700000000.0 -0.42324326182567856 0.09065164165590342
720000000.0 -0.047600127277604244 0.43305984359207017
740000000.0 -0.43812826523381165 0.10085681052329416
760000000.0 0.024515753305139183 -0.4274198612687169
780000000.0 0.25085035896454166 0.30292384088443264
800000000.0 -0.31806253846581767 0.16346405966704322
820000000.0 -0.2898731212601688 -0.0707985127749146
840000000.0 0.25011982703571506 -0.02381828361590774
860000000.0 0.12239729929668001 0.15522090463708918
880000000.0 -0.09163647995936297 -0.129321351939725
900000000.0 -0.0010582217206291256 -0.08385883235479188
920000000.0 0.04781216215082723 0.0054366433464074024
940000000.0 -0.04246370465038786 0.01537670325744676
960000000.0 -0.03854393254562636 0.035435478936158844
980000000.0 0.04989056802832315 -0.03804666176378618
1000000000.0 -0.06766964142091088 0.019624784930179863
1020000000.0 0.07868223764047437 -0.006709580643988459
1040000000.0 0.09281654574744747 0.0016972023642063024
1060000000.0 -0.09019539306985663 -0.08462135174083382
1080000000.0 -0.13261483149955497 0.06270123207915443
1100000000.0 0.047701827088821536 0.16444722605313905
1120000000.0 0.11240388646854924 0.16847537182217365
1140000000.0 -0.23946489850400798 0.047102525878664266
1160000000.0 -0.2618941520511403 0.1053946879758564
1180000000.0 0.06530050723170847 0.31694919642124125
1200000000.0 -0.274188737327597 0.22212763708584496
1220000000.0 -0.266421141837258 -0.27851875397311965
1240000000.0 0.27461120883845475 0.2971066837312816
1260000000.0 -0.3509694687570182 -0.2522988508342081
1280000000.0 0.30205572247488394 0.31613941924126926
1300000000.0 0.21160321626606254 -0.3894521880878826
1320000000.0 -0.3092617258570016 -0.30445643078802986
1340000000.0 0.1355692339431776 -0.40954177483552856
1360000000.0 0.2729925838298425 -0.3313788380638545
1380000000.0 0.1851426498217716 -0.39028541335644157
1400000000.0 -0.41951481815788655 -0.006896093783896721
1420000000.0 -0.07063623747318054 0.3962097117578902
1440000000.0 0.37061754229913035 -0.06361845140927685
1460000000.0 0.2650476607662109 -0.21894600582995444
1480000000.0 -0.11575588980396564 -0.2939779196187577
1500000000.0 -0.26485897171675515 -0.1118634851194937
1520000000.0 -0.2556673802708541 0.050104385349964815
1540000000.0 0.14226543663302735 -0.18865892694189848
1560000000.0 0.20017610114282602 0.038373587464378134
1580000000.0 0.1113437900569576 0.13477007199366775
1600000000.0 -0.07323179233695737 -0.12558952181020225
1620000000.0 -0.0959135076199869 0.055198261880623496
1640000000.0 -0.059286604857553896 -0.060141073651891024
1660000000.0 0.0014669281292018735 0.05789918663313745
1680000000.0 0.017088738395947666 -0.02872735868630513
1700000000.0 0.015137638476246848 0.007055380019819566
1720000000.0 0.0005907389029128731 0.0028889789609200228
1740000000.0 0.016594655706036902 0.013233644117222082
1760000000.0 0.03875084341191329 -0.0053494837675938395
1780000000.0 0.058659524024440544 -0.03270758981348019
1800000000.0 -0.09963671939206688 0.01149391722113694
1820000000.0 0.08268144737430613 0.10285230562145532
1840000000.0 0.05256622848398591 -0.1602080599481676
1860000000.0 0.09790016762194496 0.18376965122513098
1880000000.0 -0.05914428213433766 -0.23919496484348488
1900000000.0 0.1332637526756591 0.2548973747298954
1920000000.0 -0.28658649357302823 -0.1398085437714315
1940000000.0 0.08723020151018865 0.3341502631748534
1960000000.0 0.33141990301154245 -0.16137317860933714
1980000000.0 0.05408581178151011 -0.3819148093814068
2000000000.0 -0.06025952606798808 -0.4003731898257563
2020000000.0 -0.34909951693557506 -0.23660236387010594
2040000000.0 -0.40477130365861547 0.16183175326607027
2060000000.0 0.15008347221894305 0.4158525791889472
2080000000.0 0.4364638006325689 -0.07909822697587769
2100000000.0 -0.09760420981182619 -0.426005282734742
2120000000.0 -0.41670325763601407 -0.09122762676540055
2140000000.0 -0.2698097743416541 0.3091683068444606
2160000000.0 -0.3856216797586671 -0.07242179783818609
2180000000.0 -0.3712001511915053 0.04613058067435506
2200000000.0 -0.3497066136636894 0.08298491742402693
2220000000.0 -0.33134580484621085 0.11378242790968028
2240000000.0 -0.23401111884466988 0.25742278196371915
2260000000.0 -0.09912772950421578 0.33722047507057734
2280000000.0 0.21499129990362145 0.284026794326851
2300000000.0 0.3285336535966755 -0.17533662518998777
2320000000.0 -0.21607801539158122 -0.33190461490837864
2340000000.0 -0.24983597782558692 0.34807380609752103
2360000000.0 0.4233249984853424 -0.19836132032839368
2380000000.0 -0.5088548522838096 0.07592378624973502
2400000000.0 0.5205176956524408 -0.2187256767722047
2420000000.0 -0.31827598174770655 0.5256546986337624
2440000000.0 -0.1502995498267293 -0.6429875769083241
2460000000.0 0.5731279899312579 0.3980762156456781
2480000000.0 -0.7241025884277926 -0.05194407878850659
2500000000.0 0.7412072350293002 0.0678838968529876
2520000000.0 -0.7272679311486757 -0.19621702248976527
2540000000.0 0.5382344171701144 0.5278340329819279
2560000000.0 -0.04688437861995926 -0.74492334078083
2580000000.0 -0.6059011461169147 0.4091808502595319
2600000000.0 0.6853176089611291 0.17495894047833543
2620000000.0 -0.29438918376377754 -0.6091166349779786
2640000000.0 -0.4858566753646823 -0.416011136897938
2660000000.0 -0.026052252677138597 0.5937452785569535
2680000000.0 0.45805312769987594 -0.3020989621479777
2700000000.0 -0.4504127398926376 -0.22103127115479512
2720000000.0 0.1319317441408937 0.4360957626166321
2740000000.0 0.2703915022259474 -0.31288932132830544
2760000000.0 -0.3765766534573097 0.016603890061789448
2780000000.0 0.3450542111967002 -0.037676338757146655
2800000000.0 -0.3168974012142307 0.06559943748633847
2820000000.0 0.14929833535535877 -0.26889177731791314
2840000000.0 0.1735438730790064 0.24148865330301975
2860000000.0 -0.28588477426685743 0.06305527425848646
2880000000.0 0.09796858502655313 -0.2747814031150527
2900000000.0 0.07806562934769429 0.2802613881573558
2920000000.0 0.12265494596256885 -0.26624621627228895
2940000000.0 -0.2924625945155124 0.05059842095437426
2960000000.0 -0.1456338603767458 0.2603197677657791
2980000000.0 -0.10781457398114509 0.28102601446990133
3000000000.0 -0.3013396165152662 0.012628996081185439
3020000000.0 -0.10503621000157891 -0.28561271987218906
3040000000.0 0.29933730893460947 0.04243316003481238
3060000000.0 -0.2838378029002522 0.10507376942214154
3080000000.0 0.21639383979279292 -0.20763491713497031
3100000000.0 -0.1002959397070553 0.27803987378406675
3120000000.0 -0.06554559107465961 -0.281776040252481
3140000000.0 0.27592433578361486 0.04638203108650056
3160000000.0 -0.1710228760892066 0.20229933423186794
3180000000.0 0.24508381072582835 -0.03933430909083622
3200000000.0 0.05592152194660713 0.21774072753651502
3220000000.0 -0.18519351678233392 0.067046586142099
3240000000.0 -0.009748785253220022 -0.16532442135866965
3260000000.0 -0.017354699551941567 0.13144603812162675
3280000000.0 0.09233552671024416 -0.0407046720901729
3300000000.0 0.055656443616056636 -0.048418435786525264
3320000000.0 0.0431242130288904 0.02585634008514734
3340000000.0 -0.030035247743556856 0.004070089000534489
3360000000.0 -0.007274619342091071 0.011958556776091445
3380000000.0 -0.003984687217445498 -0.0029275756057017517
3400000000.0 0.017995246672060743 -0.005273388172897271
3420000000.0 0.002969252590548989 0.034927096202258465
3440000000.0 0.005163776623686576 0.0481450548046272
3460000000.0 -0.03357053105450414 -0.04688962372599994
3480000000.0 -0.06726244112819353 -0.006807329412340298
3500000000.0 -0.028154778334390177 0.07323313007420211
3520000000.0 0.04244132203701108 0.08003121496602614
3540000000.0 0.05776321753805972 -0.0859899133690814
3560000000.0 -0.11340975990353776 -0.024241750359491544
3580000000.0 0.056169564151057956 0.11885457188497461
3600000000.0 -0.1520527306641778 -0.018780912990781863
3620000000.0 -0.14789300224064209 -0.07681970552690978
3640000000.0 -0.13912571548232358 -0.1159855386719733
3660000000.0 -0.16890331166589573 -0.08834438994819274
3680000000.0 -0.18814381683511552 -0.05441628444880062
3700000000.0 -0.1910324965060259 -0.02930681321476521
3720000000.0 -0.07338525131082282 -0.17623617454124355
3740000000.0 0.032345922191980306 -0.1793736767416996
3760000000.0 -0.15615026730873138 0.07736481702157548
3780000000.0 0.13694936425022722 0.09069893154681545
3800000000.0 0.14032486331812855 0.06894432068400934
3820000000.0 0.11165809996014839 0.10384790237408406
3840000000.0 -0.04662088112296536 0.14362014191122183
3860000000.0 -0.1167829730899046 0.10105802986936328
3880000000.0 0.0849667644492253 0.1368410925900385
3900000000.0 -0.012888829964713076 -0.16293550835902648
3920000000.0 -0.1158140727780521 0.11684151827540187
3940000000.0 0.05715519423727686 -0.15692695641843524
3960000000.0 0.15075502797879534 0.07781125560082583
3980000000.0 0.16794876961552135 -0.024992286982287167
4000000000.0 0.16217197314621204 -0.008719088977245127
