! Created with skrf (http://scikit-rf.org).
# Hz S RI R 50.0 
!freq ReS11 ImS11
400000000.0 -0.8602546142672404 0.051650361038396056
420000000.0 -0.036819156314773234 0.8646011293712202
440000000.0 0.8342233997679287 0.09385107208782363
460000000.0 0.6008059780121809 -0.5148458586367487
480000000.0 0.7312789441503886 0.056725524204407664
500000000.0 -0.5802613384751723 -0.03009360115661354
520000000.0 -0.38044318157054613 0.32070021741398047
540000000.0 -0.40880358732385824 -0.0875289384011057
560000000.0 -0.12326879794185051 0.347766662758196
580000000.0 -0.2869352087055936 -0.14479061941621219
600000000.0 -0.32405788848552985 0.052123911623325955
620000000.0 -0.13380203356263012 -0.3011746757755632
640000000.0 -0.043795720699812093 0.3423576799719555
660000000.0 -0.024267182545698002 0.3761460822535324
680000000.0 -0.12590445598984493 -0.3769935420861568
700000000.0 -0.3907945443299719 0.18434591225288158
720000000.0 0.053791417865762046 0.43249900632446403
740000000.0 -0.4143602946254939 0.1734315625757481
760000000.0 -0.007159824663833001 -0.42881439268179167
780000000.0 0.25968483703020645 0.2964075875009484
800000000.0 -0.33164667853387964 0.13702640551541628
820000000.0 -0.2592767416981327 -0.14985493035901523
840000000.0 0.23319337478464672 0.09432474956444266
860000000.0 0.026788276409884796 0.1953883550592042
880000000.0 -0.0298753195252969 -0.15416495445096812
900000000.0 0.007346144016750644 -0.08182892469962023
920000000.0 0.02041044323608275 -0.041506445668261255
940000000.0 0.039258644062600524 0.02238441127171921
960000000.0 0.006281551113267378 0.05373156944163915
980000000.0 0.05829617032988281 -0.02819664962071026
1000000000.0 -0.05875785146503552 -0.04154507580293009
1020000000.0 0.04583388341009461 0.06551452322029783
1040000000.0 0.039652199320391594 0.08428395971618723
1060000000.0 -0.006670463768151368 -0.12298101507714305
1080000000.0 -0.1454192069343462 0.013706331463583353
1100000000.0 -0.017710020147948178 0.1693257981949459
1120000000.0 0.05737513833159663 0.19298573668756155
1140000000.0 -0.24192235157597095 0.012035339162227064
1160000000.0 -0.24404252428199394 0.13797813666557165
1180000000.0 0.1382604308616675 0.29132391242537825
1200000000.0 -0.20565740443217292 0.2856291010333289
1220000000.0 -0.3096646167282208 -0.2280520442840696
1240000000.0 0.3374341977264667 0.2227958859787453
1260000000.0 -0.3868909219759637 -0.1926022758089663
1280000000.0 0.33745951549402753 0.2782431434300055
1300000000.0 0.2330925775845006 -0.37699675977954794
1320000000.0 -0.30377556849630993 -0.31055957494141895
1340000000.0 0.145653283305111 -0.40628509413337416
1360000000.0 0.2852649066003078 -0.32125017332435907
1380000000.0 0.20430450296350539 -0.38060629663981255
1400000000.0 -0.4195712902209492 -0.005434699782849977
1420000000.0 -0.11211579089631755 0.38660563776586354
1440000000.0 0.37213410758324983 -0.05356691711944909
1460000000.0 0.27879286611029197 -0.20144305749985988
1480000000.0 -0.07508586098084633 -0.3071347545912182
1500000000.0 -0.2490847908802696 -0.1429636032325283
1520000000.0 -0.25705166894636977 0.03914359624703403
1540000000.0 0.12832124746763646 -0.19690977110096208
1560000000.0 0.20262772576240629 0.010713290023578204
1580000000.0 0.12314008932024244 0.12284164349376488
1600000000.0 -0.07277194984897394 -0.12472250480580256
1620000000.0 -0.09140766786539409 0.0609835344839251
1640000000.0 -0.06517257768390466 -0.05331115909038864
1660000000.0 0.016448240844250523 0.05605749864053947
1680000000.0 0.028464838452906007 -0.019239344259543538
1700000000.0 -0.016570154325333458 0.0029988842680905093
1720000000.0 -0.0008626924683689401 0.0023185749375128515
1740000000.0 0.01978431827486662 0.0036507539627076272
1760000000.0 0.03710164226444498 -0.007337748037558613
1780000000.0 0.05333234700560943 -0.040072674898272896
1800000000.0 -0.09701721734625501 0.028164034405953192
1820000000.0 0.10129557467039003 0.08650194116660587
1840000000.0 0.03333955751623536 -0.1668897377450056
1860000000.0 0.11117365222613514 0.17670111441975256
1880000000.0 -0.10720391020305486 -0.22179377337020964
1900000000.0 0.15953943702038909 0.2395514098064926
1920000000.0 -0.29390509397559306 -0.12293748973294996
1940000000.0 0.09279601274726502 0.33262154284619017
1960000000.0 0.3324820627789824 -0.1590817131555214
1980000000.0 0.0630065088204116 -0.3803410789720568
2000000000.0 -0.05768209570372361 -0.40038919631996067
2020000000.0 -0.34254212764401554 -0.24503926892027508
2040000000.0 -0.3994205994275775 0.17264037678151523
2060000000.0 0.11441181677796983 0.4267376423059083
2080000000.0 0.4432545044594326 -0.0007707637384127396
2100000000.0 -0.030738001931056563 -0.43593911540496333
2120000000.0 -0.39996175353074326 -0.14763172325036536
2140000000.0 -0.25403895211589805 -0.3214439328492208
2160000000.0 -0.39209865049001646 -0.017398355523189288
2180000000.0 -0.36726458210682855 0.07063204046989381
2200000000.0 -0.3310064505017191 0.1386359233354127
2220000000.0 -0.3159163701472769 0.15033963034461556
2240000000.0 -0.22202301354603257 0.26678600024776195
2260000000.0 -0.09642838533339461 0.3367705520315771
2280000000.0 0.21933853766387787 0.28006952914201116
2300000000.0 0.32233465166428144 -0.18531312187441346
2320000000.0 -0.2226566904843823 -0.32775471672925083
2340000000.0 -0.23942231814396908 0.3556705866145996
2360000000.0 0.4140684182186387 -0.21825267459488756
2380000000.0 -0.5047792265614046 0.10013663192070921
2400000000.0 0.510161528184599 -0.2420970089587905
2420000000.0 -0.3212540659950633 0.5236985423251009
2440000000.0 -0.188463174655445 -0.6324487603078902
2460000000.0 0.5849382132405395 0.3790349360528532
2480000000.0 -0.7247817863207362 -0.01986973271084385
2500000000.0 0.7388912227643001 0.0827283867965448
2520000000.0 -0.7258006015695516 -0.19714830878485107
2540000000.0 0.6077376308093161 0.444789782133469
2560000000.0 -0.12772712459260996 -0.7355670954748048
2580000000.0 -0.4964868707028051 0.5371623840003701
2600000000.0 0.7052097327735015 0.049078781258976203
2620000000.0 -0.36266325153654444 -0.5710081769677505
2640000000.0 -0.5699092236233234 -0.28891316571470993
2660000000.0 0.08237670811952835 0.5880970701745742
2680000000.0 0.444276166629015 -0.32154510966242933
2700000000.0 -0.4657042135027564 -0.18785064733031934
2720000000.0 0.14547415022923396 0.4321901716332618
2740000000.0 0.29880161573695063 -0.2861578431782391
2760000000.0 -0.37680184313105636 -0.020777122030955646
2780000000.0 0.3475407763451799 0.009260273035627174
2800000000.0 -0.3220436671067003 0.030763737305616146
2820000000.0 0.19995277453028099 -0.23303418863453176
2840000000.0 0.12515910664239743 0.26914667882344284
2860000000.0 -0.29128625634291355 6.608893107721669e-05
2880000000.0 0.08618472850945051 -0.276279791423552
2900000000.0 0.10227224610761718 0.27021285120178723
2920000000.0 0.06325971990435761 -0.2841933832995574
2940000000.0 -0.27979248837335996 0.09436974428336856
2960000000.0 -0.0987341870232795 0.28028891543580486
2980000000.0 -0.02755822487062972 0.29927555581478243
3000000000.0 -0.27107159375469364 0.13420032780045726
3020000000.0 -0.19303951378695955 -0.23567276667942572
3040000000.0 0.3027934605680542 -0.01029226879963254
3060000000.0 -0.22249653290420598 0.2048897371002747
3080000000.0 0.17545440033523121 -0.243146902118362
3100000000.0 0.0027216199064723987 0.29636972085509555
3120000000.0 -0.08934891095701157 -0.2751527853480766
3140000000.0 0.28029245456798 0.021270293612885825
3160000000.0 -0.16698241107533213 0.20741287120910434
3180000000.0 0.2464682221192897 -0.037418700333859946
3200000000.0 -0.0035106984448870834 0.22565107472032503
3220000000.0 -0.1976978188551172 0.013142930419639922
3240000000.0 0.046902605353607636 -0.16019230467277726
3260000000.0 -0.05510041474277504 0.12133190358352751
3280000000.0 0.09830190977902578 0.02565352188542736
3300000000.0 0.07377311409528352 0.0027134929446885167
3320000000.0 0.016632818342825487 0.04721277823171479
3340000000.0 0.025118057580507117 -0.014662054257114724
3360000000.0 0.0033465670930141866 0.011906506192144676
3380000000.0 0.005088250026616639 -0.0016484206350296988
3400000000.0 0.017151288075328303 0.00948303768387474
3420000000.0 0.006528611841336983 -0.034785720181722185
3440000000.0 0.04242150089350449 0.022775698091306418
3460000000.0 -0.043782047120370586 -0.03631237385161206
3480000000.0 -0.06574988942635272 0.012975046124571791
3500000000.0 -0.026509518642460882 0.07351932655626553
3520000000.0 0.06063042110225476 0.06786221241842323
3540000000.0 0.062010054579800106 -0.08323897888612578
3560000000.0 -0.11697755895872344 -0.009770459581754732
3580000000.0 0.04755795715418411 0.12258798919872435
3600000000.0 -0.14888383712048125 -0.03585551768382533
3620000000.0 -0.153991966240437 -0.06468055700123719
3640000000.0 -0.15996505044327386 -0.08493202444321148
3660000000.0 -0.17565474202639378 -0.07571664436714329
3680000000.0 -0.19064056355870862 -0.04683511637609777
3700000000.0 -0.19080971964142482 -0.03877610683932488
3720000000.0 -0.09208307322357458 -0.16819755867982364
3740000000.0 0.005819975300087607 -0.18315041699947482
3760000000.0 -0.145991632589372 0.09544867078302754
3780000000.0 0.15282314547610598 0.061011887634417054
3800000000.0 0.15098335561005366 0.04229336477777545
3820000000.0 0.13962829889092374 0.06312809724035967
3840000000.0 -0.03894909409507352 0.1462988292175462
3860000000.0 -0.10617577865871525 0.11259388580876885
3880000000.0 0.07134676388712786 0.14482559945141787
3900000000.0 0.018667082770405328 -0.16224505929586827
3920000000.0 -0.08198159694002267 0.14300402663528644
3940000000.0 -0.010385171328458951 -0.16761932509031185
3960000000.0 0.1703449473800916 0.002449136848141803
3980000000.0 0.14071214304650395 -0.09602386974028286
4000000000.0 0.1439933363697785 -0.07632443838840056
