! Created with skrf (http://scikit-rf.org).
# Hz S RI R 50.0 
!freq ReS11 ImS11
400000000.0 -0.6834658403257542 0.5143200688650452
420000000.0 -0.10358576721942203 0.8579511660830113
440000000.0 0.7993805111534752 0.24759534480728185
460000000.0 0.4494969344808409 -0.6622464796675799
480000000.0 0.6979305084219318 -0.23715369364061153
500000000.0 -0.308373489867617 0.49255132824699205
520000000.0 -0.2288807707955585 0.4268423426464541
540000000.0 0.30755409592878563 -0.28583618624711504
560000000.0 -0.29140641608971934 0.2063563782001605
580000000.0 0.20560237117349597 -0.25982485074827333
600000000.0 -0.22045318146129855 -0.24660812560968468
620000000.0 0.15741520089227182 0.3043622047635756
640000000.0 0.2008784332213349 0.3081878057586106
660000000.0 0.2576381645348088 0.28536078960020256
680000000.0 -0.3642740620992864 0.18231106885572454
700000000.0 0.03052926030184904 0.4224631239847108
720000000.0 0.3521375455531421 0.24724784557770568
740000000.0 -0.2828438750603765 0.32761921198377286
760000000.0 0.33631059290924004 -0.2501128895305311
780000000.0 0.3207423840598279 0.22010348680507263
800000000.0 -0.3525570201479125 0.03885467121380125
820000000.0 -0.29719565647488944 -0.035198817007528235
840000000.0 0.24289789760591277 0.029151274210566257
860000000.0 -0.1901077105715589 -0.048400747388643486
880000000.0 0.14777437531290788 0.04465524153836484
900000000.0 -0.04377477737088726 0.06982190207044434
920000000.0 0.048711316693717394 0.013404525428962463
940000000.0 -0.004683892565043764 -0.03201908254222125
960000000.0 -0.002513953493184059 -0.03921054345911371
980000000.0 -0.06047916613107695 0.0076039515285874285
1000000000.0 -0.06349795475786789 0.03585754360958239
1020000000.0 -0.09258496053784872 -0.02176945419013265
1040000000.0 -0.06281735974390411 -0.09023002342556306
1060000000.0 -0.1180032204859157 -0.09143933962046617
1080000000.0 -0.03316204241174945 -0.1619628670020737
1100000000.0 -0.1678398448336342 0.08272525398291428
1120000000.0 0.17817279336768366 0.10316252948979125
1140000000.0 0.16775593322204138 -0.16816555497955318
1160000000.0 0.25143467839225925 -0.09987472022614009
1180000000.0 0.28395455787265234 0.11389528038959491
1200000000.0 -0.08183147575284536 0.32838839523926605
1220000000.0 0.09754511614499349 -0.35672814222875987
1240000000.0 -0.09530703470718743 0.3878937822315646
1260000000.0 0.17000836202124858 -0.3913371757274767
1280000000.0 -0.1279303845827875 0.4258031793065722
1300000000.0 0.3590880599234948 -0.2717998326778878
1320000000.0 -0.3137703263250483 -0.3139710669654142
1340000000.0 -0.18058260676747145 -0.39701607223172913
1360000000.0 0.06641039394526178 -0.42602750612935397
1380000000.0 -0.008597096694020135 -0.4301853522836298
1400000000.0 -0.4178499406245344 -0.038407796549841125
1420000000.0 -0.08689913351703824 0.3937175617422486
1440000000.0 0.3756860140917364 0.018230084781493038
1460000000.0 0.1911137269486702 -0.2879446175378534
1480000000.0 -0.19771959496102143 -0.24693184217298011
1500000000.0 -0.2823675385357527 0.03654916942529837
1520000000.0 -0.2032145213828662 0.15934371817203138
1540000000.0 0.055760828230888126 -0.22411553605517917
1560000000.0 0.19848797655304895 0.015485391927418268
1580000000.0 0.0715830827734956 0.15538544677569494
1600000000.0 0.09293671543275031 -0.10367180399068333
1620000000.0 0.018373399473884586 -0.10526084554499433
1640000000.0 0.08163278008825924 -0.0061761896325631515
1660000000.0 0.054435909119248116 -0.014211264232537291
1680000000.0 -0.03409824487494238 -0.0006910755534649665
1700000000.0 -0.01795333838334567 -0.001324139211935355
1720000000.0 -0.0017282099454134794 0.001827816668851129
1740000000.0 -0.00568814428170563 0.01653270609031387
1760000000.0 0.02549649755223076 -0.024813658632137525
1780000000.0 0.06573302552434951 0.003065795668554173
1800000000.0 -0.07221917181291138 0.06732256808618409
1820000000.0 0.07234031652237853 0.10860150617618375
1840000000.0 -0.031485009821781165 -0.1654036165603486
1860000000.0 0.042866568674572184 0.20309659461286997
1880000000.0 -0.06038536698375547 -0.24034050301382606
1900000000.0 0.17509400299744263 0.22918603209192656
1920000000.0 -0.25331318067739855 -0.19998349455651057
1940000000.0 0.0616936286964905 0.34521948349118886
1960000000.0 0.3163617065056238 -0.2011663010538162
1980000000.0 -0.18110553725131512 -0.3485879206339221
2000000000.0 -0.35522958621840994 -0.2054676456923253
2020000000.0 -0.37549151888154886 0.20016277987160305
2040000000.0 -0.00023509176368546807 0.4356710157924312
2060000000.0 0.4332325628514963 0.07356306261013082
2080000000.0 0.2609925327106077 -0.3496184829679747
2100000000.0 -0.05165869311247734 -0.4254947547873095
2120000000.0 -0.2813838811876538 -0.3090149544840624
2140000000.0 -0.3738889174602222 -0.1591223235692793
2160000000.0 -0.007959839967576331 -0.3937490470533442
2180000000.0 -0.228094583654696 -0.3044402273679621
2200000000.0 -0.3663032964277551 0.04792339064515509
2220000000.0 -0.14548408876003321 0.32720380262628546
2240000000.0 0.24396771671451378 0.25632526897612545
2260000000.0 0.3512754942628399 0.004078671277184861
2280000000.0 0.25547236224876174 -0.24551313895651675
2300000000.0 -0.15672045519274674 -0.3309372125581609
2320000000.0 -0.38574619952784867 0.0580617556114666
2340000000.0 0.175794369353331 0.3863900164043553
2360000000.0 0.016781965839784464 -0.46800308104961746
2380000000.0 0.09163435963596411 0.5080466903785706
2400000000.0 -0.30007124820110415 -0.48031313658281816
2420000000.0 0.5788693945574556 0.20676187711966054
2440000000.0 -0.5989031496452243 0.27390725751879735
2460000000.0 0.378409331135036 -0.5824010180357303
2480000000.0 -0.17102655332535 0.7002496977967999
2500000000.0 0.25429125022903803 -0.6922968428268291
2520000000.0 -0.5044438016714171 0.5484181451545435
2540000000.0 0.7379276774036827 -0.09603963639551977
2560000000.0 -0.5537395416885619 -0.4842312184412187
2580000000.0 -0.24744659297275348 0.6742768538258543
2600000000.0 0.683193343958124 -0.11293040613660071
2620000000.0 -0.4018777649180029 -0.5240389166882679
2640000000.0 -0.527361687263393 -0.3312458407280629
2660000000.0 -0.05044710739143664 0.5757089925255122
2680000000.0 0.4957518451580055 -0.19091817367288638
2700000000.0 -0.3703950584638109 -0.31282996017609555
2720000000.0 -0.08169131327389413 0.43013993058161165
2740000000.0 0.3920460924799026 -0.06141127003587923
2760000000.0 -0.2847693063336541 -0.22310347347333404
2780000000.0 0.2085176159776807 0.26219543933118367
2800000000.0 -0.2729956043840644 -0.15636831636573234
2820000000.0 0.22096778246673662 -0.20388299889039893
2840000000.0 0.19369419729810358 0.2193144263278036
2860000000.0 -0.22707218424852305 0.17870008780076627
2880000000.0 -0.11052709451890275 -0.26509818250646594
2900000000.0 0.20808016403598303 0.19912775786685377
2920000000.0 -0.07819071404221609 -0.27838778465447445
2940000000.0 -0.2538695571701927 0.14465892698816318
2960000000.0 -0.20645331070549003 0.2093895283689347
2980000000.0 -0.29484603031468876 0.04597672599796152
3000000000.0 -0.2507810219374251 -0.16831943079265166
3020000000.0 0.15028980382190643 -0.26471606350989996
3040000000.0 0.17794691148907016 0.24692769156325914
3060000000.0 -0.300993945991709 -0.04484675178102672
3080000000.0 0.2844321876111074 -0.09897252015500373
3100000000.0 -0.20060209025575912 0.217628095577322
3120000000.0 -0.01115701150076175 -0.28689889283341163
3140000000.0 0.19540919921849936 0.19658094303566787
3160000000.0 -0.26164891756650854 -0.0003837398233486639
3180000000.0 0.1235703854858253 0.21014013910732668
3200000000.0 -0.2073279121955059 0.07446464975472153
3220000000.0 -0.006429049989668349 -0.1930805779839049
3240000000.0 0.09586930997501722 0.13277539703504687
3260000000.0 -0.03963292405530762 -0.126622286797263
3280000000.0 -0.030941693584795274 0.09914113218874764
3300000000.0 0.07229916051595006 -0.02721031232363208
3320000000.0 -0.0465474678204668 -0.019816653610609025
3340000000.0 0.025906877501757346 0.010358662464427213
3360000000.0 0.00882245291401743 0.0006321003398086815
3380000000.0 -0.01036157163631015 -0.0012465295483950968
3400000000.0 0.005578777121055131 0.023306053101702636
3420000000.0 -0.03605790272638377 0.003948969496422019
3440000000.0 0.0410932560576307 -0.020301060290814438
3460000000.0 0.05099094155911952 0.01031187055069765
3480000000.0 -0.028232333254598296 -0.053905364685926514
3500000000.0 0.016057411052848886 -0.07168496359972384
3520000000.0 0.039135396931725595 -0.08003756727213183
3540000000.0 0.037762117053206694 0.0973865662531973
3560000000.0 -0.08900864924710264 -0.07944084229609084
3580000000.0 0.0723768456300039 0.11263252516550876
3600000000.0 -0.08358354477264505 0.1291095502039632
3620000000.0 -0.08202114906937025 0.1444463348008151
3640000000.0 -0.16846237674532055 0.056094332277280314
3660000000.0 -0.18277701694922735 0.030081159878419896
3680000000.0 -0.16554370304951965 -0.09080899258092562
3700000000.0 -0.05223993535732035 -0.18090735425064328
3720000000.0 0.13576714601635737 -0.12713181809668975
3740000000.0 0.17078361477293277 0.061954260642395516
3760000000.0 -0.13471190966506097 -0.11402399354134125
3780000000.0 0.12848023285804772 0.10817268229299011
3800000000.0 0.10967715640098238 -0.11768525824933916
3820000000.0 -0.07336906969974134 -0.1357085386285057
3840000000.0 -0.0618359259078642 -0.1342735687463854
3860000000.0 0.13992594324624757 -0.043902469968192595
3880000000.0 0.14904933111488575 -0.01900794010757966
3900000000.0 0.09817475044016881 -0.11684726602362863
3920000000.0 -0.1260726602159884 -0.09712011721331969
3940000000.0 0.16490790578253492 -0.007916985378120413
3960000000.0 0.11050484092947335 0.13181851403573655
3980000000.0 0.1387037798741395 -0.10386028603069543
4000000000.0 -0.017996074135875253 -0.16621594747855067
