! Created with skrf (http://scikit-rf.org).
# Hz S RI R 50.0 
!freq ReS11 ImS11
400000000.0 0.24775077223082692 0.8368366913341627
420000000.0 0.6580337631309597 0.552044786280897
440000000.0 0.7678332106688347 -0.3018157457989433
460000000.0 -0.062356772261399504 -0.7849472322273161
480000000.0 0.5055540772528424 -0.4765429607447847
500000000.0 0.42690242800721817 0.35391869763916567
520000000.0 0.29823941291160494 0.3939895946010722
540000000.0 -0.29647508345629586 0.32686451966449837
560000000.0 0.20226869642502399 -0.3214914607289289
580000000.0 -0.2765418611750367 0.23374416086126884
600000000.0 0.24045772965049775 -0.2721477716918805
620000000.0 0.17903368684700782 0.3297911191399675
640000000.0 0.15608363736888065 -0.36566685872335397
660000000.0 -0.14241624858724747 -0.37671854976294517
680000000.0 0.4091800639402219 0.036578882419681394
700000000.0 0.27690991728365716 -0.3181153667335868
720000000.0 0.17838028358994737 -0.3833531902001924
740000000.0 0.13695394592057358 0.40096347310004293
760000000.0 0.09053385780595684 -0.4001658562505139
780000000.0 0.33207417176252557 0.18243421089488607
800000000.0 -0.3343388273044679 -0.09006624245196086
820000000.0 -0.22804924024922085 -0.1790877780637629
840000000.0 -0.20283193336389213 0.12103789032731983
860000000.0 0.14352545604409458 -0.13864138427562017
880000000.0 -0.13936472927427293 -0.015531967232292
900000000.0 0.08085849767776827 0.007292542376651871
920000000.0 -0.0408727728786586 -0.041510992039416196
940000000.0 0.03331027552468566 0.015593212293795778
960000000.0 -0.039767725678570016 0.012378928980069853
980000000.0 0.03096404032904735 0.05414597260124285
1000000000.0 0.03266897890736698 0.07681295455215695
1020000000.0 -0.05968677828349554 -0.09336040509884325
1040000000.0 -0.12655407527419127 0.019297530538964124
1060000000.0 0.08660250468261513 0.1360022136049132
1080000000.0 0.14597822749181497 0.09119589492702294
1100000000.0 -0.027649064769790194 -0.18419766358801923
1120000000.0 -0.06742539391283932 -0.18772567584019806
1140000000.0 0.027368249839523878 -0.22582171838054763
1160000000.0 0.19823181199971127 0.17300264314940295
1180000000.0 -0.19042959222053116 0.24065859604016807
1200000000.0 -0.339862208020347 0.05215896174691943
1220000000.0 0.18843980606976216 -0.32381201953553795
1240000000.0 -0.008416446731821486 0.40075587011529795
1260000000.0 0.12977522699802865 -0.405218804437537
1280000000.0 -0.24874728463762327 0.3626414761045851
1300000000.0 0.4482605571070897 0.00528291790655385
1320000000.0 -0.05960777874296575 -0.44033472431537135
1340000000.0 -0.03341728466459276 -0.4373870766789808
1360000000.0 0.09473795607088348 -0.42197577043711043
1380000000.0 -0.15884177567752042 -0.40251729106116085
1400000000.0 -0.4129105723120071 0.06745769879776999
1420000000.0 0.09436157579986611 0.3885500365947857
1440000000.0 0.36159619471839394 0.09733637728832775
1460000000.0 0.15611234437873522 -0.3084324995125451
1480000000.0 -0.23968319648425185 -0.20426257416856064
1500000000.0 -0.2740351457500225 0.07759571771886173
1520000000.0 -0.2131086397129051 0.14349906008599211
1540000000.0 0.11551745311819381 -0.1974644233804902
1560000000.0 0.14767963280953605 0.12908655994197601
1580000000.0 -0.12553131213019264 0.11349541878795089
1600000000.0 0.0981567956751133 0.09980830199863405
1620000000.0 0.04983762864974114 0.09813491149671667
1640000000.0 -0.073629304613789 0.04629946043165758
1660000000.0 -0.04841252220810335 0.043079851633365744
1680000000.0 0.009757940254102974 -0.043171012073691964
1700000000.0 -0.022999101691531142 -0.018073610267808838
1720000000.0 0.009416124758814537 0.0019059733548320603
1740000000.0 0.010224428990538546 0.009480668974527456
1760000000.0 0.02467764710803665 0.026464636569557547
1780000000.0 0.05005852861401457 -0.051196557220609305
1800000000.0 0.022936276969014256 0.10787747498730528
1820000000.0 0.05478330232429287 0.1340902614103894
1840000000.0 -0.08114791399092541 0.1617184101662992
1860000000.0 -0.18470823851114077 -0.10305308523738484
1880000000.0 0.07456058100548892 0.22945137437736587
1900000000.0 0.24003299083423107 -0.13199788521706576
1920000000.0 -0.1492073104641062 -0.26514250639272974
1940000000.0 -0.33071890915462643 -0.06094106904161505
1960000000.0 -0.11464266764590908 0.34897876044779585
1980000000.0 0.3814908798831747 0.09248818626406216
2000000000.0 0.2288203928047728 -0.34757090688477
2020000000.0 -0.4261395797519824 -0.07553379403406214
2040000000.0 -0.05287920798238451 0.4371863348938222
2060000000.0 0.44079788339599496 -0.022083083132876866
2080000000.0 0.07277506089604126 -0.42838243319360947
2100000000.0 -0.17551719231949273 -0.38721045286993977
2120000000.0 -0.32676902008403474 -0.2530935129962951
2140000000.0 -0.3963205016352965 -0.055067286696681796
2160000000.0 -0.0591267706435604 -0.3801293107274383
2180000000.0 -0.1231083266270541 -0.3472704968879041
2200000000.0 -0.20612105978722295 -0.2907908489827265
2220000000.0 -0.2692269090375268 -0.22105947028453216
2240000000.0 -0.32885035106809063 0.10896562309176064
2260000000.0 -0.10446260260053016 0.3311724876968848
2280000000.0 0.1628340982947047 0.3118345291965832
2300000000.0 0.2814437159880003 -0.23279068577295994
2320000000.0 -0.2514835825290499 -0.2928140882245241
2340000000.0 -0.27738652343578457 0.30834533742046377
2360000000.0 0.4391376665380735 0.11500821980939362
2380000000.0 -0.3473255886270635 -0.3612049894992054
2400000000.0 0.27425295219251744 0.48156986418358705
2420000000.0 -0.5186073189503371 -0.3189979133063086
2440000000.0 0.6450222567745872 -0.13374433432240748
2460000000.0 -0.37880560704047467 0.5881835571060505
2480000000.0 0.07172878287568253 -0.7276948095412554
2500000000.0 -0.012373736203785533 0.7513046883508405
2520000000.0 0.16893796981044168 -0.7435517364175316
2540000000.0 -0.4896689323328896 0.5877786492756704
2560000000.0 0.7469634786299985 -0.1317767980865878
2580000000.0 -0.4749668205005197 -0.572804445447301
2600000000.0 -0.11923933990750607 0.7100512852229378
2620000000.0 0.5862696527464347 -0.3631948898087879
2640000000.0 0.3242790933775883 -0.5652268770360049
2660000000.0 -0.5896071868068661 0.14306180433391982
2680000000.0 0.44820382352564253 0.33341285711725227
2700000000.0 -0.0640474033511965 -0.5068043497542386
2720000000.0 -0.2628372512557822 0.38039328584890003
2740000000.0 0.40030048486166636 -0.12492475644731726
2760000000.0 -0.3795399547100105 -0.03339317250228741
2780000000.0 0.33813085696255946 -0.09607981357870551
2800000000.0 -0.20750599017379426 0.2527845490662249
2820000000.0 -0.11812661232923767 -0.28594479042090637
2840000000.0 0.29772276921768226 -0.01239897677361655
2860000000.0 -0.16592460776567633 0.2432376065103645
2880000000.0 -0.09854390565320448 -0.2767530742562545
2900000000.0 0.13334689904912178 0.26443616292977756
2920000000.0 0.15128724176751152 -0.2589908846781877
2940000000.0 -0.2959431345685634 -0.0810643971360039
2960000000.0 -0.22334960376815913 0.21483662751231997
2980000000.0 -0.24543445130585487 0.19594485161776115
3000000000.0 -0.3152240434537828 -0.022498203466775647
3020000000.0 -0.039810563046214165 -0.31379857954036006
3040000000.0 0.31190121564396334 0.027693710809342475
3060000000.0 -0.29596933324533814 0.09137344806268544
3080000000.0 0.27071957133456637 -0.1394013676987506
3100000000.0 -0.20414214136697773 0.21926925798970462
3120000000.0 0.18565958951024616 -0.2254512944503849
3140000000.0 -0.028639875605693803 0.2808503363396778
3160000000.0 -0.12992164273954357 -0.23420951540400817
3180000000.0 -0.13209607692520708 0.2136772503251366
3200000000.0 -0.18335613928919903 -0.13720150257353358
3220000000.0 0.06315843254355094 -0.19251421494125143
3240000000.0 0.1614170247693654 0.05753800719638083
3260000000.0 -0.13532570525925158 0.024082089302730224
3280000000.0 0.09794115242729315 -0.03737899482800022
3300000000.0 -0.07279048041558901 -0.01734164268791537
3320000000.0 0.020500484910706437 0.04184208564609639
3340000000.0 -0.021926368008475177 0.005116040205868474
3360000000.0 0.004352590099480043 -1.9836060415129125e-05
3380000000.0 0.001733090047490305 -0.009675930260234599
3400000000.0 0.004908244139240025 0.020988793861319795
3420000000.0 0.0021797478366272012 -0.03384172073260106
3440000000.0 0.006816104593897021 -0.04496945106082159
3460000000.0 0.052790970057354614 0.014774510540832397
3480000000.0 -0.007067714252533114 0.06769449663427152
3500000000.0 0.08225947726715116 -0.00012329153907849317
3520000000.0 -0.09768291943641828 0.01670416088457698
3540000000.0 0.021548459058751315 -0.11093940150023314
3560000000.0 0.10517706181770534 0.06725029758073034
3580000000.0 -0.09170530546727783 -0.10115949660959962
3600000000.0 0.15204165168512201 0.01493157276067422
3620000000.0 0.0497745890638393 0.1575856026562888
3640000000.0 -0.17684834277693656 -0.00573536054380634
3660000000.0 -0.1417614839775806 -0.12274736218907215
3680000000.0 -0.009128398647390847 -0.19311879993325637
3700000000.0 0.013212184414359665 -0.19420353006581323
3720000000.0 0.13073783774365996 -0.14418444143626896
3740000000.0 0.1324042227398907 -0.1361361809330048
3760000000.0 -0.05141966500010367 0.17449663161743117
3780000000.0 0.04248488235558038 -0.16589103021807539
3800000000.0 -0.13289830555659726 -0.08830545260055095
3820000000.0 -0.11964977807062392 -0.09208619854712746
3840000000.0 0.1305617469278654 -0.0667546894145033
3860000000.0 -0.04380102647646051 0.14201164085697468
3880000000.0 0.03778967752205305 0.15190595673126964
3900000000.0 0.13746797124951926 -0.08404189779705339
3920000000.0 -0.16535934300144123 0.011181302468457785
3940000000.0 0.11305706236924647 -0.12774916296665115
3960000000.0 0.16846978841746285 0.03878850919994154
3980000000.0 0.11657412958783644 -0.12719823778163133
4000000000.0 0.09610821494124615 -0.13491809537381913
