! Created with skrf (http://scikit-rf.org).
# Hz S RI R 50.0 
!freq ReS11 ImS11
400000000.0 -0.8607874948259038 0.04537511042462305
420000000.0 -0.04502861153818576 0.86404265898679
440000000.0 0.8376013343260725 0.049971657232905684
460000000.0 0.6002835427857991 -0.5148461868377102
480000000.0 0.7297712763902655 0.0736470408309067
500000000.0 -0.5797617791430645 -0.03833721267329
520000000.0 -0.383561008308669 0.31687614387125074
540000000.0 -0.4066341506680653 -0.09569373781987786
560000000.0 -0.15620035970724308 0.33457722999513617
580000000.0 -0.2824838778490368 -0.15340950285675775
600000000.0 -0.32604538579741915 0.035852616516878
620000000.0 -0.12168036453836924 -0.3063678490623586
640000000.0 -0.039505169706380724 0.34272791355204857
660000000.0 -0.0478094758940054 0.3741410880660875
680000000.0 -0.12106346991469358 -0.3786777312172159
700000000.0 -0.387520996912917 0.1916968852798025
720000000.0 0.042154828408980084 0.43345979976622
740000000.0 -0.4185502524270091 0.16417062924643228
760000000.0 -0.021387376348230108 -0.4282385191988651
780000000.0 0.261910031878364 0.2944293421427481
800000000.0 -0.33024857556271087 0.1405830690353044
820000000.0 -0.25995021483843306 -0.14867200932165306
840000000.0 0.22715582302067786 0.10778302596607323
860000000.0 0.016036478526889743 0.1962560550818117
880000000.0 -0.023979867756987135 -0.1547763538613634
900000000.0 0.021583232244001247 -0.07915822657849818
920000000.0 0.028746017598356315 -0.03607955432778016
940000000.0 0.03799253399484227 0.02437900394661963
960000000.0 0.007158839541234963 0.053204018883866284
980000000.0 0.054822410119584504 -0.03415443680323385
1000000000.0 -0.05967779990479115 -0.04016648977399995
1020000000.0 0.04335261435903107 0.06696938613991951
1040000000.0 0.03434605738042882 0.08645639786937623
1060000000.0 -0.009828540524999298 -0.12281031325834262
1080000000.0 -0.14579340814244196 -0.009365181417733797
1100000000.0 -0.018442882951473543 0.16915176625393488
1120000000.0 0.04077875097061912 0.1970049406428243
1140000000.0 -0.2419719000470856 0.009690137126675987
1160000000.0 -0.24718767863763427 0.1322538332883658
1180000000.0 0.13911345073604603 0.29093686101865995
1200000000.0 -0.2082977935617264 0.2838910251071851
1220000000.0 -0.3245411175794473 -0.20694214313341874
1240000000.0 0.3407727905203545 0.21787073926172035
1260000000.0 -0.3852238265415164 -0.19626940015813069
1280000000.0 0.3402079955201896 0.27509001689356294
1300000000.0 0.20782264765062936 -0.3917212168171564
1320000000.0 -0.30204435456485773 -0.3121516477079549
1340000000.0 0.13241909238314886 -0.4105939751052916
1360000000.0 0.2810457273805411 -0.32473310172313957
1380000000.0 0.19402734012071493 -0.3857359788288803
1400000000.0 -0.4193037166938813 -0.014253210948031527
1420000000.0 -0.11407034805899813 0.3859623392593492
1440000000.0 0.37390798125668345 -0.039844276873667824
1460000000.0 0.2843453129192529 -0.19363791703243155
1480000000.0 -0.09181341903805287 -0.30225709529230665
1500000000.0 -0.246870832307312 -0.14651938179180538
1520000000.0 -0.26010547758736646 0.009235872519343796
1540000000.0 0.14325610853008786 -0.1867356831020193
1560000000.0 0.20226183550771026 0.017053451676980316
1580000000.0 0.09900812105230698 0.14320614053193437
1600000000.0 -0.08511408846166824 -0.11680713637195757
1620000000.0 -0.08736135470128636 0.06678912315576575
1640000000.0 -0.0799659813357137 -0.02663955390779592
1660000000.0 0.026233092905797346 0.052092131522962944
1680000000.0 -0.0031898227009706658 -0.03412513620678298
1700000000.0 0.009663916728876856 0.013684193065746454
1720000000.0 -0.0010473042400042792 -0.0025233028038634695
1740000000.0 0.010357675046708736 0.017549772590624638
1760000000.0 0.0334664309244423 -0.018455067596674264
1780000000.0 0.04327936319771581 -0.0509706507255761
1800000000.0 -0.08212136913944737 0.059238696367328786
1820000000.0 0.11627911818484243 0.0646908009940621
1840000000.0 0.01994334559492118 -0.16853292731140102
1860000000.0 0.11192208694469667 0.17579330093662163
1880000000.0 -0.0909921791588073 -0.2286449811165539
1900000000.0 0.14942022836368904 0.24580569341087016
1920000000.0 -0.2906886055802972 -0.13056933817794655
1940000000.0 0.08052189428737977 0.33590658091303527
1960000000.0 0.3355711633280038 -0.15302693677920334
1980000000.0 0.0715010776155418 -0.3789047930937838
2000000000.0 -0.007682988210420048 -0.4049067669853177
2020000000.0 -0.3283254863476188 -0.26405868398663096
2040000000.0 -0.4086592110805318 0.15033276086230515
2060000000.0 0.13202888560383724 0.4216228481783117
2080000000.0 0.436359482561893 -0.07693110876476038
2100000000.0 -0.047551074019864595 -0.4343161182193568
2120000000.0 -0.40531605777665597 -0.13037000617168412
2140000000.0 -0.27395812757257004 -0.30419929513102006
2160000000.0 -0.3901691243693051 -0.04040210004432352
2180000000.0 -0.3684079668140141 0.06424482829752287
2200000000.0 -0.34048599357337805 0.11371417474047527
2220000000.0 -0.3328194382395349 0.10908153950677273
2240000000.0 -0.21007241632442808 0.27631068627136995
2260000000.0 -0.08456786234010139 0.3404208236032013
2280000000.0 0.2218213138127556 0.2785029754258214
2300000000.0 0.313698172738149 -0.20044117833938316
2320000000.0 -0.20947795284088302 -0.33625641972937215
2340000000.0 -0.24529006380400215 0.3517765004580547
2360000000.0 0.4176995106608867 -0.21127224954399093
2380000000.0 -0.5053096273019883 0.09792857039442403
2400000000.0 0.5129081330749725 -0.23608762978032105
2420000000.0 -0.3270012734039626 0.5202091912398544
2440000000.0 -0.16695258179192016 -0.6385366645370658
2460000000.0 0.585940601081967 0.377615970226839
2480000000.0 -0.7242184465180511 -0.034274680108486895
2500000000.0 0.7414019219031558 0.053171413571362486
2520000000.0 -0.735290676248705 -0.15740356437249448
2540000000.0 0.6057376482074487 0.44773034032164727
2560000000.0 -0.15220996605212764 -0.730860974610388
2580000000.0 -0.55028205477907 0.48228339174062623
2600000000.0 0.7026161862433955 0.07876089588225445
2620000000.0 -0.37055952493771693 -0.5660398276485445
2640000000.0 -0.5871080237303501 -0.2537867072857464
2660000000.0 0.07637130433218799 0.5893462973407922
2680000000.0 0.45151417833753876 -0.3119950420390878
2700000000.0 -0.4688792418616456 -0.18063751683359983
2720000000.0 0.16584085200332582 0.4250998936526698
2740000000.0 0.27912725643245806 -0.305959897683215
2760000000.0 -0.3776563668075951 0.006759020733510016
2780000000.0 0.3478335022431193 0.006620017154849026
2800000000.0 -0.3231795154473166 0.02107000741709832
2820000000.0 0.20828108277812435 -0.2262881799724815
2840000000.0 0.10553505997763903 0.2776297734646599
2860000000.0 -0.2909959271316923 -0.016639098381425063
2880000000.0 0.1155374882038125 -0.26576940996455
2900000000.0 0.09813531934773809 0.2719851592958349
2920000000.0 0.09423118732404544 -0.2757997161628826
2940000000.0 -0.27493575536302617 0.10746233601949465
2960000000.0 -0.10469595111904677 0.2780760078818235
2980000000.0 0.0013961361637838884 0.29995053636248414
3000000000.0 -0.2587512048049192 0.1546013370302493
3020000000.0 -0.19052282205744567 -0.23656658919971085
3040000000.0 0.3022637269807008 0.013275341846441756
3060000000.0 -0.19325652457434855 0.23246955088624183
3080000000.0 0.191219587332316 -0.2309193717626183
3100000000.0 -0.006388637553738916 0.2965850249876697
3120000000.0 -0.11357926540791319 -0.26654418591921597
3140000000.0 0.2810838800112285 0.012030759779466662
3160000000.0 -0.1603038759336779 0.2136358718803461
3180000000.0 0.2431984083076767 -0.05593465648325631
3200000000.0 0.03390821528062504 0.22332052814834652
3220000000.0 -0.19487952550713292 0.033223316038878264
3240000000.0 0.02533924251513506 -0.16472357805846632
3260000000.0 -0.049331763378575214 0.1238832769296808
3280000000.0 0.10131751721065348 0.004410093456845772
3300000000.0 0.0653760021029751 0.034868506153491956
3320000000.0 -0.025712930127526012 0.043498054306766995
3340000000.0 0.020360044507930615 -0.021336678335693735
3360000000.0 0.012270839392722355 -0.0037097577466122453
3380000000.0 0.0013665243291397357 -0.004692780417650718
3400000000.0 -0.011554598294353383 0.015480300352853688
3420000000.0 0.025927762719936034 -0.02415340039982537
3440000000.0 0.047953719958005195 0.00816988979088474
3460000000.0 -0.04015072695522534 -0.040474194255592885
3480000000.0 -0.04130551582032968 0.053198264593664106
3500000000.0 0.02006010512727868 0.07566869282584857
3520000000.0 0.07800088183575704 0.04633707471111084
3540000000.0 0.05382809663040261 -0.08803184559774066
3560000000.0 -0.112444122175636 -0.030920718721193487
3580000000.0 0.0470012324931197 0.12272007182253356
3600000000.0 -0.1485740122552041 -0.03936606501536916
3620000000.0 -0.1448403924554494 -0.08210978825391693
3640000000.0 -0.1499234343502166 -0.10155461919318742
3660000000.0 -0.18349256446032558 -0.05509446592886986
3680000000.0 -0.19414548901972667 -0.02825571013106662
3700000000.0 -0.1935034095062582 -0.01856785745125493
3720000000.0 -0.10145025203605176 -0.16226991582050673
3740000000.0 -0.011481516745735611 -0.18233625058527983
3760000000.0 -0.1500247302124465 0.08850516255320141
3780000000.0 0.13271616324062976 0.09743399378728423
3800000000.0 0.15228637953295687 0.035756699482429044
3820000000.0 0.14242838960714205 0.05576692954103589
3840000000.0 -0.021257186226575634 0.14993442126613596
3860000000.0 -0.09270300525569398 0.12392548322766504
3880000000.0 0.11091355521111326 0.117353120963859
3900000000.0 -0.024449627962723382 -0.16124187551558025
3920000000.0 -0.0562986748122871 0.15454291901035347
3940000000.0 0.0018025914314190562 -0.16820875378235683
3960000000.0 0.1696028920990708 0.002876717631505736
3980000000.0 0.16804431402069417 -0.030113409509482016
4000000000.0 0.16254759122579054 0.014493659939517647
