! Created with skrf (http://scikit-rf.org).
# Hz S RI R 50.0 
!freq ReS11 ImS11
400000000.0 -0.8592359552882249 0.05822693909797913
420000000.0 -0.03070690537759868 0.8652904264836492
440000000.0 0.8377224392918561 0.04935572966618137
460000000.0 0.5647786041299357 -0.5535875469332449
480000000.0 0.7299267424380149 0.07412126383706255
500000000.0 -0.5744318994910491 -0.08630709146966166
520000000.0 -0.40175139498734425 0.29312418935620693
540000000.0 -0.40942631688713693 -0.08217079584387256
560000000.0 -0.1530420317381261 0.33580780253269366
580000000.0 -0.2769888507641364 -0.16268967542346482
600000000.0 -0.32697908538881215 0.020770649846863658
620000000.0 -0.15559421698185222 -0.291002256575149
640000000.0 -0.014614642176320433 0.3454680773555351
660000000.0 -0.05396020547991582 0.3747616640734424
680000000.0 -0.08497551127327616 -0.3893350653672678
700000000.0 -0.39271165620242493 0.1810978142881213
720000000.0 0.04874385719449241 0.4329295558664108
740000000.0 -0.4115967668828547 0.1815354722932553
760000000.0 -0.026212558338740127 -0.42809447891823416
780000000.0 0.25655383846921626 0.29942467584827387
800000000.0 -0.3308708556563807 0.1384972098600767
820000000.0 -0.2671302192944443 -0.13469144137232936
840000000.0 0.2421522296785189 0.06890548506836673
860000000.0 0.03897320413835476 0.19340644154146888
880000000.0 -0.014276119411069287 -0.15651672335273367
900000000.0 0.01706714810169561 -0.07998018963967153
920000000.0 0.03318636794787351 -0.03246705479513121
940000000.0 0.03441646073274665 0.02951084582031611
960000000.0 0.00014400439663260877 0.05398273577798603
980000000.0 0.054604124124989495 -0.0341123110632892
1000000000.0 -0.06455101101489455 -0.03177839891226101
1020000000.0 0.049419079894260705 0.06288099053192518
1040000000.0 0.051397561838885164 0.07821678062170319
1060000000.0 -0.004152121966895336 -0.12350718776244783
1080000000.0 -0.14571450334357972 -0.007248404543120777
1100000000.0 -0.013580487598893645 0.16937791935510793
1120000000.0 0.09767054183252609 0.1755327597107305
1140000000.0 -0.2330725197641025 0.0661740745421762
1160000000.0 -0.24797990103993725 0.1308888034360243
1180000000.0 0.12876767371535877 0.2953807022852751
1200000000.0 -0.21184761397847754 0.2809023888463923
1220000000.0 -0.321186092911973 -0.21176648622479863
1240000000.0 0.32938826837522545 0.2343750562477637
1260000000.0 -0.3848546134775189 -0.1967868331450555
1280000000.0 0.33417372068041623 0.28225391285807194
1300000000.0 0.20670367235494227 -0.3924030058001602
1320000000.0 -0.31781018041285136 -0.29623738098504415
1340000000.0 0.12397772033978077 -0.4135836271307074
1360000000.0 0.2750055913052802 -0.33015554129990327
1380000000.0 0.207452616331222 -0.37917584204177157
1400000000.0 -0.4187348292354718 -0.028820747453349622
1420000000.0 -0.10626205920986598 0.38830341981434746
1440000000.0 0.3715844971152253 -0.05529260032109215
1460000000.0 0.2797195746406699 -0.19922403191061933
1480000000.0 -0.12967339236125006 -0.28761196370780806
1500000000.0 -0.2465202467929088 -0.1463775803032664
1520000000.0 -0.2594768630932878 0.01917823916664417
1540000000.0 0.1237202932755063 -0.20023326718307566
1560000000.0 0.19975573930806045 0.03774314855308383
1580000000.0 0.09824571148139193 0.1442713673646988
1600000000.0 -0.09094398894582874 -0.11296364711672278
1620000000.0 -0.087150666430195 0.06802445717051492
1640000000.0 -0.07485824887502775 -0.039549807324519626
1660000000.0 0.02116594151472043 0.05432113552705674
1680000000.0 -0.00545650610919948 -0.03349259359771151
1700000000.0 -0.01138319060676351 0.012335428385901789
1720000000.0 -0.002305496535931947 -0.0011263681367498423
1740000000.0 0.0037965363650463804 -0.021156530051472645
1760000000.0 0.014142982920232297 -0.03686528162079202
1780000000.0 0.05036107589944169 -0.04492164218231433
1800000000.0 -0.10028872761008094 0.005537380480434869
1820000000.0 0.07272769099026401 0.11028686890672569
1840000000.0 0.07831419751361413 -0.14953871143828154
1860000000.0 0.08104825482078996 0.19199517889628237
1880000000.0 -0.033282588435473055 -0.2439797972358185
1900000000.0 0.11770266359697319 0.2624865446480032
1920000000.0 -0.28294146139890874 -0.1468445565808666
1940000000.0 0.0812054324975812 0.3354286899951953
1960000000.0 0.32851162552348956 -0.16643715087002692
1980000000.0 0.043460405610458254 -0.3830027302868422
2000000000.0 -0.07616137693000082 -0.3973180773505538
2020000000.0 -0.3710728845218588 -0.1996774218644155
2040000000.0 -0.40209322841872236 0.1680642725006794
2060000000.0 0.18019892175060997 0.40361114888454513
2080000000.0 0.43701664382484606 -0.07744103297137395
2100000000.0 -0.11574599299207589 -0.42184184745064207
2120000000.0 -0.41068312993167283 -0.1166468820318201
2140000000.0 -0.24723250317332593 0.32796257735103257
2160000000.0 -0.38699595978488044 -0.06725784161417311
2180000000.0 -0.37253404590182704 0.03993308606415754
2200000000.0 -0.34532768069940395 0.10174371312385563
2220000000.0 -0.33727879693164436 0.0972139327514713
2240000000.0 -0.2287503237097883 0.2626259301448533
2260000000.0 -0.13341618366708885 0.3256430472385942
2280000000.0 0.1846539538422261 0.3050338404117314
2300000000.0 0.34568848575792116 -0.13876478176372126
2320000000.0 -0.18320707078003623 -0.3510698459073463
2340000000.0 -0.2739247929985697 0.32912927981036033
2360000000.0 0.4302501786510472 -0.18233397349341
2380000000.0 -0.509671971385308 0.06816245867838917
2400000000.0 0.5211180579956458 -0.21673823341358164
2420000000.0 -0.3034491173483738 0.5340716043962246
2440000000.0 -0.17267923765448534 -0.6370822980740873
2460000000.0 0.5814715969048693 0.3856942316750894
2480000000.0 -0.725724644474752 -0.02096774087547916
2500000000.0 0.7441359720745355 0.017527650231934883
2520000000.0 -0.7381460330431492 -0.15170025856172326
2540000000.0 0.5755931237620657 0.4873174274713607
2560000000.0 -0.07600055432892473 -0.7431761650522999
2580000000.0 -0.5749689830008967 0.4528264401450857
2600000000.0 0.6856288720029473 0.17631845900392965
2620000000.0 -0.3161322638414951 -0.5991701883192175
2640000000.0 -0.5195973037493316 -0.374544269901496
2660000000.0 -0.012184685930061391 0.5951324463446755
2680000000.0 0.46837908874247375 -0.2874951491336456
2700000000.0 -0.4562895273989505 -0.2112316552147235
2720000000.0 0.12418103435996633 0.4392634720215776
2740000000.0 0.2993651750688217 -0.2861068807692363
2760000000.0 -0.3764211025685068 -0.026367739284547023
2780000000.0 0.34722117192106866 -0.011932050336885186
2800000000.0 -0.32153424621251975 0.037414539139443835
2820000000.0 0.16353639302451775 -0.26000149983093435
2840000000.0 0.14934458916825416 0.2567630054359648
2860000000.0 -0.28957253207878575 0.04032884064849693
2880000000.0 0.08619067130994748 -0.2777265278426455
2900000000.0 0.09164157816080105 0.2754232228895122
2920000000.0 0.08393275414312533 -0.2802734281579583
2940000000.0 -0.28148559846375004 0.09209356379061491
2960000000.0 -0.10309350113627974 0.27932205857094466
2980000000.0 -0.05042118463061411 0.2964626011235957
3000000000.0 -0.293438342449883 0.06925336346723023
3020000000.0 -0.13027837683346907 -0.27515634326074445
3040000000.0 0.3023687614252345 0.008941418512152452
3060000000.0 -0.26573810033753603 0.14586347593502388
3080000000.0 0.19437250319595406 -0.22927801775430573
3100000000.0 -0.01630881142521916 0.2959183162981587
3120000000.0 -0.0660981081819091 -0.2821463196899716
3140000000.0 0.27356090962697277 0.06121174816927931
3160000000.0 -0.18266251074441717 0.19280832687719063
3180000000.0 0.24445998958772655 -0.04836244001857832
3200000000.0 0.05027083759669618 0.21985093732114483
3220000000.0 -0.19058333023637136 0.05261601662614983
3240000000.0 0.01399690505695231 -0.1655954566590645
3260000000.0 -0.0633906720754548 0.1168957208963259
3280000000.0 0.1011385993341404 -0.0007652032888306999
3300000000.0 0.0689531239621119 -0.026196350361969545
3320000000.0 0.006110390112622135 0.04976121558892945
3340000000.0 -0.017315873886877182 -0.024579294502978893
3360000000.0 -0.002854577075104917 -0.013338107322441844
3380000000.0 -0.0034784371629655877 0.0027809756928129353
3400000000.0 -0.01757396802675984 -0.007329237563492333
3420000000.0 0.03456522858669773 0.008443580042062889
3440000000.0 0.014604086441666485 0.04637963214437336
3460000000.0 -0.026064706448929293 -0.05149944772189445
3480000000.0 -0.05773572300463232 0.03638248321177604
3500000000.0 -0.03123654702303773 0.0720981005765365
3520000000.0 0.07110744615626607 0.057578963770850006
3540000000.0 0.056441729250374204 -0.08701760429891416
3560000000.0 -0.11140949279579654 0.03695887500930318
3580000000.0 0.06599337710297085 0.11417476361130863
3600000000.0 -0.15246220266464997 -0.019444669650496526
3620000000.0 -0.1495413686104644 -0.0752216400557591
3640000000.0 -0.14116088194385246 -0.11475208051451653
3660000000.0 -0.1740072740527827 -0.08118319143190844
3680000000.0 -0.18610474468962118 -0.06374865291754041
3700000000.0 -0.1885013080621291 -0.04588014307933214
3720000000.0 -0.051102256863534846 -0.1843604298450513
3740000000.0 0.06525086287053582 -0.17117187854684257
3760000000.0 -0.16813578288889883 0.04824355023724826
3780000000.0 0.11496078909705096 0.11794396204142353
3800000000.0 0.12474591622445218 0.09433796312115848
3820000000.0 0.09568898042798005 0.11868268780523607
3840000000.0 -0.07172807832713667 0.13292577956087898
3860000000.0 -0.13678885906928898 0.07195285307323677
3880000000.0 0.060607740835903784 0.1491802187816411
3900000000.0 0.020763872117185708 -0.16195184932614182
3920000000.0 -0.13964054078874316 0.08688020388181016
3940000000.0 0.10281578495287183 -0.13174420080707772
3960000000.0 0.1209037585758541 0.11914749390348554
3980000000.0 0.16593893325414594 0.03655618230207947
4000000000.0 0.14913121111038044 0.06496195354934974
