! Created with skrf (http://scikit-rf.org).
# Hz S RI R 50.0 
!freq ReS11 ImS11
400000000.0 0.21724954858758402 0.8442939965895072
420000000.0 0.6589608428030906 0.5508243477237423
440000000.0 0.7653226733775467 -0.30641701528763543
460000000.0 -0.02569646552025023 -0.7863428265892373
480000000.0 0.5228099288071988 -0.4586634233899352
500000000.0 0.4712366172097569 0.293930395238171
520000000.0 0.2739767733170248 0.409364796497698
540000000.0 -0.3335929834531132 0.28965390388503764
560000000.0 0.17838609529701374 -0.33615201664738176
580000000.0 -0.2229734251465147 0.2843492391503799
600000000.0 0.24212139462818233 -0.2694680703080108
620000000.0 0.12866452082119026 0.3532080697270261
640000000.0 0.13622509092265844 -0.3743381900649937
660000000.0 -0.18411584036522222 -0.3577226729772008
680000000.0 0.40958515152482095 0.030643194022119704
700000000.0 0.28336638336961645 -0.3121937772287299
720000000.0 0.14437176986993508 -0.39759783705015483
740000000.0 0.12778642217321187 0.4040317580088826
760000000.0 0.10297321130356077 -0.39690752050204703
780000000.0 0.3450374438299253 0.15568531969700133
800000000.0 -0.33214618309525473 -0.09778593882492889
820000000.0 -0.23476419418809988 -0.17017318112760463
840000000.0 -0.19968777211588118 0.12558295604132066
860000000.0 0.15564083133178666 -0.12534607336105114
880000000.0 -0.13868912352872093 -0.0210540398476745
900000000.0 0.08022824901237349 0.011898044811177677
920000000.0 -0.03170239904185444 -0.0487443703319831
940000000.0 0.036664835467807015 -0.003305241866353882
960000000.0 -0.037969647446547926 0.017493759204253567
980000000.0 0.03129632541778596 0.05419191823078988
1000000000.0 0.056370193738831294 0.062003268225249576
1020000000.0 -0.07287890778099465 -0.08347243530798758
1040000000.0 -0.1257426307879866 0.02492751416248399
1060000000.0 0.09918038306500469 0.12721831439684436
1080000000.0 0.1455059907337226 0.09170145034355932
1100000000.0 -0.03398886652335844 -0.18278861582280498
1120000000.0 -0.05134492506072362 -0.19246753970274671
1140000000.0 0.042601284297385626 -0.2232507840489586
1160000000.0 0.19470417846513172 0.17686217811682065
1180000000.0 -0.19918187714523095 0.23309028656580874
1200000000.0 -0.3410483215372266 0.045128457827953515
1220000000.0 0.20334025351178786 -0.3147986312969596
1240000000.0 -0.00620858918841199 0.4008853503914164
1260000000.0 0.13038737268571762 -0.40496922243340383
1280000000.0 -0.24097743542188144 0.36787108513759154
1300000000.0 0.4483459440771345 -0.007009049186350971
1320000000.0 -0.06261607238375358 -0.4399853732478649
1340000000.0 -0.03827912325532271 -0.4371157917559699
1360000000.0 0.09784395205520198 -0.42127512605158857
1380000000.0 -0.14759718385020518 -0.4068885868744521
1400000000.0 -0.41291948305109777 0.06827911743316761
1420000000.0 0.07374547850489314 0.3932076742914851
1440000000.0 0.3598473635856122 0.10382512680975085
1460000000.0 0.16181905139763922 -0.3055974591057136
1480000000.0 -0.21438954806485688 -0.2309561940206607
1500000000.0 -0.2778954947609315 0.06204620465314814
1520000000.0 -0.2159111771906567 0.13894778174500427
1540000000.0 0.10754188513446775 -0.2019221347494783
1560000000.0 0.15851943155702464 0.11518515646670172
1580000000.0 -0.12417425163333859 0.11455174804621694
1600000000.0 0.08635415064036026 0.11053244756275919
1620000000.0 0.06696085363674918 0.08767240203103403
1640000000.0 -0.07256779013309923 0.04833768603772853
1660000000.0 -0.050694239478372226 0.040798303915990985
1680000000.0 0.012082229176113577 -0.04274248732561915
1700000000.0 -0.018020680923216546 -0.02285853717504632
1720000000.0 0.004814054264742434 -0.008559522727701207
1740000000.0 -0.006451504485528176 0.0124718867678691
1760000000.0 0.014329366618908223 0.03319084855315817
1780000000.0 0.045981706414346735 -0.055225853734883194
1800000000.0 0.01768197457443379 0.10868903804038697
1820000000.0 0.07202896527857963 0.12598589017622722
1840000000.0 -0.07323113896228026 0.16547045262540055
1860000000.0 -0.18877661934395437 -0.09561113362349359
1880000000.0 0.07094426090376076 0.23038540885551098
1900000000.0 0.24453600202862302 -0.12297712537684785
1920000000.0 -0.13109025888300327 -0.2743323265601001
1940000000.0 -0.32915738118021215 -0.06830329456061554
1960000000.0 -0.12373556688921004 0.3459451224505086
1980000000.0 0.3778304718414028 0.1070581527726327
2000000000.0 0.23594961187583535 -0.3427524484532566
2020000000.0 -0.42715820802645793 -0.0685189349738391
2040000000.0 -0.06398570930342137 0.43574738309308414
2060000000.0 0.4413455960417315 -0.00322259966721464
2080000000.0 0.0860876422496116 -0.42581556507127544
2100000000.0 -0.17584114159828135 -0.38719592760385185
2120000000.0 -0.33025314461218713 -0.2484466917392896
2140000000.0 -0.396732448623073 -0.052711273113788135
2160000000.0 -0.04556661041097985 -0.38202708649400624
2180000000.0 -0.1269920717232503 -0.3462571559084593
2200000000.0 -0.19091072021792413 -0.3009811242137497
2220000000.0 -0.26730040597603744 -0.22349943807178088
2240000000.0 -0.3325570482006896 0.09740350177383068
2260000000.0 -0.10852408015145736 0.32988222250647103
2280000000.0 0.15505520298456343 0.31603336177996305
2300000000.0 0.29209726950689757 -0.21891109675384865
2320000000.0 -0.2503674526844933 -0.2935480896505421
2340000000.0 -0.2938155258711165 0.29196803841824087
2360000000.0 0.42936206125353604 0.14618930805992358
2380000000.0 -0.32935641295619067 -0.37736174604191186
2400000000.0 0.26166693557877546 0.4883151276056609
2420000000.0 -0.5043921727535075 -0.34065353944456783
2440000000.0 0.6479899969041923 -0.11803855202027957
2460000000.0 -0.38176238435592225 0.5861572449709441
2480000000.0 0.02121199457518474 -0.730239191322407
2500000000.0 0.0440829788959258 0.7501096134475906
2520000000.0 0.17509711303237702 -0.7422049213598174
2540000000.0 -0.4913976470219323 0.5864803287367453
2560000000.0 0.750394745635013 -0.11427386162474425
2580000000.0 -0.45918903971373337 -0.5860161235189765
2600000000.0 -0.1295360323964191 0.7085569780325521
2620000000.0 0.598381652178076 -0.3433523605908481
2640000000.0 0.3143762917158054 -0.5713311973210043
2660000000.0 -0.5945790151145419 0.12263852026284647
2680000000.0 0.4643751808618378 0.3117013949064085
2700000000.0 -0.07708704312339011 -0.5055722780537503
2720000000.0 -0.2802991693671509 0.36834043836427743
2740000000.0 0.4086399590467967 -0.09539109726679408
2760000000.0 -0.37769799346329275 -0.052078021388669196
2780000000.0 0.3389111665253083 -0.09418715867433972
2800000000.0 -0.21403229226106837 0.24748683085588252
2820000000.0 -0.11652541210361249 -0.28715693261196673
2840000000.0 0.29804664562470745 -0.005901982916997101
2860000000.0 -0.16901546495272635 0.24133688510380857
2880000000.0 -0.08302751183291318 -0.2818246175730749
2900000000.0 0.12461723018725678 0.2687741289842749
2920000000.0 0.15536029713531901 -0.2567564038144915
2940000000.0 -0.30056169658488363 -0.06092313231449947
2960000000.0 -0.203115781115852 0.233812666926052
2980000000.0 -0.24762226712974486 0.1935895116059529
3000000000.0 -0.3162434455392011 0.0010063113583318073
3020000000.0 -0.052631257158037355 -0.3118183817895564
3040000000.0 0.3030677387816683 0.07955476051667616
3060000000.0 -0.29612240569692105 0.09170183379874514
3080000000.0 0.25972213784627934 -0.15917232171581008
3100000000.0 -0.23544909178865847 0.18484281420676163
3120000000.0 0.1668476041037951 -0.24006407306320188
3140000000.0 -0.02640310162183286 0.2811979893472154
3160000000.0 -0.13932199678457438 -0.22884262193454316
3180000000.0 -0.1291897924254217 0.215536493231292
3200000000.0 -0.17635830421626417 -0.14640744174955372
3220000000.0 0.05355526902342035 -0.19519891165645462
3240000000.0 0.16269124156000733 0.05425183656710976
3260000000.0 -0.13684977406725676 0.013997465961444383
3280000000.0 0.08969865238185437 -0.05429119949161742
3300000000.0 -0.06880208736289031 -0.029555511972798248
3320000000.0 -0.00585254809646292 0.0461488807235441
3340000000.0 -0.018777845372456442 0.01238001907414969
3360000000.0 0.0004897668776459552 -0.004380960217615743
3380000000.0 -0.008169918554548909 -0.005731828505030737
3400000000.0 0.004224667324965279 0.02098359938832373
3420000000.0 0.012138177401995468 -0.03160596976831186
3440000000.0 0.02588401830170664 -0.03710510707713416
3460000000.0 0.05213486707402451 0.01604139761578774
3480000000.0 -0.028549943825464736 0.061547857105703575
3500000000.0 0.08230746418242052 -0.005470771395174711
3520000000.0 -0.09559554528734715 0.02621057539066954
3540000000.0 0.02870531078611516 -0.10921109538417899
3560000000.0 0.10282189893304391 0.07071435612863633
3580000000.0 -0.08414370361125328 -0.10731749301802636
3600000000.0 0.15301925585567852 -0.006536842095171754
3620000000.0 0.03824318439862276 0.16058543278550153
3640000000.0 -0.17690502874747716 -0.0021514711009334078
3660000000.0 -0.14691022352146157 -0.11730740619493982
3680000000.0 0.0025361349395098824 -0.19351763579825534
3700000000.0 0.018975656032298747 -0.19378671247520618
3720000000.0 0.1362273838357006 -0.138647226478355
3740000000.0 0.13507754382225132 -0.13335287389915013
3760000000.0 -0.05040452800113647 0.17507076913597638
3780000000.0 0.043781546965817555 -0.165369054349096
3800000000.0 -0.13420942206822672 -0.08624603342619094
3820000000.0 -0.11148094470405515 -0.10181700074283273
3840000000.0 0.1337767278619829 -0.06017378170682774
3860000000.0 -0.057523215547356725 0.1372406029468187
3880000000.0 0.03939026937866956 0.15140399424006104
3900000000.0 0.1397560118424435 -0.07915526636874098
3920000000.0 -0.16507583977795606 0.014283546280080781
3940000000.0 0.08891874427208207 -0.1447235197264578
3960000000.0 0.17110326319159858 0.02311007896313536
3980000000.0 0.09763159512741262 -0.1422318660636762
4000000000.0 0.04985873863394738 -0.15824490112726694
