! Created with skrf (http://scikit-rf.org).
# Hz S RI R 50.0 
!freq ReS11 ImS11
400000000.0 -0.6819169105588412 0.5161936879607363
420000000.0 -0.11923745115203505 0.8558494953034511
440000000.0 0.7951751873466322 0.26225507636182227
460000000.0 0.42978362231961265 -0.6759436139066272
480000000.0 0.6779462758338398 -0.28668320403007114
500000000.0 -0.38669501990432786 0.43290028725544916
520000000.0 -0.27215672900747784 0.4018047498024535
540000000.0 0.26131393101671313 -0.329623984610084
560000000.0 -0.3098065798664636 0.17395124542554471
580000000.0 0.3235896291364072 -0.07619006063360785
600000000.0 -0.25194030357027564 -0.21451448375680526
620000000.0 0.2101690404618533 0.26915464723639115
640000000.0 0.18192382681517674 0.31858816064840395
660000000.0 0.23545240784668994 0.30413550798867656
680000000.0 -0.3872619258696091 0.13015732056047338
700000000.0 0.03242784732296135 0.4226118262153659
720000000.0 0.34940724997187234 0.2503240777941147
740000000.0 -0.276841182851219 0.33238398273808367
760000000.0 0.3159872916143963 -0.2748278870162648
780000000.0 0.32260288760587597 0.21904193234644298
800000000.0 -0.3543360525381816 0.021140344196289844
820000000.0 -0.2997843531166111 -0.006976046368948886
840000000.0 0.24288570971471127 0.024559875415194814
860000000.0 -0.1926144364584062 -0.039447857659149155
880000000.0 0.1539076372680598 0.013910684768797097
900000000.0 -0.04282483733811385 0.07000572830459399
920000000.0 0.04675855089851346 -0.016082783526356875
940000000.0 0.01268697551232758 -0.029306894400117946
960000000.0 -0.0356749875589061 -0.017123574243684644
980000000.0 -0.05222211913235391 0.02962526486581855
1000000000.0 -0.06088670553245677 0.038144028127081224
1020000000.0 -0.06370548841932126 -0.07013144863276811
1040000000.0 -0.014819872025306458 -0.10881510938584574
1060000000.0 -0.09569348841758134 -0.11457173327548592
1080000000.0 -0.013199339264346894 -0.16450497145682483
1100000000.0 -0.17211042082208733 0.07347299025114312
1120000000.0 0.16144620341125332 0.1280739154274579
1140000000.0 0.15922196191647528 -0.1769412302138047
1160000000.0 0.2559241017067238 -0.08922628255154405
1180000000.0 0.28906072133416216 0.10099625730791124
1200000000.0 -0.07951108162502804 0.3290462086334317
1220000000.0 0.09295817806357587 -0.35783166054581234
1240000000.0 -0.09918333988195906 0.38642296286517647
1260000000.0 0.169585830456043 -0.39148294451589016
1280000000.0 -0.16405188223920347 0.4129507121283809
1300000000.0 0.3901122424579116 -0.22504398848342066
1320000000.0 -0.3072674105652571 -0.3203096130740238
1340000000.0 -0.19427845656643525 -0.39034920097653997
1360000000.0 0.03359563470360252 -0.4296889085869125
1380000000.0 -0.045698276708816946 -0.4275601265370383
1400000000.0 -0.41902455871871824 -0.013756698334379423
1420000000.0 -0.07655977264544117 0.39547268865155244
1440000000.0 0.37585417567485513 0.015531702149175012
1460000000.0 0.19655758274094634 -0.2848301059554767
1480000000.0 -0.20155581338478312 -0.24433176211940152
1500000000.0 -0.2845454755600125 0.02051782276045932
1520000000.0 -0.19658390624786218 0.1682984283146926
1540000000.0 0.06082661348646546 -0.22375036059025352
1560000000.0 0.19131404762243465 0.05704018825797753
1580000000.0 0.07637868985831035 0.15336551509823929
1600000000.0 0.10322049876321027 -0.09285421900144093
1620000000.0 0.05930163190316167 -0.08820123021703243
1640000000.0 0.06877930076562969 0.04347489268728245
1660000000.0 0.0561247423632668 0.005776873598104367
1680000000.0 -0.03072331337093484 -0.014339197109019543
1700000000.0 -0.016658803643517867 0.006997480939337403
1720000000.0 -0.0016704425462368583 -0.0013339680040766614
1740000000.0 -0.007318288447577138 -0.015838145152604507
1760000000.0 0.0355152653966839 0.005091813402848155
1780000000.0 0.05759433819928727 0.0325859715329372
1800000000.0 -0.08259419283803004 0.05399339729920368
1820000000.0 0.0864962892231653 0.0978327815222669
1840000000.0 -0.05483942929927616 -0.15920696413438296
1860000000.0 0.07450734755108086 0.19349882932009121
1880000000.0 -0.08252559093745242 -0.23290311835555913
1900000000.0 0.16731206280371375 0.2338208318302167
1920000000.0 -0.24021962026270635 -0.21460624855918062
1940000000.0 0.03622266278930402 0.34877087339016194
1960000000.0 0.3400000580793961 -0.159158750907054
1980000000.0 -0.158412665745857 -0.3601777568204875
2000000000.0 -0.34272549995262547 -0.22781097974975945
2020000000.0 -0.3523461633519747 0.24008636674670752
2040000000.0 0.0067051245144435995 0.436429501869504
2060000000.0 0.43805798676630936 0.039776761307202695
2080000000.0 0.2591792063904538 -0.3513886983669375
2100000000.0 -0.023121960877822343 -0.42829596113770496
2120000000.0 -0.26060541528187225 -0.3268732330933597
2140000000.0 -0.3644718240727951 -0.18035853486839926
2160000000.0 0.0493018248544385 -0.3913106156988252
2180000000.0 -0.18680148248851638 -0.3321304794449119
2200000000.0 -0.3698967237087748 0.010706176266608662
2220000000.0 -0.17090512176671707 0.3149747530685073
2240000000.0 0.24087691453078322 0.26024408895784595
2260000000.0 0.35149271486522493 -0.00383755804751844
2280000000.0 0.25495080903238715 -0.24587843752743502
2300000000.0 -0.17372413395847208 -0.3222607180906268
2320000000.0 -0.38580442895027545 0.05929312513350968
2340000000.0 0.19771724546531522 0.37678898271182276
2360000000.0 -0.01211828570920885 -0.46925273537249784
2380000000.0 0.13041805543015425 0.5008658668382575
2400000000.0 -0.3461929045544599 -0.4497685175530372
2420000000.0 0.6058330012500942 0.11137322816544491
2440000000.0 -0.5701289572410693 0.33217793293685866
2460000000.0 0.30639353587299023 -0.6246799199795203
2480000000.0 -0.11974848886768039 0.7120471312766619
2500000000.0 0.21181454830939564 -0.7073158595759151
2520000000.0 -0.4750668237667579 0.5753552867606806
2540000000.0 0.7148281480382241 -0.20824183461639473
2560000000.0 -0.5660704111176567 -0.47031210940242496
2580000000.0 -0.1257690240210772 0.7071391037864088
2600000000.0 0.6717744674345316 -0.16660501384100138
2620000000.0 -0.47790107602699794 -0.4549982681101285
2640000000.0 -0.5510043482714908 -0.288833410768321
2660000000.0 -0.00609770494918877 0.5772228640308971
2680000000.0 0.5005867235714344 -0.17493494994759382
2700000000.0 -0.38834511425773227 -0.28826957715954443
2720000000.0 -0.06171451425423386 0.4322763033464153
2740000000.0 0.3859907971646861 -0.08756961974622145
2760000000.0 -0.29937610073711257 -0.20151605295739852
2780000000.0 0.2251197719032294 0.24727931457240576
2800000000.0 -0.28947548318656513 -0.12187700633819873
2820000000.0 0.20327514061962673 -0.22108649676696662
2840000000.0 0.2027257366582893 0.21112903542877212
2860000000.0 -0.21931463587705777 0.1881782622897989
2880000000.0 -0.15733274544865136 -0.2395451504093386
2900000000.0 0.2472720659939276 0.14593430375888283
2920000000.0 -0.09018630645568196 -0.2745616923814282
2940000000.0 -0.24823135869273374 0.15376380906199594
2960000000.0 -0.17997944630770796 0.2318643882157343
2980000000.0 -0.29441650680343345 0.04749363291381977
3000000000.0 -0.22508747003627902 -0.20174604438830043
3020000000.0 0.19385332298385902 -0.23493236055226932
3040000000.0 0.2058608096974778 0.2238286932042109
3060000000.0 -0.28049269307211655 -0.11768316520236097
3080000000.0 0.2894310184109154 -0.0836026496943353
3100000000.0 -0.15412261700033303 0.2529050240918769
3120000000.0 0.03425057067972172 -0.28478442303020324
3140000000.0 0.17726693268033336 0.21273996729903147
3160000000.0 -0.2592037300557675 -0.03203993496791048
3180000000.0 0.1019831369788676 0.22074497399740603
3200000000.0 -0.21123638443730677 0.06061646420075175
3220000000.0 0.014629082131289616 -0.19189955759756147
3240000000.0 0.08162780678915282 0.1411669352856241
3260000000.0 -0.03265705313947087 -0.12800829575534214
3280000000.0 -0.04408299941792429 0.09324007589217824
3300000000.0 0.07463397463552279 -0.01793715414678516
3320000000.0 -0.04690331999526232 -0.01829985629036329
3340000000.0 0.027427363899056714 -0.0008575754235207141
3360000000.0 -0.006366151453024806 0.006014986716273399
3380000000.0 -0.009904975787293402 -0.005036424407419287
3400000000.0 -0.0044393701650222855 0.024376971894465974
3420000000.0 -0.03666048155639972 -0.003201641318063538
3440000000.0 0.04124956809507843 -0.021227748136014767
3460000000.0 0.04394976111765685 0.02742036813868407
3480000000.0 0.010739759287137647 -0.05956515340417929
3500000000.0 0.026764463167504374 -0.06812489045669778
3520000000.0 0.064224618208918 -0.06137497649880237
3540000000.0 0.019443589893936106 0.10264968765920146
3560000000.0 -0.06746978047122436 -0.09820592749652146
3580000000.0 0.06822363925780592 0.11544754426963093
3600000000.0 -0.11253177544581379 0.10393839535475273
3620000000.0 -0.07751003832024093 0.14668628859899505
3640000000.0 -0.16887830877549 0.05420058362315896
3660000000.0 -0.1843827208636542 0.005149600856312056
3680000000.0 -0.14676234583743933 -0.11755903172497972
3700000000.0 -0.023505981747377204 -0.1858801429120177
3720000000.0 0.1458868411824138 -0.11380141244571122
3740000000.0 0.15670024539850935 0.09042652007674981
3760000000.0 -0.12761894859465492 -0.12089202062829153
3780000000.0 0.12507678127390834 0.11127158486971417
3800000000.0 0.10950183533519083 -0.11684910694466955
3820000000.0 -0.07148467289328476 -0.1356578514714335
3840000000.0 -0.06867226661087615 -0.12976624563140124
3860000000.0 0.13979252776252937 -0.04222328992125031
3880000000.0 0.14914926529282946 -0.016365575282177802
3900000000.0 0.10742718149543662 -0.10880853835673902
3920000000.0 -0.12901828990529915 -0.09409355245151112
3940000000.0 0.16514262383121317 -0.007865400636775077
3960000000.0 0.129144975841709 0.11393337554964812
3980000000.0 0.1373828483870559 -0.10629176351915903
4000000000.0 -0.015746533657918966 -0.1668527598632829
