! Created with skrf (http://scikit-rf.org).
# Hz S RI R 50.0 
!freq ReS11 ImS11
400000000.0 0.20813691458144673 0.8471040490874985
420000000.0 0.6647373622072635 0.5449304445114973
440000000.0 0.7463333318408742 -0.35054576180731023
460000000.0 -0.0393817485713707 -0.7853242101068562
480000000.0 0.5563226630969802 -0.41666308083591413
500000000.0 0.4794909537618048 0.28254929595168365
520000000.0 0.3733404255590975 0.3209067112054644
540000000.0 -0.3846455930607225 0.2136917520948411
560000000.0 0.2537443773658709 -0.284192748706335
580000000.0 -0.17764167416323381 0.31498609219576235
600000000.0 0.17857174324326047 -0.3139893464777518
620000000.0 0.07458917579292773 0.36777637167085026
640000000.0 0.14209238352302608 -0.3726848751488289
660000000.0 -0.1886492769426597 -0.3551415244858658
680000000.0 0.409892014133295 0.032486287608913894
700000000.0 0.26152801390434843 -0.33032698743040567
720000000.0 0.16986669434406584 -0.3869670055251114
740000000.0 0.1261657554217389 0.4053425577620826
760000000.0 0.0807814442840455 -0.4023905749703382
780000000.0 0.3396838951308278 0.1661072675900461
800000000.0 -0.3278571315818229 -0.10955351756665284
820000000.0 -0.21002033936889292 -0.2007513924142286
840000000.0 -0.18960246588931223 0.14055249672866513
860000000.0 0.16589999518551476 -0.11135752933339334
880000000.0 -0.1390708726121999 -0.019544064681331918
900000000.0 0.08119643432412527 -0.0014416521054237703
920000000.0 -0.036298712843838 -0.04537921487116036
940000000.0 0.037248926561461525 0.0001758322654732931
960000000.0 -0.0178110805565069 0.03802806736491391
980000000.0 0.024186604524819827 0.05767072903618303
1000000000.0 0.04063259918553822 0.07380517054273614
1020000000.0 -0.08476703032817529 -0.07183024292830707
1040000000.0 -0.11449317752277287 0.05708552064922257
1060000000.0 0.11024408911068574 0.11723466246927053
1080000000.0 0.15470147763166714 0.07428920727522868
1100000000.0 -0.013261717814344228 -0.1852029517788056
1120000000.0 -0.05272183368755076 -0.19175444837377248
1140000000.0 0.07719348839282007 -0.21359220135813556
1160000000.0 0.18681206538583897 0.18558538005169944
1180000000.0 -0.21455507775892774 0.21928682471151753
1200000000.0 -0.3440323516211178 0.004997905570581835
1220000000.0 0.2272044437515871 -0.29862818729950624
1240000000.0 -0.04230138428418461 0.3992795595931277
1260000000.0 0.1399885456387885 -0.40213942510304873
1280000000.0 -0.258984637389726 0.35552801752204743
1300000000.0 0.44827414368756524 -0.014887554245352578
1320000000.0 -0.04197397908577023 -0.44226923841871096
1340000000.0 -0.01466352534257706 -0.43827275955319617
1360000000.0 0.10080831961513065 -0.4203383881673446
1380000000.0 -0.13092107487654583 -0.41213330305472357
1400000000.0 -0.41642060161228406 0.03791187976684927
1420000000.0 0.06761547859503521 0.3937459411681695
1440000000.0 0.34967340063275476 0.13371530309937973
1460000000.0 0.18845574858017347 -0.28944959972047385
1480000000.0 -0.19033943418839414 -0.2507727529313054
1500000000.0 -0.279290226308987 0.05397480731381904
1520000000.0 -0.23224374364578088 0.11031257165615065
1540000000.0 0.10626486002555922 -0.20239488164803662
1560000000.0 0.147083444559536 0.12954011570171578
1580000000.0 -0.12604316966085394 0.11242385033299845
1600000000.0 0.09480447782739328 0.10294337830117
1620000000.0 0.045376356773533216 0.10039458778761137
1640000000.0 -0.07739295654587351 0.04021706429516656
1660000000.0 -0.04861183665974284 0.043379608968669894
1680000000.0 -0.01875549208408422 -0.04075348136248073
1700000000.0 -0.026515532238987796 -0.012610782201646391
1720000000.0 0.001311054800806299 -0.010028995407993015
1740000000.0 0.0078613018633329 0.011643216661310466
1760000000.0 0.007803174407857785 0.03535051286560591
1780000000.0 0.04712112820596973 -0.054098288330767824
1800000000.0 0.02432122602780709 0.10772512761747705
1820000000.0 0.08474204980959232 0.11794871285234267
1840000000.0 -0.05844864863461239 0.1712975577977723
1860000000.0 -0.193714554744027 -0.08495785905301133
1880000000.0 0.09116213465122336 0.22314161574759947
1900000000.0 0.24609572271192254 -0.1194841472478901
1920000000.0 -0.13385170839536106 -0.27299407130354714
1940000000.0 -0.32468833443347744 -0.08748730340545734
1960000000.0 -0.13110234977098048 0.34325131532089603
1980000000.0 0.38059735984538007 0.09722094537573914
2000000000.0 0.22766513172277233 -0.3483403935930708
2020000000.0 -0.4262720896905987 -0.07415024793871337
2040000000.0 -0.07614683139907127 0.4336778836031517
2060000000.0 0.4408405153161338 -0.012720681629857383
2080000000.0 0.08009737289203814 -0.4267219044752112
2100000000.0 -0.17611022106363944 -0.3868894360531416
2120000000.0 -0.32319930788008466 -0.257459965787221
2140000000.0 -0.3987859751602295 -0.03474876480845447
2160000000.0 -0.06741478599845388 -0.37834447038975744
2180000000.0 -0.12840702181549093 -0.3455768878857511
2200000000.0 -0.20744449916669472 -0.2898311762180733
2220000000.0 -0.2772181506163242 -0.21076347258607067
2240000000.0 -0.3338060938877159 0.09376524771081098
2260000000.0 -0.112934197531591 0.328669634739443
2280000000.0 0.15235953515590447 0.31716122092403587
2300000000.0 0.2915400796961781 -0.21977005804114458
2320000000.0 -0.24559397183313292 -0.2975510412851872
2340000000.0 -0.29614447702584024 0.2896854820831856
2360000000.0 0.4300574561779218 0.1439679359191195
2380000000.0 -0.32808000437057516 -0.37842958230434104
2400000000.0 0.2655842522157595 0.486181120482731
2420000000.0 -0.5053012623992037 -0.33883477874904244
2440000000.0 0.6505423667890371 -0.10329992037217299
2460000000.0 -0.40115746170900507 0.5730072577599948
2480000000.0 0.04282562894438804 -0.7292987331905053
2500000000.0 -0.08108156463610383 0.7473796695631795
2520000000.0 0.18148716451684366 -0.7406433911341743
2540000000.0 -0.46252409935123345 0.6093891212463852
2560000000.0 0.7543230787025876 -0.087866963319687
2580000000.0 -0.5011956881685018 -0.5506305210083656
2600000000.0 -0.09243520902091265 0.7147726733730091
2620000000.0 0.6040705277493633 -0.33349123512363565
2640000000.0 0.32375373081336795 -0.5662592696125403
2660000000.0 -0.5924250667796254 0.13418486079824904
2680000000.0 0.4568907388711619 0.32278297773476544
2700000000.0 -0.06966489498881961 -0.506847658055133
2720000000.0 -0.2781927460029414 0.3702150385816901
2740000000.0 0.4041434652115701 -0.11311745562215378
2760000000.0 -0.37791091924453685 -0.051807376271667
2780000000.0 0.3393935725129865 -0.09355601413649808
2800000000.0 -0.20688798800485653 0.25336945585155396
2820000000.0 -0.10963995043588882 -0.2895827309248388
2840000000.0 0.29868793796817206 0.008804976247629152
2860000000.0 -0.16203986199293052 0.2464136874593543
2880000000.0 -0.08776106411798283 -0.2802418643713647
2900000000.0 0.13060951063961182 0.2657327150249932
2920000000.0 0.148403408135811 -0.2609456170472768
2940000000.0 -0.30423208954529407 -0.04058603508205939
2960000000.0 -0.21096359527055855 0.22693834168184798
2980000000.0 -0.2480813413461077 0.1929202164284805
3000000000.0 -0.3149538126677742 0.01783120479767279
3020000000.0 -0.10805365976587973 -0.2973564785735502
3040000000.0 0.30689085922860715 0.06283357522704831
3060000000.0 -0.27491428650859073 0.1432566224668459
3080000000.0 0.27341541332646774 -0.1349472978317635
3100000000.0 -0.19439200435377055 0.22821237026341157
3120000000.0 0.17562153871488556 -0.23327402622750532
3140000000.0 -0.05433708677605262 0.2767329191096221
3160000000.0 -0.12934077264611912 -0.23495085292673132
3180000000.0 -0.11146493327805532 0.22547840863177884
3200000000.0 -0.1822757661365199 -0.1385300697483823
3220000000.0 0.06622868696598645 -0.19110230292036695
3240000000.0 0.16133030900358306 0.05872225422788508
3260000000.0 -0.13654562545337315 0.017272813367992988
3280000000.0 0.08841186003648786 -0.05647296231336374
3300000000.0 -0.07049581714722655 -0.025470645992096214
3320000000.0 -0.00667282466448859 0.04608610898964161
3340000000.0 -0.01774754110882575 0.013990175991852519
3360000000.0 0.0027369379618603527 -0.0033187030759814534
3380000000.0 -0.007733619781027388 -0.006050073157696449
3400000000.0 -0.012801491539635295 0.01702660551669556
3420000000.0 0.018463333867988752 -0.028528601346769523
3440000000.0 -0.0028144771192316295 -0.04561240880302896
3460000000.0 0.05436710637314444 -0.00816257100190648
3480000000.0 -0.030940035458687475 0.06043573467631098
3500000000.0 0.08107419943153639 -0.017089311767609475
3520000000.0 -0.09675438522294877 -0.018963699869012262
3540000000.0 0.022686193765382202 -0.11051732228067075
3560000000.0 0.09637854539659887 0.0788920325384329
3580000000.0 -0.09316634493781012 -0.10004466702780261
3600000000.0 0.15234807039235207 -0.016580235685780837
3620000000.0 0.04156870193852719 0.16002029732280712
3640000000.0 -0.17671189373161056 -0.008992307938033583
3660000000.0 -0.14058260880801265 -0.12423566970321423
3680000000.0 -0.006696580749187096 -0.19323005426303594
3700000000.0 0.013640453655086869 -0.19444702796734012
3720000000.0 0.1346696648983728 -0.14072280558856468
3740000000.0 0.13550876922623256 -0.1331897654233209
3760000000.0 -0.04703396798134527 0.1761780030534364
3780000000.0 0.031613192257783654 -0.16791749395476163
3800000000.0 -0.13434117933301365 -0.08631994505031444
3820000000.0 -0.10253831982521153 -0.11149930828195671
3840000000.0 0.1317536869711092 -0.06376128818780764
3860000000.0 -0.06901846472151867 0.13190746833842631
3880000000.0 0.047622957634938796 0.14885979778348352
3900000000.0 0.14458028663546357 -0.07026182177312992
3920000000.0 -0.16581572803508057 -0.003687514157310436
3940000000.0 0.0825572236762657 -0.14860816926205636
3960000000.0 0.16772916386127623 0.03984515225304068
3980000000.0 0.1142228260626828 -0.1294568725669273
4000000000.0 0.05417597711048072 -0.15672816222271418
