! Created with skrf (http://scikit-rf.org).
# Hz S RI R 50.0 
!freq ReS11 ImS11
400000000.0 0.22499570651500572 0.8429172809491953
420000000.0 0.6560686973773986 0.5550115780813336
440000000.0 0.7434148688998459 -0.3572506183298516
460000000.0 0.0010959631671080283 -0.7861042092270744
480000000.0 0.5398827410145838 -0.43897934647976106
500000000.0 0.47291935144650843 0.2925045109018957
520000000.0 0.3192168463558714 0.37472331651857277
540000000.0 -0.3572819330825675 0.26072669248845887
560000000.0 0.21025348887301054 -0.31593355431130393
580000000.0 -0.24375819312403765 0.26850018988441265
600000000.0 0.2278695473938601 -0.2797840495503758
620000000.0 0.15189204417183688 0.34382568019475485
640000000.0 0.172310247515641 -0.35936187288421323
660000000.0 -0.19848196392154746 -0.3507407459291372
680000000.0 0.4107941139983138 0.006902196621308702
700000000.0 0.2714190721568805 -0.32334503357223543
720000000.0 0.12680682651953826 -0.40354173608860666
740000000.0 0.14671529943125916 0.3975505108635544
760000000.0 0.153303782102583 -0.3801339011496516
780000000.0 0.35322122822222507 0.13554801786051707
800000000.0 -0.32089433714306564 -0.1277241283148967
820000000.0 -0.19446829195017923 -0.21539288776632579
840000000.0 -0.20106548075798344 0.1238189506006566
860000000.0 0.14072403134054 -0.14219861678313203
880000000.0 -0.1374238998215287 -0.02905094031852126
900000000.0 0.08155572082072307 -0.008785961853579284
920000000.0 -0.05370574086070441 -0.023520468822516283
940000000.0 0.036950074873817726 0.0035121282975661494
960000000.0 -0.042022460864135754 0.005382666316292985
980000000.0 0.008775845845799799 0.06247413060246495
1000000000.0 0.0577886296650541 0.061133559299388636
1020000000.0 -0.1022287271189073 -0.044046180197681646
1040000000.0 -0.1084039945159117 0.06765419894353027
1060000000.0 0.11984235319296833 0.10725240784487834
1080000000.0 0.1552673480357183 0.07248654334531328
1100000000.0 -0.036151000866734735 -0.18183303233263157
1120000000.0 -0.021922285004738976 -0.19722828501339093
1140000000.0 0.1076941023762595 -0.20024188267988502
1160000000.0 0.14572375774224594 0.21912011301929496
1180000000.0 -0.22717680595496986 0.20669357367009772
1200000000.0 -0.3435813574847418 -0.02183262290266264
1220000000.0 0.26517939041146227 -0.2658461151614949
1240000000.0 -0.044117758636176105 0.39954892364234823
1260000000.0 0.16277503827941833 -0.39386577222320823
1280000000.0 -0.26838607447917445 0.3487560902272658
1300000000.0 0.4476467182787874 0.029974955115538528
1320000000.0 -0.01863859680869481 -0.4439044174055457
1340000000.0 0.00012154571069183993 -0.4384865722797324
1360000000.0 0.1469526620374416 -0.4060683907138302
1380000000.0 -0.10813779950168999 -0.41828399731762567
1400000000.0 -0.41727685349868826 0.01296115250271614
1420000000.0 0.013811589446952745 0.3985858762200426
1440000000.0 0.33549178820874676 0.1641152286927936
1460000000.0 0.21591701741640212 -0.26885173870780654
1480000000.0 -0.15745577600004257 -0.2719688381739059
1500000000.0 -0.28229023047287616 0.02943500773166654
1520000000.0 -0.2337007364840134 0.10549822559285496
1540000000.0 0.0947881088961837 -0.2074652094377539
1560000000.0 0.15824059856237502 0.11439527079782658
1580000000.0 -0.11455236186755637 0.12322676483121124
1600000000.0 0.10629834715000858 0.09068491626684401
1620000000.0 0.07796370549394005 0.0781079520049128
1640000000.0 -0.05700603201951898 0.06639367422688562
1660000000.0 -0.04023372428804409 0.0521268747526017
1680000000.0 -0.024624825264734636 -0.03835152327469806
1700000000.0 -0.026299042628067367 -0.014717552000907713
1720000000.0 0.009782949263251895 0.0036252274390848847
1740000000.0 -0.0017702887086956597 0.0137922891778616
1760000000.0 0.033720027346090455 0.013580788997234278
1780000000.0 0.020758695808189453 -0.06899395520513034
1800000000.0 0.057794798598586064 0.09479086627846435
1820000000.0 0.10514078494663344 0.10080176673790633
1840000000.0 -0.03184824452960457 0.1785949713640845
1860000000.0 -0.19854402820111192 -0.0735903491823842
1880000000.0 0.08903389924242769 0.22425694492677173
1900000000.0 0.24890215387166525 -0.11360850997465784
1920000000.0 -0.1097691753707591 -0.28343723754684197
1940000000.0 -0.3165877749427297 -0.11333128795166555
1960000000.0 -0.1590824940697592 0.3312512365693742
1980000000.0 0.37252704471917975 0.12428866810122402
2000000000.0 0.24467213038342006 -0.3363581525793668
2020000000.0 -0.42657623677384643 -0.06894256474941243
2040000000.0 -0.04307418055223288 0.43746228949939486
2060000000.0 0.43942616768411524 -0.029934547875355873
2080000000.0 0.07541355061999003 -0.42704479916073873
2100000000.0 -0.1833109062109585 -0.38300140373479036
2120000000.0 -0.34449292450974006 -0.2272249631361714
2140000000.0 -0.3998503230092991 -0.004313697463378992
2160000000.0 -0.09753450867595194 -0.3716340505297127
2180000000.0 -0.18103883479337346 -0.32063215730229927
2200000000.0 -0.2394338902453414 -0.26352115963550016
2220000000.0 -0.2992020618450384 -0.17766826775570063
2240000000.0 -0.3232923181658254 0.12405669697623514
2260000000.0 -0.07717454409096067 0.3387953342560193
2280000000.0 0.1903952387485379 0.2963355625440871
2300000000.0 0.2635115708281371 -0.2529681348235078
2320000000.0 -0.2770847792070997 -0.26833232006281243
2340000000.0 -0.27586940272873256 0.3083889566055941
2360000000.0 0.43502116147497605 0.1272480462457184
2380000000.0 -0.31667060684320175 -0.3874952521626202
2400000000.0 0.2585350049014622 0.48969900645945225
2420000000.0 -0.4844786293784055 -0.36795067719864716
2440000000.0 0.6517730687112004 -0.0924191363620788
2460000000.0 -0.40234702831677993 0.57173779502753
2480000000.0 0.08826142530903663 -0.7253467946554725
2500000000.0 -0.03744200888178739 0.7503493235808101
2520000000.0 0.19127414821705457 -0.7380840896150117
2540000000.0 -0.4967732582082825 0.5816668245180899
2560000000.0 0.7557078156641404 -0.0737793819833545
2580000000.0 -0.48423687403114324 -0.5652030435758949
2600000000.0 -0.11568667970632154 0.7107370169695217
2620000000.0 0.5911838219607353 -0.3553747591932499
2640000000.0 0.3075035230723928 -0.5746940898547072
2660000000.0 -0.5914983965533439 0.13541883306467972
2680000000.0 0.43564128165721666 0.3495129616758719
2700000000.0 -0.06208812247179827 -0.5071359620579537
2720000000.0 -0.25434976241727714 0.38632563155299476
2740000000.0 0.39743480281802696 -0.134144332954586
2760000000.0 -0.38073755825696953 -0.01792459387399343
2780000000.0 0.33422088228513613 -0.10911292301157256
2800000000.0 -0.19693632325967575 0.26090713251033015
2820000000.0 -0.13339920356035664 -0.2791860001737931
2840000000.0 0.29651903146076714 -0.027805831251441145
2860000000.0 -0.1332202280316091 0.2622593752915018
2880000000.0 -0.09703379335502228 -0.2771996493248447
2900000000.0 0.14195848437857134 0.25963715537784915
2920000000.0 0.12891227136041727 -0.2708263375800561
2940000000.0 -0.30615207614056744 -0.02006243776829179
2960000000.0 -0.19897832802579482 0.23745750383696226
2980000000.0 -0.25767914892506183 0.17983963691656082
3000000000.0 -0.31509607031186604 0.01758239599929474
3020000000.0 -0.1076548663441704 -0.29736581421980873
3040000000.0 0.3082792485692422 0.05512046737739616
3060000000.0 -0.2883774741441197 0.11498091917828214
3080000000.0 0.26321196212458503 -0.1540042335825287
3100000000.0 -0.17583376466726494 0.24301476146100007
3120000000.0 0.11976960404360339 -0.26742726220449414
3140000000.0 -0.05839573431582668 0.2764326640325427
3160000000.0 -0.141398048850151 -0.22827205833805717
3180000000.0 -0.13042337346118002 0.21544991484655204
3200000000.0 -0.16438628261337215 -0.16017416923132993
3220000000.0 0.08982313319933577 -0.18224027773796406
3240000000.0 0.14492465062078203 0.0926137952272749
3260000000.0 -0.1371966731596269 -0.015642262586441
3280000000.0 0.10506148536724821 0.007982788263399987
3300000000.0 -0.024628489515104223 -0.07123696337586828
3320000000.0 -0.03574595174411031 0.030194121218602182
3340000000.0 0.00874356154455916 -0.02080514503930346
3360000000.0 0.0031226124115422086 0.0032762422058708117
3380000000.0 0.009571328220726224 -0.0036577452450291584
3400000000.0 -0.002358275936253764 -0.021715731442797606
3420000000.0 -0.0290270981174118 -0.017970243624299522
3440000000.0 -0.04024101921962102 -0.02143277350464124
3460000000.0 0.03071507168661898 -0.045538174689792286
3480000000.0 0.012459793335042798 0.06703563581697072
3500000000.0 0.0620757737662238 -0.0550850141461742
3520000000.0 -0.09614189004264434 0.02291357933003759
3540000000.0 -0.02495319158799719 -0.11043859170800309
3560000000.0 0.11842337448180076 0.04064351425304374
3580000000.0 -0.1199287311848029 -0.06662099241609219
3600000000.0 0.15136212526353274 -0.024903578239137383
3620000000.0 0.0819291036559015 0.1449732566952002
3640000000.0 -0.17686567861569485 0.013993963650990237
3660000000.0 -0.15656586034566788 -0.1049805205968052
3680000000.0 -0.02246817231824673 -0.1928522345056918
3700000000.0 0.0015061471782914706 -0.1955869831220704
3720000000.0 0.12427625134342675 -0.15099687006646337
3740000000.0 0.13104238417564273 -0.1384822056812604
3760000000.0 -0.04487915438811441 0.1773077690432549
3780000000.0 0.032341068171777475 -0.1687928479767156
3800000000.0 -0.13085163406953157 -0.09242713225721713
3820000000.0 -0.09591364989797783 -0.11791813195067032
3840000000.0 0.1265522467493136 -0.0748957771642921
3860000000.0 -0.06469818258400968 0.13463907518652646
3880000000.0 0.05222015699200925 0.147994613799446
3900000000.0 0.13776785009557602 -0.08376482403928162
3920000000.0 -0.16588749908953665 0.008884670812325593
3940000000.0 0.10148727699797272 -0.13663062608762544
3960000000.0 0.16386269453427707 0.055379004643540536
3980000000.0 0.139203177265853 -0.10262936536214795
4000000000.0 0.10362707640865929 -0.12982294188874619
