! Created with skrf (http://scikit-rf.org).
# Hz S RI R 50.0 
!freq ReS11 ImS11
400000000.0 -0.677307266755442 0.525538281288587
420000000.0 -0.10284755335627258 0.858040053798441
440000000.0 0.7845367604135928 0.2948718863099019
460000000.0 0.423371148552869 -0.680498012841295
480000000.0 0.6530229437105395 -0.3390983150600943
500000000.0 -0.3632926566341976 0.4531579302198953
520000000.0 -0.27308917183557607 0.3993501763437309
540000000.0 0.27845563387525346 -0.3138981687531346
560000000.0 -0.3294003926932 0.1335144265696995
580000000.0 0.32661345956432786 -0.060318483731768124
600000000.0 -0.25754451903510267 -0.20765324232115295
620000000.0 0.1746039924384147 0.2953660255074249
640000000.0 0.1592816591697053 0.33031983447617125
660000000.0 0.24202427450575684 0.29913506961779784
680000000.0 -0.3900147898210748 0.12216972380121678
700000000.0 0.045277544823633914 0.4210857274735776
720000000.0 0.36395878404087156 0.23048390637624158
740000000.0 -0.29570281940077087 0.31496364409141014
760000000.0 0.31407565156173695 -0.2768155592687913
780000000.0 0.32847655389874414 0.209695618318915
800000000.0 -0.35370644593251116 0.02471907021333237
820000000.0 -0.29396616787648866 0.05751200748143081
840000000.0 0.24449685612685607 -0.005696977083558499
860000000.0 -0.1813966157452359 -0.07508018196465349
880000000.0 0.15318659506151353 -0.016021056446208694
900000000.0 -0.0755657248821525 0.03428084895958619
920000000.0 0.046603496402682916 -0.015006016022730722
940000000.0 0.014909314361314072 -0.028227131226576014
960000000.0 -0.02607121659122459 -0.02945527331362941
980000000.0 -0.03938480357805114 0.045143095745358866
1000000000.0 -0.058152233492703084 0.042482415328336735
1020000000.0 -0.05589498097751265 -0.07576862072151497
1040000000.0 -0.025465220771813426 -0.10666295427084378
1060000000.0 -0.08819681164989975 -0.12065866420184265
1080000000.0 -0.027741713245962713 -0.16281742403430968
1100000000.0 -0.17479526379808033 0.06627353604955635
1120000000.0 0.17358075485309093 0.11072610131458388
1140000000.0 0.15143477016804105 -0.18369930104168022
1160000000.0 0.25735422134575375 -0.08556813792531658
1180000000.0 0.28955837263222506 0.09900097094336825
1200000000.0 -0.07871975041310572 0.3292269216335439
1220000000.0 0.09167444961346381 -0.3581997474974591
1240000000.0 -0.09426543504845411 0.3875595676550623
1260000000.0 0.17575057754689918 -0.38870858271130265
1280000000.0 -0.18008078938783154 0.40647492257785317
1300000000.0 0.39172303089540744 -0.22266051783244278
1320000000.0 -0.3082265627079044 -0.3194341227839231
1340000000.0 -0.19110564260844973 -0.3920188170756498
1360000000.0 0.0533338968492936 -0.4278041894719481
1380000000.0 -0.04187112687453154 -0.4278924468449277
1400000000.0 -0.4193228298090398 -0.007625202992468057
1420000000.0 -0.0723069909678542 0.3962954000500514
1440000000.0 0.3749578001582995 0.031656799536549866
1460000000.0 0.1911927925024062 -0.2883887752210592
1480000000.0 -0.18812677349800414 -0.25443055221395217
1500000000.0 -0.2841843161780694 0.024978854502768946
1520000000.0 -0.20568258131148018 0.1575087592269683
1540000000.0 0.044623951385996105 -0.22761251506247232
1560000000.0 0.1962460829601927 0.03244354834375108
1580000000.0 0.04037823583948366 0.16616892043961068
1600000000.0 0.09654837047259607 -0.0998006464657814
1620000000.0 0.07328991680831477 -0.07685359113799019
1640000000.0 0.07076140044665602 0.04024684191654334
1660000000.0 0.053685808285117646 0.016772172647422166
1680000000.0 -0.03182062501841153 -0.01249187570433708
1700000000.0 -0.007768349857753627 -0.015800128193488118
1720000000.0 0.0007834697164383914 0.0012837464231807423
1740000000.0 0.01543049713323839 -0.007711995854293491
1760000000.0 0.03555824660021429 0.002876877652777795
1780000000.0 0.05909606872615513 0.029195098073250113
1800000000.0 -0.08119175348425901 0.05675886802824387
1820000000.0 0.08993978255487346 0.0944366030994964
1840000000.0 -0.06923065871032931 -0.15342495299873343
1860000000.0 0.08888925093848342 0.1868610479930815
1880000000.0 -0.10592820935988412 -0.2233529079659815
1900000000.0 0.1815958586008394 0.22290650499823864
1920000000.0 -0.24521184374046012 -0.20877064450447227
1940000000.0 0.04117882182637661 0.34808874800889145
1960000000.0 0.33985120446636824 -0.15927102229745402
1980000000.0 -0.1664136327575506 -0.3566720868116725
2000000000.0 -0.3496025834151675 -0.21743944896290893
2020000000.0 -0.3732529693566069 0.20674658913956362
2040000000.0 0.013793451869252491 0.4363962838818142
2060000000.0 0.43766911929767843 0.04579576542310751
2080000000.0 0.24811259067499752 -0.3589763864418073
2100000000.0 -0.05536105926037959 -0.42482846991608386
2120000000.0 -0.22740867303729279 -0.3508470935504501
2140000000.0 -0.35716151089701115 -0.19428634629438665
2160000000.0 0.056450655098161134 -0.3899420146051501
2180000000.0 -0.18137251332258428 -0.33511131381894715
2200000000.0 -0.3700735562006317 0.0038147289013425716
2220000000.0 -0.16742879664144858 0.31689515179999567
2240000000.0 0.2396599073734159 0.2611247986978656
2260000000.0 0.35105310043684806 -0.013599820778320266
2280000000.0 0.2554548387773924 -0.24495108047620698
2300000000.0 -0.1586797249845031 -0.3295986200510296
2320000000.0 -0.3854510711783223 0.0604885359158016
2340000000.0 0.1932088882845562 0.3789966367543136
2360000000.0 0.005918395957179726 -0.4692574410261338
2380000000.0 0.12872567448493952 0.501104530781882
2400000000.0 -0.2986155418395858 -0.4826508246614686
2420000000.0 0.596952813864139 0.15112322748129425
2440000000.0 -0.5797511246128788 0.31503563299302095
2460000000.0 0.3107019489332052 -0.6220926629629031
2480000000.0 -0.14438472394662646 0.7073514252938173
2500000000.0 0.2009480434156931 -0.7104061917245541
2520000000.0 -0.4729785434669567 0.5766879517540895
2540000000.0 0.7238227788435689 -0.17454573549039112
2560000000.0 -0.5747555101742017 -0.45955360355527103
2580000000.0 -0.19143286864944006 0.692320837148026
2600000000.0 0.668679901902002 -0.1785481344869857
2620000000.0 -0.42954146290674117 -0.5013516244428289
2640000000.0 -0.5368864488832109 -0.3146131615804636
2660000000.0 -0.029254439346469045 0.5767046145250686
2680000000.0 0.5032349759326009 -0.16795594483423704
2700000000.0 -0.37553624766971117 -0.30488666561224104
2720000000.0 -0.06788482249594244 0.4315423102877734
2740000000.0 0.3890518625975707 -0.07447073585707054
2760000000.0 -0.2903447946925499 -0.21443044266570926
2780000000.0 0.21814849630365207 0.2534070878270752
2800000000.0 -0.28544749227170646 -0.13115270336363472
2820000000.0 0.20467289418650575 -0.21952131926198615
2840000000.0 0.22636764517427452 0.18428428267121935
2860000000.0 -0.21093349035872103 0.1968859763920637
2880000000.0 -0.16944550446321066 -0.23104420324285474
2900000000.0 0.23878617202544236 0.1602618251803771
2920000000.0 -0.08398752410954886 -0.2769401400957794
2940000000.0 -0.24740130890610704 0.1561013416682991
2960000000.0 -0.2041792491534258 0.21116791798006065
2980000000.0 -0.29542906744890607 0.04106443639519208
3000000000.0 -0.24292772227400442 -0.18001145325655368
3020000000.0 0.15000538501706964 -0.2648053192554482
3040000000.0 0.15232225105144226 0.2634077303241131
3060000000.0 -0.292584981209196 -0.08446394575672482
3080000000.0 0.2903249670744233 -0.08027605445585113
3100000000.0 -0.19003842612975635 0.22669516914490567
3120000000.0 0.002379276984886264 -0.2868012832178604
3140000000.0 0.17087516496829258 0.21767371289783968
3160000000.0 -0.2607059408371041 -0.013800983006916734
3180000000.0 0.1071480779760632 0.21797566436011342
3200000000.0 -0.21401932308363336 0.048983954884592514
3220000000.0 0.020946194463618506 -0.1913518486105322
3240000000.0 0.0787868064188357 0.14293416668786044
3260000000.0 -0.03134569168649465 -0.12800759801651715
3280000000.0 -0.04052072841500292 0.09474829109585987
3300000000.0 0.07128906965418459 -0.028149190763248472
3320000000.0 -0.045406032328746355 -0.020975593936363546
3340000000.0 0.021828520575232657 -0.01686801022600629
3360000000.0 0.008906027183707158 0.00081859757652955
3380000000.0 0.0076450741487360165 -0.008167461489502146
3400000000.0 -0.023396804591865862 0.007488478531290749
3420000000.0 -0.03467175034896399 -0.012594613282530706
3440000000.0 0.045085518440454476 -0.00970553971308942
3460000000.0 0.03777677480967103 0.03497447816881141
3480000000.0 0.015520754168313985 -0.05823579897764992
3500000000.0 0.035707024469152575 -0.06406503628197413
3520000000.0 0.02577348480861274 -0.08531389712285653
3540000000.0 0.02399782515456018 0.10185190674976322
3560000000.0 -0.05577620971573055 -0.10488651915689681
3580000000.0 0.07232352632891294 0.11252854441448776
3600000000.0 -0.09731601496488974 0.11861205135877904
3620000000.0 -0.07331262283183987 0.14864860391629411
3640000000.0 -0.16445996152336764 0.06600547464529719
3660000000.0 -0.18353898066322477 0.02251008615245835
3680000000.0 -0.1540258800955816 -0.10806629467064036
3700000000.0 -0.029563886481937172 -0.1853854853267444
3720000000.0 0.14175497124744066 -0.12006389871870159
3740000000.0 0.15962291259848055 0.08600632976692421
3760000000.0 -0.13323039484980131 -0.11546942597691819
3780000000.0 0.1264336532631898 0.11026994406406752
3800000000.0 0.1082582235083467 -0.11857751225001949
3820000000.0 -0.06664608416682145 -0.1385575555709152
3840000000.0 -0.055875369667479406 -0.13652698802397803
3860000000.0 0.14373810890862682 -0.026963021632082574
3880000000.0 0.15020466119038703 0.0003115978225297772
3900000000.0 0.12256003827867777 -0.09146877939146594
3920000000.0 -0.11798236647343066 -0.10792289302965254
3940000000.0 0.16544138887264845 0.005022694246312102
3960000000.0 0.11175015010150859 0.13146830181058833
3980000000.0 0.14779721808635032 -0.09076985765973809
4000000000.0 -0.008946832970225945 -0.16722196049551283
