! Created with skrf (http://scikit-rf.org).
# Hz S RI R 50.0 
!freq ReS11 ImS11
400000000.0 0.21876988314266912 0.8440777334454539
420000000.0 0.6579649306609304 0.5520860011942607
440000000.0 0.7568291358899357 -0.3271998372853881
460000000.0 -0.08130555568387303 -0.78276197373754
480000000.0 0.5244849415313331 -0.45635417800619876
500000000.0 0.48661105378757313 0.26817605944619916
520000000.0 0.31082497006254756 0.3812285683572144
540000000.0 -0.3741796253619717 0.23636396204759288
560000000.0 0.17734842656955177 -0.33564246620559485
580000000.0 -0.2564260893359519 0.25544233567624225
600000000.0 0.23078551664365102 -0.278606621056781
620000000.0 0.19508477723316828 0.3204656102808617
640000000.0 0.16473495691736026 -0.36128952198802894
660000000.0 -0.15771253860084647 -0.37049389311686853
680000000.0 0.41132898438373344 0.006114373450489422
700000000.0 0.2765831921872114 -0.31780059302635394
720000000.0 0.17571415258098022 -0.38474050927873704
740000000.0 0.0888858141476092 0.41566452315081365
760000000.0 0.051954719065251606 -0.4072810763387271
780000000.0 0.3378011975674986 0.17092439506706847
800000000.0 -0.3125878154464908 -0.14871933312232014
820000000.0 -0.2554318656930776 -0.1400360077944707
840000000.0 -0.16464526862412251 0.1677803435204089
860000000.0 0.15775179659734656 -0.12041510672918737
880000000.0 -0.1154891858804633 -0.07906609683941439
900000000.0 0.07935631214737575 -0.018501918833960306
920000000.0 -0.04616899759014981 -0.032788105521136875
940000000.0 0.03559043716179002 -0.0030018036877267505
960000000.0 -0.04021652832407111 -0.01025937171164754
980000000.0 0.016690172118288497 0.06019679328001796
1000000000.0 0.040554744759087706 0.0722800891076711
1020000000.0 -0.043070608250757245 -0.10146476713148163
1040000000.0 -0.12221738455418583 -0.0369627797999195
1060000000.0 0.06344580586789654 0.14898542971350903
1080000000.0 0.1305681775788683 0.11259760288820636
1100000000.0 -0.03587497333309829 -0.18319559581540953
1120000000.0 -0.061248482249229595 -0.19003861133428707
1140000000.0 -0.00903284502918504 -0.22771799978894816
1160000000.0 0.22085951366908188 0.14338908118195123
1180000000.0 -0.15807054202356627 0.26265962502310025
1200000000.0 -0.3353972345740812 0.07347457895326541
1220000000.0 0.20176426610686982 -0.3152608291156831
1240000000.0 -0.011422026836690715 0.40058304192694894
1260000000.0 0.13109564485501243 -0.40481530877182187
1280000000.0 -0.25339002389806364 0.3595350696264515
1300000000.0 0.44871984061615405 -0.0034085538619390695
1320000000.0 -0.06623635027856188 -0.4397222083171666
1340000000.0 -0.05286766730223997 -0.4357247873310846
1360000000.0 0.09989712194842026 -0.4210144892037648
1380000000.0 -0.15018932482825628 -0.40594939963946713
1400000000.0 -0.4109938576484373 0.0789080879437211
1420000000.0 0.08627735547492013 0.39025008951316786
1440000000.0 0.35777125321290365 0.11022979078234714
1460000000.0 0.15916729614968375 -0.30696081212820536
1480000000.0 -0.23577271511086628 -0.20909371728715476
1500000000.0 -0.2720929257009597 0.08359716380788187
1520000000.0 -0.21683695178650939 0.13770939337096605
1540000000.0 0.08388350923089803 -0.2128953441961573
1560000000.0 0.16565364756260625 0.10425018115540353
1580000000.0 -0.11309750458318252 0.12541111065491573
1600000000.0 0.11019943092780106 0.08657720794796246
1620000000.0 0.08404802290905099 0.07135164829114188
1640000000.0 -0.05726129427703968 0.06541062911558441
1660000000.0 -0.05391717176297199 0.036254307844655054
1680000000.0 0.018713642948374146 -0.040254919717577074
1700000000.0 0.003246382159033537 -0.028844908875154177
1720000000.0 -0.008644621652902746 0.003654957900526822
1740000000.0 0.012534731774945984 -0.005071922553651901
1760000000.0 0.03319318488118896 0.013604366602291982
1780000000.0 0.04327134629671613 -0.05644983211062508
1800000000.0 0.014738512877643942 0.1090885018062866
1820000000.0 0.04809981484658024 0.13675443391701247
1840000000.0 -0.09508901177770394 0.1541788659329957
1860000000.0 -0.17161989950981468 -0.12462800408076888
1880000000.0 0.05894815900929964 0.23470968449520332
1900000000.0 0.2427853078473596 -0.12814521250455135
1920000000.0 -0.1522327135118995 -0.2637995068715095
1940000000.0 -0.331658905940725 -0.056739003061682315
1960000000.0 -0.10427352067385033 0.3520818707052085
1980000000.0 0.3824008566602171 0.08737940971986219
2000000000.0 0.2366221524101766 -0.34203907793825
2020000000.0 -0.428581685631375 -0.0563169007312392
2040000000.0 -0.09712503060952819 0.42972055369373297
2060000000.0 0.4411871760860284 -0.010459800794703366
2080000000.0 0.08500723948572521 -0.4260164250638459
2100000000.0 -0.18253178236483827 -0.38394672355251064
2120000000.0 -0.3407914635437614 -0.23346077108627178
2140000000.0 -0.39972288080104407 -0.017696229295906127
2160000000.0 -0.05189124767779487 -0.38119427633868697
2180000000.0 -0.13727169105884407 -0.3424242335622543
2200000000.0 -0.20493325252472794 -0.292271741892616
2220000000.0 -0.2806602445578195 -0.20785337480448557
2240000000.0 -0.3191139281868484 0.1367990156482381
2260000000.0 -0.06568123441800514 0.3413839520899361
2280000000.0 0.18415802636941067 0.30016566083342766
2300000000.0 0.28227306664023905 -0.23226383280720123
2320000000.0 -0.25594148622415686 -0.28935103576824
2340000000.0 -0.2835828978777973 0.30293945824953145
2360000000.0 0.4390324809772045 0.11772299608642968
2380000000.0 -0.367106593888282 -0.34200800323437275
2400000000.0 0.32644288334873167 0.4482855830794808
2420000000.0 -0.5377056020016655 -0.28596321921438445
2440000000.0 0.6313947039820218 -0.18736520615486374
2460000000.0 -0.31269379734110003 0.6258047103735157
2480000000.0 -0.05591652821981774 -0.7282524245446237
2500000000.0 0.021928416266145823 0.7509806172440362
2520000000.0 0.10046092204132782 -0.7554773401112669
2540000000.0 -0.38557575198439914 0.6598768648328427
2560000000.0 0.7371688190900147 -0.17760994473073802
2580000000.0 -0.5672595793202313 -0.4802817059861975
2600000000.0 -0.06172139185110292 0.7167967460062626
2620000000.0 0.5584472231080999 -0.403414982366988
2640000000.0 0.26072619633765426 -0.596718995317877
2660000000.0 -0.5832453743245509 0.1644943551489056
2680000000.0 0.4844965728343194 0.2773514655089605
2700000000.0 -0.11642067169303383 -0.4969487348877223
2720000000.0 -0.24625683565250145 0.3906618392785368
2740000000.0 0.4007904245369053 -0.12093652543425906
2760000000.0 -0.37816277378910085 -0.041083027943086416
2780000000.0 0.3410575023735459 -0.08262093175379195
2800000000.0 -0.22667792953364138 0.23516525375092384
2820000000.0 -0.10963521612247996 -0.2890212324780257
2840000000.0 0.2975098129805842 -0.004150316853304979
2860000000.0 -0.14729317001502804 0.2542034338134589
2880000000.0 -0.08939487923290275 -0.27928168245885854
2900000000.0 0.14879251270595345 0.2550444540340825
2920000000.0 0.10799998902846218 -0.27903351737338383
2940000000.0 -0.30598842151390665 -0.00964062353417568
2960000000.0 -0.1811576841106038 0.25047683730356135
2980000000.0 -0.22891793753101783 0.21490997182804003
3000000000.0 -0.31597386785384834 -0.005667067686837338
3020000000.0 -0.08130261160478722 -0.30556686003730604
3040000000.0 0.3127503863908719 0.010799696787126868
3060000000.0 -0.2814924486208189 0.1289270303426664
3080000000.0 0.25592424978940126 -0.16500233657423136
3100000000.0 -0.1937076662661522 0.22841059828015112
3120000000.0 0.1713893821399017 -0.23651461946774555
3140000000.0 -0.03973087897693317 0.27924074409057714
3160000000.0 -0.12812506851699226 -0.23504463300725317
3180000000.0 -0.13682516134060863 0.21059523644120828
3200000000.0 -0.17685208990985754 -0.14591536450374948
3220000000.0 0.06825912008387659 -0.19042065684156587
3240000000.0 0.1547534724687327 0.07389373599122886
3260000000.0 -0.13741527992905442 0.008939894183185198
3280000000.0 0.09245110381805584 -0.048939252064520704
3300000000.0 -0.05397020921113572 -0.05184191864764115
3320000000.0 -0.03858774479732268 0.02601656848096163
3340000000.0 -0.018685550422783026 -0.012614066482812873
3360000000.0 0.0029977223614593767 -0.003300538014346526
3380000000.0 0.009340723161996266 -0.003970445166473274
3400000000.0 0.015203914650832404 0.015235710479233566
3420000000.0 0.0020621755028817556 -0.03368806564412034
3440000000.0 -0.0128640549798417 -0.04382378263836152
3460000000.0 0.05387383406275526 -0.00946278989008521
3480000000.0 -0.005283253761132254 0.06774438445929101
3500000000.0 0.07568815338226549 -0.03350378890516109
3520000000.0 -0.09763896906310947 -0.013971800202649595
3540000000.0 0.015178570154350925 -0.11197848181274946
3560000000.0 0.09886567567352286 0.07605497087282762
3580000000.0 -0.09841310156940197 -0.09496899737926824
3600000000.0 0.15252547991311505 0.011490666636244545
3620000000.0 0.0427749673804415 0.15982857501708597
3640000000.0 -0.1772642683012518 0.008980252957048364
3660000000.0 -0.13717048826615402 -0.12800811847016458
3680000000.0 -0.013130443904987155 -0.19307683964438632
3700000000.0 0.022306746906486548 -0.1931563832881635
3720000000.0 0.1294688113879243 -0.14562256996829853
3740000000.0 0.1295482621299518 -0.1388504954550329
3760000000.0 -0.049105899893168804 0.17555163360535792
3780000000.0 0.035924717533867834 -0.16731662534967226
3800000000.0 -0.1335298701947679 -0.08800870424898792
3820000000.0 -0.10039000431301269 -0.11375241443536294
3840000000.0 0.12807061564475292 -0.07143323307189646
3860000000.0 -0.061375267574255446 0.1357047758175288
3880000000.0 0.040277971176405504 0.151488873703603
3900000000.0 0.13794758415699693 -0.083339583600241
3920000000.0 -0.16558711713487106 0.014554127145796658
3940000000.0 0.09686469751516084 -0.1400877793644555
3960000000.0 0.16852184098366416 0.039088835320978114
3980000000.0 0.12368942707500796 -0.12097269228151994
4000000000.0 0.11628434796284286 -0.11834873534838355
