! Created with skrf (http://scikit-rf.org).
# Hz S RI R 50.0 
!freq ReS11 ImS11
400000000.0 0.19752334894731088 0.8488030608902979
420000000.0 0.6499578081137951 0.5621857010631284
440000000.0 0.7416001144917291 -0.3604673132827722
460000000.0 -0.0052964650498092914 -0.7858364295938506
480000000.0 0.5498625319694033 -0.4263806453277301
500000000.0 0.48375374545862326 0.27533233781082234
520000000.0 0.330411684190603 0.3642241335756117
540000000.0 -0.3721229451049875 0.2383096334284595
560000000.0 0.20587320334178705 -0.3192086995760687
580000000.0 -0.21942444744163386 0.2889426902757954
600000000.0 0.2393301059099681 -0.2694577739158621
620000000.0 0.1260647761261112 0.3540705731507623
640000000.0 0.16833950006605036 -0.36155114069320704
660000000.0 -0.22784463184228845 -0.33183253326978795
680000000.0 0.4108270991479042 0.012752811179355268
700000000.0 0.27233266618742014 -0.3222488346172228
720000000.0 0.10894706143350227 -0.4091003109960391
740000000.0 0.12074157808306293 0.40654001932583816
760000000.0 0.14609658939007455 -0.38322395713473517
780000000.0 0.3569356635785378 0.12538579338344316
800000000.0 -0.322571033226093 -0.1230574339153664
820000000.0 -0.19594564153598834 -0.21432465593255523
840000000.0 -0.20049942612321425 0.12484872237577843
860000000.0 0.14360342242422183 -0.13909387454800382
880000000.0 -0.13399724834908192 -0.04202042704099617
900000000.0 0.08144129878312281 0.0036539626108654626
920000000.0 -0.04853442186443812 -0.03241791168006025
940000000.0 0.03421810986101205 -0.014401323940968437
960000000.0 -0.03692940756247981 0.020765389091204157
980000000.0 0.006628321587558502 0.062540798214577
1000000000.0 0.04631353489710285 0.06999491304643503
1020000000.0 -0.10214149299601673 -0.04415881926035217
1040000000.0 -0.10282585792496442 0.07585565946622569
1060000000.0 0.1283898755171189 0.09673399047204677
1080000000.0 0.14833248875397584 0.08586496038521575
1100000000.0 -0.03820443275357231 -0.181663639306872
1120000000.0 -0.011582539548575414 -0.19819006643396903
1140000000.0 0.07146466720728019 -0.2157819675411619
1160000000.0 0.14647845164200507 0.21867081945840952
1180000000.0 -0.24010613457756574 0.1914164530981815
1200000000.0 -0.34301844239244605 -0.029666291108265366
1220000000.0 0.26175437066513413 -0.26917712271493416
1240000000.0 -0.0640995053560548 0.3967778327007438
1260000000.0 0.167865629934411 -0.39178382938937517
1280000000.0 -0.2724545200840267 0.3457264823491336
1300000000.0 0.4467268776343057 0.04097469296335931
1320000000.0 -0.023712076709822644 -0.44359871162765285
1340000000.0 -0.004232376512891299 -0.4384926153767221
1360000000.0 0.14290521349619786 -0.4075361783714838
1380000000.0 -0.11317765800819395 -0.4168517396027017
1400000000.0 -0.41728945442343757 0.015208568685042207
1420000000.0 0.016814468498932797 0.3986828517118321
1440000000.0 0.3418889582790656 0.15065814078926512
1460000000.0 0.21042508101433333 -0.27321495295794046
1480000000.0 -0.16963415709806748 -0.2650719683736288
1500000000.0 -0.2818357448671292 0.03600746472549057
1520000000.0 -0.23561250258192185 0.10181757864720878
1540000000.0 0.10857143716563299 -0.20082302121718434
1560000000.0 0.15718168168786645 0.11600762263975932
1580000000.0 -0.13195640104264078 0.1050938812417249
1600000000.0 0.10084778745865713 0.09671647794864721
1620000000.0 0.0589020061251934 0.09303229775508383
1640000000.0 -0.07074798242062771 0.05127376798570784
1660000000.0 -0.03932819938069259 0.05229138939905679
1680000000.0 -0.03527918208096791 -0.02845495999391356
1700000000.0 -0.012429280758855712 -0.02655972391141765
1720000000.0 -0.0073877748335439255 -0.007512559081284961
1740000000.0 -0.009268884570930213 0.010471111300513656
1760000000.0 0.025124572469396585 0.026361687009878884
1780000000.0 0.0426084470115677 -0.05774738102466282
1800000000.0 0.05044918800799263 0.09842293722653979
1820000000.0 0.09144676809223345 0.11257880248170223
1840000000.0 -0.034635304428813074 0.17781738180280363
1860000000.0 -0.19953468845737354 -0.07042935093999307
1880000000.0 0.0941513338139581 0.22185872354067276
1900000000.0 0.24453820641718865 -0.12259793075022118
1920000000.0 -0.1151606673980743 -0.2812901773403813
1940000000.0 -0.3188409023225511 -0.10731958926082567
1960000000.0 -0.15087682955253764 0.3352509765629293
1980000000.0 0.3785353396790078 0.1048960905721839
2000000000.0 0.24129180554573174 -0.3391825467080504
2020000000.0 -0.42565251904693524 -0.07640504156106508
2040000000.0 -0.07067542958186751 0.4342751533464481
2060000000.0 0.4406399531382278 -0.005356326800338625
2080000000.0 0.08731363419963578 -0.42490979795198175
2100000000.0 -0.16797526216457404 -0.39016159806705647
2120000000.0 -0.3254026903226147 -0.25419630169982915
2140000000.0 -0.39892904928024225 -0.030215797598627647
2160000000.0 -0.0689522331192462 -0.37814097890503723
2180000000.0 -0.16567037899663334 -0.32894288956569845
2200000000.0 -0.22456161972350466 -0.2767525918827282
2220000000.0 -0.28419513820337056 -0.20115020799481556
2240000000.0 -0.3351622621530116 0.08889076916818905
2260000000.0 -0.09961201111630318 0.3329676176576802
2280000000.0 0.16150144358108412 0.3129290036858589
2300000000.0 0.28825226837577844 -0.22471244275021876
2320000000.0 -0.25575724384920195 -0.2891318943569542
2340000000.0 -0.2941715927929997 0.29145366617311796
2360000000.0 0.42759626243745935 0.15121600985255976
2380000000.0 -0.3028240668926305 -0.39856885891884597
2400000000.0 0.22046096292883688 0.5079509626584846
2420000000.0 -0.4831200706606503 -0.3697702653322144
2440000000.0 0.6534967465359881 -0.08050037963594296
2460000000.0 -0.4168752083752925 0.5612392325190516
2480000000.0 0.06786752194099537 -0.7272844739118215
2500000000.0 -0.03737977128098662 0.7504573957420464
2520000000.0 0.19628756348603849 -0.7368422108117095
2540000000.0 -0.4872899103091467 0.5896385221287447
2560000000.0 0.754405061135018 -0.0873710171182752
2580000000.0 -0.4726797323104797 -0.5756089987936361
2600000000.0 -0.13108979458333486 0.7087952389621888
2620000000.0 0.6036153778039023 -0.3356157525549585
2640000000.0 0.283784550491862 -0.587808397310957
2660000000.0 -0.5980908146149989 0.10740762389747327
2680000000.0 0.4474197723607851 0.33614228306017097
2700000000.0 -0.061132771908691055 -0.5082829072495524
2720000000.0 -0.28572007477747324 0.36486066186265165
2740000000.0 0.4038939253409468 -0.11630577208784486
2760000000.0 -0.3802247021508319 -0.034044472129213965
2780000000.0 0.3371809184020254 -0.1013176581839506
2800000000.0 -0.21006489705115614 0.2513066958531561
2820000000.0 -0.11734343407245525 -0.2870349748719722
2840000000.0 0.2980580300605218 -0.01082434998388607
2860000000.0 -0.1469063344646582 0.25494294272205964
2880000000.0 -0.07405180877350344 -0.28454751236737985
2900000000.0 0.1261641844089718 0.2681672856521853
2920000000.0 0.1417378336336518 -0.264318953759044
2940000000.0 -0.30235748584303307 -0.05182813522239825
2960000000.0 -0.20843056395668344 0.22963388239207436
2980000000.0 -0.23740778256685488 0.2057658413654709
3000000000.0 -0.316234950324893 -0.004384709230210422
3020000000.0 -0.06706773924439896 -0.30934264859589694
3040000000.0 0.30536050102767304 0.06933997198103473
3060000000.0 -0.2974369899510771 0.08612993233066107
3080000000.0 0.266847034176296 -0.1470893820605245
3100000000.0 -0.18566085014479944 0.23530399673056623
3120000000.0 0.18263216607236413 -0.2277096609165356
3140000000.0 -0.015019102605452965 0.28184968187667125
3160000000.0 -0.13937893726969344 -0.2287170795524423
3180000000.0 -0.10943278206797354 0.2264940597076521
3200000000.0 -0.19431651770204827 -0.12139371401658061
3220000000.0 0.054149820223160394 -0.19529447315391282
3240000000.0 0.16230867684702358 0.05755099978154657
3260000000.0 -0.13413403550957673 0.0330953347775777
3280000000.0 0.09755408630185679 -0.039762337814435826
3300000000.0 -0.06862029426271982 -0.031163259664373975
3320000000.0 -0.007023292525858022 0.04665347674320299
3340000000.0 -0.022801587169460354 -0.0019445791110606673
3360000000.0 0.0033679297881334482 0.0030751712171796014
3380000000.0 -0.00946601491247854 0.0007444538192849898
3400000000.0 0.011519461107478226 0.01759054857583725
3420000000.0 0.0014625188997821363 -0.033655426817309306
3440000000.0 -0.00358912261966667 -0.045227704374522164
3460000000.0 0.04054001414463265 -0.037021501100542836
3480000000.0 -0.014041053092866915 0.06605043923755387
3500000000.0 0.07536056334530093 -0.033851547471368454
3520000000.0 -0.08857645834597296 0.04416019913939691
3540000000.0 -0.018623574920662904 -0.1114968689862334
3560000000.0 0.11379091332765011 0.051463162934869404
3580000000.0 -0.1066823289765942 -0.08523345717922469
3600000000.0 0.1527877532509969 -0.006601589577626978
3620000000.0 0.07445107408512866 0.14812048252278542
3640000000.0 -0.17587746466113646 0.022831217116142843
3660000000.0 -0.15095427578599185 -0.11176109893988277
3680000000.0 -0.030386603027324724 -0.19138028910142976
3700000000.0 -0.0010907312657370619 -0.19513242912701273
3720000000.0 0.11958394437379963 -0.15417559643815046
3740000000.0 0.11507862351759447 -0.15128558309094678
3760000000.0 -0.04276431210743305 0.17758454784234506
3780000000.0 0.027510379722805466 -0.16947167229636623
3800000000.0 -0.14135563061038334 -0.07478550582744653
3820000000.0 -0.11097669336288117 -0.10335439006194473
3840000000.0 0.12405155138561375 -0.07829936195033843
3860000000.0 -0.05544277511143655 0.13839288786683968
3880000000.0 0.04196333936890239 0.1510916189230604
3900000000.0 0.1401019753518037 -0.07988937575014202
3920000000.0 -0.1651488106966904 0.017032608029239883
3940000000.0 0.09479491133710442 -0.1412917442009318
3960000000.0 0.16781721137387406 0.04121178266157087
3980000000.0 0.14200407159271808 -0.09888092153105142
4000000000.0 0.12257514550485628 -0.11238547944479069
