! Created with skrf (http://scikit-rf.org).
# Hz S RI R 50.0 
!freq ReS11 ImS11
400000000.0 0.23351565103587013 0.8392057991738908
420000000.0 0.6629300821868335 0.5467261870253998
440000000.0 0.756590040205773 -0.3280036952899527
460000000.0 -0.054776773427207465 -0.7845175067506457
480000000.0 0.5259016563602316 -0.45512877750624303
500000000.0 0.4667323025980226 0.30073590297725994
520000000.0 0.319074153575411 0.3750689165618614
540000000.0 -0.3369402994511469 0.2861655424979469
560000000.0 0.19768097716567712 -0.3238573228059401
580000000.0 -0.2657971742070585 0.2464067711429667
600000000.0 0.18502994896675268 -0.31050916331143874
620000000.0 0.17445638298406704 0.3316055552581184
640000000.0 0.18199145515473625 -0.35343251331061143
660000000.0 -0.13480142020716962 -0.37972859584480245
680000000.0 0.4110136428548818 0.00425686286426792
700000000.0 0.29982812801764563 -0.2964492808768335
720000000.0 0.1880442867442906 -0.3785935238491894
740000000.0 0.13506059887874203 0.4029163096868076
760000000.0 0.08631918171375898 -0.40066832836754945
780000000.0 0.3396953170149615 0.1679450040533674
800000000.0 -0.31101235140094013 -0.1537836138652892
820000000.0 -0.2675387477596351 -0.11385490854173236
840000000.0 -0.17845846583718436 0.15261742236110595
860000000.0 0.16062117122810818 -0.11646915345812439
880000000.0 -0.12860737920162546 -0.05640660413025213
900000000.0 0.06217215622086884 -0.05202529073441778
920000000.0 -0.027416489763840913 -0.049607869860125345
940000000.0 0.011517966446081407 0.034108393987193515
960000000.0 -0.04177551986672949 -0.0027234149191908137
980000000.0 0.03381363849002395 0.05175979276853619
1000000000.0 0.006668641861673547 0.08205239189436797
1020000000.0 -0.0211411855690278 -0.10786955953462536
1040000000.0 -0.10986870501693562 -0.06558670072352299
1060000000.0 0.0623491444869554 0.14935289698904744
1080000000.0 0.12788459158720564 0.11582080100058845
1100000000.0 -0.02712172708268697 -0.18508715690259173
1120000000.0 -0.0717959207559271 -0.18681684679826696
1140000000.0 -0.02964272093220368 -0.22620563666341503
1160000000.0 0.23223184434093608 0.12427494822214383
1180000000.0 -0.1521763128513794 0.26619901621040337
1200000000.0 -0.3349337567095784 0.07473652614055358
1220000000.0 0.21290048395857436 -0.30739337376314213
1240000000.0 -0.02548639064406056 0.39981706633099234
1260000000.0 0.15507735406181236 -0.3963872129146379
1280000000.0 -0.26291012332966296 0.3526847711619398
1300000000.0 0.44811558585608335 0.02154046368522845
1320000000.0 -0.04998884729817595 -0.44169088363240216
1340000000.0 -0.04878190360269013 -0.43622040183809835
1360000000.0 0.08710720391772538 -0.4239043768900219
1380000000.0 -0.16302801296625336 -0.40073270111950826
1400000000.0 -0.4094867436529416 0.08486303577944032
1420000000.0 0.09860878902117204 0.3872231215423791
1440000000.0 0.36096931880981464 0.09970125705970517
1460000000.0 0.1538744388050782 -0.3095160143948009
1480000000.0 -0.2307299865857566 -0.2147762541879332
1500000000.0 -0.27404680027495376 0.07644059580613015
1520000000.0 -0.21539376686534564 0.14066599785751438
1540000000.0 0.07763251943249755 -0.21535775257916778
1560000000.0 0.1577563247510113 0.11622227742989874
1580000000.0 -0.13640528934029147 0.10045923391553024
1600000000.0 0.11055621053792024 0.08588379706033364
1620000000.0 0.05640354075437161 0.09428855879659177
1640000000.0 -0.08289195411705683 0.02565683940883086
1660000000.0 -0.05682893774413847 0.031025905325241472
1680000000.0 0.013542963938790188 -0.042222881145133666
1700000000.0 0.0075523999713785536 -0.027893987741581642
1720000000.0 0.004250212090557872 0.008252919460293717
1740000000.0 -0.0005277605676029032 -0.013508015367836333
1760000000.0 0.01626386904344879 0.03162209066404927
1780000000.0 0.05140919001181443 -0.049272774795995365
1800000000.0 0.007529105494022696 0.10985214751273363
1820000000.0 0.029331166352834875 0.14157247646172644
1840000000.0 -0.11620523219055605 0.1387852095015972
1860000000.0 -0.16659715303732892 -0.13116005534939068
1880000000.0 0.06956571747780382 0.2317974692004555
1900000000.0 0.24016386145381866 -0.13288072852888397
1920000000.0 -0.16467799318177725 -0.2562616899224939
1940000000.0 -0.3343082429415641 -0.03762752019956209
1960000000.0 -0.09078907377921164 0.35569851850647904
1980000000.0 0.3856315400220474 0.07097107365147241
2000000000.0 0.22847160271000935 -0.3474217301355591
2020000000.0 -0.4273910836356315 -0.06609660263723037
2040000000.0 -0.07282477730571336 0.43424439708432466
2060000000.0 0.43965941660020347 -0.03807084951999649
2080000000.0 0.06584928748685949 -0.4294805327143969
2100000000.0 -0.183558811489227 -0.3836818599311242
2120000000.0 -0.3342369447522188 -0.24316731445873999
2140000000.0 -0.39851294930768016 -0.03892272084525819
2160000000.0 -0.05285646812708948 -0.3811547353607952
2180000000.0 -0.13954631991108157 -0.34150395747483014
2200000000.0 -0.20272262536385832 -0.29414619256534646
2220000000.0 -0.29828541767483885 -0.18129433765188535
2240000000.0 -0.320440248478311 0.1336469589719205
2260000000.0 -0.06747890030626051 0.341034667591114
2280000000.0 0.17777041589396747 0.30378640084697756
2300000000.0 0.28124689667187447 -0.2332032927391129
2320000000.0 -0.2571250087202539 -0.28840120723481033
2340000000.0 -0.29059701677047983 0.29630710504843594
2360000000.0 0.43810691381457584 0.12105584323832354
2380000000.0 -0.3715729419911816 -0.3371959965352205
2400000000.0 0.3142397212881259 0.4568235496855614
2420000000.0 -0.5320809358631201 -0.2960952926636378
2440000000.0 0.6320569339284332 -0.1849211858016378
2460000000.0 -0.33802626815074716 0.6120938329418382
2480000000.0 -0.0016280019606770583 -0.7305336862598774
2500000000.0 0.08061668404420122 0.7465982406042998
2520000000.0 0.09785902736787469 -0.7558133533606569
2540000000.0 -0.3835612044676384 0.6611521942916507
2560000000.0 0.7391378231743577 -0.17103161051758414
2580000000.0 -0.539101408780523 -0.5121699522067932
2600000000.0 -0.03661107387324236 0.7186108104392691
2620000000.0 0.5528142010075403 -0.41158046980452234
2640000000.0 0.27035748354048766 -0.5927142850460605
2660000000.0 -0.5812335746068797 0.1735368385171858
2680000000.0 0.4845397188961335 0.2780483421107855
2700000000.0 -0.1170598218899642 -0.4970426660607588
2720000000.0 -0.24493345871507796 0.39165457364604883
2740000000.0 0.39535660363052444 -0.13842090059798293
2760000000.0 -0.3763958571857416 -0.055265999582042494
2780000000.0 0.34273853625603756 -0.07538972450814346
2800000000.0 -0.22123325696179183 0.240016141344226
2820000000.0 -0.09877174568857236 -0.2927815958551401
2840000000.0 0.2974077271584702 0.0033028151853593223
2860000000.0 -0.1525681515889394 0.2511462844046702
2880000000.0 -0.10604923362758722 -0.2733890574363841
2900000000.0 0.14738490709524432 0.2561002865837522
2920000000.0 0.11278680249173359 -0.2774343569975382
2940000000.0 -0.3060215861189445 -0.01501996429278048
2960000000.0 -0.19067920709201935 0.24330942664863228
2980000000.0 -0.2443870427196888 0.19673620502168085
3000000000.0 -0.3155266208871679 0.018556251453045135
3020000000.0 -0.08762504023140393 -0.3032922106997302
3040000000.0 0.3127346357938866 0.008121460071852502
3060000000.0 -0.2883921070611796 0.11353344918338877
3080000000.0 0.26401366859437214 -0.15223633303599587
3100000000.0 -0.22902762542853114 0.1928174532408646
3120000000.0 0.15342061345366043 -0.24879533719881014
3140000000.0 -0.04059962174898247 0.2793146519025556
3160000000.0 -0.13379679197194103 -0.2323895322814964
3180000000.0 -0.12981189537358875 0.21534226944472343
3200000000.0 -0.17831050308296578 -0.14390880588044755
3220000000.0 0.08270765473835208 -0.18469741163684716
3240000000.0 0.15501202800343003 0.07398006053173123
3260000000.0 -0.1373398543900302 0.006514342384063989
3280000000.0 0.0987848294151981 -0.03466560470502217
3300000000.0 -0.05855960708833384 -0.04628758191301834
3320000000.0 -0.023938332171314324 0.03972356908305955
3340000000.0 -0.011620072882361995 -0.019260172567573387
3360000000.0 -0.0043901341538677315 -0.0001818820143072853
3380000000.0 -0.003123540939890151 0.009437232300492492
3400000000.0 0.016954217351384627 0.013528705217796975
3420000000.0 -0.0011334454646026073 -0.034140373171825
3440000000.0 0.004219978016722435 -0.045425080496554505
3460000000.0 0.05324827846584184 -0.013843063500438532
3480000000.0 -0.02184742469980309 0.06443008811926489
3500000000.0 0.08022053021096248 -0.020814412032672074
3520000000.0 -0.098183105443145 -0.010913738693363552
3540000000.0 0.0023643609565003137 -0.1134498599202176
3560000000.0 0.09345046356523584 0.08276109107610895
3580000000.0 -0.09804198337787123 -0.0955663455636221
3600000000.0 0.15305373956342297 0.008215093085055638
3620000000.0 0.04514536075368971 0.15932574692657872
3640000000.0 -0.1774619969972849 0.0011981412909325647
3660000000.0 -0.13925254620337738 -0.12623599242615288
3680000000.0 -0.0047922203405122875 -0.19362226000261087
3700000000.0 0.032913549679529294 -0.19215417661583684
3720000000.0 0.14574670135711254 -0.1290687369052201
3740000000.0 0.14360614299153923 -0.1242754851594853
3760000000.0 -0.055107232281615355 0.17362826215776195
3780000000.0 0.05869738086395226 -0.16100097628359708
3800000000.0 -0.1283398316598803 -0.0949762260303376
3820000000.0 -0.10317970534796357 -0.11036041660294811
3840000000.0 0.12367092792701093 -0.07843622243722013
3860000000.0 -0.06442613725238552 0.13417386810803422
3880000000.0 0.04157532454679353 0.15091586349657563
3900000000.0 0.14386945398456216 -0.07208911764872296
3920000000.0 -0.16591005486448135 0.005642857579602424
3940000000.0 0.11413379782315439 -0.12685734867111262
3960000000.0 0.16727339707030897 0.04345977871018227
3980000000.0 0.13524107886504713 -0.10754375654584863
4000000000.0 0.11107517190969815 -0.12254403758087488
