! Created with skrf (http://scikit-rf.org).
# Hz S RI R 50.0 
!freq ReS11 ImS11
400000000.0 -0.8606375354802998 0.04506793533260325
420000000.0 0.002946467209799528 0.8649102829205783
440000000.0 0.8291135424303012 0.13131964858394354
460000000.0 0.6012054372213715 -0.5154829877401844
480000000.0 0.7290832872177021 0.08654741277169152
500000000.0 -0.5796865014619313 -0.02403909812318609
520000000.0 -0.3986581545089966 0.2979053046744664
540000000.0 -0.40282445264860395 -0.11567686896799757
560000000.0 -0.07348559544014235 0.36158889135325073
580000000.0 -0.28603361070722216 -0.14356956361184042
600000000.0 -0.3279578366466447 0.015028078703304923
620000000.0 -0.138264562067212 -0.29933641434348573
640000000.0 -0.04574814338785216 0.3419097514049106
660000000.0 -0.052526621141200276 0.37277730437441653
680000000.0 -0.08322270057185326 -0.3881858477549898
700000000.0 -0.39570690923665924 0.17383445919163712
720000000.0 0.023195439213429928 0.43499230547792805
740000000.0 -0.4199824148193589 0.15840510439873193
760000000.0 -0.03026767988733142 -0.4282463063113252
780000000.0 0.2570873460481587 0.2984604643825736
800000000.0 -0.3291970508296261 0.14361692736656076
820000000.0 -0.26614404606268605 -0.1379601741029815
840000000.0 0.23890167437749596 0.07834952888874261
860000000.0 0.016259592363456355 0.1964337807509812
880000000.0 -0.041288355875435945 -0.1513380329881478
900000000.0 -0.008356602155251084 -0.0817123842024975
920000000.0 0.011735313247661711 -0.04452512496232073
940000000.0 0.02983912456647982 0.033837568288947004
960000000.0 0.02720671308352228 0.046631366333924784
980000000.0 0.041988318243545174 -0.04878823145040471
1000000000.0 -0.06588720444290003 -0.029073333858179885
1020000000.0 0.05334085281622309 0.05931593981594644
1040000000.0 0.04847296990147609 0.07928304172719947
1060000000.0 -0.008912328615533956 -0.12279632673973458
1080000000.0 -0.14543419324160742 0.013625679958770774
1100000000.0 -0.00924486008120928 0.16988573848345384
1120000000.0 0.04037036882252918 0.19696388075949633
1140000000.0 -0.24227992606033855 0.001708318984418242
1160000000.0 -0.2567560633481631 0.11309531718183911
1180000000.0 0.14347246227678895 0.2891083949390012
1200000000.0 -0.200010019622237 0.29004596553104006
1220000000.0 -0.3312782487634474 -0.1967216217278575
1240000000.0 0.3486093312649904 0.20526950304032415
1260000000.0 -0.3928725213733504 -0.1800057280755155
1280000000.0 0.3362525520288138 0.2794247934142616
1300000000.0 0.20912531653324826 -0.3908957012120038
1320000000.0 -0.30408174291059464 -0.31011258510530787
1340000000.0 0.14375125567419597 -0.4067892997439081
1360000000.0 0.28820396291905687 -0.31853394110655286
1380000000.0 0.20647354430364104 -0.37942338310958557
1400000000.0 -0.4195524909925636 -0.009213104827389709
1420000000.0 -0.11070672598953467 0.3869611226959065
1440000000.0 0.3737493661624086 -0.040381631427399166
1460000000.0 0.28133966027312574 -0.1978173690396572
1480000000.0 -0.08036050879825736 -0.3057634664711417
1500000000.0 -0.25126857739057346 -0.1388140652831054
1520000000.0 -0.2551373206957362 0.04907343293428539
1540000000.0 0.12296192176753952 -0.2001884585168326
1560000000.0 0.20276382476933552 -0.0009503956693774946
1580000000.0 0.13256677549715173 0.11225609754861572
1600000000.0 -0.07382798285468785 -0.12386277628492669
1620000000.0 -0.09996470172876075 0.04545464597035995
1640000000.0 -0.07259963915238117 -0.04288643177033331
1660000000.0 0.008034075681644572 0.05789636778429833
1680000000.0 0.03114160679839417 -0.014312554502379862
1700000000.0 -0.01666680016831905 0.003746227945339473
1720000000.0 -0.00045488487264815037 -0.0020012938243873
1740000000.0 -0.00093291631634258 0.019515164732663765
1760000000.0 0.03659245776086991 0.008528501064645467
1780000000.0 0.05999417079372652 -0.02879096905763956
1800000000.0 -0.10084478174603084 0.009576185244910088
1820000000.0 0.09074440538724024 0.09795728360289166
1840000000.0 0.03138930750616155 -0.16757728399358252
1860000000.0 0.11819581956462903 0.1724381378007236
1880000000.0 -0.11744636289008249 -0.21657959765114315
1900000000.0 0.17203359484822822 0.23035754263955482
1920000000.0 -0.30010399120170506 -0.10624668521013637
1940000000.0 0.08858333989469544 0.3333876533143434
1960000000.0 0.33514313416969127 -0.15306545082352013
1980000000.0 0.07013742843423326 -0.37908149454084406
2000000000.0 -0.057931334027242834 -0.40051511091293285
2020000000.0 -0.34288070243652996 -0.24478427853332727
2040000000.0 -0.3998363101679658 0.17233417088162625
2060000000.0 0.09364356110164433 0.43203721397893147
2080000000.0 0.44328152596544934 0.007018357864665274
2100000000.0 -0.02056632950148771 -0.43661571546431693
2120000000.0 -0.40170177418792125 -0.14250198390188518
2140000000.0 -0.25982363084197513 -0.31697490477688295
2160000000.0 -0.39188914756735066 -0.024066949175236507
2180000000.0 -0.36783926331953115 0.06895970921993845
2200000000.0 -0.3330034645058397 0.13359047952814873
2220000000.0 -0.3267133565900608 0.12514264095409577
2240000000.0 -0.20418067306430657 0.2798834960435263
2260000000.0 -0.08442866747657166 0.3399466596996637
2280000000.0 0.22298525576609013 0.2770958741419875
2300000000.0 0.3129289326570976 -0.2007327574380152
2320000000.0 -0.2256777544890476 -0.32575834439999235
2340000000.0 -0.2196535069290527 0.3684159867164166
2360000000.0 0.4038442151311108 -0.23655847002313088
2380000000.0 -0.5008666919177721 0.1180936297542858
2400000000.0 0.5044300198072773 -0.25352610346318427
2420000000.0 -0.3053686466579521 0.5332518013455428
2440000000.0 -0.19359926797074437 -0.6310118882476912
2460000000.0 0.5918225718233603 0.3684198284645683
2480000000.0 -0.7250278347445079 -0.01840565026399283
2500000000.0 0.7411630541284295 0.05868703930326234
2520000000.0 -0.7316456538729472 -0.17463820838244526
2540000000.0 0.6045933098006496 0.4489119726492386
2560000000.0 -0.12816735762691175 -0.7353833764824352
2580000000.0 -0.49125116168983257 0.541906660258394
2600000000.0 0.7036705355876184 0.06548632394350525
2620000000.0 -0.3474840082975405 -0.5801950317082147
2640000000.0 -0.5647011526868103 -0.29840292625250525
2660000000.0 0.07533360924924111 0.5889871845825151
2680000000.0 0.4368647286643153 -0.33108611932088033
2700000000.0 -0.4690443055042665 -0.1782173789325845
2720000000.0 0.14983022107608757 0.43016424303170503
2740000000.0 0.29117321066194746 -0.29326672813865046
2760000000.0 -0.37701146554937287 -0.007391319977503026
2780000000.0 0.347428692889503 -0.003420241033773536
2800000000.0 -0.32047679193292794 0.04447788313308131
2820000000.0 0.18900577003305163 -0.24185576349603535
2840000000.0 0.12950006804988215 0.2670855703247863
2860000000.0 -0.2914089368212044 -0.012461130730347537
2880000000.0 0.07135722760670664 -0.28042427119044167
2900000000.0 0.09714496620291312 0.2722859094575704
2920000000.0 0.10389055230753806 -0.2724055379311814
2940000000.0 -0.29192958476533604 0.04650755096563536
2960000000.0 -0.1058119740528095 0.27787399914067884
2980000000.0 -0.03210679177817525 0.29864652954862214
3000000000.0 -0.2661893475683599 0.14305894538791886
3020000000.0 -0.21271760794050695 -0.21781936546561956
3040000000.0 0.2919048160808673 -0.08078618706955487
3060000000.0 -0.21368307253979435 0.21421167717453368
3080000000.0 0.1702175973530544 -0.24704552441629396
3100000000.0 -0.055718521309375116 0.2910998287280406
3120000000.0 -0.13405305448073132 -0.25697596671411094
3140000000.0 0.28103006376980194 0.012394887457465344
3160000000.0 -0.18089477838889892 0.19568288086251354
3180000000.0 0.248833760657707 -0.01436154933848341
3200000000.0 -0.003699964958501815 0.22562552624006502
3220000000.0 -0.19732415618004492 -0.006800924403038059
3240000000.0 0.06324941842099345 -0.15408656845572555
3260000000.0 -0.07173297004618075 0.1121585895296465
3280000000.0 0.09862534747081732 0.023047223435523758
3300000000.0 0.0631815108032976 0.03806355458649591
3320000000.0 -0.022039429724822632 0.04483350034705971
3340000000.0 0.017371152921765533 -0.023065188859392533
3360000000.0 0.01200856939838221 0.00010807156539996539
3380000000.0 0.0017714074133566987 -0.005144642231825689
3400000000.0 0.01978856067648016 -0.00025699156381759784
3420000000.0 -0.01083655558983587 -0.03411644000269633
3440000000.0 0.040308273083784846 -0.027550056938219922
3460000000.0 -0.054219250950387876 -0.017871670589022184
3480000000.0 -0.06674937746328574 -0.006310822159390059
3500000000.0 -0.04254716581086866 0.06583205924270477
3520000000.0 0.06411529482267089 0.0650417105322298
3540000000.0 0.06465213649975315 -0.08166537175253434
3560000000.0 -0.11798756543544377 -0.002090341615957006
3580000000.0 0.06602116655117506 0.11461295728974852
3600000000.0 -0.14256332862204474 -0.056339774059316304
3620000000.0 -0.15166883939078285 -0.0703021686976554
3640000000.0 -0.15257672648121345 -0.09813936746981292
3660000000.0 -0.1643052575770861 -0.09747232561148968
3680000000.0 -0.18185651376011652 -0.074596045460058
3700000000.0 -0.1828175495001441 -0.06653897776795549
3720000000.0 -0.0779269453997504 -0.17541565311107823
3740000000.0 0.028759122793705894 -0.1810104554462242
3760000000.0 -0.160207746963272 0.0693873590082606
3780000000.0 0.13015116752467745 0.10130615950618375
3800000000.0 0.14491572797903718 0.06044910794050074
3820000000.0 0.13313477542602675 0.07582399049256408
3840000000.0 -0.05193754082241056 0.14206001725800357
3860000000.0 -0.11943350411377353 0.09830623715202974
3880000000.0 0.0660016867795868 0.14698077633406575
3900000000.0 0.029342556107594762 -0.16041856316296224
3920000000.0 -0.0739517824644945 0.14703604647855215
3940000000.0 -0.011176682233889701 -0.16712546001289424
3960000000.0 0.1693820599987823 -0.011351909157712118
3980000000.0 0.13752575540759465 -0.10022750652882195
4000000000.0 0.13221508318977046 -0.09472898512753807
