! Created with skrf (http://scikit-rf.org).
# Hz S RI R 50.0 
!freq ReS11 ImS11
400000000.0 0.20421146100963566 0.8480051300838122
420000000.0 0.6471974223830266 0.565255261751245
440000000.0 0.7713255205537682 -0.29286690819647776
460000000.0 -0.04185741769905929 -0.7851464816237369
480000000.0 0.5576827070698106 -0.4141086274103131
500000000.0 0.46848743972934587 0.3016754350808877
520000000.0 0.3783328570301015 0.3150805605026415
540000000.0 -0.37351587594294894 0.2324904526545158
560000000.0 0.2706568530024764 -0.26792359051252307
580000000.0 -0.21194203804691453 0.29329543365130045
600000000.0 0.18549700101111383 -0.3103142408473706
620000000.0 0.11970379580079545 0.35549724862407694
640000000.0 0.13966510564471463 -0.3732759064361836
660000000.0 -0.21138881392616374 -0.3424441995691119
680000000.0 0.4099540067559646 0.029770785972944348
700000000.0 0.2690427917946452 -0.3239966319424286
720000000.0 0.1533887708392666 -0.39410023015201756
740000000.0 0.11096398862538966 0.4102700214309994
760000000.0 0.07844409171154264 -0.4023426417199965
780000000.0 0.34534143167195736 0.15459914919046938
800000000.0 -0.3341362498064117 -0.08883147146953836
820000000.0 -0.21957910949266765 -0.18938006462561427
840000000.0 -0.19938687637589747 0.12652985842047537
860000000.0 0.1547671395978657 -0.12650320381376837
880000000.0 -0.13865902163453603 -0.020505430721858186
900000000.0 0.07828933309208017 0.020750420568317215
920000000.0 -0.04083636990325014 -0.0417754764158978
940000000.0 0.036246239622026596 0.007786399749265279
960000000.0 -0.025604741211235432 0.0332877516321979
980000000.0 0.028580594116243765 0.05560028519682805
1000000000.0 0.04583551426849113 0.07023567201647031
1020000000.0 -0.08355896721352152 -0.07315092134134148
1040000000.0 -0.11618339200298011 0.05348087634586612
1060000000.0 0.11465212994488272 0.11302617411023586
1080000000.0 0.1523235467090608 0.07953402584494125
1100000000.0 -0.03149687759006732 -0.18293744825259117
1120000000.0 -0.04273281065868496 -0.19421811043904738
1140000000.0 0.1028671616209781 -0.2026111783487621
1160000000.0 0.17800344512139626 0.19360906262961794
1180000000.0 -0.20976859178608498 0.22395336140870306
1200000000.0 -0.34364425985496233 -0.0009096577601015434
1220000000.0 0.22487402528894032 -0.3000021344640574
1240000000.0 -0.040898900659332306 0.39909247341863346
1260000000.0 0.1271881637935296 -0.40624210473250777
1280000000.0 -0.24505202222354203 0.3651066036162351
1300000000.0 0.4483041743169727 -0.012595393258938208
1320000000.0 -0.050847555675329247 -0.44141701497534386
1340000000.0 -0.02637761315058663 -0.4378189172332062
1360000000.0 0.0946198852932655 -0.42223375667550367
1380000000.0 -0.13195059733141978 -0.4121754179645616
1400000000.0 -0.414260425082603 0.05747367428877899
1420000000.0 0.06742230171905911 0.39422412043981075
1440000000.0 0.35211966830620145 0.12812980154898626
1460000000.0 0.1752512101301266 -0.29767022703365875
1480000000.0 -0.19162013597838573 -0.25002599320948393
1500000000.0 -0.27849896750301617 0.05887638260187707
1520000000.0 -0.23104226529785 0.11339700692995802
1540000000.0 0.09566430795704457 -0.20751223595636184
1560000000.0 0.15020716333657338 0.12572369136794265
1580000000.0 -0.12177540344511642 0.11711556892241642
1600000000.0 0.09852095921679128 0.09949733655870778
1620000000.0 0.05939700585415668 0.0927180321986244
1640000000.0 -0.07460225279638516 0.044753812989610564
1660000000.0 -0.04885740920606706 0.04311197534395984
1680000000.0 -0.00579311108706593 -0.04443900421174148
1700000000.0 -0.028902917675617177 -0.005287922583875369
1720000000.0 0.009147138032536991 -0.003569993449960752
1740000000.0 -0.011572893662167674 0.008176750666131502
1760000000.0 0.02468680922051742 0.026884289861474953
1780000000.0 0.04252777181891024 -0.0579550568944473
1800000000.0 0.03126929538124098 0.10592690185499208
1820000000.0 0.07506714269078595 0.12433809888297073
1840000000.0 -0.05958972930931665 0.17116845383092263
1860000000.0 -0.19398807109262803 -0.08442777827819208
1880000000.0 0.07439965354130036 0.229295110131413
1900000000.0 0.24718373334389604 -0.11758403349742758
1920000000.0 -0.12331148502180546 -0.2779262211266394
1940000000.0 -0.32195444528651024 -0.09715474806148011
1960000000.0 -0.12985884327184652 0.34374046306934586
1980000000.0 0.37984627928033055 0.09926528610744563
2000000000.0 0.23677057048154865 -0.3422167864603804
2020000000.0 -0.42827998719956517 -0.060154247640748525
2040000000.0 -0.07941812086512065 0.4332711844997032
2060000000.0 0.43943817427636206 -0.03524648173923383
2080000000.0 0.0733878934902468 -0.42797920825700636
2100000000.0 -0.18563049708186977 -0.3823083057027269
2120000000.0 -0.29691770588575195 -0.28779316252736714
2140000000.0 -0.3982913826472701 -0.03888953345733049
2160000000.0 -0.07267187286359962 -0.3776627663803353
2180000000.0 -0.11070126708130196 -0.3518220230218957
2200000000.0 -0.20427520479237538 -0.2922715212167717
2220000000.0 -0.26206536705435557 -0.23013612493222393
2240000000.0 -0.33065035743583626 0.10339160430416014
2260000000.0 -0.11310644334751802 0.32868313047074466
2280000000.0 0.15048477743862504 0.3181579408261865
2300000000.0 0.29619353133341847 -0.21358043348637026
2320000000.0 -0.24492118850843672 -0.298191282804368
2340000000.0 -0.2954166360193988 0.29030306489733865
2360000000.0 0.42887952087974 0.14726282344389316
2380000000.0 -0.31767691614024834 -0.3871715930844794
2400000000.0 0.27081455366346197 0.48330770632319753
2420000000.0 -0.49432348957698996 -0.3548765298687189
2440000000.0 0.6537837798567119 -0.08012559190199718
2460000000.0 -0.40006026703108044 0.5737362910329715
2480000000.0 0.04027167946260586 -0.7295355873561822
2500000000.0 -0.05460808961094205 0.7497272348498043
2520000000.0 0.201150682803675 -0.7359839690565004
2540000000.0 -0.49770500160429304 0.5813420875920161
2560000000.0 0.7548898141397977 -0.08295409224325248
2580000000.0 -0.4587962778501904 -0.5868462328087084
2600000000.0 -0.1852842505613375 0.6964137276124912
2620000000.0 0.6036273271135708 -0.3350085565364413
2640000000.0 0.34909287168577857 -0.5509631074981908
2660000000.0 -0.5970100121595249 0.11238866755018799
2680000000.0 0.44716918325450145 0.3361721106398508
2700000000.0 -0.07215134466043717 -0.5063750925525005
2720000000.0 -0.27759628289930915 0.37053784922954774
2740000000.0 0.4048452360726037 -0.11073333695388797
2760000000.0 -0.37960597593352485 -0.03754237475321402
2780000000.0 0.3365397140408158 -0.10337993657025034
2800000000.0 -0.20784429111823072 0.2528673607566017
2820000000.0 -0.12056550686869952 -0.28560493378259927
2840000000.0 0.2983987265391797 -0.00500415782842425
2860000000.0 -0.14585616810178167 0.2555794968188421
2880000000.0 -0.06596207948003388 -0.2864868882727231
2900000000.0 0.1331017446611359 0.26477959275252494
2920000000.0 0.12523343309729323 -0.2723560363811244
2940000000.0 -0.3034690611904248 -0.04393925578555797
2960000000.0 -0.22719243522615062 0.21107786450767463
2980000000.0 -0.24540700706697877 0.19685081423176592
3000000000.0 -0.31564836820732206 0.01327856182870299
3020000000.0 -0.06134677415440447 -0.3102301735022405
3040000000.0 0.31285424056840827 -0.01160412935253365
3060000000.0 -0.2803872022803981 0.13207919829599918
3080000000.0 0.2623761463097552 -0.15470214950338376
3100000000.0 -0.19941721237131294 0.22371591740423666
3120000000.0 0.1728024410138589 -0.23566560097168468
3140000000.0 -0.05472234796391706 0.2764636966212926
3160000000.0 -0.12183550765962453 -0.23865756609061353
3180000000.0 -0.1101710990271603 0.2262012268787528
3200000000.0 -0.18653488460589573 -0.13295319345632414
3220000000.0 0.044680301076372914 -0.1976767608597954
3240000000.0 0.16239430493837462 0.054990280814522334
3260000000.0 -0.13750994987781476 0.010314822331229843
3280000000.0 0.08524021945613958 -0.061628005413592965
3300000000.0 -0.07013485760183079 -0.027072164335523664
3320000000.0 -0.02805107736984585 0.03717244546243633
3340000000.0 -0.02297363989272725 -0.0009641279652640924
3360000000.0 -0.0022633169969444433 -0.0037480331946897144
3380000000.0 -0.0023518257761046524 0.00974776950406653
3400000000.0 0.0009571304593374619 0.021161032628013395
3420000000.0 0.009011028157265944 -0.0325566588164268
3440000000.0 -0.004832883429061387 -0.04538570266991977
3460000000.0 0.05147819668891887 0.018289688792795744
3480000000.0 -0.03559443565920833 0.057459090531582546
3500000000.0 0.07934003477364279 -0.023852691125765033
3520000000.0 -0.09224025037825916 -0.03502929391555082
3540000000.0 -0.012871023234832463 -0.11296474688303365
3560000000.0 0.09949283002346948 0.07524999539927765
3580000000.0 -0.07877729955758521 -0.11156422696948828
3600000000.0 0.14810723322511118 0.03632954086464074
3620000000.0 0.04184583555920052 0.15983898361245152
3640000000.0 -0.17707078043765323 -0.006608609770598736
3660000000.0 -0.13743571967175697 -0.12767934719283328
3680000000.0 -0.006480370620258565 -0.19347364972473266
3700000000.0 0.03149051000828386 -0.19214388878910768
3720000000.0 0.13563530639698046 -0.13903480040518992
3740000000.0 0.13844504995408743 -0.13017403340348188
3760000000.0 -0.04467282817005978 0.17612118500223395
3780000000.0 0.07558796523829886 -0.15374966771070186
3800000000.0 -0.12191982657157102 -0.10374875803330863
3820000000.0 -0.1023166606569223 -0.11145347650938034
3840000000.0 0.13281191113487326 -0.06047437939770604
3860000000.0 -0.07547104264855808 0.1278625468006993
3880000000.0 0.025793814032721428 0.15438216458094597
3900000000.0 0.14254438760991925 -0.0734727133208459
3920000000.0 -0.1654627230026123 -0.002726423167487739
3940000000.0 0.11367613882022375 -0.12619598790329953
3960000000.0 0.1684529397546626 0.03830716824972809
3980000000.0 0.12961399070652885 -0.11368987718832675
4000000000.0 0.12022950453978981 -0.11415346354522096
