! Created with skrf (http://scikit-rf.org).
# Hz S RI R 50.0 
!freq ReS11 ImS11
400000000.0 -0.853186506552893 -0.07595055019484045
420000000.0 -0.08408229265129522 0.8561484350985095
440000000.0 0.798089997874817 0.23049250638445334
460000000.0 0.7794609826193662 -0.06116085978568701
480000000.0 -0.26006099026416335 0.6770146762953794
500000000.0 0.556676876911716 -0.2232145822917522
520000000.0 -0.41610016529288524 -0.3192669123850102
540000000.0 -0.14900514601336537 -0.4247901387432144
560000000.0 -0.027259525604054424 0.3989448194946091
580000000.0 -0.1660215218164933 0.3072856338593714
600000000.0 0.08206248534305478 0.3503080860715715
620000000.0 0.061372967023171375 0.35737460635274765
640000000.0 -0.3012489347060858 0.21467073751879634
660000000.0 -0.0002068690698161871 0.3857482152728068
680000000.0 0.21406292390856213 -0.32382548226552776
700000000.0 0.27802191076259514 -0.2976000422613115
720000000.0 0.3565288548881734 -0.19274607464624377
740000000.0 -0.3986996717229672 0.12400979706228475
760000000.0 0.3912643771150221 -0.07205930442072025
780000000.0 -0.18867291346859302 -0.32259482092679215
800000000.0 0.09987070329012503 0.32893932413487353
820000000.0 -0.13168182924170596 -0.26987979482322233
840000000.0 0.1343658795301563 0.22924031565610156
860000000.0 0.01838776420173494 0.2166900127306918
880000000.0 0.17736778293294428 -0.0012189777298482675
900000000.0 -0.07692496357266089 -0.08756458234918595
920000000.0 -0.0714656497887603 0.019907084771569963
940000000.0 -0.058047585098043704 0.025104612392166135
960000000.0 -0.06348499393406361 0.023608448412430195
980000000.0 0.06166653252366434 -0.0552562273984142
1000000000.0 -0.022654008577313475 -0.09200399146073084
1020000000.0 -0.0720572199315996 0.07718035875783653
1040000000.0 0.05903098452815971 -0.10516493370374495
1060000000.0 0.07734806987170141 0.12404066537445725
1080000000.0 -0.1663574593024253 -0.008525962588600753
1100000000.0 0.17973203839218174 0.01973755205420378
1120000000.0 0.2036136903624806 -0.005770664153589561
1140000000.0 -0.23479587691432513 -0.007638359018796534
1160000000.0 0.10226769438861112 -0.24706963282610678
1180000000.0 0.1666135529332895 -0.2559620826246682
1200000000.0 0.1188119904803769 0.3111192622883877
1220000000.0 -0.254453103803535 -0.2631503473063756
1240000000.0 -0.12960312891226386 0.36568372971395907
1260000000.0 0.36230906307633415 -0.2136028930944058
1280000000.0 -0.43336645048857153 0.03823835308279977
1300000000.0 0.2563920456175728 0.3702502016235462
1320000000.0 0.275128025265107 -0.35325732074954125
1340000000.0 0.3144031478218094 -0.31861362527942405
1360000000.0 0.11221152048971984 -0.42853458929478216
1380000000.0 -0.1701593834896949 -0.40851633468763043
1400000000.0 -0.17895354221988086 0.3880635879180312
1420000000.0 0.3681017025546878 0.1719783934835666
1440000000.0 -0.1509618634033267 -0.346457429952075
1460000000.0 -0.3388593961128987 -0.03661393517150811
1480000000.0 -0.2051886010157011 0.227223699308405
1500000000.0 -0.223270366005396 0.1559164704515841
1520000000.0 -0.24038672349243287 -0.03623498682345628
1540000000.0 0.09464598663695081 0.19713388874242574
1560000000.0 -0.026554102334731322 -0.19068638079094338
1580000000.0 0.14962832831280629 0.0810618743334926
1600000000.0 0.10100222400461155 -0.10742041104474359
1620000000.0 -0.037455289579684053 -0.11401051843307973
1640000000.0 0.032068236598688654 -0.09253543093627589
1660000000.0 -0.06314563731632687 0.04119758876222035
1680000000.0 -0.009611422400979312 0.05295798786999256
1700000000.0 0.03081778980692965 0.018443961882977842
1720000000.0 -0.01137251901216875 -0.013781500758209584
1740000000.0 0.0014875597706469328 0.013085304616778867
1760000000.0 -0.023520153102258353 0.026640488890336444
1780000000.0 0.043356387712798095 0.054848403325323244
1800000000.0 -0.0831276872543841 -0.07156419887317464
1820000000.0 -0.07061235188297868 -0.129480628791441
1840000000.0 0.03759732577566696 -0.18173670151012297
1860000000.0 0.1660287239288973 -0.1475505569535064
1880000000.0 -0.05707812440319216 0.24699471450001143
1900000000.0 0.14469851772902337 -0.24968037797063658
1920000000.0 -0.1520609225939998 0.2760969089238722
1940000000.0 0.28160034998402866 0.18977209385097352
1960000000.0 0.2637472602391239 -0.24957655847324256
1980000000.0 0.0529743363504841 -0.377443787391693
2000000000.0 -0.06115242661996219 -0.3971001429443866
2020000000.0 -0.3441164430106929 -0.2378213682369549
2040000000.0 -0.4257205637819724 0.07180934333890662
2060000000.0 -0.02621326785264273 0.43830345690338085
2080000000.0 0.41574615996193204 0.15225038664701115
2100000000.0 0.19471435295828185 -0.3930543179664151
2120000000.0 -0.31752420667075826 -0.2917187144791098
2140000000.0 -0.2868011333548788 0.3022686202881574
2160000000.0 -0.3860492451178229 0.09947667432827635
2180000000.0 -0.20454708897692125 0.3183299724226411
2200000000.0 -0.056464166971716204 0.3559823830156198
2220000000.0 -0.06954777357245266 0.34046977318854443
2240000000.0 -0.09032824891682222 0.33174553095661186
2260000000.0 -0.10941014279926474 0.33026723579379014
2280000000.0 0.13486986783663277 0.32825783502942396
2300000000.0 0.36761489920024437 -0.06177858309689276
2320000000.0 -0.15916908332893373 -0.3644742348650549
2340000000.0 -0.23641745046852616 0.36128516103340463
2360000000.0 0.35496388938862117 -0.3090515001475179
2380000000.0 -0.43824408861933956 0.2735102590212639
2400000000.0 0.4219513549616978 -0.37581463715056995
2420000000.0 -0.14418374771012943 0.5976093365717106
2440000000.0 -0.3345810199863883 -0.5686732222866886
2460000000.0 0.664090205409717 0.21012061919301325
2480000000.0 -0.718565132544558 0.09404914948084567
2500000000.0 0.7179174086063141 -0.18705052212954276
2520000000.0 -0.7496872894258589 0.04084439009567062
2540000000.0 0.6768374010942886 0.3260085649779719
2560000000.0 -0.3231188047612942 -0.6705639955255718
2580000000.0 -0.4094843459729377 0.6031087453187512
2600000000.0 0.7008629165119697 -0.0742981866549386
2620000000.0 -0.47423183541865327 -0.4795817236407303
2640000000.0 -0.6009677784099892 -0.21453360240490907
2660000000.0 0.09981256670452619 0.5845304971678782
2680000000.0 0.4553653418480645 -0.3034107173320602
2700000000.0 -0.4583029347595126 -0.2042164082613611
2720000000.0 0.12701172118307466 0.438420501703749
2740000000.0 0.2697524249294696 -0.3149177904519856
2760000000.0 -0.3738508660650922 0.05557763608066058
2780000000.0 0.33067660440651897 -0.10673122588423643
2800000000.0 -0.3007993360245226 0.11543490272044689
2820000000.0 0.12296124130432662 -0.2792423706329018
2840000000.0 0.16340993811574367 0.24522425976513298
2860000000.0 -0.28867021283077987 -0.005157484204107777
2880000000.0 0.17736530225573313 -0.22608511724443284
2900000000.0 -0.05420891331137749 0.2812801270710359
2920000000.0 0.23818179963451708 -0.16585485928638774
2940000000.0 -0.27747752675804643 -0.1014264058582597
2960000000.0 -0.19590897984502523 0.22406647790659265
2980000000.0 -0.13314859303447818 0.27093547138884494
3000000000.0 -0.26929547973500434 0.14187145073685198
3020000000.0 -0.2897863504644969 -0.09380565067853394
3040000000.0 0.17781016105098918 -0.24337749705078526
3060000000.0 -0.039297870905223464 0.29846949909632325
3080000000.0 -0.01663681799109561 -0.2966265832538886
3100000000.0 0.09302036884833913 0.2766282732968481
3120000000.0 -0.15991316089181856 -0.23549010782764848
3140000000.0 0.25992208615709417 0.09534516562869427
3160000000.0 -0.25235915068467696 0.07610428850534749
3180000000.0 0.2060571979003594 0.13865761525941284
3200000000.0 -0.13938720059658977 0.17923612877353867
3220000000.0 -0.17024889033928714 -0.10893103307049988
3240000000.0 0.06716052871062791 -0.1595771973070415
3260000000.0 0.10397144800971939 0.09333329396973343
3280000000.0 -0.10242930806813327 0.029621860014455447
3300000000.0 0.06877974178545579 -0.030670277789903017
3320000000.0 -0.005820367202647297 -0.04609924992702294
3340000000.0 0.0033848173191897875 0.02167050642640241
3360000000.0 -0.004481416006419248 0.001710251971321909
3380000000.0 -0.0013006981289310272 -0.009949575069758387
3400000000.0 0.017537416049122078 -0.008759379077700684
3420000000.0 -0.0027193511395096413 -0.028394263679311908
3440000000.0 0.033654948802497905 -0.020116782477514788
3460000000.0 -0.04536723014877777 -0.020039036453431587
3480000000.0 0.015885964637820927 -0.06356940378923269
3500000000.0 -0.04226906080368498 0.07109152138499407
3520000000.0 -0.07296277153968146 -0.06744382552148936
3540000000.0 -0.018120119149759247 -0.11112803763495224
3560000000.0 0.11760913650344648 -0.03585085551681123
3580000000.0 -0.13350752072536595 -0.002850105133139237
3600000000.0 0.14638244989345497 -0.028661338804593678
3620000000.0 -0.007189984649629333 0.15876544210209728
3640000000.0 -0.13729889467309614 -0.10219860614634226
3660000000.0 0.09977760517954044 -0.15285692296085052
3680000000.0 0.19127933611575698 -0.018759097084289144
3700000000.0 0.1944929822534721 -0.01585093221118553
3720000000.0 0.19214188558417838 0.045909580655212966
3740000000.0 0.15596206904926524 -0.11303069722649445
3760000000.0 0.0366540145734707 0.1797750026391441
3780000000.0 -0.15285805694754387 -0.07523575767732682
3800000000.0 -0.10940874316678682 0.11013583377037374
3820000000.0 -0.14268055163714002 -0.021683408455356247
3840000000.0 0.0571354148239294 0.12695060930888644
3860000000.0 -0.024083003239057984 -0.14317565659135056
3880000000.0 -0.01848211493666515 -0.15691414012278634
3900000000.0 -0.019210563323066386 0.16588165275177955
3920000000.0 -0.13380937286756522 -0.11115373643941948
3940000000.0 -0.09639968162719988 -0.14854631641481295
3960000000.0 -0.1114290112031063 -0.1381696817288739
3980000000.0 -0.14326785055055372 0.09558278811963386
4000000000.0 -0.15581319702063956 -0.032228643326329076
