! Created with skrf (http://scikit-rf.org).
# Hz S RI R 50.0 
!freq ReS11 ImS11
400000000.0 -0.8560236018286487 -0.04822082003097417
420000000.0 -0.11044280379749809 0.8544019976414158
440000000.0 0.7941100553397918 0.24512047722303174
460000000.0 0.7778264477867233 -0.07831695819356106
480000000.0 -0.24758981678386402 0.6817552227877183
500000000.0 0.5514922746848786 -0.23612257705585374
520000000.0 -0.4093101026756416 -0.3282876652613002
540000000.0 -0.15707049892559743 -0.4219897789550277
560000000.0 -0.017203316638501456 0.3994962253768084
580000000.0 -0.1238949109552539 0.3266881574318445
600000000.0 0.08572732452227334 0.350195778286947
620000000.0 0.12189758863954615 0.3422215025736427
640000000.0 -0.2870991703208323 0.2325608800122489
660000000.0 0.01977090302930556 0.3849087971397428
680000000.0 0.19067747362237117 -0.3382663188775876
700000000.0 0.27475351470896126 -0.30115809048652087
720000000.0 0.3645811719583957 -0.17631551307157248
740000000.0 -0.40639167272685817 0.09402828442756232
760000000.0 0.3902023173585808 -0.07440989934483909
780000000.0 -0.17835311855189145 -0.32804208620399333
800000000.0 0.11068850342446143 0.32536313001222006
820000000.0 -0.13964863917326917 -0.26593342749759047
840000000.0 0.1346013608075208 0.22911199942740826
860000000.0 0.020047198985575117 0.21637164279207433
880000000.0 0.17761514507314377 0.004549003212505799
900000000.0 -0.08380663712750361 -0.08162217385273467
920000000.0 -0.07444958525479985 -0.0021293035658404118
940000000.0 -0.061310787471042516 0.013678282978693541
960000000.0 -0.055422733070612594 0.0394571279259843
980000000.0 0.05622187219173358 -0.06110789690273107
1000000000.0 0.0033398964987250554 -0.09494683692122464
1020000000.0 -0.07804921789902096 0.07097987750899135
1040000000.0 0.05182665714890246 -0.10902346378467416
1060000000.0 0.09988457710895851 0.10706040651414345
1080000000.0 -0.16693347849640658 0.004320145810233047
1100000000.0 0.17734726695520736 0.038431169950070884
1120000000.0 0.2038012876563008 0.000250993661357977
1140000000.0 -0.23206780367627736 -0.03703316342344074
1160000000.0 0.11364908866802675 -0.24240357128158113
1180000000.0 0.18626733751280425 -0.2421086163067872
1200000000.0 0.061143799329860325 0.3268781967960595
1220000000.0 -0.21923806156884287 -0.29231267934561045
1240000000.0 -0.11850217107326506 0.3694374171436435
1260000000.0 0.3637791560732677 -0.21032486345216322
1280000000.0 -0.4333909383577765 0.03238698762182803
1300000000.0 0.2310208335040161 0.3862054811326558
1320000000.0 0.29496694940716006 -0.336679927135651
1340000000.0 0.33090093253139463 -0.30100123352716307
1360000000.0 0.12155509736248012 -0.4257124057635825
1380000000.0 -0.1618625439159221 -0.41173131042764444
1400000000.0 -0.16357106769540075 0.3946842096899563
1420000000.0 0.37517151238196517 0.15619379936252265
1440000000.0 -0.13069469146689863 -0.3552257293152374
1460000000.0 -0.3366640127126173 -0.05577160988575438
1480000000.0 -0.18395795355653907 0.2456608480001086
1500000000.0 -0.20860467388699763 0.17608987104049575
1520000000.0 -0.2420055975777265 -0.025637142360684363
1540000000.0 0.06876467764809464 0.2079352488031548
1560000000.0 -0.028403592686512803 -0.1900264883896144
1580000000.0 0.12212635156220966 0.11910354669695929
1600000000.0 0.08021328922731945 -0.12338627393113032
1620000000.0 -0.04066746211512817 -0.11292562759703373
1640000000.0 0.030713782246305506 -0.09272402230622803
1660000000.0 -0.07410640767356463 0.011850459427887015
1680000000.0 -0.02085475071475641 0.049295064752896064
1700000000.0 0.035642995848602727 0.0007608285330163322
1720000000.0 -0.015760499491706822 0.008769206510049171
1740000000.0 -0.0019841228086014 0.013302410477309335
1760000000.0 -0.033270676674459966 0.012410707698167784
1780000000.0 0.039325681833327186 0.057752146420204854
1800000000.0 -0.09694005022211703 -0.052657005493052335
1820000000.0 -0.05827280716597877 -0.13567056254924367
1840000000.0 0.04451444098914779 -0.18025924089543247
1860000000.0 0.1757674795690417 -0.1358342425404814
1880000000.0 -0.08244256274414039 0.23961201660130152
1900000000.0 0.13389422392762398 -0.255633668978997
1920000000.0 -0.12533803067500388 0.2895757070318781
1940000000.0 0.2863112313491485 0.18296040012165626
1960000000.0 0.2545061675356247 -0.259356887792417
1980000000.0 0.0416891686797406 -0.37887614790610524
2000000000.0 -0.0404395806600892 -0.3994493322189552
2020000000.0 -0.3502081857977734 -0.22719981030436104
2040000000.0 -0.4313826201042556 0.01526112561394407
2060000000.0 -0.0605768740607601 0.4345428056974184
2080000000.0 0.3921678371657815 0.2042008567577423
2100000000.0 0.21427443235441293 -0.3822896111894588
2120000000.0 -0.3000337407212827 -0.30873534074580145
2140000000.0 -0.25719561648423717 -0.3273853197361833
2160000000.0 -0.3802733956125245 0.11927899344130859
2180000000.0 -0.15056455225418047 0.3472712522831518
2200000000.0 -0.013767909305630356 0.3605466366047733
2220000000.0 -0.03502757975506636 0.34566897660413365
2240000000.0 -0.05508396879087447 0.33921783210965495
2260000000.0 -0.07259018220268502 0.33997199454855137
2280000000.0 0.15906784473002009 0.3173019033456534
2300000000.0 0.36796163977822177 -0.06076837539074493
2320000000.0 -0.1614665155111331 -0.36433520367523825
2340000000.0 -0.24740733151775754 0.35466994009340264
2360000000.0 0.36605939954613176 -0.29586969731259727
2380000000.0 -0.42511034457574093 0.2934376340268111
2400000000.0 0.40251948809971533 -0.3962212924422886
2420000000.0 -0.13528801653016784 0.5997227000389445
2440000000.0 -0.37467506035109593 -0.5433050977433428
2460000000.0 0.674474972507177 0.17481151545326548
2480000000.0 -0.7007674817279411 0.18357139889377408
2500000000.0 0.691758027376291 -0.26807331813719304
2520000000.0 -0.7457569172251953 0.08646694364672347
2540000000.0 0.7159960948806452 0.22835093469177206
2560000000.0 -0.34855071612913446 -0.6583989699333538
2580000000.0 -0.3922220326691245 0.6150976237374428
2600000000.0 0.698082107307083 -0.09944743891360101
2620000000.0 -0.4483093743704433 -0.5045843029919104
2640000000.0 -0.6063097742090022 -0.1983823407581346
2660000000.0 0.09860462989623246 0.5845645470453134
2680000000.0 0.4723438245445974 -0.2760700378394072
2700000000.0 -0.4291313623844512 -0.258839843414568
2720000000.0 0.09663260645933909 0.4457641672789639
2740000000.0 0.28638180358338416 -0.2985320617306798
2760000000.0 -0.37344246498819395 0.05257618483080735
2780000000.0 0.3391551208600804 -0.07238295218719111
2800000000.0 -0.3036800594811515 0.10600205570064164
2820000000.0 0.13389946123534316 -0.2734908162762974
2840000000.0 0.15072903699116783 0.2528969306110287
2860000000.0 -0.28845945655412353 -0.008428772940044321
2880000000.0 0.13461732306154686 -0.2529878323596451
2900000000.0 0.006565247697830699 0.2865567887753728
2920000000.0 0.21076445568831356 -0.19997503028750732
2940000000.0 -0.2887843343111407 -0.06364710737623515
2960000000.0 -0.16784293800630126 0.24701702020262328
2980000000.0 -0.06666728938502371 0.29500449941677337
3000000000.0 -0.2210785435689567 0.21120376665720764
3020000000.0 -0.26950857170683035 -0.1442580407566174
3040000000.0 0.20025085797523987 -0.22745691695521694
3060000000.0 -0.05553094900341488 0.2965241554891012
3080000000.0 9.229637765747959e-05 -0.29748654786608647
3100000000.0 0.12817635507055436 0.2630886954663654
3120000000.0 -0.08252088638881973 -0.2723991403464936
3140000000.0 0.2318197809463712 0.15211220396392686
3160000000.0 -0.26169974199823637 0.03164611720959071
3180000000.0 0.18179590433337992 0.16927585337546608
3200000000.0 -0.17139008584614218 0.14932748235262638
3220000000.0 -0.1589120292506705 -0.1247129541559078
3240000000.0 0.05752321278360479 -0.1637121392062461
3260000000.0 0.1175627863603184 0.07607822958534
3280000000.0 -0.0990862212245261 0.04031075974776563
3300000000.0 0.056629512171850534 -0.04932099594906434
3320000000.0 -0.0070071333163707564 -0.045816538264921894
3340000000.0 0.0037271753926962064 0.021718644538108813
3360000000.0 0.0030604519386022593 -0.0031337682772752903
3380000000.0 -0.01014864327688731 -0.0023120066993870332
3400000000.0 0.005243593993025074 -0.0179187555805721
3420000000.0 -0.012450811536252451 -0.02441074532327682
3440000000.0 0.01019569885381636 -0.03661174570323392
3460000000.0 -0.04446365782069489 0.018406439076722077
3480000000.0 -0.04735709197894598 -0.04324538866263251
3500000000.0 -0.02823520265698154 0.07650021877619047
3520000000.0 -0.09228970697373992 -0.033771651711108824
3540000000.0 -0.05677061777895767 -0.09612255082609023
3560000000.0 0.08905508457120084 -0.0837771840978859
3580000000.0 -0.12501163808664773 0.040689109526283435
3600000000.0 0.0973095339874387 -0.11266905976966828
3620000000.0 0.07695761367370615 0.13736085661468153
3640000000.0 -0.16862549189177947 -0.02071709520280354
3660000000.0 0.018535268922265855 -0.18084358507589549
3680000000.0 0.1663231723220415 -0.0938781116721893
3700000000.0 0.1880646523627999 -0.04945217375529478
3720000000.0 0.1966644808109214 0.01611940421077576
3740000000.0 0.14636128339179375 -0.1252713644353216
3760000000.0 0.011693246950653886 0.1834525494961502
3780000000.0 -0.14135311207225326 -0.09586482148404246
3800000000.0 -0.12508126785202822 0.0932278513513018
3820000000.0 -0.13420380628405526 -0.05650586687450633
3840000000.0 0.05211742373697367 0.1294253394977596
3860000000.0 -3.987079550176573e-06 -0.14540459200450148
3880000000.0 0.017942911788285075 -0.15706687165751607
3900000000.0 -0.010949565303185785 0.1663588440552452
3920000000.0 -0.14205317717100058 -0.10050590772777543
3940000000.0 -0.0764108528253801 -0.16095167319859638
3960000000.0 -0.09324674545559616 -0.15188521004008584
3980000000.0 -0.1523019490414956 0.08233621625297437
4000000000.0 -0.15411900484808297 -0.04333460269153369
