! Created with skrf (http://scikit-rf.org).
# Hz S RI R 50.0 
!freq ReS11 ImS11
400000000.0 -0.8549193028911736 -0.0576688847942564
420000000.0 -0.0849480806255592 0.8564753273228445
440000000.0 0.7968686866172444 0.23523253368347444
460000000.0 0.7792968181295695 -0.0638374453326158
480000000.0 -0.2618514998208965 0.6762692411497022
500000000.0 0.5657056433940969 -0.19893699439382753
520000000.0 -0.40803157314922817 -0.32994542509841146
540000000.0 -0.17523155091778128 -0.41454816216175927
560000000.0 -0.03631692442550642 0.39803310138705106
580000000.0 -0.16135017982280753 0.3100164073982504
600000000.0 0.10381251468632102 0.3448109640240909
620000000.0 0.09039470567066593 0.35116009389304476
640000000.0 -0.30828564361853494 0.20529244398178018
660000000.0 -0.024423798738876384 0.38544182034499164
680000000.0 0.21272463633236807 -0.32450850529473435
700000000.0 0.2752898925137644 -0.300201085516642
720000000.0 0.36214314178651186 -0.18165820438166871
740000000.0 -0.3945735435677825 0.1355354439303185
760000000.0 0.3909928283210374 -0.07173539688326053
780000000.0 -0.1734875179882158 -0.3309031580265725
800000000.0 0.10330867725630773 0.3276678972853393
820000000.0 -0.14194928093596526 -0.2644082105382198
840000000.0 0.1571145869989286 0.2141575457182262
860000000.0 0.04216680721281715 0.21334942949553737
880000000.0 0.17748420425234612 0.005972163997144594
900000000.0 -0.07996573456544871 -0.08517037709971306
920000000.0 -0.06990616227497726 0.025149953617376
940000000.0 -0.058737635226645914 0.02377869368337689
960000000.0 -0.06271265832601637 0.025490654344706206
980000000.0 0.06090398858508634 -0.056122289788990934
1000000000.0 -0.016756688779423882 -0.09340704048895997
1020000000.0 -0.07338621073785546 0.0758897784147495
1040000000.0 0.048893180143868224 -0.11015037895381503
1060000000.0 0.09090505510744308 0.11436931543802005
1080000000.0 -0.16667684053161236 0.0033823987012909546
1100000000.0 0.18049993582657856 0.012694775688944664
1120000000.0 0.20271683810791066 -0.021738750342527688
1140000000.0 -0.23491291837844044 -0.010043735389710576
1160000000.0 0.11029710009299758 -0.24362102177696277
1180000000.0 0.17468634621538717 -0.25065688459753677
1200000000.0 0.11019246232746609 0.31425650059570365
1220000000.0 -0.25022047665697955 -0.26721958037077487
1240000000.0 -0.13443337271092343 0.36406244979420593
1260000000.0 0.37430131895077573 -0.19155960328567526
1280000000.0 -0.4341337717077338 0.026226369526615497
1300000000.0 0.23670814307715274 0.3830016553489856
1320000000.0 0.27285480541322776 -0.3550075644322824
1340000000.0 0.31375060160310453 -0.31908338830780475
1360000000.0 0.1133893822294704 -0.42806523009908587
1380000000.0 -0.16163702638966973 -0.4119983208046808
1400000000.0 -0.17791466273649156 0.3885677238337982
1420000000.0 0.36941804810157813 0.16914769633545645
1440000000.0 -0.15380247126303645 -0.3453529880136095
1460000000.0 -0.3397756963228929 -0.02656327505814249
1480000000.0 -0.21165269273063164 0.22124862475511708
1500000000.0 -0.22822052706490842 0.14892105709722508
1520000000.0 -0.2423284305041472 -0.019552704033946617
1540000000.0 0.09446171509066469 0.19741793766438087
1560000000.0 -0.019851779746309077 -0.1915115721599971
1580000000.0 0.14696008585883902 0.08611362608595087
1600000000.0 0.08247327405080851 -0.12213749359397838
1620000000.0 -0.008565275003177343 -0.11965933697795121
1640000000.0 0.03298974468986991 -0.09231262649997235
1660000000.0 -0.06917961767692501 0.030113093102857844
1680000000.0 0.011264439334410736 0.05286996088942473
1700000000.0 0.03069829550015986 0.018793828721856438
1720000000.0 -0.015298140025045856 -0.0092455386046038
1740000000.0 0.0047151866923869 0.012517359240690409
1760000000.0 -0.0231832964310477 0.026975221003731984
1780000000.0 0.048460343875405466 0.050607436533265784
1800000000.0 -0.08616796231691695 -0.0685636134711882
1820000000.0 -0.05760596032483993 -0.13557248261900354
1840000000.0 0.0493690401410446 -0.17880516996395593
1860000000.0 0.1768150880178068 -0.13415472479059531
1880000000.0 -0.07492083783429204 0.24210945728384148
1900000000.0 0.1473816329614944 -0.24777921131239328
1920000000.0 -0.14520646904681514 0.27976208597411295
1940000000.0 0.28003012130784544 0.19171078996509613
1960000000.0 0.25910515816632873 -0.25455903097596894
1980000000.0 0.044027340644149884 -0.37856710971929264
2000000000.0 -0.07105637307439806 -0.3954189823661462
2020000000.0 -0.3515553978588953 -0.2263885965608641
2040000000.0 -0.4264042011871673 0.06762346955370442
2060000000.0 -0.023016561940861074 0.43854282986181586
2080000000.0 0.4130322428750206 0.15985376599356405
2100000000.0 0.18345533807946118 -0.398591987355103
2120000000.0 -0.29726066554875286 -0.3125231953598897
2140000000.0 -0.26829906347134713 0.319119697919029
2160000000.0 -0.39174370996406666 0.07581558137518675
2180000000.0 -0.19599158657779872 0.32377775075542536
2200000000.0 -0.0492374272972728 0.3574121960348473
2220000000.0 -0.09025666700314983 0.33579785537451984
2240000000.0 -0.09924468174037668 0.32923803522640044
2260000000.0 -0.11723266411700553 0.327466853674564
2280000000.0 0.11668381776880832 0.3348854419425751
2300000000.0 0.37034688957722356 -0.03851201297089007
2320000000.0 -0.1534663610396033 -0.36689076778246554
2340000000.0 -0.22427041101709477 0.3690043181564141
2360000000.0 0.3545695645612649 -0.30934096830884117
2380000000.0 -0.4297001556612884 0.28691080509057043
2400000000.0 0.4195619560196987 -0.37848542294094756
2420000000.0 -0.14137161523414282 0.5981798894850946
2440000000.0 -0.3258776221135512 -0.5737035319421652
2460000000.0 0.6685319820225023 0.19581409293832636
2480000000.0 -0.7018448137573386 0.17900778808253573
2500000000.0 0.6950863708795356 -0.2594561701426353
2520000000.0 -0.7514609959553133 -0.001324321710746769
2540000000.0 0.6731037614229924 0.3338933667406799
2560000000.0 -0.3120809967707926 -0.6765015401724034
2580000000.0 -0.41272455659484275 0.6014186929149716
2600000000.0 0.7027386176843655 -0.05616852056649231
2620000000.0 -0.44767558995009765 -0.5044803844651538
2640000000.0 -0.5826928765141859 -0.25930460654912385
2660000000.0 0.10272756638416558 0.5839165952066582
2680000000.0 0.43413019847586576 -0.33302717988377795
2700000000.0 -0.4579224430347992 -0.20425006179951585
2720000000.0 0.10980022774585489 0.4426625717375289
2740000000.0 0.2715759363947453 -0.31304040872865097
2760000000.0 -0.37221482595866845 0.06303800125570536
2780000000.0 0.3267995346464629 -0.11742426365192549
2800000000.0 -0.2972528638879655 0.12360597457851387
2820000000.0 0.11292653760793064 -0.2835487282851477
2840000000.0 0.17681952491229286 0.23584028485455752
2860000000.0 -0.2889052843151373 0.0003213450558607704
2880000000.0 0.15205877528889608 -0.24369906920326953
2900000000.0 -0.04613281395872383 0.2830939367500127
2920000000.0 0.23637850332380905 -0.1693072067436748
2940000000.0 -0.2696814692958622 -0.12106812801178209
2960000000.0 -0.22587791985497802 0.19432926889922497
2980000000.0 -0.13517461173794576 0.2701325105547864
3000000000.0 -0.26302988364711133 0.1536981730120876
3020000000.0 -0.2748616530728332 -0.13196030339446918
3040000000.0 0.24408467739100986 -0.17772937994053636
3060000000.0 -0.06610366897776258 0.2943070452593457
3080000000.0 -0.0008131679002384184 -0.2971005267049453
3100000000.0 0.07573085006510163 0.2816390670017231
3120000000.0 -0.1384193968098253 -0.24893189365837018
3140000000.0 0.2620550451059832 0.09004720309877276
3160000000.0 -0.25103860942550227 0.08046176193953032
3180000000.0 0.19071209234825665 0.15902812609028075
3200000000.0 -0.1574709599593444 0.16380643677800805
3220000000.0 -0.16950481396420375 -0.11023272740771466
3240000000.0 0.08166129206395116 -0.15241302498763776
3260000000.0 0.08297218159978673 0.11213301399167318
3280000000.0 -0.10532864792563798 0.013740137455659268
3300000000.0 0.06920683257290638 -0.029268291755964963
3320000000.0 -0.015689334042886468 -0.04334486669939815
3340000000.0 -0.008649812540074488 0.01973016002920738
3360000000.0 0.002430154337795065 -0.003948037271168165
3380000000.0 0.01023402140247898 -0.0028927654195840618
3400000000.0 0.013175228693343399 -0.01509604974243991
3420000000.0 -0.004195942010994781 -0.028348582083953362
3440000000.0 0.036268978871099235 -0.015270329807755188
3460000000.0 -0.031208314635845755 -0.038954398098901985
3480000000.0 0.0406916481053507 -0.05134718477039728
3500000000.0 -0.05566752893209493 0.061460197254280605
3520000000.0 -0.09401463476361348 -0.03501632756083722
3540000000.0 -0.014525739546936159 -0.11193870188788561
3560000000.0 0.12250373694761225 -0.013567994231386013
3580000000.0 -0.12259636469788301 -0.052716524527555327
3600000000.0 0.14709171574406768 0.024088493074948203
3620000000.0 -0.04347576492477725 0.15295150307935695
3640000000.0 -0.10696284875466537 -0.13382926853349295
3660000000.0 0.12518076270288025 -0.13315910337266185
3680000000.0 0.19205743206488954 0.0009544384401071117
3700000000.0 0.19430515250615216 0.017237837098992882
3720000000.0 0.17904765433082875 0.08274312413626779
3740000000.0 0.17695064277306652 -0.07560010784326865
3760000000.0 0.01685759427545675 0.18202167266092098
3780000000.0 -0.13249617185355722 -0.10672530302874952
3800000000.0 -0.12765444842061724 0.08752019905096346
3820000000.0 -0.1413775181126955 -0.025497253167625637
3840000000.0 0.029207767269057164 0.13587727724980203
3860000000.0 -0.006847743233928622 -0.14443648907442766
3880000000.0 -0.0022170001269340585 -0.15754083380200654
3900000000.0 -0.04187517506949327 0.16152498702991813
3920000000.0 -0.12872938442047666 -0.11594761474485991
3940000000.0 -0.080556103750173 -0.15716575587879605
3960000000.0 -0.10614957624318755 -0.14132804207754557
3980000000.0 -0.13956389694116547 0.09984655698773177
4000000000.0 -0.15829154051947636 0.0041867632327824665
