! Created with skrf (http://scikit-rf.org).
# Hz S RI R 50.0 
!freq ReS11 ImS11
400000000.0 -0.8524635155263082 -0.08782372171866608
420000000.0 -0.10610748931501544 0.8549290761726146
440000000.0 0.7939586876772521 0.24496059673302412
460000000.0 0.7799132456772632 -0.044054781819275246
480000000.0 -0.2512617541197761 0.679899805122677
500000000.0 0.5500760014847061 -0.2399253054411847
520000000.0 -0.42266295880328103 -0.3102631738499669
540000000.0 -0.17572574917707084 -0.414056532522403
560000000.0 -0.044042282930608447 0.3975210434248081
580000000.0 -0.1443409461205467 0.31859352075666536
600000000.0 0.04864380348308074 0.3569343475340038
620000000.0 0.08086157398372056 0.3541771197129399
640000000.0 -0.2823146176594156 0.2375637027715907
660000000.0 -0.017848114419055584 0.38506416065063676
680000000.0 0.20569957856286533 -0.32926786169893185
700000000.0 0.27879922549574243 -0.29677970910808077
720000000.0 0.36947354221767204 -0.16391978607908075
740000000.0 -0.39976171845155184 0.11711107081779427
760000000.0 0.3928948283749874 -0.05961518665414735
780000000.0 -0.2251901951615257 -0.29837384111306336
800000000.0 0.11900233395221428 0.32232363552005794
820000000.0 -0.1285216790573449 -0.2715701077148839
840000000.0 0.1670651723062633 0.20702651322778104
860000000.0 0.057148028921945065 0.21022784188844246
880000000.0 0.1781780791343472 0.0034636881338343008
900000000.0 -0.0569240053159845 -0.10281041625843107
920000000.0 -0.07255754655820873 -0.016874579657312556
940000000.0 -0.05311471769934267 0.03292611935464409
960000000.0 -0.05075747299692679 0.04441033457890803
980000000.0 0.05090030089511037 -0.06582079980643292
1000000000.0 -0.0015783308725789795 -0.09548296727792671
1020000000.0 -0.07052774482575745 0.07890509226502329
1040000000.0 0.06920798459570521 -0.09908540779148613
1060000000.0 0.07659961193279144 0.12470246230575739
1080000000.0 -0.16383466269527938 -0.030843829043153283
1100000000.0 0.1762534086086838 0.04124259261254899
1120000000.0 0.2033373224729967 -0.004968739885705102
1140000000.0 -0.22968785664061536 -0.045605643620455355
1160000000.0 0.09922263488130738 -0.24764507387590728
1180000000.0 0.1530718343754511 -0.2644623642957767
1200000000.0 0.10861709077804399 0.31490219655399654
1220000000.0 -0.27087302939234487 -0.24582063400683973
1240000000.0 -0.1027704445667589 0.3742233582412758
1260000000.0 0.3442451242503842 -0.2411325167336039
1280000000.0 -0.4292679307344217 0.06933016200045962
1300000000.0 0.24838137856800666 0.3754635854519355
1320000000.0 0.2773440599456092 -0.35167691242214144
1340000000.0 0.32446160664897467 -0.30823834826453506
1360000000.0 0.12753707223355162 -0.4239187064606761
1380000000.0 -0.16533675823128885 -0.4102439049068574
1400000000.0 -0.18334076886052258 0.3856880025463639
1420000000.0 0.3654585936788941 0.17706724691292552
1440000000.0 -0.1179262574402493 -0.3586906450015635
1460000000.0 -0.33236993983081464 -0.07452301871238412
1480000000.0 -0.22971137465455158 0.2020972847545302
1500000000.0 -0.21423951500705735 0.16737569250319934
1520000000.0 -0.24247036630293695 -0.005811844411562501
1540000000.0 0.10031831375700832 0.19410899398054435
1560000000.0 -0.06441258086485062 -0.1805832021360031
1580000000.0 0.1496665059243687 0.08042609787296155
1600000000.0 0.02906650424073763 -0.14440146393185377
1620000000.0 -0.08748645366072183 -0.08239635706793491
1640000000.0 0.0011181442058302185 -0.09855205030762225
1660000000.0 -0.05226770848303002 0.054639754240449666
1680000000.0 -0.001679922721930235 0.054028377245592604
1700000000.0 0.028148741049281747 0.02249304342712893
1720000000.0 0.0023290441621688523 -0.01751878054107763
1740000000.0 0.011251584842633907 -0.006602962368644605
1760000000.0 0.022585597225440984 0.02732662474153087
1780000000.0 0.07022003079375169 0.0064231168481322185
1800000000.0 -0.10979272650690575 -0.011582751943809278
1820000000.0 -0.11183633550583807 -0.09774097747046245
1840000000.0 0.015809663813088667 -0.18511060260305018
1860000000.0 0.15860895606289174 -0.1559657524183775
1880000000.0 -0.0680321243435955 0.24411573606327963
1900000000.0 0.1590919990838003 -0.2406148892283647
1920000000.0 -0.16477802865051674 0.2687031902098529
1940000000.0 0.2626140923200551 0.21486270573657199
1960000000.0 0.29132789622675415 -0.21636478117159713
1980000000.0 0.09882430458659594 -0.36770712470402533
2000000000.0 -0.019406760170600706 -0.4009521223953407
2020000000.0 -0.3535499577211616 -0.2223845362192453
2040000000.0 -0.42440808445073636 0.07803269070934592
2060000000.0 0.04195557498111469 0.4366519055411189
2080000000.0 0.4127267576091594 0.15888813225502232
2100000000.0 0.1613462514134372 -0.4072864535710887
2120000000.0 -0.3139181836947736 -0.29448180641653937
2140000000.0 -0.26739084273294467 -0.31892440309683456
2160000000.0 -0.36871501422548447 0.15201705539560345
2180000000.0 -0.16184887704017034 0.3428872601636545
2200000000.0 -0.011147245657351772 0.35997320312627934
2220000000.0 -0.0783864989917671 0.3391741476988231
2240000000.0 -0.06721623131093885 0.33728113535547816
2260000000.0 -0.05727693359903974 0.343603963699085
2280000000.0 0.1313548403582066 0.3300042328276505
2300000000.0 0.36954880255305617 -0.05127674971528143
2320000000.0 -0.1400434751272073 -0.37264402306736133
2340000000.0 -0.24078866116156486 0.3581958674213961
2360000000.0 0.3475899246557244 -0.31653114868872323
2380000000.0 -0.4286489318691067 0.2870410570730787
2400000000.0 0.4195656570455066 -0.3779534079416834
2420000000.0 -0.14900841962012085 0.5960916268480618
2440000000.0 -0.3421047100888758 -0.564576549455994
2460000000.0 0.6661639541640213 0.20498841309387028
2480000000.0 -0.6987914301451151 0.1939646164509265
2500000000.0 0.724696082761103 -0.16541953609767315
2520000000.0 -0.7518834776964215 0.017573849388488917
2540000000.0 0.6789191877877533 0.325574929470357
2560000000.0 -0.24048948450569385 -0.7062172201076113
2580000000.0 -0.4381900012510512 0.5833926923225801
2600000000.0 0.7049788724069497 0.006026661785106934
2620000000.0 -0.4298810318314106 -0.5190524966691789
2640000000.0 -0.5681002222379433 -0.28753733923903574
2660000000.0 0.04818810201739315 0.5900685806931115
2680000000.0 0.4741856423740587 -0.27142060698891124
2700000000.0 -0.42671777004820305 -0.26123514026668887
2720000000.0 0.07594099902149702 0.4486100110336678
2740000000.0 0.2742603485277598 -0.3087733479834791
2760000000.0 -0.3665316298327825 0.08594604600951664
2780000000.0 0.3238495193416372 -0.1230433380576345
2800000000.0 -0.2863203640000475 0.14635324792060025
2820000000.0 0.09494461013739583 -0.2894095334218003
2840000000.0 0.1848745982056677 0.2289477247084045
2860000000.0 -0.28470938995992756 0.04830397597378608
2880000000.0 0.15536366129981388 -0.24208564563024781
2900000000.0 -0.030884817764134504 0.28513613602301463
2920000000.0 0.24011772642507123 -0.16433276192712712
2940000000.0 -0.2704338600395587 -0.12080969742488973
2960000000.0 -0.2204262163649872 0.2009818921204183
2980000000.0 -0.0964808334574669 0.2858516779244966
3000000000.0 -0.2618864800242638 0.15538674599948069
3020000000.0 -0.272153040671428 -0.13791560768651595
3040000000.0 0.2236312621369358 -0.20210666095887023
3060000000.0 -0.10766038138313314 0.2803366295457867
3080000000.0 0.01312909035595092 -0.2961938960613971
3100000000.0 0.07187010502827476 0.2826412358006653
3120000000.0 -0.11620931409662835 -0.25895517297707926
3140000000.0 0.2331482421261614 0.14914805334728587
3160000000.0 -0.2536620306069596 0.07016467138375669
3180000000.0 0.18305301273842567 0.1668218614076103
3200000000.0 -0.14528327633980512 0.17367335516044466
3220000000.0 -0.1720576156234113 -0.10504564053345085
3240000000.0 0.03211872851787053 -0.16950645496354172
3260000000.0 0.12791581786586342 0.05512576219344127
3280000000.0 -0.10061925374090162 0.03616696944015059
3300000000.0 0.018276920746542854 -0.07347682305187972
3320000000.0 -0.046612462135925556 -0.003636427500851643
3340000000.0 0.021290157835132755 0.00518790813109622
3360000000.0 -0.003763657181398951 -0.0023036911377809456
3380000000.0 -0.004322491173262592 -0.008430094472974286
3400000000.0 0.012735942222692207 -0.01392816629727378
3420000000.0 0.01280373779657624 -0.02459897083316075
3440000000.0 0.03080595326079049 -0.022975238010005408
3460000000.0 -0.050105960391310746 -0.0005909322296853196
3480000000.0 -0.003961480110471602 -0.06540474122273819
3500000000.0 -0.06265103503166651 0.053625251210275324
3520000000.0 -0.09901449170053447 -0.010115300082010203
3540000000.0 -0.02576833544866024 -0.11029717514661215
3560000000.0 0.11787584419826984 -0.03697922204767701
3580000000.0 -0.12585274653476541 -0.043689160462099835
3600000000.0 0.14916238630654033 -0.012580309513258238
3620000000.0 0.0027490230539323392 0.15918392146646468
3640000000.0 -0.16247733227700065 -0.055760717048840565
3660000000.0 0.044477642561517115 -0.17813134298478608
3680000000.0 0.1824736897201076 -0.06374822901934768
3700000000.0 0.19503875557874834 -0.01997609538575914
3720000000.0 0.18475100335685088 0.07260422849750874
3740000000.0 0.17075787317788382 -0.0900282490410953
3760000000.0 -0.01319704970113727 0.183907216492479
3780000000.0 -0.14195199529886865 -0.09583100819539744
3800000000.0 -0.14048224529806286 0.06949568993744912
3820000000.0 -0.11864775010327451 -0.08503407507588283
3840000000.0 -0.002205177072563699 0.1402187933013154
3860000000.0 -0.011136482978179199 -0.14556247493292468
3880000000.0 -0.053227603617747477 -0.14930977473328716
3900000000.0 -0.0176038678297562 0.16641846737444513
3920000000.0 -0.14312801758604554 -0.09868387188531712
3940000000.0 -0.1415626083513413 -0.10635707214575926
3960000000.0 -0.15071524267889586 -0.09295017765755954
3980000000.0 -0.13710030687777885 -0.10334844363455749
4000000000.0 -0.11660849829662442 0.10794475487043034
