! Created with skrf (http://scikit-rf.org).
# Hz S RI R 50.0 
!freq ReS11 ImS11
400000000.0 -0.85408831870904 -0.07340692333715967
420000000.0 -0.0977225970390664 0.856547231697159
440000000.0 0.7985699157093198 0.23237441883638238
460000000.0 0.7790704522103172 -0.0631406863182864
480000000.0 -0.2543563195241489 0.6792169793206593
500000000.0 0.5577060565794058 -0.2217519314054787
520000000.0 -0.4171093398230129 -0.3183939632943504
540000000.0 -0.17282981530196 -0.4152328841239854
560000000.0 -0.026810184494115288 0.3986623407158269
580000000.0 -0.1289931662554615 0.32530466960063675
600000000.0 0.09956105517318756 0.34695559196264614
620000000.0 0.12426212803142028 0.34177243890427395
640000000.0 -0.2794179212750106 0.24155820552074747
660000000.0 -0.023447924417750586 0.3851330701594151
680000000.0 0.19615627814067416 -0.3356101889983637
700000000.0 0.2616032599171589 -0.3128251516568582
720000000.0 0.37611677434324375 -0.1488068475745274
740000000.0 -0.40795291115209087 0.08775637759763025
760000000.0 0.3951576509273394 -0.0403281790087358
780000000.0 -0.19885531315368796 -0.3163593467835864
800000000.0 0.11046131563550604 0.3250824623010994
820000000.0 -0.12247586572482748 -0.2742912553724693
840000000.0 0.14137871922867848 0.2250835271711118
860000000.0 0.02903225052397233 0.215505511850057
880000000.0 0.1775842384880585 0.003377851086334326
900000000.0 -0.0777866438335293 -0.08754003115054863
920000000.0 -0.07459217888757376 -0.00386235378146153
940000000.0 -0.060652003616853835 0.015787861638551094
960000000.0 -0.06184425485694969 0.027865663269588285
980000000.0 0.059675811689250166 -0.05782088647799282
1000000000.0 -0.007686298560718071 -0.09476440727335905
1020000000.0 -0.07361520175601743 0.07552696430701887
1040000000.0 0.044060829069218016 -0.11242203701492795
1060000000.0 0.0946703235019884 0.11188597620917168
1080000000.0 -0.16697143957791483 0.0065142334152927025
1100000000.0 0.17802263761462495 0.035766353716627834
1120000000.0 0.20374466739454694 -0.00706703929943817
1140000000.0 -0.2282067339957561 -0.05559564996215752
1160000000.0 0.11365332250877391 -0.24241329814666132
1180000000.0 0.18302528319381803 -0.24489059920511294
1200000000.0 0.0921493918207334 0.3200803370814942
1220000000.0 -0.2474765833229634 -0.2691882662864895
1240000000.0 -0.11992530730681245 0.3689115158682783
1260000000.0 0.36039615039345974 -0.2158430873836898
1280000000.0 -0.4332663685880294 0.035072479593901376
1300000000.0 0.24200039456376357 0.379460884816762
1320000000.0 0.29295309134376996 -0.33846666890870364
1340000000.0 0.3383489046159914 -0.2926749112237972
1360000000.0 0.1207931297141496 -0.42614151784819665
1380000000.0 -0.17871253703665804 -0.4047117244773357
1400000000.0 -0.16176937918404286 0.39551915238932944
1420000000.0 0.3823579858692897 0.13769499230710963
1440000000.0 -0.13949691566996478 -0.35187121928267817
1460000000.0 -0.338234394292928 -0.04476464492859705
1480000000.0 -0.19059092476581577 0.24050328586752423
1500000000.0 -0.20242309351211055 0.18288572451462512
1520000000.0 -0.24311647193902258 0.0015922441849877537
1540000000.0 0.08146275375704447 0.2036640912526922
1560000000.0 -0.04803908667163792 -0.1861261002074487
1580000000.0 0.14436798645443888 0.09055763382728199
1600000000.0 0.0845067103286699 -0.12044220024243647
1620000000.0 -0.01982787583992779 -0.11832377484156134
1640000000.0 0.0561223813177569 -0.07991991732206918
1660000000.0 -0.07515005786249042 0.004959671239281104
1680000000.0 -0.0274786279110257 0.04595732444200001
1700000000.0 0.028846843190731015 0.020567001621176258
1720000000.0 -0.01780648200095142 -0.00016110038363918817
1740000000.0 0.007563299216220111 -0.010853035569234054
1760000000.0 -0.0347206682862717 0.008339491596336068
1780000000.0 0.04038967201686001 0.05717476415161863
1800000000.0 -0.08635014667590804 -0.06872811412522056
1820000000.0 -0.057138386445298665 -0.13644471153289284
1840000000.0 0.0659855685499184 -0.1735794066347781
1860000000.0 0.18885225289346103 -0.11699943097051466
1880000000.0 -0.09318980311471788 0.23565000914759587
1900000000.0 0.144740510591672 -0.24939541014102953
1920000000.0 -0.12724511860046012 0.2885430108643213
1940000000.0 0.2901512734512421 0.17648932377163676
1960000000.0 0.24974069498091486 -0.26381934362448844
1980000000.0 0.024314118796830892 -0.38024122810104594
2000000000.0 -0.06728632320184248 -0.3956558791584909
2020000000.0 -0.3459233220000544 -0.233981028510383
2040000000.0 -0.42895542994147645 0.04872707133529031
2060000000.0 -0.04780824438407813 0.4363358157469392
2080000000.0 0.40628880706277304 0.17480604980225978
2100000000.0 0.21807151134652558 -0.3804708138162502
2120000000.0 -0.270968757364604 -0.3351994529295664
2140000000.0 -0.2661648970425978 0.32055473135792156
2160000000.0 -0.3882791200176192 0.09187923635359009
2180000000.0 -0.18671434416989385 0.3298264834394492
2200000000.0 -0.016048996822277093 0.3606551948963521
2220000000.0 -0.06876618397319391 0.34118632821739164
2240000000.0 -0.05429403997769095 0.33907964071801255
2260000000.0 -0.05113736591417866 0.344062364920957
2280000000.0 0.15618167151923346 0.31871958477212353
2300000000.0 0.36533834131291737 -0.07501622679215535
2320000000.0 -0.17322465205543966 -0.35876052637865957
2340000000.0 -0.23865052111729831 0.36044909480208437
2360000000.0 0.34875908961692587 -0.31618987929159137
2380000000.0 -0.41428196009756024 0.3083147684931822
2400000000.0 0.38656757994832436 -0.4119263241662247
2420000000.0 -0.09240673473886979 0.6076329342705383
2440000000.0 -0.39385333452280197 -0.5295382546890386
2460000000.0 0.6803584264899822 0.15028073071048356
2480000000.0 -0.6892583757364543 0.22253828775812765
2500000000.0 0.6795136610733995 -0.29753069541234106
2520000000.0 -0.7440484936788496 0.099322581670833
2540000000.0 0.7094420135970868 0.24754421319633793
2560000000.0 -0.35414337503773474 -0.6553576818371293
2580000000.0 -0.38465562351413846 0.6197216280806737
2600000000.0 0.6958641181013728 -0.11256917017105088
2620000000.0 -0.4313538669773987 -0.5187403794756931
2640000000.0 -0.5819157439327959 -0.26023235797720007
2660000000.0 0.07261745022821046 0.5877611990057142
2680000000.0 0.4717593888795508 -0.27649646753864704
2700000000.0 -0.4319089560901147 -0.25343444565565143
2720000000.0 0.09001808089058728 0.446707163372315
2740000000.0 0.2901485701345937 -0.2943920145015994
2760000000.0 -0.3744651773120711 0.0412227280095889
2780000000.0 0.33487364415283183 -0.08892683381051088
2800000000.0 -0.3028215867461383 0.10800940578046865
2820000000.0 0.140565619731845 -0.27001654870405917
2840000000.0 0.1474441206704389 0.2541334500859621
2860000000.0 -0.28732919482354835 0.01990997580147991
2880000000.0 0.14642158499320476 -0.24628480860075677
2900000000.0 -0.0002568550514507311 0.28644184447791987
2920000000.0 0.19965154319454173 -0.21054795830603618
2940000000.0 -0.2882448905517107 -0.06499958253031536
2960000000.0 -0.1886372776839669 0.23161777804098985
2980000000.0 -0.07626952923675864 0.2925273431782385
3000000000.0 -0.22765550762534237 0.20272064146356567
3020000000.0 -0.29365905056044606 -0.08393787103480452
3040000000.0 0.20596393720294845 -0.22205797434617072
3060000000.0 -0.05251364274022421 0.2969739389302019
3080000000.0 -0.013836275587241294 -0.2970927205391085
3100000000.0 0.08259530015501071 0.2804754510702007
3120000000.0 -0.11884340108229137 -0.25907428195515037
3140000000.0 0.24304986469733447 0.13401594022958302
3160000000.0 -0.2598334690976816 0.04580698624884014
3180000000.0 0.17371327790871496 0.177206717959485
3200000000.0 -0.17760831888383433 0.14147501696913892
3220000000.0 -0.1483974961022764 -0.1367011597593968
3240000000.0 0.058441998836360635 -0.16273396484944744
3260000000.0 0.11462764011552817 0.07940070254066099
3280000000.0 -0.09226154016034183 0.05343131721523477
3300000000.0 0.03173254606971342 -0.06759876055418762
3320000000.0 -0.03921440736339348 -0.023771723968373324
3340000000.0 0.021518116076402923 4.552002091995396e-05
3360000000.0 -0.0016584554057258506 -0.0034272122565040513
3380000000.0 -0.010245180221481107 0.0029515922938384825
3400000000.0 0.01510803174813398 0.012257663050570144
3420000000.0 0.02772044741291802 -0.004324972134077139
3440000000.0 0.036798770882368305 0.012108893406330893
3460000000.0 -0.039585872507457535 -0.02860088151319867
3480000000.0 0.016238675665197638 -0.06274606621187692
3500000000.0 -0.07150879187449509 0.04088129958533676
3520000000.0 -0.05111595551817613 -0.08480534381801855
3540000000.0 0.02375951789610085 -0.10959096105254021
3560000000.0 0.1224524960362308 -0.007926191129405295
3580000000.0 -0.13133296983398035 -0.01671413699364464
3600000000.0 0.1430950453212364 -0.04018960255967551
3620000000.0 0.04027485157574675 0.15282944825606135
3640000000.0 -0.16336817006106844 -0.04986978333311884
3660000000.0 0.06811266564232334 -0.16869408216224502
3680000000.0 0.18375381239263497 -0.05140090121698664
3700000000.0 0.19401374072764843 0.007026944667888958
3720000000.0 0.18634370481487697 0.06342538380883611
3740000000.0 0.16349008491240413 -0.10103445329236323
3760000000.0 -0.013221889408471792 0.182806707446853
3780000000.0 -0.13235473166157372 -0.10686777704340762
3800000000.0 -0.13597088622632514 0.07594839421698757
3820000000.0 -0.13557559137502584 -0.05088848154259541
3840000000.0 0.05641838575327087 0.12692135158942067
3860000000.0 0.0011536407291440622 -0.14506550914398597
3880000000.0 0.014455109684177172 -0.15701317887657373
3900000000.0 -0.006649992112276024 0.16636868347054723
3920000000.0 -0.1413011151729471 -0.1014702248290533
3940000000.0 -0.0782696543820965 -0.15953101478156373
3960000000.0 -0.07688793494448365 -0.16078593401271374
3980000000.0 -0.1657058089642486 0.051953027185272414
4000000000.0 -0.1364582065342901 -0.08419444584839321
