! Created with skrf (http://scikit-rf.org).
# Hz S RI R 50.0 
!freq ReS11 ImS11
400000000.0 -0.8558812422478493 -0.0611640472794598
420000000.0 -0.10056036199597831 0.8555647436792511
440000000.0 0.7946880011649506 0.24332934307663429
460000000.0 0.7794916227698161 -0.052201364464958606
480000000.0 -0.23797310027365387 0.6846812580767402
500000000.0 0.5542945853755413 -0.2299012558182152
520000000.0 -0.41795405398897423 -0.3170854951737618
540000000.0 -0.1754896026443356 -0.4142998884163203
560000000.0 -0.044152271471528136 0.39739757710565915
580000000.0 -0.13710383116812255 0.32177704532528845
600000000.0 0.0487625460829846 0.3571559389261831
620000000.0 0.1369746743413356 0.33671242090766834
640000000.0 -0.2865096190656422 0.23203292470993273
660000000.0 -0.04035536185853134 0.3835096088577594
680000000.0 0.20824753621739667 -0.32807640981624037
700000000.0 0.273104505671154 -0.3021413311819347
720000000.0 0.37704249457331185 -0.14541554854327643
740000000.0 -0.40262772279608017 0.10786598109958419
760000000.0 0.39484707606339625 -0.04402576181947907
780000000.0 -0.22148693355407323 -0.30101130443610785
800000000.0 0.1203643500899704 0.32184999344979365
820000000.0 -0.1330261954040561 -0.2692254507414431
840000000.0 0.16134250562613744 0.21163492016679256
860000000.0 0.0558827823920847 0.21049652051377413
880000000.0 0.17807726474737745 0.005784151340029308
900000000.0 -0.06989246007295707 -0.09413484920344835
920000000.0 -0.0744570931943491 -0.0010653732343346713
940000000.0 -0.05601354697587557 0.027776971673313566
960000000.0 -0.05590930780339578 0.03800148843303723
980000000.0 0.05101300237288172 -0.06553617908411805
1000000000.0 -0.002815570058916323 -0.09537641947048188
1020000000.0 -0.06848646598942024 0.08047077022374166
1040000000.0 0.0654372236547279 -0.10152076654652575
1060000000.0 0.08481186152601862 0.11922436727951703
1080000000.0 -0.16605718680349477 -0.01568801030718429
1100000000.0 0.1774310962399338 0.03641538710482864
1120000000.0 0.20310183629229706 -0.013344257251478458
1140000000.0 -0.23432266662071213 -0.007263743096267291
1160000000.0 0.10071650266780063 -0.24715523431096292
1180000000.0 0.15704875217778302 -0.2621331219482304
1200000000.0 0.11569164283210708 0.31257994684582513
1220000000.0 -0.26765374553489635 -0.249475966355717
1240000000.0 -0.10029892128969767 0.37496536163763144
1260000000.0 0.34751881257571826 -0.2363893534983238
1280000000.0 -0.4311660051402986 0.05640534100942391
1300000000.0 0.2674723916902758 0.36220378249568946
1320000000.0 0.28289612340244297 -0.3471722079910799
1340000000.0 0.32275080183018034 -0.3099027287741865
1360000000.0 0.13138318606787186 -0.42273053274905115
1380000000.0 -0.15534054482800574 -0.4141110620332453
1400000000.0 -0.1797046524799316 0.3872900766687214
1420000000.0 0.3633430239123694 0.1813678406985337
1440000000.0 -0.1186508058523612 -0.3585087044960246
1460000000.0 -0.33155188613383385 -0.07867724036974987
1480000000.0 -0.14703530389456776 0.26836188656181387
1500000000.0 -0.20643168702838025 0.1771279818944797
1520000000.0 -0.24227284940679583 0.006734104485839351
1540000000.0 0.11571134122556476 0.18527956311379826
1560000000.0 -0.045748694062810014 -0.18638701451539144
1580000000.0 0.1514974561529072 0.0770727385701476
1600000000.0 0.0524217366818607 -0.1376737072099305
1620000000.0 -0.08732948276953928 -0.08250449846109863
1640000000.0 -0.011139855921985143 -0.09791403757217901
1660000000.0 -0.05849766252165664 0.047852492212723675
1680000000.0 0.005651196821511626 0.05384613896796868
1700000000.0 0.009239472887831553 0.034211398015494054
1720000000.0 -0.013613432849749354 -0.011326218183141423
1740000000.0 0.012500704288050151 0.004330603601921915
1760000000.0 0.031524083086056434 0.016555254186140355
1780000000.0 0.06829504268378157 0.017168342894016028
1800000000.0 -0.11078429387338798 0.006084494788480127
1820000000.0 -0.10427460516741012 -0.10548477364165519
1840000000.0 0.021866955897538738 -0.18453136874034964
1860000000.0 0.16008265484005538 -0.15409511546845697
1880000000.0 -0.06608046625296783 0.24483162164678174
1900000000.0 0.1529248696856431 -0.24469688185057242
1920000000.0 -0.1560000488025577 0.27397229957835
1940000000.0 0.26022542628292383 0.21790373441259672
1960000000.0 0.29247809635020433 -0.2149854532930626
1980000000.0 0.07915400761105074 -0.37227924046270666
2000000000.0 -0.040407017303509776 -0.3990966203334813
2020000000.0 -0.3496258733720183 -0.2285793495864223
2040000000.0 -0.4183798012171166 0.10548629884373255
2060000000.0 -0.018518916499793158 0.4386329215417252
2080000000.0 0.4199508912280674 0.13811214103514222
2100000000.0 0.16176793224186314 -0.4073218041114649
2120000000.0 -0.33784825283691416 -0.2667796346065237
2140000000.0 -0.27869145634029097 -0.3091726528710563
2160000000.0 -0.3687722241255252 0.1522716271009326
2180000000.0 -0.1513304831595294 0.3477606586991936
2200000000.0 -0.027602566949110653 0.3593019222483805
2220000000.0 -0.036035581931710726 0.346011991772251
2240000000.0 -0.06124189045117287 0.3382618651346187
2260000000.0 -0.07126789453708235 0.3408743390963307
2280000000.0 0.1321678680363871 0.3297521618526679
2300000000.0 0.36901609771317656 -0.05504838294727754
2320000000.0 -0.12618995086142007 -0.37748747549738404
2340000000.0 -0.2550251950221687 0.34818851626022335
2360000000.0 0.36420726940244125 -0.29710624528664925
2380000000.0 -0.4257580891043828 0.2913893304936668
2400000000.0 0.41078412399799447 -0.38736203464657776
2420000000.0 -0.15496904186230825 0.5947626391012538
2440000000.0 -0.34351752097076227 -0.5635633616728141
2460000000.0 0.669807192621421 0.19292868188913975
2480000000.0 -0.7086156538793126 0.1559706404509647
2500000000.0 0.7182712042766768 -0.1912024600647418
2520000000.0 -0.7521055398715665 0.0019704320407332256
2540000000.0 0.680253430129355 0.32309565940510154
2560000000.0 -0.2438419643512625 -0.7053175468616213
2580000000.0 -0.43402560956046576 0.5868129418238031
2600000000.0 0.7052246237139818 -0.004418733438331916
2620000000.0 -0.40863588799248857 -0.5361952278512689
2640000000.0 -0.5875588648015017 -0.2462366231451051
2660000000.0 0.05814473368854994 0.5896358391388572
2680000000.0 0.45680485016609995 -0.30046126838975534
2700000000.0 -0.42936207834445816 -0.25770548601544246
2720000000.0 0.07322677956512193 0.4492456926179088
2740000000.0 0.2739598173702851 -0.30927986142637787
2760000000.0 -0.3686757731016115 0.07657608266808923
2780000000.0 0.32427200723288085 -0.12183744965998099
2800000000.0 -0.29070517739576235 0.13745717240728836
2820000000.0 0.09514873921120637 -0.28951337377062325
2840000000.0 0.19324934616317588 0.22171841253153432
2860000000.0 -0.28783688041582167 0.024602971104460428
2880000000.0 0.13665140526196976 -0.25269404742967877
2900000000.0 -0.03340840475954602 0.28520599504110583
2920000000.0 0.22554334411326474 -0.18380425094438949
2940000000.0 -0.27942574754523825 -0.09772399503792419
2960000000.0 -0.2089115253828332 0.21301027841627965
2980000000.0 -0.08850064970756907 0.2891634917323777
3000000000.0 -0.25050352712876267 0.1735617368911507
3020000000.0 -0.26712134072042404 -0.14731763973818615
3040000000.0 0.22176652955893736 -0.20451792679469835
3060000000.0 -0.103541900747322 0.28224717371792396
3080000000.0 -0.0038314277659759976 -0.2964649492936927
3100000000.0 0.09597713714622 0.27571526906262145
3120000000.0 -0.09183223629669773 -0.26908691699675175
3140000000.0 0.23087521068680544 0.15275324926537398
3160000000.0 -0.2584964582473878 0.04779274613579597
3180000000.0 0.18693215547359532 0.16301481857706257
3200000000.0 -0.1478577594519612 0.17145812447076272
3220000000.0 -0.17035383851282437 -0.10792574837143323
3240000000.0 0.04183738856129393 -0.1672614186190373
3260000000.0 0.11997741591670308 0.07057364688002266
3280000000.0 -0.1004986317468522 0.03589874163433893
3300000000.0 0.02925101347994726 -0.06945382184786202
3320000000.0 -0.045039103706504054 -0.011395450136917857
3340000000.0 0.01425260283435296 0.01613883005560136
3360000000.0 0.0012056258393095712 0.004111822830011864
3380000000.0 -0.0006875014701798297 -0.00975477824500208
3400000000.0 0.005274493175949673 -0.01843419800387518
3420000000.0 0.006824202101544144 -0.02720771110673376
3440000000.0 0.026503596449922697 -0.02800740503078783
3460000000.0 -0.049599154510867084 0.006393853581837743
3480000000.0 -0.008362781799084661 -0.06527909476178197
3500000000.0 -0.03131605686856472 0.07682250929720309
3520000000.0 -0.09950642722248768 -0.003285705721602281
3540000000.0 -0.0448852108624356 -0.10425776117351124
3560000000.0 0.11793344185177985 -0.03653185432772433
3580000000.0 -0.12243383075752781 -0.052289357144285474
3600000000.0 0.1495700503258116 0.0005367324667714697
3620000000.0 -0.008580959913986094 0.15873560342606166
3640000000.0 -0.1547249734308372 -0.07334870415223411
3660000000.0 0.043784246881033335 -0.1782485250004227
3680000000.0 0.18416141265708164 -0.058597030812426044
3700000000.0 0.19394221505326686 -0.02861338859780426
3720000000.0 0.1841851194671543 0.07334332927758641
3740000000.0 0.1651682055886884 -0.10014953070647035
3760000000.0 -0.022994162810252166 0.18312563185334416
3780000000.0 -0.13743757735357953 -0.10217656264476116
3800000000.0 -0.14187270830040893 0.06655197210629396
3820000000.0 -0.12087749426832416 -0.08142173545674472
3840000000.0 -0.0017970675936384989 0.14027394864192216
3860000000.0 -0.009463978979969558 -0.14535770546405352
3880000000.0 -0.0468523594846363 -0.15149105174997265
3900000000.0 -0.02367537693501463 0.16577855867280344
3920000000.0 -0.1374273745286682 -0.10634417251350575
3940000000.0 -0.1359060535873794 -0.1135524091376617
3960000000.0 -0.14402791457587608 -0.1027639823892973
3980000000.0 -0.12130594418156723 -0.1214569347590751
4000000000.0 -0.12353858194352985 0.0994848075707702
