! Created with skrf (http://scikit-rf.org).
# Hz S RI R 50.0 
!freq ReS11 ImS11
400000000.0 0.007558286334525553 0.8730597715086679
420000000.0 0.4870076017924428 0.7102844634270363
440000000.0 0.8084077008463252 -0.17932152139727878
460000000.0 0.10017004508337736 -0.7844660724054388
480000000.0 0.444323690348114 -0.5452127706649912
500000000.0 0.4991980653895681 -0.23953960040373062
520000000.0 0.47439795807597496 0.11628169811290452
540000000.0 0.008900878337715794 0.43384950798628075
560000000.0 0.2148874202302969 -0.29885337481958246
580000000.0 -0.31962555017279726 -0.15419489076347234
600000000.0 0.1862738559513534 0.30509419914760144
620000000.0 -0.3792772217451454 0.0005884415612127073
640000000.0 0.3906396189093476 0.12816856445540964
660000000.0 -0.16336814163288163 -0.3840404373759981
680000000.0 -0.16659319768214367 -0.3905159333491875
700000000.0 -0.37169377274485094 0.18576303738888317
720000000.0 -0.29073652266171557 -0.28038536128221475
740000000.0 -0.301464183721913 0.2690988043092418
760000000.0 0.1922067992882745 0.35052576501828026
780000000.0 -0.36503242675065756 -0.10557613931387409
800000000.0 0.35037251700373084 -0.08398540033135664
820000000.0 -0.08000702896348887 -0.30100978464369044
840000000.0 0.2492730913263125 0.0500015218046606
860000000.0 -0.01331889761860344 0.2094098936727506
880000000.0 -0.149921608877556 -0.0022320109436970827
900000000.0 -0.07358195748247655 0.029612311429992568
920000000.0 -0.018397414813728426 0.04166029895719588
940000000.0 0.028557588960782018 -0.004932685992846621
960000000.0 0.015248158409595848 0.03227577727222346
980000000.0 0.039138735278485444 0.02586121634590514
1000000000.0 -0.055279520574342655 -0.009950268065294407
1020000000.0 0.0685423600093607 0.0439731742351171
1040000000.0 0.08444324137775636 0.06581217211807966
1060000000.0 0.06762101432518994 -0.13851843283810655
1080000000.0 -0.08181627313345972 -0.1569186752511994
1100000000.0 -0.0024515770057677187 -0.20740382183446826
1120000000.0 0.21578099822573124 0.0712023207243184
1140000000.0 -0.20715324546083144 0.15017110093136818
1160000000.0 0.0029621490466059984 0.27730817494861015
1180000000.0 -0.27286407534742574 -0.12805714652946706
1200000000.0 0.3214330665823451 0.03942748309061824
1220000000.0 0.093856875521519 -0.33603395475409126
1240000000.0 -0.34644400273932685 -0.15774254779709884
1260000000.0 0.06240893873610701 0.4128692153782412
1280000000.0 -0.006126284548035386 -0.44299568736485195
1300000000.0 -0.05757963404148387 0.4587895566678916
1320000000.0 0.0716538967259168 -0.4563337366233915
1340000000.0 -0.4286175897663897 -0.14757728776034704
1360000000.0 -0.4190082207338326 0.13097968458012127
1380000000.0 -0.2893204948651471 0.3165559139444041
1400000000.0 -0.07374127682215995 0.4020151122995226
1420000000.0 0.18269459354148987 0.34163067132867736
1440000000.0 0.11888541623632465 0.34483547282670474
1460000000.0 0.2935306001647634 0.17723557159524495
1480000000.0 0.20861264606446414 -0.24296713366634093
1500000000.0 -0.19207427463230506 -0.22408899198719817
1520000000.0 -0.21476993431184807 0.1592073514963778
1540000000.0 -0.12079499617218273 -0.20192472435498854
1560000000.0 0.1940876676878987 -0.03775156205754596
1580000000.0 -0.0389500949860762 0.16387336245581186
1600000000.0 -0.017332423837174742 0.13663294838549858
1620000000.0 -0.09594534885795064 0.050596714257374345
1640000000.0 0.07130541669239061 -0.050039368065959294
1660000000.0 -0.015658184910217848 -0.06289925799417985
1680000000.0 0.036433300566947165 -0.02535817874216299
1700000000.0 0.025404930944048255 0.0146127325465141
1720000000.0 -0.011894692863455243 -0.005653021984781236
1740000000.0 0.001156372094159403 -0.017704825694110218
1760000000.0 -0.04024670693756644 -0.002301925450901939
1780000000.0 -0.010198650502218938 0.07399585498275399
1800000000.0 -0.0007857383738304638 0.1129441282714117
1820000000.0 0.14471252520796352 -0.020778615541135716
1840000000.0 0.15844019542083476 0.08144328953304915
1860000000.0 -0.17836710892260096 0.10325892773214614
1880000000.0 0.12297703989418826 0.20014822815954894
1900000000.0 0.26870888250288866 -0.01824536230439405
1920000000.0 -0.0020119836695237092 -0.30368953253740066
1940000000.0 -0.31291033119250367 -0.13070588504077862
1960000000.0 -0.0332309260903112 0.37006478738656523
1980000000.0 0.3584559451557975 -0.16982408160358728
2000000000.0 -0.07914958409398873 -0.4100628949988049
2020000000.0 -0.4029307234293598 0.15412045833032972
2040000000.0 -0.036164949629812815 0.43609616754139524
2060000000.0 0.3978431763200231 0.18594925200111687
2080000000.0 0.3926509573425029 -0.18842798105357608
2100000000.0 0.2709035350772232 -0.33322430151693655
2120000000.0 0.030420464963269462 -0.4190967934217161
2140000000.0 -0.2964428429517561 -0.28165034235011366
2160000000.0 0.051823885025620096 -0.3890238490119187
2180000000.0 -0.1624144662034633 -0.33636036148794757
2200000000.0 -0.2860050515722454 -0.21513734513446625
2220000000.0 -0.303819255781115 -0.1660623239684995
2240000000.0 -0.338304186039364 0.046569163377825365
2260000000.0 -0.2961361640251213 0.17044989251042536
2280000000.0 -0.1813928375358641 0.2959084023104618
2300000000.0 0.32786988177621545 0.15488619867526865
2320000000.0 0.06274724589934377 -0.3807353757034354
2340000000.0 -0.39178837305297753 0.1408170628001964
2360000000.0 0.4168462086179083 0.1868160399316345
2380000000.0 -0.3760253717138227 -0.3355370230603612
2400000000.0 0.36974882878229487 0.4163286212967867
2420000000.0 -0.5748655254041479 -0.2061769232915441
2440000000.0 0.6203259704729817 -0.2264045645100339
2460000000.0 -0.3356722936822816 0.6156279117895245
2480000000.0 0.015083270208653495 -0.7324692846701685
2500000000.0 -0.08061170051206783 0.748677337983224
2520000000.0 0.2849997836046407 -0.7086639228881064
2540000000.0 -0.5670355037806903 0.5139337927556936
2560000000.0 0.7591769880238975 0.014441733882720364
2580000000.0 -0.36607860486447436 -0.6485201841332193
2600000000.0 -0.2962590551589626 0.6566735631408862
2620000000.0 0.6401488414929772 -0.25691842333903275
2640000000.0 0.44426178421572243 -0.47681356333948693
2660000000.0 -0.6044174332544788 -0.05560563822644147
2680000000.0 0.33373858900323494 0.4482055402002059
2700000000.0 0.09321314910934972 -0.5029808894806509
2720000000.0 -0.37047876406251995 0.28010003236059705
2740000000.0 0.4208508419139044 -0.035293743550314755
2760000000.0 -0.36730499336064526 -0.1138363081493806
2780000000.0 0.35503222337977813 -0.02098574977475732
2800000000.0 -0.2576394991088011 0.20933810837767985
2820000000.0 -0.14985617384280867 -0.2764965182912226
2840000000.0 0.28953952502576014 -0.08735114009092167
2860000000.0 -0.07952730155622197 0.286500759180707
2880000000.0 -0.10823949762370688 -0.2749044999576455
2900000000.0 0.08534599457098675 0.28356948667407894
2920000000.0 0.2316375433796049 -0.18944952306355733
2940000000.0 -0.2519366091073177 -0.17228418692337952
2960000000.0 -0.28320849913621615 0.12110924718427304
2980000000.0 -0.31077168159351526 0.029737544969171994
3000000000.0 -0.22834062768381436 -0.21677003250346816
3020000000.0 0.07038561459160882 -0.30670981731298474
3040000000.0 0.28448442916686384 0.1275033174660917
3060000000.0 -0.30854368354022005 0.02224410819884272
3080000000.0 0.28571288916038573 -0.10889828416758635
3100000000.0 -0.23426570912056624 0.18791699200092343
3120000000.0 0.07195948271945515 -0.2826945704471137
3140000000.0 0.08128137087740059 0.2702122004028084
3160000000.0 -0.2435489820078133 -0.11005297995909293
3180000000.0 0.11025787341881353 0.22417946823812296
3200000000.0 -0.20570487133080476 0.09585706609804714
3220000000.0 -0.1553089614093422 -0.1254760097916615
3240000000.0 0.10100307723663861 -0.13454487858700637
3260000000.0 -0.03470512776129209 0.12889558604431803
3280000000.0 0.047226216294661984 -0.0889511295210882
3300000000.0 -0.044097295018281094 -0.05738510883342139
3320000000.0 -0.0439507840700279 -0.01776858320197173
3340000000.0 -0.013783455806357075 -0.022360608459407103
3360000000.0 -0.005205136824350239 0.00894197213256288
3380000000.0 -0.004403242045777146 -0.0043049712105240265
3400000000.0 -0.015423586622660895 0.013579386252953468
3420000000.0 0.03497677784384696 -0.013219091088686588
3440000000.0 0.015711070834577685 -0.04881351317829414
3460000000.0 0.05035223032125213 0.03359259480754389
3480000000.0 0.05691248107357903 -0.0421853598392192
3500000000.0 -0.061299448674256254 -0.05244177756937316
3520000000.0 -0.05896547212046805 0.0715149171494945
3540000000.0 0.07879500835083221 0.0688891307935411
3560000000.0 -0.03447302221491816 -0.11288973211769414
3580000000.0 -0.07619756088201632 0.10961630770675902
3600000000.0 -0.14259124387389036 -0.06159301991002763
3620000000.0 -0.1495032045603587 -0.0793387567613871
3640000000.0 -0.12031213484679536 -0.13539791442297566
3660000000.0 -0.181801004366757 -0.0573381726578776
3680000000.0 -0.1852229743505085 -0.05208570154047249
3700000000.0 -0.1833315190398767 -0.049527287362235946
3720000000.0 -0.006288348518030766 -0.18578784575507018
3740000000.0 0.16907254035769542 -0.06393301517174872
3760000000.0 -0.17228386311254412 -0.020814439672779485
3780000000.0 0.12083785224723148 0.1132924550015808
3800000000.0 0.1313006690302822 -0.08708781910424497
3820000000.0 0.007089942224250084 -0.1525030034379743
3840000000.0 0.01889764621726916 -0.14645450986552933
3860000000.0 0.13958093990367357 -0.04546150089403927
3880000000.0 0.1259131950532583 -0.08474503797256513
3900000000.0 -0.07325269464495308 -0.13409196856154637
3920000000.0 -0.1359756440658479 0.0788928048925373
3940000000.0 0.15301169689776967 -0.054975654155028
3960000000.0 0.04073802526406959 0.16412236619662823
3980000000.0 0.1718317513109004 -0.0002649358219553373
4000000000.0 0.13536680587362682 -0.09832580671995685
