! Created with skrf (http://scikit-rf.org).
# Hz S RI R 50.0 
!freq ReS11 ImS11
400000000.0 0.24637911284610867 0.8357411769179507
420000000.0 0.6427369285080048 0.5698982597526282
440000000.0 0.7865006657105406 -0.24469209045267304
460000000.0 0.20891796846508 -0.7588081996427042
480000000.0 0.652836211041794 -0.25442837682614994
500000000.0 0.5533366490093476 -0.11150778553756886
520000000.0 0.4249808032752945 -0.25518350261519007
540000000.0 0.3908281809537762 0.18588438995108839
560000000.0 -0.2777249464252826 -0.23217486340265991
580000000.0 -0.2693121565491573 0.21083039369417492
600000000.0 0.3411018799587033 0.0050358448601891025
620000000.0 -0.3500079956150813 -0.06725748484429074
640000000.0 -0.2795628918135336 0.265637677110839
660000000.0 -0.017118794159627762 0.398343831723035
680000000.0 -0.3731874190467619 -0.2022118801084384
700000000.0 0.2988972459891593 0.32688095252259064
720000000.0 0.16726113112956523 -0.4138241431692859
740000000.0 0.4328089334594956 -0.07909360167320578
760000000.0 -0.38948016478621983 -0.1531056508177566
780000000.0 0.12028157839762241 -0.36590562607713384
800000000.0 0.19454156010609738 0.2883536754848017
820000000.0 0.16560239347670475 0.23053034223046903
840000000.0 0.10754489482312694 0.20243394054424252
860000000.0 -0.12701204375238848 0.1467847913150125
880000000.0 0.11888786970512746 0.055568255522496175
900000000.0 0.06345613017566562 -0.03370639964609259
920000000.0 0.03716703695599242 0.02001178267664734
940000000.0 0.01985899367809271 -0.01896366992544007
960000000.0 -0.015892618473304896 0.03307265062721077
980000000.0 -0.029732703513222426 -0.04262676265886406
1000000000.0 -0.056005534818536505 -0.014695780011429006
1020000000.0 0.02461826020844512 0.0703118903038369
1040000000.0 0.04858264464615952 0.07171350931374819
1060000000.0 -0.12699632338459374 -0.0023946585377324116
1080000000.0 0.14057833531127814 -0.04713940773754448
1100000000.0 -0.049974888675397115 -0.17209344242774355
1120000000.0 -0.00398748872719594 0.20902009458388796
1140000000.0 -0.09059681134665715 -0.23270482280289428
1160000000.0 -0.2692199372284789 0.1101949628069616
1180000000.0 -0.09262537672843937 0.3165665260735609
1200000000.0 -0.10285896097878904 0.34626015524555526
1220000000.0 -0.3310409950776591 -0.1997273266910736
1240000000.0 0.40557660111381216 0.0386452845076607
1260000000.0 -0.39628950250279843 -0.1660481380918867
1280000000.0 0.36243134942268784 0.25062079760543665
1300000000.0 -0.07636228183389644 -0.43713180718596334
1320000000.0 -0.4341634775424886 0.01377081076253977
1340000000.0 -0.3387686873539222 -0.2531374082552084
1360000000.0 0.13966960416524046 -0.3898595256066636
1380000000.0 0.3343806034106097 -0.24553316891376353
1400000000.0 0.22170395528059356 -0.33954117554580127
1420000000.0 -0.12042305470771521 -0.37710653079479733
1440000000.0 -0.3662469559875029 -0.09683249166548558
1460000000.0 -0.041251802810184396 0.35654043646126027
1480000000.0 0.2776144404142618 -0.18774783572459813
1500000000.0 -0.25188101886998254 0.17452614539114455
1520000000.0 0.2767828415661556 -0.02101314860035706
1540000000.0 0.2356706006530337 0.0605166029993814
1560000000.0 0.18819022352162645 0.07188748627718956
1580000000.0 0.09570779269432353 0.13506428724140335
1600000000.0 0.08697940509855585 -0.0967572497270547
1620000000.0 0.09089601022493807 0.020408751503552546
1640000000.0 -0.03046794232969961 -0.06389219601361208
1660000000.0 -0.04640236412972694 0.00415980674002209
1680000000.0 -0.017573805175475406 -0.01694997913266122
1700000000.0 -0.005462098904465681 0.009938334338065123
1720000000.0 -0.010306071590697548 -0.00677036811163896
1740000000.0 -0.010642855562524246 -0.02698419144825975
1760000000.0 0.04003369616556072 0.01717411629576922
1780000000.0 0.05058764586198933 -0.049047701042191694
1800000000.0 -0.032650896684637755 0.09396754423266414
1820000000.0 -0.11207063702025119 0.052492120895162475
1840000000.0 0.02640898722319589 0.15552733468712474
1860000000.0 0.18807106020680583 0.01991563834595244
1880000000.0 0.16654594309713572 -0.15462796898182937
1900000000.0 -0.1706444049252285 -0.20996566841948183
1920000000.0 0.12097641191996288 0.28677097457747885
1940000000.0 0.11542666402118483 -0.3309650388560852
1960000000.0 -0.2832172011828108 0.2579691042711055
1980000000.0 0.37095297895160034 -0.1687876893533773
2000000000.0 -0.3379552022325134 -0.25859840562815045
2020000000.0 -0.026086789794730485 0.43542617532791705
2040000000.0 0.41419003942049576 0.14600237384100584
2060000000.0 0.19306171960946136 -0.3910616231333792
2080000000.0 -0.11326141036541247 -0.41130145663914147
2100000000.0 -0.11880367936313102 -0.40008295589351445
2120000000.0 -0.0762785236800869 -0.40020822455910204
2140000000.0 -0.15149662249531567 -0.3671325596970739
2160000000.0 0.312578121932713 -0.22350054793130764
2180000000.0 0.20435216804133033 -0.31089603101356506
2200000000.0 0.023143191744214895 -0.36039820136461587
2220000000.0 -0.3070024882193235 -0.1763225928200219
2240000000.0 -0.2463262860540372 0.24618823851054805
2260000000.0 0.08444834941417396 0.33669231366071406
2280000000.0 0.3026647809921578 0.17419667358263927
2300000000.0 0.2660179691734448 -0.24439131542384065
2320000000.0 -0.19200990122042963 -0.331527861755825
2340000000.0 -0.3610437236186929 0.20443783876145405
2360000000.0 0.37788016471977054 0.2538667970347431
2380000000.0 -0.32599190704869535 -0.38364932698414755
2400000000.0 0.3279337551568788 0.448353804769295
2420000000.0 -0.5164767748222243 -0.3213369472589539
2440000000.0 0.6483044491803911 -0.10851520844776229
2460000000.0 -0.4871956750696216 0.5007121067387265
2480000000.0 0.214925053070667 -0.6982011126157726
2500000000.0 -0.17577803293145275 0.7299523853578238
2520000000.0 0.30508842587094354 -0.6980298244093435
2540000000.0 -0.5859547964480785 0.491395394529052
2560000000.0 0.7583166228464474 0.002011239388512494
2580000000.0 -0.41339654126571423 -0.6184139086737616
2600000000.0 -0.21294585949767886 0.6869504761677911
2620000000.0 0.6346922887490767 -0.26800343001872307
2640000000.0 0.3929307382946818 -0.5200522279733786
2660000000.0 -0.6056297526379316 0.04651607114691008
2680000000.0 0.3884373411549048 0.40443806123208476
2700000000.0 -0.06717323453250583 -0.5093477642388541
2720000000.0 -0.1894309363255056 0.4244663877558432
2740000000.0 0.3454803579561076 -0.2389955384622638
2760000000.0 -0.3768350249177701 0.05073024338127181
2780000000.0 0.3328087616340147 -0.10884648218000596
2800000000.0 -0.2283278060528371 0.23202870762045089
2820000000.0 -0.053265071314286386 -0.30421819599308975
2840000000.0 0.28426418210080406 0.09081415369735463
2860000000.0 -0.1869905979356531 0.2287006896895481
2880000000.0 -0.15400005583666582 -0.25106486419872764
2900000000.0 0.2123057825007179 0.20608384469936766
2920000000.0 -0.0012547231079076985 -0.30047592257620953
2940000000.0 -0.29933031193763154 0.06517880775182978
2960000000.0 -0.0899758927026064 0.2944906365454831
2980000000.0 -0.1975225880467403 0.2416511115983525
3000000000.0 -0.3085729189013088 -0.06701204918346122
3020000000.0 0.031981004546534575 -0.3163199131298111
3040000000.0 0.19113057215044196 0.25266386353335235
3060000000.0 -0.3142798370929217 0.021185458893994265
3080000000.0 0.27317327622658655 -0.14632871910765186
3100000000.0 -0.12543926665170815 0.27681337524687616
3120000000.0 0.05446745683082927 -0.28998198896226945
3140000000.0 0.11516281565791592 0.2593473253953517
3160000000.0 -0.22289277283893616 -0.1486503521523854
3180000000.0 -0.0836212012113957 0.2339548456037902
3200000000.0 -0.13629165664373394 -0.17995579550258783
3220000000.0 0.18707630484215745 -0.06463971804235807
3240000000.0 -0.05217106229598817 0.1604573896164235
3260000000.0 0.07816728583951614 -0.11226360414179308
3280000000.0 -0.04691379583212918 0.09545696609672262
3300000000.0 0.07772157258339947 -0.012630989982133346
3320000000.0 -0.04991514514319655 -0.011053429622927503
3340000000.0 -0.014679543675387109 -0.02152116084465934
3360000000.0 0.003361272363653924 -0.0035169613939467752
3380000000.0 -0.010824267573464573 -0.004160334572142603
3400000000.0 -0.009220669633464055 0.024154718874683068
3420000000.0 -0.039617709071199075 -0.0015377418068804286
3440000000.0 -0.016000855752208436 0.047090847123316786
3460000000.0 0.008414978661450738 0.05617811321759376
3480000000.0 -0.03129527388028286 -0.05854386307979485
3500000000.0 -0.011573830839131863 -0.0790864589517614
3520000000.0 -0.08821254059495892 -0.036910928259719505
3540000000.0 0.10309631723772743 0.04107733105980641
3560000000.0 -0.1186139703444412 0.03972146955917488
3580000000.0 0.13038805936260242 -0.04789357558009938
3600000000.0 0.02974091318520126 0.1546422328507556
3620000000.0 -0.003506916532982093 0.16903879604936703
3640000000.0 -0.16651571850441335 0.06676732267888842
3660000000.0 -0.188140043772686 -0.02225839137747701
3680000000.0 -0.12066206649119082 -0.15218726723479167
3700000000.0 -0.050341592158383255 -0.1869074832395708
3720000000.0 0.12237797698272247 -0.1481721907537289
3740000000.0 0.16532794169459553 -0.08667987649864041
3760000000.0 -0.15250416000272313 0.0941264145993419
3780000000.0 0.1682936845026473 -0.01840896211957201
3800000000.0 0.0025521135267043637 -0.1600349328855322
3820000000.0 -0.0014343768694734522 -0.15343020096136228
3840000000.0 0.14015897603290242 -0.047388166637943555
3860000000.0 -0.012859242244744093 0.1485298047042348
3880000000.0 0.08655212109477443 0.1303285176721941
3900000000.0 0.06769420782706051 -0.14479257867254425
3920000000.0 -0.14142738019778162 0.08207154269478385
3940000000.0 0.1040303080468896 -0.13131635021630514
3960000000.0 0.1696260055027782 0.01266314134687424
3980000000.0 0.16587156979317544 -0.03756297289521159
4000000000.0 0.15934151134033567 -0.038519130721976644
