! Created with skrf (http://scikit-rf.org).
# Hz S RI R 50.0 
!freq ReS11 ImS11
400000000.0 0.2616503990531434 0.8304382425441564
420000000.0 0.631224880858707 0.5826606179491819
440000000.0 0.7875197858863352 -0.2409895375054493
460000000.0 0.2091252789403979 -0.7585536122938124
480000000.0 0.6598174614152684 -0.2367466701434898
500000000.0 0.5539603962061468 -0.10940243680429367
520000000.0 0.38749254785707377 -0.3088898101720009
540000000.0 0.35363580592190674 0.247241693739524
560000000.0 -0.27372772423713726 -0.23812731004039261
580000000.0 -0.2631161635810198 0.21861923568108915
600000000.0 0.3351046953211072 -0.061815968859148585
620000000.0 -0.34737727251004474 -0.07486544450213692
640000000.0 -0.2940402038561256 0.24943704456066423
660000000.0 -0.043227736891487734 0.3967420461321856
680000000.0 -0.37923720378778786 -0.19093706154317033
700000000.0 0.3218015409605935 0.3037577172881346
720000000.0 0.2126084418548143 -0.39237963343277854
740000000.0 0.43204786005926205 -0.0808044253479342
760000000.0 -0.3995505758516703 -0.12371737660182233
780000000.0 0.09602112504045252 -0.3726627506858255
800000000.0 0.1739239156826577 0.3012807528810341
820000000.0 0.16986968673899677 0.22784949872290913
840000000.0 0.12316311297907344 0.19299973174290955
860000000.0 -0.1430398132243283 0.13102021169225997
880000000.0 0.11841024716683247 0.05670706307060268
900000000.0 0.05651742240882263 -0.04442921041542428
920000000.0 0.03495757877911645 0.0230423116132295
940000000.0 0.009940271518443388 -0.025532988230492673
960000000.0 -0.017095778892059047 0.0317977992729007
980000000.0 -0.01563501907619962 -0.04981258230354234
1000000000.0 -0.057231779293635626 -0.010043928989275346
1020000000.0 0.0364402828826755 0.06494227064668577
1040000000.0 0.052129544451768636 0.06897606781271225
1060000000.0 -0.12624885908829542 -0.013709620843166943
1080000000.0 0.1357533311414485 -0.06009155012204853
1100000000.0 -0.050424639852872835 -0.17209976761932363
1120000000.0 -0.017308427637595564 0.20811943565811566
1140000000.0 -0.08076124693099034 -0.23623621989290106
1160000000.0 -0.26675018681404616 0.115737964398791
1180000000.0 -0.0839630021790927 0.31902891135751044
1200000000.0 -0.08870758636051766 0.34995406925157585
1220000000.0 -0.33264925612540547 -0.1969452467220572
1240000000.0 0.40602431434280556 0.032092703539686025
1260000000.0 -0.39053532040165895 -0.1786292582319194
1280000000.0 0.3651260633775507 0.24662729951859594
1300000000.0 -0.06450396122157714 -0.4387715370389123
1320000000.0 -0.4333789838894792 0.029132989515952404
1340000000.0 -0.34270066446570774 -0.2476973699892961
1360000000.0 0.14166559227491582 -0.3894237860118881
1380000000.0 0.3346529427777511 -0.2452824819629702
1400000000.0 0.22267878280349157 -0.33911552320088045
1420000000.0 -0.1158133500756944 -0.37859984190649654
1440000000.0 -0.36873005381191987 -0.0862312698560019
1460000000.0 -0.05381733202884567 0.3553006084662688
1480000000.0 0.2788724467123189 -0.18628232203247472
1500000000.0 -0.26301268344307466 0.15687432408375526
1520000000.0 0.2773671843525481 0.005983656487030712
1540000000.0 0.22938843761739433 0.08054198352155247
1560000000.0 0.19429914044298902 0.05173117578646605
1580000000.0 0.11225281148811496 0.12119600030770061
1600000000.0 0.07559835166857726 -0.1056817326586646
1620000000.0 0.08697569060809758 0.03295486993266377
1640000000.0 -0.019988686273156822 -0.06766336765963094
1660000000.0 -0.04558060302093392 0.009562255737935255
1680000000.0 -0.023936989380404776 -0.005610517536325839
1700000000.0 -0.0019744125647684196 -0.011021326799882976
1720000000.0 -0.0006439994929034313 -0.012114708044144256
1740000000.0 -0.012029426459352704 -0.026086698968448452
1760000000.0 0.042865434502243595 0.006673422136633732
1780000000.0 0.04223383873353432 -0.05647674285867303
1800000000.0 -0.02213389140262428 0.09681930102913415
1820000000.0 -0.10798630426287766 0.06100577076745781
1840000000.0 0.03554353203412274 0.1538351188569748
1860000000.0 0.18814248417422272 0.0198721445746995
1880000000.0 0.16741579208305635 -0.15425593871009877
1900000000.0 -0.1730400054784316 -0.20838491030833112
1920000000.0 0.11817462032856267 0.28803872607036507
1940000000.0 0.1266613650405185 -0.3269633959666053
1960000000.0 -0.2875108742261124 0.25330336843410617
1980000000.0 0.37102309211175216 -0.16821518285364426
2000000000.0 -0.33297001463254206 -0.26490501868089034
2020000000.0 -0.02701960960982231 0.4352791374210609
2040000000.0 0.4132739666033606 0.14756924281531836
2060000000.0 0.20524195724666927 -0.38457070905333546
2080000000.0 -0.11345881776872141 -0.41104557178108647
2100000000.0 -0.1101136863641557 -0.40254082454741846
2120000000.0 -0.0748368078994266 -0.4004260552528215
2140000000.0 -0.15933864927936126 -0.3636513670787537
2160000000.0 0.3106299278613625 -0.22661079485680963
2180000000.0 0.17423443817985998 -0.3285782780174998
2200000000.0 0.01960201716296792 -0.36087512628651375
2220000000.0 -0.31886318045062356 -0.15341142634479238
2240000000.0 -0.2525569160370279 0.23964830289611988
2260000000.0 0.06810899243031975 0.3403894887715544
2280000000.0 0.2958629349755444 0.18595890724533867
2300000000.0 0.2638340843990401 -0.24743200196536802
2320000000.0 -0.17769920812508055 -0.3394800951668654
2340000000.0 -0.3784067002624163 0.16898231562963484
2360000000.0 0.3676784165774802 0.26781240727221917
2380000000.0 -0.32757545154034984 -0.3821070805414724
2400000000.0 0.32727938627712444 0.4485559542738092
2420000000.0 -0.5230777698159126 -0.3101986997351224
2440000000.0 0.651776806503208 -0.08391873718927655
2460000000.0 -0.4855710734416531 0.501860991329981
2480000000.0 0.1943912557584794 -0.7036858963632465
2500000000.0 -0.15181391079202353 0.7350554067479022
2520000000.0 0.28462729925727054 -0.7063312585192781
2540000000.0 -0.5889738849750112 0.48760981096942396
2560000000.0 0.7586010341807276 -0.0010736858378093336
2580000000.0 -0.40550547173886126 -0.6237164006498109
2600000000.0 -0.21147906818256806 0.6874338189902577
2620000000.0 0.6331942738199645 -0.27118566647921344
2640000000.0 0.3987224284726984 -0.5153688862539786
2660000000.0 -0.6062187490552481 0.03908551422249162
2680000000.0 0.42482469799816347 0.36648048891612955
2700000000.0 -0.08222946439044213 -0.507182518763808
2720000000.0 -0.19360240654513694 0.42239581780360597
2740000000.0 0.3589674337122964 -0.2178140569887892
2760000000.0 -0.3776445292610699 0.04221296773829237
2780000000.0 0.33023321817910556 -0.1159624272708842
2800000000.0 -0.22113849140155498 0.2390465935797713
2820000000.0 -0.07040706768437197 -0.3008516268112322
2840000000.0 0.286352162784528 0.08402026722789312
2860000000.0 -0.185177948063214 0.23048221402938815
2880000000.0 -0.15588817042030387 -0.25021090642857174
2900000000.0 0.21307584105333247 0.20555624065908323
2920000000.0 0.004944621529834097 -0.30028096087977413
2940000000.0 -0.2961828477199877 0.07866946028251974
2960000000.0 -0.09603779977665695 0.29299670437825004
2980000000.0 -0.20462003610272608 0.2351656420072138
3000000000.0 -0.30821854754324196 -0.0679135928243812
3020000000.0 0.024075184365763013 -0.31697077773142074
3040000000.0 0.22268122231324408 0.22506034193787203
3060000000.0 -0.31374993657071115 -0.016934366927237075
3080000000.0 0.2678653865663514 -0.15557192193005465
3100000000.0 -0.12747450843604619 0.27569017986397065
3120000000.0 -0.012320425106020392 -0.2950647528514757
3140000000.0 0.12731185346381615 0.25341682738879073
3160000000.0 -0.22171466593070982 -0.1496530740122631
3180000000.0 -0.07630069970134079 0.23643963827671466
3200000000.0 -0.15805827860985291 -0.16107849758666384
3220000000.0 0.17961927977298503 -0.0845173184775973
3240000000.0 -0.034874070930361614 0.16501336915312872
3260000000.0 0.060037814542730446 -0.12318781773160856
3280000000.0 -0.0638956198544341 0.08548984331840305
3300000000.0 0.07533362192439708 -0.023206585130540386
3320000000.0 -0.05021696262428139 0.010739227085466966
3340000000.0 0.003980382401809876 -0.025891556856373163
3360000000.0 0.0023881187723322076 0.004992791609465198
3380000000.0 -0.011373750813801204 0.0015600567375576226
3400000000.0 0.021753506171409073 0.013967843915838272
3420000000.0 -0.03761948886045163 -0.011013994449030017
3440000000.0 -0.015492250494772892 0.04730226349486121
3460000000.0 0.016698624514758044 0.05417088471624209
3480000000.0 -0.04028572389092188 -0.05282260754192121
3500000000.0 -0.029189295423566974 -0.07462293327744415
3520000000.0 -0.09585133982977752 0.007933383352367845
3540000000.0 0.09451371795721053 0.057615138221945625
3560000000.0 -0.11430909803516122 0.051235042764678905
3580000000.0 0.12067301712383782 -0.06956366333871658
3600000000.0 0.037540176573732605 0.1529541155502194
3620000000.0 0.007058915782427993 0.1692110605148062
3640000000.0 -0.15613733228023685 0.08919332410149541
3660000000.0 -0.1893480015357008 -0.009547188135470785
3680000000.0 -0.13211923214878823 -0.14217685606839228
3700000000.0 -0.06586793077950093 -0.1822853982691736
3720000000.0 0.1250754968018282 -0.1459297296850727
3740000000.0 0.1619657208407852 -0.09303292227557616
3760000000.0 -0.14930578463311353 0.09938944194118607
3780000000.0 0.16708636227350918 -0.027560801735632384
3800000000.0 0.006182264039934424 -0.1599983088546193
3820000000.0 0.00647855816890201 -0.15342564163988498
3840000000.0 0.14107431131652487 -0.045279780085574574
3860000000.0 -0.02287390068690759 0.1476489121928843
3880000000.0 0.07785815862068869 0.13588628289130225
3900000000.0 0.06679000230474846 -0.14525558735510927
3920000000.0 -0.14851586576944387 0.0689753336664544
3940000000.0 0.11132169778203796 -0.12501019791646872
3960000000.0 0.16494837437183513 0.04271859895294289
3980000000.0 0.1658676668358306 -0.03781308382849163
4000000000.0 0.1498401508987323 -0.06567698290210797
