! Created with skrf (http://scikit-rf.org).
# Hz S RI R 50.0 
!freq ReS11 ImS11
400000000.0 0.25492334467218736 0.833072480174413
420000000.0 0.6539163517619193 0.558090587137734
440000000.0 0.7769535553352964 -0.2731086097718295
460000000.0 0.2066471438642082 -0.7591502687448249
480000000.0 0.6565328458049783 -0.2480090354329115
500000000.0 0.5607315125557685 -0.06972071477478448
520000000.0 0.43375362664824546 -0.23615904980360716
540000000.0 0.34554748127746243 0.26164320983785944
560000000.0 -0.30142759356449117 -0.20056000262006932
580000000.0 -0.24286707017240122 0.2414519025227309
600000000.0 0.3389807394222488 -0.0058418374755006995
620000000.0 -0.3546135933091256 -0.026803434234661146
640000000.0 -0.3044929387224163 0.23629892565171837
660000000.0 -0.042367694409643504 0.3969996943216278
680000000.0 -0.3658398491852834 -0.2162720010485834
700000000.0 0.29471576334235294 0.3314734862385875
720000000.0 0.1655678725779426 -0.4146333005926321
740000000.0 0.4279132328199957 -0.10073559617121182
760000000.0 -0.3761340351761714 -0.18385851008457804
780000000.0 0.07331613759963786 -0.37763560577130856
800000000.0 0.19036850728738952 0.2904351961824023
820000000.0 0.1710928383114768 0.22638303772107246
840000000.0 0.1404153310675423 0.18023037371066875
860000000.0 -0.10907237518290691 0.15982278390382623
880000000.0 0.12031424716474733 0.04944403117462269
900000000.0 0.06173256847828338 -0.03452781888948536
920000000.0 0.038116529529107886 -0.014690393861846172
940000000.0 0.002754732932665091 -0.02675256827947145
960000000.0 -0.03503105043180944 -0.005684340899786942
980000000.0 0.023606535913191392 -0.04529006451404291
1000000000.0 -0.055103776650890376 0.015616512163977423
1020000000.0 0.059240298691195195 0.044254498451333446
1040000000.0 0.08212710291611477 0.02711618885827865
1060000000.0 -0.12731561155345228 0.009680833684064265
1080000000.0 0.13909518160660111 -0.05135115046414547
1100000000.0 -0.050476132899587405 -0.17210016376481468
1120000000.0 -0.01869552734260877 0.20853267190950964
1140000000.0 -0.09536668771508286 -0.23146249800944838
1160000000.0 -0.2627204947918019 0.12655194460101543
1180000000.0 -0.054591164048419065 0.3256918462060043
1200000000.0 -0.0925587252046264 0.34897715230860143
1220000000.0 -0.334519557941475 -0.19322441078772964
1240000000.0 0.4066289266891842 -0.010749489430274293
1260000000.0 -0.41025107343508965 -0.12556100663153205
1280000000.0 0.3684085383192853 0.24176751508565925
1300000000.0 -0.05735717547483946 -0.43971640267028006
1320000000.0 -0.4334222821464515 0.025144593708287373
1340000000.0 -0.3499086923489092 -0.2373222509800818
1360000000.0 0.1525958546557657 -0.38550036686921063
1380000000.0 0.33392706852649967 -0.24718449634031683
1400000000.0 0.2072298513563361 -0.34898694974340577
1420000000.0 -0.11266780057063219 -0.3797220542316266
1440000000.0 -0.3687525060367037 -0.08838066207470648
1460000000.0 -0.039016996596981025 0.3573055539082069
1480000000.0 0.24095163326754698 -0.2334045394698975
1500000000.0 -0.26578069573520663 0.15187251155070555
1520000000.0 0.27684843788025193 0.0026582590006126
1540000000.0 0.23136780381469407 0.07206946651294978
1560000000.0 0.19880819887658802 0.01995757598280192
1580000000.0 0.12487936875002863 0.10641523583198971
1600000000.0 0.060889578352973095 -0.11431770409395761
1620000000.0 0.08959890642374167 0.02399645936387892
1640000000.0 -0.04883174332241543 -0.05132487197370476
1660000000.0 -0.046644974575944964 -0.003681148520672639
1680000000.0 -0.02125964226663045 -0.01328605003109419
1700000000.0 -0.011976346732275074 -0.0010706723540164615
1720000000.0 0.0057305079653514 -0.010740958570455159
1740000000.0 -0.022960170263694478 0.01746795187949064
1760000000.0 -0.010019324910614547 -0.0428277836647368
1780000000.0 -0.026366976793239048 -0.06527354610150034
1800000000.0 0.004981616034972054 0.09945352563091729
1820000000.0 -0.10073290934777893 0.07239544629969343
1840000000.0 -0.003697816123754083 0.15787718369568268
1860000000.0 0.17138568629489515 0.08273045154333422
1880000000.0 0.1964975653835142 -0.11735847034852813
1900000000.0 -0.15379315116861345 -0.22503826125840729
1920000000.0 0.11271328993756635 0.29145867762853955
1940000000.0 0.12543269110663816 -0.3278209652359532
1960000000.0 -0.2914422762768015 0.248802859172686
1980000000.0 0.3713268497166866 -0.1662082186664081
2000000000.0 -0.32475282289147805 -0.27350158599158975
2020000000.0 -0.09338214893496069 0.42496502190958807
2040000000.0 0.40492256352889594 0.16601242617396195
2060000000.0 0.23050959846330438 -0.3685523207308847
2080000000.0 -0.12308857336833345 -0.407444848407888
2100000000.0 -0.16453601539221951 -0.3831295407072378
2120000000.0 -0.20168567278240884 -0.3535014779861357
2140000000.0 -0.24011864605039318 -0.31589611944022217
2160000000.0 0.25692098032052796 -0.2859842268529506
2180000000.0 0.12171582769167852 -0.35094914633810903
2200000000.0 -0.007625550959723049 -0.36092010474157943
2220000000.0 -0.3131840157053991 -0.1644178491641839
2240000000.0 -0.22274973359398254 0.2682808582235453
2260000000.0 0.08771448656731207 0.3372949066586598
2280000000.0 0.28490298672036163 0.2032954389214208
2300000000.0 0.2633654216947628 -0.248814678107174
2320000000.0 -0.1689059474993534 -0.3444167343744288
2340000000.0 -0.3803248029090955 0.1648039281394452
2360000000.0 0.36673845265209387 0.2691183971004829
2380000000.0 -0.2896390931277405 -0.41118483423304814
2400000000.0 0.2954166472195365 0.46968774669332775
2420000000.0 -0.49928047459042096 -0.3464057893054222
2440000000.0 0.6534555292992384 -0.06955001394789977
2460000000.0 -0.5044959584450421 0.48304041958600596
2480000000.0 0.19663872968149004 -0.7030331818782393
2500000000.0 -0.15849735374915588 0.734483123474408
2520000000.0 0.33743068532253495 -0.6835041210981325
2540000000.0 -0.5605302801393734 0.5196242210023824
2560000000.0 0.7582511249494257 0.0043741213972497
2580000000.0 -0.4077894952440329 -0.6220873434774
2600000000.0 -0.20187617933556234 0.6906355475549576
2620000000.0 0.6586147456805118 -0.20214843094919244
2640000000.0 0.4276533959640389 -0.4918773480072539
2660000000.0 -0.6079364090575091 0.010687694386152103
2680000000.0 0.3749478718947537 0.4171140617921014
2700000000.0 -0.033152561474283665 -0.5123686086302929
2720000000.0 -0.17354252350867955 0.4312160363921758
2740000000.0 0.3410609195510007 -0.245146208062902
2760000000.0 -0.3748737331843016 0.06549017402854906
2780000000.0 0.32783897040199855 -0.12320447864758192
2800000000.0 -0.21370322135176686 0.245702609678942
2820000000.0 -0.10750693761015401 -0.28966408327403265
2840000000.0 0.2935884915512008 0.05439468716726875
2860000000.0 -0.16272037120066274 0.24640886108781063
2880000000.0 -0.14629027439460032 -0.2560377420112394
2900000000.0 0.20263807005696016 0.21583055799542136
2920000000.0 0.0505612809697336 -0.2960906278310749
2940000000.0 -0.30366083698115715 0.040580423496533284
2960000000.0 -0.10713663461584155 0.28902048085116694
2980000000.0 -0.2262864602068643 0.21395974756574232
3000000000.0 -0.2807795695615042 -0.14219292216451293
3020000000.0 0.07164036545371882 -0.3079857844674354
3040000000.0 0.2525843790633034 0.18811208443509564
3060000000.0 -0.3105756560959376 0.047068237992456206
3080000000.0 0.25593075494794065 -0.17354578194523984
3100000000.0 -0.15902412068492805 0.258056060340493
3120000000.0 -0.003987519838517056 -0.29546380775192094
3140000000.0 0.16913630026870521 0.22752526403901435
3160000000.0 -0.24142442132880504 -0.11455016700987848
3180000000.0 -0.017329596139934886 0.24873346189309772
3200000000.0 -0.1859564238397824 -0.1292990066384866
3220000000.0 0.16568743553049753 -0.11021870102694029
3240000000.0 -0.02079131088208379 0.16803048845912602
3260000000.0 0.08937944065420195 -0.10501995877106103
3280000000.0 -0.0888182275132366 0.05984595967817988
3300000000.0 0.06872454288620232 0.039780676458833465
3320000000.0 -0.012479973743954294 -0.05026427331090697
3340000000.0 0.02014891707959464 0.018302672184827125
3360000000.0 -0.004827516573304992 0.0049163003688776526
3380000000.0 0.009907009853148211 -0.0008279022195482036
3400000000.0 0.024612114553305694 0.00357638508895551
3420000000.0 -0.031778236191081874 0.021255737464948903
3440000000.0 0.04340572722857934 0.02469185338201814
3460000000.0 0.05408103949939274 -0.017600972901743464
3480000000.0 -0.06315942192393896 0.019397707366314246
3500000000.0 -0.07192585894309048 -0.03278747693781638
3520000000.0 -0.08945951947451368 0.032343371304649794
3540000000.0 0.10989594429070264 -0.01360870191952184
3560000000.0 -0.06223832156697805 0.1086253140324846
3580000000.0 0.04411282999957288 -0.1323408555792034
3600000000.0 0.14482594042502608 0.06435848889883525
3620000000.0 0.10330370201592813 0.13527494079362182
3640000000.0 -0.11189098538032229 0.1426002110359596
3660000000.0 -0.17995194455619187 0.0639979891930156
3680000000.0 -0.17722952868886943 -0.08160894657140325
3700000000.0 -0.1299727130638849 -0.1449583305939877
3720000000.0 0.0533395751422943 -0.1862644221544759
3740000000.0 0.16135285839848934 -0.09973194744658494
3760000000.0 -0.16550811037194083 0.07578684730770037
3780000000.0 0.171707530922192 0.0034543124421853285
3800000000.0 0.05121295760982993 -0.15361271358285603
3820000000.0 0.04331007645604463 -0.14848074028596758
3840000000.0 0.1431815428221257 -0.041922705715520606
3860000000.0 0.02663810239759327 0.14764500913887033
3880000000.0 0.05087160651721582 0.14861382488057187
3900000000.0 0.07061225622742225 -0.14383126870696283
3920000000.0 -0.15416024029929584 0.05597797324038776
3940000000.0 0.148080147091821 -0.07924930140213102
3960000000.0 0.1335057302786302 0.10641021609947782
3980000000.0 0.17039295833167328 0.0011649934910985661
4000000000.0 0.1569166597325559 0.04771510268799518
