! Created with skrf (http://scikit-rf.org).
# Hz S RI R 50.0 
!freq ReS11 ImS11
400000000.0 0.22485938465496016 0.842109981440587
420000000.0 0.6376349613552802 0.5766770824677114
440000000.0 0.7918226994068672 -0.22654221272567263
460000000.0 0.2535969586766392 -0.7444512676479081
480000000.0 0.655020341258056 -0.25110802388121817
500000000.0 0.5451603989762357 -0.15063940624722363
520000000.0 0.4045881261240062 -0.28243824048089516
540000000.0 0.33123783698626036 0.2791835764367454
560000000.0 -0.2888465085871852 -0.21921623614963626
580000000.0 -0.22706169380032576 0.25657397237096047
600000000.0 0.339316770760412 0.010320110287190494
620000000.0 -0.34722966544893186 -0.0804440437842334
640000000.0 -0.31065162357984966 0.22985999450179437
660000000.0 -0.01320170617866958 0.3983275978686442
680000000.0 -0.3747745522250361 -0.19853913675398782
700000000.0 0.31686654729526953 0.3089320067080181
720000000.0 0.16872392447544118 -0.41342112723687274
740000000.0 0.4297223103132866 -0.08904846064265448
760000000.0 -0.3913184610497864 -0.14834526933870681
780000000.0 0.10573300360395999 -0.36972038372650196
800000000.0 0.1965650338182789 0.28700636445813327
820000000.0 0.17332559282012341 0.22545880820637018
840000000.0 0.12935562718499127 0.18863194441398692
860000000.0 -0.12573137981367385 0.14770147152116553
880000000.0 0.11179712928431239 0.06890138757276032
900000000.0 0.06188604691205185 -0.036905409398054624
920000000.0 0.03543393373222236 0.022377298486053823
940000000.0 -2.0889842910045828e-05 -0.027384218522686053
960000000.0 0.007175933735525541 0.03614855620440172
980000000.0 -0.02156660290362332 -0.04717819101782179
1000000000.0 -0.05799845449164445 -0.0012334979379041166
1020000000.0 0.039409634659613446 0.06340632015879108
1040000000.0 0.06547642038411547 0.05664704859314453
1060000000.0 -0.126210887268898 -0.016172326107787502
1080000000.0 0.1374021616280854 -0.05635705725885254
1100000000.0 -0.058314097653998344 -0.16984983295608053
1120000000.0 -0.006515441630223496 0.20875579043875966
1140000000.0 -0.08868534380814436 -0.23347296127812928
1160000000.0 -0.273647986992317 0.09890598900417788
1180000000.0 -0.09360922219231178 0.31623076551530777
1200000000.0 -0.09161395744702638 0.3490726497717394
1220000000.0 -0.32253994720407553 -0.21296906665673423
1240000000.0 0.4051346423495346 0.0423718301863665
1260000000.0 -0.3986508836031157 -0.15979934718560737
1280000000.0 0.3597018886812718 0.2545647159764857
1300000000.0 -0.06715859933545006 -0.4384152999270478
1320000000.0 -0.43327025140551795 0.033489307353517773
1340000000.0 -0.3490012710640884 -0.2389224015531222
1360000000.0 0.13777788430046853 -0.3906377590017426
1380000000.0 0.33546328634549755 -0.2440624705322758
1400000000.0 0.21715644440492482 -0.3426679098828264
1420000000.0 -0.11714149703745722 -0.37826633890019123
1440000000.0 -0.3691419104742405 -0.08515760132990285
1460000000.0 -0.05414511655799065 0.3550992113789233
1480000000.0 0.2712813941788246 -0.19738975579908982
1500000000.0 -0.25931317021195593 0.16332928328617022
1520000000.0 0.27740051020866935 0.009720116641991378
1540000000.0 0.2245881225849036 0.09400430486373197
1560000000.0 0.191192436879982 0.06325741357160822
1580000000.0 0.09722163845671893 0.13374616502117662
1600000000.0 0.06506549193009967 -0.11232651379707456
1620000000.0 0.07881429731267008 0.04975097257820287
1640000000.0 -0.03514633821661358 -0.061446718872145686
1660000000.0 -0.04610636845055773 0.004432501106314167
1680000000.0 -0.022634348633203114 -0.0095575250127299
1700000000.0 -0.009804854969500105 0.005632687103468267
1720000000.0 0.011139761436584699 -0.004406027251027561
1740000000.0 0.005552755883203293 -0.02809532354818476
1760000000.0 0.03628001406990491 0.024155338817903816
1780000000.0 0.043513264270308015 -0.05541155977521977
1800000000.0 -0.03406584062149866 0.0930557310952936
1820000000.0 -0.1102645634814173 0.05757703081239818
1840000000.0 0.037403653258420974 0.1533546959729057
1860000000.0 0.18913946030372963 0.010721295591511673
1880000000.0 0.15930160283534905 -0.1618030544307851
1900000000.0 -0.16985980173131904 -0.21092637657334962
1920000000.0 0.11484379561084548 0.2889341624807736
1940000000.0 0.11879027461224373 -0.32955978876906084
1960000000.0 -0.2884878996597155 0.25224914275563054
1980000000.0 0.3690621169894378 -0.17273375670073612
2000000000.0 -0.32189426060115967 -0.2787938696552967
2020000000.0 -0.02716091397302778 0.43544863191995137
2040000000.0 0.4267850343862097 0.10292662526066818
2060000000.0 0.2158364757729001 -0.37911037783560536
2080000000.0 -0.1195095713392693 -0.4096353189973297
2100000000.0 -0.12933038514028308 -0.3968983657750363
2120000000.0 -0.08084468818679051 -0.3991915608820172
2140000000.0 -0.15337756548741782 -0.3663309115601208
2160000000.0 0.31804018104281717 -0.2157149764427945
2180000000.0 0.21399086419112612 -0.3044982786783219
2200000000.0 0.030258820178208162 -0.3599942991549846
2220000000.0 -0.2906832386486228 -0.2020457553234196
2240000000.0 -0.25473224944230505 0.23749213931771754
2260000000.0 0.07838477268482459 0.3380007655736222
2280000000.0 0.2958755557536005 0.18508673154069807
2300000000.0 0.26741977573205283 -0.2427611201105725
2320000000.0 -0.18804263024638368 -0.33338932915829245
2340000000.0 -0.3681139823177045 0.19031725723035517
2360000000.0 0.38431440616072726 0.2436316323084329
2380000000.0 -0.343511778063854 -0.36797424769450243
2400000000.0 0.33326058533033387 0.4441293827205312
2420000000.0 -0.5227660088628061 -0.3112857365064694
2440000000.0 0.6489052398690944 -0.10600410573211809
2460000000.0 -0.4768417015232354 0.5106129423533425
2480000000.0 0.19991556785246017 -0.7025354183155239
2500000000.0 -0.23009059009375143 0.7150704261754767
2520000000.0 0.27822498105806415 -0.7091866174444135
2540000000.0 -0.576672095098167 0.5020833593341234
2560000000.0 0.758426018577433 0.011740868626575295
2580000000.0 -0.4289806666472036 -0.6077351756330803
2600000000.0 -0.19961451376571265 0.6910151706104105
2620000000.0 0.6288750580927475 -0.28087661892065785
2640000000.0 0.386265332531981 -0.5246867447576415
2660000000.0 -0.6072253014760377 0.0057915698293901285
2680000000.0 0.3907609639376267 0.40188445482698876
2700000000.0 -0.08421995684340325 -0.5065692263656474
2720000000.0 -0.20502388148386183 0.41705852596785536
2740000000.0 0.3558372118875271 -0.22278040580036182
2760000000.0 -0.37673913120939073 0.04865458929843383
2780000000.0 0.3310766819411038 -0.1128038552780639
2800000000.0 -0.22029202966065548 0.23971546706699348
2820000000.0 -0.08096530658024399 -0.29799926259869614
2840000000.0 0.286515109631902 0.0831677751460634
2860000000.0 -0.18219561812334814 0.23284124466232822
2880000000.0 -0.16232292422608022 -0.2461207583548299
2900000000.0 0.20650186429944586 0.21241565713429708
2920000000.0 0.012176892093335421 -0.30026327768423794
2940000000.0 -0.30329345798693813 0.04522700755081075
2960000000.0 -0.09423061176003027 0.29342490386506037
2980000000.0 -0.21017034392027825 0.23010447317312843
3000000000.0 -0.30639787378191763 -0.07499521162616278
3020000000.0 0.05625403280166805 -0.31293783789376933
3040000000.0 0.2035935092937394 0.24305849388900175
3060000000.0 -0.31428881755909194 0.002680151013858615
3080000000.0 0.2763368385538192 -0.1404608244246944
3100000000.0 -0.16159469771037943 0.25733077502140844
3120000000.0 0.03137272871127165 -0.2935249517430919
3140000000.0 0.12712176447321116 0.25354117111407365
3160000000.0 -0.21238331081445785 -0.16293600855604592
3180000000.0 -0.07699799218331964 0.23625843573937305
3200000000.0 -0.13733909893552387 -0.17884655680137387
3220000000.0 0.18750986123992575 -0.06397516694782
3240000000.0 -0.052893073694946065 0.16026276671727344
3260000000.0 0.08035836822255202 -0.11065335625107553
3280000000.0 -0.055617655138511204 0.09082748822147564
3300000000.0 0.07692835109146734 -0.016184961883518745
3320000000.0 -0.051128254937215796 0.003051866381807591
3340000000.0 -0.014791024075204714 -0.021635621504351277
3360000000.0 0.004014288483201466 -0.0030001016494026022
3380000000.0 0.002915728209534584 0.011373748157156695
3400000000.0 0.002909021436436147 0.025814265448427343
3420000000.0 -0.03856995830044014 0.007977343871158522
3440000000.0 -0.04198075959997516 0.02643602124516388
3460000000.0 0.02865285364818132 0.04937813895059512
3480000000.0 -0.03578421756694087 -0.05591010452809988
3500000000.0 -0.0107376037561078 -0.07928338037767503
3520000000.0 -0.0837348035767904 -0.04648277767143639
3540000000.0 0.0925188434972268 0.060572169866370186
3560000000.0 -0.12148071449606519 0.029133431207636944
3580000000.0 0.12938587796195847 -0.05104456238943581
3600000000.0 0.030344507610686237 0.1544246251822216
3620000000.0 0.004927172697278551 0.16901232214149525
3640000000.0 -0.16429951034064177 0.0723798593283021
3660000000.0 -0.18829885461204224 -0.021596499281860918
3680000000.0 -0.12407575156204517 -0.14929967170753838
3700000000.0 -0.05371791500542993 -0.18608022754741255
3720000000.0 0.13253104633022314 -0.13902683989906794
3740000000.0 0.17078274390188003 -0.07604535406587745
3760000000.0 -0.1494683572110306 0.0987806240245794
3780000000.0 0.16793847227055533 -0.020729882259238656
3800000000.0 0.011930456463187524 -0.15956310822037867
3820000000.0 0.004544130429531843 -0.15307496170830057
3840000000.0 0.14079661883566105 -0.04532509741271837
3860000000.0 -0.017615392115994458 0.1480646127740754
3880000000.0 0.07664049149684475 0.13654301713181285
3900000000.0 0.06850011019673459 -0.14432714746885886
3920000000.0 -0.1454966123456416 0.07476058694940167
3940000000.0 0.09289340437488018 -0.13901493732393086
3960000000.0 0.16785708769602203 0.02786425490764829
3980000000.0 0.15894643835511088 -0.06005881068544396
4000000000.0 0.1439334921918048 -0.07747535269419678
