! Created with skrf (http://scikit-rf.org).
# Hz S RI R 50.0 
!freq ReS11 ImS11
400000000.0 0.22512491442566127 0.8415539047127758
420000000.0 0.651370796028924 0.5604619999516909
440000000.0 0.7879194022301778 -0.2384057282185147
460000000.0 0.22617811106101357 -0.7530259154357818
480000000.0 0.6622775811193341 -0.23171606357991809
500000000.0 0.5428919163621285 -0.15827790719622067
520000000.0 0.40142409825844344 -0.28750420918708985
540000000.0 0.31915995976218065 0.29286197462410607
560000000.0 -0.2799656565116769 -0.23076457084930224
580000000.0 -0.2437234702480799 0.24043500305560223
600000000.0 0.339572197694428 -0.006405039416144157
620000000.0 -0.34600681034071323 -0.0818281575611822
640000000.0 -0.30974345499830264 0.2304611058764738
660000000.0 -0.01559635961443981 0.3982163831008953
680000000.0 -0.37926419717492243 -0.19054484550530676
700000000.0 0.3280914608623206 0.2971035888818302
720000000.0 0.14532343044536375 -0.42263151089730994
740000000.0 0.43261519114809727 -0.07985537536960818
760000000.0 -0.39322593805943573 -0.14334915453958874
780000000.0 0.10773975161072702 -0.3690607089647018
800000000.0 0.19581679564903728 0.2874321179385233
820000000.0 0.1699487631570791 0.22778873555696424
840000000.0 0.11209537734795119 0.19909839654084907
860000000.0 -0.13506625256466184 0.1392077058801061
880000000.0 0.10721257921009254 0.07484491938711897
900000000.0 0.06010546004343326 -0.03844269155285622
920000000.0 0.03245250689227742 0.026045740932599523
940000000.0 0.0009434517355252451 -0.02724471996864513
960000000.0 0.0010978526449121494 0.03654779011602535
980000000.0 0.004887910731997291 -0.05160472088843509
1000000000.0 -0.052634238253068476 -0.02444442963434584
1020000000.0 0.02967626703142625 0.06864090874878388
1040000000.0 0.05543349407143881 0.06652124553081401
1060000000.0 -0.12469734457975394 -0.023952790661259635
1080000000.0 0.13978957393964667 -0.04943776094289723
1100000000.0 -0.04965268631851738 -0.17215208978586796
1120000000.0 -0.020966177447227143 0.2075809696991076
1140000000.0 -0.0984663753926176 -0.22949651827097248
1160000000.0 -0.2687466374837158 0.11165583907493182
1180000000.0 -0.06117677017469187 0.3242363011458049
1200000000.0 -0.05590624663260617 0.35677700371168325
1220000000.0 -0.3335845980306876 -0.1956302809375269
1240000000.0 0.4071654679533835 0.013428088958641008
1260000000.0 -0.4034421997045256 -0.14713040674867453
1280000000.0 0.3631627284255583 0.2496980268809375
1300000000.0 -0.05980019008433343 -0.43952287750807956
1320000000.0 -0.43401223394452393 0.020136412204870748
1340000000.0 -0.33756828730155847 -0.254822871739516
1360000000.0 0.15440889608405742 -0.3846691708127341
1380000000.0 0.3435809408777919 -0.23294369384378683
1400000000.0 0.2224042068227578 -0.3392160818215669
1420000000.0 -0.11138843838637835 -0.37987593353997556
1440000000.0 -0.3672891420137684 -0.09215165436606323
1460000000.0 -0.0602334654696306 0.3540235433978975
1480000000.0 0.2731058310578898 -0.1943730886393877
1500000000.0 -0.259443903409425 0.16258876503409714
1520000000.0 0.2770594388150763 0.011132679020777423
1540000000.0 0.2280966021444333 0.08393625851425165
1560000000.0 0.1958175610290658 0.04514492760986255
1580000000.0 0.10448429279751757 0.12763828841098263
1600000000.0 0.05206522262955608 -0.11894022166533809
1620000000.0 0.08673883263802092 0.034238444394918306
1640000000.0 -0.045491711433977865 -0.054223631949853954
1660000000.0 -0.04412950996572506 0.014739435933601297
1680000000.0 -0.024035529468281896 -0.005823304266037933
1700000000.0 0.006747551994148473 -0.009162229608665487
1720000000.0 -0.0007121738074635432 -0.01203142393552003
1740000000.0 0.010859553651667148 -0.02632141082774014
1760000000.0 0.04124929258252548 -0.015240389015044447
1780000000.0 0.0209123668222378 -0.06712897733374446
1800000000.0 -0.010731656094514134 0.09857251729998409
1820000000.0 -0.10380580820667945 0.06779116146075832
1840000000.0 0.04100145767913042 0.15248143123603433
1860000000.0 0.18632000918085828 0.033669675879769906
1880000000.0 0.16995746452267196 -0.15177675443009045
1900000000.0 -0.16399051407091858 -0.21597092328624629
1920000000.0 0.12019205696124835 0.28753754155104716
1940000000.0 0.11965006134486533 -0.32966360688236324
1960000000.0 -0.2849889353497007 0.25629795345823614
1980000000.0 0.37699449004755875 -0.15479613499624834
2000000000.0 -0.3331858862141967 -0.2642415141756642
2020000000.0 -0.07276591483561337 0.4299239128249874
2040000000.0 0.42456307855759284 0.10919962705139277
2060000000.0 0.24436703483529204 -0.3607480447957791
2080000000.0 -0.09257903964372192 -0.4160070550063704
2100000000.0 -0.1167311830515345 -0.40048441600488727
2120000000.0 -0.10864311938077606 -0.392263250049931
2140000000.0 -0.14756362725888075 -0.3687428896441064
2160000000.0 0.30296274422989034 -0.23616458175925642
2180000000.0 0.15521381921501098 -0.337862009934022
2200000000.0 0.0075647366678237606 -0.36113918801438993
2220000000.0 -0.33328633402785335 -0.11768073471980699
2240000000.0 -0.24045133487851506 0.2523318595211313
2260000000.0 0.08999000828492895 0.33538930681195234
2280000000.0 0.3018369145169664 0.17613891147706082
2300000000.0 0.2604588113103864 -0.25155911209897985
2320000000.0 -0.18071526960343576 -0.33830733496731247
2340000000.0 -0.3709397134278563 0.18648230083076048
2360000000.0 0.3753087050900865 0.25844976662882535
2380000000.0 -0.31125784981554994 -0.3958808072109318
2400000000.0 0.3212520253501122 0.4532908900725207
2420000000.0 -0.5208160228919687 -0.3140416009734035
2440000000.0 0.6475478054223894 -0.11214954739858332
2460000000.0 -0.4870837454854911 0.5003578583522894
2480000000.0 0.16487068143511496 -0.7107286226821652
2500000000.0 -0.210223291403339 0.7205600061099305
2520000000.0 0.3046841139454399 -0.6978662935433946
2540000000.0 -0.5640978075788647 0.5155111837173787
2560000000.0 0.7581502508645424 -0.014525580803301904
2580000000.0 -0.47905189484295485 -0.5687638542874467
2600000000.0 -0.18441871109446875 0.6951895992477424
2620000000.0 0.6307373384569707 -0.2768757632427799
2640000000.0 0.37973977456921915 -0.5296983511042752
2660000000.0 -0.6052901597411863 0.05355835361126345
2680000000.0 0.4216057612601231 0.3704623537286453
2700000000.0 -0.09863419633205699 -0.5044733707155473
2720000000.0 -0.18111081186419747 0.4284624249020678
2740000000.0 0.36093319120286493 -0.21567719835049426
2760000000.0 -0.3776882757455698 0.046488899607223515
2780000000.0 0.3325905895577313 -0.11066057300173048
2800000000.0 -0.23213142103514647 0.228895473609998
2820000000.0 -0.06018402201521227 -0.3030289158362943
2840000000.0 0.27967832587823305 0.104073218220643
2860000000.0 -0.1887007733511542 0.2272025915137805
2880000000.0 -0.14330056144975828 -0.2570137103890887
2900000000.0 0.19855293642438154 0.21877780439422112
2920000000.0 0.01782610244619808 -0.29946995478742067
2940000000.0 -0.2929762251002729 0.08907002428228342
2960000000.0 -0.08694362760621306 0.2952545608587471
2980000000.0 -0.20293996615887297 0.2355561885498564
3000000000.0 -0.31235813229384735 -0.042657517473768794
3020000000.0 0.008365409645373053 -0.3174096810491043
3040000000.0 0.28100028517898873 0.14492659138938513
3060000000.0 -0.31257877458226646 0.027550230011261397
3080000000.0 0.25909076610527704 -0.1698954420721814
3100000000.0 -0.08001845586206481 0.29280371332684324
3120000000.0 0.030451124651562068 -0.2929085091919774
3140000000.0 0.15202781469421367 0.23968991035930848
3160000000.0 -0.23300990743590833 -0.13241418384516448
3180000000.0 -0.05490485269651058 0.24226294194643286
3200000000.0 -0.1600933632167162 -0.15938041144650497
3220000000.0 0.1724907274256371 -0.09926152226078756
3240000000.0 -0.012296894090229896 0.1686142147119165
3260000000.0 0.047627313713009774 -0.1286225450939049
3280000000.0 -0.06461980275734275 0.08534218406917501
3300000000.0 0.07228831533342522 -0.032402040755638455
3320000000.0 -0.050675375194747796 -0.010387607062666221
3340000000.0 0.016997358482963142 -0.02032386103865606
3360000000.0 0.003803063496564197 -0.003926952013096799
3380000000.0 -0.010883064337648019 -0.0014331484007393145
3400000000.0 0.025435125240000887 -0.002166695623411707
3420000000.0 -0.03870020913514076 0.0033754028653259784
3440000000.0 -0.004794096209301779 0.048958604436364406
3460000000.0 0.03530351157850458 0.04398673391014862
3480000000.0 -0.05489511405487851 -0.03695307083242491
3500000000.0 -0.05496805758873189 -0.05776846485757366
3520000000.0 -0.09408308949349807 -0.014189836218709319
3540000000.0 0.10975587379409919 0.013636007523859562
3560000000.0 -0.10285515345164623 0.07082543313876932
3580000000.0 0.1101028522182941 -0.08467761610157573
3600000000.0 0.07325763962269347 0.13928149074285898
3620000000.0 0.041055748204454824 0.16429566172094065
3640000000.0 -0.1359442677212011 0.1179031852716675
3660000000.0 -0.18872596159464464 0.01641385059861152
3680000000.0 -0.14980849952869818 -0.12387895324722702
3700000000.0 -0.08451705899834064 -0.1747696358131015
3720000000.0 0.1085144816303782 -0.1590311409983446
3740000000.0 0.15501550420396357 -0.10505297231233968
3760000000.0 -0.14184238490213302 0.11085934405113165
3780000000.0 0.1666286197174313 -0.03360755267464249
3800000000.0 -0.003355927876262731 -0.16058735122564036
3820000000.0 -0.007321656943724765 -0.1536602440405607
3840000000.0 0.13686408673061842 -0.0576894040585978
3860000000.0 -0.0073942784536250635 0.1496601673806726
3880000000.0 0.0837545893919729 0.13302349871050684
3900000000.0 0.06404479729273675 -0.14743580948004514
3920000000.0 -0.14866471310330975 0.07017299680975636
3940000000.0 0.10070255272688912 -0.134399018216809
3960000000.0 0.16547351254600473 0.04383651170691665
3980000000.0 0.17056626560066881 -0.014006860852127037
4000000000.0 0.16448963575051595 -0.0022875535048526847
