! Created with skrf (http://scikit-rf.org).
# Hz S RI R 50.0 
!freq ReS11 ImS11
400000000.0 0.23064977302219344 0.8400795748845812
420000000.0 0.6466619195775689 0.5666988966366514
440000000.0 0.776381701669117 -0.2749820952655754
460000000.0 0.19587217361554346 -0.7619406675051088
480000000.0 0.6621354779621819 -0.23257282119463443
500000000.0 0.5575418785860854 -0.09281893827988831
520000000.0 0.42701731798663695 -0.24748629889887094
540000000.0 0.3404646391113474 0.26779241840673046
560000000.0 -0.29332578450847546 -0.21289482509538948
580000000.0 -0.23374808647153944 0.2503708387523736
600000000.0 0.3389259249460273 -0.0055232296577346456
620000000.0 -0.3517221060252442 -0.05286293622489187
640000000.0 -0.3053462228469298 0.2357239204311541
660000000.0 -0.0422099539190121 0.3969914765846954
680000000.0 -0.35376110878246086 -0.23604707110934817
700000000.0 0.2909585240475824 0.33448307838081204
720000000.0 0.15542399836555112 -0.41859120483190543
740000000.0 0.4224518640646678 -0.12045880359096209
760000000.0 -0.3833553229406376 -0.16939812422864428
780000000.0 0.07847318426623966 -0.37674755315450253
800000000.0 0.18936199519437275 0.29124140515636293
820000000.0 0.15914158138540688 0.2348975672199987
840000000.0 0.1485602288485452 0.17381637305990644
860000000.0 -0.10073679685510441 0.16541886649647045
880000000.0 0.12485946637090459 0.03765074643945462
900000000.0 0.057570905191260235 -0.04136819919993198
920000000.0 0.03969369679618674 -0.01093087059247816
940000000.0 0.014434806274002909 -0.022406457274506648
960000000.0 -0.03498371336813595 0.006738241080013961
980000000.0 0.024454770566584322 -0.044957698310816786
1000000000.0 -0.056473356579288515 0.010347942956518573
1020000000.0 0.05485656625168882 0.0500486615804465
1040000000.0 0.07614003088208882 0.0412211129199854
1060000000.0 -0.1275668098758159 -0.0027657202315462194
1080000000.0 0.13857365564528604 -0.05257499157389586
1100000000.0 -0.06115086557011446 -0.1686800476943216
1120000000.0 -0.014161211980492567 0.20891115127947915
1140000000.0 -0.10225674537894604 -0.22851353463239152
1160000000.0 -0.2658062790469365 0.12002117506967803
1180000000.0 -0.060192900704608386 0.3249506767627122
1200000000.0 -0.09822250155091575 0.3475491301279441
1220000000.0 -0.3370892642447018 -0.18884117895579736
1240000000.0 0.4069548756993894 -0.003543057743038402
1260000000.0 -0.40953848733693926 -0.1281364712301776
1280000000.0 0.3594177637226835 0.25506687948196755
1300000000.0 -0.042606407932588304 -0.4413288561995769
1320000000.0 -0.43383063945567035 0.015215815331733865
1340000000.0 -0.347330215788612 -0.24098792339562186
1360000000.0 0.15378256648898803 -0.38478015492853357
1380000000.0 0.33654273284822966 -0.2434231916898615
1400000000.0 0.2148395763577999 -0.3443391097338074
1420000000.0 -0.11210823030947657 -0.3797745984428976
1440000000.0 -0.37213618607295695 -0.07112557876870598
1460000000.0 -0.04882566168026665 0.3560062879177579
1480000000.0 0.24339120306773138 -0.23087392242952792
1500000000.0 -0.25365607038628357 0.1709468198608138
1520000000.0 0.2769581125609206 0.013134483713912886
1540000000.0 0.23152991680344617 0.07212620259271764
1560000000.0 0.19089541168431612 0.061590261678350904
1580000000.0 0.1189512062472731 0.11310197632811998
1600000000.0 0.07343796834961494 -0.10684426454232748
1620000000.0 0.09312284295553985 -0.0009548112211556138
1640000000.0 -0.044235160124881164 -0.05558844427958587
1660000000.0 -0.045304855454257185 -0.011359094002715061
1680000000.0 -0.02306355831330255 -0.009831090933169098
1700000000.0 -0.012146710751330381 -0.0009680929945678664
1720000000.0 0.012001197651791088 -0.002385252131730166
1740000000.0 -0.022934164689613883 0.018178714193097564
1760000000.0 0.005087100618257953 -0.044042000405642615
1780000000.0 -0.01925543575556701 -0.06775232378513295
1800000000.0 -0.007488317227858896 0.0990252230243015
1820000000.0 -0.10579668860089866 0.064527281043244
1840000000.0 -0.008832237201936195 0.15737768297024424
1860000000.0 0.16932301113201922 0.0863010569464383
1880000000.0 0.19353960955638475 -0.12147896929903185
1900000000.0 -0.1564637754015041 -0.22294620347681854
1920000000.0 0.11100118558768511 0.29188727509373913
1940000000.0 0.11965723517779954 -0.3297529910322473
1960000000.0 -0.28242840194177293 0.25875741712385847
1980000000.0 0.3649990691888493 -0.17963577523255966
2000000000.0 -0.33346805818080716 -0.26298142884985
2020000000.0 -0.07171935142317327 0.42919574446543457
2040000000.0 0.4108809713716004 0.1515389535652083
2060000000.0 0.25189975891739275 -0.3549300805407242
2080000000.0 -0.0988602285401071 -0.4144615536502669
2100000000.0 -0.14404242594568634 -0.39187439322841927
2120000000.0 -0.1715503664152914 -0.36934786968174926
2140000000.0 -0.20743997951533114 -0.3385137095798839
2160000000.0 0.26626034697434225 -0.2771987889905366
2180000000.0 0.13977014511096 -0.3440721314814641
2200000000.0 -0.0010247965731464167 -0.360789578085788
2220000000.0 -0.3123704239535136 -0.16535603779823452
2240000000.0 -0.2338016990672547 0.25833946758743437
2260000000.0 0.06827797827013136 0.3413900209156424
2280000000.0 0.27743114496374827 0.21251846107574918
2300000000.0 0.26122149370345615 -0.2506112465975313
2320000000.0 -0.1696940102090644 -0.34363322944223923
2340000000.0 -0.37920842708963765 0.16677534447938575
2360000000.0 0.3692127320419087 0.2651475155923356
2380000000.0 -0.31863162861983024 -0.3892501063528423
2400000000.0 0.3023943158029961 0.4652702518137246
2420000000.0 -0.5011166458412396 -0.34404865003879015
2440000000.0 0.6545634890089679 -0.06132013803601868
2460000000.0 -0.4946901826120405 0.4935029758132435
2480000000.0 0.2254422543757553 -0.6946750022219081
2500000000.0 -0.18534662324771384 0.7284701153977867
2520000000.0 0.3401338041298887 -0.6822726925837788
2540000000.0 -0.5981719191462388 0.47626679284918694
2560000000.0 0.7574892789554761 0.03914557414158365
2580000000.0 -0.3971125676762856 -0.6288938389312759
2600000000.0 -0.24500602078782519 0.6765811827295136
2620000000.0 0.6475048538558604 -0.23470606631055033
2640000000.0 0.4156531495133578 -0.5020427229668334
2660000000.0 -0.6079412437563444 0.004819072459257091
2680000000.0 0.37222316920092996 0.4193362412063259
2700000000.0 -0.03042746671070991 -0.5124739837254939
2720000000.0 -0.1662867099899302 0.4342336435595964
2740000000.0 0.33977232468597984 -0.24700601317712384
2760000000.0 -0.37372081882588953 0.07201886907510277
2780000000.0 0.3280014478714746 -0.1231782229879503
2800000000.0 -0.2134730613548936 0.24582917172049593
2820000000.0 -0.1071120505965285 -0.28970265275773827
2840000000.0 0.294165545007368 0.051386716385293164
2860000000.0 -0.16181196838703693 0.2471841368730912
2880000000.0 -0.15191339144415714 -0.2527357458631263
2900000000.0 0.19596804566686796 0.2218861579993369
2920000000.0 0.05496330257090608 -0.2954948716536414
2940000000.0 -0.3023000846901345 0.050420902907938804
2960000000.0 -0.12004913240353218 0.28399984409895396
2980000000.0 -0.2256480693636369 0.21547659282135792
3000000000.0 -0.27309607672670483 -0.15689084146673832
3020000000.0 0.041275940147911964 -0.31375919123242757
3040000000.0 0.2637766377247618 0.1723200302599931
3060000000.0 -0.3056503354990933 0.07259235659041852
3080000000.0 0.26335184842344583 -0.1628832667385169
3100000000.0 -0.15510819956948851 0.2605162065205567
3120000000.0 -0.012840935746830822 -0.29520704255223296
3140000000.0 0.17610426262753476 0.2227385878823566
3160000000.0 -0.2365773565246531 -0.12466721683749818
3180000000.0 -0.018393091022018762 0.24882553755967882
3200000000.0 -0.16878383920000842 -0.15097704102658116
3220000000.0 0.17773223369853383 -0.08950331580558245
3240000000.0 -0.04541035395689664 0.16327503661035986
3260000000.0 0.08974847853414977 -0.10430191661722625
3280000000.0 -0.08864026524176985 0.059334073292773334
3300000000.0 0.07513666852433024 0.02430906766448657
3320000000.0 -0.01865314424757138 -0.047858456775394916
3340000000.0 0.024852730038726244 0.009883734401418801
3360000000.0 -0.00135051495818998 0.005856289684739655
3380000000.0 0.00955750100317457 -0.003957434590700429
3400000000.0 0.024930125930534484 0.005263419937749571
3420000000.0 -0.03536246822359685 0.016542825219276146
3440000000.0 0.01996826207128952 0.04605327367887292
3460000000.0 0.05671268252472 0.008540427611872315
3480000000.0 -0.06487541989326774 -0.01471332079706745
3500000000.0 -0.05324412973502431 -0.0589607394863398
3520000000.0 -0.0947144177749735 0.010445957547932058
3540000000.0 0.1106064262279164 0.009955427390285336
3560000000.0 -0.09335105798448981 0.08366195395103504
3580000000.0 0.07468616165553374 -0.11779895704091978
3600000000.0 0.13051295446595038 0.08995502147017015
3620000000.0 0.07237392285150346 0.15389241420136401
3640000000.0 -0.1364536386522884 0.11810513630599914
3660000000.0 -0.18641143951180697 0.03783877977687515
3680000000.0 -0.167288746791692 -0.10010457884625429
3700000000.0 -0.11771437727147135 -0.15459611294946216
3720000000.0 0.06013854983770647 -0.1837657242717373
3740000000.0 0.1645768469298907 -0.09360597395078514
3760000000.0 -0.1634625164697993 0.07918010617507491
3780000000.0 0.17013667638097957 -0.016068895841967683
3800000000.0 0.019179952154867914 -0.1601724809362775
3820000000.0 0.013945514169114517 -0.15339803532428825
3840000000.0 0.12948444305755527 -0.07307711716671202
3860000000.0 0.04597337277716463 0.1427453532162165
3880000000.0 0.06742540320394488 0.1418296258121084
3900000000.0 0.06347208256892012 -0.14712090570059488
3920000000.0 -0.14580088980647854 0.07496398660955564
3940000000.0 0.13561370130542338 -0.0980571545043299
3960000000.0 0.14307816794116296 0.09267401598925891
3980000000.0 0.16359195452347483 -0.04728719651764813
4000000000.0 0.1633672639587297 -0.01316667354738158
