! Created with skrf (http://scikit-rf.org).
# Hz S RI R 50.0 
!freq ReS11 ImS11
400000000.0 -0.6123616112544702 0.6020645969160723
420000000.0 -0.08497377166100478 0.8620711245436096
440000000.0 0.8388313667596178 0.026557926256782584
460000000.0 0.06445051822321134 -0.7975388840322911
480000000.0 0.13153538646018248 -0.7171004292486755
500000000.0 -0.35899142885645424 0.43713750028453724
520000000.0 -0.47469790372614784 -0.015626849500156113
540000000.0 0.4103685518252845 0.06947422006765241
560000000.0 -0.2521299811193426 -0.24633926571934905
580000000.0 0.2962707053894986 0.1476556956988725
600000000.0 0.031888356942938866 -0.3249089835060425
620000000.0 -0.1258521360511554 0.31492054647998513
640000000.0 -0.24726191969898098 0.2669429875817482
660000000.0 -0.30848869865403955 0.22514483015134734
680000000.0 -0.07157822395635045 -0.4045910153498426
700000000.0 -0.42011030066508814 0.10408661293498715
720000000.0 0.07062615653786085 0.4376308589650835
740000000.0 -0.20033046689649625 0.3972088780674425
760000000.0 0.1355890843333942 -0.4068755455778271
780000000.0 0.37825766972367336 -0.12680721764126066
800000000.0 0.14326813721554973 0.3331047414624688
820000000.0 0.2964855129507691 0.05748152751134478
840000000.0 -0.2373741898280247 0.03105758407947318
860000000.0 0.18859141730377266 0.017143633662900955
880000000.0 0.10236188029266083 0.10143832807814439
900000000.0 -0.06553730688472083 0.01968641521087062
920000000.0 -0.03553364392973412 0.006726822957973303
940000000.0 -0.01757177894199991 0.019969685274120366
960000000.0 0.0005646958803122845 -0.038446023748567516
980000000.0 -0.0050657051973228865 -0.054354681048650245
1000000000.0 -0.05875997219351679 0.018641084240424138
1020000000.0 -0.026471611652448577 -0.07426620876860068
1040000000.0 -0.0747109141834638 -0.04985047580524779
1060000000.0 0.13123552711847253 0.0013052403875509577
1080000000.0 -0.14269996543109525 0.04760574580059899
1100000000.0 -0.008166469795111346 0.17769171576595183
1120000000.0 0.17977527846820057 -0.09249775458201918
1140000000.0 -0.18332013865061758 -0.15765676776200324
1160000000.0 -0.25483587440998245 0.12201096884281865
1180000000.0 -0.19360461174054902 0.25622022343335255
1200000000.0 -0.23043172393536915 0.2699843706354731
1220000000.0 -0.23396850943387532 -0.3033469606837565
1240000000.0 0.38357877548241476 0.13277810487274092
1260000000.0 -0.37437612976959245 -0.2062692637083081
1280000000.0 0.2363011730934161 0.3707044986693603
1300000000.0 0.17261100951368272 -0.41016127432969907
1320000000.0 -0.37642553469012235 -0.22514198006820685
1340000000.0 -0.22540531630322175 -0.3694337260478153
1360000000.0 0.09294866498201416 -0.41850095517350894
1380000000.0 -0.16612852529307504 -0.39616238947331117
1400000000.0 -0.3433568901143247 0.2339730779865426
1420000000.0 -0.006110433846935624 0.3960556194360022
1440000000.0 0.3260114048114803 0.17136311758380426
1460000000.0 0.31650941152274 0.12193826966069313
1480000000.0 0.313895731921781 0.015818801570922386
1500000000.0 0.22209590151398034 -0.18663420013452878
1520000000.0 -0.2693710851975188 0.001197249608951805
1540000000.0 0.23377299890083472 0.07971742321255887
1560000000.0 0.19643262423457047 0.09170819970366233
1580000000.0 0.1731591368441448 -0.07327946098960313
1600000000.0 0.11754724403636906 0.09612398591045164
1620000000.0 -0.10702496021702285 -0.0351472698702344
1640000000.0 -0.036567883993607726 0.0754415659557416
1660000000.0 0.04023124194555927 0.041247866693076986
1680000000.0 0.005610382320939341 0.02771650874023973
1700000000.0 0.00010162345257140414 0.010016317294007761
1720000000.0 -0.01591591782463403 -0.003965750758318471
1740000000.0 0.02521132479594468 0.026207037859932215
1760000000.0 0.0485540675147649 0.026213793093098608
1780000000.0 -0.08022932443834399 0.01390779068807422
1800000000.0 -0.11293994239759544 0.0012886487812306996
1820000000.0 0.13113888098343252 0.041157860020991296
1840000000.0 -0.08775325558564842 -0.1439622982852575
1860000000.0 -0.14675413944932034 0.13255641704383814
1880000000.0 0.08210537733224847 0.2155390428216706
1900000000.0 0.26506916961055194 -0.02587911744863552
1920000000.0 -0.03473496141340534 -0.29911660309110183
1940000000.0 -0.300935475241613 -0.14573001751878878
1960000000.0 -0.26717237293896773 0.2538839774449123
1980000000.0 0.315573816883804 0.23665159269852823
2000000000.0 0.39467461208321697 -0.14372905385125967
2020000000.0 -0.32951984673737056 -0.29411231228331314
2040000000.0 -0.17868819579349499 0.41704247134231404
2060000000.0 0.4515027864186405 -0.06228412473170228
2080000000.0 -0.22433782478714157 -0.3888670653360161
2100000000.0 -0.41372684220091116 0.13967845378218757
2120000000.0 -0.2519300509440402 0.3336384303561362
2140000000.0 -0.2993699145082432 -0.26603762106699463
2160000000.0 -0.34701661849781296 -0.16184978445201081
2180000000.0 -0.24173018169209848 -0.2750831253877285
2200000000.0 -0.22149003632077474 -0.27689212619299824
2220000000.0 -0.09739837452631286 -0.3330925657487255
2240000000.0 -0.3136763676504403 -0.1537444826133416
2260000000.0 -0.30861711045556856 0.17476764657994623
2280000000.0 0.16308279197623665 0.3252995950269899
2300000000.0 0.1294857906720931 -0.3557180385089448
2320000000.0 -0.3707083186780736 0.15466900950189397
2340000000.0 0.36550093621703084 0.2272613334669807
2360000000.0 -0.28516687960836634 -0.37259786844739634
2380000000.0 0.2200369275469149 0.4640224616592772
2400000000.0 -0.2789089214536388 -0.48868043773984216
2420000000.0 0.5034309949682159 0.34735375039539534
2440000000.0 -0.6573612420855173 0.015400214265755965
2460000000.0 0.5734987722228968 -0.39157456289572157
2480000000.0 -0.41055665606132113 0.5936707405055068
2500000000.0 0.5348230132957128 -0.5107872825759123
2520000000.0 -0.6668236000932721 0.3380827624345958
2540000000.0 0.7337902766146132 0.14191772550255127
2560000000.0 -0.36499720767340865 -0.6426851858967684
2580000000.0 -0.42481877650000066 0.5841283085802861
2600000000.0 0.6874633591686802 0.11156911336392733
2620000000.0 -0.23001029747053967 -0.6238021447319714
2640000000.0 -0.28791983361742324 -0.5568835868412568
2660000000.0 -0.3237002853602798 0.4846715648497415
2680000000.0 0.5275622044109409 0.10836223251350902
2700000000.0 -0.19346691257581222 -0.45461756297859246
2720000000.0 -0.11340754140932686 0.43352657028174896
2740000000.0 0.3530714912442198 -0.2001067486793933
2760000000.0 -0.3654414471595653 0.04521180193306264
2780000000.0 0.33792111120124935 -0.027895263684101675
2800000000.0 -0.2588558861716527 0.1817972913492481
2820000000.0 -0.0478381925708683 -0.2955694634776442
2840000000.0 0.27092358390350846 0.10063773707914674
2860000000.0 -0.23445456805085252 0.1621396215804846
2880000000.0 -0.026379925022856916 -0.2824295768610786
2900000000.0 0.03473687254803239 0.28281283711223876
2920000000.0 0.20546213466862334 -0.20288608802346259
2940000000.0 -0.23070990756587445 -0.18302116536687188
2960000000.0 -0.29734577645495336 0.024993129523652544
2980000000.0 -0.30382375104317205 0.010011891730838914
3000000000.0 -0.21769181220173456 -0.2188937213777817
3020000000.0 0.07757870707529746 -0.30034600602522726
3040000000.0 0.2881347339607579 0.1094373644040022
3060000000.0 -0.25844264039440884 0.16247063124949973
3080000000.0 0.154125577785274 -0.2574029194021095
3100000000.0 0.0013237014271698661 0.2940153456376985
3120000000.0 -0.11665261721890181 -0.25892024052280965
3140000000.0 0.2082345885830194 0.17647739294903786
3160000000.0 -0.22392080657236732 -0.12786016729158906
3180000000.0 0.01744415471625353 0.2412121680883982
3200000000.0 -0.19261037386727242 -0.10490245486697533
3220000000.0 0.15843883914965803 -0.11305569830670507
3240000000.0 -0.007234686679915378 0.16655966667185235
3260000000.0 -0.06827512978691824 -0.11944794940005324
3280000000.0 0.08560032780001874 0.06615395896086826
3300000000.0 -0.04724423381431557 0.06670671690421867
3320000000.0 -0.049279960940933225 0.017349595309437263
3340000000.0 0.024972626271905364 0.010762150225094115
3360000000.0 -0.006603778038165287 0.0011707314187980131
3380000000.0 0.01023578233932427 0.010216292371283051
3400000000.0 -0.024384128206520892 -0.010553303956211015
3420000000.0 -0.03480411536768079 0.012892532319054769
3440000000.0 -0.04154000974863014 -0.006994261725570375
3460000000.0 0.028033792672884264 0.03824287316062118
3480000000.0 0.012306153124798293 0.05506890382204157
3500000000.0 -0.06584404260800548 -0.030096269600939293
3520000000.0 -0.03247760352154383 0.08571468576705908
3540000000.0 -0.1069024495599622 0.016076514805024665
3560000000.0 -0.06738617968957711 -0.10266665579125045
3580000000.0 0.1253157696916061 -0.054223116118267
3600000000.0 0.0701066636237243 0.13548091133517445
3620000000.0 0.032915396020502544 0.15941009388633157
3640000000.0 -0.1736040101076356 -0.016225017518959217
3660000000.0 -0.16037425283923631 -0.08960978962805792
3680000000.0 -0.02482030667681631 -0.1865167876856417
3700000000.0 0.08397507266452361 -0.16950811792153442
3720000000.0 0.15784601976492732 -0.10187377776550754
3740000000.0 0.18122950100466217 0.011080251414588665
3760000000.0 -0.1753533968910257 0.007574540672314654
3780000000.0 0.164436293639099 0.01868656184719397
3800000000.0 0.0790864313834531 -0.13594587408068454
3820000000.0 0.034123491835600414 -0.14748461478211614
3840000000.0 0.09463367536854612 -0.11139524034599432
3860000000.0 0.13071739041796396 0.06713127404607244
3880000000.0 0.1406851838670926 0.05564470700450988
3900000000.0 0.052058261442394185 -0.14515928006580953
3920000000.0 -0.15377245570614437 0.03752219717667889
3940000000.0 0.15371179263677964 -0.0570145300194184
3960000000.0 0.1565440968083043 0.06408370027036618
3980000000.0 0.17216100323531575 -0.0023912311884561944
4000000000.0 0.13163803080427494 -0.10265621223138152
