! Created with skrf (http://scikit-rf.org).
# Hz S RI R 50.0 
!freq ReS11 ImS11
400000000.0 -0.6164816546765858 0.597046537388518
420000000.0 -0.087287079414434 0.86123627713781
440000000.0 0.8383411113458896 0.02097766450189934
460000000.0 0.07549839369031434 -0.7966639223850859
480000000.0 0.1485960694012566 -0.7143108377466633
500000000.0 -0.35018959172091524 0.44496502148692285
520000000.0 -0.4746214837656615 -0.029772136019526614
540000000.0 0.4149844325371851 0.032170862783561335
560000000.0 -0.2706025754206977 -0.22692677073530054
580000000.0 0.3139705286041404 0.1034460827744546
600000000.0 -0.005253698272184727 -0.3257711070934653
620000000.0 -0.12009083946354826 0.31612233846048543
640000000.0 -0.24073498897695234 0.27248948809554907
660000000.0 -0.2553884507055143 0.2825689265367892
680000000.0 -0.09552670259453536 -0.3996409949598075
700000000.0 -0.4123095173956066 0.12803845316196
720000000.0 0.09079428486359531 0.43442266605745955
740000000.0 -0.22472464332814704 0.3848697310323385
760000000.0 0.1741747342706693 -0.393163920810495
780000000.0 0.3747053014554629 -0.13496577316890937
800000000.0 0.14397185058942252 0.33392888141241095
820000000.0 0.2950302446693904 0.06412805656778925
840000000.0 -0.24032093591455717 0.0005914073760205878
860000000.0 0.1873619738924746 0.02387210619466909
880000000.0 0.08961741189331321 0.11311240902116687
900000000.0 -0.03548140948102512 0.05807267803741004
920000000.0 -0.024056195964177653 0.027482157414025307
940000000.0 0.010672776723602997 0.025440198164005015
960000000.0 -0.009385074792652224 -0.03790565112459796
980000000.0 -0.01971305576148492 -0.051389911619774284
1000000000.0 -0.05513685491793082 0.027545291015243948
1020000000.0 -0.039628664779707196 -0.06812874858509109
1040000000.0 -0.0817091525175839 -0.036465675359345855
1060000000.0 0.13078596728389472 0.00834870261514307
1080000000.0 -0.1426757499757679 0.04537592030207307
1100000000.0 -0.0005201049448800853 0.177499267988571
1120000000.0 0.17451655480281153 -0.10179100709217097
1140000000.0 -0.1743302164733317 -0.16674382332686266
1160000000.0 -0.24058328954595054 0.14703882157369816
1180000000.0 -0.19297516287586944 0.2563173276506033
1200000000.0 -0.23999566291858865 0.26106293911203177
1220000000.0 -0.22631381481352814 -0.30917756137415114
1240000000.0 0.3863710138630282 0.1257912289706622
1260000000.0 -0.3786375361343826 -0.1991899281316541
1280000000.0 0.26137452788741516 0.35424419654558115
1300000000.0 0.15380753317214324 -0.4179935416814394
1320000000.0 -0.3819816651842534 -0.2162031273177153
1340000000.0 -0.2234026536026151 -0.3710080968730266
1360000000.0 0.10445169559775244 -0.4158120216542105
1380000000.0 -0.1667749920147287 -0.3959476387634566
1400000000.0 -0.34430060894917247 0.23267417560047918
1420000000.0 -0.011757822353979559 0.39588565975927736
1440000000.0 0.3242089128996294 0.17363260423525767
1460000000.0 0.3183470730110427 0.1152511611723171
1480000000.0 0.311207748153627 0.04040211946963048
1500000000.0 0.23121167855352207 -0.17482035595044715
1520000000.0 -0.2689987825432254 0.0005518221195846805
1540000000.0 0.2353157858747045 0.07346263121655804
1560000000.0 0.20932266972768138 0.054822751315319836
1580000000.0 0.13952310822229377 -0.12582295033881494
1600000000.0 0.14069520894927134 0.057343629602548025
1620000000.0 -0.1122478699339917 -0.007001077674229428
1640000000.0 0.00896555717425158 0.08365045622097626
1660000000.0 0.0373005067523263 0.04437405618132418
1680000000.0 -0.01229904630521318 0.02590855646459272
1700000000.0 -0.006582659429053312 -0.0065692528256996886
1720000000.0 -0.015507550785554488 -0.0015610361132106898
1740000000.0 0.023094705641449408 0.026813100975530947
1760000000.0 0.05254413749435049 0.014194951459456413
1780000000.0 -0.07906876548232758 0.017509316724986797
1800000000.0 -0.11232800285277121 -0.011744544934368543
1820000000.0 0.1245223069992269 0.059465625054598285
1840000000.0 -0.06801808317507539 -0.15549725973917208
1860000000.0 -0.1462943481942564 0.1347518218741732
1880000000.0 0.09043821340456515 0.2136084358609341
1900000000.0 0.2618597519526371 -0.05423637901700158
1920000000.0 -0.0780839531590123 -0.29119320945625815
1940000000.0 -0.30916005541332564 -0.12764566735409874
1960000000.0 -0.2568376079123461 0.26342203421864835
1980000000.0 0.3082064775440514 0.24458103264786293
2000000000.0 0.3955637165831625 -0.13802574421145455
2020000000.0 -0.28504636888352985 -0.3363094821406055
2040000000.0 -0.2199973651583229 0.3961406101378251
2060000000.0 0.4482770621496611 -0.07869874820382985
2080000000.0 -0.2476856763220332 -0.3740048286456572
2100000000.0 -0.39381554246302264 0.18799539315463118
2120000000.0 -0.2380594602358442 0.3434505596608369
2140000000.0 -0.34119328036922614 -0.20904462091923354
2160000000.0 -0.37769343138318057 -0.061821463025115486
2180000000.0 -0.29173833975966756 -0.2206310621353745
2200000000.0 -0.26384669848223724 -0.23628326758086432
2220000000.0 -0.13812727696837637 -0.3179836162200024
2240000000.0 -0.32622300272134475 -0.12522206384898443
2260000000.0 -0.28979035899349304 0.20409382886851396
2280000000.0 0.18913869761464977 0.31113699268245104
2300000000.0 0.09665634744054612 -0.36671824212331616
2320000000.0 -0.3639438141263448 0.17152731438394322
2340000000.0 0.3924350223231475 0.17940282109700753
2360000000.0 -0.30476510688999275 -0.3581975451674074
2380000000.0 0.2148855906572565 0.46659637299408363
2400000000.0 -0.2916377223540812 -0.4814372388747373
2420000000.0 0.5105541127424381 0.33685240465252786
2440000000.0 -0.6565773508668504 0.024959594877940874
2460000000.0 0.5878372206887597 -0.36867100223596183
2480000000.0 -0.37369451260996417 0.6166763859137425
2500000000.0 0.4441826841874861 -0.5893712565233885
2520000000.0 -0.6259714668078206 0.4062878678667614
2540000000.0 0.7454773044578157 0.014694113831255334
2560000000.0 -0.43587278248505734 -0.5953107873949087
2580000000.0 -0.35367647464758184 0.6281044200775886
2600000000.0 0.6949834960636503 0.009939739641094512
2620000000.0 -0.29640327680362505 -0.5937211978787886
2640000000.0 -0.4392841736696695 -0.44621157117428134
2660000000.0 -0.24889621556162558 0.5261899789774235
2680000000.0 0.5314890429120438 0.08271922613100284
2700000000.0 -0.23495034671249593 -0.4341720197501794
2720000000.0 -0.10740314555267917 0.43483578260794464
2740000000.0 0.35476716333008573 -0.1975082886274269
2760000000.0 -0.36505786125808776 0.050156107977089776
2780000000.0 0.3376872580596467 -0.03168129590736789
2800000000.0 -0.2600982592235889 0.179607164913391
2820000000.0 -0.03482393227134781 -0.2970601056494516
2840000000.0 0.2596151240844498 0.12532625541625608
2860000000.0 -0.24321118250999998 0.146314203547543
2880000000.0 0.02109584454065971 -0.28208690714449647
2900000000.0 0.00971460242687944 0.2839885271333133
2920000000.0 0.23268985011456494 -0.16997729683838514
2940000000.0 -0.22393735327323522 -0.18990441035645053
2960000000.0 -0.29286988790122626 0.05407074788936605
2980000000.0 -0.29968431930342104 0.049227159473631404
3000000000.0 -0.25640034619366425 -0.16896848632150008
3020000000.0 0.011827987720811992 -0.3089364831175552
3040000000.0 0.29973255873357957 0.06902097292853246
3060000000.0 -0.2537081791832988 0.16853026265940635
3080000000.0 0.13221028893355094 -0.26898202312092406
3100000000.0 0.008499298699755421 0.29374118393266985
3120000000.0 -0.1391996851455635 -0.24811546193618808
3140000000.0 0.2289719923936124 0.1494016968723771
3160000000.0 -0.2432969784537458 -0.08653639853921552
3180000000.0 0.06293924587503645 0.23383915363986424
3200000000.0 -0.20880903237589607 -0.06779725089190042
3220000000.0 0.14031559711458702 -0.1348913978905991
3240000000.0 -0.01333282088348961 0.16607473050735583
3260000000.0 -0.04577300412795834 -0.12985737289632232
3280000000.0 0.06114306262207446 0.08990596163956771
3300000000.0 -0.07053801703664803 0.042790196599565844
3320000000.0 -0.049063089044585916 -0.020417494709096578
3340000000.0 -0.014164074630052228 0.023903714958175337
3360000000.0 0.00039961637035366965 0.007690726915046261
3380000000.0 0.01057081485269614 0.008963488341326655
3400000000.0 -0.015444281984244551 0.021320850816024993
3420000000.0 -0.01510936349996607 0.03401915054248727
3440000000.0 -0.01898008344063931 0.037391609946886936
3460000000.0 0.04709889897284437 -0.0025068905102830184
3480000000.0 0.052367890495853615 0.019686685144059135
3500000000.0 -0.06904375627367891 0.019355093051707593
3520000000.0 0.07195467172880535 0.05697170048715958
3540000000.0 -0.10109937469455621 0.03589713394700105
3560000000.0 -0.09504146733860616 -0.07688177267258492
3580000000.0 0.11662167880311165 -0.07104630335668126
3600000000.0 0.12685503840677506 0.08545333319646872
3620000000.0 0.07193000609729243 0.14587329599896753
3640000000.0 -0.17139556017205995 0.033639452582613256
3660000000.0 -0.18135521514065858 -0.03275297117387525
3680000000.0 -0.07723517402373882 -0.17185301654500945
3700000000.0 0.037130190679304016 -0.1855122910894336
3720000000.0 0.12954418948031987 -0.13675007362665878
3740000000.0 0.18144311405725783 -0.01798871259488369
3760000000.0 -0.17583422984991073 0.014815472202870184
3780000000.0 0.16601900727821636 0.006581110493460947
3800000000.0 0.06809963043126799 -0.14280580433600137
3820000000.0 0.011208690567692206 -0.15210685820717926
3840000000.0 0.0729139463089599 -0.1279148347510893
3860000000.0 0.14276933891052682 0.038019995519114634
3880000000.0 0.14543936845562275 0.0449750271405796
3900000000.0 0.04189449632702152 -0.1494708001393009
3920000000.0 -0.15512691656507013 0.036535194110614004
3940000000.0 0.15436879373777987 -0.05845595256101728
3960000000.0 0.14598793331401097 0.0881894705220925
3980000000.0 0.16679363609135525 0.047550032103518186
4000000000.0 0.16099827130649944 -0.04892714286278266
