! Created with skrf (http://scikit-rf.org).
# Hz S RI R 50.0 
!freq ReS11 ImS11
400000000.0 -0.6401028705143414 0.5692165471693958
420000000.0 -0.0961604567473531 0.8612715683272255
440000000.0 0.8395706800983745 0.0030756539070388163
460000000.0 0.04551138291555664 -0.797885487044493
480000000.0 0.19986090410690985 -0.7015491653637231
500000000.0 -0.3401018631252318 0.455545931638618
520000000.0 -0.4680999597045703 0.07579725750881926
540000000.0 0.39954431519157635 0.1112607910335004
560000000.0 -0.22363885147123502 -0.2728828723002885
580000000.0 0.33080982096695216 0.0358050142454873
600000000.0 -0.02923038850729176 -0.3234751385595566
620000000.0 -0.14274028593936836 0.30642672522339004
640000000.0 -0.24575272026931583 0.2685147327401946
660000000.0 -0.2634375872860054 0.2758024191502383
680000000.0 -0.1407781066136132 -0.38555952876723265
700000000.0 -0.4180714878797601 0.10744881780965729
720000000.0 0.07611622578814778 0.43679180926907174
740000000.0 -0.2505969583503688 0.3684793675717505
760000000.0 0.188890653476313 -0.3848760963945448
780000000.0 0.3837078947680187 -0.11111285956234437
800000000.0 0.14908953723113663 0.330950371954517
820000000.0 0.2886869366910747 0.09102427689905791
840000000.0 -0.2399227421227485 0.010948203046523502
860000000.0 0.1886810675975761 -0.004999471441261543
880000000.0 0.05499364227425528 0.13307769866872005
900000000.0 -0.05015435281181415 0.04724426977144714
920000000.0 0.014966922566704077 0.033187134749875946
940000000.0 -0.023217611381115257 0.01532991690424197
960000000.0 -0.03195872572865519 -0.022795279421260257
980000000.0 -0.02891723057029091 -0.046719031367567124
1000000000.0 -0.04974331184601313 0.036678043630390594
1020000000.0 -0.05278879616890406 -0.05837102590700568
1040000000.0 -0.08281589974006152 -0.03403112011983919
1060000000.0 0.13074711080339219 0.004391742537517518
1080000000.0 -0.14483516768291033 0.03859202378404054
1100000000.0 0.0065086612317795545 0.1774202973008976
1120000000.0 0.17619867107248088 -0.09849522714951155
1140000000.0 -0.1958871001013222 -0.14065339389876264
1160000000.0 -0.24242380859846888 0.14344406319829214
1180000000.0 -0.192156666957421 0.25677039941990937
1200000000.0 -0.24020685056658386 0.2605371413400948
1220000000.0 -0.21031378382672722 -0.3199946509305151
1240000000.0 0.38602985318545385 0.12700348613554535
1260000000.0 -0.38336403025421334 -0.18985476048448444
1280000000.0 0.25273274348205715 0.3603208585820518
1300000000.0 0.15282782409748225 -0.4186296123482529
1320000000.0 -0.386215811274379 -0.20892541613257365
1340000000.0 -0.2228235909134779 -0.3716803829129695
1360000000.0 0.09437798393063376 -0.4184002029084031
1380000000.0 -0.16630565258774516 -0.3963377290366517
1400000000.0 -0.3375546838209316 0.2428612293897186
1420000000.0 0.016218934637170782 0.39573149120271756
1440000000.0 0.3256831281185916 0.17051680696796326
1460000000.0 0.3154048826503448 0.12286802938641872
1480000000.0 0.31028550539090793 0.0493905273699425
1500000000.0 0.23944954940944332 -0.16295871344172436
1520000000.0 -0.2682585861312069 -0.0015552252678811796
1540000000.0 0.22428206318631094 0.10224713021682318
1560000000.0 0.20624904916112446 0.0659641899671282
1580000000.0 0.14143772030454174 -0.12351814859840894
1600000000.0 0.13614882432709102 0.06757586961043704
1620000000.0 -0.11099420090156312 0.021165485868166432
1640000000.0 0.020135842373017063 0.0817714610380651
1660000000.0 0.04647039936442535 0.034742069911880336
1680000000.0 -0.014361063934498845 0.024889896364767863
1700000000.0 -0.001780876217117298 -0.009069536950555039
1720000000.0 -0.015333048299050302 -0.0019353366776130162
1740000000.0 0.034801989465558944 -0.00621642909828573
1760000000.0 0.05421179456760401 0.006283242238615055
1780000000.0 -0.07182869170374384 0.03754310797700663
1800000000.0 -0.10945823556322695 -0.02670868458356883
1820000000.0 0.11487119924728051 0.07739640769619828
1840000000.0 -0.057777590947947335 -0.15996581161196333
1860000000.0 -0.15985403382690314 0.1192911478411528
1880000000.0 0.08766379144226713 0.21491436239215098
1900000000.0 0.2600376941746871 -0.06304052902281003
1920000000.0 -0.08906212628756027 -0.2882711755412775
1940000000.0 -0.31667319090846985 -0.10701346900784348
1960000000.0 -0.2559502568414371 0.26366910432332646
1980000000.0 0.3115372681359925 0.2396439706941975
2000000000.0 0.39770201777299136 -0.12980004719798452
2020000000.0 -0.26962607134824107 -0.34852388162243236
2040000000.0 -0.19435263701320635 0.4090044314145591
2060000000.0 0.4487073085821942 -0.07614869546994917
2080000000.0 -0.2588107518721034 -0.3666484507435101
2100000000.0 -0.37757856542725554 0.21961428880245454
2120000000.0 -0.20932516509443463 0.3621209389507357
2140000000.0 -0.35814110779811026 -0.179154468610261
2160000000.0 -0.37801362204634953 -0.06128269191627132
2180000000.0 -0.2830487970465542 -0.2318470382710766
2200000000.0 -0.2698037179419824 -0.22995421418920836
2220000000.0 -0.14026086163221615 -0.3173085901324084
2240000000.0 -0.33729583798885976 -0.0918307707550938
2260000000.0 -0.29163633448187526 0.20166502161766686
2280000000.0 0.1752945758830146 0.31931600256083037
2300000000.0 0.10384240550973003 -0.36468630791812034
2320000000.0 -0.35915733900443864 0.1817020577708929
2340000000.0 0.3851120008605094 0.19461978927599174
2360000000.0 -0.32354022641057856 -0.34126428187576896
2380000000.0 0.2650178853520478 0.44050930405773625
2400000000.0 -0.32487026892395376 -0.4595344895456351
2420000000.0 0.5227081942109018 0.31729960267230556
2440000000.0 -0.6532195587351676 0.06883537222286157
2460000000.0 0.5394537982891895 -0.4353903522808353
2480000000.0 -0.35010423642961536 0.6299253732723672
2500000000.0 0.4079024602115589 -0.6147676721640878
2520000000.0 -0.6112745140284875 0.42785722092660994
2540000000.0 0.7452120521253943 -0.0206679609901005
2560000000.0 -0.4531148568650971 -0.5819182112657257
2580000000.0 -0.3482184623825157 0.6308649049878958
2600000000.0 0.6947424961876854 0.0054058008303221414
2620000000.0 -0.2624465100363887 -0.609180937577021
2640000000.0 -0.3960072063133636 -0.4843775645245885
2660000000.0 -0.27930990303910375 0.5101342889189154
2680000000.0 0.5265780790204233 0.10730685381904072
2700000000.0 -0.2014189683919126 -0.45016699111580316
2720000000.0 -0.1180179849654405 0.4316788396599491
2740000000.0 0.34769635199105625 -0.20867196834320245
2760000000.0 -0.36528339704195917 0.04576709603241267
2780000000.0 0.3374488118475459 -0.030234927242536916
2800000000.0 -0.2592201436005543 0.18047430691385205
2820000000.0 -0.04108222011965113 -0.2962239087004516
2840000000.0 0.2581922529067596 0.12780546656540648
2860000000.0 -0.24724502646387922 0.1398249102064944
2880000000.0 0.004228685596084453 -0.2824754555161417
2900000000.0 0.007366477965612123 0.2840086446211995
2920000000.0 0.21504796495164738 -0.19152340133333162
2940000000.0 -0.22688585410648746 -0.18631739821764856
2960000000.0 -0.29496652052822003 0.0396976173947992
2980000000.0 -0.29840619485633524 0.05242981258243179
3000000000.0 -0.2463694919816625 -0.18373847435036036
3020000000.0 0.015258297995731288 -0.30873131270569937
3040000000.0 0.3038033153881711 0.046269345968415795
3060000000.0 -0.21381053843331696 0.21722865815670406
3080000000.0 0.1263192072088137 -0.27159850428147647
3100000000.0 -0.029870890533146278 0.2919366123226085
3120000000.0 -0.1510036704442233 -0.24127484530157975
3140000000.0 0.22916274076405613 0.14937094793413214
3160000000.0 -0.2420534561583936 -0.0905579668495357
3180000000.0 0.03581068086099132 0.23954029070370705
3200000000.0 -0.21014353686430762 -0.06467333799262319
3220000000.0 0.14683674988726408 -0.12730573998171432
3240000000.0 -0.03345847913326727 0.16369263235353357
3260000000.0 -0.036671788275378474 -0.1323756135984043
3280000000.0 0.062473726288827094 0.08846447631718797
3300000000.0 -0.08219335660876166 0.005465691371746727
3320000000.0 -0.03759136793156261 -0.03719217255758556
3340000000.0 -0.02354508963195566 0.014524564821097572
3360000000.0 -0.0015081294295070699 -0.006483444425673484
3380000000.0 0.0027390392989744784 0.013683991606543013
3400000000.0 -0.010602331385110275 0.024332396242803277
3420000000.0 -0.0064637030975347514 0.03707568399245973
3440000000.0 -0.017027619951822805 0.03906101259827721
3460000000.0 0.0403409188181771 -0.025414238734911894
3480000000.0 0.05430170028180129 -0.016752445011229262
3500000000.0 -0.060578981317582103 0.038971178264921275
3520000000.0 0.015285864200107257 0.09006184635990387
3540000000.0 -0.09378160420760616 0.05342446814886947
3560000000.0 -0.08896321007785124 -0.0843869076846699
3580000000.0 0.1244776552249815 -0.05702315766422688
3600000000.0 0.09913942271453534 0.1168684682057201
3620000000.0 0.06922683195201937 0.14814753747085702
3640000000.0 -0.17356122731470222 0.024670007740551173
3660000000.0 -0.17779383975675855 -0.049120262587226876
3680000000.0 -0.06031333299974694 -0.17890837393338918
3700000000.0 0.060070610938419915 -0.17962880481606383
3720000000.0 0.15186572864059905 -0.11124507580534394
3740000000.0 0.1811978427734338 0.020148213268308412
3760000000.0 -0.17552552385779677 -0.01444879190320935
3780000000.0 0.15704021256253956 0.05527002666431228
3800000000.0 0.11262036073613174 -0.11110160966539522
3820000000.0 0.05450178125507103 -0.14243869962579098
3840000000.0 0.10558190801838536 -0.10276501427063217
3860000000.0 0.13116165392724316 0.06862271285282408
3880000000.0 0.13396774784835408 0.07158462367329807
3900000000.0 0.07421153027112917 -0.13600195846452418
3920000000.0 -0.1573489158425763 0.023271330799997686
3940000000.0 0.15809812217642968 -0.04431414820232118
3960000000.0 0.1410121204113558 0.09430022632542459
3980000000.0 0.17265927960833322 -0.0008383327178763941
4000000000.0 0.1252164223618112 -0.11121295797144022
