! Created with skrf (http://scikit-rf.org).
# Hz S RI R 50.0 
!freq ReS11 ImS11
400000000.0 -0.6470916366488425 0.5606280110324635
420000000.0 -0.1032559128316979 0.8614861558181327
440000000.0 0.8362292841247747 -0.08773244760106118
460000000.0 -0.09747884608553743 -0.7927271610152565
480000000.0 0.17328574342924966 -0.7066685446042421
500000000.0 -0.32633974308253483 0.4658164443689622
520000000.0 -0.4431593115497632 0.1635323774342965
540000000.0 0.3572272118921098 0.2053541292313875
560000000.0 -0.27066673687610526 0.224904503883049
580000000.0 0.30434397549269765 0.13615724352083805
600000000.0 0.01660108828572766 -0.32384599757442045
620000000.0 -0.17001433989204265 0.29363943356331046
640000000.0 -0.24928196311121303 0.2646937849366242
660000000.0 -0.3072015065742383 0.22779180432531804
680000000.0 -0.07955898822496077 -0.404112456226091
700000000.0 -0.42244942932152874 0.09292233325238568
720000000.0 0.058634122285595294 0.4395052613678744
740000000.0 -0.2102166366222004 0.39292886052231146
760000000.0 0.15080256701089514 -0.40105406773943664
780000000.0 0.3867653899689248 -0.10078511001491142
800000000.0 0.1121287456829688 0.3453080944935404
820000000.0 0.2904133953619961 0.08456549825532815
840000000.0 -0.23967805568162118 0.0019868562146595488
860000000.0 0.18791686936435126 -0.021772336095125796
880000000.0 0.09045455851935641 0.11204489202048164
900000000.0 -0.04713357629172529 0.050534829620613494
920000000.0 -0.005630084929068788 0.03577454410350946
940000000.0 -0.027424388179931456 -0.002673208708247859
960000000.0 -0.022534497302055284 -0.031956795399647096
980000000.0 -0.032627739864866445 -0.043803367286617066
1000000000.0 -0.03754289944417466 0.04884817815727299
1020000000.0 -0.0412830743486199 -0.06663212083737921
1040000000.0 -0.07531320474795247 -0.04852740601611826
1060000000.0 0.12971280773472166 0.015803995470136945
1080000000.0 -0.1437498698822254 0.040887877130822675
1100000000.0 0.005688534283829369 0.17737194158354452
1120000000.0 0.17925485631960777 -0.09355211214591229
1140000000.0 -0.19461006275600812 -0.14285766463329283
1160000000.0 -0.22587841023223196 0.17017490651023878
1180000000.0 -0.1769913127472626 0.2682291418073987
1200000000.0 -0.2018565885348082 0.29231397624110966
1220000000.0 -0.22557089616935308 -0.30967545497464527
1240000000.0 0.39494210315794076 0.09646006214753827
1260000000.0 -0.38100972509918013 -0.19430039838024427
1280000000.0 0.25679791290654636 0.3573757864892818
1300000000.0 0.17657729182836088 -0.4087572718903373
1320000000.0 -0.37224726692606397 -0.23258591229153797
1340000000.0 -0.22785229407392593 -0.3684985887410571
1360000000.0 0.09572094930608019 -0.4182149002760162
1380000000.0 -0.17083443277214225 -0.39438193992873777
1400000000.0 -0.34755950081445736 0.22762826948582798
1420000000.0 0.025877780662698423 0.39481133154799797
1440000000.0 0.3270744350469302 0.16736593770007413
1460000000.0 0.31119128929467565 0.13284089981552014
1480000000.0 0.30437486735708114 0.07691899454626638
1500000000.0 0.24769013892185637 -0.15010015592525375
1520000000.0 -0.2684817348713704 -6.327344375106491e-05
1540000000.0 0.23784125274937878 0.06482191265294196
1560000000.0 0.21191302921427538 0.045937514747910385
1580000000.0 0.12792063143409746 -0.13770881537610444
1600000000.0 0.13214567116396736 0.07478375678506145
1620000000.0 -0.1123156785757754 0.005727309800331093
1640000000.0 0.014566810342507239 0.08254876789587282
1660000000.0 0.030658378832738694 0.048710141468131275
1680000000.0 -0.008750735187904788 0.027094387217916335
1700000000.0 0.00886447632082722 -0.0008196782700684104
1720000000.0 0.011979723175815015 0.008898414959386735
1740000000.0 0.011279109743063485 -0.03315927800639634
1760000000.0 0.05232677515459292 -0.014667411110954298
1780000000.0 -0.0696694742465567 0.04176933291107296
1800000000.0 -0.11240415672857548 -0.010203170030394835
1820000000.0 0.12115801047402557 0.06727668657962678
1840000000.0 -0.06072893658810688 -0.15881898628562713
1860000000.0 -0.1515727857098769 0.12955292213536979
1880000000.0 0.09158825695052775 0.21357361736796926
1900000000.0 0.2589409381083076 -0.06843498397283601
1920000000.0 -0.08194523481581312 -0.29056387651210713
1940000000.0 -0.3142841468040539 -0.11535548815020005
1960000000.0 -0.26259553601434216 0.25797144871887406
1980000000.0 0.30938270414877667 0.24327338375904214
2000000000.0 0.39790627651699106 -0.13068392624408268
2020000000.0 -0.29293166018491257 -0.3294766006901154
2040000000.0 -0.20721746241311934 0.40318428734997613
2060000000.0 0.4482745408509534 -0.08076065208553586
2080000000.0 -0.231761665583921 -0.3844965060207386
2100000000.0 -0.38452831087990547 0.20726506268486328
2120000000.0 -0.18565023284548735 0.3748896592736805
2140000000.0 -0.3683351093204232 -0.1578388558559377
2160000000.0 -0.3802133002843351 -0.04712518003928806
2180000000.0 -0.31125056670953744 -0.1926579746318592
2200000000.0 -0.27638824600538453 -0.2226089269981534
2220000000.0 -0.1925926260632384 -0.28889064399672204
2240000000.0 -0.3394427482602624 -0.08492763994987312
2260000000.0 -0.27764357259158773 0.22202995573573234
2280000000.0 0.20749796043490656 0.3006661591188966
2300000000.0 0.07420068385434184 -0.37318236634365465
2320000000.0 -0.338794067322991 0.21989826731752743
2340000000.0 0.4041650446972693 0.15451436772502739
2360000000.0 -0.35650011894063577 -0.30835971497386594
2380000000.0 0.3158960194434275 0.40741567485508284
2400000000.0 -0.3834975717725234 -0.4137123195585469
2420000000.0 0.5763283666684804 0.20765559409667964
2440000000.0 -0.6388823386282085 0.15759661238998102
2460000000.0 0.45551678004867746 -0.523633945165703
2480000000.0 -0.24589124135804014 0.6779375285640317
2500000000.0 0.3300512776176949 -0.6602309299541208
2520000000.0 -0.5356378299840245 0.51950203995468
2540000000.0 0.7243345603494161 -0.17450930464892458
2560000000.0 -0.5518605782676618 -0.4885566670475217
2580000000.0 -0.21431844490228316 0.6870571447696961
2600000000.0 0.6807618655697407 -0.13305812656404642
2620000000.0 -0.40096445591687596 -0.5264894397492731
2640000000.0 -0.506079316682544 -0.36521143937495665
2660000000.0 -0.1327648104826831 0.5644572816524487
2680000000.0 0.534478722965604 -0.0332424548730802
2700000000.0 -0.28062888221792065 -0.4028602906546598
2720000000.0 -0.07027103796140349 0.4394776938764398
2740000000.0 0.31317114483359226 -0.25396895761438953
2760000000.0 -0.35340309302901174 0.09485122645219872
2780000000.0 0.32833913509773405 -0.0750863957571725
2800000000.0 -0.24230871734906426 0.19945272955321697
2820000000.0 -0.06459345039233444 -0.2897389083386462
2840000000.0 0.2729091451544093 0.08576785967599825
2860000000.0 -0.2121127379350314 0.18583422459070786
2880000000.0 -0.04073413100589149 -0.2776220553818865
2900000000.0 0.03633618746340045 0.28021337124543516
2920000000.0 0.1932839969097237 -0.21201661123985915
2940000000.0 -0.2553900273844206 -0.14196809062822108
2960000000.0 -0.28300796319770105 0.08762443058607636
2980000000.0 -0.2904166457847583 0.0846646986376672
3000000000.0 -0.2735184180908592 -0.13806514803042697
3020000000.0 0.0006300123433174461 -0.3081885617399181
3040000000.0 0.30534860380291656 0.02690876061109059
3060000000.0 -0.20604018598305365 0.22354290426175727
3080000000.0 0.1080674480940218 -0.2789346114301108
3100000000.0 0.05221287318307705 0.28854054244237753
3120000000.0 -0.14026826427786876 -0.2466393984267056
3140000000.0 0.24281589565173137 0.12513198490303243
3160000000.0 -0.24932188822542498 -0.06561249062456474
3180000000.0 0.0541403078446857 0.23612031542688963
3200000000.0 -0.20841755405855902 -0.06863825803543404
3220000000.0 0.1519627835392069 -0.12082288492566122
3240000000.0 -0.04375607109796795 0.160631844901572
3260000000.0 -0.013851092675834892 -0.13666970635851405
3280000000.0 0.018296077710029536 0.10669535737393572
3300000000.0 -0.0788793338787331 -0.02245439489062613
3320000000.0 -0.0017541527463466016 -0.05280934190178117
3340000000.0 -0.022180802544412147 -0.016446092884837428
3360000000.0 0.002499188621460859 -0.0063420831678573765
3380000000.0 -0.013775486954790294 -0.0006775645213773737
3400000000.0 0.025906342779677943 -0.006694379662461806
3420000000.0 0.03370900409702982 0.016880274497759407
3440000000.0 0.036817247834743334 0.0214879437241262
3460000000.0 -0.004846224415060589 -0.04715848943888778
3480000000.0 0.04025558385098375 -0.0392378529765772
3500000000.0 -0.04800417967393056 0.053014735947839745
3520000000.0 0.08196468179992263 0.04046030863220729
3540000000.0 -0.09017443506361499 0.05770523160886431
3560000000.0 -0.11151060236988916 -0.050356413309541534
3580000000.0 0.11156406629095093 -0.07900428290533158
3600000000.0 0.106338746494985 0.10970044657947454
3620000000.0 0.09633604872552358 0.13129003832924657
3640000000.0 -0.16297884155373565 0.0631334245245085
3660000000.0 -0.1831174402272982 -0.016429347391279294
3680000000.0 -0.09012276178796823 -0.1650509612137108
3700000000.0 0.03792754133112167 -0.18512998616374654
3720000000.0 0.14360441292201898 -0.12099515763121468
3740000000.0 0.18159660580242712 0.013975008143853905
3760000000.0 -0.1761942100489286 0.00037920808806347114
3780000000.0 0.16358228843858327 0.030349405016749577
3800000000.0 0.10247215301808181 -0.12082637287290436
3820000000.0 0.04709885410934142 -0.1454403070566391
3840000000.0 0.10005519270725083 -0.10917214510163087
3860000000.0 0.13788396441934525 0.05576775023919124
3880000000.0 0.14811678681802654 0.03619582282649105
3900000000.0 0.04127590743622746 -0.15015017769084393
3920000000.0 -0.15419317701193616 0.04317401806127057
3940000000.0 0.1604281653276108 -0.042045052546847164
3960000000.0 0.1489388765157496 0.08586401855144593
3980000000.0 0.1729820568368154 0.024021870773481245
4000000000.0 0.1573653755389565 -0.06169508565759482
