! Created with skrf (http://scikit-rf.org).
# Hz S RI R 50.0 
!freq ReS11 ImS11
400000000.0 -0.615682154849389 0.5980252871920421
420000000.0 -0.12502227266720645 0.857260457522511
440000000.0 0.8395481217447052 0.0020305367425672727
460000000.0 0.09056702761930857 -0.7944570315305255
480000000.0 0.18674048710898256 -0.7048407969822831
500000000.0 -0.36617002588696335 0.4322451543292839
520000000.0 -0.4750600933502578 -0.0031763010854326955
540000000.0 0.4136640686776653 0.04004613958945686
560000000.0 -0.2377987886993017 -0.26012847279172335
580000000.0 0.304872214550259 0.13260248368674796
600000000.0 -0.016988329463958514 -0.3251321315955415
620000000.0 -0.1407082318697485 0.30807226197130827
640000000.0 -0.24810633120517953 0.265112598864926
660000000.0 -0.30864337988712903 0.22528084066731804
680000000.0 -0.08308989838425511 -0.4029348951482392
700000000.0 -0.4207143242955909 0.10024698753311914
720000000.0 0.04597204673283397 0.44087644365205675
740000000.0 -0.18259213557487808 0.40573471028033214
760000000.0 0.17281081639901302 -0.39279035639881693
780000000.0 0.37384045455237624 -0.1395370971109511
800000000.0 0.1366207178173988 0.336002846219734
820000000.0 0.29144679240962035 0.0796833205480059
840000000.0 -0.23830418706985923 0.026440357280554085
860000000.0 0.18804959346418196 0.021275422302323474
880000000.0 0.10126685317132642 0.10225582038995525
900000000.0 -0.0686112115069819 0.0036364599655061415
920000000.0 -0.03603114530497444 0.004950815707048698
940000000.0 -0.025478667797973812 0.006104163727326449
960000000.0 0.01573362239912372 -0.034310159167075846
980000000.0 -0.007505224779294326 -0.053709307249841964
1000000000.0 -0.04567370049109705 0.041480106346926664
1020000000.0 -0.04292970925477211 -0.06624262891537014
1040000000.0 -0.08433086192272506 -0.031602381499315296
1060000000.0 0.13125038425155852 0.008987968437827405
1080000000.0 -0.14075543791392117 0.05280355368931937
1100000000.0 -0.02694151860170491 0.17610186501422673
1120000000.0 0.18888836168310183 -0.07280025327235051
1140000000.0 -0.16232876897348872 -0.17920460752228867
1160000000.0 -0.2471974137992811 0.13759989484384733
1180000000.0 -0.20017974763611604 0.2514059358263738
1200000000.0 -0.220708978442965 0.27799446377054177
1220000000.0 -0.20991249526694383 -0.32020557019315987
1240000000.0 0.3805455233474096 0.14094960429737358
1260000000.0 -0.36095180472014915 -0.22846581984849312
1280000000.0 0.24373851977316277 0.3657430027531078
1300000000.0 0.1517530875464533 -0.4182595195698932
1320000000.0 -0.3791419597295184 -0.21986598908382352
1340000000.0 -0.24332566252884952 -0.35786670781327384
1360000000.0 0.09093091104908896 -0.41900191959241256
1380000000.0 -0.17954414583499645 -0.39032830782427647
1400000000.0 -0.3411241076264041 0.23734012475286065
1420000000.0 0.005356880365366958 0.3960975200496782
1440000000.0 0.3304094077281391 0.16292093372251268
1460000000.0 0.31907328467162205 0.11591851677289673
1480000000.0 0.3133432259616509 -0.026505629084239257
1500000000.0 0.23591944707052287 -0.16974087371682986
1520000000.0 -0.2683575953033483 0.01864523571906412
1540000000.0 0.23732635676062086 0.06853865328768174
1560000000.0 0.1846781175973903 0.11426471565353517
1580000000.0 0.1642769240971776 -0.09137889506783292
1600000000.0 0.08758129208359275 0.12415544522484435
1620000000.0 -0.10680034321942515 -0.03486830374869058
1640000000.0 -0.023065122688510933 0.08046636491869046
1660000000.0 0.03651220864518596 0.04450733376295327
1680000000.0 0.017613861842401806 0.022186646267028147
1700000000.0 0.007629435544313866 0.006605048267058178
1720000000.0 -0.013969117193899287 -0.008797185811869291
1740000000.0 0.0019641186398239303 0.03609000806841781
1760000000.0 0.03720732855808933 0.04054572073545462
1780000000.0 -0.08082608774260482 0.0069283592315926325
1800000000.0 -0.11159305606025642 -0.015204897880416063
1820000000.0 0.1313759327057028 0.04044346055180009
1840000000.0 -0.08152747085166782 -0.14738627719806743
1860000000.0 -0.1436391067113756 0.13555242769869108
1880000000.0 0.08142182523941946 0.21542130803077444
1900000000.0 0.2644021220658838 -0.030421274849257895
1920000000.0 -0.04713150414182719 -0.29716986661502903
1940000000.0 -0.2995363211381345 -0.14859243100503625
1960000000.0 -0.2754937693964538 0.24488120576763603
1980000000.0 0.31581672521186627 0.2365035455058655
2000000000.0 0.3881258496752516 -0.15991486483768713
2020000000.0 -0.31295636115238074 -0.311846508113964
2040000000.0 -0.17550590919695 0.41831427742287586
2060000000.0 0.4491731082777462 -0.07693705373065701
2080000000.0 -0.21495186452789136 -0.39401439992532167
2100000000.0 -0.4120316399727552 0.14421444608443956
2120000000.0 -0.2647321467579396 0.32356909040265064
2140000000.0 -0.30989807923645185 -0.2532354156508397
2160000000.0 -0.34632667969023273 -0.16290000159319534
2180000000.0 -0.23173869665869393 -0.2832483278097704
2200000000.0 -0.19973219029563535 -0.29274267895003275
2220000000.0 -0.08545514165834903 -0.3358585153401439
2240000000.0 -0.30707689474150296 -0.1658735363601742
2260000000.0 -0.3161001590444924 0.15981745556148075
2280000000.0 0.14251878982196342 0.3341794302170657
2300000000.0 0.13907849648345944 -0.35161927166078727
2320000000.0 -0.37461065481618555 0.1436023848273204
2340000000.0 0.34611030434965295 0.25483332311166335
2360000000.0 -0.24651713726108648 -0.39837207741017194
2380000000.0 0.1747656344642556 0.48215613192926304
2400000000.0 -0.23602200007930757 -0.5100954543777338
2420000000.0 0.46894162651786336 0.3920688643740027
2440000000.0 -0.652767044022998 -0.07736282739650507
2460000000.0 0.6194111131179307 -0.3133729761744452
2480000000.0 -0.48166008567253155 0.5377453837047396
2500000000.0 0.5647402848544616 -0.4774504662560545
2520000000.0 -0.6945529087370608 0.27714244909457214
2540000000.0 0.7349380308082083 0.13569971398835895
2560000000.0 -0.2836760902690804 -0.6830177257961905
2580000000.0 -0.48288080915831405 0.5376673728186463
2600000000.0 0.6768543957696657 0.1668245371438364
2620000000.0 -0.18449042722920347 -0.6394258909322268
2640000000.0 -0.30962087752212736 -0.5463248422842955
2660000000.0 -0.34875325868772034 0.46833225184991095
2680000000.0 0.5221756988229542 0.13560788713742852
2700000000.0 -0.1606320935602389 -0.4682713735154781
2720000000.0 -0.1531571446046809 0.4217799717045305
2740000000.0 0.3652335970587674 -0.1786839619327799
2760000000.0 -0.36692541399700535 0.0401006084251469
2780000000.0 0.3393142999308622 -0.02154362162355258
2800000000.0 -0.26650458181896686 0.1720134656865105
2820000000.0 -0.03446118179192392 -0.29829903971004923
2840000000.0 0.26996424758512577 0.10509488773837149
2860000000.0 -0.24454029972189534 0.14801294469117737
2880000000.0 -0.013242424081223579 -0.28382091751276584
2900000000.0 0.0025990717771476827 0.2858019453267733
2920000000.0 0.22975916525362128 -0.1766181141023109
2940000000.0 -0.19654985908920397 -0.21986018455608886
2960000000.0 -0.2978153372385762 -0.020131057107714883
2980000000.0 -0.3043702361177317 -0.005511039791008779
3000000000.0 -0.21186186349291017 -0.22467593458516272
3020000000.0 0.0898392613738683 -0.29654760516348116
3040000000.0 0.2882568711637509 0.108441603571546
3060000000.0 -0.27184427392965976 0.13932092199926213
3080000000.0 0.16002861095080223 -0.2537263876206746
3100000000.0 0.0007726436638472803 0.29399025126189526
3120000000.0 -0.11586290910501855 -0.2594108296592603
3140000000.0 0.21619698443229823 0.16668285726797474
3160000000.0 -0.24005608338882206 -0.09380717616840034
3180000000.0 0.016171342102412306 0.2413259001127697
3200000000.0 -0.20040136114336754 -0.09007550775980033
3220000000.0 0.14418900422317424 -0.13079061228629232
3240000000.0 0.001126091930914084 0.16697454128200698
3260000000.0 -0.07717907231048249 -0.11430152501387873
3280000000.0 0.0994655367951174 0.043442849960761074
3300000000.0 -0.020642053057999977 0.07958285319903838
3320000000.0 -0.039155679253663776 0.035333981144214356
3340000000.0 0.024868141279670547 0.01212563574319321
3360000000.0 -0.007100150881457141 -0.0026549756831785675
3380000000.0 -0.013675910942325167 0.004260111568023868
3400000000.0 -0.026405124954320795 -1.5535467302196033e-05
3420000000.0 -0.03647363099054328 0.004854524182870588
3440000000.0 -0.03884722185133895 -0.015367311095299707
3460000000.0 0.019470475364172055 0.04299588572369612
3480000000.0 0.005577667637338499 0.05600830241058423
3500000000.0 -0.059173328751868454 -0.04132631115826585
3520000000.0 -0.015910301663578492 0.09051395922327182
3540000000.0 -0.10732393116089275 0.01054717347700219
3560000000.0 -0.06700754082631223 -0.10247695030492869
3580000000.0 0.1318038536361005 -0.03409618259545837
3600000000.0 0.06295397683300757 0.13848533134971894
3620000000.0 0.03641732351559567 0.1580347747868261
3640000000.0 -0.1721183755438347 -0.023078799872771585
3660000000.0 -0.16677274281318297 -0.07671322077903696
3680000000.0 -0.030676256777389836 -0.18549027253199088
3700000000.0 0.06490845923533718 -0.17753366972498963
3720000000.0 0.14993162406652655 -0.11306918619040196
3740000000.0 0.18190653883091376 0.0019209193354788653
3760000000.0 -0.17477965865530162 0.015422316197029759
3780000000.0 0.1649847857847686 0.012910941929105774
3800000000.0 0.055571803710062116 -0.14686551352514748
3820000000.0 0.004292991461113542 -0.1509818343282898
3840000000.0 0.08580942896486905 -0.11848529569673391
3860000000.0 0.13679113102058615 0.05421987674403396
3880000000.0 0.14609877183154893 0.0385469133377847
3900000000.0 0.02912206454618525 -0.15177644425426873
3920000000.0 -0.14586086956433778 0.06219856581426679
3940000000.0 0.13662289110304202 -0.09022111754992217
3960000000.0 0.16672558829215933 0.029339707101890922
3980000000.0 0.16715100399012273 -0.04153151207103671
4000000000.0 0.10455049592014602 -0.13043999317904076
