! Created with skrf (http://scikit-rf.org).
# Hz S RI R 50.0 
!freq ReS11 ImS11
400000000.0 0.16805167675809818 0.8563503355537952
420000000.0 0.6062218037905324 0.6103190901004419
440000000.0 0.7897607875208854 -0.24937079903143136
460000000.0 0.16506654915952143 -0.7712989009186229
480000000.0 0.4828186818918931 -0.5196406009105736
500000000.0 0.2335455257071392 -0.5126866808438537
520000000.0 0.005269022853014399 -0.48733997439870197
540000000.0 0.4067565339097144 -0.11729396920949942
560000000.0 -0.3100006070932336 -0.16328491647474402
580000000.0 -0.2490215946069943 0.21880972872717608
600000000.0 0.27310179283024794 0.1766339701063393
620000000.0 0.030085938000793573 -0.34644718266932634
640000000.0 -0.1958538719530428 -0.32724400012161314
660000000.0 -0.40136182839069035 0.001870261271716194
680000000.0 -0.014710591556092058 -0.4302947302589457
700000000.0 0.33401421219516475 0.3019412883258715
720000000.0 0.017014145719930766 -0.44845064102602483
740000000.0 0.4012547416538108 -0.1783271951163569
760000000.0 -0.3406530612718774 -0.23697021269257665
780000000.0 0.3202661369792204 -0.2093652195546007
800000000.0 -0.20532044187496984 0.28152124814332463
820000000.0 -0.19118195265933385 0.22025302270762304
840000000.0 0.07345431912722185 0.22592243721169614
860000000.0 -0.10001147152250554 0.1784436432331515
880000000.0 -0.14345808759917034 0.01909717592399961
900000000.0 0.07717073887338965 -0.018761517777998515
920000000.0 0.020113889648376206 -0.04366627802223147
940000000.0 -0.01250811648008164 -0.039761765845730865
960000000.0 -0.03439623282080113 0.042560353748376106
980000000.0 0.061113824142902146 -0.014438043136657582
1000000000.0 -0.051191626237653554 -0.045440926617467195
1020000000.0 0.05630013648603095 0.05452774418347956
1040000000.0 -0.04300747699875125 0.06815755402095619
1060000000.0 -0.10916919529741843 0.040881953703364345
1080000000.0 -0.08684747308220181 0.10033900798752572
1100000000.0 -0.12587364997579725 -0.09656447212008583
1120000000.0 -0.14209601113521333 -0.12553592148028064
1140000000.0 0.051821766579188085 0.2324096070842966
1160000000.0 0.284727077331882 -0.005343328943191029
1180000000.0 -0.033914642036608635 -0.32914045635552125
1200000000.0 -0.2512286759704656 -0.2673106783499314
1220000000.0 0.20982934403261808 -0.3370043009820388
1240000000.0 0.3067464749696833 0.28526811613359043
1260000000.0 -0.4100893210992733 -0.16045702682461943
1280000000.0 0.43703558072548476 0.11228490383911342
1300000000.0 -0.38135969982731716 -0.2427217458249751
1320000000.0 -0.12570012366724603 0.4208927785453544
1340000000.0 -0.2493836826983133 0.34139864477194415
1360000000.0 -0.31334450777141437 -0.26536135417372403
1380000000.0 -0.08571341251321046 -0.39927435494375946
1400000000.0 -0.09769801210406857 -0.3830003404562859
1420000000.0 -0.08101636004524335 -0.3741741577861102
1440000000.0 -0.23200751636119685 -0.2855683414244262
1460000000.0 -0.3410222883242601 -0.0685076869632723
1480000000.0 -0.13960374122744632 0.29861441042882436
1500000000.0 0.21265175503435102 -0.22231339251768958
1520000000.0 -0.2419867931868893 -0.1473455397049541
1540000000.0 -0.16593415256743912 -0.19581559531840173
1560000000.0 -0.22046218158329617 -0.007183354202015251
1580000000.0 -0.021352251343696785 0.18693883960646623
1600000000.0 -0.1475914427519852 -0.04464376374325275
1620000000.0 -0.11124805811041032 -0.01532226609270599
1640000000.0 0.07952194444557717 -0.025574189930677626
1660000000.0 0.033954221272542814 -0.047136476525543675
1680000000.0 -0.02854088996088556 0.010012502777647174
1700000000.0 0.01343136340396247 0.014722916632497125
1720000000.0 -0.016824328975534982 0.030292347355193837
1740000000.0 0.041216593185537366 0.0369877571785059
1760000000.0 -0.06922205986588363 -0.022019483718377298
1780000000.0 0.08824368679915605 -0.026824809164468565
1800000000.0 0.06848554765828868 0.09637605587755316
1820000000.0 0.0391840141932006 -0.12575559459493227
1840000000.0 0.13892375417171227 -0.07012621665892317
1860000000.0 0.17650072831404381 0.001871735460477895
1880000000.0 -0.15628894067190752 0.13660889162702697
1900000000.0 -0.2142747283259133 -0.12089198544690655
1920000000.0 -0.26292361688211446 0.12325176740843842
1940000000.0 0.029222766645119275 0.33483389525507
1960000000.0 0.24920655731423355 -0.2827474889923061
1980000000.0 -0.2840622668341711 0.29381024076608564
2000000000.0 0.43470046754642744 0.02503176769119708
2020000000.0 -0.4423847172440417 -0.10015145378720604
2040000000.0 0.25617813830692693 0.3809928863406932
2060000000.0 0.006476876843231744 -0.4570399928426249
2080000000.0 -0.41773080660369205 0.15062567823779854
2100000000.0 -0.159563403814707 0.3960982691840128
2120000000.0 -0.02785807718333671 0.404060996536308
2140000000.0 -0.2722758864598094 -0.27097174829370035
2160000000.0 0.028159640130597106 -0.36485468825634654
2180000000.0 0.3518974968618952 -0.037684077779543884
2200000000.0 0.24666505066542777 0.24259939694126195
2220000000.0 0.17771752386378897 0.3002879601331335
2240000000.0 0.25445882474182835 -0.2416236643251766
2260000000.0 -0.18787417295778938 -0.3021891670643654
2280000000.0 -0.2376521239931895 0.27302842582762177
2300000000.0 0.36679760785484145 0.07181492975971952
2320000000.0 -0.2146244537706265 -0.32858607734849876
2340000000.0 -0.3048902881652657 0.28573525401811534
2360000000.0 0.43029602216706375 0.14145981789597636
2380000000.0 -0.2746741785600471 -0.41556713274289253
2400000000.0 0.12701838095684687 0.5338692024888221
2420000000.0 -0.22575351103529678 -0.5580442377658411
2440000000.0 0.524335068628315 0.3904110493621859
2460000000.0 -0.6956954545029478 0.032361133478296826
2480000000.0 0.6115893982512711 -0.3992558382229172
2500000000.0 -0.6037085251322376 0.4502219722847148
2520000000.0 0.6601672447044759 -0.38709822659821547
2540000000.0 -0.7567483409373723 0.13347464297028838
2560000000.0 0.6635640891786061 0.3784017992176582
2580000000.0 -0.09101689627106309 -0.7441651338452816
2600000000.0 -0.5171801240913053 0.5095378263504535
2620000000.0 0.6864917004400878 0.11131950310128536
2640000000.0 0.6375987907743917 -0.1647267516729367
2660000000.0 -0.42506798059277145 -0.4457052095110898
2680000000.0 -0.14405443348792693 0.553377777086892
2700000000.0 0.3881017296344195 -0.3597609497351067
2720000000.0 -0.40609311599360265 0.2629386072512728
2740000000.0 0.36309014713196897 -0.24915685095877
2760000000.0 -0.14117363358139795 0.37281942916833993
2780000000.0 -0.21432012597920233 -0.2932288810947673
2800000000.0 0.3305689735414088 0.00554855521797335
2820000000.0 -0.22339706480362692 0.2090416610278385
2840000000.0 0.19812858849731607 -0.21054456791034845
2860000000.0 -0.23426824096163923 0.15960748912307707
2880000000.0 0.27090867748702213 -0.08125424551545136
2900000000.0 -0.2513772652296413 -0.14067625860784191
2920000000.0 -0.0905108973593069 0.2859212894236512
2940000000.0 0.29804926241045326 -0.08783826142806551
2960000000.0 -0.15219010520375031 -0.2798504691072489
2980000000.0 -0.3153041039446215 -0.08767369281401659
3000000000.0 -0.32990390568559685 0.01337242225980321
3020000000.0 -0.3151021145782933 -0.09395750667236893
3040000000.0 0.023842951703121524 -0.32183060272497016
3060000000.0 0.2544183186766739 0.18565954554705946
3080000000.0 -0.29732480666834443 -0.06885690138003497
3100000000.0 0.28759100200821175 0.06396962304297246
3120000000.0 -0.19558206025328742 -0.2035943056973032
3140000000.0 0.07107608217586063 0.2619807234612867
3160000000.0 0.1586572874369337 -0.20300303079195084
3180000000.0 -0.09911470656609671 -0.2238605257861048
3200000000.0 0.19133268141223153 0.1256882157752686
3220000000.0 -0.1296433160175341 0.1621998699035908
3240000000.0 -0.18459388498997123 -0.0039031839034324735
3260000000.0 -0.13533967814012693 -0.07631249799580471
3280000000.0 -0.05409095225934439 0.10975402686921709
3300000000.0 0.08692448723467479 -0.0140585763866422
3320000000.0 0.04608864809785176 -0.025841937522313337
3340000000.0 0.0018948498408552531 -0.023457769552343855
3360000000.0 0.014603402394555307 -0.0013290902409619236
3380000000.0 0.001680567509275322 -0.02649689938466794
3400000000.0 0.03210105698568111 0.013773390840200558
3420000000.0 0.028815256074099304 0.02607726626795596
3440000000.0 0.03332588672784976 -0.01482907390509972
3460000000.0 0.037570749980346554 0.011092794992165565
3480000000.0 0.045979464706027734 -0.03146764780215299
3500000000.0 0.06903086629361543 0.04017009801322121
3520000000.0 0.10363018258748129 -0.027027892381601613
3540000000.0 -0.12409980773624653 -0.027355994017360767
3560000000.0 -0.06592746991773933 0.12256447681529833
3580000000.0 -0.12220563623543722 0.08704887715806317
3600000000.0 -0.1311864682153789 0.09246756378704993
3620000000.0 -0.10789202026412831 -0.12517937228137588
3640000000.0 0.169045748050777 0.014573792855518563
3660000000.0 -0.1746591266672094 0.03142621805728655
3680000000.0 0.16655810436647506 -0.07475220832311966
3700000000.0 0.041707595851142885 0.1824860726997765
3720000000.0 -0.18781290141980342 0.04382701149412605
3740000000.0 -0.1632424720076125 0.10559509463160999
3760000000.0 -0.13232790617453488 -0.1378916245330291
3780000000.0 0.0775820759112192 -0.16471105222549065
3800000000.0 0.06973360058774396 0.15315310367895388
3820000000.0 0.15261349265997465 0.0007547129948289458
3840000000.0 -0.03736026358670347 0.13404250208937527
3860000000.0 0.10386982935032067 0.08610413683638408
3880000000.0 -0.07054725624738004 -0.12415810786452132
3900000000.0 -0.07266453567472933 -0.1357608049507775
3920000000.0 0.007819057127999083 0.1665712755791804
3940000000.0 -0.1223927856902474 0.12847553175146872
3960000000.0 0.09020332224646926 0.16248682511777007
3980000000.0 -0.13981933160712437 -0.11923499836079633
4000000000.0 -0.0738563566188104 0.155809982111581
