! Created with skrf (http://scikit-rf.org).
# Hz S RI R 50.0 
!freq ReS11 ImS11
400000000.0 -0.8114218752173444 0.2923442040267036
420000000.0 0.16584860270857424 0.8498327550613203
440000000.0 0.8257473542510189 -0.1440699764211885
460000000.0 0.32248306941863875 -0.7194334233421096
480000000.0 0.5911633778040705 -0.41823948489958357
500000000.0 -0.4959487246427423 -0.268219737003615
520000000.0 -0.4132482330513684 -0.2615785992094415
540000000.0 0.06490897473088397 -0.40720915361119914
560000000.0 -0.3393852716822401 -0.1437721699167849
580000000.0 0.08336126174887326 -0.30782413402205505
600000000.0 0.07899880515595185 -0.31850911310429036
620000000.0 0.31061483238229953 -0.1187451353641503
640000000.0 -0.33844400669002483 0.08173252392698642
660000000.0 -0.32446920375484456 0.20477630197820454
680000000.0 0.13546617260255683 -0.3821777535812317
700000000.0 -0.42961990999005406 0.09770374620825249
720000000.0 0.011292440922494257 0.4419585474306136
740000000.0 -0.38957978062395054 0.23722065764426545
760000000.0 -0.198656943312355 -0.3869735724494981
780000000.0 0.39958215924349433 0.0271091904878433
800000000.0 0.18846534632964806 0.3096229096022487
820000000.0 0.057325638111633236 0.29225163747068217
840000000.0 -0.011218502627055073 -0.2463352360137681
860000000.0 0.18207763329400145 -0.06333730282251405
880000000.0 0.005307632714036227 -0.1477177825385518
900000000.0 0.04532970947926406 0.04951620574909963
920000000.0 -0.03052797021923783 0.017835300648675483
940000000.0 -0.02403274854772479 0.0332261334757159
960000000.0 -0.039493801392141856 -0.032059751428746494
980000000.0 0.02133523618844921 0.05187976997886388
1000000000.0 -0.05254377238034035 -0.03609700545189798
1020000000.0 -0.01360100466149152 -0.06837965452507985
1040000000.0 -0.016550989194504637 0.0790322517253116
1060000000.0 0.08039854854435592 0.08230344312015668
1080000000.0 0.13150185677226814 0.042547936795346554
1100000000.0 0.08497010247053828 -0.13976361612995392
1120000000.0 -0.028199204385707714 -0.19736562255851844
1140000000.0 0.23138511821219326 0.08234971828001149
1160000000.0 0.048439700792951214 -0.28508629886023085
1180000000.0 -0.2750959445009341 0.18751273139235305
1200000000.0 -0.32706964432187613 0.16035909954745228
1220000000.0 -0.36783693169628384 -0.1494100079276299
1240000000.0 0.38480030742064564 -0.15146683210353037
1260000000.0 -0.34643671994918845 0.26504266990992936
1280000000.0 0.3984450637583784 -0.18353027961932186
1300000000.0 -0.24903675467162084 -0.36557662224481
1320000000.0 -0.41298182651993914 0.11761376213125402
1340000000.0 -0.16741011597721245 -0.38740751688081004
1360000000.0 0.2716539766920142 -0.3205498789996289
1380000000.0 0.2912733577125356 -0.30564832780360407
1400000000.0 -0.2784039354176118 -0.3019510748820803
1420000000.0 -0.39255869491701734 -0.06385352318644542
1440000000.0 0.06430911086941944 0.3712865934545219
1460000000.0 0.2876770032001615 0.19532719135516302
1480000000.0 0.21052480293711381 -0.2471545061075328
1500000000.0 -0.20626477666345105 -0.21327118334872466
1520000000.0 -0.24527785134970823 0.11057230417387992
1540000000.0 0.051580977288454725 -0.23903515998254954
1560000000.0 0.11755903900089196 -0.17553899551033564
1580000000.0 0.043036409500089266 -0.17391330958428194
1600000000.0 -0.016822304595803573 0.1456472268341875
1620000000.0 0.05333184377598743 -0.0987577241183894
1640000000.0 0.0117211127585251 -0.08368774754302952
1660000000.0 -0.06007768185273042 -0.00378446715818091
1680000000.0 0.011698877280459472 -0.02794889689857753
1700000000.0 -0.0012026828933450137 0.011268207440767461
1720000000.0 0.014198558868673187 -0.00847683344084862
1740000000.0 0.027421498195238675 0.02547233773076363
1760000000.0 0.008053843896896454 -0.056803335915458504
1780000000.0 0.024326611566540268 0.07782359903226523
1800000000.0 -0.11128425341397277 -0.028169571309084877
1820000000.0 0.13319955096738537 -0.04474876396674406
1840000000.0 -0.09366985443432134 -0.13870538074678077
1860000000.0 -0.08408474249552643 0.17606890480351
1880000000.0 -0.011864258802192816 0.22395819672072606
1900000000.0 0.03353411199965737 0.2588887997209722
1920000000.0 0.2842043491464223 -0.08756258417897349
1940000000.0 0.14580703618473423 -0.30043247618737207
1960000000.0 -0.36942253669857306 0.005882840093271902
1980000000.0 0.16557742923962737 0.3590504941687575
2000000000.0 0.39739043515429145 -0.13592882167068338
2020000000.0 -0.22249907812005454 -0.3804885627748854
2040000000.0 -0.15942311759061112 0.42214965444658525
2060000000.0 0.45356518830197984 -0.0007693175287593699
2080000000.0 -0.21353143631352764 -0.39607034239225125
2100000000.0 -0.3439915080214185 0.2694670229693025
2120000000.0 -0.09807716121486212 0.40591762814080645
2140000000.0 -0.3944984671386603 -0.05051688806367048
2160000000.0 -0.3780981347444432 -0.018971344611600723
2180000000.0 -0.1857458866800512 -0.31172695675928463
2200000000.0 -0.04218406228481095 -0.34868604299663614
2220000000.0 0.2287551701265727 -0.262119150267354
2240000000.0 -0.0764495477189923 -0.3418877436410509
2260000000.0 -0.2980597285280507 -0.19870545913658494
2280000000.0 -0.1198613587163071 0.3469239912420623
2300000000.0 0.36649248490896014 -0.10653454195945193
2320000000.0 -0.349179321443986 -0.2016232921668878
2340000000.0 -0.06616700210035131 0.42542892873475274
2360000000.0 0.2531718812198336 -0.39021955318872065
2380000000.0 -0.49498162472815704 0.11964780779870134
2400000000.0 0.5476378072841892 -0.11268517122417178
2420000000.0 -0.49761554316939205 0.3525383893999693
2440000000.0 0.16410519221798497 -0.6368233925497456
2460000000.0 0.3148480414207771 0.6206566472771163
2480000000.0 -0.6216033781153704 -0.37475603937937896
2500000000.0 0.6466905274063994 0.37002115352187903
2520000000.0 -0.6156756102421479 -0.43630946965510614
2540000000.0 0.39038175146096005 0.6472299395801611
2560000000.0 0.19213366734561835 -0.7250849311050439
2580000000.0 -0.6968311927151003 0.23385533705605918
2600000000.0 0.591300895834876 0.3948429360556183
2620000000.0 -0.045905808746884595 -0.6795552403824644
2640000000.0 -0.3261529770284507 -0.5556407189668074
2660000000.0 -0.2974617493160977 0.5208307200452699
2680000000.0 0.5534944400379788 0.05050589314894039
2700000000.0 -0.2651802569468294 -0.4374747510961984
2720000000.0 -0.03628523138482541 0.4645947461698155
2740000000.0 0.28660874275863607 -0.31210576112702965
2760000000.0 -0.30924426102073743 0.2289857325073493
2780000000.0 0.23109931523333355 -0.2655035530273059
2800000000.0 -0.11095282587953416 0.30630870271650307
2820000000.0 -0.12390106621123192 -0.2808727428912095
2840000000.0 0.2750419660129933 0.10349851002891118
2860000000.0 -0.24484050033850374 0.15102501128614712
2880000000.0 0.09820934719794565 -0.26761071157679295
2900000000.0 -0.053839543767662375 0.2792103571069669
2920000000.0 0.28898244006236995 -0.0003393605689577617
2940000000.0 -0.15261144256188713 -0.2524971523680291
2960000000.0 -0.27149365797970415 -0.12906181042407192
2980000000.0 -0.3016107260755338 0.05789960088415862
3000000000.0 -0.28695926837445906 -0.12018731062440041
3020000000.0 -0.08554205136792292 -0.30222148632208656
3040000000.0 0.3097239081037376 -0.02876602096877398
3060000000.0 -0.0017087742044814027 0.3092458923522337
3080000000.0 -0.1457033810411836 -0.26620726299963915
3100000000.0 0.24030611445741543 0.1727074949609316
3120000000.0 -0.2840123288966316 0.029757355198676796
3140000000.0 0.1640836343562284 -0.2183275009116887
3160000000.0 -0.18942842600719478 0.1722604591080024
3180000000.0 0.1555033734362776 0.18197758226024607
3200000000.0 -0.17432165117386383 -0.13117483838787822
3220000000.0 0.17947590787968426 0.07948931125388643
3240000000.0 -0.1346043426628462 0.1068957350219925
3260000000.0 0.017455588345422435 -0.144240582260553
3280000000.0 0.1154891580529586 0.012513238020576781
3300000000.0 0.08824705675566118 0.003362365569372449
3320000000.0 -0.03135891362333447 -0.04840280128909401
3340000000.0 -0.024715206840968666 0.016546002898207148
3360000000.0 -0.00240463021794557 0.012303914794700312
3380000000.0 -0.01984319969914804 -0.00018278405291946142
3400000000.0 -0.03173878892552184 -0.0023107412356466275
3420000000.0 0.002080258461455964 -0.041318382685060905
3440000000.0 -0.03379335960838625 -0.02871375783429671
3460000000.0 -0.013859460070421869 0.043164276556531
3480000000.0 0.04565820706697499 -0.026938903101527124
3500000000.0 0.06330687609468397 -0.028081473308951478
3520000000.0 -0.03531466001066061 -0.08586984057051796
3540000000.0 0.011982511728035083 -0.11287883210974994
3560000000.0 0.041773507861899865 -0.12374014829840799
3580000000.0 0.12630303684148567 -0.06875146903164488
3600000000.0 0.1480073326264102 -0.06282373302145507
3620000000.0 0.1196473123130453 -0.11803100420874395
3640000000.0 0.17434778889588465 0.0263729800174366
3660000000.0 0.09581959622741029 0.1535000629930884
3680000000.0 -0.18465693775711564 -0.006216338334916961
3700000000.0 0.032337619183855915 -0.18059889390241213
3720000000.0 0.11231910599398492 0.1472196310806485
3740000000.0 -0.13443828974575533 0.1255474785611577
3760000000.0 0.09979164354270663 -0.15193058709089158
3780000000.0 -0.06798851403423532 0.16272145993289402
3800000000.0 0.015246549206719433 -0.1678201508001365
3820000000.0 -0.15891508073188798 -0.013578256868761159
3840000000.0 -0.14718306327899483 -0.017275747611467888
3860000000.0 0.08742444638399932 -0.1140605162900488
3880000000.0 0.035433178045628906 0.14308713299172618
3900000000.0 -0.04283225166970427 0.14619735221159377
3920000000.0 0.0796728310862999 0.1394797435424435
3940000000.0 -0.17148036741158668 -0.020802857983779188
3960000000.0 -0.1807955350510326 -0.00773105694940463
3980000000.0 0.17445495326829877 0.0574328631101289
4000000000.0 0.03043851361385295 -0.17271510514278143
