! Created with skrf (http://scikit-rf.org).
# Hz S RI R 50.0 
!freq ReS11 ImS11
400000000.0 -0.8013503431004486 0.3197989504727192
420000000.0 0.16908420064503674 0.8485691046685837
440000000.0 0.8152184683691406 -0.19567990134298982
460000000.0 0.282909761140686 -0.7355066488286878
480000000.0 0.5934383332427787 -0.4152232598110513
500000000.0 -0.47606940636343054 -0.30348260815212486
520000000.0 -0.4342527148495005 -0.22316714359666975
540000000.0 0.08307567932407493 -0.4042905609555197
560000000.0 -0.354906442657591 -0.09612424579568671
580000000.0 0.11588499760676839 -0.2983363001827102
600000000.0 -0.023911292020053935 -0.3272144319980571
620000000.0 0.3161222268490698 -0.10027479675777529
640000000.0 -0.34889989641297636 0.008443225352501374
660000000.0 -0.28473144375235027 0.25607577483651184
680000000.0 0.16828743568256166 -0.3677292153229028
700000000.0 -0.43264544566135765 0.07773492282819351
720000000.0 0.030213262261140936 0.44201878964616476
740000000.0 -0.38300537218183106 0.24792770126562022
760000000.0 -0.16251312887358216 -0.4034831314028574
780000000.0 0.4005667621276656 0.003349844487870316
800000000.0 0.17633475984704336 0.31700299857221803
820000000.0 0.058608142791925597 0.292659969741521
840000000.0 -0.0344858428521434 -0.24419727714095896
860000000.0 0.18034217176300896 -0.06982575442114197
880000000.0 -0.050054342481070366 -0.13999337594568248
900000000.0 0.028929785617916193 0.06174669323953475
920000000.0 -0.03141933894915176 0.016333755352748277
940000000.0 -0.0018669994561590119 0.04063796302476916
960000000.0 -0.04549326624581689 -0.02341076789475459
980000000.0 0.029019663655559528 0.0480195539850894
1000000000.0 -0.06180090253677551 0.013756148711267284
1020000000.0 -0.013986431104100448 -0.06855141381273555
1040000000.0 -0.00766609594524487 0.08041442503484192
1060000000.0 0.07428770644393153 0.08823625029459391
1080000000.0 0.13367581662126202 0.03488735084030039
1100000000.0 0.08656070980256905 -0.13852725359462217
1120000000.0 0.0030115997010556473 -0.19905849972805742
1140000000.0 0.2339525201230723 0.07454210262748344
1160000000.0 0.06620899302305185 -0.2811547068517372
1180000000.0 -0.266212275941744 0.19944893510252648
1200000000.0 -0.3393712439197955 0.13129004126441712
1220000000.0 -0.3623946812961624 -0.16200933390839478
1240000000.0 0.3973804944488974 -0.11529721973300279
1260000000.0 -0.3494755414930856 0.260286953327398
1280000000.0 0.40058882292853404 -0.1789988201968787
1300000000.0 -0.25834978651996265 -0.3584602543632469
1320000000.0 -0.4028099761029065 0.1482472427529242
1340000000.0 -0.17774794617884468 -0.3830697927526518
1360000000.0 0.2554887543579064 -0.33356699610215007
1380000000.0 0.2834265828052024 -0.31327302772009485
1400000000.0 -0.2830543549188065 -0.29719748034801396
1420000000.0 -0.3966903940682146 -0.026455324271916558
1440000000.0 0.06850445857820545 0.3701514945320951
1460000000.0 0.29233911323021955 0.18860778553259966
1480000000.0 0.18575915289473136 -0.2658692448115464
1500000000.0 -0.19571925238511062 -0.22329720273265485
1520000000.0 -0.2623583632318766 0.06039124679257452
1540000000.0 0.017812948074505976 -0.24429806895430276
1560000000.0 0.11796640111980553 -0.17507215346822122
1580000000.0 0.047891619818417025 -0.17311873848996367
1600000000.0 -0.020467201202730774 0.14600993974183085
1620000000.0 0.037731950766785705 -0.10568590041273623
1640000000.0 0.005503613824402663 -0.0841175582249585
1660000000.0 -0.059951582042535506 0.0010674180955689944
1680000000.0 -0.006051922735833949 -0.029922392981944983
1700000000.0 0.0059831279725384694 0.009770038018352004
1720000000.0 0.01671821760242107 0.0023671034655698975
1740000000.0 -0.015018426718271749 0.03423221173949732
1760000000.0 0.026050617670506607 -0.05101528558278194
1780000000.0 0.0072172647016631964 0.080638633180516
1800000000.0 -0.10767793721077441 -0.03959313863930409
1820000000.0 0.12869336003644047 -0.05625704537228077
1840000000.0 -0.08930885897027441 -0.14175699274732384
1860000000.0 -0.05078448666929989 0.1887531780911739
1880000000.0 0.010933632662002538 0.22445188503665875
1900000000.0 0.03439944501533105 0.25882611017003376
1920000000.0 0.28762722197276724 -0.07496765724630647
1940000000.0 0.11882313036775544 -0.3120835468975762
1960000000.0 -0.36869232401627866 -0.013307864363672678
1980000000.0 0.1765678565411972 0.354028584044258
2000000000.0 0.3956411160949205 -0.1418517352537292
2020000000.0 -0.2517456608478273 -0.3619305104847358
2040000000.0 -0.2197450876740474 0.3951612507424648
2060000000.0 0.45360698453351167 0.0025914657178853022
2080000000.0 -0.18174778882134213 -0.41269681553912685
2100000000.0 -0.3683340216329716 0.23671681400987432
2120000000.0 -0.11199310737691844 0.4027566877490779
2140000000.0 -0.3936867969891267 -0.05754788568226147
2160000000.0 -0.3774636588491199 -0.028440601932508077
2180000000.0 -0.17493365260693702 -0.31802950390968404
2200000000.0 -0.035856601669865866 -0.34861190062350766
2220000000.0 0.2524733327584573 -0.23874498532956473
2240000000.0 -0.017052421885847702 -0.3494349524974798
2260000000.0 -0.2968124537499307 -0.20005379909288284
2280000000.0 -0.1493572768963482 0.3347563497875148
2300000000.0 0.3726425785299693 -0.08113468776240028
2320000000.0 -0.3465558715152064 -0.20581788328434325
2340000000.0 -0.07502065627685428 0.42366328060369696
2360000000.0 0.26265896301023856 -0.38364199910687813
2380000000.0 -0.4965084117119922 0.11297878897261009
2400000000.0 0.5451764340385569 -0.12437587706230292
2420000000.0 -0.5019602748346557 0.3466912667538281
2440000000.0 0.16207616062791483 -0.6374881459290203
2460000000.0 0.2951054179634359 0.631095989489854
2480000000.0 -0.6138181306692427 -0.38842340245603907
2500000000.0 0.6357359913106632 0.38982674515332
2520000000.0 -0.5951771915983001 -0.46516947337943515
2540000000.0 0.3535801616532226 0.6688678295540029
2560000000.0 0.228995391616163 -0.7144021209193357
2580000000.0 -0.6923479860347264 0.24793410059350818
2600000000.0 0.558387819815122 0.43993591562108236
2620000000.0 -0.006199051413022868 -0.6804929976260463
2640000000.0 -0.29298401555841425 -0.5725925221122256
2660000000.0 -0.33502144207577206 0.4964376264182382
2680000000.0 0.5531013020431126 0.045344020349441995
2700000000.0 -0.2775479403930988 -0.42926616118434197
2720000000.0 -0.005948971263978746 0.46526138514477056
2740000000.0 0.2584814173053941 -0.33495722107024856
2760000000.0 -0.29467547822956 0.24773961520916582
2780000000.0 0.18838776828375295 -0.2978908996843488
2800000000.0 -0.07197261526282177 0.3177494265395259
2820000000.0 -0.16698407698030607 -0.2574064237351714
2840000000.0 0.28544042261214614 0.07177474375686099
2860000000.0 -0.24534308648769898 0.15096250205580278
2880000000.0 0.09989194229686267 -0.26742533832160065
2900000000.0 -0.10666572219836208 0.26364753906682253
2920000000.0 0.28940035365481226 0.00441406735316828
2940000000.0 -0.05768460457898593 -0.28912393474680853
2960000000.0 -0.26341588736275545 -0.14412121800591848
2980000000.0 -0.30629612742319035 0.018817520638946067
3000000000.0 -0.2880218033827841 -0.11733595178110434
3020000000.0 -0.12839505961326736 -0.2863441558848457
3040000000.0 0.29982622987459895 -0.08053675285460726
3060000000.0 -0.017072216014237657 0.3088781730364898
3080000000.0 -0.1590240296935206 -0.25840508595165607
3100000000.0 0.27341976282526426 0.11397448742323459
3120000000.0 -0.2840236099405586 0.035635874068930935
3140000000.0 0.196390608607303 -0.1901712904257295
3160000000.0 -0.17203924942223214 0.18959119939155186
3180000000.0 0.1506475069748069 0.18598379522389297
3200000000.0 -0.172365341694393 -0.13376436644713707
3220000000.0 0.18703901604836204 0.06220067390282218
3240000000.0 -0.14251720220596575 0.09636022441927834
3260000000.0 0.014989873998200263 -0.14470445091042722
3280000000.0 0.11632007267955169 -0.0028575236521650484
3300000000.0 0.08092368921217051 0.035055611883162315
3320000000.0 -0.03699289886067172 -0.04392918766561967
3340000000.0 -0.008262638044188017 0.028160692294993295
3360000000.0 0.011052446922848737 0.005790495676203598
3380000000.0 -0.008788366380186452 0.01827730765658056
3400000000.0 -0.011159551194749782 -0.030132684737874737
3420000000.0 0.038153255534958505 -0.018055224383047602
3440000000.0 -0.03247263828309644 -0.03081272799814061
3460000000.0 -0.03320225547579626 0.03178857752966035
3480000000.0 0.05345517606340306 -0.006423644355626779
3500000000.0 0.068215615640926 0.014360236892959021
3520000000.0 -0.003429667066542473 -0.09302902014520836
3540000000.0 0.061733110265569255 -0.09541881072067279
3560000000.0 0.09606547416765622 -0.08927343453411953
3580000000.0 0.14281483309310278 -0.019669830442059572
3600000000.0 0.1519369974146447 -0.0530609032295761
3620000000.0 0.16167632713943292 -0.04758523491000368
3640000000.0 0.17307645285473267 0.03474919249296263
3660000000.0 0.026108407166021048 0.1795063146165962
3680000000.0 -0.17782040057760531 -0.04719290033660766
3700000000.0 0.05755087962320199 -0.17402301779433738
3720000000.0 0.07475638896298033 0.1687863383132847
3740000000.0 -0.13847710635290825 0.11930952914959284
3760000000.0 0.09101352754639429 -0.15579025760117002
3780000000.0 -0.026599494550864505 0.17283085441509516
3800000000.0 0.02833934057395928 -0.16557147756199692
3820000000.0 -0.14873764173389056 0.05471993889015128
3840000000.0 -0.13408230343249417 0.06214363912306193
3860000000.0 0.04593317687255762 -0.1356605058622638
3880000000.0 0.09743272035372726 0.10924745796175132
3900000000.0 0.02934074117556958 0.14856239311211453
3920000000.0 0.11035727855039895 0.11580471595920629
3940000000.0 -0.15832578639670064 0.06601490654401336
3960000000.0 -0.162672746751522 0.08056990588460035
3980000000.0 0.1840095736075855 -0.012069061968942049
4000000000.0 -0.0153481904793981 -0.17528084689575282
