! Created with skrf (http://scikit-rf.org).
# Hz S RI R 50.0 
!freq ReS11 ImS11
400000000.0 -0.5773396022393539 0.6342657380120916
420000000.0 -0.08172837452171694 0.8618165347681432
440000000.0 0.837851609943276 0.012338029342093769
460000000.0 0.12883922174714815 -0.7883061466346792
480000000.0 0.2528981813481386 -0.684393287744625
500000000.0 -0.3243255504997989 0.4667226546438677
520000000.0 -0.47344381287072124 0.007418455714510018
540000000.0 0.4094056432919193 0.08388396862227931
560000000.0 -0.3153673480701089 -0.16079271804450992
580000000.0 0.33030150630798 -0.04214383561773627
600000000.0 -0.13252864824176883 -0.29650562833020505
620000000.0 -0.02106230742070434 0.3385412701417403
640000000.0 -0.19018557756138235 0.30903137448602475
660000000.0 -0.22373598909690454 0.30801683910520733
680000000.0 -0.1480216024142774 -0.3805612600406134
700000000.0 -0.3975220039115045 0.1617694671616698
720000000.0 -0.008638249294835353 0.43993019428443497
740000000.0 -0.30817235450109404 0.31770449213457225
760000000.0 0.277718891622651 -0.3250895664795613
780000000.0 0.39453115116832554 0.027643834344599025
800000000.0 -0.12655200666664848 0.3381321944270418
820000000.0 0.00185529680674312 0.3031955240859237
840000000.0 -0.0865813593513078 -0.22907120236170186
860000000.0 0.009812737929531981 0.19745168701503488
880000000.0 -0.008323774608906554 0.15578516911011575
900000000.0 0.06383433035425914 0.050620204661935966
920000000.0 -0.046150937229161845 0.014123992167486209
940000000.0 0.03643233155909723 -0.007842993925486307
960000000.0 0.04823577991913922 -0.006244291876159616
980000000.0 -0.04265550948338619 0.04679316869084593
1000000000.0 -0.03184607728671463 -0.060174445354672694
1020000000.0 0.05252019004416307 -0.0639103486139521
1040000000.0 0.07746458936432861 -0.04447026745103725
1060000000.0 -0.03471365750163454 -0.12453814239544157
1080000000.0 -0.007019400261005822 0.14701811446381677
1100000000.0 0.07607072084391209 0.15836726690902833
1120000000.0 0.1807547503956072 -0.08568193707589078
1140000000.0 -0.17076962911758448 -0.16956278662566188
1160000000.0 -0.24264482807388635 0.14346675542506243
1180000000.0 -0.11395846268535975 0.29829802027838886
1200000000.0 -0.22019995842378667 0.2732532538996767
1220000000.0 -0.07076783987924283 -0.37243691404051205
1240000000.0 0.2535028105173485 0.3138068519784741
1260000000.0 -0.1540383171309237 -0.3974841284789791
1280000000.0 0.001307538716224267 0.4405449617830627
1300000000.0 0.27889031561972205 -0.35058591307409265
1320000000.0 -0.3651150460296227 -0.24853350292695603
1340000000.0 -0.2740377553066675 -0.33754536566251864
1360000000.0 0.016406355724185317 -0.42937842282042743
1380000000.0 -0.23734263272179268 -0.3589673939883948
1400000000.0 -0.3307011421203475 0.252849561104505
1420000000.0 0.010721851324757104 0.3980404735515663
1440000000.0 0.3708361661519021 0.026593556108278495
1460000000.0 0.27310579474511176 -0.2042441048119278
1480000000.0 0.15482734571777765 -0.27271620075670494
1500000000.0 -0.014707055762650917 -0.2852504386354182
1520000000.0 -0.22769040998766668 0.1277275657855419
1540000000.0 0.16264349190227034 0.17424728906746262
1560000000.0 -0.07975138778264958 0.19266162121196242
1580000000.0 -0.13737756437852508 0.11809641587986525
1600000000.0 0.14466106849185847 -0.03827025102450655
1620000000.0 -0.10047513278340492 -0.057989099330416176
1640000000.0 -0.08869492321861216 -0.014533561767281019
1660000000.0 0.004974377116570404 -0.06634642940070966
1680000000.0 -0.02189443856553062 0.03329692648978775
1700000000.0 -0.019627596647612232 -0.007171181748673545
1720000000.0 -0.010165294217446103 -0.011500947654800416
1740000000.0 0.030280183324223556 -0.0013083339936107346
1760000000.0 -0.036632668868292 -0.03633409331822081
1780000000.0 0.0767441587500513 -0.024789079478835317
1800000000.0 -0.11104355771492522 -0.03188855269934636
1820000000.0 -0.11582807826330302 -0.08852824150816511
1840000000.0 0.16171068183753226 -0.07681191091092536
1860000000.0 -0.12123499775991797 0.1697457845269955
1880000000.0 0.24000109004094636 -0.006329725577793739
1900000000.0 -0.11187301016556851 -0.24863500443413325
1920000000.0 -0.2568770072772306 0.16160612937455515
1940000000.0 -0.06287675632689878 0.3256565805830203
1960000000.0 0.14993541638627425 0.3297140996132435
1980000000.0 0.3854070411851422 -0.020293271325072314
2000000000.0 0.3679106209057146 -0.18094286205117296
2020000000.0 -0.11760266373327731 -0.41644892396910876
2040000000.0 -0.4278026574162615 0.13127590165667413
2060000000.0 0.23236384025741746 0.3885185809409378
2080000000.0 0.3159459522382803 -0.3220113209799073
2100000000.0 -0.3415579133831248 -0.2827400865848493
2120000000.0 -0.4190420769177221 0.08136664180050623
2140000000.0 -0.31316698463449494 -0.2643602685017511
2160000000.0 -0.38801295490876914 0.042500012236928966
2180000000.0 -0.36890092502681643 -0.03597585939413287
2200000000.0 -0.3390755114004731 0.10564722071498418
2220000000.0 -0.3092297875592542 -0.14811057756010315
2240000000.0 -0.3413313579068933 0.03811634194745513
2260000000.0 -0.3052973831003257 0.1637446096623531
2280000000.0 -0.02518944135669975 0.3561125780963377
2300000000.0 0.3467561022257974 -0.13507647117570856
2320000000.0 -0.3380427185594704 -0.21069887956814182
2340000000.0 0.10535439655216403 0.4169433230919688
2360000000.0 -0.015951718017977675 -0.4706845400163682
2380000000.0 0.005994100080431368 0.5156881386822575
2400000000.0 -0.132508111468336 -0.549920867617334
2420000000.0 0.48536337075313246 0.3761140936301594
2440000000.0 -0.6585826290843105 -0.03153760827809249
2460000000.0 0.6109974159221052 -0.3325522724634626
2480000000.0 -0.49391288234304165 0.5282201304774881
2500000000.0 0.5762194584550286 -0.46519516414422696
2520000000.0 -0.7158943383711628 0.22071372761702593
2540000000.0 0.7097373019743876 0.23922879145717768
2560000000.0 -0.23540546687487682 -0.7029023070356241
2580000000.0 -0.5301818119335473 0.4936542693129384
2600000000.0 0.670789648734444 0.195985507079778
2620000000.0 -0.12382175665763719 -0.6552270021990441
2640000000.0 -0.35206198618798007 -0.5204682298533548
2660000000.0 -0.31267345173043454 0.491711261046101
2680000000.0 0.5189043928951602 0.13713411892758348
2700000000.0 -0.09703898299595853 -0.481531882703318
2720000000.0 -0.2900134328928168 0.3378953580109362
2740000000.0 0.3946039675328033 0.09032036716167517
2760000000.0 -0.26845855385266565 -0.25436316302909273
2780000000.0 0.22812733164745333 0.25562451357184157
2800000000.0 -0.3218036265883029 -0.017962165800186593
2820000000.0 0.03174294810489955 -0.3053944112927768
2840000000.0 0.2965307374950429 0.00807443057702051
2860000000.0 -0.060212721195551884 0.28587503648001084
2880000000.0 -0.27989078898421177 -0.07074319169317977
2900000000.0 0.2866872739654456 0.025829392043835574
2920000000.0 -0.1699473683657781 -0.23334007421429845
2940000000.0 -0.2604329764650925 0.1278264580839378
2960000000.0 -0.2735622299452401 0.10368347239414244
2980000000.0 -0.2922742037054073 -0.05877973329278341
3000000000.0 0.03947424778158585 -0.30068945445376777
3020000000.0 0.3073398849535123 0.01395243995072242
3040000000.0 -0.1439702976240067 0.27332743839237134
3060000000.0 -0.20554778099875862 -0.23114925599200922
3080000000.0 0.30364462797513725 -0.038667105480020746
3100000000.0 -0.10977019272422735 0.28034612098675327
3120000000.0 -0.16225339308868328 -0.2423995600459782
3140000000.0 0.25848933858560735 -0.10515433364238161
3160000000.0 -0.19547053702765735 -0.17153609327452804
3180000000.0 0.2254329493269265 -0.08417283484389845
3200000000.0 -0.023711846478659294 0.2129650638469011
3220000000.0 -0.03847977514135594 -0.1817904306756968
3240000000.0 -0.05261378047590653 0.14709929463021876
3260000000.0 0.09922041913515131 0.08236605285636733
3280000000.0 0.09961379640403999 -0.030278029012581285
3300000000.0 -0.08402985202793442 0.0036801826324599387
3320000000.0 -0.030359373648782568 -0.05139586199769354
3340000000.0 -0.009959175390248263 0.03686021930961927
3360000000.0 0.01758033273765382 0.006035797944564743
3380000000.0 0.014863361443686031 -0.009154589110868356
3400000000.0 0.021933144235825288 0.020534440974493754
3420000000.0 -0.007725383247131613 0.044388462967412695
3440000000.0 0.049145339721710625 -0.01815954484543296
3460000000.0 -0.0068189866241383625 0.05629561970284317
3480000000.0 -0.005048233263086596 -0.0593455214910377
3500000000.0 -0.06661664784894852 0.006251324461341253
3520000000.0 0.07021738922915881 0.04219541790217549
3540000000.0 0.03864859692360741 -0.09129173281418848
3560000000.0 -0.037284633006332626 0.11105080984589935
3580000000.0 -0.10379452719051126 -0.08813024711561153
3600000000.0 -0.10753994838291273 -0.11546159712730608
3620000000.0 -0.15725867738545912 0.06637384699384523
3640000000.0 -0.1765861385856126 0.046474418659168695
3660000000.0 -0.06953667074036496 0.1764131641025052
3680000000.0 -0.11509219451575094 0.15008627613078507
3700000000.0 -0.18250190611590558 0.03286394167262641
3720000000.0 -0.03684279984925426 -0.17676861449886397
3740000000.0 0.16987075564231108 0.0366703929067105
3760000000.0 -0.022061442864356073 -0.1678310096859989
3780000000.0 -0.13809534646940244 0.086181199749542
3800000000.0 0.025788762255992907 0.1572205970819576
3820000000.0 0.15474342615504044 -0.026720224151008574
3840000000.0 -0.00034558576057145876 -0.15237393466672391
3860000000.0 -0.030175329109917808 -0.14745931310256843
3880000000.0 -0.07984680251372783 -0.12672949664288413
3900000000.0 -0.12356518335929532 -0.08376277893928882
3920000000.0 -0.132015103359043 0.07518927943777787
3940000000.0 0.10123298678466011 0.12210472764929407
3960000000.0 -0.10432004243869927 0.1301882027414156
3980000000.0 -0.026597295760577986 0.1707537922412285
4000000000.0 0.13681326692581544 0.10069809094785259
