! Created with skrf (http://scikit-rf.org).
# Hz S RI R 50.0 
!freq ReS11 ImS11
400000000.0 -0.5803708186955527 0.6320774217617587
420000000.0 -0.04500355191421083 0.8650178830979952
440000000.0 0.8383073047900342 -0.014058869487207035
460000000.0 0.08653931398632975 -0.7938384411051757
480000000.0 0.25853197037193215 -0.6817998689505914
500000000.0 -0.2946045687872429 0.48654314292217277
520000000.0 -0.46942480255836505 0.05294500446508432
540000000.0 0.39657244748239606 0.12453957882404645
560000000.0 -0.29433361068802316 -0.1963523559856496
580000000.0 0.33137901973603695 0.033760125430332674
600000000.0 -0.10927809724114539 -0.30600096565765406
620000000.0 -0.03613754668640015 0.3377632816447204
640000000.0 -0.20185504917274608 0.30114179093441
660000000.0 -0.24145515226426348 0.29438631700081286
680000000.0 -0.15008491392106144 -0.37989870351802374
700000000.0 -0.397749202210041 0.16184382110568793
720000000.0 -0.010091705004570914 0.43973701273832927
740000000.0 -0.29049672808050314 0.3328521567835772
760000000.0 0.26351091589490105 -0.33630092638299575
780000000.0 0.39467146303965517 0.030555647914337097
800000000.0 -0.1555088594876142 0.3261462841531668
820000000.0 0.004051755515936487 0.30315471806160965
840000000.0 -0.06488526079754348 -0.23597154754956498
860000000.0 0.009265319199344596 0.1976973815843602
880000000.0 0.004668630208021094 0.1558582369685654
900000000.0 0.060373419908671046 0.054584816493465825
920000000.0 -0.03358435793195175 0.034494655272900104
940000000.0 0.03708421413109049 0.0018975004939056205
960000000.0 0.04868922625341016 -0.00023174190390136016
980000000.0 -0.0327695087988429 0.05412296519973346
1000000000.0 -0.0445190759756615 -0.05167563621866498
1020000000.0 0.047380332916282415 -0.067496639583296
1040000000.0 0.08363823555083058 -0.030594126056767087
1060000000.0 -0.01998956214669771 -0.1275267560476967
1080000000.0 0.005133465096334297 0.1472898356577875
1100000000.0 0.059563409259354216 0.1653584859671647
1120000000.0 0.18440727958728972 -0.07721639363764217
1140000000.0 -0.1764766675661308 -0.1634798531065877
1160000000.0 -0.23816983529872868 0.15091364460826212
1180000000.0 -0.12244988477765766 0.2946812790675501
1200000000.0 -0.2256753601641203 0.2685226930549285
1220000000.0 -0.039704361845603955 -0.3768571052251799
1240000000.0 0.24914402188864665 0.3171056868312044
1260000000.0 -0.17152426769821733 -0.3903809013314741
1280000000.0 -0.007674362838956334 0.44057873641898454
1300000000.0 0.29941076384089127 -0.33315790986002747
1320000000.0 -0.3626265833800223 -0.25249223382309555
1340000000.0 -0.2748221562320948 -0.3370147229188627
1360000000.0 0.018466515481729256 -0.4293245469226684
1380000000.0 -0.23088388345547087 -0.3633638209850604
1400000000.0 -0.3253932314375662 0.2594890612826838
1420000000.0 0.0011336946324102522 0.39810206316968577
1440000000.0 0.37072909540074767 0.02552585636778279
1460000000.0 0.27912967891291196 -0.19568153149005904
1480000000.0 0.1793833221158123 -0.25716888034966245
1500000000.0 -0.01667349528013687 -0.2846765884133072
1520000000.0 -0.22122826320835628 0.13827526249394748
1540000000.0 0.1640863534245889 0.17325961789682043
1560000000.0 -0.07751935119001052 0.19392377178111436
1580000000.0 -0.16924408208346908 0.06617071097191918
1600000000.0 0.13555400365139553 -0.06371932074909194
1620000000.0 -0.07593488613774278 -0.08760957177128294
1640000000.0 -0.08455448406740076 -0.030499424012036046
1660000000.0 0.0015504290015523026 -0.06653684847443952
1680000000.0 -0.03200938066189759 0.023288373282601617
1700000000.0 -0.01971842960113243 0.007016951134480742
1720000000.0 -0.011839192770039442 -0.009928221522907227
1740000000.0 0.025391253352250554 -0.01652433346232473
1760000000.0 -0.050138091784863684 -0.013801819380578902
1780000000.0 0.07909161179119523 -0.016465102950696565
1800000000.0 -0.11354368495873032 -0.023150642604593742
1820000000.0 -0.10534501541449222 -0.1002779208520932
1840000000.0 0.1643298218161949 -0.07103027381515341
1860000000.0 -0.12152737365504195 0.16969631389654727
1880000000.0 0.23987469205108297 -0.005567211558187485
1900000000.0 -0.11995161422132676 -0.24469771304089055
1920000000.0 -0.25175897995904273 0.16941987472193262
1940000000.0 -0.06338925392113008 0.32548695123876936
1960000000.0 0.1505869448606572 0.3293518502113183
1980000000.0 0.385094183003941 -0.02684787153742586
2000000000.0 0.3548578735260502 -0.20511409173156783
2020000000.0 -0.11091941515928004 -0.4184534818567055
2040000000.0 -0.4351198811492699 0.10587802833290803
2060000000.0 0.22190979275576825 0.3947666562966712
2080000000.0 0.3015282297976487 -0.33558862192266153
2100000000.0 -0.3367205190413633 -0.28888993545007036
2120000000.0 -0.40717437491097713 0.12793031383194925
2140000000.0 -0.29915956701190854 -0.2804119361325895
2160000000.0 -0.38719074733398295 0.04934313119028049
2180000000.0 -0.37056937863510536 -0.008330646025584422
2200000000.0 -0.3409518104335389 0.09919127884199788
2220000000.0 -0.30590077218868755 -0.15452890026205743
2240000000.0 -0.34246679155545134 0.02192004063635887
2260000000.0 -0.3026522033022401 0.16911728960204625
2280000000.0 0.005109795705838934 0.3573952086110825
2300000000.0 0.3370452298176283 -0.15918608170305143
2320000000.0 -0.34572289951919066 -0.1986592863656859
2340000000.0 0.0971229996664938 0.4187834128166458
2360000000.0 -0.0225219686731167 -0.47044815087840536
2380000000.0 0.02459868065402901 0.5153960637833909
2400000000.0 -0.18525832617239368 -0.5346101274548273
2420000000.0 0.48730687248231147 0.3737954175767384
2440000000.0 -0.6586805752720759 -0.03369622786579032
2460000000.0 0.5944958862658122 -0.3616219799487262
2480000000.0 -0.4911552995510399 0.5310890066558175
2500000000.0 0.5576648865055651 -0.4874271013635531
2520000000.0 -0.7016677202327702 0.26223303121210323
2540000000.0 0.7274082206140777 0.17726958633842943
2560000000.0 -0.2784518690627293 -0.6865231486365455
2580000000.0 -0.520830150188057 0.5032154000739669
2600000000.0 0.673631056833764 0.18503163571805567
2620000000.0 -0.21747960943961847 -0.6300004396707353
2640000000.0 -0.3797518144219417 -0.5002833205907378
2660000000.0 -0.29358101971481404 0.5032936054244828
2680000000.0 0.5306972240443606 0.07995268177273596
2700000000.0 -0.10920110944281543 -0.47883421309067914
2720000000.0 -0.29810408586652165 0.33034709931256695
2740000000.0 0.3936643851824671 0.09271048911851501
2760000000.0 -0.2752897561807555 -0.24650313072987498
2780000000.0 0.24229824416491663 0.24183929290619102
2800000000.0 -0.32087318565809547 -0.028880508921483333
2820000000.0 0.0343348294642043 -0.30493600349715994
2840000000.0 0.2962911200161142 0.003990073589310618
2860000000.0 -0.05858293016757477 0.28575324427523807
2880000000.0 -0.2791421900822131 -0.07242809114587673
2900000000.0 0.28686231452855754 0.02056993299332611
2920000000.0 -0.1659245770594614 -0.23591228009535353
2940000000.0 -0.2720068065521585 0.10058171697811703
2960000000.0 -0.2744748276175517 0.10093016091043375
2980000000.0 -0.2940433755147841 -0.047735130441449745
3000000000.0 0.026398844397418915 -0.30200350633240497
3020000000.0 0.30728081521440187 0.009884186052471138
3040000000.0 -0.1208230005298475 0.28411357212152166
3060000000.0 -0.17943097170567565 -0.2518822224845149
3080000000.0 0.3021047401182081 -0.049107584689329305
3100000000.0 -0.11429245231967884 0.27847478123628827
3120000000.0 -0.18782857682334198 -0.22402738872714278
3140000000.0 0.25348333306188064 -0.11720939916798544
3160000000.0 -0.1908186299716979 -0.17664281272701465
3180000000.0 0.23270075685753835 -0.06018143805404838
3200000000.0 -0.02100688253610774 0.213110058212823
3220000000.0 -0.04546388522038787 -0.17981935753350406
3240000000.0 -0.06068191932272707 0.14404502664526067
3260000000.0 0.094409525670952 0.087862970156602
3280000000.0 0.10181931038814251 -0.02105704264185375
3300000000.0 -0.08392788071820624 0.0004659666258815101
3320000000.0 -0.024176201633911005 -0.05441191430957426
3340000000.0 -0.0019251675388397363 0.03798365581417454
3360000000.0 0.018116858823950813 0.004707716992951727
3380000000.0 0.012234684679871587 -0.01253746936210714
3400000000.0 0.015932031912631286 0.025478794087179034
3420000000.0 -0.02507841489648583 0.037314208488829194
3440000000.0 0.0494023986725708 -0.018039218195098836
3460000000.0 -0.0015519152999161527 0.056763329107317344
3480000000.0 -0.004148159059298965 -0.05934482660145656
3500000000.0 -0.06586889158866523 0.011718284975794425
3520000000.0 0.0620050752890606 0.05342178472322543
3540000000.0 0.05099765731088837 -0.0849145387385516
3560000000.0 -0.05356283178674705 0.10412490302696133
3580000000.0 -0.09859469505914092 -0.0940850756813492
3600000000.0 -0.09367629658480531 -0.12680899012656863
3620000000.0 -0.1573472925213698 0.06644943216310092
3640000000.0 -0.17655441802851926 0.044882046925909115
3660000000.0 -0.06423621852046892 0.17808068509855585
3680000000.0 -0.11471611690138955 0.15022757992508798
3700000000.0 -0.1811442642172479 0.037516776920970836
3720000000.0 -0.04542340823866201 -0.17400189088122728
3740000000.0 0.16944768988440087 0.037952717405976485
3760000000.0 -0.011980829332812406 -0.16884928802755272
3780000000.0 -0.13153513371228087 0.09550893108446601
3800000000.0 0.034796760770723176 0.15556643503688972
3820000000.0 0.14723216309131842 -0.05382765458440221
3840000000.0 0.011935159297198577 -0.15229759220007552
3860000000.0 -0.044509478666138705 -0.14381221166521593
3880000000.0 -0.08476411667143001 -0.12323720984188609
3900000000.0 -0.1321104385085113 -0.0689292598715969
3920000000.0 -0.1152031731163527 0.098821225161782
3940000000.0 0.1255273407294875 0.09612461529338999
3960000000.0 -0.07228460461462641 0.15067222468774347
3980000000.0 0.021728816317086574 0.17157624559114015
4000000000.0 0.15930689539845427 0.05989072036134683
