! Created with skrf (http://scikit-rf.org).
# Hz S RI R 50.0 
!freq ReS11 ImS11
400000000.0 0.20225693452037755 0.8487538927931396
420000000.0 0.6336443316968898 0.581444780644285
440000000.0 0.793603083567773 -0.22604980587521284
460000000.0 0.17931994952733843 -0.7688060045053813
480000000.0 0.5603740954122928 -0.42951060485059744
500000000.0 0.32615597141456465 -0.4581100017564882
520000000.0 0.345784494359087 -0.34390858480711295
540000000.0 0.3807846898536433 0.19564816829496293
560000000.0 -0.27134903529561444 -0.23342111481701955
580000000.0 -0.2672240104535428 0.20577643200770288
600000000.0 0.3101556470107896 0.12004573954118253
620000000.0 -0.1493141732394895 -0.3173080559607701
640000000.0 -0.36817505029670244 -0.10949057665442723
660000000.0 -0.2880792428198691 0.27642895219727726
680000000.0 -0.13464653803244092 -0.40601115735867244
700000000.0 0.25674690458999583 0.3670460308273675
720000000.0 0.07309073936114649 -0.4439436579480639
740000000.0 0.41751426628971616 -0.13872762057343488
760000000.0 -0.3990133191843203 -0.12358787358897405
780000000.0 0.2070852550101149 -0.3249644589785838
800000000.0 0.10720006004181579 0.33355421326627666
820000000.0 0.11545639919937045 0.2644993402805544
840000000.0 0.1799092482870684 0.14858274795654894
860000000.0 0.0630931349259134 0.18856833091272174
880000000.0 -0.13438174917668755 0.022546301457531635
900000000.0 -0.06951834840802491 0.00743037074716435
920000000.0 0.02606786922868177 -0.028354954392461048
940000000.0 0.030795703556162096 0.0008399151296334874
960000000.0 -0.028427294729010958 -0.03169353512017039
980000000.0 -0.030303301481114063 0.04171199162614378
1000000000.0 -0.05001752128405895 -0.02806865289340538
1020000000.0 -0.054739806252710466 -0.047358967980738804
1040000000.0 -0.057391332910157626 -0.06101505677116862
1060000000.0 0.11572220696247788 0.04209459479486288
1080000000.0 -0.05740797357737986 -0.1280126446168665
1100000000.0 -0.07164927417805107 -0.15092248104662406
1120000000.0 -0.1949601536198382 0.0335228939870523
1140000000.0 0.23538200898732559 -0.05597751757182236
1160000000.0 0.09350842472144008 -0.2707645435871613
1180000000.0 -0.26888956949275605 -0.1921864088194081
1200000000.0 -0.35153042567191917 -0.1055288844451033
1220000000.0 -0.024978992262586614 -0.39630669278549585
1240000000.0 0.39954964457443054 0.1253331607968771
1260000000.0 -0.43657977538895393 0.056531088535915944
1280000000.0 0.4344146184398787 -0.11336200002740197
1300000000.0 -0.4276212798297805 -0.13428080351388258
1320000000.0 -0.0870031519073243 0.4259439756346888
1340000000.0 -0.34659900960865153 0.23512176001138554
1360000000.0 -0.15177211930611773 -0.37793048323230205
1380000000.0 0.22695885851020564 -0.3370506155929518
1400000000.0 0.271745202670494 -0.2883461086546121
1420000000.0 0.20790109328350734 -0.32658422659931946
1440000000.0 -0.01117255540125705 -0.3732245572976182
1460000000.0 -0.33824014171600325 -0.11371870704875323
1480000000.0 0.11282457514881888 0.31854788689993085
1500000000.0 -0.2224245070511011 -0.2184694142208775
1520000000.0 0.04405845435842771 0.28231880905266316
1540000000.0 0.053069188603822065 0.24855517175859962
1560000000.0 0.20039633803628262 0.07412004006449285
1580000000.0 0.13424611220446825 -0.11769378748934037
1600000000.0 0.04197251797041834 0.13780856899814653
1620000000.0 -0.102239035100374 0.0007478395716714574
1640000000.0 0.037526175481591706 0.0633914652071724
1660000000.0 0.04197631981978279 0.02125824932019279
1680000000.0 0.01674440118525223 0.002273248019313401
1700000000.0 0.011351120754658488 0.0038892280234162292
1720000000.0 -0.009421400478228606 -0.030218619964114755
1740000000.0 -0.046928035429553365 0.020748109454228895
1760000000.0 0.05320368101930793 -0.0365384019753971
1780000000.0 0.018025181543873014 0.08147751372493964
1800000000.0 0.040993716451126254 -0.09901976815703216
1820000000.0 0.1191966195288811 -0.024322816948710038
1840000000.0 -0.08401263131293436 0.12096410914345765
1860000000.0 -0.13886380705055415 -0.10378732853117698
1880000000.0 0.1600667989660231 -0.13659159523195222
1900000000.0 0.22855850002135228 -0.11545053459137757
1920000000.0 -0.29144851643857544 -0.08154908528565342
1940000000.0 0.14178963300827804 0.3187034014566521
1960000000.0 -0.09291280732061799 -0.3749293668409309
1980000000.0 0.155129263000802 0.383878842534531
2000000000.0 0.12377902587482542 -0.418606103414484
2020000000.0 -0.2163552365423432 0.39441989598741833
2040000000.0 0.4497180692609513 0.04468892033213533
2060000000.0 -0.23147019767313948 -0.38286185359725455
2080000000.0 -0.39466928728708456 0.1762725141520379
2100000000.0 -0.29944124362413316 0.2888158427605922
2120000000.0 -0.35281000956866143 0.18531539381471052
2140000000.0 -0.3735607865222439 -0.08427515824737855
2160000000.0 0.2889828774724669 -0.23078803784965926
2180000000.0 0.3595199249387033 -0.015131325385118457
2200000000.0 0.33304171830279694 0.11576409424418889
2220000000.0 0.28429821007210965 -0.20890423073601652
2240000000.0 -0.2051986463105662 -0.28641432114744275
2260000000.0 -0.3048953810565852 0.18400686010664835
2280000000.0 0.2212619095067454 0.2828053860387795
2300000000.0 0.20991428826018074 -0.3068612357629694
2320000000.0 -0.3848981968498236 -0.06336318103004362
2340000000.0 -0.09247641805578516 0.40601112143118734
2360000000.0 0.45021476935451576 -0.043314826759657005
2380000000.0 -0.41117738523470726 -0.28242169665714717
2400000000.0 0.2958094076873713 0.4637159184449852
2420000000.0 -0.4043778121210411 -0.4482761141183259
2440000000.0 0.6405609592159531 0.13642355183837532
2460000000.0 -0.6247415792581987 0.30863759233251414
2480000000.0 0.37342508767966887 -0.6266408606789197
2500000000.0 -0.2836656147819609 0.6949846135780309
2520000000.0 0.4354474314708829 -0.6258439275695286
2540000000.0 -0.6248205130898455 0.4406597349389876
2560000000.0 0.7564549562205197 0.07313197253555623
2580000000.0 -0.3546818490137373 -0.6546423846267471
2600000000.0 -0.2603562342202549 0.6710710914529197
2620000000.0 0.6724835617481816 -0.15457760599489914
2640000000.0 0.5175925217500397 -0.39844287446628546
2660000000.0 -0.5751516207855698 -0.20386366666989156
2680000000.0 0.10528635710607699 0.5561434661022396
2700000000.0 0.20897520980987624 -0.47838453449914486
2720000000.0 -0.28185860601534873 0.3832624171032581
2740000000.0 0.24750583101130627 -0.3531232358648465
2760000000.0 -0.10954307078061203 0.3740945233593924
2780000000.0 -0.17986167778287904 -0.3066957945414743
2800000000.0 0.30912227715350643 0.09676413654340817
2820000000.0 -0.2882121081096346 0.08645843166742784
2840000000.0 0.2677028325707962 -0.10256554110525555
2860000000.0 -0.25199813199560345 0.12681454489536303
2880000000.0 0.27023584606290746 -0.08412347950279457
2900000000.0 -0.27660704904993677 -0.08077812951108206
2920000000.0 0.0953707312901661 0.2845155557693778
2940000000.0 0.18158049619317668 -0.2540376127274
2960000000.0 -0.3077151791830161 -0.08560251379641541
2980000000.0 -0.28333735541718535 0.15892384779280924
3000000000.0 -0.2877964399304432 0.15845778180698555
3020000000.0 -0.32391399059657927 0.041773830420620266
3040000000.0 -0.01080895497959149 -0.32030314835918844
3060000000.0 0.23786228493795397 0.20184204221223193
3080000000.0 -0.18411788706127155 -0.23897446241779294
3100000000.0 0.05297500716490465 0.2883971798501637
3120000000.0 0.1291704923403486 -0.25172594923514957
3140000000.0 -0.23345768880232484 0.14105477092263036
3160000000.0 0.2605704280017768 -0.021006422874838008
3180000000.0 0.04355445283363114 -0.24514890345018453
3200000000.0 0.16381701410306546 0.16588358191918287
3220000000.0 -0.05797904274304324 0.20283394271694663
3240000000.0 -0.10956538874200504 0.1487923039764679
3260000000.0 -0.09993263887154152 0.11519178428653094
3280000000.0 0.0813970247160974 0.08318736774367276
3300000000.0 0.07876868663702749 0.01524309658560173
3320000000.0 -0.03134798784220702 0.03162414323446274
3340000000.0 0.014222927584888623 0.002072712378883581
3360000000.0 -0.010124129831018257 0.006885726119575639
3380000000.0 -0.005055787958483559 0.023864603086108084
3400000000.0 0.02239505228518209 0.02024106318052706
3420000000.0 -0.020853182213243584 -0.02329993080399106
3440000000.0 -0.015513268251945638 0.02826268339009792
3460000000.0 0.028384400728067367 0.03105507507040081
3480000000.0 0.054271188473592136 -0.031367724008815545
3500000000.0 -0.06001570858430046 0.062052633284580064
3520000000.0 0.05115700305336379 0.09749339898739928
3540000000.0 0.12385277727730744 -0.01646638470597341
3560000000.0 0.09453856168150401 -0.097260394414041
3580000000.0 0.10898430939332833 0.09339609422092039
3600000000.0 -0.11924921439664773 0.0972066119744485
3620000000.0 0.023558636878735526 -0.15807015101756897
3640000000.0 -0.06445904316765416 0.15488417266840765
3660000000.0 -0.045432933868197974 -0.17273459361527074
3680000000.0 0.17389880686686843 0.06970959892031911
3700000000.0 0.05242783726906932 0.18629435011621714
3720000000.0 -0.004011796385409117 0.19959763045218645
3740000000.0 0.13718015075839374 0.14266209360349358
3760000000.0 -0.051626221366777435 0.1854758425701853
3780000000.0 -0.18030605089472274 -0.0021647431657451474
3800000000.0 0.16233088297199882 -0.024172361123214924
3820000000.0 0.1470185810639843 0.02795291764517127
3840000000.0 -0.13650647141295882 0.0008507197967893049
3860000000.0 -0.10321095175394536 0.08907290120372174
3880000000.0 0.0742435750201308 -0.12890660602545934
3900000000.0 -0.14346456950091468 -0.07563600103299428
3920000000.0 0.17223251550173388 -0.029203926230096603
3940000000.0 0.18161716714466833 0.02017976604256715
3960000000.0 0.05804865597814635 -0.17856270036071883
3980000000.0 -0.1414623243209784 0.11625900003938403
4000000000.0 -0.04491313556054083 0.16312851765883465
