! Created with skrf (http://scikit-rf.org).
# Hz S RI R 50.0 
!freq ReS11 ImS11
400000000.0 -0.801781053945473 0.319938582681297
420000000.0 0.17597454675917268 0.847990190861836
440000000.0 0.8276829530562728 -0.13228434561817493
460000000.0 0.35627377864757176 -0.7041087914180425
480000000.0 0.5743777627772033 -0.4416658066632608
500000000.0 -0.46191664443190866 -0.32116726704990683
520000000.0 -0.39021882076365894 -0.29492219335573533
540000000.0 0.03254591177730503 -0.41219099436969026
560000000.0 -0.36290183614664373 -0.05423495114255196
580000000.0 0.1501998978171431 -0.2821884071843216
600000000.0 0.07393409414413808 -0.3203943323107374
620000000.0 0.2940588113982479 -0.15521972206998866
640000000.0 -0.3457082364986336 0.04110260436823476
660000000.0 -0.3145053128083118 0.21913140387093497
680000000.0 0.16843026906580555 -0.368928277849146
700000000.0 -0.4326971960052539 0.08013907576208347
720000000.0 0.03933755482927585 0.44039966700889893
740000000.0 -0.38937308760293265 0.23611382920657986
760000000.0 -0.20409731913024795 -0.384244603666018
780000000.0 0.4003319622159933 -0.004384335105280811
800000000.0 0.1842233875991427 0.3120110397757649
820000000.0 0.039290754257663665 0.2951930364936904
840000000.0 -0.02302424181013366 -0.24534092167872054
860000000.0 0.1872720541007299 -0.04764828708555115
880000000.0 -0.008683337504142814 -0.1479032240172301
900000000.0 0.00814527602430933 0.06741694523230803
920000000.0 -0.03541636910983793 0.0005027301294881876
940000000.0 -0.03215450380597843 0.024478880277193263
960000000.0 -0.04261375592642833 -0.027445148698194324
980000000.0 0.039071646312002356 0.03958818052529882
1000000000.0 -0.06315834286245858 -0.005581877206882158
1020000000.0 -0.00596514973722393 -0.06965848719035536
1040000000.0 -0.01140788066015718 0.08005304571373595
1060000000.0 0.06694634546023588 0.09370307145515148
1080000000.0 0.1278902755585582 0.05233170897677157
1100000000.0 0.09182708080695766 -0.1357023438474459
1120000000.0 -0.020357056395441463 -0.1983574890787755
1140000000.0 0.22737816747995557 0.09264677919685183
1160000000.0 0.04733017631990287 -0.285381838160866
1180000000.0 -0.26726810754172964 0.19875935188350705
1200000000.0 -0.3254242754759851 0.1634965779522016
1220000000.0 -0.3681231976209679 -0.14797489349611645
1240000000.0 0.39129643435621675 -0.13423170662074313
1260000000.0 -0.33371187530062474 0.28009847561217815
1280000000.0 0.40021297302659115 -0.17955743128618565
1300000000.0 -0.2675878685736448 -0.3517217013148699
1320000000.0 -0.4090777462902285 0.13005249561935264
1340000000.0 -0.16058244107322564 -0.39010554664953073
1360000000.0 0.25782711573550976 -0.33193082341932983
1380000000.0 0.29181406981871394 -0.3054373398903057
1400000000.0 -0.2751706642721883 -0.30495321165518535
1420000000.0 -0.3952432671216697 -0.046035202053197076
1440000000.0 0.05486961767836524 0.3727273639429527
1460000000.0 0.27963732843998435 0.2073260879269975
1480000000.0 0.2090617495449837 -0.24842777913093303
1500000000.0 -0.2113235461992082 -0.2082746687161366
1520000000.0 -0.2567725724491941 0.08042942706876408
1540000000.0 0.033995830427208676 -0.24248420443817148
1560000000.0 0.08187119973620137 -0.19452557096093145
1580000000.0 0.04726992359206314 -0.1728001344036835
1600000000.0 0.005429542560090628 0.1463674722434532
1620000000.0 0.040167425346492834 -0.10484825272641674
1640000000.0 -0.0009178714119556976 -0.08446945126126743
1660000000.0 -0.05981108345531428 -0.005425127952341928
1680000000.0 0.004243077866435126 -0.029967223136954543
1700000000.0 -0.009779171657678101 0.0059140317014697835
1720000000.0 0.00591092314535248 -0.015234430020439067
1740000000.0 0.03226915460028505 0.018382238308320493
1760000000.0 -0.0058200618463881545 -0.05712542718286269
1780000000.0 0.023577381364490124 0.07753846007515712
1800000000.0 -0.11264423987111659 -0.021591732894165706
1820000000.0 0.13476982078161567 -0.03973939306628973
1840000000.0 -0.08214421919178581 -0.14579628908982786
1860000000.0 -0.07437949813575323 0.18053941914904925
1880000000.0 -0.009186071024506475 0.2243285933160415
1900000000.0 0.021915087663304487 0.26019885052050384
1920000000.0 0.29080921957101696 -0.0627229970895004
1940000000.0 0.13477176817009565 -0.3057335059314164
1960000000.0 -0.36909910176590893 -0.011676119589937048
1980000000.0 0.16276574489135842 0.36040261665577006
2000000000.0 0.39527669992684805 -0.14216087821805642
2020000000.0 -0.2653799295731013 -0.35155007098452495
2040000000.0 -0.18132452999713755 0.4134372416479399
2060000000.0 0.4530362257788009 -0.016279817863467744
2080000000.0 -0.21005592197778167 -0.3984294686144631
2100000000.0 -0.34585171798379083 0.26704153845196016
2120000000.0 -0.11070343889700177 0.4026954105432381
2140000000.0 -0.39628481550175754 -0.030507410921243205
2160000000.0 -0.3756260827940772 -0.04882684876140789
2180000000.0 -0.19204432872928376 -0.3083174760800288
2200000000.0 -0.03397751987555363 -0.34957427786155254
2220000000.0 0.24047375233015517 -0.2517755119092902
2240000000.0 -0.06206513534843356 -0.34496231420720685
2260000000.0 -0.28944887976787276 -0.21091853459136692
2280000000.0 -0.13128335055714396 0.34260424296505904
2300000000.0 0.368600393967362 -0.09733864110913514
2320000000.0 -0.3433241984784967 -0.21056730474836952
2340000000.0 -0.09535383385707918 0.4193472454853383
2360000000.0 0.27103813380149383 -0.3774075009483666
2380000000.0 -0.49534579755895575 0.11654429192335844
2400000000.0 0.5497602085546838 -0.1005318425614478
2420000000.0 -0.522678296311006 0.3142888062926153
2440000000.0 0.18218381767433775 -0.6317978504273725
2460000000.0 0.31048604664461593 0.6230951704007659
2480000000.0 -0.6112348349924706 -0.39194944160401357
2500000000.0 0.6611543479372088 0.3439728735735896
2520000000.0 -0.5964156945035863 -0.46281704863552614
2540000000.0 0.3367157644955599 0.6772366566386949
2560000000.0 0.22203629150180865 -0.7169538826737674
2580000000.0 -0.7128333058771947 0.1811800943311048
2600000000.0 0.5741340502245987 0.4196028962651316
2620000000.0 0.026780599485389054 -0.6807952869570668
2640000000.0 -0.27728596938791816 -0.5816213953969532
2660000000.0 -0.3347402556866368 0.49788116836633495
2680000000.0 0.5491240779208416 0.08512945547811394
2700000000.0 -0.2360056609861366 -0.4537907421259974
2720000000.0 -0.021274822262201606 0.46541593568865836
2740000000.0 0.2651081083938368 -0.3302223705554525
2760000000.0 -0.29437555940664734 0.24800041921491958
2780000000.0 0.2119112937609925 -0.28126430276581627
2800000000.0 -0.09954643727360211 0.31032476274023574
2820000000.0 -0.14992190464774105 -0.26778427658586046
2840000000.0 0.2741090832345496 0.10696423104554918
2860000000.0 -0.2514690293641993 0.13978294796531357
2880000000.0 0.10264884536094879 -0.2666184412570891
2900000000.0 -0.057462752842198594 0.278684135651011
2920000000.0 0.28557637675034536 -0.04543543618780151
2940000000.0 -0.11024534563695468 -0.2738528162077593
2960000000.0 -0.26963508743324915 -0.1332633051350426
2980000000.0 -0.30620384981575816 0.02435190482095354
3000000000.0 -0.27353842446408866 -0.1476217301678699
3020000000.0 -0.08281080922651987 -0.3028823256525826
3040000000.0 0.28675761562616764 -0.11964863425253364
3060000000.0 -0.05313928986618737 0.3041779831976321
3080000000.0 -0.1204999247801161 -0.2783216794319818
3100000000.0 0.26797445713413814 0.12616167942582612
3120000000.0 -0.28563889699610573 -0.004513630213613003
3140000000.0 0.1817793692575405 -0.20312731925502223
3160000000.0 -0.20415848145440374 0.15424245506081283
3180000000.0 0.15942209737334628 0.17912465964697571
3200000000.0 -0.1852270664358751 -0.11498860747694178
3220000000.0 0.18535245209380402 0.06656826885679094
3240000000.0 -0.13538065453980208 0.10625800570194609
3260000000.0 0.0004316827751404223 -0.14574282484349707
3280000000.0 0.1165868619907514 -7.920482754838597e-05
3300000000.0 0.08715317547842803 -0.012968922206635414
3320000000.0 -0.0502311991431542 -0.028865149674070063
3340000000.0 -0.028425711057817545 -0.007605171270903134
3360000000.0 0.007979469954895086 -0.0076312622784886
3380000000.0 -0.010255741330622074 0.016887618280969883
3400000000.0 -0.01823424001837384 0.025911388513445623
3420000000.0 -0.002255159896572871 -0.04124809023028493
3440000000.0 -0.028234227893292444 -0.03415119853452581
3460000000.0 0.006422808725722106 0.04507603414234725
3480000000.0 0.051425309027105875 -0.012266502391180704
3500000000.0 0.06902558139569676 -0.007238894555107652
3520000000.0 -0.04171110576108804 -0.08334471264242317
3540000000.0 0.01760204311518708 -0.11193658037047828
3560000000.0 0.05071297875169776 -0.12030354169443179
3580000000.0 0.1325148648419732 -0.05536898378681598
3600000000.0 0.14426112999186477 -0.07031300750375796
3620000000.0 0.1481216163503302 -0.07920468566482995
3640000000.0 0.1725285876213765 0.0367735369107859
3660000000.0 0.06188201802858068 0.17050182573182235
3680000000.0 -0.18453595022413571 -0.004628111004773565
3700000000.0 0.05246949931105591 -0.17607265006063696
3720000000.0 0.10575720231954627 0.15212644502180858
3740000000.0 -0.1430641328767264 0.11575044824634534
3760000000.0 0.10779397915252639 -0.14606790939935058
3780000000.0 -0.04273814941582938 0.17034168868482266
3800000000.0 0.027053393330628908 -0.1659710663129857
3820000000.0 -0.15811948812849805 0.011791504115961575
3840000000.0 -0.14241842919806685 -0.042385316541508636
3860000000.0 0.09367092857601961 -0.10863451411848954
3880000000.0 0.03979929478590155 0.14169666549184892
3900000000.0 -0.043309458413101624 0.146202160096648
3920000000.0 0.07697306843420108 0.14152156415993514
3940000000.0 -0.17177715892822246 -0.008433596549237778
3960000000.0 -0.17986533960623255 -0.023142601679972716
3980000000.0 0.17837899067463958 0.04228830086724825
4000000000.0 0.013560986750005388 -0.17421563290564318
