! Created with skrf (http://scikit-rf.org).
# Hz S RI R 50.0 
!freq ReS11 ImS11
400000000.0 0.18458150625369588 0.8497765578082858
420000000.0 0.6537874401874281 0.5564752985114078
440000000.0 0.7815036205978692 -0.2619724179218865
460000000.0 0.15925159933460767 -0.7726349789935562
480000000.0 0.5513231514658948 -0.44116354888386916
500000000.0 0.3169057404172551 -0.46415316601008955
520000000.0 0.34680564669837843 -0.34274391814968375
540000000.0 0.38004727724773313 0.19742313141009799
560000000.0 -0.30215755806601075 -0.1912341695626405
580000000.0 -0.23768848845138463 0.23935105793182532
600000000.0 0.32634675868508956 0.06897965645096495
620000000.0 -0.1603928332972287 -0.3132529007036105
640000000.0 -0.3443917911946115 -0.1743738424043024
660000000.0 -0.32725314718797593 0.23164100341219163
680000000.0 -0.03162581036121922 -0.4276674673792407
700000000.0 0.13721893114887637 0.42639603066049125
720000000.0 0.13570405958226148 -0.42904038757549195
740000000.0 0.43544225100981904 -0.061975963506008654
760000000.0 -0.3876778019630091 -0.15217425644681973
780000000.0 0.23213719377086836 -0.3059321090315053
800000000.0 0.14703874421777408 0.31684191580687837
820000000.0 0.16753137065606546 0.23390915555695235
840000000.0 0.22161848308733392 0.07129407287099092
860000000.0 0.15384365448972429 0.12680286915844374
880000000.0 -0.0998703350007163 0.09530390900534823
900000000.0 -0.04809099274540475 0.05376544680676906
920000000.0 0.03805129487515766 0.015075484837650243
940000000.0 -0.017101123178421263 -0.024734833419492973
960000000.0 -0.01134008986100723 -0.03880127032410034
980000000.0 -0.01399098419548274 0.04752522709840236
1000000000.0 -0.04175950328090387 0.03734173800996899
1020000000.0 -0.0528607223795979 0.0478134832566134
1040000000.0 -0.07391533889261766 0.0380908862371522
1060000000.0 0.10741999086555251 -0.060882299113904526
1080000000.0 -0.12897144699358679 -0.05791084988640161
1100000000.0 -0.13497015627835862 -0.10139723595038293
1120000000.0 -0.19135319736100753 0.05760715747934177
1140000000.0 0.24047351004972106 -0.043250832209416626
1160000000.0 0.15592772236479088 -0.24294947265674743
1180000000.0 -0.2051354150384901 -0.2614106662603176
1200000000.0 -0.3047318471933724 -0.20658328957669506
1220000000.0 0.10095482893140183 -0.38488913819449583
1240000000.0 0.36067574622228965 0.21329871753959032
1260000000.0 -0.43938076326591696 -0.020738851330829783
1280000000.0 0.44532183592699365 -0.05208628791209439
1300000000.0 -0.4130135246056006 -0.17201946552922182
1320000000.0 -0.08753893948070494 0.4250586996427416
1340000000.0 -0.3373904428701179 0.2469762585278589
1360000000.0 -0.17714780004117914 -0.3659687724561205
1380000000.0 0.19698129864785235 -0.3550369114686275
1400000000.0 0.22917600110519618 -0.3229787515281019
1420000000.0 0.15802504482178342 -0.35320870741429056
1440000000.0 -0.048335893479035656 -0.3703736014479424
1460000000.0 -0.34801665291696904 -0.08145158877369961
1480000000.0 0.176038190479057 0.28929103775105874
1500000000.0 -0.24308018388395292 -0.1967918798891524
1520000000.0 0.0786414013016602 0.27525967841951726
1540000000.0 0.03812952339979 0.2523933668480552
1560000000.0 0.1896010346402788 0.10017727980406912
1580000000.0 0.14093166355412168 -0.11040221424991455
1600000000.0 -0.0159105645827876 0.1434881459878121
1620000000.0 -0.09492234608913892 -0.03789202832364424
1640000000.0 0.01808883659371646 0.07115447674275571
1660000000.0 0.04400399512918177 0.014533788266729152
1680000000.0 -0.0008409472324348129 -0.016504728183171093
1700000000.0 -0.009338753808131381 -0.0077375593731836435
1720000000.0 0.001083918390107856 -0.031869542336726155
1740000000.0 -0.04002791366666588 -0.03207288534538656
1760000000.0 0.06059684270101117 -0.023135067999123606
1780000000.0 0.008278108252306416 0.08271631675144538
1800000000.0 0.06486733901608158 -0.08437001039676019
1820000000.0 0.1204674237315661 -0.015544080848385886
1840000000.0 -0.08109120220585622 0.1226315730260215
1860000000.0 -0.14739090180234507 -0.09123378300905752
1880000000.0 0.1381370814100864 -0.15879420115115794
1900000000.0 0.21700062078892313 -0.13598518108100474
1920000000.0 -0.2943518969295038 -0.07014552572222908
1940000000.0 0.15825194735701356 0.3109486308719003
1960000000.0 -0.09905330251692895 -0.3735356524665042
1980000000.0 0.15170989705838725 0.38558717972355155
2000000000.0 0.13195414751592735 -0.41659822327189966
2020000000.0 -0.21919300969527006 0.3932050071831058
2040000000.0 0.4500194435224539 0.042559978400143486
2060000000.0 -0.1924035798826531 -0.4044846734635383
2080000000.0 -0.40378480799221184 0.15518506251188724
2100000000.0 -0.3170668303725042 0.26992415334587017
2120000000.0 -0.37320754577052595 0.14072135211106143
2140000000.0 -0.3773527799984731 -0.06504230161207189
2160000000.0 0.32140178497841065 -0.18294982974038201
2180000000.0 0.35979860846517786 -0.0009086793564744163
2200000000.0 0.32764873248817267 0.12982525196889094
2220000000.0 0.28245748184601127 -0.21104427979442966
2240000000.0 -0.2102508881958321 -0.2820013230261749
2260000000.0 -0.3103104422634053 0.17358031883035202
2280000000.0 0.23349066790692044 0.27253694560577263
2300000000.0 0.1985302148269801 -0.314010311479176
2320000000.0 -0.3878008519737101 -0.04043198962817185
2340000000.0 -0.056358319675284686 0.41272620634935464
2360000000.0 0.44569630364234647 -0.07770692608597861
2380000000.0 -0.4352163300262583 -0.24400972573324184
2400000000.0 0.30488061431430413 0.4581187089983765
2420000000.0 -0.42244368854126957 -0.43181274218123866
2440000000.0 0.6429433830165567 0.12663122414621608
2460000000.0 -0.6116905170240582 0.3344824170366907
2480000000.0 0.34557296860075554 -0.6425441214088979
2500000000.0 -0.28984674979614083 0.6925645375214416
2520000000.0 0.4279506631035311 -0.6306515796137392
2540000000.0 -0.6547056393250243 0.39505085894583253
2560000000.0 0.7463792139741132 0.14087949917851522
2580000000.0 -0.36952129925043165 -0.6455402979546697
2600000000.0 -0.2883402306922991 0.6583384553977984
2620000000.0 0.6749340866679444 -0.13651131202831587
2640000000.0 0.54858987814324 -0.35184094481111483
2660000000.0 -0.5685468558269059 -0.2166743221005804
2680000000.0 0.1238999490211057 0.5505220007211451
2700000000.0 0.1688138325606143 -0.4922540715186869
2720000000.0 -0.26457625124913897 0.39328072742509257
2740000000.0 0.23017003549041004 -0.36289218831947717
2760000000.0 -0.06230425613386924 0.38367594572168545
2780000000.0 -0.2230996339781656 -0.2759359528450932
2800000000.0 0.3202948197234629 0.04639188973186644
2820000000.0 -0.2675305131915476 0.13817427284572462
2840000000.0 0.24788881904132593 -0.14499446286947035
2860000000.0 -0.24004280786171028 0.14959361680060057
2880000000.0 0.2660866407000467 -0.09907846816006945
2900000000.0 -0.2734699606176939 -0.09420223280298476
2920000000.0 0.059360166787113554 0.2950944658327018
2940000000.0 0.22060575163493767 -0.2223815818922243
2960000000.0 -0.28068566221507435 -0.15312818263215836
2980000000.0 -0.313530557903049 0.08677379530694387
3000000000.0 -0.31194108064994547 0.10250095573939817
3020000000.0 -0.32640358801846114 0.0016388919910664838
3040000000.0 0.05064715878842963 -0.3157181795835744
3060000000.0 0.16588410897559602 0.26301709268160034
3080000000.0 -0.14110472813524655 -0.26566336588968453
3100000000.0 0.09612466367425318 0.27599395834178614
3120000000.0 0.15823096757949393 -0.23295018732147071
3140000000.0 -0.22509631889608744 0.1524758853252883
3160000000.0 0.25976529632253026 -0.015049293773450056
3180000000.0 0.05041270642076937 -0.2426427249284596
3200000000.0 0.18130306267115323 0.14491326320398448
3220000000.0 -0.03630755563254025 0.20728385194899818
3240000000.0 -0.08292305945345767 0.16444131809057916
3260000000.0 -0.07058346295970734 0.1346360435336865
3280000000.0 0.08763009861121769 0.0762801532208325
3300000000.0 0.08018095433315144 -0.005383766433766062
3320000000.0 0.012924616454872032 0.043190548747909556
3340000000.0 0.01467333239468791 -0.0009323636983656708
3360000000.0 -0.009095322838775885 -0.007921659808312984
3380000000.0 -0.023336637507701822 0.004620443731552619
3400000000.0 0.0023949017097636876 0.029521047171415536
3420000000.0 -0.011418424363264216 -0.028674903012536716
3440000000.0 -0.028747583717990525 0.014120101620913924
3460000000.0 0.009457359851619695 0.040886730062792614
3480000000.0 0.06233087767736666 -0.004242931094404983
3500000000.0 -0.07258714311476584 0.046046309161806236
3520000000.0 0.020760342070474325 0.10759854881942826
3540000000.0 0.12426747726145491 -0.011355766842063072
3560000000.0 0.10825471289089035 -0.0808473057834733
3580000000.0 0.10949741913001579 0.09276187675823748
3600000000.0 -0.13397470023186964 0.07452795012369308
3620000000.0 0.01627081422079699 -0.15898717208093321
3640000000.0 -0.07222957727889733 0.15057023120516372
3660000000.0 -0.016032395665506342 -0.17700906618665493
3680000000.0 0.1586516873310915 0.0986449139236641
3700000000.0 0.02952088267520278 0.19059904747820935
3720000000.0 -0.02202452847368793 0.19772729004091083
3740000000.0 0.11491266456216194 0.1604509752894001
3760000000.0 -0.06225898635272242 0.1813846967834554
3780000000.0 -0.17902359579673438 -0.01246006413032165
3800000000.0 0.16300280559281996 -0.011834744416291287
3820000000.0 0.14754934101761155 0.019611223674559003
3840000000.0 -0.1358330546043594 -0.0012586633204891239
3860000000.0 -0.0833901201613732 0.10670923151479489
3880000000.0 0.05617221499295357 -0.13654657411570445
3900000000.0 -0.14794925817782364 -0.06386649138812428
3920000000.0 0.16942766189446798 -0.03798553412336209
3940000000.0 0.18168477623068355 0.0064876783401497965
3960000000.0 0.04809946377248668 -0.1804846008483485
3980000000.0 -0.1168850579913968 -0.13961339080649587
4000000000.0 0.02268938537969117 0.1667634410977578
