! Created with skrf (http://scikit-rf.org).
# Hz S RI R 50.0 
!freq ReS11 ImS11
400000000.0 -0.5977554796439439 0.6135150632418455
420000000.0 -0.08400500864672437 0.8623287674797545
440000000.0 0.8385129715873308 0.0125813913378188
460000000.0 0.12199461647832359 -0.7893783022038825
480000000.0 0.2801550235966306 -0.6734361755059365
500000000.0 -0.3505716709939665 0.4480647964636694
520000000.0 -0.4709807864654246 0.04223746688700629
540000000.0 0.39442979826400304 0.13403108443019654
560000000.0 -0.3178577000859234 -0.15478424475666713
580000000.0 0.33271888861599447 -0.028482553943444015
600000000.0 -0.13480546434424673 -0.29551226390583357
620000000.0 -0.008167651589679959 0.3398668417311062
640000000.0 -0.19011518520120907 0.30881482513023556
660000000.0 -0.20934626520682165 0.3176905482772325
680000000.0 -0.14620065001852395 -0.38089161678488176
700000000.0 -0.4081042455172962 0.13186697336136785
720000000.0 -0.02462357466010478 0.43855902589344814
740000000.0 -0.3465985840660245 0.2745544115389925
760000000.0 0.30048166285032946 -0.3027010673605074
780000000.0 0.39198200363330843 0.05889644506372894
800000000.0 -0.13695381687058786 0.33436593563681427
820000000.0 -0.020270295156947105 0.3036091850955559
840000000.0 -0.07211272699991723 -0.2343297284171277
860000000.0 0.013212889213438344 0.198090320166642
880000000.0 0.008898458010272487 0.15625796938127848
900000000.0 0.05847139236014366 0.058047261332534586
920000000.0 -0.04172707699174838 0.025347404622969666
940000000.0 0.02238040554706428 0.030024868322983945
960000000.0 0.048723308235403974 -0.003666560457947306
980000000.0 -0.009713070042993707 0.0627635811283673
1000000000.0 -0.05951807692018223 -0.03405263204995804
1020000000.0 0.0109209610167941 -0.08217082832690406
1040000000.0 0.04784344226264744 -0.07555809924432523
1060000000.0 -0.07800468081011211 -0.10302174040181655
1080000000.0 0.01778552622683529 0.14626888136621646
1100000000.0 0.0907270228935779 0.15024538080495903
1120000000.0 0.18536606086332988 -0.0741047351626944
1140000000.0 -0.16412803985118068 -0.17532777526969054
1160000000.0 -0.23828725805877182 0.15030772166195314
1180000000.0 -0.15178647900885112 0.28049417411846134
1200000000.0 -0.23618999890889306 0.2592064143024051
1220000000.0 -0.011456471669248493 -0.3785371567250117
1240000000.0 0.2223543132231778 0.33651439599165095
1260000000.0 -0.13122895490662134 -0.40604416025251766
1280000000.0 -0.009941119028371855 0.44084095722422456
1300000000.0 0.296072156925285 -0.3364454759173545
1320000000.0 -0.3637117522189936 -0.25106105835285975
1340000000.0 -0.2950729086922505 -0.31970103331459854
1360000000.0 0.010838800827145405 -0.4296593744894691
1380000000.0 -0.24763437658811246 -0.35222459545884577
1400000000.0 -0.31730806061553535 0.2700348759561409
1420000000.0 0.031889588388955656 0.3972611168923102
1440000000.0 0.3722037512150228 0.0025677150292780842
1460000000.0 0.24959446898583895 -0.23222003671408759
1480000000.0 0.141542561148515 -0.2795778143098579
1500000000.0 -0.021906199435365602 -0.28464383057545545
1520000000.0 -0.230183654258805 0.12198112759285146
1540000000.0 0.1434527308555391 0.19001725198163902
1560000000.0 -0.12647075509526304 0.16616224761067566
1580000000.0 -0.1732706681578886 0.05449852035164945
1600000000.0 0.15005678134755174 0.004397010425334306
1620000000.0 -0.056522860055427976 -0.10165735596970321
1640000000.0 -0.07383810994712357 -0.05197162907909366
1660000000.0 0.04379951165557398 -0.05095232547459701
1680000000.0 -0.030678545965279285 0.02625164973698076
1700000000.0 -0.021524707762862978 -0.0018608489022265918
1720000000.0 0.015091544246356942 -0.004557003311516358
1740000000.0 -0.015222244446855097 0.02641827070721785
1760000000.0 -4.6184600637884105e-05 -0.051855544838709626
1780000000.0 0.07733924165995033 0.023751781434226255
1800000000.0 -0.09954087129983062 -0.060072714437226754
1820000000.0 -0.0792736795588023 -0.12244809754510765
1840000000.0 0.169906200308521 -0.057548790324484206
1860000000.0 -0.12596444860554473 0.16690161244394547
1880000000.0 0.2385238831667164 -0.029614736750304353
1900000000.0 -0.14398887610397743 -0.23151887356964165
1920000000.0 -0.23176312914273267 0.1959205381476042
1940000000.0 -0.010990458842876161 0.3312343305931428
1960000000.0 0.1756410691178094 0.316276835505568
1980000000.0 0.3803321523032001 -0.06405076757914449
2000000000.0 0.3474446328902492 -0.2166731771688217
2020000000.0 -0.10982304713462974 -0.4183626441406647
2040000000.0 -0.437523293580178 0.0946107636831826
2060000000.0 0.18910732641061434 0.4118394477834577
2080000000.0 0.33942169256207055 -0.2981221240558045
2100000000.0 -0.2956953688345151 -0.33209122032682625
2120000000.0 -0.4133616991308097 0.1102545318731719
2140000000.0 -0.3012882163615833 -0.27970853621923875
2160000000.0 -0.3882236207232404 0.0500119285965767
2180000000.0 -0.3712813106064147 0.001370764963583179
2200000000.0 -0.33886568492141234 0.107938846868087
2220000000.0 -0.3249024779939135 -0.10837275179085605
2240000000.0 -0.3408400484974429 0.03655410696089576
2260000000.0 -0.30516892739930257 0.16330536824934458
2280000000.0 -0.019675320138998094 0.35636099108067826
2300000000.0 0.3453447114961009 -0.13929126886351123
2320000000.0 -0.3373602466573514 -0.21250187573700044
2340000000.0 0.09213918802510175 0.41996733097695504
2360000000.0 -0.0339336225650138 -0.47011581959274257
2380000000.0 0.058714872983351325 0.5129662674955029
2400000000.0 -0.18789017532647434 -0.5342310364091217
2420000000.0 0.4970373039594612 0.361531997122271
2440000000.0 -0.6589044342004649 0.03584619655790533
2460000000.0 0.5749846738483568 -0.3924351539587997
2480000000.0 -0.47185185936047414 0.5490295198275936
2500000000.0 0.5188819696674288 -0.5289120550357933
2520000000.0 -0.6835545325892465 0.30716386115102395
2540000000.0 0.7365121661820404 0.13636853256214768
2560000000.0 -0.2586597735051846 -0.6947371343658292
2580000000.0 -0.45184678034939874 0.5658641960639206
2600000000.0 0.6827828053542281 0.1468740188603289
2620000000.0 -0.14471284023997963 -0.6502332270946204
2640000000.0 -0.3698414789249176 -0.5069735898874924
2660000000.0 -0.26103367220620055 0.5199491297591536
2680000000.0 0.5262603422204699 0.10049657898217437
2700000000.0 -0.11988460984809703 -0.4752975926006488
2720000000.0 -0.28797606497199874 0.33824712677913515
2740000000.0 0.3889641406987025 0.10815371347598897
2760000000.0 -0.2716208135465573 -0.24997806476800274
2780000000.0 0.2431762052192891 0.24061752281645266
2800000000.0 -0.32197847768772025 -0.008089335205451076
2820000000.0 0.024238494012022434 -0.306137106654636
2840000000.0 0.29668320244978924 0.001078410852372457
2860000000.0 -0.022631568243320986 0.29080781456278176
2880000000.0 -0.2815334538858862 -0.06409010447902652
2900000000.0 0.2870556115743733 -0.015728119260106255
2920000000.0 -0.18554335032731517 -0.22100941515367098
2940000000.0 -0.25592274220903694 0.13639438504491067
2960000000.0 -0.2735452472138676 0.10297315819802823
2980000000.0 -0.28721568057535224 -0.07854769867257479
3000000000.0 0.04008220516504285 -0.30018044657596055
3020000000.0 0.3010522355404865 0.06036812506603642
3040000000.0 -0.15112405724219538 0.2688113158007799
3060000000.0 -0.21355932615825549 -0.2244063002394048
3080000000.0 0.3050612777319656 -0.030311750491300783
3100000000.0 -0.11780863524216603 0.27729216572216875
3120000000.0 -0.13356097614492096 -0.259430167801297
3140000000.0 0.262019846063572 -0.09711988360944322
3160000000.0 -0.1931678126412362 -0.17371462818155378
3180000000.0 0.21813705608216716 -0.10109552622482088
3200000000.0 -0.03246588051440578 0.21103716801925326
3220000000.0 -0.03138159932591239 -0.1821435738983626
3240000000.0 -0.07557207371394999 0.13574160870252497
3260000000.0 0.07539740935396767 0.10356990282080729
3280000000.0 0.10311775215405175 -0.005746787883262913
3300000000.0 -0.07216464637517928 -0.04277772924077273
3320000000.0 -0.01197629130316926 -0.0584434741665384
3340000000.0 0.025446293906648914 0.02845369291188369
3360000000.0 0.016241559870118272 -0.009304639931964422
3380000000.0 0.01253904828544426 -0.013057419532909495
3400000000.0 -0.006215788372884156 0.030432704020714827
3420000000.0 -0.04142549039075394 0.01941675467493155
3440000000.0 0.052463771597061684 0.00922638366270909
3460000000.0 -0.009634191465106013 0.05630213358724536
3480000000.0 0.012667969022918179 -0.05826532227142473
3500000000.0 -0.06561918052357311 -0.01214053956587585
3520000000.0 0.037695622644270614 0.07252716733524599
3540000000.0 0.07684891243127874 -0.062340046394369096
3560000000.0 -0.08922735696344364 0.07575108781296003
3580000000.0 -0.040411837621746924 -0.1297666828003626
3600000000.0 -0.04661226762038059 -0.15069403673854354
3620000000.0 -0.16773259888428296 0.030556964316798465
3640000000.0 -0.18148366603859484 0.010920114945951723
3660000000.0 -0.08535972485317278 0.16838898653663234
3680000000.0 -0.12308028219055236 0.14254168931626504
3700000000.0 -0.18261139222453282 0.027061945321374764
3720000000.0 -0.03713615249963684 -0.1758025247971318
3740000000.0 0.16507688319859448 0.051041020192879816
3760000000.0 0.0013175882527084882 -0.16867812315313563
3780000000.0 -0.13636675534555776 0.08725072806699463
3800000000.0 0.029140152553489437 0.15600728492223495
3820000000.0 0.15313641257306246 -0.03217848608335922
3840000000.0 -0.0009009552214654837 -0.15242886669157824
3860000000.0 -0.04970032611275065 -0.1415374422010726
3880000000.0 -0.11346291925819156 -0.09631085101695394
3900000000.0 -0.14199305376750815 -0.04325823660254713
3920000000.0 -0.09568526728275925 0.11707169397384838
3940000000.0 0.12882195965394763 0.09103735327314463
3960000000.0 -0.05428296489278213 0.157341475206499
3980000000.0 0.058360443210878576 0.16192951533771283
4000000000.0 0.16707845710431934 0.030491035456112675
