! Created with skrf (http://scikit-rf.org).
# Hz S RI R 50.0 
!freq ReS11 ImS11
400000000.0 -0.8062876579572669 0.3078295377100016
420000000.0 0.1711334379514262 0.8494821891383617
440000000.0 0.8096104851409515 -0.21608785729191832
460000000.0 0.3311066220336014 -0.7151352399778838
480000000.0 0.6146500966110192 -0.3836367796990656
500000000.0 -0.47702859232937195 -0.30159056083027863
520000000.0 -0.4381079405208479 -0.2158096316096186
540000000.0 0.11501085349428522 -0.39586180053543285
560000000.0 -0.35451719189614117 -0.0989037348634494
580000000.0 0.08510200543348156 -0.308951726727314
600000000.0 0.039081653240369586 -0.3254796997163872
620000000.0 0.3161136719194409 -0.10092839945203691
640000000.0 -0.3451634153276256 0.050843519280388
660000000.0 -0.30233343928902384 0.23553968739937173
680000000.0 0.1585148737880442 -0.3729308103928971
700000000.0 -0.4327462255423814 0.08119015249891148
720000000.0 0.013678354587547533 0.44205899428692597
740000000.0 -0.40049460169338474 0.21881322336021963
760000000.0 -0.17741590224504697 -0.39708989686458485
780000000.0 0.4006254109325867 -0.008811726487694798
800000000.0 0.1855125735092801 0.31077327244831754
820000000.0 0.025398156679400288 0.2967753141922369
840000000.0 -0.026994141768372348 -0.24477522657038497
860000000.0 0.1891692567548048 -0.038129806707685725
880000000.0 -0.004702848220311987 -0.1476892699340952
900000000.0 0.01414685525489797 0.06621742479411467
920000000.0 -0.021266264865799522 0.028334284142247843
940000000.0 -0.027955595334194738 0.029531642048560767
960000000.0 -0.03615790782417485 -0.03551082636729289
980000000.0 0.020468536829848616 0.051346892442931655
1000000000.0 -0.06316219621072056 -0.0009841530034770988
1020000000.0 -0.012378270741357425 -0.06856735428630215
1040000000.0 0.0046259937310048 0.08040341120135254
1060000000.0 0.059752121216846414 0.09832050734771804
1080000000.0 0.1287190128190886 0.0496003328978803
1100000000.0 0.07927355656241214 -0.14334069872852895
1120000000.0 -0.023586847562607937 -0.19783385950458732
1140000000.0 0.23206018333877454 0.08038999480245748
1160000000.0 0.053855934384946666 -0.2842817892498632
1180000000.0 -0.2589344458748967 0.20970551338552745
1200000000.0 -0.324881647800583 0.16448256245173976
1220000000.0 -0.3646378204905875 -0.15670851817248216
1240000000.0 0.39452464436980955 -0.12511992619709916
1260000000.0 -0.3472815008134654 0.26313577066668864
1280000000.0 0.4047448247733127 -0.16947266551916942
1300000000.0 -0.2595580879740246 -0.35769243767300085
1320000000.0 -0.411287288376655 0.12295095959258825
1340000000.0 -0.16073646098082991 -0.3899915958185591
1360000000.0 0.25531500563728676 -0.3335915017346617
1380000000.0 0.28456165232119124 -0.31212957625622484
1400000000.0 -0.27476209808327456 -0.3051397931951394
1420000000.0 -0.3961352757867718 -0.03738526781499787
1440000000.0 0.06889985538113669 0.37024959815925673
1460000000.0 0.28328229033745245 0.20253488944805284
1480000000.0 0.21959580287014657 -0.23866019104545613
1500000000.0 -0.20888870680152616 -0.2108033836485093
1520000000.0 -0.25900378876200597 0.07486922677608648
1540000000.0 0.009946426480267494 -0.2443157415215393
1560000000.0 0.09084669079017836 -0.19065875695656959
1580000000.0 0.06499014516491716 -0.16707132051062248
1600000000.0 0.005920983999603511 0.14633537691911067
1620000000.0 0.062081625463783395 -0.09338358142780222
1640000000.0 0.00836236285478247 -0.08397175237423242
1660000000.0 -0.05987962167103833 -0.002340861359731572
1680000000.0 -0.005591073579749966 -0.0300151397324686
1700000000.0 -0.003931558649767355 0.011026196262694401
1720000000.0 0.013448536191181235 -0.009629176524891382
1740000000.0 0.020472120657289206 0.030915767458528438
1760000000.0 0.008565571507289234 -0.05667183792198269
1780000000.0 0.01712714793238411 0.07930074527601642
1800000000.0 -0.11364349045286785 -0.015483343164319851
1820000000.0 0.1309829269032458 -0.05101432255412703
1840000000.0 -0.08157857097121428 -0.14623591165990754
1860000000.0 -0.06553886823805392 0.1839581535567229
1880000000.0 -0.003706034865436776 0.22453700646266858
1900000000.0 0.021561042377267692 0.26031576838991405
1920000000.0 0.2886392850990236 -0.07226189409789971
1940000000.0 0.12690966060762182 -0.3092328683981072
1960000000.0 -0.3692571129416676 -0.012755786519976792
1980000000.0 0.157896703351015 0.36269940725641964
2000000000.0 0.3974868759051683 -0.13615239601574775
2020000000.0 -0.2251445226929668 -0.37866642469515244
2040000000.0 -0.1671723929419717 0.4193501903384858
2060000000.0 0.45332765060367664 -0.0040431537087545375
2080000000.0 -0.20230915185952567 -0.40206295930486335
2100000000.0 -0.3452657071240688 0.2673837883643567
2120000000.0 -0.12057782729876983 0.40003708631604196
2140000000.0 -0.3951141479213675 -0.04296020277881478
2160000000.0 -0.37711823548048873 -0.03330921027175363
2180000000.0 -0.20943997292703176 -0.2965026509043034
2200000000.0 -0.04720500419890632 -0.34799487254795314
2220000000.0 0.2147749640924338 -0.273652132832977
2240000000.0 -0.07569917452295219 -0.3422697699133527
2260000000.0 -0.2986165175819311 -0.19780435130472962
2280000000.0 -0.11604357890110302 0.3483657337221618
2300000000.0 0.3675185750053622 -0.10248610336689776
2320000000.0 -0.3467742693934266 -0.20551575524620994
2340000000.0 -0.0901649333534483 0.4208938738002908
2360000000.0 0.2696168239381984 -0.3790577667190456
2380000000.0 -0.4977794360709724 0.10673885964151333
2400000000.0 0.5503528924995312 -0.09809535909756821
2420000000.0 -0.524876388282252 0.3105367838530713
2440000000.0 0.18419004440207212 -0.6310819869668322
2460000000.0 0.3061575603093388 0.6250255590327768
2480000000.0 -0.618482402100303 -0.37959754996936657
2500000000.0 0.677820440565535 0.3091524176354591
2520000000.0 -0.6133984699412224 -0.43935087814058255
2540000000.0 0.3324485630608914 0.6792687699115442
2560000000.0 0.216146704175559 -0.7189000083531831
2580000000.0 -0.7023409506329424 0.21856702496692207
2600000000.0 0.5880106357920156 0.4000858475921059
2620000000.0 0.030955972853728322 -0.6809575878707853
2640000000.0 -0.27515154657234264 -0.5829725788848436
2660000000.0 -0.327945671150463 0.5027249227963645
2680000000.0 0.5492820388270417 0.08574795147453504
2700000000.0 -0.2289565286491491 -0.45758174685157943
2720000000.0 -0.03939974746413345 0.4642015162460981
2740000000.0 0.26805909012392287 -0.3278573330995099
2760000000.0 -0.3006598893839578 0.24027354185601263
2780000000.0 0.2227207948307615 -0.27271255562923685
2800000000.0 -0.10718730558568505 0.3076596323276702
2820000000.0 -0.14495375196834318 -0.2706051822400356
2840000000.0 0.28006954963294806 0.08914083938606057
2860000000.0 -0.2508113549108169 0.1407559903913846
2880000000.0 0.09223909152635966 -0.27022635280062135
2900000000.0 -0.046952414962107884 0.28062210917278263
2920000000.0 0.2840894618051668 -0.05442212292479231
2940000000.0 -0.11937316806311114 -0.2699701306941046
2960000000.0 -0.26807308190850104 -0.13678016675357277
2980000000.0 -0.30566864739557825 0.030740403621815442
3000000000.0 -0.2805689877413138 -0.13409758274492845
3020000000.0 -0.08347355672951731 -0.30271868823228165
3040000000.0 0.29442224747829715 -0.09998859467669516
3060000000.0 -0.03728687387973595 0.30689055462591946
3080000000.0 -0.13183081568598498 -0.2730265700519052
3100000000.0 0.267168339465453 0.127839121104644
3120000000.0 -0.28090693066868716 -0.05077569917985541
3140000000.0 0.19036606275711168 -0.19488411081881354
3160000000.0 -0.19807888264791967 0.16120929860928013
3180000000.0 0.14219929237099185 0.1920283326412735
3200000000.0 -0.18566587779582105 -0.11468673433722362
3220000000.0 0.18880163183991316 0.05460928374972764
3240000000.0 -0.12698452010069788 0.11612657280185869
3260000000.0 0.016586407847646017 -0.1446571647226951
3280000000.0 0.1154040774770977 -0.01724382579321948
3300000000.0 0.08540792164073187 -0.022199586782112705
3320000000.0 -0.054076384197457326 -0.02025325191482272
3340000000.0 -0.029272069775375185 0.004621113304978381
3360000000.0 -0.004073936670493011 0.011906458923336097
3380000000.0 -0.01918149591441515 0.0051285888788595
3400000000.0 -0.031089022248161784 -0.005372055687334813
3420000000.0 -0.0041301052482260415 -0.04079939405636462
3440000000.0 -0.03493793842714593 -0.027602222208953676
3460000000.0 -0.018974239044455846 0.04100832229332486
3480000000.0 0.05265566370240345 0.0012743476404751001
3500000000.0 0.06911658652153091 0.0008816985688626183
3520000000.0 -0.037057007344142044 -0.08519348439874538
3540000000.0 0.04101019030124134 -0.10544731257751953
3560000000.0 0.045356998516431025 -0.12248510706307762
3580000000.0 0.12142736235383314 -0.07733000558666586
3600000000.0 0.1501673470476709 -0.05620231043645597
3620000000.0 0.14946077147300532 -0.07732419642871563
3640000000.0 0.17561596431283538 0.01795415732964019
3660000000.0 0.06536270239309361 0.16907300071667875
3680000000.0 -0.1850060165843517 -0.002063762711593618
3700000000.0 0.03724341758477343 -0.1800548947418202
3720000000.0 0.12052802667142888 0.14172280784172736
3740000000.0 -0.14603570424694426 0.11253113761375749
3760000000.0 0.11548501267897922 -0.1406732722574271
3780000000.0 -0.045830043673718124 0.1699343085625594
3800000000.0 0.04722246065702546 -0.1614840785989217
3820000000.0 -0.1580756718708242 -0.01740480479101227
3840000000.0 -0.1392418689763674 -0.05194710983307522
3860000000.0 0.10826577061383923 -0.09409460244995872
3880000000.0 0.03653579886720928 0.14214410013366136
3900000000.0 -0.022048424953198743 0.15047347805269676
3920000000.0 0.0892166643965123 0.13356547565642848
3940000000.0 -0.1717210405600891 0.0020317930137515247
3960000000.0 -0.18066534137097703 0.013615472085951439
3980000000.0 0.18295478009191296 -0.0055719430693215
4000000000.0 -0.033948840806735124 -0.17145245645216636
