! Created with skrf (http://scikit-rf.org).
# Hz S RI R 50.0 
!freq ReS11 ImS11
400000000.0 -0.616285522790805 0.593627637358713
420000000.0 -0.11292646080958425 0.8587830091420146
440000000.0 0.836738468965985 0.05727964396291653
460000000.0 0.08930004464052856 -0.7935111051537656
480000000.0 0.2807881027123816 -0.6731202364774376
500000000.0 -0.3640308282872425 0.4375210172459277
520000000.0 -0.4708852938465295 0.047216335232365125
540000000.0 0.4021093070921514 0.10982622929669793
560000000.0 -0.31697254451358736 -0.1574362574777087
580000000.0 0.32836113960375 -0.06329764445481917
600000000.0 -0.15832405394349733 -0.28332695056580487
620000000.0 -0.041961797278523665 0.3369224011935274
640000000.0 -0.21084121099710365 0.2951578310796001
660000000.0 -0.23983527398824692 0.2957949327084467
680000000.0 -0.1643341720437577 -0.3731207311170292
700000000.0 -0.4008274613223105 0.15285035606822966
720000000.0 -0.026097417955781677 0.4385566509763032
740000000.0 -0.3272307434039495 0.29711427096072984
760000000.0 0.2912778796737451 -0.31108217706185975
780000000.0 0.3909997143326357 0.06588122767011333
800000000.0 -0.1205146906633365 0.3403080595078772
820000000.0 -0.00558859616285351 0.30374823600323064
840000000.0 -0.09621869017599251 -0.22530975617033022
860000000.0 0.01791805494693374 0.19770216994915718
880000000.0 0.014055130888426292 0.15543326849152023
900000000.0 0.05508006388126639 0.060901593366250735
920000000.0 -0.028886707666266945 0.038771216750798886
940000000.0 0.034405907078643175 0.014872005845886209
960000000.0 0.0488938214352888 -0.0050960557339449816
980000000.0 -0.014228455985902312 0.061842720443732895
1000000000.0 -0.05066967070752757 -0.04598793033899909
1020000000.0 0.01898947470767715 -0.08042581202504291
1040000000.0 0.05450531669959688 -0.07050871736485953
1060000000.0 -0.07963013425133915 -0.10150798731639026
1080000000.0 0.024898750505607366 0.14524709907226613
1100000000.0 0.08114351327499167 0.15566280345638517
1120000000.0 0.1840321896217646 -0.07779006361300095
1140000000.0 -0.16432876208865196 -0.17534452972370906
1160000000.0 -0.23698664128885139 0.15188537001482905
1180000000.0 -0.14858157892084423 0.28222496889836196
1200000000.0 -0.2441329457519188 0.2517955706570239
1220000000.0 -0.03772707713919563 -0.37706645343974915
1240000000.0 0.22458940149113557 0.33497080011752917
1260000000.0 -0.13692405788321718 -0.4040465019610984
1280000000.0 -0.007949569045570867 0.44091136081285554
1300000000.0 0.2961581406809592 -0.33643711922894765
1320000000.0 -0.37142499774702253 -0.23952052509876828
1340000000.0 -0.28217074817404747 -0.33083233416065894
1360000000.0 0.02976835339952019 -0.4287792671027635
1380000000.0 -0.23966601334091736 -0.3576555680130256
1400000000.0 -0.32090300734001775 0.2658029091091325
1420000000.0 0.013104094920148517 0.3982823802768758
1440000000.0 0.371768977064512 0.01827204997653894
1460000000.0 0.24737328445474402 -0.23459071945613538
1480000000.0 0.1399581649864349 -0.280483410407373
1500000000.0 -0.031259509076709935 -0.2841027059371966
1520000000.0 -0.2189267860422943 0.14209481043413197
1540000000.0 0.15132647662393606 0.18431716783517235
1560000000.0 -0.11006752315522497 0.17744747332577587
1580000000.0 -0.1735036841976265 0.05467330887705003
1600000000.0 0.1501147396799047 -0.0016265684908381402
1620000000.0 -0.04330773214651058 -0.10769001832752188
1640000000.0 -0.07556410884071596 -0.04945270709513752
1660000000.0 0.031667231749114365 -0.05937301951108241
1680000000.0 -0.03793881337700389 0.012011682197850983
1700000000.0 -0.02029912900028493 0.004056178569308306
1720000000.0 -0.0065762591960348265 -0.014398035006835501
1740000000.0 -0.005221838697517621 0.030010775617568437
1760000000.0 0.001187396980928791 -0.051762629212654156
1780000000.0 0.07734389148953512 0.023365551961341564
1800000000.0 -0.10207310747498924 -0.05528197427221856
1820000000.0 -0.08764002054146555 -0.11611204533078917
1840000000.0 0.1709619225218176 -0.0529184723127786
1860000000.0 -0.13056019756261497 0.1629268134654217
1880000000.0 0.23917961473948188 -0.020077860223264143
1900000000.0 -0.13719515390241846 -0.23520156746301182
1920000000.0 -0.24004676288637206 0.18539748759719424
1940000000.0 -0.019911416631407285 0.3307538197546745
1960000000.0 0.16993892037904915 0.3192996101357363
1980000000.0 0.38110554294812393 -0.06037516302524454
2000000000.0 0.34327239496798395 -0.2232989647215829
2020000000.0 -0.12410681942267472 -0.41445098204323827
2040000000.0 -0.4423153976207669 0.07077558496004706
2060000000.0 0.19768689369085013 0.40779969084832285
2080000000.0 0.32798110315600615 -0.31047651168166535
2100000000.0 -0.30262640894509296 -0.3252954212731409
2120000000.0 -0.4172780521407051 0.09354188044277381
2140000000.0 -0.2938384463902766 -0.2872477872226812
2160000000.0 -0.3897957512391593 0.034387777677376184
2180000000.0 -0.37098449658647664 -0.012494965403046895
2200000000.0 -0.34126469497438505 0.10009309550067726
2220000000.0 -0.31421330778137513 -0.13687268800527194
2240000000.0 -0.343151959983895 0.00914496501875065
2260000000.0 -0.3084806996839974 0.15697054795744309
2280000000.0 -0.04022505636558176 0.35441569088083424
2300000000.0 0.3510483392924433 -0.12217689137527614
2320000000.0 -0.3326562006046092 -0.21944865323080529
2340000000.0 0.10352289637838387 0.41752684235008886
2360000000.0 -0.018685055345724906 -0.4707472677380238
2380000000.0 0.010567938153596803 0.5157111938999561
2400000000.0 -0.1918288682684509 -0.5324411481543668
2420000000.0 0.4866356563631657 0.3751582972301041
2440000000.0 -0.6595104007217979 0.006832982844120305
2460000000.0 0.5842664546786083 -0.3784175449133639
2480000000.0 -0.47116785017876606 0.5491261758095611
2500000000.0 0.5900175753402503 -0.44856769871685764
2520000000.0 -0.7199935557151562 0.20802968608863578
2540000000.0 0.726077230710472 0.18414104537508058
2560000000.0 -0.23546091533870547 -0.7030140960907953
2580000000.0 -0.49535599546351444 0.5287237566655666
2600000000.0 0.6591389079909398 0.23304370518429324
2620000000.0 -0.07611024983807169 -0.6621644086884705
2640000000.0 -0.3622398344564318 -0.5133571421047399
2660000000.0 -0.2810710121878834 0.5103930902121153
2680000000.0 0.5239289010275967 0.11604600652859688
2700000000.0 -0.09284846776348167 -0.4823360423607074
2720000000.0 -0.2948700078883738 0.3334777673916562
2740000000.0 0.3908774536489954 0.10418442741676064
2760000000.0 -0.2481725400308952 -0.27387792556929713
2780000000.0 0.23844550113170632 0.24587540156528964
2800000000.0 -0.3220705645435413 -0.012434798586846738
2820000000.0 0.042691557641830614 -0.3042974183198823
2840000000.0 0.2961446018831135 0.02059313023000141
2860000000.0 -0.05774056143204262 0.28627131415454427
2880000000.0 -0.2797974444029188 -0.07087201589537943
2900000000.0 0.28720747011635833 0.016724077661142474
2920000000.0 -0.181257334083463 -0.22480431435569406
2940000000.0 -0.26112730984956767 0.12624711871060576
2960000000.0 -0.26858752490494586 0.11566609213746129
2980000000.0 -0.2906686954853688 -0.06737125082714394
3000000000.0 0.04340906304059867 -0.30042115792490587
3020000000.0 0.3075075722264856 0.0013635318383585795
3040000000.0 -0.08219961331562585 0.29750631848111236
3060000000.0 -0.18678534140903275 -0.24717502271882769
3080000000.0 0.3046901231551022 -0.03567704161657662
3100000000.0 -0.1459644565379357 0.2633249079649235
3120000000.0 -0.1379986238397924 -0.25712586753241506
3140000000.0 0.2695006047033147 -0.07448160706874214
3160000000.0 -0.19125771974443442 -0.1763853791145902
3180000000.0 0.22377390225042904 -0.08833511431211355
3200000000.0 -0.03128767946825658 0.21130019561534163
3220000000.0 -0.038947364504019255 -0.18110268655533696
3240000000.0 -0.057103094459897016 0.14475473299745778
3260000000.0 0.09155067329859248 0.08976415726385667
3280000000.0 0.10245835425705871 -0.01562523749693756
3300000000.0 -0.08155467618015673 -0.01926121579515199
3320000000.0 -0.02799615959545701 -0.052610684639373156
3340000000.0 0.03000788756584073 0.023780597168412992
3360000000.0 -0.004791792778780808 -0.018693887610761118
3380000000.0 0.006924009731113358 -0.016423980730593625
3400000000.0 -0.01914234729531184 0.024177210921352176
3420000000.0 -0.04488168279515954 0.0068092238978996866
3440000000.0 0.0403894880703646 0.034101482867152984
3460000000.0 -0.040934129714167274 0.039396742853539155
3480000000.0 0.027306868313677447 -0.05294310806557849
3500000000.0 -0.06085619114710882 -0.027235520082327835
3520000000.0 0.07182893032177219 0.04022235641088985
3540000000.0 0.03283248440219974 -0.09405002517912764
3560000000.0 -0.08785517788267565 0.07705441283486203
3580000000.0 -0.05620852161628258 -0.1239584169206884
3600000000.0 -0.046584015083510275 -0.15061064842959832
3620000000.0 -0.1692660753676863 0.019441769842001886
3640000000.0 -0.18159262853075184 0.013786101860622265
3660000000.0 -0.09352328020198412 0.16424486693963425
3680000000.0 -0.1238313992360332 0.14172921925814344
3700000000.0 -0.18144033773456 0.033476911855839155
3720000000.0 -0.048978217787581976 -0.17213528169069617
3740000000.0 0.1694998339817063 0.03312024015832696
3760000000.0 -0.020573736290573047 -0.16723845302245124
3780000000.0 -0.1400783565410494 0.08152183112177945
3800000000.0 0.03273124857655692 0.15540601081597022
3820000000.0 0.14914486159053586 -0.046446288938710924
3840000000.0 -0.013068052619579138 -0.15156413505877134
3860000000.0 -0.028078620732053583 -0.14765358833187434
3880000000.0 -0.10695291972540147 -0.10388572962774878
3900000000.0 -0.14042095767679813 -0.04786865245221489
3920000000.0 -0.10422036990980735 0.10972160631990763
3940000000.0 0.11788143979366923 0.10529665310859235
3960000000.0 -0.09078634964513299 0.14044562980932881
3980000000.0 0.010644189112918909 0.17217627984000466
4000000000.0 0.13776532667171798 0.09957049517361166
