! Created with skrf (http://scikit-rf.org).
# Hz S RI R 50.0 
!freq ReS11 ImS11
400000000.0 -0.7925284227926996 0.33641004768877236
420000000.0 0.14877319931945512 0.8528118086609487
440000000.0 0.8055516160938275 -0.23294369881643498
460000000.0 0.3104125630673063 -0.724404224066473
480000000.0 0.6208004053511249 -0.3736067889842655
500000000.0 -0.48464525267447556 -0.29103201357492625
520000000.0 -0.453808078001656 -0.17915180857613677
540000000.0 0.12070261744909826 -0.39444337284992964
560000000.0 -0.346712208294072 -0.12404516095864719
580000000.0 0.11199637866023679 -0.30016453159770207
600000000.0 0.014150289114539768 -0.3274566376103617
620000000.0 0.3139354195684724 -0.10633547623424175
640000000.0 -0.34542489955114786 0.05231257150774281
660000000.0 -0.3017711733502876 0.23553184907979366
680000000.0 0.16376964628417306 -0.37015141681775166
700000000.0 -0.4324087204853696 0.07775752382121544
720000000.0 0.021190826172032676 0.44227837516163515
740000000.0 -0.3844262351873602 0.24580076156334318
760000000.0 -0.16811996150745454 -0.4014841657714864
780000000.0 0.40085780024878037 0.002512865975467242
800000000.0 0.17323194561687918 0.3186592563496526
820000000.0 0.04063500331416213 0.2956831273569148
840000000.0 -0.047365033146555234 -0.24217670786378198
860000000.0 0.17881519810500973 -0.07363509970263796
880000000.0 -0.057040136436285555 -0.13731132953898806
900000000.0 0.03177087377875576 0.06069462227343866
920000000.0 -0.03187056919052657 0.016183052885208153
940000000.0 -0.002501732860772721 0.040580166345370684
960000000.0 -0.04231925532811125 -0.02878956302527585
980000000.0 0.02330696257478865 0.050901861276762696
1000000000.0 -0.06296071316778934 0.006086129401422191
1020000000.0 -0.020394175411820543 -0.06726486527935203
1040000000.0 -0.007050106495253873 0.08036018973489654
1060000000.0 0.06655736468563453 0.0942446044935074
1080000000.0 0.1335396875500467 0.03470105519314986
1100000000.0 0.08681196473245258 -0.13835954029248562
1120000000.0 0.0029403655285452682 -0.19890265040783636
1140000000.0 0.2342876075215159 0.0731257947708577
1160000000.0 0.05486846247036881 -0.28361750199649477
1180000000.0 -0.2626439129947854 0.2043837208768469
1200000000.0 -0.33460069213554167 0.14351132647359274
1220000000.0 -0.35728779319131365 -0.17249509734695484
1240000000.0 0.398237443028699 -0.11370034092212501
1260000000.0 -0.3424526673012217 0.26952574629536724
1280000000.0 0.3987315241227773 -0.18346939140997878
1300000000.0 -0.26079317458947027 -0.3566757796799079
1320000000.0 -0.40189337440366213 0.15077651044582588
1340000000.0 -0.17399121828393377 -0.3848176742328145
1360000000.0 0.2551604589306498 -0.3338883880822463
1380000000.0 0.28230115448007503 -0.314262049547617
1400000000.0 -0.283033444580891 -0.2970478172893258
1420000000.0 -0.3964478023373205 -0.029133087604825504
1440000000.0 0.07224341329694547 0.36929827754412814
1460000000.0 0.2870000264645364 0.1963502430873215
1480000000.0 0.19317309564499444 -0.26055677864206467
1500000000.0 -0.19921858342295107 -0.21981619004156716
1520000000.0 -0.2579299572551065 0.07556772940613309
1540000000.0 0.04403132592893898 -0.24097703401232565
1560000000.0 0.10894436093400872 -0.18116582339822593
1580000000.0 0.041952896817733905 -0.1746280465009189
1600000000.0 0.0009044387840786675 0.14718297900416258
1620000000.0 0.04590400309255179 -0.10260858993041135
1640000000.0 0.019866171447066566 -0.0819034710461945
1660000000.0 -0.05931805220941401 0.009495670383998159
1680000000.0 -0.009289413070720816 -0.029329918591500585
1700000000.0 0.006981937536429387 0.008957300528798546
1720000000.0 0.016651838522693276 -0.002515323399726397
1740000000.0 -0.030275981150634828 0.021565150034591418
1760000000.0 0.026151286419138588 -0.051434120293360246
1780000000.0 0.006863069812477792 0.0806548490814788
1800000000.0 -0.11031582146249452 -0.03190516118623783
1820000000.0 0.1252719216877196 -0.06339272097897847
1840000000.0 -0.09819878081336147 -0.13590985750590157
1860000000.0 -0.044776000261013055 0.19029302201393006
1880000000.0 0.02482036979088396 0.22339497681883413
1900000000.0 0.04597647584393264 0.25703351865079943
1920000000.0 0.2857034236126089 -0.08239478373838073
1940000000.0 0.11060683681794609 -0.3152705271172331
1960000000.0 -0.3687547434606385 -0.013794790640907063
1980000000.0 0.17350458853553566 0.3556568816657175
2000000000.0 0.3964151276681749 -0.13958575027358688
2020000000.0 -0.21943775648942168 -0.3823960994836522
2040000000.0 -0.18732623003669283 0.4112906242915613
2060000000.0 0.4535611204675932 0.015986243628037623
2080000000.0 -0.17525368527745705 -0.4152542288661113
2100000000.0 -0.3480568597207439 0.2652399922833018
2120000000.0 -0.13663007796424306 0.39519823267774806
2140000000.0 -0.3941144747392436 -0.05366215612533482
2160000000.0 -0.377733630023472 -0.023840194297081535
2180000000.0 -0.2066106045891516 -0.298303345710075
2200000000.0 -0.04023958513836988 -0.3481417393816807
2220000000.0 0.24363524193762606 -0.24737264583686186
2240000000.0 -0.03474504032599262 -0.3484073290217514
2260000000.0 -0.29798164689091555 -0.1981832864191466
2280000000.0 -0.1425147882732263 0.337850872818779
2300000000.0 0.3738706931032529 -0.07546189100940148
2320000000.0 -0.34983685593490466 -0.2001433725576369
2340000000.0 -0.05347892647297862 0.4270742145754462
2360000000.0 0.25034558801280954 -0.3920436575808369
2380000000.0 -0.49157180623837177 0.13317785977201638
2400000000.0 0.5403254809621275 -0.14472360806972143
2420000000.0 -0.4967332219315924 0.3544354276011314
2440000000.0 0.1421442761534859 -0.6423639999893987
2460000000.0 0.32062525864493324 0.6182480685779849
2480000000.0 -0.6220603068218223 -0.37480767629413614
2500000000.0 0.6484086755498664 0.36774244120670546
2520000000.0 -0.5979539795401135 -0.4613925835219549
2540000000.0 0.34705583575557464 0.6718509996266006
2560000000.0 0.19802202534739322 -0.7231343861646178
2580000000.0 -0.6792261157291433 0.2801576046687229
2600000000.0 0.591003614446215 0.39450256806083156
2620000000.0 -0.02937862014128514 -0.6795646523083598
2640000000.0 -0.26829604511877825 -0.584222602075666
2660000000.0 -0.28456043603105324 0.5266525900964429
2680000000.0 0.5544403375798151 0.012921499629798024
2700000000.0 -0.2738315391884777 -0.4311178968224007
2720000000.0 -0.006057388550236704 0.4652272186595806
2740000000.0 0.2678071624048337 -0.32758554815095464
2760000000.0 -0.3042186990972993 0.235619409180689
2780000000.0 0.19798685193831334 -0.2913779137197874
2800000000.0 -0.08148593778105724 0.31524356894122835
2820000000.0 -0.16891624675299455 -0.25577399521104077
2840000000.0 0.28328583459511614 0.07876897895815287
2860000000.0 -0.26429953609604356 0.1144237674772018
2880000000.0 0.10196969418378075 -0.26645054248116307
2900000000.0 -0.11094590562479745 0.26196927912033513
2920000000.0 0.28741507493903534 0.03114266016893855
2940000000.0 -0.046013957420694133 -0.29085805094208084
2960000000.0 -0.26343986403402647 -0.14409947637874665
2980000000.0 -0.303283080615567 0.042480768820124366
3000000000.0 -0.28922452636981005 -0.11394274357758549
3020000000.0 -0.11339776674554299 -0.2927468932532301
3040000000.0 0.2920294973602276 -0.10569461369138093
3060000000.0 -0.024082300176100278 0.3085740294489125
3080000000.0 -0.15704655167234027 -0.25928074958025205
3100000000.0 0.2784066530194241 0.10194517837793685
3120000000.0 -0.2837075387893006 0.04041423372688567
3140000000.0 0.20545858775121265 -0.1797202570821328
3160000000.0 -0.18970322314350282 0.17176162351106544
3180000000.0 0.14109224783987698 0.1932717261624232
3200000000.0 -0.17135771958940857 -0.13520149734183273
3220000000.0 0.18171691196249445 0.07597728635904849
3240000000.0 -0.1497382487081845 0.08431816058312303
3260000000.0 0.02231617951253363 -0.14365405805653553
3280000000.0 0.11353910691174714 0.02509556660728434
3300000000.0 0.08554259874318615 0.020703020015800776
3320000000.0 -0.037166047124638064 -0.04374486433870983
3340000000.0 -0.023030164303650714 0.01761306162172547
3360000000.0 0.012173509760985843 0.0008881457222614347
3380000000.0 -0.017109165241852332 0.011148720287961605
3400000000.0 -0.026135062391516074 -0.019089860505253235
3420000000.0 0.03730573051895829 -0.019842119799765037
3440000000.0 -0.027951916378789327 -0.035150230843057184
3460000000.0 -0.027710818927396498 0.03700382655617662
3480000000.0 0.04967443797294538 -0.020495397538783065
3500000000.0 0.04605390726991579 0.05175509444865042
3520000000.0 0.011535182658814482 -0.0924547714068069
3540000000.0 0.08386522268991013 -0.07647646694922218
3560000000.0 0.10915408446793816 -0.07228318880653864
3580000000.0 0.1432952662293818 -0.017232519913627665
3600000000.0 0.1559589595352186 -0.03871870400926632
3620000000.0 0.15914293176633038 -0.05624368501242384
3640000000.0 0.17334996383517276 0.033577450806027316
3660000000.0 0.03258450255370709 0.17863542472742439
3680000000.0 -0.17889810525755212 -0.04226886635229088
3700000000.0 0.06149476783679947 -0.17267186346665703
3720000000.0 0.08402757798638875 0.16432473100896983
3740000000.0 -0.13020491603778128 0.12815883393618446
3760000000.0 0.08783767343624962 -0.15755930276088578
3780000000.0 -0.007625628867268423 0.17468882892267854
3800000000.0 0.024816468025619313 -0.1661122067114606
3820000000.0 -0.14770925471426538 0.05803327845216964
3840000000.0 -0.1311209870978559 0.06859863889984474
3860000000.0 0.025046519497005607 -0.14084556783837918
3880000000.0 0.10479353230700718 0.1024667306609512
3900000000.0 0.04955235020644809 0.14299655250979357
3920000000.0 0.11985672604102955 0.10647620574819125
3940000000.0 -0.15703828155059818 0.06945480692470113
3960000000.0 -0.16057185031737398 0.08531993897936402
3980000000.0 0.1841109423253035 -0.014959767676441183
4000000000.0 -0.02979927989084203 -0.17378317438587945
