! Created with skrf (http://scikit-rf.org).
# Hz S RI R 50.0 
!freq ReS11 ImS11
400000000.0 -0.7819486200942978 0.36543970127372033
420000000.0 0.1949001227399243 0.8437934200289708
440000000.0 0.81468426851641 -0.1991244373429519
460000000.0 0.3307920050967886 -0.7151359875372
480000000.0 0.6148976656962986 -0.3832137220708299
500000000.0 -0.48364360061304323 -0.2919234406359772
520000000.0 -0.4523751886347654 -0.1827415671993401
540000000.0 0.12533336023862812 -0.39313410549930355
560000000.0 -0.35207052860040844 -0.1063349628216836
580000000.0 0.09764087956049035 -0.3051279750598411
600000000.0 -0.011192912961825487 -0.3276520922886268
620000000.0 0.3160257280266015 -0.10027757028557009
640000000.0 -0.34800873870506727 0.029230848195081434
660000000.0 -0.3006119157607188 0.23692482333872125
680000000.0 0.17494500311573924 -0.3650657566957243
700000000.0 -0.4326891957052965 0.0766221277283025
720000000.0 0.01710265311614519 0.4423173358287279
740000000.0 -0.38280830047866254 0.2479569646974709
760000000.0 -0.1717053493029535 -0.39992067580884305
780000000.0 0.40081159830363555 0.0020955042382195133
800000000.0 0.1729680900296113 0.318740646129675
820000000.0 0.046890490484246164 0.29475338426593417
840000000.0 -0.04706709676249555 -0.24236079174463812
860000000.0 0.1795943287227211 -0.0718747745937523
880000000.0 -0.058775957761834106 -0.13664773354774107
900000000.0 0.0258067264921886 0.0635223140814099
920000000.0 -0.03331738095451912 0.01271331666478102
940000000.0 -0.001526075432054739 0.040357810058904396
960000000.0 -0.046805477762958396 -0.02016873546815192
980000000.0 0.027427832646225257 0.0486862006141531
1000000000.0 -0.061934443151687106 0.012506905952106578
1020000000.0 -0.026002906606083027 -0.06530327572327528
1040000000.0 -0.005642463254249879 0.0805932390788464
1060000000.0 0.0660572562448842 0.09468679478486934
1080000000.0 0.13414864550154434 0.03271786883593893
1100000000.0 0.0901332524725099 -0.13631985339611663
1120000000.0 0.011192088977633142 -0.19863862996477286
1140000000.0 0.23289846727609076 0.07741735383799352
1160000000.0 0.06347084527765853 -0.28175678009893734
1180000000.0 -0.26913679887969416 0.19541820515466612
1200000000.0 -0.34072733761246066 0.12717798982727718
1220000000.0 -0.3482509396718323 -0.18971207078606978
1240000000.0 0.3963168426117915 -0.11972476878555262
1260000000.0 -0.3430479130307553 0.26857744624203544
1280000000.0 0.3984160920166472 -0.18400258776918757
1300000000.0 -0.2609400076296054 -0.35648629951378036
1320000000.0 -0.3976760511902223 0.16106355606422304
1340000000.0 -0.1803149556849523 -0.3819967613446353
1360000000.0 0.250942897841019 -0.33712465006083203
1380000000.0 0.2771171066986413 -0.31910251498565445
1400000000.0 -0.2852234729790837 -0.29499842184031205
1420000000.0 -0.39656083168769773 -0.02827895867027612
1440000000.0 0.06790915987919512 0.3702345604908188
1460000000.0 0.2870195061299414 0.19647668266239024
1480000000.0 0.2224538152420356 -0.23623493502378018
1500000000.0 -0.1883579381767926 -0.22894594215076597
1520000000.0 -0.26527666794601257 0.04552691744902083
1540000000.0 0.025642444170274212 -0.24330866275554516
1560000000.0 0.13071909221688832 -0.1660028549989191
1580000000.0 0.07972277400674904 -0.16099107794203518
1600000000.0 -0.00088916926082443 0.1472540517315829
1620000000.0 0.05087371637720142 -0.10012783190206027
1640000000.0 -0.0016369393778943799 -0.08438431649459137
1660000000.0 -0.059051372623313295 0.010535259716659832
1680000000.0 -0.01895091661353162 -0.024774504947471822
1700000000.0 0.009061662420114943 0.007993777635414595
1720000000.0 0.006081593353708935 0.01576723992647126
1740000000.0 -0.018932156271243616 0.032097301583052774
1760000000.0 0.02784605447381776 -0.05035556174469376
1780000000.0 0.014548801376656753 0.07970173231659772
1800000000.0 -0.11108296008098555 -0.029218169268089463
1820000000.0 0.12188522169790388 -0.07029942333132648
1840000000.0 -0.10215857671518168 -0.13303643494221853
1860000000.0 -0.03917865839039951 0.19162713091574807
1880000000.0 0.03342830022471932 0.22241178723866117
1900000000.0 0.043968453004074794 0.2575907697705113
1920000000.0 0.28772082496288437 -0.07538239785563489
1940000000.0 0.11496498682081101 -0.31377797809102287
1960000000.0 -0.36809170839423866 -0.02611702618241618
1980000000.0 0.16186044584630394 0.3610032612730636
2000000000.0 0.3990276196574245 -0.13181393066299749
2020000000.0 -0.236736042052258 -0.37160866746929405
2040000000.0 -0.1901828598593177 0.4099843504118382
2060000000.0 0.45188960087335495 0.04349281972132539
2080000000.0 -0.1587997063162611 -0.4218890322159591
2100000000.0 -0.35626384852517257 0.2541809662451608
2120000000.0 -0.08170537007130346 0.4098393796416608
2140000000.0 -0.39433947884800485 -0.052987657905152946
2160000000.0 -0.3777672355199701 -0.024219201654836868
2180000000.0 -0.19734439062640705 -0.3046259106262282
2200000000.0 -0.04683216027639258 -0.34727316404544467
2220000000.0 0.2306691550518203 -0.2597101869465007
2240000000.0 -0.03017758512183673 -0.34886942768272905
2260000000.0 -0.3002466005784913 -0.19533679504892235
2280000000.0 -0.15691479256936738 0.33147201025631823
2300000000.0 0.37535667128987854 -0.06766372174770506
2320000000.0 -0.34695130067850927 -0.2054069886550789
2340000000.0 -0.06447619746407031 0.425587428082888
2360000000.0 0.256365848719427 -0.38816191078990225
2380000000.0 -0.49161718280368155 0.13345730410566206
2400000000.0 0.5426895585149653 -0.13445024417939208
2420000000.0 -0.49408021953508174 0.35759927666894703
2440000000.0 0.1302178802688693 -0.6446398385439358
2460000000.0 0.3175497378435634 0.6195454652566568
2480000000.0 -0.617693422916433 -0.3821604672715346
2500000000.0 0.6745276190909346 0.31646607556169776
2520000000.0 -0.6247019160388471 -0.4238321544692362
2540000000.0 0.3768679463818158 0.6556065908945679
2560000000.0 0.18876180616981014 -0.7256276875045706
2580000000.0 -0.6908667022999373 0.25047976627214125
2600000000.0 0.5963656888630648 0.38645996094958324
2620000000.0 -0.03048118399572337 -0.6795085686804863
2640000000.0 -0.2895004076557165 -0.5739633671568496
2660000000.0 -0.32626465611639677 0.5017190031365298
2680000000.0 0.5525794770895571 0.04555698574115123
2700000000.0 -0.2625663845743077 -0.437842754233688
2720000000.0 -0.006993427593475183 0.4648458968944474
2740000000.0 0.26769993975167333 -0.3272855603783899
2760000000.0 -0.29161146643597163 0.25079211235999976
2780000000.0 0.18399156703309102 -0.3001370507575565
2800000000.0 -0.06611213653187989 0.3187495205216533
2820000000.0 -0.18714283589798644 -0.24266239216995342
2840000000.0 0.28779022964402057 0.06019145849402597
2860000000.0 -0.24391043082711109 0.15298182124003867
2880000000.0 0.09476423642267257 -0.26920976885346265
2900000000.0 -0.11446987294246401 0.2604408819149077
2920000000.0 0.28891009517698496 0.01241055094979577
2940000000.0 -0.0352506087024487 -0.292648311297185
2960000000.0 -0.26558802392213343 -0.14030590397079823
2980000000.0 -0.30659507139174297 0.01789537340205596
3000000000.0 -0.2772328889150074 -0.1406930507619796
3020000000.0 -0.08584227071073723 -0.3019318201946737
3040000000.0 0.30605385280024333 -0.050903270508522405
3060000000.0 -0.061341253431881675 0.3028122966136348
3080000000.0 -0.15419150612297264 -0.26083994258947335
3100000000.0 0.28445070713387405 0.08259957784059242
3120000000.0 -0.2857288820732807 0.006729603965376246
3140000000.0 0.18158371484586516 -0.20412626858127086
3160000000.0 -0.1719376848215238 0.18984895878019883
3180000000.0 0.15189294436332565 0.1847334512818515
3200000000.0 -0.17963562276943537 -0.1237214363509505
3220000000.0 0.18662159292833774 0.06404305629836268
3240000000.0 -0.14244412882134497 0.09619756470104811
3260000000.0 0.011840429629380355 -0.14488659547275287
3280000000.0 0.11397865269869795 0.023861492777212893
3300000000.0 0.08643348557353753 0.018026916389553033
3320000000.0 -0.037537169584250525 -0.04396549446560271
3340000000.0 -0.026712005813958085 0.011934831530017873
3360000000.0 0.008592416186642407 0.008426831969997344
3380000000.0 -0.013497094478311997 0.01501389353908198
3400000000.0 -0.03201685553415713 -0.0044164755233332825
3420000000.0 0.023355927728306115 -0.035325915081649
3440000000.0 -0.035450839404787785 -0.027746518991687348
3460000000.0 0.00587876709407616 0.04583379339691509
3480000000.0 0.04882149207502855 -0.021780697599686843
3500000000.0 0.06950660938286166 -0.0028276280130865405
3520000000.0 -0.0138733818761586 -0.0918645127944796
3540000000.0 0.06586399871606187 -0.09240161462437688
3560000000.0 0.09499697684423428 -0.0905070846713556
3580000000.0 0.1382441019037972 -0.04293516363863516
3600000000.0 0.15308270864202794 -0.04961328790930785
3620000000.0 0.15946906897532606 -0.05637042283552182
3640000000.0 0.17354013256372497 0.034090684954827324
3660000000.0 0.037026278193986975 0.17791881077580537
3680000000.0 -0.1781997814543435 -0.04659301449543667
3700000000.0 0.06304991360890005 -0.1723198914189073
3720000000.0 0.07364839326742177 0.16944835846655962
3740000000.0 -0.14473709421251976 0.11166632686285413
3760000000.0 0.10556484133671198 -0.14691114840181202
3780000000.0 -0.039367618169342596 0.17069575656986133
3800000000.0 0.04332293351549794 -0.16258667455178089
3820000000.0 -0.15291418244081684 0.043781652799590336
3840000000.0 -0.13935204018360436 0.050759393081371965
3860000000.0 0.04889937212610363 -0.13475564800814166
3880000000.0 0.08706819707105694 0.11791442919076213
3900000000.0 0.01716027542152515 0.15060567106654138
3920000000.0 0.09110083041240619 0.13208468927675948
3940000000.0 -0.1651312955663849 0.04631506165945066
3960000000.0 -0.1703088792874003 0.0625442692417743
3980000000.0 0.18431369015653873 0.003323134683479213
4000000000.0 -0.03356027337513601 -0.17251644962560864
