! Created with skrf (http://scikit-rf.org).
# Hz S RI R 50.0 
!freq ReS11 ImS11
400000000.0 -0.5753792765943981 0.6360702404830765
420000000.0 -0.07300250441503493 0.8624846949244976
440000000.0 0.8378807901770597 0.009710613300176509
460000000.0 0.11984173578526996 -0.7895526511457276
480000000.0 0.27328408445164487 -0.6765397050705185
500000000.0 -0.3389878131769618 0.45643167663042084
520000000.0 -0.47317106332686615 0.004836040604091978
540000000.0 0.40700637995232236 0.09214775721320154
560000000.0 -0.3179077282514519 -0.15594729043149694
580000000.0 0.3321507987156092 -0.026912919166760568
600000000.0 -0.1398521841992916 -0.2931723795983037
620000000.0 -0.045707250355111056 0.3361715940738091
640000000.0 -0.20431821495815722 0.2998339340881744
660000000.0 -0.2114072237378993 0.3163059613034444
680000000.0 -0.15574157219112478 -0.3777853838906648
700000000.0 -0.3988418784479889 0.15821909721157254
720000000.0 0.024520622375778914 0.4394466850581097
740000000.0 -0.31217334954227494 0.31344678981462293
760000000.0 0.26738188156421955 -0.33323798956682205
780000000.0 0.3945762503089847 0.024968161414485927
800000000.0 -0.10561368507331736 0.34518991163255863
820000000.0 0.014006715166553982 0.30280701343409516
840000000.0 -0.08539027460197607 -0.2292796458771342
860000000.0 0.005730864600370813 0.1974730472905215
880000000.0 -0.013954619154633948 0.15528516603218934
900000000.0 0.06308697366441855 0.050666728380601975
920000000.0 -0.039244781163311836 0.02756546218389851
940000000.0 0.03093329447597266 -0.020632151005713268
960000000.0 0.040314061455929404 -0.02743130183028483
980000000.0 -0.029233091868489013 0.05616138036272308
1000000000.0 -0.038701650626802586 -0.055930966968320964
1020000000.0 0.04703156800287455 -0.06774869115582437
1040000000.0 0.08173019613888749 -0.035430793274929866
1060000000.0 -0.03758847333391957 -0.12360563822293784
1080000000.0 -0.008744799919412146 0.14707857959433937
1100000000.0 0.06563532964238762 0.1629284273744843
1120000000.0 0.1850270569816419 -0.07623731029948572
1140000000.0 -0.1726686776125698 -0.1673550156819001
1160000000.0 -0.23145599613661075 0.1604676782639597
1180000000.0 -0.11006120137423232 0.29940468474105203
1200000000.0 -0.21465722226224296 0.27747803519897357
1220000000.0 -0.06784373802265684 -0.3728340854863777
1240000000.0 0.247614587886734 0.3184221902286315
1260000000.0 -0.17564528870598103 -0.3888642758699399
1280000000.0 0.00993732069699864 0.44093285589490705
1300000000.0 0.2890958130953614 -0.34244540566348675
1320000000.0 -0.3716139519450547 -0.23935375683148347
1340000000.0 -0.2753437857642716 -0.33651915325429266
1360000000.0 0.03462447178723968 -0.42831002561232867
1380000000.0 -0.23153484126140317 -0.3628376351307588
1400000000.0 -0.32813285170864676 0.25647519953224535
1420000000.0 0.007073860406576974 0.3980045681718092
1440000000.0 0.3689774275354713 0.04522443128333606
1460000000.0 0.2771581920639472 -0.19836084046332228
1480000000.0 0.14576189489488922 -0.2776222727381976
1500000000.0 -0.02399297584169175 -0.28467543027287456
1520000000.0 -0.22584653879752659 0.13103005716529822
1540000000.0 0.16026820620757437 0.17678261749324609
1560000000.0 -0.03963657917669248 0.2047345382173127
1580000000.0 -0.14382309957357095 0.11046779008794708
1600000000.0 0.14212906394925942 -0.04693824860971681
1620000000.0 -0.10416234234399807 -0.05060690881144123
1640000000.0 -0.08807329789761192 -0.018297324119610617
1660000000.0 0.0003469868320784354 -0.06692558565464818
1680000000.0 -0.03677772704444755 0.014104787000478089
1700000000.0 -0.021012375017895754 -0.0014095209944608674
1720000000.0 -0.014484764038157872 -0.004989954550717453
1740000000.0 0.025126368579615307 0.01682520639967692
1760000000.0 -0.05148271322429084 -0.005726539250367011
1780000000.0 0.07757070924664625 -0.02235024541339762
1800000000.0 -0.10896662053855731 -0.037990534518782745
1820000000.0 -0.11266463853434647 -0.09227561433824087
1840000000.0 0.1634538433796401 -0.07320170012763375
1860000000.0 -0.12129554327211949 0.16976168643309988
1880000000.0 0.2397953932993925 -0.0022793014936606276
1900000000.0 -0.10358025351323835 -0.25196658028398616
1920000000.0 -0.26102556101943936 0.15441587325244713
1940000000.0 -0.06952510868665165 0.32415081722393313
1960000000.0 0.14266576784573248 0.3327726001036264
1980000000.0 0.38513786594226823 -0.025234976318004348
2000000000.0 0.3692465292420272 -0.17854358344705015
2020000000.0 -0.11944186483722383 -0.41605655691908705
2040000000.0 -0.42821669754477676 0.1300919653545166
2060000000.0 0.2334381886740027 0.3878095564563601
2080000000.0 0.3055870510466753 -0.3316816292122215
2100000000.0 -0.3452888089453473 -0.2779191976864308
2120000000.0 -0.4101007686792159 0.11777335000733685
2140000000.0 -0.30465106775588474 -0.27389209185813757
2160000000.0 -0.3781638345227238 0.09537052491552803
2180000000.0 -0.36894850226312587 -0.03493185938565778
2200000000.0 -0.3435585150208592 0.08997106309271378
2220000000.0 -0.30220846995776296 -0.16264899196670707
2240000000.0 -0.34154432873089596 0.03663990213892341
2260000000.0 -0.30301346553163655 0.1680871519130691
2280000000.0 -0.011608423822127303 0.35685688437235497
2300000000.0 0.3397333791860283 -0.15200504024844982
2320000000.0 -0.34143956427181626 -0.20523676129672358
2340000000.0 0.09342989756557907 0.41961547849909264
2360000000.0 -0.004084680487797161 -0.4707355384599355
2380000000.0 -0.00824002125277083 0.5153937710310398
2400000000.0 -0.14566130586216797 -0.5463811806942291
2420000000.0 0.44754315418293944 0.42032190739051406
2440000000.0 -0.6566049136831229 -0.05884431870931723
2460000000.0 0.618671937587633 -0.3175884559644164
2480000000.0 -0.500693551154455 0.521401161126166
2500000000.0 0.5715118021729724 -0.47096654059649956
2520000000.0 -0.7163075597004381 0.2191525014908612
2540000000.0 0.7132276152402796 0.2285205370823305
2560000000.0 -0.244476832553292 -0.6997636687326987
2580000000.0 -0.5463609274906439 0.47595520428273863
2600000000.0 0.6700893803201283 0.19854947729311573
2620000000.0 -0.16856551392614177 -0.6452134553986095
2640000000.0 -0.3327600065432455 -0.5332214438517677
2660000000.0 -0.29730515503717114 0.501445486201493
2680000000.0 0.530698495910846 0.0843204706486694
2700000000.0 -0.11249788925073596 -0.47859104828894733
2720000000.0 -0.2964069820672614 0.33284544186759635
2740000000.0 0.3856493634935472 0.12312299805977349
2760000000.0 -0.27135702961853564 -0.25149285727313153
2780000000.0 0.23759717923206247 0.2471110343822204
2800000000.0 -0.32199675844216774 -0.02270233277408163
2820000000.0 0.03941357530823436 -0.30486960084549697
2840000000.0 0.2932659157477648 0.0490803134098787
2860000000.0 -0.07096514713731747 0.2831238763766016
2880000000.0 -0.2682703687941698 -0.10761267404513651
2900000000.0 0.28097210559467 0.06340643573191443
2920000000.0 -0.17027352994375552 -0.23277232355439598
2940000000.0 -0.268818931253396 0.10890818452874065
2960000000.0 -0.2705114487732871 0.11147259088238402
2980000000.0 -0.2931925040205476 -0.053998356408920145
3000000000.0 0.0034519981207686897 -0.3028970255822671
3020000000.0 0.3060434115168739 -0.029776381927670615
3040000000.0 -0.08088647244519136 0.29793584353255964
3060000000.0 -0.21965337187584405 -0.21788821926353624
3080000000.0 0.30091998938260184 -0.057744760086641825
3100000000.0 -0.0939044628423102 0.286107016048102
3120000000.0 -0.163154112480115 -0.24195028196856821
3140000000.0 0.26023016487405914 -0.10108498652361791
3160000000.0 -0.1967880922875699 -0.17028954456969916
3180000000.0 0.22137409897984062 -0.09471143807211307
3200000000.0 -0.028962637201546574 0.21232162500941215
3220000000.0 -0.034784709374714735 -0.18264644081772216
3240000000.0 -0.05825174706891319 0.1452154423714063
3260000000.0 0.09276839040159067 0.08984886425649757
3280000000.0 0.10289015749186788 -0.01704747832743558
3300000000.0 -0.08418776950998244 -0.0017815596532725238
3320000000.0 -0.03230707232233585 -0.049988140537846525
3340000000.0 0.01064482454311061 0.036534160127647146
3360000000.0 0.007540138801077543 0.01635777859373095
3380000000.0 -0.003646884700586956 -0.016849806538223825
3400000000.0 0.02887369969700008 0.008528135843224944
3420000000.0 -0.0074789842571895545 0.044494470202680554
3440000000.0 0.052107301122810104 -0.005335407332143377
3460000000.0 -0.016635502716329992 0.05400986350433977
3480000000.0 0.0057019125193822785 -0.05907883802406985
3500000000.0 -0.06680385809760005 0.005380299185274218
3520000000.0 0.07077048995446751 0.04184368733609827
3540000000.0 0.03781691484226724 -0.09169637932990103
3560000000.0 -0.026189603231684514 0.1142597005400387
3580000000.0 -0.0984022674503838 -0.09397865589590591
3600000000.0 -0.09745501275049838 -0.123919514172252
3620000000.0 -0.15903769391285602 0.06209562426560482
3640000000.0 -0.17738751085121024 0.04194991742839039
3660000000.0 -0.07370768828297541 0.17437763007310364
3680000000.0 -0.11803682187368134 0.1477645715943974
3700000000.0 -0.18286364664736898 0.028970309671680735
3720000000.0 -0.047229591669053765 -0.17360757548501357
3740000000.0 0.1712013206240046 0.02974318454236292
3760000000.0 -0.020160518781352308 -0.16816710551646058
3780000000.0 -0.13035823796153606 0.09744377553540103
3800000000.0 0.036158933129639324 0.15539883617529482
3820000000.0 0.1486956826284483 -0.04953644800540165
3840000000.0 0.014001716879059087 -0.15236589235562834
3860000000.0 -0.030845586873707993 -0.1474260441119858
3880000000.0 -0.08223972684444202 -0.12489560337234511
3900000000.0 -0.12558256602914952 -0.08078249032258081
3920000000.0 -0.12210386658686073 0.09043127570664294
3940000000.0 0.1110838947051288 0.11362662072558158
3960000000.0 -0.08798794944701485 0.14204629759293544
3980000000.0 -0.00712172903159145 0.17275846518705062
4000000000.0 0.13063967001115315 0.10942850774825023
