! Created with skrf (http://scikit-rf.org).
# Hz S RI R 50.0 
!freq ReS11 ImS11
400000000.0 0.15660150237583703 0.8596644946967775
420000000.0 0.5568595585703465 0.6562026286495124
440000000.0 0.788865174265662 -0.24956609988406633
460000000.0 0.1252767179536307 -0.7791382608415572
480000000.0 0.539753764901238 -0.4570979016161237
500000000.0 0.29134628692598136 -0.48277740775965944
520000000.0 0.16675677259037372 -0.4567128873458275
540000000.0 0.42592398277928034 0.019215027913315755
560000000.0 -0.30333502751625796 -0.1779819431694294
580000000.0 -0.25467523009617143 0.2170014033379535
600000000.0 0.3046454343101575 0.12383581226802184
620000000.0 -0.1375244015833968 -0.3209450386197123
640000000.0 -0.3017411781022229 -0.2338170822845948
660000000.0 -0.39778249448404673 0.03264913040571767
680000000.0 0.12451643076160948 -0.40989141058254064
700000000.0 0.10684668855516019 0.4363704741665761
720000000.0 0.17040064169891936 -0.41902609025951393
740000000.0 0.4111878269503244 -0.1645871249245805
760000000.0 -0.4123454565315673 -0.07644571391086043
780000000.0 0.07625749861537512 -0.37589932620255795
800000000.0 0.09989681731998148 0.3340177252337419
820000000.0 0.0961812796013093 0.27265165955458126
840000000.0 0.21179431702246537 0.09973977175649915
860000000.0 0.01662830201820789 0.19928245189479807
880000000.0 -0.12925732521182243 0.04847128354220532
900000000.0 -0.012977282959630207 0.07059742252612734
920000000.0 -0.033965440827231616 0.022036908789287345
940000000.0 0.018425345445928217 0.02752549279244324
960000000.0 0.023074627088636387 -0.03945525477312652
980000000.0 0.05387988765014889 0.005025334834138392
1000000000.0 0.049631176356126724 -0.033364866530810375
1020000000.0 0.07156225279132944 -0.009157942213214447
1040000000.0 -0.037526767341008016 0.0723201637543127
1060000000.0 0.11171683912148064 -0.04675124652737589
1080000000.0 -0.1071346259532978 -0.08757559220072295
1100000000.0 -0.06576248239786278 -0.15115241325554477
1120000000.0 -0.19199874264507755 -0.03824785037726855
1140000000.0 0.2044090055866039 0.12840551917340862
1160000000.0 0.22555401600055794 -0.17631726319365548
1180000000.0 -0.11252978034271449 -0.31134030551399633
1200000000.0 -0.328456069851994 -0.16781616255486126
1220000000.0 0.011775582186831592 -0.3974783540746501
1240000000.0 0.4032011590009639 0.11317680011738747
1260000000.0 -0.43969980080147886 -0.007597181506729039
1280000000.0 0.44359099831815224 -0.06729504914463941
1300000000.0 -0.4096374884027778 -0.1807018343950428
1320000000.0 -0.13195052558373127 0.4139815568615964
1340000000.0 -0.3552638936131421 0.22245500288984701
1360000000.0 -0.14555202570402606 -0.38107245195847445
1380000000.0 0.21483315243316467 -0.346552854154867
1400000000.0 0.1392866690956808 -0.3717331174445727
1420000000.0 0.08932785573987108 -0.3767893188144523
1440000000.0 -0.19179182231159858 -0.3193257429085504
1460000000.0 -0.35188861716336506 0.029511147409514608
1480000000.0 0.0992287389100865 0.31879303537396286
1500000000.0 -0.09666573184111169 -0.2938946646147454
1520000000.0 -0.15585922985606837 0.23714042031195992
1540000000.0 -0.1789091796024635 0.1799426171270229
1560000000.0 0.043401463695352284 0.21165882000847536
1580000000.0 0.15758601175041625 0.0892510192612185
1600000000.0 -0.12974136697438507 0.07037014292103022
1620000000.0 -0.019701245157719975 -0.10407426316082935
1640000000.0 -0.07454997941949011 0.024000441977502278
1660000000.0 -0.03795685692159926 0.037129545869953616
1680000000.0 -0.020808431709516177 -0.011029285314210322
1700000000.0 0.007227011670717555 0.010891584020994903
1720000000.0 -0.0030697210764879645 -0.030519843941900993
1740000000.0 0.0524574637736011 -0.010010184692493245
1760000000.0 0.027873243675451947 -0.06353314327413037
1780000000.0 -0.010967040015355789 -0.08761964907116122
1800000000.0 0.110926788338704 0.023554534677882537
1820000000.0 0.07742111728034619 -0.1002268597214303
1840000000.0 0.1273197415760714 0.08090469565522207
1860000000.0 -0.03804901438526839 0.16943647924678099
1880000000.0 -0.12231220754244658 -0.16893827110538112
1900000000.0 0.0783838142098588 -0.23761752301236397
1920000000.0 -0.28842744695865985 -0.06674635397396293
1940000000.0 0.019576310266939904 0.3425433625687912
1960000000.0 0.10628677400496724 -0.36851468960154043
1980000000.0 -0.04299604127844388 0.4102163029504143
2000000000.0 0.2956901393155154 -0.3210966708028974
2020000000.0 -0.3746689852942688 0.2530169242117039
2040000000.0 0.4214779486932943 0.1718699791884117
2060000000.0 -0.1270179230632918 -0.4334334617106778
2080000000.0 -0.40592246067851334 0.16357655230273796
2100000000.0 -0.22962600213452863 0.3521898992212157
2120000000.0 -0.2655181541384579 0.2993657432406808
2140000000.0 -0.3758324516704813 0.07041245713259431
2160000000.0 0.27735084135198906 -0.23958175046650232
2180000000.0 0.34902276043084113 0.06704761788552512
2200000000.0 0.21773562597581306 0.2719956988781157
2220000000.0 0.3225630306681538 0.14072384651738032
2240000000.0 0.008642438302330595 -0.3519703850402164
2260000000.0 -0.35569219090774323 -0.007475539182865138
2280000000.0 0.14202360833434385 0.3294925163151892
2300000000.0 0.25820406419424236 -0.2651631607641079
2320000000.0 -0.37404809147492885 -0.10246083975433042
2340000000.0 -0.13869305235813775 0.39028771303635634
2360000000.0 0.44926033638953744 0.0191217858015236
2380000000.0 -0.34300695692712824 -0.359330426044713
2400000000.0 0.19208108499647425 0.513786669494163
2420000000.0 -0.24855984565791225 -0.5489732923696203
2440000000.0 0.5796058934236036 0.3050589813840981
2460000000.0 -0.689011070754197 0.10883607230197138
2480000000.0 0.5622073362162742 -0.4672546993611389
2500000000.0 -0.5486671948278891 0.5160195141927546
2520000000.0 0.5941408074401636 -0.4811147235327253
2540000000.0 -0.7426314233009492 0.19209237543565796
2560000000.0 0.6674072106005754 0.3677060465902159
2580000000.0 -0.1321942117940074 -0.7356351853884139
2600000000.0 -0.5341198086219983 0.4872529779337806
2620000000.0 0.689435942261953 0.06295708853960708
2640000000.0 0.6279986482703287 -0.185850033366782
2660000000.0 -0.4720756988862017 -0.38878318932651396
2680000000.0 -0.008020933583960525 0.5672811214324844
2700000000.0 0.28020730452196196 -0.4422171517558886
2720000000.0 -0.3067476639289751 0.36482213630027516
2740000000.0 0.228154898348503 -0.36762372000514326
2760000000.0 -0.060697685856151214 0.38583401118034094
2780000000.0 -0.22928590193736692 -0.2721211745824161
2800000000.0 0.3214697993791586 0.04638635484646133
2820000000.0 -0.26804612219492935 0.13946125091879055
2840000000.0 0.24803377936254803 -0.1470505584651496
2860000000.0 -0.24411575403868163 0.1462561269898012
2880000000.0 0.2591262230161419 -0.11885195759597905
2900000000.0 -0.2835144366611078 -0.06417115854450359
2920000000.0 0.09398624141866764 0.28791424215334016
2940000000.0 0.1524897434830336 -0.27366498442501336
2960000000.0 -0.29863318233562824 -0.11444374202391384
2980000000.0 -0.3033135221457612 0.12148281865162884
3000000000.0 -0.3078846159901992 0.11550728658854557
3020000000.0 -0.32467625866590677 -0.03498152441214962
3040000000.0 0.10468531711214278 -0.3028338840221655
3060000000.0 0.15616693184453453 0.2725839637959192
3080000000.0 -0.14536747185770466 -0.2672870960982683
3100000000.0 0.07317859296959003 0.2861686252762337
3120000000.0 0.06196312599022303 -0.27829607005651197
3140000000.0 -0.20666221815437794 0.180800223200062
3160000000.0 0.2568705842478336 -0.053558452353241776
3180000000.0 -0.006678922154256318 -0.24925602733007593
3200000000.0 0.20430713620359595 0.11063206384595332
3220000000.0 -0.06220140031397006 0.19947821160958984
3240000000.0 -0.16285672908439044 0.08345345076044063
3260000000.0 -0.1447012222987558 -0.0417198248969567
3280000000.0 -0.1154548971571717 0.007582217290414643
3300000000.0 -0.06469755597824269 0.04938545516016239
3320000000.0 0.04664878990206771 -0.0039099656566757976
3340000000.0 0.005174336151336798 -0.016248922418594363
3360000000.0 0.008211882216235034 -0.004708713269167936
3380000000.0 0.020997193070622984 0.008975649484741785
3400000000.0 -0.018052178569557903 -0.025632411747644922
3420000000.0 -0.004493869764060224 -0.035825140841826295
3440000000.0 0.021912562709850945 0.03121848123607005
3460000000.0 0.029727041506864744 0.03259433621333078
3480000000.0 -0.014475993093863167 0.05909189446567874
3500000000.0 -0.012866507647186906 0.08178693468344292
3520000000.0 -0.04891777379447495 0.09447531575794008
3540000000.0 0.05021629206805782 0.11290208830395915
3560000000.0 0.09438077156753695 0.09673737767192594
3580000000.0 -0.07355448282984312 0.12483394233613757
3600000000.0 -0.1267425446157507 -0.09196569412856001
3620000000.0 0.08871772057761781 -0.138227093043969
3640000000.0 0.0524938041860548 0.16277958976969417
3660000000.0 -0.16534908813604998 -0.07078548114586011
3680000000.0 0.1537292837455031 -0.10514885335159213
3700000000.0 0.16760945391289442 0.08909438050753649
3720000000.0 0.032732411573795715 0.19156507871832607
3740000000.0 0.06280217368406167 0.18244208769457562
3760000000.0 -0.17317046253494867 0.07352376813788396
3780000000.0 -0.009986707297630055 -0.17802583517509593
3800000000.0 0.06955348716753712 0.14891639502956697
3820000000.0 0.09843623049200814 0.11624743039863548
3840000000.0 -0.09494638654575549 0.10305635618135299
3860000000.0 0.13508844306459755 0.028869776006057116
3880000000.0 -0.13763148672566788 0.048170220511803155
3900000000.0 -0.0808327128915174 0.13262029054281974
3920000000.0 0.1559478168859602 -0.058840614704565024
3940000000.0 0.09726936713446675 0.1471853375099234
3960000000.0 0.18274702662411185 -0.01660422312099179
3980000000.0 -0.180782122208145 -0.02165210875502123
4000000000.0 -0.07118942696933381 0.15674951653473246
