! Created with skrf (http://scikit-rf.org).
# Hz S RI R 50.0 
!freq ReS11 ImS11
400000000.0 0.17069917528465725 0.8569303886441396
420000000.0 0.6418438626373434 0.5722084298938498
440000000.0 0.7789537427443829 -0.27554368429545484
460000000.0 0.16960322697101116 -0.7685306387190237
480000000.0 0.5092656326979508 -0.4930859648203555
500000000.0 0.17010971072829567 -0.5365381992476698
520000000.0 0.24216972443939777 -0.42071268297479997
540000000.0 0.4274645029449654 0.03906393129440975
560000000.0 -0.3344567163058505 -0.10709315035430428
580000000.0 -0.3135627463811766 0.11510316226813036
600000000.0 0.31208002186478717 0.1006172816057442
620000000.0 -0.15292350136547964 -0.3130210985325769
640000000.0 -0.33262060777058866 -0.18503364669397337
660000000.0 -0.3814940466666093 0.11275546282430467
680000000.0 0.042303191056084426 -0.42508870109794183
700000000.0 0.16202320944299337 0.4194003346020311
720000000.0 0.10576675507337474 -0.4393605402059509
740000000.0 0.41130239736198243 -0.16651602400693896
760000000.0 -0.4137069086590154 -0.06586336771728195
780000000.0 0.135127790121922 -0.36050099450742806
800000000.0 0.05855823723235303 0.3442258290978002
820000000.0 0.054621509221037375 0.284351837416422
840000000.0 0.19240626411246675 0.13225294272436025
860000000.0 0.05592379295512194 0.1923882333002861
880000000.0 -0.10420657627914076 0.09104090234479147
900000000.0 0.012498279432253841 0.07071049558311174
920000000.0 -0.016483754410590454 0.03678931738175402
940000000.0 0.029915675802264893 -0.017049819273113706
960000000.0 0.03443180122074555 -0.03153647611590748
980000000.0 0.013043558970648687 0.053981532839152406
1000000000.0 0.05197645052104581 0.03137337499712064
1020000000.0 0.06725191601848181 0.02763845913067063
1040000000.0 -0.000898101650058826 0.08148798452642832
1060000000.0 0.1082722470216706 -0.05331975606775321
1080000000.0 -0.11617357459795291 -0.0753641743443055
1100000000.0 -0.10965160691807169 -0.12229978808794509
1120000000.0 -0.1945670356830875 0.006203134635610611
1140000000.0 0.23308096429607747 0.06024199619567757
1160000000.0 0.21193779300875357 -0.1919696186241544
1180000000.0 -0.16490505753805057 -0.2872517310346931
1200000000.0 -0.3442123144560418 -0.1310358141950699
1220000000.0 -0.004525055276948411 -0.39743987448555246
1240000000.0 0.4104768495791064 0.08171612937210078
1260000000.0 -0.4386254666436919 0.031409285301787424
1280000000.0 0.4432513626907354 -0.07100568227536756
1300000000.0 -0.4065889847021378 -0.18876496710612156
1320000000.0 -0.14111670550170466 0.41146180969265733
1340000000.0 -0.36446404968068696 0.20836239424069136
1360000000.0 -0.14567630646022697 -0.38144686214373963
1380000000.0 0.20241976861038932 -0.3548530089905485
1400000000.0 0.13878858699026306 -0.3723141295759284
1420000000.0 0.08679066445019733 -0.37690810958512133
1440000000.0 -0.17858757023208618 -0.32616432849556093
1460000000.0 -0.35230296783564813 0.009906439166897969
1480000000.0 0.13248873325002494 0.3050861998398336
1500000000.0 -0.09877850706072547 -0.291606436352145
1520000000.0 -0.1776590477141604 0.21898208662571964
1540000000.0 -0.19507420156177613 0.16095223750699533
1560000000.0 0.07326091974278995 0.20188088545347646
1580000000.0 0.17818714942790226 0.025151804986064327
1600000000.0 -0.10712006427753419 0.09991740169194101
1620000000.0 -0.049860081858969674 -0.09338333199898445
1640000000.0 -0.04665543445608474 0.06381484082234405
1660000000.0 -0.03708993043126994 0.039283015371199756
1680000000.0 0.02465584111924264 -0.004769466440279047
1700000000.0 0.005501023915079934 0.010930974559127069
1720000000.0 -0.021155234474718693 -0.02009667004500357
1740000000.0 0.03016945087499216 -0.04212514786083978
1760000000.0 -0.012987199898688387 -0.06730346726344771
1780000000.0 -0.042097702184777056 -0.07853552362383728
1800000000.0 0.11403642229283978 -0.013511813260756409
1820000000.0 0.07835271765304794 -0.10079492561653276
1840000000.0 0.12969799399642218 0.07965469902610896
1860000000.0 -0.03885800627587477 0.17104770745405273
1880000000.0 -0.11180033945023923 -0.17812275156640647
1900000000.0 0.058991974577199006 -0.24498502020805926
1920000000.0 -0.28968818290597326 -0.06742621181383648
1940000000.0 0.020676710451300616 0.3429286333740031
1960000000.0 0.12252402420306246 -0.3629345539891466
1980000000.0 -0.06321555591646927 0.4064666116713479
2000000000.0 0.32943962774872043 -0.28381140925252013
2020000000.0 -0.38213399053670244 0.23786162034783184
2040000000.0 0.3985024148517192 0.2159856451607359
2060000000.0 -0.1131542003770515 -0.43515927096149204
2080000000.0 -0.4126404434191288 0.1399319196258674
2100000000.0 -0.23288844609143103 0.3490161692138409
2120000000.0 -0.2114706805796789 0.33950126229674926
2140000000.0 -0.3419190342051806 0.17084159279118838
2160000000.0 0.12355337709319016 -0.3450039447805739
2180000000.0 0.33807205838705284 -0.10971912545367539
2200000000.0 0.31616708421824635 0.14543803733681573
2220000000.0 0.3504189605239458 -0.017255452339009374
2240000000.0 -0.09679684023792799 -0.3375372178324406
2260000000.0 -0.3508619133110688 0.05639041711209485
2280000000.0 0.17244154278801685 0.31559794143035247
2300000000.0 0.2756409404534109 -0.24883439890411316
2320000000.0 -0.36017815339514253 -0.1488305796874888
2340000000.0 -0.1873714061627459 0.37148493575133795
2360000000.0 0.4511345638901239 0.029583696697969536
2380000000.0 -0.3579758000584774 -0.3468434061142154
2400000000.0 0.18813304636775047 0.5164645920083129
2420000000.0 -0.2945800655549542 -0.5267419668840642
2440000000.0 0.6024048369200063 0.2559327902785826
2460000000.0 -0.6755196769183072 0.17035071737871132
2480000000.0 0.520628448991128 -0.5114901945201658
2500000000.0 -0.44809763895396043 0.6036963150646872
2520000000.0 0.5511372747554415 -0.5285529657264606
2540000000.0 -0.7204836376010813 0.26190957896940004
2560000000.0 0.7264735294210524 0.22388792654683767
2580000000.0 -0.20135164308523568 -0.7186381621323374
2600000000.0 -0.36074631293312726 0.6250109603514654
2620000000.0 0.678842435316866 -0.1286434836370064
2640000000.0 0.5467331847964515 -0.3585883300000289
2660000000.0 -0.5420716117901262 -0.28152258094674487
2680000000.0 0.0402800338836497 0.5654417342949456
2700000000.0 0.24020752453697078 -0.46473011824214117
2720000000.0 -0.27845947089362116 0.38685452391777814
2740000000.0 0.2282210730760509 -0.36737291834236446
2760000000.0 -0.06266774498495348 0.38533297518350407
2780000000.0 -0.20753593374097323 -0.2884548203718103
2800000000.0 0.31302044371836824 0.08447426449681804
2820000000.0 -0.27217368660083574 0.12919303900726015
2840000000.0 0.25341195105426734 -0.13455723145615725
2860000000.0 -0.2415445022652607 0.14774836260556343
2880000000.0 0.249876085964357 -0.13422790757633804
2900000000.0 -0.2859188525282606 -0.04192321397467635
2920000000.0 0.1158321871688848 0.2774048469326463
2940000000.0 0.15251809610923872 -0.2717510367354342
2960000000.0 -0.3115603525253337 -0.06752472432965516
2980000000.0 -0.28145547660696624 0.16196695672752856
3000000000.0 -0.26900281568045026 0.1871303945635756
3020000000.0 -0.3240611136558217 0.04088248188834667
3040000000.0 0.030587658905486433 -0.31932148497908336
3060000000.0 0.21214926197607853 0.2298051201082835
3080000000.0 -0.23083239894366941 -0.1974353156774504
3100000000.0 0.18217694158771952 0.23267128677517368
3120000000.0 0.0040779182262515624 -0.2842758500731146
3140000000.0 -0.1011778946979853 0.25570306645202856
3160000000.0 0.23580615102646355 -0.1166221610846314
3180000000.0 -0.12176721631109837 -0.21902563274211448
3200000000.0 0.23115694603125844 0.03222575456161415
3220000000.0 -0.02694915584471187 0.20822983397376113
3240000000.0 -0.17642603089254238 0.05098829148856957
3260000000.0 -0.12265200092197648 -0.0893809154062413
3280000000.0 -0.06625191032103422 -0.0963994441171171
3300000000.0 -0.03308111839202166 -0.07510212569468054
3320000000.0 -0.0435706606714623 0.02007668971645604
3340000000.0 -0.017106309720939048 -0.005330600150921658
3360000000.0 0.0035631465688010424 -0.006688525503277818
3380000000.0 0.01887267048326376 0.011654957367377393
3400000000.0 0.03121613566428748 0.006062615748765571
3420000000.0 0.027672918740169628 0.024482522840952585
3440000000.0 -0.03821760282345511 0.007408732692840968
3460000000.0 -0.04454176466355207 0.0050310033911610185
3480000000.0 0.04068316653192003 -0.043981366796021215
3500000000.0 0.06511527836188759 0.0480912968097851
3520000000.0 0.04622047890782884 0.09355749522738241
3540000000.0 0.12034857380004917 0.023420530049662453
3560000000.0 0.123618775169103 0.05494620319069765
3580000000.0 -0.008639329411617963 0.1452147819544857
3600000000.0 -0.15612115826227557 0.017494745675011553
3620000000.0 -0.012179331779536747 -0.1646022410496447
3640000000.0 0.1399121599317626 0.101209388449796
3660000000.0 -0.17772595878778014 0.03626614250820892
3680000000.0 0.03151920352553818 -0.18414089229476038
3700000000.0 0.18988781403968438 -0.012094323499203809
3720000000.0 0.1288529202999512 0.14643122305173095
3740000000.0 0.08308008860034286 0.17580602756161512
3760000000.0 -0.1863450734842701 0.03775760184790853
3780000000.0 0.0921468524509672 -0.15509320460380777
3800000000.0 -0.048427542622273244 0.16045524640263456
3820000000.0 0.04806139983222645 0.1471351187001535
3840000000.0 -0.1242534998749639 0.07078033214167634
3860000000.0 0.1293185317970807 0.05605659400407178
3880000000.0 -0.13368289565655986 0.06339673850112382
3900000000.0 -0.09654269836956494 0.12413781034603846
3920000000.0 0.16609600632117877 -0.023668038939105573
3940000000.0 0.010255363524480178 0.1773525791450596
3960000000.0 0.13741051764402795 0.12349776017378664
3980000000.0 -0.11957824548093514 -0.13792360710118926
4000000000.0 -0.1018878586363374 0.13776790879954898
