! Created with skrf (http://scikit-rf.org).
# Hz S RI R 50.0 
!freq ReS11 ImS11
400000000.0 0.2027369101093396 0.8490221605188407
420000000.0 0.6277091149402991 0.5867838335841584
440000000.0 0.791759675675783 -0.23740400407858142
460000000.0 0.06978845203222922 -0.7848102846882097
480000000.0 0.4889985473317568 -0.5123015018164581
500000000.0 0.21512958809725943 -0.5186011630058647
520000000.0 0.21254059756384788 -0.438311690464947
540000000.0 0.4267237653130374 -0.035793262590448655
560000000.0 -0.3145650804854031 -0.15618188155997553
580000000.0 -0.3307478965553461 0.02734817907602134
600000000.0 0.30990949109874993 0.11576195844682906
620000000.0 -0.14529386548833564 -0.315847572188756
640000000.0 -0.34918878333796216 -0.14866757132556993
660000000.0 -0.3856065154282032 0.09947846251603258
680000000.0 0.04788684851387342 -0.42451976702826094
700000000.0 0.1661159998711369 0.4182158497309876
720000000.0 0.1670396183587106 -0.41945020987879966
740000000.0 0.40108804531138426 -0.186940713732102
760000000.0 -0.4170729987514018 -0.04613164633747937
780000000.0 0.14012671087550113 -0.35769880196677856
800000000.0 0.07924862758934373 0.34138080046383057
820000000.0 0.040640846907570895 0.28619008746230123
840000000.0 0.19977571485844303 0.1212797233857139
860000000.0 0.002310133908726172 0.20009726955074644
880000000.0 -0.08318381835525354 0.11030992192283136
900000000.0 0.0029254829002526308 0.07171342871476191
920000000.0 -0.030862257296192023 0.026436020049348197
940000000.0 0.009739125391361505 -0.032646448324676385
960000000.0 0.03430221996911706 -0.03186202578773911
980000000.0 0.020117148657368824 0.05172728013149866
1000000000.0 0.05131124042379386 0.032915658061037
1020000000.0 0.06037988288975785 0.039956799548550165
1040000000.0 -0.024141182510207575 0.07818526303987192
1060000000.0 0.11391645261085094 -0.03958738198872698
1080000000.0 -0.12012808252923543 -0.06858413024049986
1100000000.0 -0.09163602320902936 -0.1360595383175751
1120000000.0 -0.19408708731955532 0.01633759132483991
1140000000.0 0.22736133749750911 0.07860662443714939
1160000000.0 0.18148234938437918 -0.2210510398830766
1180000000.0 -0.1565026994711661 -0.2919567062489612
1200000000.0 -0.34779644514587105 -0.12117535888625446
1220000000.0 -0.008847151159045571 -0.3974584943487997
1240000000.0 0.41227127717709455 0.07294744091793498
1260000000.0 -0.4380988136399305 0.0374153916847704
1280000000.0 0.44453281534357536 -0.06291930773701677
1300000000.0 -0.40950200886042004 -0.18227495378445202
1320000000.0 -0.14343144112956377 0.4105099986773414
1340000000.0 -0.3712070854957547 0.19593418771948568
1360000000.0 -0.15451387994372753 -0.37822020208539736
1380000000.0 0.21178211318063755 -0.3490455844733382
1400000000.0 0.16262832054489126 -0.36253362936337474
1420000000.0 0.09280019022527411 -0.3754336506197457
1440000000.0 -0.1752927682371303 -0.3282023657295229
1460000000.0 -0.3514754361886547 0.019160098200277142
1480000000.0 0.10132285354014173 0.3168622536135122
1500000000.0 -0.09290183029704564 -0.2937288581767001
1520000000.0 -0.16701734046935612 0.22746425870721262
1540000000.0 -0.19445729381226795 0.16181267738242625
1560000000.0 0.021695418307157426 0.21346266866957492
1580000000.0 0.1786811491791339 0.023488102775872134
1600000000.0 -0.09484218377423642 0.11198132106004795
1620000000.0 -0.06489493509285002 -0.08336866439508712
1640000000.0 -0.05265683428244274 0.05795830339539745
1660000000.0 -0.04345779844711582 0.03196715474483192
1680000000.0 0.024445932745022003 0.00030821404639148306
1700000000.0 -0.011070519109645372 -0.004813007195376104
1720000000.0 -0.012127931207176642 -0.026539945361055774
1740000000.0 0.015717273616478414 -0.04962451881664663
1760000000.0 -0.047123304059466374 -0.05029138173125577
1780000000.0 -0.05385614719413323 -0.07038821801949871
1800000000.0 0.11252399726824115 -0.021762213349861868
1820000000.0 0.07253870142741475 -0.10521812648516661
1840000000.0 0.1347745808290548 0.0713148519879446
1860000000.0 -0.02238094343805538 0.1740028136822451
1880000000.0 -0.11858731659428914 -0.17371571620586126
1900000000.0 0.06486465798528586 -0.24350297837508228
1920000000.0 -0.28783413547924597 -0.07640767934990864
1940000000.0 0.018230834010246867 0.34325586440186806
1960000000.0 0.12065934204427546 -0.36377659650513683
1980000000.0 -0.06460502351975232 0.40641760762185997
2000000000.0 0.3256927741021455 -0.2882247632017624
2020000000.0 -0.3978419430028936 0.2111523563002788
2040000000.0 0.4044788296760597 0.20468392570846253
2060000000.0 -0.1122742230783556 -0.43530714008837057
2080000000.0 -0.4141758351836929 0.1348269595864833
2100000000.0 -0.20319742453853581 0.36664759945913616
2120000000.0 -0.25181474601263204 0.3107031902845013
2140000000.0 -0.33220949639589825 0.18810843969964264
2160000000.0 0.1182992809681402 -0.34673779596730353
2180000000.0 0.33805369013610725 -0.10963230656738598
2200000000.0 0.31785029170311335 0.14098074538252836
2220000000.0 0.3485246417349578 -0.03995054531357585
2240000000.0 -0.1038501590379076 -0.3357988115677366
2260000000.0 -0.3474050770443771 0.07576874485410963
2280000000.0 0.18019783726897584 0.3112838465494069
2300000000.0 0.2703055819746177 -0.2545379703968722
2320000000.0 -0.3663538722600985 -0.13493465565342785
2340000000.0 -0.17012361391619854 0.38013040497463935
2360000000.0 0.4518485624604717 0.021920096821996797
2380000000.0 -0.35242491663357434 -0.3532117926388708
2400000000.0 0.1913164353035548 0.5158342927531874
2420000000.0 -0.318841964064277 -0.5127295602707092
2440000000.0 0.5986514254734654 0.2650451065928779
2460000000.0 -0.6723143359835991 0.18243786729381625
2480000000.0 0.48467044285973204 -0.5451669005911528
2500000000.0 -0.41025371559617657 0.6295220937156877
2520000000.0 0.5443245380417538 -0.5355135957073064
2540000000.0 -0.6980278917835043 0.31485866927471423
2560000000.0 0.739358039474511 0.1754976043503676
2580000000.0 -0.22941404466996967 -0.7095243805554713
2600000000.0 -0.3240770296948644 0.6442861427262203
2620000000.0 0.6788500882834713 -0.1265126473329313
2640000000.0 0.5590889062123007 -0.33762781422504096
2660000000.0 -0.5565287042890449 -0.25054868725505025
2680000000.0 0.09711993510780638 0.5582616005848704
2700000000.0 0.20871279298808493 -0.47930285858916327
2720000000.0 -0.259062657478029 0.399535565220896
2740000000.0 0.24305607856941233 -0.35732838650072285
2760000000.0 -0.06038978752497942 0.38547479096742476
2780000000.0 -0.21708842036205978 -0.2810495406286259
2800000000.0 0.31284059160017214 0.08429947664830022
2820000000.0 -0.278611050691134 0.11502548713833752
2840000000.0 0.2596240631185135 -0.1222914724596057
2860000000.0 -0.23701850253295104 0.15383105852903978
2880000000.0 0.2629877796511691 -0.10537989942078294
2900000000.0 -0.28546576820914377 -0.04390498138124766
2920000000.0 0.10880270279264721 0.28011473955744726
2940000000.0 0.13523211708663851 -0.27992174066544656
2960000000.0 -0.31632860858180734 -0.033819970684502924
2980000000.0 -0.2767784163096211 0.17003485143855948
3000000000.0 -0.2615139693315007 0.19739991509440186
3020000000.0 -0.3237639314542046 0.03962783722989111
3040000000.0 0.019659086601862708 -0.31950593413263145
3060000000.0 0.23621075931491786 0.2051211851601944
3080000000.0 -0.248501019207633 -0.1744406445775069
3100000000.0 0.1497466712605695 0.25402143984739045
3120000000.0 -0.034250753559146765 -0.2822817904899985
3140000000.0 -0.09250530401237284 0.25884677271598033
3160000000.0 0.22873148486812858 -0.1300007093045104
3180000000.0 -0.12248853264781241 -0.21847144348639155
3200000000.0 0.22984994571970802 0.04026496104181006
3220000000.0 -0.0065968254927204605 0.2095790797503578
3240000000.0 -0.17111374685647474 0.06701790884930608
3260000000.0 -0.1254276983340424 -0.08560692270022074
3280000000.0 -0.06395933127971266 -0.09821163595510367
3300000000.0 -0.05262941384769498 -0.06351103828077559
3320000000.0 -0.038170455851641354 0.029177427113863567
3340000000.0 -0.017532108555230724 -0.004253493382561678
3360000000.0 0.0039093096680640205 -0.006333064070176257
3380000000.0 0.015788993561560945 0.014346049296882612
3400000000.0 0.029123182186367835 0.012283142661721376
3420000000.0 0.036847337570356874 0.0014009650021890843
3440000000.0 -0.031552560799492056 0.022044630398474725
3460000000.0 -0.04090882775165305 -0.017268360807148445
3480000000.0 0.04842764061353166 -0.03486970542495252
3500000000.0 0.07903143646531349 0.017580591811010203
3520000000.0 0.044086122901455145 0.09459224964050383
3540000000.0 0.1186667987698542 0.0280802708394396
3560000000.0 0.12095008470700985 0.05923346320903416
3580000000.0 -0.03794319969653542 0.13961605807212668
3600000000.0 -0.15532122252946778 0.020071456285617094
3620000000.0 -0.0195721612872934 -0.16338658159845035
3640000000.0 0.14269034099573255 0.09598205143631382
3660000000.0 -0.1756243280606708 0.04375340474060108
3680000000.0 0.030443986084873968 -0.18382391714937357
3700000000.0 0.1871272431525456 -0.03500954026215898
3720000000.0 0.14892282910173804 0.12521346117128831
3740000000.0 0.09861845233548977 0.16747403248460485
3760000000.0 -0.17597755809585877 0.07163262961042666
3780000000.0 0.04629531525825573 -0.1740944630674688
3800000000.0 -0.030735022855039876 0.1651922990895194
3820000000.0 0.06036185182982136 0.14284109639558765
3840000000.0 -0.1190809068088809 0.08051943503529575
3860000000.0 0.139576451672914 0.021403895432947902
3880000000.0 -0.1249796718965496 0.08031267757935534
3900000000.0 -0.08385208457555728 0.13389644568980374
3920000000.0 0.156455415550492 -0.062121466307005754
3940000000.0 0.03977518509165558 0.1738714395612602
3960000000.0 0.1613891118886373 0.08995243676133387
3980000000.0 -0.137071278438145 -0.12132828747201793
4000000000.0 -0.09049024095603994 0.14596903929458172
