! Created with skrf (http://scikit-rf.org).
# Hz S RI R 50.0 
!freq ReS11 ImS11
400000000.0 0.17871258681032645 0.8554726680926794
420000000.0 0.5992513238287357 0.6158552124289629
440000000.0 0.8046673055543746 -0.19155142326648938
460000000.0 0.15661578750468136 -0.7743625024260997
480000000.0 0.4976816985329133 -0.5023509986221809
500000000.0 0.33647428964588855 -0.44809375294621184
520000000.0 0.21122549840750007 -0.4410017615306102
540000000.0 0.4126964954391054 -0.10805029258993797
560000000.0 -0.3058964520695926 -0.17387466379457878
580000000.0 -0.3077551417230087 0.1271947745884088
600000000.0 0.30549889358049975 0.12859662147871095
620000000.0 -0.1651887733100292 -0.3064774482217933
640000000.0 -0.32070452690582696 -0.2051182261520466
660000000.0 -0.3964960025673728 0.044029189911360185
680000000.0 0.12935747871342476 -0.4081467739251463
700000000.0 0.1314159563285543 0.42992454946095615
720000000.0 0.1790142925106366 -0.41429075492195583
740000000.0 0.4040200223735274 -0.1793373049656244
760000000.0 -0.4179018530735691 -0.03442419615379159
780000000.0 0.11598409330229878 -0.3659735988444097
800000000.0 0.10146808647191216 0.3344153281224168
820000000.0 0.08396319495104777 0.27640858883406055
840000000.0 0.21422909152946215 0.09444902029711796
860000000.0 -0.028004268298920523 0.19786603854612592
880000000.0 -0.12477077203802324 0.05965061281267518
900000000.0 0.010680192901096676 0.07053493010024361
920000000.0 -0.028844562443022363 0.027933759227123402
940000000.0 0.024533097322778735 0.02220661823243089
960000000.0 0.03539103455841739 -0.028880404289247794
980000000.0 0.053771822341536976 0.007610905860770968
1000000000.0 0.06033640017374014 -0.0019123508124768607
1020000000.0 0.07134307915213675 -0.010030381079240768
1040000000.0 -0.04068650660937649 0.0706289534890055
1060000000.0 0.11495331456349293 -0.03764481218959234
1080000000.0 -0.11112446787509712 -0.08247409920106229
1100000000.0 -0.06898586084325817 -0.14944114378355192
1120000000.0 -0.19525547155381917 0.0046850693898226594
1140000000.0 0.20674838847854676 0.12399973332302228
1160000000.0 0.21805063262694083 -0.18495009468812737
1180000000.0 -0.12883113425478696 -0.3047488172749753
1200000000.0 -0.33034731467954503 -0.16354310267604547
1220000000.0 -0.01348974468769678 -0.3974906785184154
1240000000.0 0.4054008809977224 0.10572401693775973
1260000000.0 -0.4396445210223836 -0.01074417022852439
1280000000.0 0.4469491078335304 -0.04145507517297501
1300000000.0 -0.40271273843410377 -0.1959648317166716
1320000000.0 -0.1524860270136108 0.40719862853797156
1340000000.0 -0.36320193306961407 0.20981316400085676
1360000000.0 -0.13595921416780307 -0.38479422635716615
1380000000.0 0.22281371048519863 -0.34166423865830675
1400000000.0 0.1460905256496111 -0.3693497705506874
1420000000.0 0.06969235590243239 -0.3807173303928949
1440000000.0 -0.19541424531797388 -0.31663549116033246
1460000000.0 -0.3513426628730123 0.032741649317445866
1480000000.0 0.10737322444884638 0.3155802569546435
1500000000.0 -0.10568155680299378 -0.28976422775391275
1520000000.0 -0.1610968512478702 0.23308247680867794
1540000000.0 -0.17234578246390736 0.18580196278246675
1560000000.0 0.050251912848573894 0.20977395981149247
1580000000.0 0.15947861261385085 0.08560302184466269
1600000000.0 -0.1341088785748113 0.06188004018048521
1620000000.0 0.003272581449740447 -0.10597260789083035
1640000000.0 -0.07793100574974914 0.00891245675608992
1660000000.0 -0.052863045150244176 0.007373584693400252
1680000000.0 0.011982789970632663 -0.02025315476315363
1700000000.0 -0.001637192290009046 0.012671141919121356
1720000000.0 0.007574723220145455 -0.029518749933450984
1740000000.0 0.052910080385330606 -0.0017295470802259178
1760000000.0 0.03727491929175222 -0.058114910057206544
1780000000.0 0.010851196487498818 -0.0873698565546406
1800000000.0 0.10847078737181436 0.034408319961498124
1820000000.0 0.08975341036526374 -0.08989056204372381
1840000000.0 0.11024460617840992 0.10367598779650385
1860000000.0 -0.050580913778074214 0.16666946181273123
1880000000.0 -0.10704941079174034 -0.17922525537926268
1900000000.0 0.07512363003627363 -0.23931071924397326
1920000000.0 -0.29211596228307984 -0.05065213673036723
1940000000.0 0.0496224758168379 0.3394594590290267
1960000000.0 0.07683198489253106 -0.3756546360393158
1980000000.0 -0.035340831044799695 0.41056582431646543
2000000000.0 0.28227761178326793 -0.3321548140917786
2020000000.0 -0.38438882771241834 0.23675111358721782
2040000000.0 0.41764995893787754 0.1783891047468392
2060000000.0 -0.09353421890267495 -0.44126478664997204
2080000000.0 -0.412359780582565 0.1451359979556627
2100000000.0 -0.2379858088452611 0.3466620200520319
2120000000.0 -0.2850043010099046 0.2816731437313666
2140000000.0 -0.37516858226791144 0.07811788609004158
2160000000.0 0.23181215317853954 -0.28478240576437236
2180000000.0 0.35521534426706713 0.018232641526623686
2200000000.0 0.260342948365441 0.231252572010322
2220000000.0 0.3382172535217472 0.09448671876858222
2240000000.0 -0.030780045087135943 -0.35013751509689517
2260000000.0 -0.3546089765707593 0.014744067005936034
2280000000.0 0.1371945641266282 0.33108696906796253
2300000000.0 0.27919400233485303 -0.24258639777047683
2320000000.0 -0.36598125088068517 -0.12974820538499496
2340000000.0 -0.16846179023076477 0.37883266118779946
2360000000.0 0.44968534031367297 0.030644237195880553
2380000000.0 -0.32922014937330246 -0.3727585601487585
2400000000.0 0.18479596179225893 0.5168724848303824
2420000000.0 -0.2938865309927467 -0.5264537244270043
2440000000.0 0.5689466674398602 0.32430635367037147
2460000000.0 -0.6870483537556064 0.11982980536660427
2480000000.0 0.5575449785830706 -0.47225635094499074
2500000000.0 -0.5492744922939433 0.5149926796107948
2520000000.0 0.5879826474411579 -0.4884790691284047
2540000000.0 -0.7379874026546434 0.20824056687017267
2560000000.0 0.6857150495030853 0.33176014814385474
2580000000.0 -0.1530621659345285 -0.7313862756558767
2600000000.0 -0.45487519367813084 0.5615456133195729
2620000000.0 0.691940617863324 0.008561872129132633
2640000000.0 0.6103321047760436 -0.23698072303396298
2660000000.0 -0.48547038241116525 -0.3717877124835473
2680000000.0 -0.016651887597891192 0.5672886498168812
2700000000.0 0.26623846685033387 -0.4508812395031075
2720000000.0 -0.28263987666412627 0.3845000079273721
2740000000.0 0.23009433653403638 -0.36667620345042845
2760000000.0 -0.055744147223086536 0.3868838242338605
2780000000.0 -0.22702039837277344 -0.27436318306338636
2800000000.0 0.3234566269312116 0.02894177879849514
2820000000.0 -0.2633536019875766 0.1477456966403038
2840000000.0 0.2416476614834446 -0.156463035942758
2860000000.0 -0.22528292950905682 0.17219317387793406
2880000000.0 0.252236401872586 -0.1319327021397306
2900000000.0 -0.2871505093901048 -0.03896404017591355
2920000000.0 0.1353995464501059 0.26994124490570914
2940000000.0 0.11610354036714161 -0.2907567731788481
2960000000.0 -0.3033805988995902 -0.10093023274437697
2980000000.0 -0.3060747805401737 0.112637721134206
3000000000.0 -0.29796057466963577 0.13939112760864242
3020000000.0 -0.324741963959067 -0.036805581609837545
3040000000.0 0.023279954855475543 -0.3197055140349584
3060000000.0 0.15559645221412607 0.2731549540811929
3080000000.0 -0.16699625365154547 -0.2548802091161907
3100000000.0 0.04522418796395261 0.29209186173291446
3120000000.0 0.09862034339379686 -0.2675043008055571
3140000000.0 -0.21285650077611187 0.17401991177210807
3160000000.0 0.25658570217682425 -0.056965456944098304
3180000000.0 -0.014167605010295375 -0.24962426376840852
3200000000.0 0.19970596850237507 0.11902647571802841
3220000000.0 -0.0636143866135745 0.19869505187758474
3240000000.0 -0.16687605635770167 0.07352154869500435
3260000000.0 -0.13515611814766518 -0.06596767247426136
3280000000.0 -0.11192579238172154 -0.02840060896508162
3300000000.0 -0.07892526811453325 0.019324655794022587
3320000000.0 0.030940768876651162 0.034899120501859136
3340000000.0 0.014878420583410431 0.00802552076252613
3360000000.0 0.006131336099837647 -0.0064907652036787136
3380000000.0 0.017282983630583296 0.014436911514989369
3400000000.0 -0.017776389717229377 -0.025898294333369543
3420000000.0 0.011779306864609233 -0.03449282519181634
3440000000.0 0.03193944377265897 0.021878097639491625
3460000000.0 0.04396040118620948 0.007932892740737772
3480000000.0 0.03759194440418127 0.04781499965376857
3500000000.0 0.02001781771931497 0.079856626767896
3520000000.0 -0.00668754565851199 0.10572074749774084
3540000000.0 0.0730765658723431 0.09899070642703528
3560000000.0 0.08882879606818256 0.10077848603961778
3580000000.0 -0.08451893358980027 0.11755646678101865
3600000000.0 -0.12608070733044366 -0.0932349131671031
3620000000.0 0.08489851697455149 -0.1405172248537925
3640000000.0 0.058760286547375744 0.16057602537082882
3660000000.0 -0.18019520717699677 -0.014421863890509848
3680000000.0 0.11805820015980781 -0.14416579860362497
3700000000.0 0.18605073301906092 0.03779852338315745
3720000000.0 0.057322904873407306 0.18516631047268053
3740000000.0 0.07549564370540773 0.17763272512607217
3760000000.0 -0.17444461497124855 0.07007681161536
3780000000.0 0.015348034167639812 -0.17733822095498147
3800000000.0 0.032780352638269124 0.16171815486490107
3820000000.0 0.10315490593103616 0.11234336193976921
3840000000.0 -0.11668762408635215 0.08004370143982001
3860000000.0 0.13743811103722614 0.021612439318525287
3880000000.0 -0.1318798837734633 0.0640803461000476
3900000000.0 -0.09412140735499461 0.1240351289911556
3920000000.0 0.16116810373884277 -0.043065467108498096
3940000000.0 0.04389155949304268 0.1711370329901199
3960000000.0 0.1626850057474048 0.08522516141550017
3980000000.0 -0.10378942799949335 -0.15042550101188049
4000000000.0 -0.16470610994960827 0.051000669373111464
