! Created with skrf (http://scikit-rf.org).
# Hz S RI R 50.0 
!freq ReS11 ImS11
400000000.0 0.17576324175809363 0.8562270364924178
420000000.0 0.5973919048463517 0.6189000234608327
440000000.0 0.793548331514047 -0.23116116798411984
460000000.0 0.22086431190675637 -0.758148743050994
480000000.0 0.5083283292701776 -0.4930659713405739
500000000.0 0.25757844702921484 -0.4995279768981723
520000000.0 0.2644304932577677 -0.40950391757098414
540000000.0 0.4267532712385651 -0.027275412218078884
560000000.0 -0.33777319402277667 -0.0993975161275402
580000000.0 -0.28011730998674866 0.18034596784241513
600000000.0 0.3026190851609374 0.130621351835671
620000000.0 -0.1570599110512661 -0.3110108187760537
640000000.0 -0.2872756491675228 -0.25179274568546167
660000000.0 -0.3872147953529645 0.09611690305149258
680000000.0 0.1142649816725006 -0.4125232477616794
700000000.0 0.06643482494943523 0.4438176036611369
720000000.0 0.15329083847464062 -0.4256619372625887
740000000.0 0.4045847220429362 -0.1789813877015949
760000000.0 -0.4168480275578503 -0.03870042591805945
780000000.0 0.1479422864715595 -0.3542781926187926
800000000.0 0.10833581013682177 0.33240818271629546
820000000.0 0.0947887001588929 0.27270809506175375
840000000.0 0.21501987287229737 0.09063038142589029
860000000.0 0.015371567156767765 0.19969156727414372
880000000.0 -0.11962376982586183 0.0695918437142553
900000000.0 0.02717542667410357 0.06656792461064735
920000000.0 -0.038137778225913015 0.01452741250773746
940000000.0 0.015718122215755085 0.029188198322888555
960000000.0 0.03812854648984009 -0.025522907934122145
980000000.0 0.05054395451497846 0.0194114252728943
1000000000.0 0.060113080185650695 0.00421697314139291
1020000000.0 0.06917419675122183 -0.021162185979332594
1040000000.0 -0.034100326689190254 0.07395702415709046
1060000000.0 0.11217067773629762 -0.045491645154473154
1080000000.0 -0.1187048767317095 -0.07096321443471472
1100000000.0 -0.08505695262027221 -0.14080911174944405
1120000000.0 -0.19524991717061546 -0.0037243729484600233
1140000000.0 0.21636090373312236 0.10684328365954587
1160000000.0 0.2089202193791711 -0.19539979527662416
1180000000.0 -0.12870759039161686 -0.3046841729054263
1200000000.0 -0.33353987678994107 -0.15697511619736654
1220000000.0 0.004270940195653663 -0.39785751813922465
1240000000.0 0.4083468848855666 0.0933746958109875
1260000000.0 -0.43914538299366335 -0.018374778915390355
1280000000.0 0.4473349820648702 -0.03453765641686288
1300000000.0 -0.4033315797332498 -0.19470791469998963
1320000000.0 -0.13813772238587538 0.4119858854208858
1340000000.0 -0.36699794905178545 0.2028528956656501
1360000000.0 -0.1374753227053824 -0.3843532522876578
1380000000.0 0.21198407217715165 -0.3486830120266313
1400000000.0 0.1342141007825877 -0.37357490532111093
1420000000.0 0.07762071571521759 -0.37905262265368905
1440000000.0 -0.1941897911550586 -0.31740497550685326
1460000000.0 -0.3489905031831939 0.05115513679374643
1480000000.0 0.10430015157471959 0.3164195449391009
1500000000.0 -0.09177653333464675 -0.29449701193082506
1520000000.0 -0.16905364361180555 0.22750879597435894
1540000000.0 -0.17539896483200376 0.18268601220876426
1560000000.0 0.04336905496886685 0.21125717638563474
1580000000.0 0.1557654654586262 0.0917114826897008
1600000000.0 -0.13276613059171055 0.06460658473495666
1620000000.0 -0.026299344479988402 -0.10283736808735917
1640000000.0 -0.07477407341603651 0.024817612515189297
1660000000.0 -0.05148324163211931 0.015257589362056331
1680000000.0 0.01725511683304787 -0.01640971334199061
1700000000.0 -0.010068521884715772 0.007205660410696829
1720000000.0 0.02070101899920501 -0.02191273798597988
1740000000.0 0.05280878228971973 0.002888994251621267
1760000000.0 0.018388951898750887 -0.066683834293003
1780000000.0 -0.0027580129026049576 -0.08814821415770785
1800000000.0 0.1107202478269745 0.0282591110878621
1820000000.0 0.08639084744477916 -0.09301658657360631
1840000000.0 0.1169438568414878 0.09656202751263289
1860000000.0 -0.04312798444208845 0.16906310604358052
1880000000.0 -0.12004225087953814 -0.17137731787718052
1900000000.0 0.07936317598694377 -0.23805261036412184
1920000000.0 -0.290944160745572 -0.058620891521333984
1940000000.0 0.030684204800029216 0.3417114278088567
1960000000.0 0.09027956347265197 -0.3725792671206339
1980000000.0 -0.04069096038167327 0.4097683963141977
2000000000.0 0.2920511412619774 -0.32314756912243614
2020000000.0 -0.38283898585758763 0.23819753733344828
2040000000.0 0.4193927904684132 0.17349168872650042
2060000000.0 -0.13549724404953986 -0.42952706863719425
2080000000.0 -0.4233619165283274 0.10797774080785366
2100000000.0 -0.23775697776028454 0.34656748794139136
2120000000.0 -0.2913967116434557 0.27496461034839453
2140000000.0 -0.36395441528379124 0.11853923374341739
2160000000.0 0.21187370826414068 -0.29954326958818633
2180000000.0 0.35419212589586985 -0.029349898249074004
2200000000.0 0.2834990256814883 0.2021776716828942
2220000000.0 0.3461944531367004 0.059024850368683594
2240000000.0 -0.04655239133985491 -0.34826529042876
2260000000.0 -0.3546405883524684 0.013865878304815895
2280000000.0 0.14216482794547705 0.32920910414376553
2300000000.0 0.28031518575721864 -0.24131210613077475
2320000000.0 -0.35799025706491255 -0.14952259879442129
2340000000.0 -0.17709754912926085 0.3748713047739999
2360000000.0 0.44921940604747784 0.03220218907467604
2380000000.0 -0.32458801431759493 -0.3765206951403473
2400000000.0 0.1756354306090993 0.5197594977721599
2420000000.0 -0.28507441576806875 -0.531016855605351
2440000000.0 0.5771031960810039 0.309103833734574
2460000000.0 -0.6861487293344728 0.12287810787590758
2480000000.0 0.5567336508694298 -0.47270925326300717
2500000000.0 -0.5524873177252717 0.5112254620852908
2520000000.0 0.592291213845841 -0.4830093361339608
2540000000.0 -0.7441694932585472 0.18474960572208274
2560000000.0 0.6790809740359072 0.34496388813590906
2580000000.0 -0.16088063793753507 -0.7297718979888002
2600000000.0 -0.48397877509373505 0.53665948519612
2620000000.0 0.6875837608541466 0.07723519808117495
2640000000.0 0.6150115591848307 -0.2245506534099855
2660000000.0 -0.48193487714256106 -0.37624960578783634
2680000000.0 0.02715106188103989 0.5666621212152745
2700000000.0 0.25639476784363346 -0.45648297871000604
2720000000.0 -0.2738904491275608 0.39058020514254727
2740000000.0 0.25007010445185135 -0.3532541455409812
2760000000.0 -0.051977784998655165 0.38751510663477223
2780000000.0 -0.23298279091216673 -0.2689782333468953
2800000000.0 0.3238187316059951 0.025186799182621733
2820000000.0 -0.2614182226977375 0.15065580725378938
2840000000.0 0.23585955855146767 -0.16516983012745273
2860000000.0 -0.2334480821152642 0.16140006663520776
2880000000.0 0.24603493660448186 -0.14248207439581523
2900000000.0 -0.2859554906041009 -0.04746856966747552
2920000000.0 0.109087992703227 0.2820794069178061
2940000000.0 0.1447410364400578 -0.2775636329182227
2960000000.0 -0.2966804940803137 -0.11849169707188471
2980000000.0 -0.30880544365280327 0.1052631550076499
3000000000.0 -0.29657329047245595 0.14215043054802126
3020000000.0 -0.326416230717813 -0.009089650067953946
3040000000.0 0.0077266078022079155 -0.32050513303430794
3060000000.0 0.13413839893337318 0.28424380378490127
3080000000.0 -0.17631553806111755 -0.24842616332217085
3100000000.0 0.1006811322847202 0.27793171966424546
3120000000.0 0.0973110976827334 -0.2678881574807548
3140000000.0 -0.18779802310554208 0.2012509512990902
3160000000.0 0.2542936082797697 -0.0671773616829119
3180000000.0 -0.016782437971986915 -0.24921559005578522
3200000000.0 0.20555779845068606 0.10925300763968053
3220000000.0 -0.062181383377381806 0.19936208615462003
3240000000.0 -0.1694116341857343 0.06819464168256044
3260000000.0 -0.12266211754240146 -0.08732204700184978
3280000000.0 -0.11271911994813125 -0.026595007772965803
3300000000.0 -0.07547036537166799 -0.03036330787704115
3320000000.0 -0.0009950332320200308 0.04681018614927787
3340000000.0 -0.011093437415544104 0.013208147051737947
3360000000.0 0.002001752535225717 -0.008280258409800699
3380000000.0 0.0197008792994566 0.010731533118419095
3400000000.0 -0.02730197087465029 -0.015496275384389475
3420000000.0 -0.00901849721116334 -0.03538076826518693
3440000000.0 0.03820865406049113 -0.00802808442733995
3460000000.0 0.03438816271008837 -0.028322438184691382
3480000000.0 0.05420816734325534 0.02718290745136081
3500000000.0 0.056726794474466415 0.059463955876866516
3520000000.0 0.00494096983810155 0.10568075543222293
3540000000.0 0.09452838005000391 0.07868075021246689
3560000000.0 0.12111222850025029 0.059452541168760954
3580000000.0 -0.04962383799655682 0.13645689694254332
3600000000.0 -0.13655759462488512 -0.07755617025414392
3620000000.0 0.07468872737721378 -0.14631851663025727
3640000000.0 0.09600262623799898 0.14242096285037145
3660000000.0 -0.1810668501407894 -0.006758968932383681
3680000000.0 0.10673246153896021 -0.15358630926212452
3700000000.0 0.18745701707901266 0.03235266036038599
3720000000.0 0.06480824335892614 0.18344841485462762
3740000000.0 0.06915544189070333 0.1802450345399077
3760000000.0 -0.17189696081386233 0.07688961634402292
3780000000.0 0.001045476152931177 -0.1782843585115568
3800000000.0 0.030380846376692378 0.1629281648545686
3820000000.0 0.11207192427749271 0.10448439793040341
3840000000.0 -0.10463152884872881 0.09571416437856062
3860000000.0 0.13955754988265057 0.003542375911789092
3880000000.0 -0.12456361906647341 0.07816991687856352
3900000000.0 -0.07427215286763326 0.13687988911504606
3920000000.0 0.16226342546118225 -0.039183952417333676
3940000000.0 0.042377823476215166 0.1718428391565935
3960000000.0 0.16582028546172517 0.0795283468532802
3980000000.0 -0.11895210543267315 -0.1388431888672788
4000000000.0 -0.1575966384929144 0.0706839995699486
