! Created with skrf (http://scikit-rf.org).
# Hz S RI R 50.0 
!freq ReS11 ImS11
400000000.0 0.20714713361796785 0.847076305535162
420000000.0 0.6034755388344635 0.6104081648792944
440000000.0 0.8128260040285005 -0.15296255398651823
460000000.0 0.10547073171484458 -0.7830905938000139
480000000.0 0.413773970864065 -0.5734420066514565
500000000.0 0.33608391309844987 -0.44854503215443775
520000000.0 0.16263050267413257 -0.4606257988622824
540000000.0 0.4262721267839887 -0.01094260852625476
560000000.0 -0.2855906294197101 -0.20970941826402897
580000000.0 -0.26226939768090846 0.2023867396633956
600000000.0 0.30543331875838686 0.12168036238239152
620000000.0 -0.07891334932277629 -0.33826889453999065
640000000.0 -0.3558855531863494 -0.13315110650330814
660000000.0 -0.3827878168616031 0.10861492742454895
680000000.0 0.04449123888427577 -0.42561478981013473
700000000.0 0.15358093708081483 0.4226852304533152
720000000.0 0.1719119747158396 -0.4174309586094216
740000000.0 0.4181798475459171 -0.14732330002969826
760000000.0 -0.4178342507190887 0.04073628250395824
780000000.0 0.140332360141238 -0.35784274814487355
800000000.0 0.03036498286884622 0.34814677705010255
820000000.0 0.05152939657994676 0.2850041146806061
840000000.0 0.1946747565372809 0.12831536468586868
860000000.0 -0.0010498583055483636 0.20023668915934573
880000000.0 -0.11195590672905642 0.08191770749962542
900000000.0 0.049315187064259594 0.052917835315120364
920000000.0 -0.038868016931870024 0.010281427001231615
940000000.0 0.033419330677124826 0.003949577659494053
960000000.0 0.04550699087985238 -0.007800285349966009
980000000.0 0.047775624682858134 0.027253476735297225
1000000000.0 0.053049976333302024 0.03047373263396353
1020000000.0 0.0677164193643841 0.02378116481732175
1040000000.0 -0.04623370034135353 0.06728396465095247
1060000000.0 0.11141288060124382 -0.047522046308191866
1080000000.0 -0.11942374830393702 -0.06925997492376865
1100000000.0 -0.07949853440729396 -0.14378672954143182
1120000000.0 -0.19276500937430938 0.026836268619990066
1140000000.0 0.1933603002517709 0.1429600860649817
1160000000.0 0.18844044538289978 -0.21553120081818977
1180000000.0 -0.15490220301639526 -0.292512679841061
1200000000.0 -0.3311953628931437 -0.16054760079023703
1220000000.0 0.012880443130045213 -0.3972159031627835
1240000000.0 0.41155936707578156 0.07751594734633911
1260000000.0 -0.43796451302232475 0.03807848650330167
1280000000.0 0.44408834118528456 -0.06536073634437828
1300000000.0 -0.40555781895391185 -0.19082550380089883
1320000000.0 -0.14184995977747972 0.41111792748105264
1340000000.0 -0.36490357717174465 0.20709772780870705
1360000000.0 -0.1645339669710369 -0.373866298895048
1380000000.0 0.21194657267082176 -0.34898503545351445
1400000000.0 0.16031680838860446 -0.36385581449856547
1420000000.0 0.09536968268554345 -0.3751939780086281
1440000000.0 -0.17766238066351733 -0.3266976237018516
1460000000.0 -0.3519426548567667 -0.0009832946336457498
1480000000.0 0.08060882191069974 0.32267815810159256
1500000000.0 -0.08777836408394891 -0.2950697990738433
1520000000.0 -0.19297562118663553 0.20650915870364603
1540000000.0 -0.17772078963030516 0.179690735716048
1560000000.0 0.06464650829831213 0.2044706054708121
1580000000.0 0.17142417758493508 0.055110002255947456
1600000000.0 -0.10740242653863839 0.09983015860896072
1620000000.0 -0.060882654721457166 -0.08627398949775639
1640000000.0 -0.03294695893050175 0.07112823197566119
1660000000.0 -0.03845394751736582 0.03747638831429559
1680000000.0 0.023883991761032616 0.002683457348725074
1700000000.0 0.0022746988255397697 0.012040436932761326
1720000000.0 -0.006146574280077452 -0.028534713371640572
1740000000.0 0.02397296088098096 -0.04607097114881425
1760000000.0 -0.04108356124309606 -0.055075531513248864
1780000000.0 -0.05034203554308597 -0.07306046044146296
1800000000.0 0.11089619545793143 -0.030331301531797868
1820000000.0 0.07786637449639665 -0.10095312336331062
1840000000.0 0.13082935388555864 0.07785648156760114
1860000000.0 -0.02468506130002922 0.17365364342952513
1880000000.0 -0.12583632809574907 -0.16810468702307443
1900000000.0 0.0752587597118698 -0.24065983247942077
1920000000.0 -0.2913614666035933 -0.060768877546771696
1940000000.0 0.005505419092588831 0.3435334894322786
1960000000.0 0.12050234359144138 -0.3638685533541869
1980000000.0 -0.05910395895351851 0.4072551749577335
2000000000.0 0.32985264418129834 -0.28342126113248683
2020000000.0 -0.39429254941268116 0.21820558850086788
2040000000.0 0.41370503935115577 0.18505338224452922
2060000000.0 -0.10159553735829416 -0.4381472522098642
2080000000.0 -0.42422178711721886 0.09985226144960288
2100000000.0 -0.23055350027016097 0.35033400255653957
2120000000.0 -0.2290383057782507 0.3278487695348982
2140000000.0 -0.3487532534314959 0.15594254137611369
2160000000.0 0.12406558918912107 -0.3444143532755754
2180000000.0 0.3396818084400636 -0.10285186743198378
2200000000.0 0.30898890238571425 0.1599820576635292
2220000000.0 0.34559324741380404 -0.06030671530672
2240000000.0 -0.09494390360954433 -0.33811662521204155
2260000000.0 -0.3497727856494386 0.0608807539094905
2280000000.0 0.16706056212566844 0.3184112391735003
2300000000.0 0.27907323620767815 -0.24497929029470966
2320000000.0 -0.3696066212009958 -0.12410246573145746
2340000000.0 -0.13721618729504823 0.3930090937968302
2360000000.0 0.44821548088055263 0.05544697015380642
2380000000.0 -0.35482062093304 -0.350317864867566
2400000000.0 0.1959188163061463 0.5135782999496368
2420000000.0 -0.30666942844422107 -0.5195427402121763
2440000000.0 0.5901613659757126 0.2830326337992183
2460000000.0 -0.6802319569605808 0.14984176525897833
2480000000.0 0.5403074327485398 -0.4904737702944759
2500000000.0 -0.4610172295258315 0.5937451140284197
2520000000.0 0.5541844773957691 -0.5251860726537412
2540000000.0 -0.7399850295813732 0.19934480835809282
2560000000.0 0.7249247245084962 0.22848199531277016
2580000000.0 -0.19354545227073439 -0.7204793595462682
2600000000.0 -0.36979288553245787 0.6197144413287287
2620000000.0 0.6895145236103356 -0.048577473529528306
2640000000.0 0.5601531853122617 -0.33732693110441214
2660000000.0 -0.5308792479352221 -0.3021845893012068
2680000000.0 -0.00393918816759099 0.5666272996390846
2700000000.0 0.2744154440251364 -0.4452888348584207
2720000000.0 -0.28271060390654934 0.384004390641356
2740000000.0 0.2268750779961136 -0.36833347708216885
2760000000.0 -0.058375657517871375 0.3861173709711181
2780000000.0 -0.20125485685218614 -0.29292920539551437
2800000000.0 0.3120022694905738 0.08937852412587145
2820000000.0 -0.270449869649097 0.13387028391134648
2840000000.0 0.2563546104173068 -0.12871264933826454
2860000000.0 -0.2563236218807749 0.1209266311592312
2880000000.0 0.26543995031731327 -0.10094585394652346
2900000000.0 -0.2836457480352087 -0.05531964339443729
2920000000.0 0.07933722713396489 0.29060820677556176
2940000000.0 0.1554273202623288 -0.2699019959652958
2960000000.0 -0.31435150422313446 -0.04845575664213501
2980000000.0 -0.2886866770514495 0.1500529219400906
3000000000.0 -0.25906159504599197 0.20025326027332027
3020000000.0 -0.32092520779260725 0.0565197249766013
3040000000.0 -0.015313201107801783 -0.3197908837624388
3060000000.0 0.2132724603158388 0.22804006979357544
3080000000.0 -0.23826160361070983 -0.18840680149720748
3100000000.0 0.18446069244037938 0.2303475451398566
3120000000.0 -0.03451489920875806 -0.2823101421562308
3140000000.0 -0.09422663114188144 0.2577957536164652
3160000000.0 0.2466221141488923 -0.09108382482893108
3180000000.0 -0.13516834452708748 -0.21185085647292218
3200000000.0 0.2332525098653821 0.01268257522524984
3220000000.0 -0.008663558110608392 0.20951925192570464
3240000000.0 -0.17129371825025494 0.06749097946745006
3260000000.0 -0.11943967621551492 -0.09421444905231822
3280000000.0 -0.08926357497782576 -0.07591259999902612
3300000000.0 -0.047870864737922056 -0.0669804497410285
3320000000.0 -0.04525867026139581 0.014983099532722113
3340000000.0 -0.01723354147112137 0.005629444427758743
3360000000.0 -0.007281556923573836 0.00011454595956132739
3380000000.0 0.02164289356820048 -0.004158152799412208
3400000000.0 0.02437901010605774 0.019529178702410055
3420000000.0 0.01854178534764314 0.03134621531647249
3440000000.0 -0.037947858518821063 0.006923113280426215
3460000000.0 -0.04357340707312884 -0.008529820082358825
3480000000.0 0.055425505608044545 -0.021980649038187215
3500000000.0 0.07742798532924658 0.024950398007214023
3520000000.0 0.05880761718853365 0.08624205394452106
3540000000.0 0.12222161526858447 0.0027223599123400877
3560000000.0 0.12332575765466541 0.054074299496030986
3580000000.0 -0.02140860338589932 0.14337802996900753
3600000000.0 -0.1492053341810529 0.048504897971857586
3620000000.0 -0.015264064159355169 -0.16395988596356798
3640000000.0 0.13881940231832926 0.10150674583015
3660000000.0 -0.17463808807820808 0.04838376755654426
3680000000.0 0.04181611177707515 -0.18185701167740026
3700000000.0 0.18555350340237223 -0.04384558194536692
3720000000.0 0.14413123728801497 0.13077182098364315
3740000000.0 0.09024731844463375 0.17215403243257066
3760000000.0 -0.18144605275170086 0.05733484053413056
3780000000.0 0.04327484819961503 -0.17462506619048695
3800000000.0 -0.008544815809524875 0.16733292472223135
3820000000.0 0.06617425652095138 0.13956190493890158
3840000000.0 -0.11998833851006474 0.07853290176052219
3860000000.0 0.14085767072571542 0.006642911836851694
3880000000.0 -0.10350120977958578 0.10530162113747946
3900000000.0 -0.08352417076517976 0.13304540289964206
3920000000.0 0.16107573905941577 -0.04905821006545908
3940000000.0 0.07099037566499304 0.16338337663794536
3960000000.0 0.170647660994934 0.06946655815565
3980000000.0 -0.1254826562151377 -0.1327476290239511
4000000000.0 -0.11404358077755408 0.12828214007354255
