! Created with skrf (http://scikit-rf.org).
# Hz S RI R 50.0 
!freq ReS11 ImS11
400000000.0 0.20174914235776406 0.8489570332252898
420000000.0 0.5959728975542229 0.6189547349166399
440000000.0 0.8041735533539769 -0.19201024570458136
460000000.0 0.07173982369213215 -0.7851633114176227
480000000.0 0.5040227036774817 -0.49585294061138196
500000000.0 0.22143415247451417 -0.5168636343986769
520000000.0 0.2102048869380172 -0.44122010456270444
540000000.0 0.4268431123955967 0.0045112419514651576
560000000.0 -0.33261789209305404 -0.11128765372495883
580000000.0 -0.3310208370709116 0.0415648692108896
600000000.0 0.32511216691624817 0.05535571187597526
620000000.0 -0.13366297740154034 -0.3204240051032264
640000000.0 -0.32273958013759374 -0.20165115762984387
660000000.0 -0.36020199575304396 0.1677033165115908
680000000.0 0.07707847474753056 -0.42002303600917923
700000000.0 0.17599052271619114 0.414047993024247
720000000.0 0.10351670589425685 -0.43967428750385656
740000000.0 0.4197129022217742 -0.14048880041225847
760000000.0 -0.41759407136603793 -0.04193644741484299
780000000.0 0.11821557361431648 -0.3659478519630034
800000000.0 0.05927608070992647 0.34453005522168034
820000000.0 0.05956672419197373 0.28314806905336193
840000000.0 0.18219158589901127 0.14710047094556797
860000000.0 0.021312211934755954 0.19919623764488067
880000000.0 -0.09368823284358191 0.10153649447418117
900000000.0 0.02215193851776583 0.0677918542969948
920000000.0 -0.038270324456445286 0.01242587899615565
940000000.0 0.021305220685482844 -0.026753832298613698
960000000.0 0.04444457720886745 -0.014301845895697387
980000000.0 0.03947266188504179 0.03872422955769061
1000000000.0 0.05088843238545716 0.033093269323799926
1020000000.0 0.06269563194077381 0.03617366136271108
1040000000.0 -0.009632969417116862 0.08063950459362046
1060000000.0 0.10829744788728093 -0.052873486470496514
1080000000.0 -0.12532999613999493 -0.05890983577360739
1100000000.0 -0.11500451667829503 -0.11697870378556281
1120000000.0 -0.19467470883125312 0.007080547858838385
1140000000.0 0.22262279801318618 0.09110978345001772
1160000000.0 0.17281220579222392 -0.2278022806870979
1180000000.0 -0.1569578421813564 -0.29169175022174115
1200000000.0 -0.3358314485300355 -0.15081394914151705
1220000000.0 -0.007449461347707494 -0.39729743115449584
1240000000.0 0.41076879224029544 0.08029519301757597
1260000000.0 -0.4372244043191033 0.046548391049679984
1280000000.0 0.44481681525541067 -0.06086026689538115
1300000000.0 -0.40915354447657515 -0.1831026419475236
1320000000.0 -0.14905936484461063 0.40867512278670554
1340000000.0 -0.3673589813869771 0.20301117860980397
1360000000.0 -0.14486923303862873 -0.3819456418578172
1380000000.0 0.2089989842568402 -0.35107586628061177
1400000000.0 0.1540348880019942 -0.36622629953720565
1420000000.0 0.09266295471882938 -0.3756788773666551
1440000000.0 -0.16875434498273456 -0.33148786225856264
1460000000.0 -0.351093193716866 0.028889421515905598
1480000000.0 0.09123451734627527 0.31989272785799794
1500000000.0 -0.08336753392347837 -0.29659217060581994
1520000000.0 -0.1631485282142738 0.23021831938545548
1540000000.0 -0.18675923991712345 0.17008850976996603
1560000000.0 0.07730555835374414 0.19976602430193469
1580000000.0 0.1776744793983242 0.02931343021624808
1600000000.0 -0.107281303237913 0.10004844070344443
1620000000.0 -0.06172709607317277 -0.08564533824638387
1640000000.0 -0.03598271239161069 0.06992845243750966
1660000000.0 -0.039795998131638775 0.03649743689962307
1680000000.0 0.024210782365357536 0.0018193092803813543
1700000000.0 -0.009106406346798282 0.008182233597466412
1720000000.0 -0.01473840343598873 -0.025127446301580824
1740000000.0 0.03022304945714435 -0.04201124478228951
1760000000.0 -0.03452587955437528 -0.05954450185116229
1780000000.0 -0.06180569008669277 -0.06373737588697269
1800000000.0 0.11315771077287301 -0.019347040634790133
1820000000.0 0.0661355440273284 -0.10934628128720114
1840000000.0 0.13396228259228873 0.07275240372920348
1860000000.0 -0.03125340884404549 0.1726421307677604
1880000000.0 -0.11828963290479086 -0.173914777809125
1900000000.0 0.05836225699688326 -0.2449100679487192
1920000000.0 -0.2870963640523984 -0.07865718787747615
1940000000.0 0.021232675813130684 0.34287492524705665
1960000000.0 0.12359609834692901 -0.36289872536098366
1980000000.0 -0.06610999532056547 0.4059922711672719
2000000000.0 0.32886730983087603 -0.2847614405166327
2020000000.0 -0.39588958663852786 0.21461293865700498
2040000000.0 0.40907258393732204 0.19484109894432375
2060000000.0 -0.09234672963649132 -0.43999563844853806
2080000000.0 -0.41217580003306625 0.14037531465659717
2100000000.0 -0.22398366678316559 0.3540216018977472
2120000000.0 -0.20576855906234084 0.34274998178825805
2140000000.0 -0.3352346954210952 0.18282247436386512
2160000000.0 0.11265327650082577 -0.34836131360994355
2180000000.0 0.337285425139341 -0.11096556152232334
2200000000.0 0.31343570161530127 0.1502787677842678
2220000000.0 0.3428289982850439 -0.0736436159968559
2240000000.0 -0.1155065895220007 -0.33195587604200416
2260000000.0 -0.34607054870978876 0.08163256659861044
2280000000.0 0.1779080174323298 0.3125704823941845
2300000000.0 0.2690428120060894 -0.25603804768356825
2320000000.0 -0.3580142184795692 -0.15509656852754508
2340000000.0 -0.16943066094597944 0.3804400605938768
2360000000.0 0.4511464573135185 0.03392909195125913
2380000000.0 -0.3443078527700291 -0.36073801634564173
2400000000.0 0.17677095854410327 0.5208349454809869
2420000000.0 -0.3152492802578986 -0.5147156066103128
2440000000.0 0.5902421254778998 0.28259484055631395
2460000000.0 -0.677363878588798 0.16125121183450716
2480000000.0 0.5136464254688308 -0.517693479567093
2500000000.0 -0.4888728162409149 0.5708435783945109
2520000000.0 0.5365976796749118 -0.5424601045797705
2540000000.0 -0.7200279598301195 0.2611131834071876
2560000000.0 0.7341441465364693 0.19630055327330445
2580000000.0 -0.20873236979558074 -0.7161034219226559
2600000000.0 -0.3415051627403413 0.6354098730480987
2620000000.0 0.689225175195556 -0.04810774096901942
2640000000.0 0.551512482434698 -0.35063013956694045
2660000000.0 -0.5339093395315061 -0.296246852432343
2680000000.0 0.023596557187405134 0.5660871696239848
2700000000.0 0.27189021539213193 -0.44685252104199175
2720000000.0 -0.2885161323123483 0.3790729268753164
2740000000.0 0.2386022590348945 -0.3606450431082352
2760000000.0 -0.06200173271558406 0.38546831828498945
2780000000.0 -0.2037717936020231 -0.29136703213924187
2800000000.0 0.3141797151932708 0.07957068378120857
2820000000.0 -0.2766931071911243 0.1190980792969625
2840000000.0 0.2540918697485425 -0.1330515357103887
2860000000.0 -0.2278997290867242 0.16687049503592813
2880000000.0 0.26255751767447316 -0.10694213426967768
2900000000.0 -0.28596450436770304 -0.04059626132457001
2920000000.0 0.12445474750340486 0.2736369346798766
2940000000.0 0.13676338217427106 -0.27957535909299125
2960000000.0 -0.3156675891064889 -0.04193851993116425
2980000000.0 -0.28150896936669634 0.16285208909597718
3000000000.0 -0.28050108912430194 0.16912030745556555
3020000000.0 -0.3261275283444713 -0.008541140613901843
3040000000.0 0.009982057386254082 -0.32011677551623247
3060000000.0 0.21524196138418783 0.22657622391552215
3080000000.0 -0.24614256897782857 -0.17775430900298267
3100000000.0 0.19270570826923192 0.22292427011954274
3120000000.0 -0.01533860521018909 -0.2838071174170578
3140000000.0 -0.08915964381421237 0.25993141779077283
3160000000.0 0.2267758580914324 -0.13251892073366156
3180000000.0 -0.12602019465903697 -0.2163424959706289
3200000000.0 0.23095851781000232 0.03394713806728395
3220000000.0 0.022688531667567586 0.20888045322812457
3240000000.0 -0.1675184831095451 0.07555625834220593
3260000000.0 -0.13252922684659607 -0.07468610650016434
3280000000.0 -0.07535025108649047 -0.09004265335473084
3300000000.0 -0.05190939292751507 -0.06442132625291232
3320000000.0 -0.041994062779385576 0.024202478954866154
3340000000.0 -0.01820327475908301 -0.002559022029894313
3360000000.0 0.0051965558967542085 -0.004861869096347322
3380000000.0 0.014784763098712952 -0.015613550476475769
3400000000.0 0.03102164173483459 -0.0030832967233922178
3420000000.0 0.03654613967948768 -0.0021264505640093104
3440000000.0 -0.028423698934046542 0.02545292230168418
3460000000.0 -0.043418900754703546 0.007950774348924924
3480000000.0 0.05176516463235411 -0.028844497709619877
3500000000.0 0.08059215829991478 0.0037525451461666495
3520000000.0 0.049208422598266015 0.09133539794498044
3540000000.0 0.12160079711505928 0.00814768947426251
3560000000.0 0.12996465112424166 0.035457563375757145
3580000000.0 0.008862918489817248 0.14488430975108393
3600000000.0 -0.15095685294372826 0.04215481045523073
3620000000.0 -0.028924808051751554 -0.1621064652725288
3640000000.0 0.15250312243485786 0.08012911712852779
3660000000.0 -0.17499066459622453 0.046032921524832494
3680000000.0 0.011643937995826721 -0.18628482085898082
3700000000.0 0.1811144669593654 -0.05873416121661498
3720000000.0 0.1579221839382703 0.11474303059517023
3740000000.0 0.12287651210981106 0.15074806934305762
3760000000.0 -0.17408391408381094 0.0767714056481959
3780000000.0 0.02924157098678533 -0.1780221272793029
3800000000.0 -0.012574309754442759 0.16758619605029865
3820000000.0 0.08181248326131231 0.13120142123379464
3840000000.0 -0.12757351811511328 0.06758674778377155
3860000000.0 0.13997662767428434 0.021298418822296914
3880000000.0 -0.1254128785681443 0.08034518275599552
3900000000.0 -0.08289069252654413 0.13459807822358288
3920000000.0 0.15659247532059217 -0.06229847682601455
3940000000.0 0.055856963508262726 0.16903961714425972
3960000000.0 0.16177665373929323 0.08959898100027588
3980000000.0 -0.14121656046302394 -0.11689155586420612
4000000000.0 -0.07734449466932265 0.15395587884612874
