! Created with skrf (http://scikit-rf.org).
# Hz S RI R 50.0 
!freq ReS11 ImS11
400000000.0 -0.062005215229677106 0.8679255216577405
420000000.0 0.3699784258244046 0.7785536955486448
440000000.0 0.8201021716891747 -0.1323178689062425
460000000.0 0.33437909579156844 -0.718588338450462
480000000.0 0.6727859101381187 -0.24373815489416334
500000000.0 -0.0790582160227951 -0.5671481460839152
520000000.0 -0.15693887482371827 -0.4662373387126585
540000000.0 0.2973578889590765 -0.3162308267316858
560000000.0 -0.32323896765613785 0.1545103933619887
580000000.0 0.03545936719038317 0.3377140660642129
600000000.0 0.2574827604648825 -0.217992698172321
620000000.0 -0.34622994105200827 0.09034572716115027
640000000.0 0.12785558300139618 0.3677299438551325
660000000.0 0.3999639935902542 -0.028006012200568833
680000000.0 -0.00023489866210134715 0.42041638935696707
700000000.0 0.24164297869615967 -0.35813690762586764
720000000.0 -0.24441771859720218 -0.3510915357725155
740000000.0 0.38377849959939997 0.16714840084101268
760000000.0 0.07744802658737768 -0.39411269820006395
780000000.0 0.08805723560320221 0.36101965651325263
800000000.0 0.13511468233290222 -0.31663644733460494
820000000.0 0.2839980377043563 -0.0777141092171765
840000000.0 0.016464313743444425 -0.24765953003832594
860000000.0 0.15382948103289065 -0.14923498856838419
880000000.0 -0.07772764245321044 0.13781948762534904
900000000.0 -0.05992019637008947 0.07335903313601268
920000000.0 -0.06289778675185374 -0.0008897903401423121
940000000.0 -0.0066205765560782386 0.047421598778905144
960000000.0 0.022738626789400068 -0.04857688673592456
980000000.0 0.04656981684617742 0.053104823703975734
1000000000.0 0.0196468921566081 -0.07803614783309268
1020000000.0 0.029400075739720703 0.09376658624513305
1040000000.0 0.10860867018013574 0.020503355593152625
1060000000.0 -0.03961558852270095 0.13921774167142018
1080000000.0 -0.13769380735168482 -0.08063371528645713
1100000000.0 -0.14137193782879676 0.11275819008176065
1120000000.0 0.14698805093497785 0.13895909791285085
1140000000.0 0.20921288590932177 -0.10523005329861845
1160000000.0 0.26855003889828055 0.023555534834663074
1180000000.0 0.25009982903966105 0.17889906721423462
1200000000.0 -0.10478158102208468 0.322926425668498
1220000000.0 0.04655249990669504 -0.3633777429344058
1240000000.0 -0.18078802378989495 0.35113127416342843
1260000000.0 0.41319566766445315 -0.08883794928416594
1280000000.0 -0.44123854604085333 0.05058944683694794
1300000000.0 0.42373825084793876 0.17115802274700354
1320000000.0 -0.19004953475607925 -0.41138055425913445
1340000000.0 -0.3891881714066633 -0.21385000420443012
1360000000.0 -0.3296243115648307 -0.2809289537374316
1380000000.0 -0.3633022211941274 -0.22637973518118173
1400000000.0 -0.39619362919823103 0.12123523026767413
1420000000.0 0.05125188622537414 0.39419427462176077
1440000000.0 0.3301300450237333 0.1695492545750753
1460000000.0 0.21261670346779588 -0.27001233202084696
1480000000.0 -0.15271904897167787 -0.27341256932013885
1500000000.0 -0.26251175430782686 -0.10513527752039037
1520000000.0 -0.25537131234973864 -0.008144140333636472
1540000000.0 0.2083289454537599 -0.09324419568745525
1560000000.0 -0.05014000528639902 0.19018962377223816
1580000000.0 -0.15602073876067515 -0.07536073056458921
1600000000.0 -0.037362009259968645 0.14116011262469583
1620000000.0 0.11737400691627305 0.015269424171957974
1640000000.0 0.08872252735444708 -0.03493705672270186
1660000000.0 -0.05651408101987389 0.042741012501998236
1680000000.0 0.0257615566522308 0.04003669517983813
1700000000.0 -0.0012969583214472611 0.028894646796164016
1720000000.0 -0.004452158054546486 0.012303458426597611
1740000000.0 -0.014901665430819087 -0.01469183360426969
1760000000.0 0.040347625039246056 -0.013694428056678068
1780000000.0 -0.042073001855900516 0.06336728694418745
1800000000.0 0.05392163839557642 -0.09978603129649223
1820000000.0 0.08841868809706316 -0.11639659891771695
1840000000.0 0.1092402989430479 0.14234210301955777
1860000000.0 -0.20899027781363516 -0.018231783152724976
1880000000.0 0.056385557438958206 0.2335768126827453
1900000000.0 0.22266449236257121 -0.16004270303447507
1920000000.0 -0.18465901188455505 -0.24272387433224768
1940000000.0 -0.32735750232333877 0.08011031814960884
1960000000.0 -0.03171065046695579 0.3659177438123395
1980000000.0 0.38903261487778285 -0.053824474826353864
2000000000.0 0.10311262135767882 -0.401449302263625
2020000000.0 -0.4299454852334032 0.022372454355104567
2040000000.0 -0.07985454179662237 0.43029125610535085
2060000000.0 0.43212723508882933 0.07744918717154341
2080000000.0 0.29924394611790694 -0.31509494427209656
2100000000.0 0.07778592755179024 -0.4210861580591152
2120000000.0 -0.17227429691549237 -0.38175365754864654
2140000000.0 -0.3687450426529651 -0.1746011419431409
2160000000.0 -0.11978248824284779 -0.3745794938656899
2180000000.0 -0.34650096829921556 -0.14611662205108253
2200000000.0 -0.3326563961620347 0.1413945807209704
2220000000.0 -0.24161547707177292 0.24870694489342904
2240000000.0 -0.11064548829437597 0.3228451640440156
2260000000.0 -0.03143909178408937 0.33964849627910315
2280000000.0 0.00760101691281785 0.3460645539968445
2300000000.0 0.3490988262988391 0.09860324777718024
2320000000.0 0.04536533649664023 -0.3860622409480618
2340000000.0 -0.3967535811648225 0.14411676486991334
2360000000.0 0.4607947988525686 0.05424689869616742
2380000000.0 -0.5093578288236067 -0.0314053194470777
2400000000.0 0.559029151255443 0.025452895002525552
2420000000.0 -0.5596364767518281 0.2439989090472766
2440000000.0 0.32515693140354507 -0.572754709009601
2460000000.0 0.10749454447995861 0.6900778812804849
2480000000.0 -0.4189056605924235 -0.595880404100373
2500000000.0 0.4608308415293066 0.5894085339431744
2520000000.0 -0.24964809074224556 -0.7163514874267958
2540000000.0 -0.0846177546883167 0.7553253961429758
2560000000.0 0.5748382954717116 -0.4876460509985418
2580000000.0 -0.7033792187721963 -0.2261760038385646
2600000000.0 0.24097197493346795 0.6729232077272503
2620000000.0 0.39112785695279295 -0.5609075085249062
2640000000.0 0.06897174326491223 -0.6423222592787333
2660000000.0 -0.5013409781329579 0.33206906364539845
2680000000.0 0.5135859733590167 0.20438125077835556
2700000000.0 -0.1316842765944269 -0.4879216625786953
2720000000.0 -0.2918421828801373 0.35290319320085867
2740000000.0 0.4161740817242545 0.01539064497216189
2760000000.0 -0.3050024535023557 -0.22653663801062238
2780000000.0 0.33057893447965536 0.12234532757274097
2800000000.0 -0.31834209867323904 0.08241528143078344
2820000000.0 -0.013696306944793572 -0.3126197996211762
2840000000.0 0.29081366944540016 0.07963688459410675
2860000000.0 -0.11239497756860145 0.2739307061867696
2880000000.0 -0.21067807330132865 -0.20400443645578525
2900000000.0 0.2599214928547302 0.1331687292626608
2920000000.0 -0.012212208551243284 -0.2939332229369709
2940000000.0 -0.2965461473569715 0.038939953391959055
2960000000.0 -0.204744712218436 0.22088007046489155
2980000000.0 -0.28856450546898244 0.09893336999900675
3000000000.0 -0.2471785757060347 -0.1879798336214845
3020000000.0 0.07659726011881682 -0.3033833855747949
3040000000.0 0.28672155820589385 0.12052164585873602
3060000000.0 -0.2999614965867994 0.0758665571285034
3080000000.0 0.24150735681747967 -0.18709468573045349
3100000000.0 -0.03201210572608458 0.2980143859679509
3120000000.0 -0.03270193309414823 -0.2885010529229
3140000000.0 0.16258970915884163 0.22882249331642968
3160000000.0 -0.26295636560364394 -0.050361623017121486
3180000000.0 0.17659581479051095 0.17725719620304714
3200000000.0 -0.14714457414252313 0.17376162257603406
3220000000.0 -0.1865305274969045 -0.07142153628247161
3240000000.0 0.09564353173408036 -0.1394196367606068
3260000000.0 -0.0629165229965666 0.11865518256709208
3280000000.0 0.10265852568278806 -0.004958362044466387
3300000000.0 0.05768254616703485 -0.049113828806121924
3320000000.0 0.04606978318006738 -0.022415033505706373
3340000000.0 0.029415269444199588 -0.008089562589533906
3360000000.0 0.013387883850255057 -0.0005362463366096493
3380000000.0 -0.004151343275777204 0.0010846309800608385
3400000000.0 0.006459956832259485 -0.018433730222766617
3420000000.0 -0.008036188905943509 0.03491362568340526
3440000000.0 -0.02088407540929695 0.04523220221634444
3460000000.0 -0.05797409618018483 -0.006284595158137437
3480000000.0 -0.05617192226541798 0.03875356378738664
3500000000.0 -0.030447711137087594 0.07199162250240695
3520000000.0 0.014040826628357397 0.08942835086082786
3540000000.0 0.09831221291510825 -0.03401587639225889
3560000000.0 -0.11599696531354162 -0.022681981645362625
3580000000.0 0.054838019499051614 0.12207092990725488
3600000000.0 -0.13870683630759004 0.06963823500706501
3620000000.0 -0.14786058711780767 0.08294678188694048
3640000000.0 -0.17782689973132249 0.03587881757933299
3660000000.0 -0.1479808349545481 0.11995999900244989
3680000000.0 -0.17540690382148758 0.07992842357455718
3700000000.0 -0.18530415268938205 -0.0486108996484075
3720000000.0 -0.006867457666067399 -0.18840374559178735
3740000000.0 0.16299920121486794 -0.08372238442725999
3760000000.0 -0.17594705350539586 -0.01624878205362669
3780000000.0 0.15949522691104662 0.05755798802375802
3800000000.0 0.01924416701317806 -0.15994287879995134
3820000000.0 -0.11810705685129365 -0.09871342821088161
3840000000.0 0.0031038120960829424 -0.1472835064846862
3860000000.0 0.13734686111569866 0.05498834343919362
3880000000.0 0.15113685593139176 0.026280568104488925
3900000000.0 0.01680539872517793 -0.15517449202608047
3920000000.0 -0.13585233303940225 0.08617489574373001
3940000000.0 0.10143727104242317 -0.131357587434385
3960000000.0 0.16862869607151643 0.02878717276175122
3980000000.0 0.14550897674606764 -0.09224708625892487
4000000000.0 0.15830593085335495 -0.04917351531221992
