!Created with skrf (http://scikit-rf.org).
# Hz S RI R 50.0 
!freq ReS11 ImS11
400000000.0 0.4803859485891484 0.7260404767859304
420000000.0 0.8441924635177647 -0.025569821990972245
440000000.0 0.7967593065367328 -0.06666470986843831
460000000.0 0.6942816216079336 0.2711709827515279
480000000.0 -0.07501844561590718 -0.6836676865278827
500000000.0 0.16386559796057806 0.5816456700089326
520000000.0 0.3293981212775468 0.3913306372727558
540000000.0 -0.42150925288248214 -0.0987261960143497
560000000.0 0.12914666748389025 0.3715148941200196
580000000.0 -0.3418562153959387 -0.10945537142233745
600000000.0 0.300009667725282 -0.18701427356794503
620000000.0 -0.22364419055316367 -0.274179482817341
640000000.0 0.40201299147382413 -0.05284783014169389
660000000.0 0.03896448537304655 0.40853066352970846
680000000.0 0.09827749024320047 -0.433899331680763
700000000.0 -0.0527518016382236 0.4618142326602026
720000000.0 -0.46484403140774605 0.026480813699684913
740000000.0 -0.30172880876278946 0.3038060298668232
760000000.0 -0.3534158848227672 -0.20836203537868858
780000000.0 -0.31701259207128984 0.21081791103099107
800000000.0 -0.217276670926093 0.2601761971825806
820000000.0 0.20822349327995626 0.18737351343129996
840000000.0 -0.18275498202378218 0.09563590944618477
860000000.0 -0.16397700070825685 -0.03144237809935099
880000000.0 -0.0591558316876675 -0.12557464001789065
900000000.0 -0.09422300746014835 -0.011849530710993103
920000000.0 0.03486202931209796 0.04377982255871966
940000000.0 0.0014461262172811888 -0.03771871428582032
960000000.0 0.03358217381397912 -0.022477933269663384
980000000.0 -0.05284699878890539 -0.03528995205343231
1000000000.0 0.013110221628283517 0.10002354457876014
1020000000.0 0.08662901365290653 0.08966890343943758
1040000000.0 -0.13791237121632094 -0.004726778657736349
1060000000.0 0.1142506911791971 0.11719279463497406
1080000000.0 -0.16908385555724675 0.0845512664304209
1100000000.0 0.0501340360136026 -0.20728586160779733
1120000000.0 0.1970894103264797 -0.12808426516254856
1140000000.0 0.032938901585397015 0.2567884396942285
1160000000.0 -0.0525770065815421 0.27460970998086
1180000000.0 -0.26618319088574316 -0.14512412458332172
1200000000.0 0.2353218633525195 0.2424327499621119
1220000000.0 -0.04187782377232958 -0.367812593735964
1240000000.0 0.2701504873256211 0.28843444502343785
1260000000.0 -0.22529478435219716 -0.34261525655012703
1280000000.0 -0.42575359269889496 0.005496188757114791
1300000000.0 0.25211804251658254 0.35282036954235924
1320000000.0 0.43111222586924974 0.06863888995517693
1340000000.0 0.34317496584565066 0.27649264137511786
1360000000.0 0.4327158288120737 -0.10925340195822907
1380000000.0 -0.33223473177291263 -0.28230989486333957
1400000000.0 -0.41062769751878386 -0.09188455088423819
1420000000.0 0.06358883324534047 0.3935038480806059
1440000000.0 0.3509668158377141 0.1182355750016146
1460000000.0 0.3256513625646209 0.11216153739764695
1480000000.0 0.03747574566710922 -0.31709616197290863
1500000000.0 -0.15181949305946985 0.24679875974134538
1520000000.0 -0.13415100795529034 0.22127072439786638
1540000000.0 0.22805937896577763 -0.02653130132469886
1560000000.0 0.1836674369408226 0.06815417105861914
1580000000.0 0.023168184444651206 0.16894754243980853
1600000000.0 0.12110799762194722 0.05823916959854058
1620000000.0 0.06515837635961605 -0.07354934880537736
1640000000.0 -0.0736199203730749 0.006678172726849676
1660000000.0 -0.03960883032009674 0.0452021606197852
1680000000.0 -0.038368665292729066 -0.0018767782934817376
1700000000.0 -0.0006502768413350801 -0.018066170044345933
1720000000.0 0.004346182027093052 -0.010975800634614428
1740000000.0 -0.016029270380566646 -0.010977088979738397
1760000000.0 -0.0231191973514486 -0.011336777656019443
1780000000.0 -0.0381474642366828 0.01634652881209733
1800000000.0 0.06516127340081118 -0.05401516837625918
1820000000.0 -0.0547724370125457 -0.10956217512335233
1840000000.0 0.13175329765994048 -0.10121361663354296
1860000000.0 -0.2011007155155515 0.060296546388146244
1880000000.0 0.2371421794339377 -0.06933844762184738
1900000000.0 -0.2828794701598384 -0.025933846364400496
1920000000.0 -0.13338140090423647 -0.2914552349909375
1940000000.0 -0.28513909274018384 0.1838908527569041
1960000000.0 -0.2796039230617574 0.23082844906921735
1980000000.0 0.3793316456725881 0.10840512808806013
2000000000.0 0.2056928388206482 -0.36150859319535344
2020000000.0 -0.05589874622947213 -0.4251962106979631
2040000000.0 -0.22926308958706063 0.3751219856789283
2060000000.0 0.2138644980283117 0.38699476729855664
2080000000.0 0.42048539410835917 0.12114697108185728
2100000000.0 -0.23528600122992305 -0.3559591893453112
2120000000.0 -0.182754680370613 -0.3687498177674363
2140000000.0 0.16733887445117596 -0.3577062592448839
2160000000.0 0.37692009194461507 -0.0681788679564156
2180000000.0 0.37281914049872883 0.00854375601680451
2200000000.0 0.34889576095035274 -0.10078625934694566
2220000000.0 -0.3000702948684719 -0.18553608084513856
2240000000.0 -0.25633525683403807 -0.23144347650002375
2260000000.0 -0.30084754745415576 -0.16604967475111707
2280000000.0 0.0820293482431619 0.33798098529955445
2300000000.0 0.1656226198796987 0.3137904393311937
2320000000.0 0.21346595858608466 0.31001608033972977
2340000000.0 -0.05020435563872393 -0.4064441848267188
2360000000.0 -0.4208136477787793 -0.15514718010413828
2380000000.0 0.11268147712468672 0.4854930817522115
2400000000.0 -0.48574212977951786 0.27553502762911747
2420000000.0 0.5231320711465771 -0.3150820158747429
2440000000.0 -0.509459627183865 0.4153372710617573
2460000000.0 -0.6873842196901296 -0.13906656603676096
2480000000.0 0.6985757823592282 0.22210895452498125
2500000000.0 -0.4732302465815308 -0.5869571367866584
2520000000.0 0.7239736667949181 -0.2536005187231346
2540000000.0 -0.5991180983233328 -0.4845179695661913
2560000000.0 -0.38920792282657835 0.6612503058337618
2580000000.0 0.054774147521996 -0.751096562662853
2600000000.0 -0.7311843895242358 0.02529339289173944
2620000000.0 0.03138102923044965 0.704779179179126
2640000000.0 0.5124450829153444 -0.4280083853459021
2660000000.0 -0.4690011812823374 -0.4163809970230594
2680000000.0 -0.22089836859860618 0.5374223064100413
2700000000.0 -0.2614560659250305 -0.4606886304079824
2720000000.0 -0.17932007830286012 0.4481607102704461
2740000000.0 0.42668058331581493 -0.07784522116594195
2760000000.0 -0.33263295979504837 0.20465950207858882
2780000000.0 0.3514245737713573 0.07879360475150733
2800000000.0 -0.2946970874920162 -0.16022424864312462
2820000000.0 0.013277058421329575 -0.3126859321233774
2840000000.0 0.04347560108832909 0.30082432435534684
2860000000.0 -0.16795524501452386 -0.2442325995276371
2880000000.0 0.11656310106748939 -0.268738345919801
2900000000.0 -0.28548124675061953 -0.06288489059611786
2920000000.0 -0.18290256406455593 0.23677815541880956
2940000000.0 0.0542210058220394 -0.30611788887195124
2960000000.0 -0.2669946669936761 -0.17118953032708836
2980000000.0 -0.29142770227618503 -0.1274187240304223
3000000000.0 -0.31723684902471366 -0.007090820891284814
3020000000.0 0.2623923419112938 0.18291375819328448
3040000000.0 0.2382479306037772 0.213499708579261
3060000000.0 0.09238256082576664 0.29937552446775995
3080000000.0 0.3023651324767852 -0.0230756875366596
3100000000.0 -0.26680893736409933 0.12554406400446946
3120000000.0 -0.0420715730315452 -0.2838233826984368
3140000000.0 -0.27138958885629166 0.050995320985165925
3160000000.0 0.13420974121722257 -0.22589931853690765
3180000000.0 -0.22838305743749546 0.09708546869740155
3200000000.0 0.23043822637045344 -0.03453175394395766
3220000000.0 0.15420070479746334 -0.137746062361642
3240000000.0 0.03455222860124715 -0.17042125114588036
3260000000.0 0.1233018822955903 0.07288635081601182
3280000000.0 -0.009819650747623166 0.10016981232446627
3300000000.0 0.00394015118611727 -0.06684663543761492
3320000000.0 0.027575277865593415 -0.030460254022615565
3340000000.0 -0.021508695376219595 -0.004346224957658218
3360000000.0 0.005774190334192741 -0.004581912134983966
3380000000.0 -0.0032039991992886757 -0.0007907282987092421
3400000000.0 -0.016902224454276523 -0.00015629888822727212
3420000000.0 -0.01775129037041202 0.02950216872138354
3440000000.0 0.04113437482744526 0.024652624645005384
3460000000.0 0.05647388702189678 0.027892350634804015
3480000000.0 -0.07108736841449965 0.027019074161666733
3500000000.0 0.05420425063600081 0.06896315962354539
3520000000.0 0.020330141323773823 0.10002087963786854
3540000000.0 -0.1073211848368378 -0.04188430545447953
3560000000.0 0.06722706752838876 0.09965592572394866
3580000000.0 0.07686089991601248 -0.1101119819494552
3600000000.0 0.08947280038008129 0.12151619188269287
3620000000.0 0.05240836684107566 -0.1527391806706263
3640000000.0 0.0023390826629049056 -0.17882621487883119
3660000000.0 -0.013175432216926403 -0.18976883905138306
3680000000.0 0.1467900322931982 -0.12697888744099106
3700000000.0 -0.12077047089082836 -0.15237198232429108
3720000000.0 -0.07148473311266439 -0.1763735186648651
3740000000.0 0.17847957792445335 0.03346849232633833
3760000000.0 0.06193471433455175 -0.16539840916042592
3780000000.0 -0.11780934329418068 0.12631279693105552
3800000000.0 0.14115402044039066 -0.0895610261460854
3820000000.0 -0.14514262809727946 -0.06422623576031594
3840000000.0 -0.14142009209299855 -0.04434233323032899
3860000000.0 -0.03660146438274101 -0.1393684493217347
3880000000.0 0.13772782882149653 -0.04220192808667321
3900000000.0 -0.04788813430963934 0.13935178054500919
3920000000.0 -0.023731684186183922 0.15067780459355715
3940000000.0 -0.10982829339077474 -0.12613135868458883
3960000000.0 -0.1749528185882817 -0.020023548780609034
3980000000.0 -0.0937633215037831 0.1468651406452212
4000000000.0 0.1644650718504871 -0.02156394481580147
