!Created with skrf (http://scikit-rf.org).
# Hz S RI R 50.0 
!freq ReS11 ImS11
400000000.0 0.4863777956729611 0.7220153686052052
420000000.0 0.8446347240349746 -0.007640399913965152
440000000.0 0.7969839985036371 -0.061115161030006374
460000000.0 0.6888558107014144 0.28533131439015247
480000000.0 -0.04291207193126689 -0.6867751146007045
500000000.0 0.15264873163511522 0.584750613273624
520000000.0 0.31729582547993523 0.4013374699497148
540000000.0 -0.41721024752875197 -0.11559389600224215
560000000.0 0.13599501247995338 0.36905783410048504
580000000.0 -0.3435245627832052 -0.10252400677330681
600000000.0 0.2880544944296729 -0.2048342150126242
620000000.0 -0.2395723728973501 -0.2611215793728205
640000000.0 0.40005152392338555 -0.0711157579525197
660000000.0 0.08120855498380286 0.4023555749947198
680000000.0 0.06373120027382792 -0.44031605857168676
700000000.0 -0.06780423668999837 0.45953256355932653
720000000.0 -0.4579962790543632 0.08316561419284943
740000000.0 -0.30379485542187695 0.30287480373358316
760000000.0 -0.34010241852022455 -0.22910467638539245
780000000.0 -0.3166877068988594 0.21113781320140643
800000000.0 -0.2031859772244297 0.27141185059363687
820000000.0 0.22902122509004047 0.1614412578444738
840000000.0 -0.18078400915763418 0.09941349418327951
860000000.0 -0.16335115256874988 -0.03342654005964455
880000000.0 -0.05611323831806225 -0.1265559263368772
900000000.0 -0.09475501075728056 -0.002222047981414954
920000000.0 0.02603575824439267 0.0495990566193694
940000000.0 0.007527551446816294 -0.03706971406633795
960000000.0 0.0403598543632495 0.0018524774788215902
980000000.0 -0.04766299156901924 -0.0413866562243558
1000000000.0 0.0283921940013894 0.09626872521061092
1020000000.0 0.08952393322955533 0.08665349399746797
1040000000.0 -0.135440274774133 -0.024761498048975813
1060000000.0 0.10230992402109215 0.12721900883582546
1080000000.0 -0.1700024519183592 0.08267095356030249
1100000000.0 0.04727359868083598 -0.208319395155226
1120000000.0 0.20703077726565217 -0.11220434021489252
1140000000.0 0.015299269339056386 0.25828755154726
1160000000.0 -0.047069520223983245 0.27530365464998463
1180000000.0 -0.2809836478676826 -0.11356656637523699
1200000000.0 0.23747426821707096 0.23990115442311294
1220000000.0 -0.06758161078871029 -0.36466444795488234
1240000000.0 0.25859814072663523 0.2995279619546632
1260000000.0 -0.2260537498667781 -0.3425226440071151
1280000000.0 -0.4249407351699412 0.024420684395088193
1300000000.0 0.27002993440675316 0.33975134552013675
1320000000.0 0.4325107752192117 0.06160430274395734
1340000000.0 0.3418020432493312 0.27886201504264624
1360000000.0 0.43400215280141896 -0.10491521546467156
1380000000.0 -0.33068090051469495 -0.2843682146635698
1400000000.0 -0.414446913916876 -0.07198212938225299
1420000000.0 0.07518946895121219 0.3913920157540264
1440000000.0 0.3552204466413375 0.10496240323320122
1460000000.0 0.3165669120396206 0.13570447394221125
1480000000.0 0.08190242797628729 -0.3087755817269425
1500000000.0 -0.19773134824797192 0.21208942033324843
1520000000.0 -0.16549905575477536 0.19970326782458997
1540000000.0 0.22981211669277266 -0.003157177226024591
1560000000.0 0.18653788142899966 0.061931798105461205
1580000000.0 0.044614955666843106 0.16526291021454406
1600000000.0 0.12470925184890216 0.050785273259691566
1620000000.0 0.04548390090405186 -0.08691862996833093
1640000000.0 -0.06932111124694715 0.025349128602754893
1660000000.0 -0.026955021390281917 0.05331252494244955
1680000000.0 -0.03817178764122767 -0.00306936034274967
1700000000.0 -0.015188708166293793 -0.009778247976335818
1720000000.0 0.006443344254457218 -0.00972364176134814
1740000000.0 -0.0012539660317509417 -0.018852019379004322
1760000000.0 -0.010112578746676393 -0.02335888333904886
1780000000.0 -0.03410648437161643 0.022519044325057656
1800000000.0 0.06046862793093275 -0.059056797790850143
1820000000.0 -0.08505284813018946 -0.08740100210259386
1840000000.0 0.12041594407966888 -0.11399244447051006
1860000000.0 -0.19651868984961435 0.07383615190117372
1880000000.0 0.2337242825199723 -0.0796207660439888
1900000000.0 -0.2803192706896212 -0.043341470208827386
1920000000.0 -0.1340024614046694 -0.290938751150538
1940000000.0 -0.2905104433457542 0.17519694697527596
1960000000.0 -0.28363007768078824 0.2255799184190354
1980000000.0 0.37303547317272967 0.12798281761615554
2000000000.0 0.2367720027659257 -0.3415953285517088
2020000000.0 -0.03480755453600873 -0.42717966063269036
2040000000.0 -0.25236819601458266 0.3592378745413817
2060000000.0 0.2017270856758034 0.39260407790918816
2080000000.0 0.4178363392639176 0.13010605501429423
2100000000.0 -0.20801532197320965 -0.3720384001702365
2120000000.0 -0.1816634044173026 -0.36952480361657675
2140000000.0 0.15537644091017772 -0.36328511002184977
2160000000.0 0.3718716674415165 -0.0928199733401592
2180000000.0 0.3733457600190877 -0.025108290356721862
2200000000.0 0.34400873454545927 -0.11860319888311525
2220000000.0 -0.3021853945462038 -0.18246251256811113
2240000000.0 -0.2615218535423511 -0.22588731369808215
2260000000.0 -0.30714624550142755 -0.15434892886424903
2280000000.0 0.08783627068477891 0.3363562846305819
2300000000.0 0.18360849564448767 0.3042215558582057
2320000000.0 0.21866733200430466 0.3066874630358465
2340000000.0 -0.051595209508671344 -0.40596274077132266
2360000000.0 -0.41992787499980755 -0.15618840853297855
2380000000.0 0.11242767420818012 0.4852596630487352
2400000000.0 -0.4791321974697014 0.2862227101294819
2420000000.0 0.5110345649288228 -0.3334065492395725
2440000000.0 -0.4931057680443641 0.4344409235568344
2460000000.0 -0.6866388058710977 -0.1428176348424204
2480000000.0 0.6808758210386381 0.270946981875545
2500000000.0 -0.44284577593365476 -0.6105841981082232
2520000000.0 0.7018745215492084 -0.3108206957908434
2540000000.0 -0.5943873349467335 -0.49120984769968434
2560000000.0 -0.38053595775175175 0.6670393379598447
2580000000.0 -0.022025632361349676 -0.7536808782147779
2600000000.0 -0.7319387455813515 -0.0071611612214772585
2620000000.0 0.03663337025068674 0.7043912359140837
2640000000.0 0.5190335459076756 -0.4202532140707454
2660000000.0 -0.47757279896902993 -0.40773944733795336
2680000000.0 -0.2554158501290335 0.5225291822752978
2700000000.0 -0.2662532872452297 -0.4573985709819255
2720000000.0 -0.17270808127125634 0.45046069563708335
2740000000.0 0.4277478641301346 -0.06857230297776934
2760000000.0 -0.34045464689290295 0.18953023613370537
2780000000.0 0.35454131115811544 0.05834241283111283
2800000000.0 -0.2926429049666746 -0.16404242246159897
2820000000.0 0.0059798175371959346 -0.31257687948807866
2840000000.0 0.06381460787894119 0.29703007689285693
2860000000.0 -0.16203956672896197 -0.24867429746657774
2880000000.0 0.10939287609598641 -0.2718544984815194
2900000000.0 -0.28899476209188746 -0.047056798359862956
2920000000.0 -0.193073932772174 0.22942011718147243
2940000000.0 0.08136198698334546 -0.3003274259521629
2960000000.0 -0.25069315042225804 -0.19438449825396417
2980000000.0 -0.2966623873407832 -0.11370216562307049
3000000000.0 -0.31707265835163556 -0.0014775355295321266
3020000000.0 0.25077105163019625 0.19799289196505432
3040000000.0 0.23873464560088448 0.21137912471125703
3060000000.0 0.10115221613035316 0.2961552124912925
3080000000.0 0.30339158763025925 0.009800740874120771
3100000000.0 -0.23429032265352703 0.1800964292660673
3120000000.0 -0.08139032698129162 -0.2761167655798314
3140000000.0 -0.2767064455741351 0.006736907582533811
3160000000.0 0.18031898543054775 -0.19245922297875442
3180000000.0 -0.23784981246624373 0.07236164847408608
3200000000.0 0.2273059225645132 -0.051870950025983985
3220000000.0 0.12452720086547903 -0.16559154057372263
3240000000.0 0.0036276360517039853 -0.17428735412978108
3260000000.0 0.1416493970274676 0.025034819214984478
3280000000.0 -0.01826707943845575 0.09945312855569959
3300000000.0 0.027816791596694503 -0.061453864962217525
3320000000.0 0.04070631985037367 0.0047279770604922505
3340000000.0 0.02022600948331767 -0.007886760564690374
3360000000.0 0.001363865147347902 -0.006779760947884412
3380000000.0 -0.0013242933133627507 -0.003239615264810381
3400000000.0 0.01671165458540577 -0.003672627634904728
3420000000.0 0.0025377504921392222 0.03389242643105137
3440000000.0 0.041156289567643264 -0.024748452921280584
3460000000.0 0.06282028463495687 0.0033653983126845253
3480000000.0 -0.05957634202140837 0.04738709716390088
3500000000.0 -0.0002622352491306806 0.08804669264574543
3520000000.0 -0.02905360062935798 0.09848551878046824
3540000000.0 -0.07131715883300205 -0.09070572472822178
3560000000.0 0.040375985908025665 0.11407932235205374
3580000000.0 0.0789589537578373 -0.10838532131371724
3600000000.0 0.08871884603192001 0.12308009000799881
3620000000.0 0.05335786846337214 -0.15270310829704767
3640000000.0 -0.0043744745419864945 -0.17969731845530162
3660000000.0 -0.00010717776935024626 -0.1908225200404205
3680000000.0 0.17163424312358913 -0.0920375163681268
3700000000.0 -0.06623771672104975 -0.18274785301652027
3720000000.0 -0.01679512128980426 -0.1899672603877617
3740000000.0 0.16789538347999786 0.06821942209991522
3760000000.0 0.079530311934808 -0.15732941286726554
3780000000.0 -0.12737742809900782 0.11539737881722525
3800000000.0 0.15899875324457396 -0.05026592336029042
3820000000.0 -0.13689355597272654 -0.0790730296369995
3840000000.0 -0.1347180279503725 -0.060916105103218064
3860000000.0 -0.021487759386097025 -0.14173103818337696
3880000000.0 0.13650165939172929 -0.04236072746566196
3900000000.0 -0.05724354835794099 0.134829654596697
3920000000.0 -0.012430441500587494 0.15109580524214966
3940000000.0 -0.10085051934435306 -0.13175988769979832
3960000000.0 -0.17123352783782092 0.03309426604778973
3980000000.0 -0.05652845313206116 0.16320349320046096
4000000000.0 0.11775083173899999 -0.11379156543393937
