!Created with skrf (http://scikit-rf.org).
# Hz S RI R 50.0 
!freq ReS11 ImS11
400000000.0 0.48386349781920596 0.7233181384808157
420000000.0 0.8446201035837198 -0.0087581334235544
440000000.0 0.7959805235403103 -0.0731444444329287
460000000.0 0.6900221285599771 0.28277055261319606
480000000.0 -0.04619618381922745 -0.6866243947791425
500000000.0 0.13437640991852498 0.5893226646167606
520000000.0 0.31590614006484824 0.40237914989184104
540000000.0 -0.41726650945009663 -0.11537294355192318
560000000.0 0.13591929428351265 0.36915817309690757
580000000.0 -0.34686753667968634 -0.09033394370605972
600000000.0 0.2901059936340252 -0.20203500556873993
620000000.0 -0.24465908190871463 -0.25634505267835617
640000000.0 0.400704519765852 -0.06626302333157248
660000000.0 0.05412212372370657 0.4070648916114058
680000000.0 0.07260845887524027 -0.43863122863381776
700000000.0 -0.05795896904159576 0.46078986190142274
720000000.0 -0.46326079283608584 0.04426042777886609
740000000.0 -0.3095119849676057 0.29707830308681504
760000000.0 -0.3413201893439119 -0.2272808704003193
780000000.0 -0.3180959652374988 0.2090054016448431
800000000.0 -0.20552322767392617 0.2697034940558224
820000000.0 0.22064137025591973 0.17293604693590792
840000000.0 -0.185360445086696 0.09089117357210218
860000000.0 -0.16099768506248638 -0.043209920769330494
880000000.0 -0.062201023202816993 -0.12380062140772825
900000000.0 -0.09486511549193537 0.004290957350945638
920000000.0 0.03162297966964756 0.04655407497560132
940000000.0 0.010658761383079186 -0.03642775098916168
960000000.0 0.038500939456261624 0.01201409096265561
980000000.0 -0.044351249725220206 -0.04463750812217934
1000000000.0 0.03194747192097835 0.09517846978497758
1020000000.0 0.09056204932828152 0.0854727031376296
1040000000.0 -0.13444385523922833 -0.02939000267467395
1060000000.0 0.08599046694807792 0.13890292057473524
1080000000.0 -0.1737764002080477 0.07434552736116619
1100000000.0 0.04836606134083879 -0.2080497599121274
1120000000.0 0.2072691339069334 -0.1116274018055912
1140000000.0 0.029473892706950177 0.2572490189559403
1160000000.0 -0.05977114855722011 0.27272449819612826
1180000000.0 -0.2810886697990034 -0.11320609182325077
1200000000.0 0.2432523297928029 0.23392660694147763
1220000000.0 -0.08224621599392913 -0.3617027682635807
1240000000.0 0.2635842859749955 0.2951544527459104
1260000000.0 -0.21582359014565503 -0.34888146406968235
1280000000.0 -0.4247200411145757 0.028041984105839794
1300000000.0 0.2813314124688482 0.33045524410795596
1320000000.0 0.43386195446253567 0.051677240288729685
1340000000.0 0.34571615956497426 0.27392277293261136
1360000000.0 0.43343022510643203 -0.10763141887769821
1380000000.0 -0.32526617975802086 -0.29059217041202434
1400000000.0 -0.4145391413891139 -0.07162774534000824
1420000000.0 0.07845354473907432 0.39080049877193895
1440000000.0 0.35456224266144565 0.1069371489267476
1460000000.0 0.3136083578410927 0.14231282275434357
1480000000.0 0.09834735183342702 -0.3038049181300413
1500000000.0 -0.19876794839041378 0.21084746515224
1520000000.0 -0.16057939082832137 0.20333003464007085
1540000000.0 0.22962658616237033 -0.0036689975537902418
1560000000.0 0.18694083097055816 0.060304557862519245
1580000000.0 0.0527144418207875 0.1628395092604044
1600000000.0 0.12291454236419269 0.05507104339965756
1620000000.0 0.04782632230876798 -0.08570663937994119
1640000000.0 -0.06546270442649338 0.033819668925602134
1660000000.0 -0.028480588268904535 0.052413801498545715
1680000000.0 -0.036776200636809676 0.011046784905948431
1700000000.0 0.005459488119253672 -0.017260951161518025
1720000000.0 -0.001498089956547073 -0.011615556338716526
1740000000.0 -0.008358921189980027 -0.017094029105188282
1760000000.0 -0.018786204647375387 -0.01725626540001715
1780000000.0 -0.027320579705585452 0.030621446865790262
1800000000.0 0.05340011487394011 -0.06572370259592883
1820000000.0 -0.08679661874450215 -0.08584445875377424
1840000000.0 0.11767927427149631 -0.11706202429924487
1860000000.0 -0.20067108954603205 0.061930200437584244
1880000000.0 0.23479412135615255 -0.07722498435062397
1900000000.0 -0.2810062610095852 -0.04014121497899841
1920000000.0 -0.13042996665854958 -0.29264464557301945
1940000000.0 -0.2917997714390834 0.1731969432527012
1960000000.0 -0.28576585989369085 0.22284240300394365
1980000000.0 0.3730692212294732 0.12732042002359395
2000000000.0 0.2288861577620301 -0.3467266371173016
2020000000.0 -0.04309648942099048 -0.4260524333901527
2040000000.0 -0.20768490810569984 0.38632232473462697
2060000000.0 0.19841665393260535 0.3941889450952347
2080000000.0 0.42410644944110487 0.10692142627397075
2100000000.0 -0.24192650049543027 -0.35093447747933687
2120000000.0 -0.1901163536610681 -0.3652030347221647
2140000000.0 0.14239637816241038 -0.3686348351472039
2160000000.0 0.3678292914508135 -0.10806921481469715
2180000000.0 0.3722789232087892 -0.03799117449926924
2200000000.0 0.34639322024160885 -0.11194358995040092
2220000000.0 -0.3119301271767099 -0.16464746170285222
2240000000.0 -0.24922193851258514 -0.23996819122259347
2260000000.0 -0.30414471304670176 -0.16013746145561905
2280000000.0 0.08063854920468674 0.33816902417177075
2300000000.0 0.1792162744182126 0.3067037505856554
2320000000.0 0.21208257068078482 0.3111549398066941
2340000000.0 -0.06819804910696914 -0.40371072267854546
2360000000.0 -0.41736557445988526 -0.16246606303025052
2380000000.0 0.1279675830531446 0.4814582598862825
2400000000.0 -0.4709261247302292 0.2994876995041224
2420000000.0 0.507856620911369 -0.3382372771346781
2440000000.0 -0.4853997237284687 0.44303577991363724
2460000000.0 -0.6840042981905147 -0.15505174497248675
2480000000.0 0.692066535128041 0.24030579190867699
2500000000.0 -0.4044930937458151 -0.6368876409416795
2520000000.0 0.7174620732445212 -0.27273834346648507
2540000000.0 -0.6088706554454543 -0.4730905841167182
2560000000.0 -0.3738075480298763 0.6706354797633194
2580000000.0 -0.03817877816425614 -0.752580086011244
2600000000.0 -0.7318121861430449 0.023051274188458964
2620000000.0 0.007165028509557675 0.7050079578001285
2640000000.0 0.4995500976527218 -0.44321876519780035
2660000000.0 -0.49802162437017683 -0.38243903811682606
2680000000.0 -0.2403562219755043 0.5297236975539613
2700000000.0 -0.2884306449096502 -0.44385321753155665
2720000000.0 -0.17373087481095673 0.4499965768834568
2740000000.0 0.4250074907907988 -0.08457989638636305
2760000000.0 -0.3521249418745769 0.16672811881637187
2780000000.0 0.3546903241733432 0.05794789977612108
2800000000.0 -0.2921632464203434 -0.16464214757611556
2820000000.0 0.014312039437772482 -0.3124511966326542
2840000000.0 0.060066174062334096 0.2979477937795895
2860000000.0 -0.16921061420073716 -0.24360180858316957
2880000000.0 0.10935307729629372 -0.27180475854783
2900000000.0 -0.28943780736601915 -0.04403850580038019
2920000000.0 -0.20494010528161796 0.2190755130482676
2940000000.0 0.10545072766328449 -0.29260515458072317
2960000000.0 -0.2359610822293619 -0.21195605596428066
2980000000.0 -0.29960590178981583 -0.10470457316802365
3000000000.0 -0.31737346160280994 -0.004405729451538587
3020000000.0 0.23744752114583076 0.21366975742785146
3040000000.0 0.2623605804542637 0.1811009929341591
3060000000.0 0.11360195418947289 0.2916556612394924
3080000000.0 0.30272794242009565 -0.020339418784019576
3100000000.0 -0.2492527192595154 0.15827103315797247
3120000000.0 -0.07589401422090827 -0.2776173548563318
3140000000.0 -0.276285630423675 0.019283177147168682
3160000000.0 0.1669826266260976 -0.2044845598288719
3180000000.0 -0.2376143392910101 0.07467536930898698
3200000000.0 0.2270525654796728 -0.054306347082093726
3220000000.0 0.12367863213506455 -0.16662635233812875
3240000000.0 0.011234764333722768 -0.17416180404779183
3260000000.0 0.1376794478537598 0.042196493567694976
3280000000.0 -0.041413586481611364 0.09219351166124994
3300000000.0 0.03878352611447747 -0.0550084439157592
3320000000.0 0.03965037048658109 0.010092701769280845
3340000000.0 0.02075272933682229 0.006336196896058696
3360000000.0 -0.001480404338845467 0.006964187275444806
3380000000.0 0.0001278162742396367 0.0034505900598616004
3400000000.0 0.01561950105416178 -0.00722598422304305
3420000000.0 0.0075919666526895364 0.03317799236850674
3440000000.0 0.023865457590328123 -0.04159069853557365
3460000000.0 0.06282600279144009 -0.005325134993980106
3480000000.0 -0.050981402099921455 0.056738909626380535
3500000000.0 0.027285017453888026 0.08383989918833169
3520000000.0 0.010579913793488004 0.10231569622604894
3540000000.0 -0.09659066579312561 -0.06405854015731757
3560000000.0 0.048004777479256376 0.11130620833327685
3580000000.0 0.07695458417626647 -0.10952906037146296
3600000000.0 0.0810373044007064 0.1279645303280339
3620000000.0 0.03674955122643547 -0.15800808779963996
3640000000.0 -0.0016894227219842594 -0.17975835119455522
3660000000.0 -0.0017455550009479726 -0.19102955910996633
3680000000.0 0.1747048911841806 -0.08567961863138694
3700000000.0 -0.06489802661075032 -0.18322050156720018
3720000000.0 -0.01729091788831409 -0.1894905285908407
3740000000.0 0.16650351534790914 0.07176927755572214
3760000000.0 0.07906968565599609 -0.15754190319701808
3780000000.0 -0.12726271391262378 0.11562214677130375
3800000000.0 0.15511998622119852 -0.06111704873241633
3820000000.0 -0.14226321326259583 -0.06807436489189708
3840000000.0 -0.13911694161381608 -0.049817785528682705
3860000000.0 -0.03894438489837696 -0.13795458292035256
3880000000.0 0.13296954987156015 -0.05282725027547584
3900000000.0 -0.06130821399342112 0.13293936658975003
3920000000.0 -0.021189814858203624 0.15002408471463013
3940000000.0 -0.09189799955549678 -0.13872481491043612
3960000000.0 -0.17230631161344429 0.026080075512011254
3980000000.0 -0.06858252659552036 0.15862869424968473
4000000000.0 0.13751070136422527 -0.08907595908952387
