!Created with skrf (http://scikit-rf.org).
# Hz S RI R 50.0 
!freq ReS11 ImS11
400000000.0 0.49025421946862385 0.719112386937124
420000000.0 0.8445560775416658 -0.015893000243011216
440000000.0 0.7971226161726288 -0.0603438497674874
460000000.0 0.6940050847011673 0.2724511834509756
480000000.0 -0.04158850157062645 -0.6867340363354624
500000000.0 0.14572695625069568 0.5864595418028046
520000000.0 0.3228455577039128 0.3967803346557713
540000000.0 -0.41471420767298645 -0.12445878359027965
560000000.0 0.1353465461542592 0.36921910792933244
580000000.0 -0.3435765679709907 -0.10204343496790534
600000000.0 0.2854371814199073 -0.2085505505855827
620000000.0 -0.24069805424916957 -0.2601562558205898
640000000.0 0.4021138683539791 -0.058884297798593964
660000000.0 0.060096507966245986 0.40625832474708873
680000000.0 0.10318397670280342 -0.43277099318751266
700000000.0 -0.05992721529441052 0.4605641704240419
720000000.0 -0.4625011447878015 0.052271731082349566
740000000.0 -0.30133252170683017 0.3056274502393306
760000000.0 -0.34983423170553063 -0.21401997786104252
780000000.0 -0.3195280920617237 0.2067800951840531
800000000.0 -0.19744855181951915 0.27553841653091077
820000000.0 0.22367372865304666 0.16855643011388954
840000000.0 -0.17027619055574084 0.11671463779384633
860000000.0 -0.16522772943742048 -0.024118467396984478
880000000.0 -0.07590369325662463 -0.11604530581592683
900000000.0 -0.0949236159239865 0.006235328410456076
920000000.0 0.019468374451676814 0.05300433257648902
940000000.0 0.016336160299496076 -0.034216724541046836
960000000.0 0.040139396415928216 0.004132006054949239
980000000.0 -0.055098808072034454 -0.030987124279610156
1000000000.0 0.03814804641547688 0.09326973693933165
1020000000.0 0.08740351148024623 0.08907886125372226
1040000000.0 -0.135118020015259 -0.02745704891351324
1060000000.0 0.10204690600601422 0.1275890466477339
1080000000.0 -0.1696811811777329 0.08334153327400542
1100000000.0 0.0403813853520712 -0.20998007916644448
1120000000.0 0.21240370663238126 -0.10159204445306566
1140000000.0 0.0225769785064913 0.2579290642406224
1160000000.0 -0.07758578678950281 0.26808461081411644
1180000000.0 -0.2796192397207771 -0.11637507716948248
1200000000.0 0.24198670854307122 0.23515023714803127
1220000000.0 -0.07338537491204157 -0.36334488231553724
1240000000.0 0.2657443934183902 0.2930678957434486
1260000000.0 -0.21419251083812368 -0.34975148205270634
1280000000.0 -0.42473204381418833 0.02584378786358701
1300000000.0 0.2693492590040816 0.34015785526034586
1320000000.0 0.43443440388430155 0.04706187683764263
1340000000.0 0.34781938433257614 0.2711326342397195
1360000000.0 0.43149892024250425 -0.11505159279710438
1380000000.0 -0.33108029367589176 -0.2837497508368441
1400000000.0 -0.4126425234027102 -0.08280212778587408
1420000000.0 0.060893681849529833 0.3941364513436322
1440000000.0 0.352252995450689 0.11474100148571387
1460000000.0 0.31268551438530706 0.14459221782147055
1480000000.0 0.08563694350506044 -0.30748759511326035
1500000000.0 -0.19430951960609408 0.2150275527335894
1520000000.0 -0.17769526352229606 0.18918705512992925
1540000000.0 0.22985415711565868 0.0004454069700175465
1560000000.0 0.1858252881516458 0.06339753926768651
1580000000.0 -0.0023056760039188375 0.17118033101465582
1600000000.0 0.12713480304814498 0.0436063871930726
1620000000.0 0.0457711255599529 -0.08670039900885276
1640000000.0 -0.07072004848725001 0.02074461163578825
1660000000.0 -0.017099624252680214 0.0572444405944039
1680000000.0 -0.03789082450455222 0.0048351628310887886
1700000000.0 -0.0013323023621231573 -0.018006983785370273
1720000000.0 0.002854764236790057 -0.011053431084356937
1740000000.0 -0.0023120857451675867 -0.018612305806427955
1760000000.0 -0.01674649309932995 -0.019043287903680966
1780000000.0 -0.034346034637412926 0.022434844674949647
1800000000.0 0.05809509353506787 -0.061125835435614256
1820000000.0 -0.08790723264949366 -0.08482623096755255
1840000000.0 0.11791529275569437 -0.11660336413385097
1860000000.0 -0.200171018928108 0.06313008403325178
1880000000.0 0.2316794856415799 -0.08603175692846105
1900000000.0 -0.2811331802569112 -0.03901549032497263
1920000000.0 -0.13246590947813108 -0.29169331488357486
1940000000.0 -0.28710579265402153 0.18090782997531707
1960000000.0 -0.2813939574117962 0.2282844456879793
1980000000.0 0.374601018287291 0.12293422600351267
2000000000.0 0.23246922919687962 -0.34446035366439365
2020000000.0 -0.022616328158639693 -0.42785233224712554
2040000000.0 -0.2189937459268905 0.3804951336236563
2060000000.0 0.20529832084545663 0.39088622809933105
2080000000.0 0.4266672898014575 0.09756584004936716
2100000000.0 -0.22604162413123047 -0.3615623809065631
2120000000.0 -0.20412219141991714 -0.35736305718141703
2140000000.0 0.15881701926155264 -0.3618355210608161
2160000000.0 0.3701170193267704 -0.09938230630798409
2180000000.0 0.37347939095845845 -0.02251483714379284
2200000000.0 0.3479034685073285 -0.10646511500155666
2220000000.0 -0.29254656390591355 -0.19778309728561408
2240000000.0 -0.2484207090042209 -0.24024920176672282
2260000000.0 -0.29949917278917354 -0.16852451351527753
2280000000.0 0.07916857871451723 0.3383943859829464
2300000000.0 0.18436019480342192 0.30355634720507463
2320000000.0 0.21569397086048994 0.3084138414713771
2340000000.0 -0.056746124258254364 -0.4049755707952985
2360000000.0 -0.4208776894251184 -0.1530653566690172
2380000000.0 0.12953404793164391 0.48088352675758783
2400000000.0 -0.47237255366107544 0.2972848597496908
2420000000.0 0.5024319916191977 -0.34615608279597054
2440000000.0 -0.4816911553696181 0.44705853544601615
2460000000.0 -0.6867863940193749 -0.14246580066421194
2480000000.0 0.695043533382663 0.23149479293475983
2500000000.0 -0.3817723999705026 -0.6511204125529859
2520000000.0 0.7179672829667658 -0.2714870790705137
2540000000.0 -0.6098460120672007 -0.4721171979818171
2560000000.0 -0.40642578338270924 0.6516669969777589
2580000000.0 -0.046210404311274475 -0.7522513820605955
2600000000.0 -0.7319112315720443 -0.014776842430456023
2620000000.0 0.010249842280839432 0.7051888303319084
2640000000.0 0.5435996485613311 -0.38747216377889965
2660000000.0 -0.48213320189336023 -0.4020646179515679
2680000000.0 -0.24293093201320595 0.5282968830472865
2700000000.0 -0.2522948517706548 -0.4649551119626093
2720000000.0 -0.18108261899122916 0.4468984305116951
2740000000.0 0.42771635388959817 -0.06785623945495903
2760000000.0 -0.3422930825473986 0.185865384804107
2780000000.0 0.3558708511265304 0.04855442472045614
2800000000.0 -0.302938589991086 -0.14354344654581042
2820000000.0 -0.005575615162595785 -0.3127576936498487
2840000000.0 0.07252391955712308 0.2954247086316123
2860000000.0 -0.17054430421940525 -0.24304695388765452
2880000000.0 0.11966104552555003 -0.2678836209626669
2900000000.0 -0.2879159801695734 -0.0542275619781157
2920000000.0 -0.20266060755077972 0.22139192385473846
2940000000.0 0.09801600035565494 -0.29535147047748794
2960000000.0 -0.24354498099226773 -0.20385959908159196
2980000000.0 -0.2908859434866585 -0.12763019557658914
3000000000.0 -0.3167998635908666 -0.01128930114851669
3020000000.0 0.24718072109010844 0.20230026014615807
3040000000.0 0.2396624002979564 0.2099963920311064
3060000000.0 0.09013426997571371 0.2992969411162449
3080000000.0 0.30329835285682427 -0.002300599637621379
3100000000.0 -0.24370566125717322 0.1666238704786593
3120000000.0 -0.058862343381574325 -0.2813708437456844
3140000000.0 -0.2761755168264306 0.014393863289499247
3160000000.0 0.17841444294063286 -0.19377344326641036
3180000000.0 -0.22912263406786804 0.09683525298965934
3200000000.0 0.22750882285506094 -0.050486518926032994
3220000000.0 0.11844817373474907 -0.16997338443277588
3240000000.0 -0.014664026197090271 -0.17372582333496522
3260000000.0 0.14219342355210338 0.022436286242593206
3280000000.0 -0.027381763264377704 0.0974622817246066
3300000000.0 0.020756718421100592 -0.0643622901886694
3320000000.0 0.04098691485147646 0.0027858668502091207
3340000000.0 0.021687673439218427 -0.0033172566332958435
3360000000.0 -0.0009220179587827839 -0.007381588774208501
3380000000.0 -0.002710934583874554 -0.001957537197960269
3400000000.0 0.014606461568580077 0.008627698442100793
3420000000.0 -0.004915680526281349 0.03345086796831202
3440000000.0 0.01722413841265538 -0.04465380269072183
3460000000.0 0.061988050956034386 0.010322845219944329
3480000000.0 -0.061280513054487576 0.045068312552340076
3500000000.0 0.025095993900521626 0.08451909663622896
3520000000.0 -0.009835154271503738 0.1020154588197579
3540000000.0 -0.09096926509725897 -0.07159688160147952
3560000000.0 0.03231692382787534 0.11655197956165655
3580000000.0 0.08176978003909693 -0.10607086556919207
3600000000.0 0.07673384047909158 0.13055275534490857
3620000000.0 0.04632457090644083 -0.15522810189206357
3640000000.0 0.0021545177830333074 -0.17995184450281865
3660000000.0 0.002841231350386974 -0.1910619585885514
3680000000.0 0.17393589850230246 -0.08734440430364859
3700000000.0 -0.06475483131899286 -0.18301502963813285
3720000000.0 -0.01696883171924887 -0.19005767410539384
3740000000.0 0.164811065436816 0.07594873886082879
3760000000.0 0.0673068941658562 -0.16277874085172844
3780000000.0 -0.1287782049077516 0.11362323450625547
3800000000.0 0.15854766988042224 -0.051749098698210795
3820000000.0 -0.1341914254895733 -0.08307805512674919
3840000000.0 -0.12911966021089455 -0.07196174784507932
3860000000.0 -0.029460765148354124 -0.14037734344675176
3880000000.0 0.13772670302558065 -0.037695262940961254
3900000000.0 -0.06841015815280219 0.12939410624455291
3920000000.0 -0.02718923195441467 0.14914414711530333
3940000000.0 -0.10248609877450078 -0.13023529649337903
3960000000.0 -0.1717324202286408 0.028989000399562544
3980000000.0 -0.054903514227155156 0.16363804311407623
4000000000.0 0.10275187966562924 -0.12729365313071525
