!Created with skrf (http://scikit-rf.org).
# Hz S RI R 50.0 
!freq ReS11 ImS11
400000000.0 0.4975991309244664 0.7131926086283464
420000000.0 0.8418116873907332 -0.05735149444531711
440000000.0 0.7918817249771207 -0.10308317417895581
460000000.0 0.6985621901958808 0.2598408041240021
480000000.0 -0.0426196635191001 -0.686284243481576
500000000.0 0.18406653451386915 0.5749619484242966
520000000.0 0.3338110271426792 0.388741090510987
540000000.0 -0.4209393422690658 -0.10390973581918318
560000000.0 0.18818102064715475 0.3455423820558735
580000000.0 -0.3547753050657442 -0.04624874137263063
600000000.0 0.2957947862310346 -0.19092582929140578
620000000.0 -0.20919017949319435 -0.2849744984370409
640000000.0 0.40535819380713 0.003969272383409089
660000000.0 0.02642794490334681 0.40953695542420226
680000000.0 0.08064211682230031 -0.4388877791248314
700000000.0 -0.001138136082660298 0.46535027964558523
720000000.0 -0.43502255556916397 0.1671389079176035
740000000.0 -0.24614162700814635 0.35040515007499057
760000000.0 -0.3379206253758632 -0.23104522893659205
780000000.0 -0.33407064648514495 0.18144910192442817
800000000.0 -0.24536011857139434 0.23417419523231703
820000000.0 0.2179223561179797 0.17658984963663318
840000000.0 -0.14079493688467937 0.15300345028452533
860000000.0 -0.16554501141361772 -0.023230304244806793
880000000.0 -0.0893775282969075 -0.10447102201227887
900000000.0 -0.09262258190434024 0.015539470484334851
920000000.0 0.028224156555131042 0.0470224413905046
940000000.0 -0.03208325875186351 -0.01759550465401567
960000000.0 0.006531802116057644 -0.03955097211481553
980000000.0 -0.05856821976550185 -0.023638149576379684
1000000000.0 0.010101658121486345 0.10099016890177712
1020000000.0 0.03654040106926076 0.11906247059381223
1040000000.0 -0.12473555605635901 -0.05770585531151725
1060000000.0 0.05793081885537923 0.15258150602829845
1080000000.0 -0.16890955065148514 0.0831086418322852
1100000000.0 -0.002157176185546847 -0.2136955052048795
1120000000.0 0.19101668179112508 -0.13836158840367924
1140000000.0 0.0735755672000095 0.24830267275324006
1160000000.0 -0.024858418761512957 0.27823848249808053
1180000000.0 -0.2665569250952443 -0.1444252474485475
1200000000.0 0.23966294351182846 0.23718483498101384
1220000000.0 -0.10932741484871687 -0.35526142441325215
1240000000.0 0.2776177159616152 0.28343340312742776
1260000000.0 -0.2513503966939053 -0.3250231879874367
1280000000.0 -0.4243569139255684 0.036016039753153005
1300000000.0 0.2722416154012266 0.33875143490174636
1320000000.0 0.4259996094748748 0.09726966098975208
1340000000.0 0.3317696994740312 0.29065263875349334
1360000000.0 0.4250385606458172 -0.13785371595458198
1380000000.0 -0.3323204668851052 -0.2829990813277306
1400000000.0 -0.41127289668204914 -0.0874920970219356
1420000000.0 0.08243262295884932 0.3896141415490664
1440000000.0 0.35042605870647037 0.11916468492214813
1460000000.0 0.3076115764168431 0.15343076885692092
1480000000.0 0.06962295161373865 -0.31096501512864094
1500000000.0 -0.15598657490084886 0.24426667585785702
1520000000.0 -0.11173887495686473 0.23375915242248474
1540000000.0 0.22226650894023675 -0.05789668339708231
1560000000.0 0.19587460780703972 0.012770039741250993
1580000000.0 0.07766250992156136 0.1524963934465626
1600000000.0 0.1283513601454111 0.04019050778223657
1620000000.0 0.04168448368480532 -0.0885421189021493
1640000000.0 -0.07002242433620913 0.024890741022351844
1660000000.0 -0.05369169956140583 0.028331646556351203
1680000000.0 -0.02712322768048493 -0.028191887179823134
1700000000.0 -0.017105883433399978 0.008596337918294264
1720000000.0 -0.0103403091797313 0.005120471563057194
1740000000.0 0.01544634678117262 0.009414593700901676
1760000000.0 0.023183036186221386 -0.011675881021680016
1780000000.0 -0.04165936479412859 0.00415601951870879
1800000000.0 0.048557228955143784 -0.06999878005254656
1820000000.0 -0.10068273086991159 -0.07019927044978887
1840000000.0 0.0973494505571954 -0.13486232989043215
1860000000.0 -0.1983270267283014 0.06876351910680514
1880000000.0 0.23842571142060806 -0.06478757790424583
1900000000.0 -0.27775376937078056 -0.057169058198969905
1920000000.0 -0.1226365930884748 -0.29564940623618574
1940000000.0 -0.2942579711949258 0.1682532364811706
1960000000.0 -0.29894300813356467 0.20483842511286376
1980000000.0 0.37636502096970004 0.11766226966245248
2000000000.0 0.21484252455435643 -0.3558841090700385
2020000000.0 -0.03477916585372629 -0.42695780446752357
2040000000.0 -0.19788570273931302 0.39137218734745405
2060000000.0 0.19497067302948212 0.3958178189059764
2080000000.0 0.42605341364307425 0.09835791582261183
2100000000.0 -0.23125184814282265 -0.35830592856126964
2120000000.0 -0.1734779163664762 -0.3733500074363577
2140000000.0 0.16434900580403866 -0.35931543177181663
2160000000.0 0.3712600747666751 -0.09266102573931034
2180000000.0 0.37341698500534193 0.00419581011813872
2200000000.0 0.3450541450853369 -0.11394096822705005
2220000000.0 -0.3107380060998742 -0.16808975178233668
2240000000.0 -0.27336961111792135 -0.2123732362034109
2260000000.0 -0.33166405557193107 -0.09422914514785899
2280000000.0 0.14670715402428536 0.31540914908992973
2300000000.0 0.21790730254265533 0.28006567311885655
2320000000.0 0.22933024103862762 0.298970606306689
2340000000.0 -0.012763424532018957 -0.4091972140641299
2360000000.0 -0.41375477001360517 -0.1724769859308023
2380000000.0 0.1274372353871469 0.48198621714960965
2400000000.0 -0.48689774166735755 0.27247835149123045
2420000000.0 0.5107547484254551 -0.33363207061445926
2440000000.0 -0.49301838797092795 0.43380633158901155
2460000000.0 -0.6901357062541976 -0.11984130108164799
2480000000.0 0.7058699842848856 0.19455557132674148
2500000000.0 -0.49356521420946703 -0.5694257947768566
2520000000.0 0.6799392532335569 -0.3548842822763101
2540000000.0 -0.6204084496379533 -0.4583204286464256
2560000000.0 -0.32624768757249456 0.6950490686155417
2580000000.0 -0.07333267214115105 -0.7500315443047421
2600000000.0 -0.726772447851828 0.08804134369396564
2620000000.0 0.13200061112325803 0.693132584622126
2640000000.0 0.45741929616029225 -0.4870531363098651
2660000000.0 -0.5036234664957043 -0.37474993865786727
2680000000.0 -0.16823963459737237 0.5566706633785612
2700000000.0 -0.28486909404260063 -0.4468374990706949
2720000000.0 -0.16367258114721567 0.45382478612736077
2740000000.0 0.43135526515948297 -0.04276081661681578
2760000000.0 -0.34746902610601826 0.17799389266411067
2780000000.0 0.35455457738382706 0.06185259416074787
2800000000.0 -0.3046622649550318 -0.1405917542243089
2820000000.0 0.005604123675485946 -0.31294656396461185
2840000000.0 0.04975517939855799 0.29996280168403294
2860000000.0 -0.17009917119718543 -0.24264420226204778
2880000000.0 0.10244825673382389 -0.27361355544446303
2900000000.0 -0.2839409872656798 -0.06955307152290155
2920000000.0 -0.2096798300347267 0.21398537813879642
2940000000.0 0.11498820016089534 -0.28893053213755193
2960000000.0 -0.26724486236401196 -0.1711078682810993
2980000000.0 -0.31299013972668877 -0.05882440719727804
3000000000.0 -0.3146111095099762 0.047505921197329
3020000000.0 0.2843484501487579 0.14695156577802998
3040000000.0 0.2791855097030997 0.15534393990343065
3060000000.0 0.12741267502704468 0.2858603191567682
3080000000.0 0.3025286718595597 0.003213400006000274
3100000000.0 -0.26496613936938807 0.1291088692878657
3120000000.0 -0.08074676934680797 -0.2758419525640351
3140000000.0 -0.2695962471117156 0.06377732901394459
3160000000.0 0.1468467453108357 -0.21961717417278673
3180000000.0 -0.2298721962314347 0.09601789125333512
3200000000.0 0.22198336561927445 -0.0718260108853637
3220000000.0 0.09064415533657573 -0.1852683396463105
3240000000.0 -0.009142672631687335 -0.17312940289082035
3260000000.0 0.1400193393988833 0.0287921409197064
3280000000.0 -0.026257057022487797 0.09731568928876397
3300000000.0 0.06172743297844849 -0.026402488982870124
3320000000.0 0.036924604585796765 0.018751848760201483
3340000000.0 -0.0063482050858145195 -0.02130151189377451
3360000000.0 0.0006359239459792842 -0.006869927154452763
3380000000.0 -0.0036436679564033126 -0.0016185544252069028
3400000000.0 0.009677866844008847 -0.014477796037134148
3420000000.0 0.033165236531091366 0.008205760239090426
3440000000.0 0.0158741684377602 -0.04491647105537719
3460000000.0 0.05143937066329159 -0.03427314181235559
3480000000.0 -0.05623388062663879 0.05049011985357524
3500000000.0 0.009617888264939424 0.08716907423758752
3520000000.0 -0.009554891413211183 0.10212517238835346
3540000000.0 -0.08987943844107234 -0.07297302221421963
3560000000.0 0.06519144632974966 0.10182299386584417
3580000000.0 0.0785674249309484 -0.1097368235372424
3600000000.0 0.0871465048382261 0.1230814043174806
3620000000.0 0.031275599319304334 -0.1590157648639884
3640000000.0 0.01666848291987157 -0.1787203327484372
3660000000.0 0.02224463458261012 -0.1895682302960208
3680000000.0 0.18206791570500666 -0.06946085096311931
3700000000.0 -0.0823578906127216 -0.17639274301023872
3720000000.0 -0.04086145790398507 -0.18635914169035428
3740000000.0 0.1744195240193377 0.048774210365466905
3760000000.0 0.06004344879191663 -0.1653419713170407
3780000000.0 -0.14060570859750302 0.09977730932092356
3800000000.0 0.16508256026323587 -0.02780866642285532
3820000000.0 -0.10006020206066261 -0.12335698384320126
3840000000.0 -0.1170342863796707 -0.09112634600007896
3860000000.0 0.03232875650382053 -0.13972713897309988
3880000000.0 0.14279626730969927 -0.015212018543045462
3900000000.0 -0.034385732506160546 0.1428763285689779
3920000000.0 0.025195669282191843 0.150436685984991
3940000000.0 -0.13622228043952384 -0.09537439599322046
3960000000.0 -0.16522456740027738 0.05751324673258246
3980000000.0 -0.09108160040595732 0.14778902768304517
4000000000.0 0.15626147648411345 -0.05297792657447621
