!Created with skrf (http://scikit-rf.org).
# Hz S RI R 50.0 
!freq ReS11 ImS11
400000000.0 0.49069853361826815 0.7193523684624734
420000000.0 0.8451495063988438 -0.007130625343643158
440000000.0 0.7979729571462224 -0.05474098427235082
460000000.0 0.6840548905298879 0.29758315394712803
480000000.0 -0.01610487974316751 -0.6879097515258338
500000000.0 0.13463568017276634 0.5889248217626477
520000000.0 0.3232477539168132 0.3963698036563942
540000000.0 -0.4208990299735898 -0.10027993524889094
560000000.0 0.1511424900203647 0.3629558935242067
580000000.0 -0.3486540425981454 -0.08450687302187421
600000000.0 0.2830980278800432 -0.21222244911053129
620000000.0 -0.2664558786143755 -0.23439930272534054
640000000.0 0.4051074682465166 -0.03658512597809913
660000000.0 0.04786437987064455 0.4080640569125631
680000000.0 0.11883291360635943 -0.4289735577953163
700000000.0 -0.11666320988342813 0.4494106505960298
720000000.0 -0.46195263369980477 0.055414498668721175
740000000.0 -0.31185066185197513 0.29417528358707046
760000000.0 -0.35110749279175607 -0.21128089249836837
780000000.0 -0.3122394921860407 0.2172469632228449
800000000.0 -0.18667448581182985 0.282786663677233
820000000.0 0.2341960061478954 0.15343452276032904
840000000.0 -0.17574371690468624 0.10826206716262232
860000000.0 -0.16596250447585315 -0.018064573042815585
880000000.0 -0.07411279999400756 -0.11742619309888268
900000000.0 -0.09419050305037704 0.01472229440926811
920000000.0 0.022046609210202447 0.05228476338609187
940000000.0 0.029566043248550476 -0.024258269848406393
960000000.0 0.01930592897065491 0.03536262663458547
980000000.0 -0.044807834250033284 -0.04364864165376733
1000000000.0 0.0441932444586985 0.08996261226335744
1020000000.0 0.10237473908295194 0.07114694781502197
1040000000.0 -0.13791693317378917 -0.006771244301398214
1060000000.0 0.10429972111945983 0.12622211711487608
1080000000.0 -0.16830523642144019 0.08679711303460298
1100000000.0 0.05586933739225024 -0.20667328162239607
1120000000.0 0.21382592253172716 -0.0993561921796849
1140000000.0 0.002400673534252337 0.2591852262067263
1160000000.0 -0.09130926808862103 0.26397899007592734
1180000000.0 -0.2664663663174691 -0.14426330672788096
1200000000.0 0.2191940181926539 0.2565126563513089
1220000000.0 -0.04301251564022531 -0.36821322687920316
1240000000.0 0.24446815615178616 0.31093253877170374
1260000000.0 -0.21539527230779418 -0.34900839612863055
1280000000.0 -0.425046500672014 0.01695086025941832
1300000000.0 0.28212131833376813 0.3295046419522221
1320000000.0 0.4341143978440194 0.04751732023876452
1340000000.0 0.3504360950650541 0.2673939583554378
1360000000.0 0.4302441585683142 -0.11912117040068992
1380000000.0 -0.33384757524424624 -0.28040736531371696
1400000000.0 -0.41592919691661334 -0.06318087956196673
1420000000.0 0.0713746214888582 0.39237627727242713
1440000000.0 0.35555289132842466 0.10511362452618245
1460000000.0 0.3168265753947348 0.13579463036035955
1480000000.0 0.0658273636713582 -0.3129953798503121
1500000000.0 -0.1828126060947943 0.22528730058681665
1520000000.0 -0.15514130685065505 0.20809059682920236
1540000000.0 0.23014015106403563 -0.0019605051499165483
1560000000.0 0.1771617563394274 0.08559274533826083
1580000000.0 0.015460778542443961 0.170558895950816
1600000000.0 0.0990625367524405 0.09127106783499651
1620000000.0 0.08706585943328038 -0.04498928425832196
1640000000.0 -0.0731299976723581 -0.008008813690641171
1660000000.0 -0.043698431352329016 0.04055078980531451
1680000000.0 -0.03598333982750266 -0.011926970626793596
1700000000.0 0.006209634794891351 -0.016404231976372134
1720000000.0 0.008903976556472232 0.007228444710777508
1740000000.0 0.0179867902188733 0.003965316734268379
1760000000.0 0.01070355790962769 -0.023042761978832496
1780000000.0 -0.04111150305192609 -0.00024840878125299024
1800000000.0 0.07666044531973128 -0.03497350860858763
1820000000.0 -0.05733940094617747 -0.10729001432646021
1840000000.0 0.1326098939471279 -0.09917460360099134
1860000000.0 -0.2026727464847766 0.053027013258315187
1880000000.0 0.23357758735662668 -0.07948809756910363
1900000000.0 -0.28181505943921437 -0.029368620138635303
1920000000.0 -0.15387795255798892 -0.2805546456387323
1940000000.0 -0.27450650806562354 0.1989899911188198
1960000000.0 -0.2634796735974664 0.24873469855001912
1980000000.0 0.3814647174431916 0.1004146016440201
2000000000.0 0.21429623486870153 -0.3564516245282554
2020000000.0 -0.06449867165586481 -0.42388692543804224
2040000000.0 -0.2012521530417506 0.39064582524879443
2060000000.0 0.20235303648876612 0.39348397073807106
2080000000.0 0.41486430701473376 0.14227976967585473
2100000000.0 -0.22095036741517285 -0.36558882231548584
2120000000.0 -0.19072905137561078 -0.36544430360332536
2140000000.0 0.18751025999505005 -0.3485102342131178
2160000000.0 0.38019541193548484 -0.05241310504712144
2180000000.0 0.3736268761986745 0.025640570351538886
2200000000.0 0.36168131345510307 -0.04237924748401977
2220000000.0 -0.25822935729384044 -0.24039005667566116
2240000000.0 -0.21819959520939755 -0.2678780077223071
2260000000.0 -0.27423139045564665 -0.20635538864699657
2280000000.0 0.04077861807332311 0.34445867071259895
2300000000.0 0.1557238255663935 0.31806233283839336
2320000000.0 0.2081141189821901 0.31279752559505514
2340000000.0 -0.05888159692706516 -0.4042188825532619
2360000000.0 -0.4250600968483511 -0.13945646145435903
2380000000.0 0.13076526114755055 0.47984857425459926
2400000000.0 -0.45310826140191807 0.32586817165613785
2420000000.0 0.4867817834689118 -0.36831461808075994
2440000000.0 -0.460858678645878 0.4694594028307075
2460000000.0 -0.693043164321161 -0.11250054489378299
2480000000.0 0.6866746541259557 0.258801809936919
2500000000.0 -0.44567114103913075 -0.6098908628934232
2520000000.0 0.7151387082331476 -0.28185437810575104
2540000000.0 -0.5463386743135321 -0.5459546310690567
2560000000.0 -0.41741564230046696 0.6452222476759106
2580000000.0 0.05847051347774745 -0.7518649646276174
2600000000.0 -0.7300699710625556 -0.05569473532895926
2620000000.0 -0.0337887666769128 0.7045175066163812
2640000000.0 0.531836981416705 -0.40357179718288744
2660000000.0 -0.4341298346958861 -0.45275791827503015
2680000000.0 -0.2961469053404039 0.49976125713470915
2700000000.0 -0.22183901862845495 -0.4794562736050375
2720000000.0 -0.20370441840791256 0.4365542420321522
2740000000.0 0.42906360898029716 -0.055139993958132336
2760000000.0 -0.34181338176787346 0.18620813727086366
2780000000.0 0.35489216484453023 0.053918535721563805
2800000000.0 -0.3104208081261364 -0.12630796966854307
2820000000.0 -0.030288724674570094 -0.3109895293829088
2840000000.0 0.0974463135337546 0.2878708688744536
2860000000.0 -0.18765466044350793 -0.23010257362433317
2880000000.0 0.10033648828219374 -0.2759690729063725
2900000000.0 -0.2904715858052636 -0.043586542408099296
2920000000.0 -0.20375532077073877 0.2216019860952133
2940000000.0 0.11459538365960721 -0.29023525210459256
2960000000.0 -0.23351350451148392 -0.21610155804800688
2980000000.0 -0.2918155739470041 -0.12741808930427417
3000000000.0 -0.31642639535555034 -0.02849527861352527
3020000000.0 0.2078697172478249 0.24316962392152508
3040000000.0 0.21433214258863323 0.2367751434317285
3060000000.0 0.0357755653501581 0.3111155295321971
3080000000.0 0.29913394453240544 0.05225402985347382
3100000000.0 -0.2782346284962395 0.0992464208157702
3120000000.0 -0.030788087370136205 -0.2860502408973536
3140000000.0 -0.275226532994308 -0.02880313521261528
3160000000.0 0.19928301671867413 -0.17224102125704802
3180000000.0 -0.24503894975851365 0.03978231094923682
3200000000.0 0.2319441558179327 -0.017742029451266305
3220000000.0 0.1438733066321965 -0.14781943421574653
3240000000.0 0.018874930903287207 -0.17244816029093568
3260000000.0 0.1379593305521559 0.03800377256059298
3280000000.0 0.0011505789704456643 0.10034942794583501
3300000000.0 0.03352604764472083 -0.05761879528195572
3320000000.0 0.03877088186640496 -0.01108204209440571
3340000000.0 0.0006255717499217249 -0.0208762339099021
3360000000.0 -0.003423069885929335 0.005052307445707373
3380000000.0 0.0016304583670294671 0.0036555585588099048
3400000000.0 -0.013331037577818195 0.011789354051233636
3420000000.0 -0.026388850247237777 0.021959084964385707
3440000000.0 0.047890572250478484 -0.007566917923344322
3460000000.0 0.051385288325433535 0.03721840593531664
3480000000.0 -0.07624469491887394 0.006952365489544123
3500000000.0 -0.027940567410044075 0.08404387860890626
3520000000.0 -0.06881292790818531 0.07667071923818489
3540000000.0 -0.03563778444595654 -0.11049651033045649
3560000000.0 -0.01527860622176227 0.12044251445213927
3580000000.0 0.11720214492640385 -0.06481064309327217
3600000000.0 0.02841280786957588 0.14906094260069463
3620000000.0 0.0991893024070338 -0.12808655603779567
3640000000.0 0.06337479209938075 -0.16781833456907075
3660000000.0 0.06429605344617198 -0.17918777066690617
3680000000.0 0.19207656839727413 -0.027447084053070368
3700000000.0 -0.017417389953777507 -0.19290325935128189
3720000000.0 0.02416513804208609 -0.18787207850518722
3740000000.0 0.15420013789872938 0.0934389304732595
3760000000.0 0.09845503902093014 -0.1448723040189006
3780000000.0 -0.14788333679545193 0.08533854735250805
3800000000.0 0.1637794225418981 -0.024903891370901803
3820000000.0 -0.1256228491528694 -0.0936812292917404
3840000000.0 -0.1283927793968882 -0.07041613863185545
3860000000.0 -0.014194004223571578 -0.14137529204546168
3880000000.0 0.13957127821775459 -0.02546736933397431
3900000000.0 -0.06564813114682842 0.12917173705366358
3920000000.0 -0.03343012507304348 0.14659297860495366
3940000000.0 -0.09236095336266052 -0.13652441325983283
3960000000.0 -0.17055525273638278 0.03132822842375587
3980000000.0 -0.052744997608979875 0.16355051615379826
4000000000.0 0.1112548041348679 -0.11898546565445556
