!Created with skrf (http://scikit-rf.org).
# Hz S RI R 50.0 
!freq ReS11 ImS11
400000000.0 0.4830024321643558 0.722227215768631
420000000.0 0.8418921769567462 -0.05341706795361161
440000000.0 0.7906335395128342 -0.11137884092185309
460000000.0 0.7046442774192855 0.24236247535860617
480000000.0 -0.07303055237045912 -0.6839668085827803
500000000.0 0.18362712985582566 0.5756851830552548
520000000.0 0.3302065204384246 0.39108145010873924
540000000.0 -0.41682045025119546 -0.11864999841736075
560000000.0 0.11910197369890581 0.37522697983605857
580000000.0 -0.33052962418999404 -0.13848480321002776
600000000.0 0.312605794635683 -0.16301452946404593
620000000.0 -0.2295554556172624 -0.26861847853964044
640000000.0 0.3939093768311632 -0.09476554041185956
660000000.0 0.10583305237572402 0.39626095512078524
680000000.0 0.04956441252568651 -0.44142909888123044
700000000.0 -0.011883185550124268 0.464386761313923
720000000.0 -0.4599186221145397 0.07176417311873874
740000000.0 -0.29889365278495567 0.30778417438724004
760000000.0 -0.346079148967352 -0.22073691447588262
780000000.0 -0.3281817093694872 0.1931093778390882
800000000.0 -0.22184992175335871 0.2563776890139063
820000000.0 0.21259635531135898 0.18261645985061636
840000000.0 -0.18774391982892352 0.08525469161620645
860000000.0 -0.162138978146932 -0.037877331036020694
880000000.0 -0.07382241330604027 -0.11695314359506334
900000000.0 -0.09417018030808809 0.009236154905753535
920000000.0 0.04394340526761918 0.03472428660662594
940000000.0 -0.017740193086103303 -0.033572124484679826
960000000.0 0.03315637822010355 -0.023598586603383726
980000000.0 -0.04650884636188494 -0.04317086440937749
1000000000.0 0.003739492058100957 0.10058584423619184
1020000000.0 0.0701979278519527 0.10261860698928568
1040000000.0 -0.12824580628765053 -0.04874342894062689
1060000000.0 0.07949376576593016 0.14178620699383968
1080000000.0 -0.16524433337082056 0.08998586738610316
1100000000.0 0.010393660420252207 -0.2126307067268694
1120000000.0 0.1965828459405344 -0.1288493032188251
1140000000.0 0.04423702969150732 0.2548889994433615
1160000000.0 -0.030503138022573928 0.2774321143136315
1180000000.0 -0.2893276998907643 -0.09057173183803535
1200000000.0 0.2586586916193289 0.2171680174592445
1220000000.0 -0.12076357877808848 -0.35106862721238086
1240000000.0 0.29613831541700025 0.2629174477631305
1260000000.0 -0.24094416504869187 -0.3328512997032109
1280000000.0 -0.42565000414864734 0.007077880165470416
1300000000.0 0.26193580796264315 0.34598331593710496
1320000000.0 0.43305042118102205 0.057947568426448104
1340000000.0 0.3338464080633164 0.28824546124944034
1360000000.0 0.43439594757091315 -0.10321948374981264
1380000000.0 -0.33089574478108524 -0.2838307311475227
1400000000.0 -0.41366555853047593 -0.07562037052996903
1420000000.0 0.08148644569193658 0.38987829418439285
1440000000.0 0.35111766810256684 0.11684461359458334
1460000000.0 0.3184432747535004 0.12910875954686482
1480000000.0 0.06667344372193357 -0.31158278558445746
1500000000.0 -0.17750210870160624 0.22847461645158793
1520000000.0 -0.12058309316631997 0.2285969890265515
1540000000.0 0.2282964609120201 -0.02624784032567552
1560000000.0 0.1880877945604717 0.05765436196054624
1580000000.0 0.04566619037465242 0.1654851639121165
1600000000.0 0.13281722401246662 0.02450054798489746
1620000000.0 0.028733071809552067 -0.0938867580477559
1640000000.0 -0.05856051765005408 0.04515558590544136
1660000000.0 -0.02692368588118689 0.05392257475556616
1680000000.0 -0.035228854331738495 0.015626546246990954
1700000000.0 -0.01856402538193187 -0.0019756034540147566
1720000000.0 -0.010264129600905428 -0.00671246750074283
1740000000.0 -0.01782065080662159 -0.006734756593766841
1760000000.0 -0.02420449544454704 -0.008774581624433843
1780000000.0 -0.028829779595189446 0.029556200203018412
1800000000.0 0.042830624014495854 -0.07323341909959848
1820000000.0 -0.09304311162561514 -0.0793947318068568
1840000000.0 0.1028572928997002 -0.13092144046310672
1860000000.0 -0.198007825159957 0.07102608526285435
1880000000.0 0.23540756549645275 -0.0756518270682019
1900000000.0 -0.2811506070782871 -0.04059144707642211
1920000000.0 -0.11136721738579057 -0.3008523925581544
1940000000.0 -0.30158138777999394 0.1557285808898465
1960000000.0 -0.29250691492757136 0.21425770802542832
1980000000.0 0.3748086493028381 0.12235576191345454
2000000000.0 0.23150797593040653 -0.34497597541903735
2020000000.0 -0.021907142290631065 -0.4274739634115268
2040000000.0 -0.2019741894859695 0.38886399372537067
2060000000.0 0.17956197188964224 0.402716478478116
2080000000.0 0.42653921851090965 0.09456503781888399
2100000000.0 -0.23034473450899043 -0.3583062748648462
2120000000.0 -0.16940357285650653 -0.3746906541079554
2140000000.0 0.1451554316556661 -0.3671760294991978
2160000000.0 0.36607518971480263 -0.11096053001548256
2180000000.0 0.3690495430027077 -0.054149200494269516
2200000000.0 0.3245177958762659 -0.1627481060552604
2220000000.0 -0.3417794364145946 -0.08730910990066208
2240000000.0 -0.27919504192860334 -0.20448435824408084
2260000000.0 -0.32748743485833726 -0.10714169893384631
2280000000.0 0.13964965877822066 0.3192924343687449
2300000000.0 0.2214483926492553 0.27848007073094755
2320000000.0 0.23323503897936898 0.2965505618106839
2340000000.0 -0.04769556754576758 -0.4070953453981911
2360000000.0 -0.4190654939524264 -0.15970015814032013
2380000000.0 0.11893666286283149 0.48404055667831897
2400000000.0 -0.5011552291214406 0.24496877543641124
2420000000.0 0.5353150930777916 -0.2922343485282929
2440000000.0 -0.508179315591846 0.4155131423839736
2460000000.0 -0.6826645595971971 -0.15622730616713595
2480000000.0 0.6886508572109109 0.24803017154564772
2500000000.0 -0.4412369737966593 -0.6108670854975711
2520000000.0 0.6762157173826884 -0.3615987825775541
2540000000.0 -0.6346805191045125 -0.4378824086758764
2560000000.0 -0.36963963766843455 0.6730848804787901
2580000000.0 -0.16048530302483657 -0.7361031748138237
2600000000.0 -0.7254527468415026 0.0998074572502871
2620000000.0 0.0441343413923849 0.7045020910239761
2640000000.0 0.4687402773190469 -0.4760465200187851
2660000000.0 -0.5082423288071379 -0.3688565437272942
2680000000.0 -0.16511624770565786 0.5580570403429886
2700000000.0 -0.28822611891230915 -0.44523190887021485
2720000000.0 -0.14861549591730186 0.4595688640517172
2740000000.0 0.42822585620406445 -0.0692981374904973
2760000000.0 -0.34472966900417945 0.18313275008663127
2780000000.0 0.35349423422325316 0.06609984894257716
2800000000.0 -0.29460719631190724 -0.16048767385252652
2820000000.0 0.02375932155539876 -0.3120658642270919
2840000000.0 0.051973403303313154 0.2994029842941945
2860000000.0 -0.14973828006726622 -0.25618477572958565
2880000000.0 0.11219084155863322 -0.2700929774220734
2900000000.0 -0.2845990883956326 -0.06805980729364461
2920000000.0 -0.1915476735905461 0.230444123221988
2940000000.0 0.1038075872206126 -0.29292722401609333
2960000000.0 -0.275569202650335 -0.15619445966948353
2980000000.0 -0.3176168355298372 -0.02084361322577237
3000000000.0 -0.3106781151046889 0.06392934714012856
3020000000.0 0.26689531019222246 0.17579625818674724
3040000000.0 0.24257617375359808 0.20811154251766753
3060000000.0 0.09941783327156455 0.2968794753933055
3080000000.0 0.3012248012782476 -0.029848929234788112
3100000000.0 -0.2160926839745074 0.20058460358901872
3120000000.0 -0.08102324259875097 -0.27514783175835517
3140000000.0 -0.25713514654083347 0.102646117955248
3160000000.0 0.12795323205613182 -0.23057301462784013
3180000000.0 -0.23007893915356498 0.09451900369033779
3200000000.0 0.21842562733290027 -0.08223379954479591
3220000000.0 0.0847570910846157 -0.18897811006089082
3240000000.0 -0.030634605029687706 -0.1715994310270557
3260000000.0 0.14405028390766184 -0.003077013424398773
3280000000.0 -0.004689160674116178 0.1017019970473149
3300000000.0 0.016744740392229555 -0.0657177043117132
3320000000.0 0.041317387638228335 -0.003605428068641995
3340000000.0 0.01619925284464737 -0.01525484918777406
3360000000.0 0.007537174678270372 -0.0011390066560346957
3380000000.0 -0.002549277834211145 -0.0017314833793225996
3400000000.0 -0.002657728670037274 -0.015827377971232185
3420000000.0 0.015200184764002738 0.02949256977560543
3440000000.0 0.039803429735054685 -0.024847235761067968
3460000000.0 0.02467279861331948 -0.05663358117943882
3480000000.0 -0.017813753057270558 0.07332125718234815
3500000000.0 0.06324496789581983 0.06020635773308068
3520000000.0 0.03966092743370679 0.09377669440682238
3540000000.0 -0.10804485191757363 -0.03914271604418523
3560000000.0 0.09995323906550123 0.06689193146506253
3580000000.0 0.03757703521668822 -0.1294282190930478
3600000000.0 0.12049543307069303 0.09136386821831279
3620000000.0 -0.005788813546670385 -0.16225730812632286
3640000000.0 -0.03362254731751609 -0.17697643366635415
3660000000.0 -0.04328968682025714 -0.18649105037758884
3680000000.0 0.15430997071809574 -0.11962757908811801
3700000000.0 -0.12028978077440045 -0.15340851883542303
3720000000.0 -0.06531695914423682 -0.17960535780187256
3740000000.0 0.17755740761515887 0.03693346774798982
3760000000.0 0.054766007124314744 -0.1677084425151727
3780000000.0 -0.13114104881054497 0.11288445088413418
3800000000.0 0.16322474573744136 -0.04018888157380132
3820000000.0 -0.11551480492906491 -0.10993854293946421
3840000000.0 -0.1278279695056785 -0.07609760343583545
3860000000.0 0.006440848557764726 -0.14371343182400728
3880000000.0 0.14133762013239448 -0.02606637713147858
3900000000.0 -0.05008706956813964 0.13837673117386126
3920000000.0 -0.0027128674937688135 0.15281195335894543
3940000000.0 -0.09945147204402041 -0.13391688634411417
3960000000.0 -0.17181702954065087 0.03474253475793565
3980000000.0 -0.08367809010185588 0.15258970523141607
4000000000.0 0.14552821298041116 -0.07736412608739499
