! Created with skrf (http://scikit-rf.org).
# Hz S RI R 50.0 
!freq ReS11 ImS11
400000000.0 -0.7552683798552241 0.3936538254108817
420000000.0 -0.3397429975387374 0.7910489855459603
440000000.0 0.6164275106063031 0.5591194340511639
460000000.0 0.7673009689619272 -0.20898618222478157
480000000.0 -0.08515163498268297 0.7298411258820692
500000000.0 -0.41177994982179855 -0.45194670547133553
520000000.0 -0.22529736913445086 0.46018556547331474
540000000.0 -0.27919455367412466 -0.34979977237438753
560000000.0 0.29705284452456115 -0.23418251305478247
580000000.0 -0.16666993291876508 0.3037084865910857
600000000.0 0.31219636223561376 -0.13811199066418686
620000000.0 -0.23727040604789434 0.2575352708086313
640000000.0 -0.3078964351728216 0.1912823158711827
660000000.0 -0.36851426200501375 -0.0437579054409564
680000000.0 0.2773513747004465 0.2617966156477964
700000000.0 0.06164870078857675 0.39645885768202777
720000000.0 0.09426773143616321 0.39835456615108955
740000000.0 -0.26327762650669273 -0.32056754096315143
760000000.0 -0.14242778475673873 0.37920618070528156
780000000.0 -0.14989059888228223 -0.3547185922870134
800000000.0 0.17888122860880676 0.31379316868558027
820000000.0 0.11041102208200543 0.2994033805194057
840000000.0 -0.25741013268527974 0.08924787196269196
860000000.0 -0.18450432857638077 0.1295072363217216
880000000.0 0.07299860313122342 -0.16206308506920236
900000000.0 0.11148020938070165 0.0317955089969303
920000000.0 0.06625894835481992 0.028093407900252974
940000000.0 -0.05733241277443087 0.02069928928578004
960000000.0 0.0065251144042373305 0.06939987851203544
980000000.0 -0.05805839283033266 0.06310545779593875
1000000000.0 0.05982223303063347 -0.0650197488309303
1020000000.0 -0.08877380085849713 0.04423090904039996
1040000000.0 -0.0057482392698822325 -0.10243055265366059
1060000000.0 0.014756412077519845 -0.1332197928621252
1080000000.0 -0.13110924085705067 0.06684275227595869
1100000000.0 -0.15080071687977664 -0.07950680439504386
1120000000.0 -0.19188020284424082 0.012586581620609966
1140000000.0 -0.17180010570117224 0.15407583795948177
1160000000.0 -0.20405782519635168 0.18048983276987698
1180000000.0 -0.2001363151718827 0.24287749798627908
1200000000.0 -0.26026665095190976 0.23419659485826722
1220000000.0 -0.09212000192636194 -0.36839052600487654
1240000000.0 0.29940875867164995 0.27232613828749586
1260000000.0 -0.2724191590981779 -0.32842554350732545
1280000000.0 0.12996909712168078 0.42085410500637777
1300000000.0 0.26963549955503036 -0.354365632068612
1320000000.0 -0.3153712693852365 -0.3045357954558597
1340000000.0 -0.05656865124929176 -0.4280488464025544
1360000000.0 0.3234861105739256 -0.2800245465690966
1380000000.0 0.2688280927547261 -0.3357941095352007
1400000000.0 -0.30324129093609614 -0.2925805341439796
1420000000.0 -0.33364863391391447 0.23317618355721106
1440000000.0 0.33032234955188805 0.1952727371062393
1460000000.0 0.11837570065988991 -0.33467250455818026
1480000000.0 -0.3041897980619764 0.11362696439018848
1500000000.0 0.14587365686296272 0.24938975054367649
1520000000.0 0.25446666576510324 0.035613608894635995
1540000000.0 -0.17727319852853907 0.13739801042928673
1560000000.0 0.03165689999018349 -0.18428671396594734
1580000000.0 -0.043766791882961655 0.15064140313645627
1600000000.0 -0.09835307525346068 0.08187522152397844
1620000000.0 0.0459419122823354 -0.08812364717013316
1640000000.0 -0.07931895600254782 0.006877108344130149
1660000000.0 0.050547750915005726 -0.029238596562874523
1680000000.0 -0.03705491394965735 -0.016145946154441624
1700000000.0 -0.028405994016773527 0.004396279625819462
1720000000.0 -0.009953091391959587 -0.010217763998470566
1740000000.0 -0.008455027470697046 -0.0009413246281180502
1760000000.0 -0.02072550507269635 0.008233068485288658
1780000000.0 0.04643560501261707 0.027733291637477557
1800000000.0 -0.07577990162388863 0.05193361920102779
1820000000.0 0.0822309431224154 0.0992210333252616
1840000000.0 -0.14084983903704773 0.10035690669192857
1860000000.0 -0.139970165921182 -0.16529316208420242
1880000000.0 0.17020868113317975 -0.19642591518688532
1900000000.0 0.21637299189723103 0.20968794264617174
1920000000.0 -0.3040907225601995 0.13983254700051717
1940000000.0 0.33755042703600086 -0.12252004948702531
1960000000.0 -0.32485886346938847 -0.19301174293812257
1980000000.0 -0.25924744692996277 0.2912372152455343
2000000000.0 -0.2459273334814758 0.31832286817114863
2020000000.0 -0.10907189723582598 0.3993893899821709
2040000000.0 -0.15750610134862902 0.39408431396608534
2060000000.0 0.16862290047311748 0.3982767787680586
2080000000.0 0.3658987688262342 0.23442338826724363
2100000000.0 0.4167823047345046 -0.12278597109763871
2120000000.0 0.11755538938935305 -0.41371438642590413
2140000000.0 -0.36080070738626596 -0.21755273933205668
2160000000.0 -0.266732632398041 -0.3063408569947372
2180000000.0 -0.3410083216014787 0.18746141699028776
2200000000.0 0.0019299362858679094 0.371996568965749
2220000000.0 0.20121523043192746 0.2952328835912852
2240000000.0 0.3327599918573033 0.11172289612336748
2260000000.0 0.34771002591015276 -0.03195376259240957
2280000000.0 0.3099217285440934 -0.17108068475946162
2300000000.0 0.020365836336887343 -0.3692149985914377
2320000000.0 -0.3967879067073662 -0.022270772512364374
2340000000.0 0.28586175928992663 0.32616080749968507
2360000000.0 -0.2532082943673869 -0.4040416525844041
2380000000.0 0.4034392266357981 0.3328547924514501
2400000000.0 -0.5613418666343266 -0.10772048770944254
2420000000.0 0.5329072583411041 -0.3156401173276127
2440000000.0 -0.18996637590273147 0.6340796625276186
2460000000.0 -0.23683083373409786 -0.654920571885983
2480000000.0 0.4690484031994427 0.5478874587913568
2500000000.0 -0.3292591082829627 -0.659370253900864
2520000000.0 0.045523382671820774 0.7417496735263599
2540000000.0 0.36271411166004647 -0.6460954505346377
2560000000.0 -0.7256619312682133 0.09569232794651064
2580000000.0 0.4144339895181112 0.5811052263933326
2600000000.0 0.3810710211049831 -0.5723781020626233
2620000000.0 -0.6460794906425585 -0.10435988464211789
2640000000.0 -0.6161944220188766 0.030190675169705746
2660000000.0 0.1962839016238379 0.5377256120069687
2680000000.0 0.4176042568524674 -0.3203678760877503
2700000000.0 -0.45111194961631024 -0.16784244329835973
2720000000.0 0.15757688185486224 0.40593058207575244
2740000000.0 0.2559465850735482 -0.2982790397565308
2760000000.0 -0.3527526097659959 0.04864618432240405
2780000000.0 0.3172601691748768 0.0800365837353713
2800000000.0 -0.2783932738598763 -0.12570808755201823
2820000000.0 0.2862285068609282 -0.055045340718238356
2840000000.0 -0.10977905412908415 0.26295704283149374
2860000000.0 -0.20716816079411066 -0.19454653328783744
2880000000.0 0.20202796229032685 -0.20239679898668456
2900000000.0 0.07121571808819116 0.28023161274337005
2920000000.0 -0.0699996808732754 -0.28444586421253315
2940000000.0 -0.1046067526311096 0.27651643874221526
2960000000.0 0.16417719674582779 0.24449719018646957
2980000000.0 0.06270518099990234 0.28982892323800924
3000000000.0 -0.2137160471492434 0.20591933958849934
3020000000.0 -0.11491741613151703 -0.2728073115877221
3040000000.0 0.2532376508707987 0.15328863021627007
3060000000.0 -0.2769933417817399 -0.10614869924949755
3080000000.0 0.25522688290020445 0.14955184835277113
3100000000.0 -0.29345367440718806 -0.004332938240344998
3120000000.0 0.19082187019921398 -0.21551965979066107
3140000000.0 0.041419960470806504 0.27681507700062236
3160000000.0 -0.26232354206589314 -0.0339789113662892
3180000000.0 0.214871797395657 0.11998361026877184
3200000000.0 -0.017543366015532663 0.22119558001678818
3220000000.0 -0.18448312441592196 0.056439764409287885
3240000000.0 0.06092994256821035 -0.14864332789900336
3260000000.0 -0.10324968104264676 0.07458964973435547
3280000000.0 0.03367494848825059 0.09203309114612578
3300000000.0 0.06839449416700545 -0.023394799156728957
3320000000.0 0.04638403906529408 0.00933613301509153
3340000000.0 -0.012759308750530413 0.0240343585401214
3360000000.0 0.010394101030293822 0.0006563893889563301
3380000000.0 -0.004471980852046354 0.0032915550341305975
3400000000.0 0.007935947688668255 0.01749934709436677
3420000000.0 -0.031803246636947724 0.008687515356771931
3440000000.0 0.036494179021404366 0.025251946289973622
3460000000.0 0.05030207264361128 -0.01740789726815899
3480000000.0 0.0631625085418623 0.010738180229936596
3500000000.0 0.01882270023997639 -0.0739657365070499
3520000000.0 -0.06026218746056438 -0.06577938885097717
3540000000.0 0.09916551324644156 0.026866427747952584
3560000000.0 -0.09021241620150827 -0.07154252667573176
3580000000.0 0.014017428108757387 0.128784528352413
3600000000.0 -0.14506283229238195 -0.034005280792358754
3620000000.0 -0.15738329156830422 -0.035905929550356236
3640000000.0 -0.03473990081225027 -0.17051592858187217
3660000000.0 -0.055633362735131996 -0.1762127840932153
3680000000.0 -0.0028349163212905127 -0.18983045199379076
3700000000.0 0.045149068158643314 -0.18400332310893808
3720000000.0 0.1657243171949237 -0.0873108859324377
3740000000.0 0.17773425839922852 -0.040109797127105516
3760000000.0 -0.172367368601125 0.026900235091676578
3780000000.0 0.1635237093486512 -0.01830218174120294
3800000000.0 0.017124772010266628 -0.1547717346437466
3820000000.0 -0.0358121175510937 -0.14413938817100647
3840000000.0 0.13691341944477992 -0.04100792150171703
3860000000.0 -0.025909608444973534 0.14254022183714252
3880000000.0 -0.006607929396654837 0.15233945695183732
3900000000.0 0.15603164519055948 0.0188782211253033
3920000000.0 -0.16378018589622773 0.010509738940789964
3940000000.0 -0.015685852490291804 -0.16635744555293558
3960000000.0 0.04618737732769049 -0.16414378171554073
3980000000.0 -0.1311923448318601 -0.10790129745501005
4000000000.0 -0.16144812004915143 -0.012900126427153694
