! Created with skrf (http://scikit-rf.org).
# Hz S RI R 50.0 
!freq ReS11 ImS11
400000000.0 -0.7689733267025978 0.3607820214646384
420000000.0 -0.3846882323305973 0.7693471729092611
440000000.0 0.6022240692879566 0.5747764864160124
460000000.0 0.773293548775261 -0.18299401956490843
480000000.0 -0.1505106875771666 0.7191544361680476
500000000.0 -0.4199404856184453 -0.44525930364975747
520000000.0 -0.1631955832696608 0.48537590001390785
540000000.0 -0.23479614207344152 -0.38030698096216803
560000000.0 0.31444050864341294 -0.21258640555137598
580000000.0 -0.09579387473680039 0.33354050575374705
600000000.0 0.29913756209770137 -0.16172343486302326
620000000.0 -0.2743291505516985 0.21725792458767412
640000000.0 -0.2867292202794643 0.2220938212385074
660000000.0 -0.3629286350649738 -0.07347104163635994
680000000.0 0.2692636555446658 0.27120319924468644
700000000.0 0.06750169520308487 0.3961639504874544
720000000.0 0.13755730103890604 0.3860636631515038
740000000.0 -0.2871533204130861 -0.29957368469443574
760000000.0 -0.09525427853027776 0.39372576469226345
780000000.0 -0.1819218018008053 -0.33976993141526185
800000000.0 0.20067805692855534 0.2999051685195671
820000000.0 0.13148820712708584 0.2904895323591005
840000000.0 -0.23303818280884062 0.14083272770583197
860000000.0 -0.1601714989585582 0.15847257114902014
880000000.0 0.07274926322164604 -0.16206586515268
900000000.0 0.11345122173250564 0.019081231098728047
920000000.0 0.06635800442757346 0.024628099938813097
940000000.0 -0.026299538265617282 0.054223224771648086
960000000.0 0.0321540065009383 0.061966160511625276
980000000.0 -0.06160993837144705 0.05874854261523348
1000000000.0 0.05455601882122435 -0.06844439618239075
1020000000.0 -0.09509704013210611 0.02875633969545975
1040000000.0 -0.017397489523397144 -0.10098183091040355
1060000000.0 0.029859740917701064 -0.13035176149055064
1080000000.0 -0.14280790218949416 0.0344416476565755
1100000000.0 -0.13436994933700022 -0.1057664415569366
1120000000.0 -0.19248936889885276 -0.00456106047093908
1140000000.0 -0.18248005041633963 0.14218903329982543
1160000000.0 -0.22162042899798526 0.15895400567902682
1180000000.0 -0.20113211325680222 0.2425454776450679
1200000000.0 -0.2471865349680689 0.24840158380948496
1220000000.0 -0.10994482802458413 -0.36362295643982245
1240000000.0 0.29791969795551254 0.27373074529557107
1260000000.0 -0.26256788249431623 -0.33596325845715574
1280000000.0 0.1504094800063214 0.4136388741069625
1300000000.0 0.251791148771502 -0.3665150877667073
1320000000.0 -0.3145058090077804 -0.30452325588521884
1340000000.0 -0.049368573697292716 -0.4286911999406787
1360000000.0 0.3184006529232216 -0.2860152349322831
1380000000.0 0.2679725964638441 -0.3364693686800412
1400000000.0 -0.2999986552934487 -0.2958092720610042
1420000000.0 -0.32160335989095107 0.24967123933266913
1440000000.0 0.33571075988216514 0.18624227222321454
1460000000.0 0.12552202732700032 -0.3327047506012965
1480000000.0 -0.32110127099301744 0.0516962106466316
1500000000.0 0.12673621049897335 0.2600110605299294
1520000000.0 0.2552912088382821 0.02667754700252456
1540000000.0 -0.19018547338716335 0.11886093571996166
1560000000.0 0.06245421019748351 -0.1765468292196004
1580000000.0 -0.03699466851006023 0.15252888061191397
1600000000.0 -0.11858818282865055 0.04785928809337388
1620000000.0 0.03772313199731846 -0.09174548430134871
1640000000.0 -0.078334198693026 0.013979904627860579
1660000000.0 0.04633892922358917 -0.0353201907962238
1680000000.0 -0.03487045049513213 -0.0202371232497802
1700000000.0 -0.02314985798478673 0.01705035533667429
1720000000.0 -0.013955255687041996 0.0033963108181833627
1740000000.0 0.0038261584012864564 -0.006809752066263332
1760000000.0 -0.010486915088323164 -0.01943673707149629
1780000000.0 0.031288251424681564 0.04405187495887397
1800000000.0 -0.07927151085975416 0.04660997884003858
1820000000.0 0.09347444101419783 0.08918358808394351
1840000000.0 -0.12637811552244152 0.11834034439305566
1860000000.0 -0.1636027784314126 -0.1421491368264197
1880000000.0 0.14590419773618268 -0.21510054550531374
1900000000.0 0.24019121588581013 0.18202599387667615
1920000000.0 -0.2966229854221626 0.1543899265956142
1940000000.0 0.3341971279449811 -0.13022602350899082
1960000000.0 -0.3214402964720671 -0.19777668299363918
1980000000.0 -0.27530607337224783 0.27551801380037544
2000000000.0 -0.2751058760457344 0.29348409512530965
2020000000.0 -0.13765022777194894 0.39055864288768943
2040000000.0 -0.22954526556891894 0.3576005105708823
2060000000.0 0.14528006386467196 0.4074205311270656
2080000000.0 0.3749152116405928 0.22024473379680018
2100000000.0 0.41808898298940345 -0.11893030676775158
2120000000.0 0.10485914377459828 -0.4171753589032074
2140000000.0 -0.3929176527233968 -0.15091137452296952
2160000000.0 -0.2804129460185561 -0.29367319330813774
2180000000.0 -0.32894517856900324 0.20733442642043626
2200000000.0 0.0028001217339248333 0.37157697877454565
2220000000.0 0.2174753581428287 0.2828278841974623
2240000000.0 0.3232777919567574 0.13589858509759872
2260000000.0 0.3489859768577677 0.004949062350327998
2280000000.0 0.3186349455025771 -0.15423812064769868
2300000000.0 0.026499803120823496 -0.3690917905180749
2320000000.0 -0.3970609089077747 -0.021083803520830027
2340000000.0 0.2573419869615035 0.34866994912229404
2360000000.0 -0.2510945762303033 -0.40511140961187225
2380000000.0 0.41624553309520385 0.3172597907649904
2400000000.0 -0.5596238149024941 -0.11647603482213449
2420000000.0 0.5520902781706211 -0.2808473007647323
2440000000.0 -0.20923263956632512 0.6278592094616597
2460000000.0 -0.20781436675126577 -0.6646225687716346
2480000000.0 0.4509259736180806 0.5629211808692329
2500000000.0 -0.3830512372990045 -0.6290895501019533
2520000000.0 0.09308171631576843 0.7370543108810547
2540000000.0 0.375256520367964 -0.6387304999533013
2560000000.0 -0.7282910547289826 0.07402513234914325
2580000000.0 0.334387165539424 0.6307646479842526
2600000000.0 0.3861262643164772 -0.5687119669745283
2620000000.0 -0.6429211810877429 -0.12350089213457677
2640000000.0 -0.6169711125760157 0.006865803469859539
2660000000.0 0.19457464618545184 0.5384916251737797
2680000000.0 0.42214010012203235 -0.31426917330929827
2700000000.0 -0.44194262209313045 -0.1899482209856727
2720000000.0 0.1495255517790406 0.40877317335082064
2740000000.0 0.2436578416461131 -0.3084725976962008
2760000000.0 -0.35028832838478235 0.06501981417792564
2780000000.0 0.3141975384763619 0.09176318296309939
2800000000.0 -0.28235898256210157 -0.11770659489503611
2820000000.0 0.28755913908870434 -0.05173183796769193
2840000000.0 -0.09786273101956189 0.26818526864099423
2860000000.0 -0.2242472179464176 -0.17550254437154478
2880000000.0 0.19383521805712067 -0.21096909636949723
2900000000.0 0.08725224597180126 0.2754152945063032
2920000000.0 -0.08212268033346344 -0.28085252622146295
2940000000.0 -0.12655016403924566 0.2669716511966791
2960000000.0 0.1571178849159634 0.2487602506160888
2980000000.0 0.01899112616798202 0.2955769000515994
3000000000.0 -0.23535073934838427 0.18082322600407477
3020000000.0 -0.08777896061551355 -0.2826620925466696
3040000000.0 0.1877422619532307 0.22849490599931915
3060000000.0 -0.24427075971309586 -0.16706031547934236
3080000000.0 0.25513097559938647 0.14955279845972105
3100000000.0 -0.2929387589028009 0.016466057505145692
3120000000.0 0.19625652332662835 -0.20991180384505506
3140000000.0 0.0713341763928943 0.27028475805918595
3160000000.0 -0.26379203554475184 0.017491747060206
3180000000.0 0.23886910190250335 0.05881703568014734
3200000000.0 0.002575972190795968 0.22147068509037388
3220000000.0 -0.17749422363074743 0.07393626239691735
3240000000.0 0.04536177169100568 -0.1540745643450004
3260000000.0 -0.09722948763824224 0.0821275913222137
3280000000.0 0.0666967958827421 0.07189307349676825
3300000000.0 0.06812842764276543 -0.02590948335907791
3320000000.0 0.047940112623918875 -0.0013847735321228915
3340000000.0 0.01622136550129225 0.022482916718344056
3360000000.0 -0.0052313531071125526 -0.009678779468587174
3380000000.0 -0.0020124775292603056 -0.005017186593127715
3400000000.0 -0.014872252099787328 0.01130201350242162
3420000000.0 -0.03268332610214136 0.0034678088167465256
3440000000.0 0.04079050114596874 0.017645124534924277
3460000000.0 0.04909322135449109 -0.019506848851445446
3480000000.0 0.06270889600461034 -0.011992301023994623
3500000000.0 -0.000574445070458032 -0.07579216954934691
3520000000.0 -0.07531362672676879 -0.04691012875694281
3540000000.0 0.10153303805805242 0.013692600446898262
3560000000.0 -0.08884460055302841 -0.07282659580712883
3580000000.0 0.028271791144492846 0.12640973001458972
3600000000.0 -0.14838007455111404 -0.013010101205329059
3620000000.0 -0.16174806942452372 -0.00733670168571726
3640000000.0 -0.0708825112393245 -0.15946332124260723
3660000000.0 -0.08140664648007116 -0.1660928494193606
3680000000.0 -0.04147316731136221 -0.18554985276625519
3700000000.0 0.017780751185871267 -0.1886891702506162
3720000000.0 0.14842036653836826 -0.11514171125272407
3740000000.0 0.16281258191969136 -0.08173489582530172
3760000000.0 -0.16281757366585564 0.061840868277360184
3780000000.0 0.15797113607064606 -0.04658267872102134
3800000000.0 0.005387304943446179 -0.1559250615013019
3820000000.0 -0.057534493217153475 -0.13714727350182424
3840000000.0 0.1244333314995115 -0.07051756588076864
3860000000.0 -0.018090928388491693 0.14405833275182534
3880000000.0 -0.014139630463321529 0.15233767795360764
3900000000.0 0.1570547921520489 0.009702694144583324
3920000000.0 -0.16348275691398625 0.01663885819413674
3940000000.0 -0.018493627962784726 -0.16707557789961433
3960000000.0 0.06935253574259671 -0.15638688523268746
3980000000.0 -0.101295956603138 -0.13718894862601583
4000000000.0 -0.12829130622047794 -0.09937543565129853
