! Created with skrf (http://scikit-rf.org).
# Hz S RI R 50.0 
!freq ReS11 ImS11
400000000.0 -0.7512481761755535 0.39981726412296564
420000000.0 -0.3694267071109076 0.7770915125237694
440000000.0 0.6234727429396288 0.5509812046780134
460000000.0 0.772285982180664 -0.18485418834202105
480000000.0 -0.15671300068825642 0.7182275922251031
500000000.0 -0.40740687228863864 -0.4572573358727663
520000000.0 -0.1922144530609295 0.4756241735955117
540000000.0 -0.26859818655864937 -0.3574560482691085
560000000.0 0.32121128935379073 -0.20194980895099696
580000000.0 -0.06366245718238295 0.34131886981040743
600000000.0 0.2918283803115789 -0.17559309487905317
620000000.0 -0.2858004719175709 0.2016246168687786
640000000.0 -0.3010033419269409 0.20367203344108464
660000000.0 -0.3578623176666243 -0.09605844660908225
680000000.0 0.2870359704069161 0.2515531426504485
700000000.0 0.0660875444159051 0.3960486301578739
720000000.0 0.11053322852942708 0.39458572850679285
740000000.0 -0.2543536097125179 -0.32848885343379375
760000000.0 -0.1188319373600857 0.387184598915573
780000000.0 -0.19265406178103633 -0.33373794863932255
800000000.0 0.23678918936912308 0.27217142184248333
820000000.0 0.1405007439692094 0.2861020229181083
840000000.0 -0.23102002607221211 0.14420445376089328
860000000.0 -0.14506214704070292 0.1718791839617386
880000000.0 0.03689074131267636 -0.17357280226498742
900000000.0 0.11425960046877078 0.014668613051312195
920000000.0 0.06170239419178268 0.036216816011908716
940000000.0 -0.04323994739866471 0.04224818295995528
960000000.0 0.031878627185994046 0.061815234900409896
980000000.0 -0.05951031284493705 0.06114318128210425
1000000000.0 0.0653502880630383 -0.05799385777562457
1020000000.0 -0.09746167150379863 0.018884812031946568
1040000000.0 -0.005100941426464084 -0.10228460638917183
1060000000.0 0.014159744510761999 -0.13269504832221937
1080000000.0 -0.13606518055733094 0.055192129026223696
1100000000.0 -0.14489850715149552 -0.09041361217068888
1120000000.0 -0.191271243798803 0.021063519214260074
1140000000.0 -0.17958661027103714 0.14586171889071833
1160000000.0 -0.17133360487912672 0.21304336653229838
1180000000.0 -0.18106172829249934 0.25845095918476985
1200000000.0 -0.2436647706033529 0.25213499772221887
1220000000.0 -0.10508426082068272 -0.365199105211992
1240000000.0 0.2892758734624383 0.2833146454264539
1260000000.0 -0.25645290439015306 -0.3412303909608482
1280000000.0 0.133524664805659 0.4196712036329715
1300000000.0 0.2599884910474014 -0.36113715537309016
1320000000.0 -0.3031743784642835 -0.3157229091609782
1340000000.0 -0.042572820739679024 -0.4294485539214791
1360000000.0 0.32520292786993205 -0.2779646685786658
1380000000.0 0.28213569956565226 -0.3242735190518429
1400000000.0 -0.2996184157835081 -0.29581172473089484
1420000000.0 -0.33662520401701646 0.22901071378610138
1440000000.0 0.3418887842439887 0.1743194407007858
1460000000.0 0.10454170823674547 -0.3393303023686422
1480000000.0 -0.31389114169448845 0.08266420923646861
1500000000.0 0.1576433758542548 0.24177903219964678
1520000000.0 0.2562568317585432 0.0077505007282829864
1540000000.0 -0.1750298181079 0.1399141385048431
1560000000.0 0.023955054411255942 -0.18551968166470878
1580000000.0 -0.003860387871347028 0.15692088671235543
1600000000.0 -0.10212863826140729 0.07747234925752117
1620000000.0 0.018362236532665718 -0.09781552027932107
1640000000.0 -0.07601604332188204 0.02546237516956709
1660000000.0 0.035223652240991034 -0.04709234422077134
1680000000.0 -0.04056297431546426 -0.0020137734672459437
1700000000.0 -0.023795506639817048 0.016968612046597102
1720000000.0 -0.014825858015663922 0.0003986136760097146
1740000000.0 -0.008219949266795774 -0.0009753505839014908
1760000000.0 -0.01514319535750242 -0.016020753786484602
1780000000.0 0.04754972023227643 0.02638857532668754
1800000000.0 -0.06886718075039755 0.06157867932931605
1820000000.0 0.1050194045567896 0.07582388048415152
1840000000.0 -0.10625489179645488 0.1371526323748186
1860000000.0 -0.17284084743504832 -0.13137445005144988
1880000000.0 0.14417423376331098 -0.21652800001335304
1900000000.0 0.23111774555311104 0.19351970723120288
1920000000.0 -0.301876154605275 0.144194572862662
1940000000.0 0.3387468015669625 -0.11774880585949489
1960000000.0 -0.3158305039886222 -0.20639165110173666
1980000000.0 -0.28659453141765284 0.2634703952839167
2000000000.0 -0.2851188178627585 0.2830282484156341
2020000000.0 -0.1530147158644739 0.3840944987225581
2040000000.0 -0.2228066425365807 0.36103201779496064
2060000000.0 0.11907166491985832 0.4155951978408233
2080000000.0 0.35516104354080935 0.24978591822811624
2100000000.0 0.41610581201660757 -0.12345361466471212
2120000000.0 0.10247652126021495 -0.41714483373170014
2140000000.0 -0.37812461681745185 -0.18370718825145588
2160000000.0 -0.2994890909597295 -0.27278445312969213
2180000000.0 -0.316376942591041 0.22439987436991923
2200000000.0 0.029734743365918456 0.36929659610869886
2220000000.0 0.207874064096683 0.2888124425932035
2240000000.0 0.33115632002366574 0.11018638074445249
2260000000.0 0.34725758222586206 -0.01571823657534993
2280000000.0 0.30617599121703654 -0.17498649269998295
2300000000.0 -0.002118125446612785 -0.3686003961832858
2320000000.0 -0.3955098054923021 -0.01883677846108582
2340000000.0 0.26737556873044194 0.3392821435215283
2360000000.0 -0.2418786805401205 -0.408900367498062
2380000000.0 0.3987299532539225 0.3364560462087383
2400000000.0 -0.5443757757074433 -0.1694962402211428
2420000000.0 0.5677987483252955 -0.24433507769240245
2440000000.0 -0.2854352053538129 0.5962940462970209
2460000000.0 -0.14760956111992277 -0.6800523633904213
2480000000.0 0.3340250137336328 0.6394535062671712
2500000000.0 -0.26925316008301253 -0.6858335334791332
2520000000.0 -0.011360231431795766 0.7432464679404364
2540000000.0 0.4367508406607624 -0.598878238504876
2560000000.0 -0.731975170209872 -0.015657508660306088
2580000000.0 0.22930240105198874 0.6763816964028767
2600000000.0 0.4526919098926441 -0.517609017385279
2620000000.0 -0.6131292949892768 -0.2300622051988116
2640000000.0 -0.6142897328289714 -0.05769395189127305
2660000000.0 0.12337050561086503 0.5589732334186831
2680000000.0 0.44918057334511374 -0.2741127628917506
2700000000.0 -0.42711571726146197 -0.22085010374503955
2720000000.0 0.09501291236452263 0.42447505306230665
2740000000.0 0.2624771403222058 -0.2924270958334688
2760000000.0 -0.35384563539686625 0.03922903673266931
2780000000.0 0.311332870098966 0.10015377052614693
2800000000.0 -0.2770050998339744 -0.12910778692946234
2820000000.0 0.28392882961447585 -0.06780087183659124
2840000000.0 -0.0645352369609318 0.27787832861907186
2860000000.0 -0.22662648586030165 -0.1725622392613144
2880000000.0 0.17739045337496903 -0.22530062791614525
2900000000.0 0.10160284486345204 0.2713090870140207
2920000000.0 -0.08970120741723271 -0.2789469241123683
2940000000.0 -0.13496156548291485 0.26349438448826445
2960000000.0 0.17150992764258108 0.23973542002856776
2980000000.0 0.02502036282296222 0.2957708349486124
3000000000.0 -0.2355902006509027 0.1820135929458543
3020000000.0 -0.06661211009765954 -0.28968695943133355
3040000000.0 0.13724192636276605 0.26359827011567555
3060000000.0 -0.21594382251161345 -0.20402428767593855
3080000000.0 0.24754455929516525 0.163714282611647
3100000000.0 -0.29462476767569806 -0.007543807752713591
3120000000.0 0.22422863415182004 -0.18143445135751832
3140000000.0 0.04306492184921472 0.277108291716622
3160000000.0 -0.25732140435758916 -0.06268024709436851
3180000000.0 0.20742873443355345 0.13310888190108064
3200000000.0 -0.06272266921493465 0.21295343558997382
3220000000.0 -0.19262412240707497 -0.00425406480246388
3240000000.0 0.12053598262775952 -0.10677975898747692
3260000000.0 -0.12733421440118708 0.00975471317150612
3280000000.0 0.0037046890679230306 0.09803511953393637
3300000000.0 0.05101537956319816 0.051694090419171286
3320000000.0 0.020940857368679816 0.042979059412328616
3340000000.0 -0.02110777884675726 0.017517828501003967
3360000000.0 0.010096951363337452 0.0017237461456976423
3380000000.0 -0.0009845488069376454 0.005720784193715045
3400000000.0 0.013921850306450656 0.013683467914909793
3420000000.0 -0.0235982245085945 0.024012196503268125
3440000000.0 0.044803796442688344 -0.005421865473956301
3460000000.0 0.017848691169037915 -0.05064579321425819
3480000000.0 0.0553031062431577 -0.03311966599832772
3500000000.0 -0.03534068177175402 -0.06825618453657945
3520000000.0 -0.0885104745373086 -0.014877221979915542
3540000000.0 0.10292621980251493 -0.00693467936840545
3560000000.0 -0.10417895353184554 -0.050422553340355045
3580000000.0 0.05380393843719714 0.1187718382029302
3600000000.0 -0.14878178504996367 0.016964895684212156
3620000000.0 -0.162551481139508 0.0044700769669798355
3640000000.0 -0.0744445412220769 -0.15860966786674438
3660000000.0 -0.08352611911616324 -0.16592558064583365
3680000000.0 -0.033091207576214796 -0.1878571343610103
3700000000.0 0.030720454052999693 -0.1878557155348043
3720000000.0 0.15692134085747467 -0.10512965602101448
3740000000.0 0.1692352615864321 -0.06998808502588942
3760000000.0 -0.16983135204202093 0.04431162670767567
3780000000.0 0.15970456161852734 -0.04288377135010318
3800000000.0 -0.0017676546666557248 -0.15661028827636284
3820000000.0 -0.058787755279487736 -0.13710019957872466
3840000000.0 0.13245373920594647 -0.056022428325959814
3860000000.0 -0.019083420885176887 0.14442065433919798
3880000000.0 -0.010432737943521689 0.15314880295610073
3900000000.0 0.15781744064960712 0.004440927466540547
3920000000.0 -0.16444216929739439 0.010501007115777457
3940000000.0 -0.013638956808215582 -0.16723753511628814
3960000000.0 0.065205365086699 -0.15790263336548166
3980000000.0 -0.09771290518821671 -0.1396067558105767
4000000000.0 -0.1439102400391782 -0.07498641757931074
