! Created with skrf (http://scikit-rf.org).
# Hz S RI R 50.0 
!freq ReS11 ImS11
400000000.0 -0.750371324667471 0.40168894155598744
420000000.0 -0.3312504654254239 0.7940731631328037
440000000.0 0.634428237223364 0.5384604493629804
460000000.0 0.7630202839160535 -0.221982242715532
480000000.0 -0.08368672137751128 0.7300587712808726
500000000.0 -0.4410500140619241 -0.423436708753634
520000000.0 -0.18094232282346118 0.47851684689034873
540000000.0 -0.2302259738496053 -0.3832564218792109
560000000.0 0.3037010230055631 -0.22674353202123695
580000000.0 -0.12547967959049175 0.32204365840528293
600000000.0 0.3342230516942263 -0.06471712360092559
620000000.0 -0.2710206308384122 0.22252052596491226
640000000.0 -0.2895519727145377 0.2184073299191127
660000000.0 -0.36060320437783777 -0.0852632005707273
680000000.0 0.2646013675832078 0.27488779896941434
700000000.0 0.06487057209248133 0.39659163800818614
720000000.0 0.11449597603976049 0.3936667314983419
740000000.0 -0.2754358875073299 -0.310773376973622
760000000.0 -0.11835372194886545 0.38764233337925763
780000000.0 -0.1915501955055053 -0.3341785475502995
800000000.0 0.22786485034835907 0.27978332383365273
820000000.0 0.14111994877760647 0.2861533458478232
840000000.0 -0.24420539984013998 0.12015571751733593
860000000.0 -0.15944647786358457 0.15836647192916925
880000000.0 0.052907584751136744 -0.1689218750392501
900000000.0 0.11398240974393464 0.013445009683281607
920000000.0 0.06602597724177824 0.02696874342249429
940000000.0 -0.041988009257809905 0.04353396002523865
960000000.0 0.024513268786422224 0.06501152099997988
980000000.0 -0.05607608313658627 0.06402295403108745
1000000000.0 0.05540238758248762 -0.06732024878941995
1020000000.0 -0.09492037654070022 0.028104145392545937
1040000000.0 -0.0018364110857772011 -0.10193038110138186
1060000000.0 0.028591577077155695 -0.13024600199773387
1080000000.0 -0.1384529524492175 0.04883931899714152
1100000000.0 -0.14053488505433528 -0.09681706507594404
1120000000.0 -0.19250364527481845 0.001199713315426822
1140000000.0 -0.1774112149908266 0.1485677203252565
1160000000.0 -0.20439233172088386 0.1813317900615168
1180000000.0 -0.17936713149948721 0.25952316716527296
1200000000.0 -0.23178166710133657 0.26350403740866635
1220000000.0 -0.12345406040286618 -0.3595730800915443
1240000000.0 0.30589678103883905 0.2654222769287332
1260000000.0 -0.27814996668118386 -0.3236498475482627
1280000000.0 0.14624887059631775 0.41526972531926387
1300000000.0 0.24865339745701898 -0.3691017692721282
1320000000.0 -0.2989026783042363 -0.3198538118935044
1340000000.0 -0.03074340719093704 -0.4304000421749871
1360000000.0 0.32649789645056504 -0.2764296513496056
1380000000.0 0.2837418519009134 -0.32300515378062405
1400000000.0 -0.2991710157604396 -0.29632444012528036
1420000000.0 -0.3244599521757276 0.24555290234191882
1440000000.0 0.3407772740659526 0.17588969558341505
1460000000.0 0.09848117743539976 -0.3410680744585069
1480000000.0 -0.31479681377641067 0.07978550470892513
1500000000.0 0.15738270024450748 0.24198693383598915
1520000000.0 0.25607216033025937 0.0017820655661622456
1540000000.0 -0.18244005477754793 0.13028667763083457
1560000000.0 0.009928875664703985 -0.18639907064192565
1580000000.0 0.010956564078017544 0.1561552229825878
1600000000.0 -0.08256330801620684 0.09788635234121908
1620000000.0 -0.009744758850357686 -0.09914221332495705
1640000000.0 -0.07725316626413042 0.020554106226268676
1660000000.0 0.036618701936144714 -0.04579150099099641
1680000000.0 -0.03788470020353193 0.014773380657999415
1700000000.0 -0.0012991799403457313 0.02916906387644419
1720000000.0 -0.014791292231586182 -0.0018495300111401741
1740000000.0 -0.005023033833013857 0.006651246133166992
1760000000.0 -0.02165936045607492 0.004842778207323789
1780000000.0 0.051960289880735144 0.01666078244577127
1800000000.0 -0.05367077461550176 0.0753994727494483
1820000000.0 0.11444034721875124 0.06127172015777426
1840000000.0 -0.09842198200831848 0.143302400555653
1860000000.0 -0.17897502131296256 -0.12332743148410145
1880000000.0 0.13232470224961967 -0.22444018627701942
1900000000.0 0.24260642100445404 0.17936580856788298
1920000000.0 -0.29909591342359915 0.15038729726464925
1940000000.0 0.3407366948914823 -0.11239753313730584
1960000000.0 -0.3106060446553314 -0.21432783160565994
1980000000.0 -0.2920772382734419 0.25757071167369666
2000000000.0 -0.2897356537056237 0.2786108712667839
2020000000.0 -0.149534026214349 0.38563109089299363
2040000000.0 -0.23617230923051058 0.35262787440801896
2060000000.0 0.14381948195943725 0.40740606775452953
2080000000.0 0.3494229075436916 0.25787767549248564
2100000000.0 0.4171255756748238 -0.12003414914388343
2120000000.0 0.08113409551171132 -0.42168867249018066
2140000000.0 -0.39988556113423623 -0.12878756872124408
2160000000.0 -0.30386628176210945 -0.2677158769205296
2180000000.0 -0.3106953633431572 0.23202490618852337
2200000000.0 0.024705589991014847 0.36966814648705487
2220000000.0 0.23804068358274605 0.2644930511258067
2240000000.0 0.33697095728191473 0.09287886697525272
2260000000.0 0.345588344900514 -0.04223834971742891
2280000000.0 0.29105344332523586 -0.19999731948618538
2300000000.0 -0.01106418661717674 -0.3688520822223815
2320000000.0 -0.39517729039788707 0.03975379890598037
2340000000.0 0.2947594600735876 0.31716421056056915
2360000000.0 -0.2969367057761385 -0.3725988583215905
2380000000.0 0.4470396375068397 0.2715808876953503
2400000000.0 -0.5646283468827373 -0.08817594829392283
2420000000.0 0.5240441134022088 -0.33006932892589536
2440000000.0 -0.19619600403359388 0.6322837312354871
2460000000.0 -0.21762700560487883 -0.6617659763178342
2480000000.0 0.4528285981995223 0.5618444612122913
2500000000.0 -0.3644573284238173 -0.6405565843250395
2520000000.0 0.08904030687914413 0.7376844579678441
2540000000.0 0.3282991632558122 -0.6639193374832946
2560000000.0 -0.7244220935078125 0.1023236430855161
2580000000.0 0.3304897181291333 0.6321377297527048
2600000000.0 0.38611373836125457 -0.5677828069342206
2620000000.0 -0.6429413376368801 -0.1173503239046506
2640000000.0 -0.6156108788386953 -0.0013555248923798123
2660000000.0 0.21398590933016903 0.5293991479814495
2680000000.0 0.3945997431350511 -0.34598188747973874
2700000000.0 -0.44763449026985247 -0.17204718347300335
2720000000.0 0.13362169429608026 0.4124413179368317
2740000000.0 0.2365211336429449 -0.31213295673272196
2760000000.0 -0.34902974874771203 0.06407344324902724
2780000000.0 0.3156743309573567 0.08157782133823807
2800000000.0 -0.2801601950863501 -0.11980835421392919
2820000000.0 0.28105034356105923 -0.07531074673767468
2840000000.0 -0.059810970664362 0.2780641087154631
2860000000.0 -0.24770964903749887 -0.1382554218853378
2880000000.0 0.15574456434961306 -0.23977354335423412
2900000000.0 0.1442032627142581 0.2500345473744669
2920000000.0 -0.12827740236974178 -0.2625255132412453
2940000000.0 -0.09219586655850688 0.28046614499861233
2960000000.0 0.1933397729295079 0.22170400508425045
2980000000.0 0.06424473830896099 0.2894654145013459
3000000000.0 -0.22760235664535858 0.19064961042684223
3020000000.0 -0.06762793369221357 -0.288417136549774
3040000000.0 0.21724047726259846 0.20142933523476586
3060000000.0 -0.263471321746779 -0.1364728820580291
3080000000.0 0.25332247969195537 0.15404150730797342
3100000000.0 -0.29419050701703464 -0.0015537722216664453
3120000000.0 0.20979555926382026 -0.19736926626046933
3140000000.0 0.03281859041728278 0.2780625539915011
3160000000.0 -0.2633064048270201 -0.02704415489900231
3180000000.0 0.2139778242062813 0.12218262260891909
3200000000.0 -0.05277722950155148 0.21528059001714714
3220000000.0 -0.19246459529629545 -0.000637892819354315
3240000000.0 0.1196092831239102 -0.10676042446781515
3260000000.0 -0.1270311622649158 -0.011547216032925078
3280000000.0 -0.032889547963508514 0.09250802003115778
3300000000.0 0.05796795859732762 0.043414012192909364
3320000000.0 -0.005541380686214229 0.04753979613223484
3340000000.0 -0.025196634796503872 -0.01091184740133028
3360000000.0 -0.009730303445042924 -0.003582119949882008
3380000000.0 -0.005700050724531035 -0.0011953804066828328
3400000000.0 0.019277878577921983 -0.0034714073357977357
3420000000.0 0.01092838791580589 0.03173320907962938
3440000000.0 0.04275127169577754 -0.013496158433459355
3460000000.0 -0.012709241074640127 -0.052042803220063924
3480000000.0 0.029893834934713582 -0.0567759958178202
3500000000.0 -0.05782580302010102 -0.05028595925311236
3520000000.0 -0.08928044112945639 0.002753146653798359
3540000000.0 0.10116089674100211 -0.018078528795018856
3560000000.0 -0.11305394360032249 -0.023737512458308994
3580000000.0 0.0684199390459949 0.11073967222556927
3600000000.0 -0.14517851833621415 0.03629196641407119
3620000000.0 -0.1622035548769965 0.011382132079798364
3640000000.0 -0.09182243509684133 -0.14951829820180162
3660000000.0 -0.10983330077866796 -0.14994259819323105
3680000000.0 -0.05277550612468278 -0.18324460611139806
3700000000.0 0.00297887025007494 -0.19030603715278024
3720000000.0 0.14585348225609782 -0.12016539011127125
3740000000.0 0.16328107920148424 -0.08296568864050524
3760000000.0 -0.16850307873860323 0.04874095910598661
3780000000.0 0.15805971349432146 -0.04795676204828213
3800000000.0 -0.009439180902887954 -0.1563642298299193
3820000000.0 -0.04528670133410737 -0.1424707973712595
3840000000.0 0.13335801869705644 -0.05454477191612794
3860000000.0 -0.015790973646505405 0.1452476599220698
3880000000.0 0.004231056372167802 0.15382037021273384
3900000000.0 0.15790336862772344 -0.011476310513934057
3920000000.0 -0.16230037526075888 0.031954136796938315
3940000000.0 -0.039428391732462625 -0.1638153789308928
3960000000.0 0.05371586032603803 -0.1628890679031521
3980000000.0 -0.084186143190213 -0.14926073829623626
4000000000.0 -0.11444659078409977 -0.11624137111825686
