! Created with skrf (http://scikit-rf.org).
# Hz S RI R 50.0 
!freq ReS11 ImS11
400000000.0 -0.09774102753134574 0.8654181970265862
420000000.0 0.3740647784800641 0.7770566167550577
440000000.0 0.8205258801490194 -0.12975626593590187
460000000.0 0.34115393933495913 -0.7153454915098759
480000000.0 0.6683131224483055 -0.25569494960362105
500000000.0 -0.05984223240357862 -0.569358420071848
520000000.0 -0.15340292718153042 -0.46799032312072036
540000000.0 0.3010989358653042 -0.31194344291889875
560000000.0 -0.3218953097022146 0.15827634983882655
580000000.0 0.037916147460140485 0.33732742332964205
600000000.0 0.28014611444424065 -0.1879439111397632
620000000.0 -0.33972283050366264 0.1119544261447479
640000000.0 0.13615578217624594 0.364063125280339
660000000.0 0.3998917412631657 -0.03604304132449539
680000000.0 -0.003103489985254989 0.41972883770635805
700000000.0 0.22563649857173002 -0.3686830261241042
720000000.0 -0.2644581780742719 -0.3353790512725729
740000000.0 0.391954997063503 0.14650960325225473
760000000.0 0.09135843650383886 -0.39133097393448774
780000000.0 0.10087376437050774 0.35826289358986135
800000000.0 0.11618384366290335 -0.32405390855045707
820000000.0 0.28648391882154256 -0.0682628390944255
840000000.0 0.011145319179839543 -0.24787174822057106
860000000.0 0.1838415689601908 -0.10996487845244585
880000000.0 -0.07913638250070072 0.13769726031295557
900000000.0 -0.04108566207483512 0.08534574636464615
920000000.0 -0.06298840641868896 0.00401512166068021
940000000.0 -0.007091161075026269 0.04741288306198034
960000000.0 0.0040964600047151065 -0.0536749818370707
980000000.0 0.0420737739199402 0.05646687808240179
1000000000.0 -0.0011964235991012997 -0.08029438637503318
1020000000.0 6.162168321722184e-05 0.09835855677631224
1040000000.0 0.10451579857978353 0.0362659360522495
1060000000.0 -0.04036140081205199 0.1393491926666715
1080000000.0 -0.14341927154427306 -0.07067688121367215
1100000000.0 -0.12224720376243245 0.13249754803865416
1120000000.0 0.13511052823777395 0.15110141814711203
1140000000.0 0.20625878494659539 -0.10891418359145559
1160000000.0 0.2704519133768677 0.00636804389720676
1180000000.0 0.26284291311980135 0.15916842219454774
1200000000.0 -0.1210354409658674 0.3173659590250704
1220000000.0 0.039707859891362975 -0.36436087611407136
1240000000.0 -0.20555181255893892 0.337144779751327
1260000000.0 0.3997210138750308 -0.1380790730803631
1280000000.0 -0.44251894737825404 0.04133172905001888
1300000000.0 0.44089793181765974 0.11908281979932858
1320000000.0 -0.17032651864328519 -0.42034317260938975
1340000000.0 -0.3893468221874455 -0.2137655086471059
1360000000.0 -0.3323678662873269 -0.27814369116760557
1380000000.0 -0.37326626937976115 -0.20998334762419774
1400000000.0 -0.4001656236832737 0.10557128671993538
1420000000.0 0.042083171089850324 0.3952435852817557
1440000000.0 0.30299417399613665 0.21366676300941662
1460000000.0 0.20282902077767123 -0.2776007395627769
1480000000.0 -0.11273422580895724 -0.29243171914620864
1500000000.0 -0.27097549755840267 -0.08059029623539421
1520000000.0 -0.25365266990832686 -0.031772757328929965
1540000000.0 0.20725072226992122 -0.09603924942077814
1560000000.0 -0.026891816749561613 0.19479945216703576
1580000000.0 -0.14626539522302495 -0.09282890859312287
1600000000.0 -0.056737234232702084 0.1345836092690358
1620000000.0 0.11410749041483201 0.032079398420329884
1640000000.0 0.08981373422132659 -0.032465886463353195
1660000000.0 -0.06568245499202162 0.0262809141892564
1680000000.0 0.03945990192306431 0.026935707069893795
1700000000.0 -0.011075616235885965 0.026446051413275995
1720000000.0 -0.0013190948940176024 0.013185596461474018
1740000000.0 -0.020418233373789004 -0.0056687256661823475
1760000000.0 0.04263254924602969 0.0006116321182192491
1780000000.0 -0.04546753361115078 0.061198613941413536
1800000000.0 0.040508361439260204 -0.1061905562576565
1820000000.0 0.09965621345092031 -0.10674590141276079
1840000000.0 0.11570933728248406 0.13710471649190883
1860000000.0 -0.20547759680426522 -0.04120928373479056
1880000000.0 0.08977047855320533 0.22320118126459906
1900000000.0 0.2291108641084856 -0.14944179807442776
1920000000.0 -0.2038446894359491 -0.22682587086638684
1940000000.0 -0.32872604214692275 0.07230732797136322
1960000000.0 0.006860556682548075 0.3674898844539876
1980000000.0 0.38990195505076797 -0.04381723936030721
2000000000.0 0.08727514344747075 -0.4056170957083918
2020000000.0 -0.4300259358192982 0.01839844804690118
2040000000.0 -0.059714980380377536 0.4338288312134323
2060000000.0 0.43060007642845544 0.08401273056509993
2080000000.0 0.31126286528068803 -0.3035597892049783
2100000000.0 0.10923096754221052 -0.4138382739962507
2120000000.0 -0.13966107365328054 -0.3949594916286303
2140000000.0 -0.3758636942717582 -0.1574899468255958
2160000000.0 -0.11414468176774821 -0.37612047884707817
2180000000.0 -0.3501304663760198 -0.13625726397432025
2200000000.0 -0.3351282437676748 0.13412610798942817
2220000000.0 -0.21475927523123745 0.271862786395078
2240000000.0 -0.12461624067730867 0.3176885478797006
2260000000.0 -0.03000993884820427 0.3396263632867725
2280000000.0 0.018138645018864547 0.3456791650391451
2300000000.0 0.348449700669286 0.09970933243670185
2320000000.0 0.03986108471907901 -0.38645102939824044
2340000000.0 -0.3915599283286107 0.15805641696775918
2360000000.0 0.4609520627371177 0.05320233764970608
2380000000.0 -0.5076859409612569 -0.05159768106098446
2400000000.0 0.5595419363809628 0.01477794632198957
2420000000.0 -0.5507777533598839 0.2633789857272225
2440000000.0 0.3330140117142764 -0.5684912554305388
2460000000.0 0.10238957259073996 0.6907238361978353
2480000000.0 -0.4121782742371083 -0.6006998519976321
2500000000.0 0.4551474434633528 0.5939400330869117
2520000000.0 -0.26129096909203026 -0.7121083415115494
2540000000.0 -0.04580882321660533 0.758501419332745
2560000000.0 0.5529390986093771 -0.5117572967743448
2580000000.0 -0.6926561784189911 -0.25704120360109073
2600000000.0 0.2499877198080402 0.6694360455254134
2620000000.0 0.37488360445895225 -0.571762398107539
2640000000.0 0.029228864756540802 -0.6453457956721502
2660000000.0 -0.4852217209846954 0.355331697628233
2680000000.0 0.5280481400899494 0.16248407572970805
2700000000.0 -0.16258439477819453 -0.4788850658950959
2720000000.0 -0.2817901200333322 0.3608589107451567
2740000000.0 0.41601833043419945 0.02061891573114228
2760000000.0 -0.3001760747439908 -0.23261592256636415
2780000000.0 0.329170118515545 0.12633378258760233
2800000000.0 -0.3183292891045921 0.0831848546647379
2820000000.0 0.0005569887063534871 -0.31302158846915734
2840000000.0 0.2962410476864781 0.05472636410137772
2860000000.0 -0.13138791062804722 0.265677021825969
2880000000.0 -0.2020026352336804 -0.2126325632845048
2900000000.0 0.25942353375917926 0.1345981692846762
2920000000.0 -0.021353615444680084 -0.2931297989750509
2940000000.0 -0.29677176002767097 0.037386908281122476
2960000000.0 -0.19634528828886988 0.2281429668042144
2980000000.0 -0.2794327004471172 0.12225261833629818
3000000000.0 -0.2677306373665111 -0.1566178341822925
3020000000.0 0.05113901349095726 -0.3082696997811539
3040000000.0 0.288662689154689 0.11536481443456797
3060000000.0 -0.2934971899493125 0.0982184556899545
3080000000.0 0.20993884513920144 -0.22168358946415062
3100000000.0 -0.0478105256783299 0.2955050550573853
3120000000.0 -0.035119888386839916 -0.28803078601489085
3140000000.0 0.17599590423470643 0.21881054531343694
3160000000.0 -0.266906108079495 -0.0216731733253494
3180000000.0 0.1675452352564229 0.1860328768403532
3200000000.0 -0.12161975470270234 0.19273558745308253
3220000000.0 -0.18320676962866864 -0.08028055631351386
3240000000.0 0.07260244710485293 -0.15264047427812769
3260000000.0 -0.0721292532404131 0.11337912062108026
3280000000.0 0.10212470045548942 0.014648700678808382
3300000000.0 0.05885457411632641 -0.047873767482701904
3320000000.0 0.035476445224492066 -0.03720190144993643
3340000000.0 0.023314386034417066 0.019621778494186327
3360000000.0 0.006705841401823272 0.011522656530279955
3380000000.0 -0.003671041596444778 0.0026396323290575436
3400000000.0 -0.0034464809586107117 -0.019124000369094053
3420000000.0 -0.010474539087262492 0.034142209397045695
3440000000.0 -0.023343361109684154 0.0438874175557687
3460000000.0 -0.05634512188365459 -0.013602608299447398
3480000000.0 -0.0626548082784777 0.026075565169040454
3500000000.0 -0.03875242132687167 0.06760445100016463
3520000000.0 0.020213319056076606 0.08814418648635533
3540000000.0 0.10176504522149521 -0.02045483594657893
3560000000.0 -0.1167688458869826 -0.01567616526729033
3580000000.0 0.05958782822610257 0.11994016397684851
3600000000.0 -0.12554370061905384 0.09110423288951222
3620000000.0 -0.1338586664692632 0.10482940235338739
3640000000.0 -0.1754483221072301 0.043502400613735163
3660000000.0 -0.14729333030062902 0.12041191870422842
3680000000.0 -0.1711425053673418 0.08814069612084306
3700000000.0 -0.18685607916047658 -0.04110661322061791
3720000000.0 -0.03073209208945879 -0.1856050578845842
3740000000.0 0.15574447272537936 -0.0960886351061386
3760000000.0 -0.1763245175162029 0.007796456997526585
3780000000.0 0.16103134988274576 0.052402445391920634
3800000000.0 0.008827940641908845 -0.1610433704994818
3820000000.0 -0.1244078134893848 -0.0911307379101211
3840000000.0 -0.016435033140548453 -0.1467922245141025
3860000000.0 0.14403003065435188 0.03293972042697775
3880000000.0 0.15304177510666658 -0.012625795433350767
3900000000.0 -0.0007224247257197526 -0.15644983566573117
3920000000.0 -0.11799253138941244 0.10955105560792888
3940000000.0 0.06597675149879577 -0.15210611713536107
3960000000.0 0.17085239728467927 -0.01122659389266633
3980000000.0 0.13755579789938896 -0.10403864045285782
4000000000.0 0.14759611817581172 -0.0766010427274448
