!Created with skrf (http://scikit-rf.org).
# Hz S RI R 50.0 
!freq ReS11 ImS11
400000000.0 0.5766405314687153 0.6550239307709425
420000000.0 0.7952553546798732 -0.28481204807205046
440000000.0 0.6283078454793862 -0.48995151073679516
460000000.0 0.7334430777201884 0.06378292373814384
480000000.0 0.16544349302694936 -0.6579671986539805
500000000.0 -0.36829030069255186 0.4749117539787698
520000000.0 -0.13050150813212177 0.49430197716987323
540000000.0 -0.12864505349492283 -0.42014823637683474
560000000.0 -0.07964650059362322 0.3947692228563555
580000000.0 -0.34665179802287305 -0.11372817993891275
600000000.0 0.3300923463301294 -0.13385804474620402
620000000.0 -0.15182132684087835 -0.3222141322802341
640000000.0 0.39831325800445494 -0.11375804445289465
660000000.0 0.396757152824173 0.12260618456116076
680000000.0 -0.2650672883656929 -0.35453017368883755
700000000.0 0.144836021577191 0.43904308925468954
720000000.0 -0.3235179171186549 0.3379110487129521
740000000.0 0.19434823586905647 0.3782325473423788
760000000.0 -0.3952530386650471 -0.029737146808839106
780000000.0 -0.21780965656714193 -0.2984433283563725
800000000.0 0.03366755692670492 -0.3338803118680342
820000000.0 -0.22977749672167613 0.17035514498055876
840000000.0 -0.08063908854425124 -0.1988560166107899
860000000.0 -0.1628536701804282 -0.06862817077099469
880000000.0 -0.08185951655744833 0.12204154281579208
900000000.0 -0.06836945758442564 -0.0717395664826641
920000000.0 -0.0458465538571505 -0.033956913132296714
940000000.0 -0.008595606988351004 0.0362922758393982
960000000.0 0.03951973299415707 0.008153904215348744
980000000.0 0.043166787462421426 0.04536042529609389
1000000000.0 -0.04881689145312459 -0.08843808808275176
1020000000.0 -0.12353987251377405 -0.01192001525704478
1040000000.0 0.13382725769016415 -0.006205972534609309
1060000000.0 -0.032880407372991145 -0.15317772725776777
1080000000.0 0.020610130009845823 0.17548166101388216
1100000000.0 0.10591825970635815 -0.16909690816990744
1120000000.0 0.050685898874798685 0.21811555231515084
1140000000.0 -0.18181246675561388 -0.1755371215269621
1160000000.0 -0.12039215303067846 -0.25337506907335294
1180000000.0 0.026173400268997032 -0.31245521487101974
1200000000.0 0.3459488053118935 0.052256457307288846
1220000000.0 -0.3762237655782445 0.00131047306215399
1240000000.0 0.35567899483066656 -0.1712867195374925
1260000000.0 -0.36849771690543653 -0.17175903747920226
1280000000.0 -0.4240088561855214 0.01100084382396055
1300000000.0 0.37830437085212065 0.21194077132258565
1320000000.0 0.41961397619418683 -0.11235299045489862
1340000000.0 0.4035550019853468 0.16805733367632258
1360000000.0 0.4283130760775777 -0.09918899172028531
1380000000.0 -0.04161495657236183 -0.4273328781950849
1400000000.0 0.051861878722590765 -0.416548522616101
1420000000.0 -0.3858657949091035 0.12878815563207954
1440000000.0 0.3397343764527947 0.18073922661820915
1460000000.0 0.1909457309707459 -0.30011532225178517
1480000000.0 -0.20208263721869113 0.2506239228718719
1500000000.0 0.27407863852395564 -0.06531570789038542
1520000000.0 0.14338547097344279 0.1998131605246432
1540000000.0 0.16155945061391971 0.1439170376914052
1560000000.0 -0.1742291374045023 -0.07337382809849011
1580000000.0 0.09588609237986119 -0.14138155786510823
1600000000.0 -0.0705887422151084 -0.12172235766825057
1620000000.0 0.047448825063029366 0.09437821254115586
1640000000.0 -0.08094311737264263 0.005451858945150046
1660000000.0 0.06455452089721671 -0.016005364384833774
1680000000.0 -0.029506627086976805 -0.031388694347214204
1700000000.0 0.019707751229937426 -0.008652266831236178
1720000000.0 -0.007643141568433334 -0.0002671678836545439
1740000000.0 -0.00973260975602568 -0.005366423900423675
1760000000.0 0.016761074717377387 0.020090683105574176
1780000000.0 -0.030301248221679216 0.03982973417642078
1800000000.0 -0.07491364049765531 -0.057765055790292695
1820000000.0 0.09842091440280842 0.08261189500310934
1840000000.0 -0.09098406379315263 0.14037844660474816
1860000000.0 0.1502077049772522 0.14037156116465177
1880000000.0 0.13991131540999016 -0.19402218421234504
1900000000.0 -0.2592773530975934 -0.09706185368776343
1920000000.0 0.11734112067661405 -0.29236292432808436
1940000000.0 -0.2663936439088925 -0.20617991589629803
1960000000.0 -0.3345792859529176 -0.14607708430985727
1980000000.0 0.29170471459161523 0.2735534810293578
2000000000.0 0.1616379123676308 -0.39020997889842735
2020000000.0 -0.2890309666187159 -0.32154551318749786
2040000000.0 0.13106562036796354 0.41775048282840593
2060000000.0 0.34695347311276376 0.26585401842124323
2080000000.0 0.42447678399860156 0.08106043817002163
2100000000.0 -0.0695633002197855 -0.41830673185912426
2120000000.0 -0.04616047641655935 -0.40928750991849816
2140000000.0 0.2171147369486431 -0.3306950057133254
2160000000.0 0.3826255653620701 -0.02335621783499176
2180000000.0 0.3721839506207925 0.03203239522585756
2200000000.0 0.34796315182797694 -0.10627074455920726
2220000000.0 -0.31166717307308445 -0.17001051934349212
2240000000.0 -0.3248156699624573 -0.12499891045761388
2260000000.0 -0.3416428996109478 0.05114109355791493
2280000000.0 0.24475615203826537 0.24506345306288435
2300000000.0 0.21624159578217092 0.27804228896514627
2320000000.0 0.1404010988012602 0.3473802652243723
2340000000.0 0.058680368038957695 -0.40517221550710003
2360000000.0 -0.384222044630389 -0.2336685554953505
2380000000.0 0.046204696810792735 0.49813547675099257
2400000000.0 -0.4977975221807309 0.2559859398685216
2420000000.0 0.5211891541543451 -0.318115348436573
2440000000.0 -0.5060827327330107 0.4177107950047679
2460000000.0 -0.6800109082405924 -0.1658049267933823
2480000000.0 0.6776497345817576 0.27528617253108323
2500000000.0 -0.44693611772134983 -0.6059143588418056
2520000000.0 0.7002429078362112 -0.31107651687254895
2540000000.0 -0.6202374692611596 -0.4567029448451159
2560000000.0 -0.3149157416626883 0.6995454930317461
2580000000.0 -0.07007098068953574 -0.7499177068448168
2600000000.0 -0.7222182300168185 0.11917466762512821
2620000000.0 0.07639481427016269 0.7024150857638255
2640000000.0 0.4950432366721173 -0.4497139492887157
2660000000.0 -0.4890313712481054 -0.3956134625024183
2680000000.0 -0.18933974851455268 0.5525958771642744
2700000000.0 -0.30878980011887663 -0.4336331958510572
2720000000.0 -0.07271505238422166 0.4789833385181506
2740000000.0 0.39323954298062963 -0.1869683679206763
2760000000.0 -0.28654063271622854 0.26684444988018763
2780000000.0 0.35922192214478005 0.02525457669115118
2800000000.0 -0.25806030768239785 -0.21413814087107058
2820000000.0 0.17599535432018348 -0.2610658075826514
2840000000.0 -0.09838434070896945 0.2902006583732363
2860000000.0 -0.09682478704343933 -0.2823774418219192
2880000000.0 0.16404462462762495 -0.24408284339504147
2900000000.0 -0.26296779597947373 -0.1308623532284812
2920000000.0 -0.2123618336364869 0.2119538134488349
2940000000.0 0.08401200440697744 -0.2987235951294375
2960000000.0 -0.2645096035214546 -0.17175346122381077
2980000000.0 -0.312563400115072 -0.035055137801945566
3000000000.0 -0.3137407679418446 -0.00495135705034538
3020000000.0 0.2022992342936899 0.2443867346850158
3040000000.0 0.2421255818770042 0.20799283458117618
3060000000.0 0.11679466627509053 0.29224336620872676
3080000000.0 0.2674667081142823 -0.14604057504003565
3100000000.0 0.012882105449042945 0.2950578464369285
3120000000.0 -0.2507298904157029 -0.1379517561451806
3140000000.0 -0.15134282149953243 0.22990203905808854
3160000000.0 -0.009107461503538196 -0.2625717548938553
3180000000.0 -0.14921344098052244 0.19869087946125225
3200000000.0 0.20997381449270708 -0.10354654633501742
3220000000.0 0.08369687716351877 -0.19260456469555057
3240000000.0 -0.07656229234123993 -0.1613135249549684
3260000000.0 0.13460181221340853 -0.062220504547027274
3280000000.0 0.08749568462218421 0.05760547020883039
3300000000.0 -0.0015948477549448498 -0.07158451247609413
3320000000.0 -0.0025403761128261464 -0.04527635832127554
3340000000.0 0.020069484511456542 -0.013242564693181864
3360000000.0 -0.003155073069051825 0.008974633502071604
3380000000.0 0.00037902618787519503 0.0010953396459814021
3400000000.0 -0.00954746058313987 0.011020159010244565
3420000000.0 0.023149466655324927 0.021119582823917394
3440000000.0 0.04495344948496961 -0.00535055979070867
3460000000.0 0.0571092145052246 0.01898462588086524
3480000000.0 -0.06062701615693917 0.043527433837389926
3500000000.0 0.03145174202850305 0.08072403292271947
3520000000.0 0.07501166013879193 0.06953008686388427
3540000000.0 -0.037621004720570846 0.10858727693073014
3560000000.0 0.1047625593125653 -0.05599741851811148
3580000000.0 0.009925105441254857 -0.13069598348743242
3600000000.0 0.09712627938934891 0.11563460807259056
3620000000.0 -0.03070900105598357 -0.15922982445458542
3640000000.0 -0.14092225857418375 -0.11299061649713343
3660000000.0 -0.18360852772007047 -0.05414724388477845
3680000000.0 0.009638573385545541 -0.19371243634451407
3700000000.0 -0.1828958021240842 -0.06444178765611516
3720000000.0 -0.09975713158100215 -0.162251522824082
3740000000.0 0.18062411375553433 -0.027256528048834838
3760000000.0 -0.036354849217171234 -0.1744834274407524
3780000000.0 0.019283115568535077 0.17295225456832827
3800000000.0 0.04767924041697889 -0.16046659720322629
3820000000.0 -0.1567024444750683 0.020433210752664948
3840000000.0 -0.14583268155543452 -0.02561088846856747
3860000000.0 -0.08149818716785873 -0.11916787426240787
3880000000.0 0.1352279264563161 -0.05332091429343475
3900000000.0 0.09327786119841244 0.1165459298429822
3920000000.0 0.15299036332252663 0.01953598340568704
3940000000.0 -0.14371160649711004 0.08632023074624044
3960000000.0 -0.09303077920070355 0.14837580158047595
3980000000.0 0.026493133537431175 0.170845057628396
4000000000.0 0.15134503732318214 -0.06696215947819693
