!Created with skrf (http://scikit-rf.org).
# Hz S RI R 50.0 
!freq ReS11 ImS11
400000000.0 0.5599073483513455 0.6696417898646141
420000000.0 0.8057960870760815 -0.25606684227290805
440000000.0 0.6376920579312427 -0.47759894554466353
460000000.0 0.7319494088547728 0.07600722248668906
480000000.0 0.18777954459567542 -0.6517799176230828
500000000.0 -0.3791718142702157 0.4655508916937897
520000000.0 -0.1380231464770781 0.4924079897876467
540000000.0 -0.1288627718703113 -0.4199144578728211
560000000.0 -0.0803980700615964 0.39428105005502206
580000000.0 -0.3403413003162424 -0.13332362820439
600000000.0 0.3297045124936413 -0.13686745809564066
620000000.0 -0.16702974355261452 -0.3159021777006739
640000000.0 0.389013924592275 -0.14084908227856194
660000000.0 0.40014938351923796 0.10691875132980436
680000000.0 -0.26419743464078344 -0.3547027540598725
700000000.0 0.1181340202452916 0.44687110607813096
720000000.0 -0.2754277811623111 0.3781312433696813
740000000.0 0.2105269194006939 0.3695569043406539
760000000.0 -0.39220150671868587 -0.05161100493918553
780000000.0 -0.20214039974929474 -0.30933531356269756
800000000.0 0.04997516494344857 -0.3328045975967469
820000000.0 -0.20613984084114945 0.19969785216396047
840000000.0 -0.1521899899277497 -0.15116589256558655
860000000.0 -0.17652093536820848 -0.01354028163701856
880000000.0 -0.06905524259948204 0.12956511446500668
900000000.0 -0.04915311586577362 -0.08644030347058168
920000000.0 -0.04740786585027876 -0.03195759295723107
940000000.0 -0.025392324242054086 0.02718621672595333
960000000.0 0.034960134040142594 -0.020474005401848943
980000000.0 0.05565775724990163 0.029694112469026222
1000000000.0 -0.05480751372137127 -0.08474850997825494
1020000000.0 -0.12193421721805013 0.022382788184872993
1040000000.0 0.1242652346773422 -0.049080999504728655
1060000000.0 -0.0746462471447843 -0.13814452356017395
1080000000.0 0.028906560440713342 0.1746625831216868
1100000000.0 0.11756613734054108 -0.16127175992758955
1120000000.0 0.0038340650020581503 0.22399516427384886
1140000000.0 -0.14313260758101545 -0.2080512011927681
1160000000.0 -0.08046659988951596 -0.26909007445173805
1180000000.0 0.05301952053961124 -0.30968622635435916
1200000000.0 0.3473627405487943 0.04619142622410052
1220000000.0 -0.37483299368051365 0.028415048451964756
1240000000.0 0.34717482104195585 -0.18684034834568797
1260000000.0 -0.3726888298133991 -0.16190051981121262
1280000000.0 -0.423450969145602 0.017752833404440515
1300000000.0 0.3648451829118774 0.2335487846579224
1320000000.0 0.4209461954771621 -0.10658767191713918
1340000000.0 0.3860874961675025 0.20545206250142886
1360000000.0 0.43608899282291713 -0.05839997198551008
1380000000.0 -0.022108430417671802 -0.42958446937853834
1400000000.0 0.04746447882106409 -0.4178272847819309
1420000000.0 -0.3847391031474096 0.13269357463937842
1440000000.0 0.3354036056979527 0.18791594982476326
1460000000.0 0.20127572488742204 -0.29326089271647965
1480000000.0 -0.20631078007073073 0.2474646978530886
1500000000.0 0.27370828818780085 -0.06906386209757395
1520000000.0 0.13854363528116131 0.20301672145543098
1540000000.0 0.17388279487701214 0.12824744005638408
1560000000.0 -0.16410057198544092 -0.09365581999458496
1580000000.0 0.06814550885447543 -0.15617178022380926
1600000000.0 -0.08517130180033267 -0.11090646592283257
1620000000.0 0.09283998985825072 0.04999430228151037
1640000000.0 -0.07554478120558022 0.030311769409402813
1660000000.0 0.06227641524783401 -0.024337744023290284
1680000000.0 -0.04200086830974085 -0.010611177565935579
1700000000.0 0.0011557296509098795 0.021571640108973517
1720000000.0 -0.008254926957572167 0.000645346072976178
1740000000.0 0.00814735092618595 -0.006389615837386156
1760000000.0 0.015277213487924036 -0.020905701736835668
1780000000.0 0.0019997207487251665 0.049737938558524444
1800000000.0 -0.0954869020528581 0.0002720067028232762
1820000000.0 0.12688770061731605 0.022752087595758048
1840000000.0 -0.05511278427451687 0.1583363087678787
1860000000.0 0.16659250226860248 0.12035189874706845
1880000000.0 0.14339934513259447 -0.19146830564217168
1900000000.0 -0.25875884128671356 -0.09986186947917194
1920000000.0 0.13265737263524138 -0.2861550103156645
1940000000.0 -0.2587903373296306 -0.21626311800404674
1960000000.0 -0.3259222686529524 -0.16516625816149133
1980000000.0 0.2913127193755934 0.27417487645390026
2000000000.0 0.17498748616214427 -0.38439907008943247
2020000000.0 -0.27554253035524473 -0.333028728982395
2040000000.0 0.07761980792641109 0.4310946635619695
2060000000.0 0.34905038299164703 0.2627122606079928
2080000000.0 0.4216101840647963 0.09500600468981163
2100000000.0 -0.09947561580434779 -0.4115707813072384
2120000000.0 -0.09825583155997347 -0.39903363535325465
2140000000.0 0.1692702441644557 -0.3569542989485519
2160000000.0 0.37917325227595555 -0.05340154426535358
2180000000.0 0.37284236762250644 0.012123921307612926
2200000000.0 0.3494913563545606 -0.09850279519737423
2220000000.0 -0.3171082738475156 -0.1559640147054519
2240000000.0 -0.32355922338760706 -0.12722846199017843
2260000000.0 -0.33437971174905845 0.0873343810107028
2280000000.0 0.27444831554829613 0.2103204927793122
2300000000.0 0.25812406653748365 0.23869649190142384
2320000000.0 0.1804649413863013 0.32804793971649127
2340000000.0 0.011748916558123252 -0.40953486965102515
2360000000.0 -0.40370647688822797 -0.19847265787114396
2380000000.0 0.07417241604489459 0.49476543609106804
2400000000.0 -0.4754198686571849 0.29567089513012457
2420000000.0 0.5087717337256277 -0.33774461279322004
2440000000.0 -0.5027454424963017 0.4223792430157007
2460000000.0 -0.6877855887193142 -0.13000018267558838
2480000000.0 0.6992109155524241 0.2164815916554396
2500000000.0 -0.4150732163676025 -0.6291866114968024
2520000000.0 0.712792284563409 -0.28194925277270116
2540000000.0 -0.6407076696396331 -0.4273934894308614
2560000000.0 -0.3145066445462042 0.6992646616847167
2580000000.0 -0.1332041433255274 -0.7404129152066633
2600000000.0 -0.726229200651853 0.08404780853258802
2620000000.0 0.09626134438040745 0.6982135220545456
2640000000.0 0.44057957646667256 -0.5016576279537619
2660000000.0 -0.5131795022622205 -0.3621361764081645
2680000000.0 -0.1349445429539098 0.5674997156766287
2700000000.0 -0.32159455136204373 -0.42294833032278784
2720000000.0 -0.07922367190766512 0.4773926212457304
2740000000.0 0.3883811381823636 -0.19487277064034875
2760000000.0 -0.2897867054777721 0.26215571564275103
2780000000.0 0.35933451026721563 0.0059764932720588705
2800000000.0 -0.2619763772186902 -0.20820026238942846
2820000000.0 0.1632067078586356 -0.2684539417860506
2840000000.0 -0.057381733938506214 0.3006446412474093
2860000000.0 -0.11076177705015249 -0.277125757088026
2880000000.0 0.1755470764537966 -0.2360736272249181
2900000000.0 -0.27027955986515273 -0.11446323314002996
2920000000.0 -0.20006650564535722 0.22371622787218592
2940000000.0 0.04856090367583839 -0.30657389814759656
2960000000.0 -0.28128351495590737 -0.14274495368736687
2980000000.0 -0.3108089926476525 -0.051126229024364624
3000000000.0 -0.30721349912556856 -0.060667547064587345
3020000000.0 0.17833645344471727 0.26126677014314253
3040000000.0 0.22808547337954044 0.2222952865672696
3060000000.0 0.10059863357562276 0.29757469123527897
3080000000.0 0.26195976594401205 -0.15511961086977374
3100000000.0 -0.05723636036864584 0.2892128608721891
3120000000.0 -0.26721867413697836 -0.10288314096751372
3140000000.0 -0.1322617732431149 0.2413192547260326
3160000000.0 -0.03125157895837756 -0.26086273500621115
3180000000.0 -0.12708394916859372 0.2133001772531744
3200000000.0 0.18604324093726593 -0.14130459649458668
3220000000.0 0.10554766285976494 -0.18091792251888816
3240000000.0 -0.04264873657665602 -0.17324953513022906
3260000000.0 0.14508157490226353 -0.02685945571619212
3280000000.0 0.06870818206342649 0.07882251065537849
3300000000.0 0.026961361687548934 -0.06617379338061638
3320000000.0 0.0361742237054146 -0.02691690351682844
3340000000.0 0.0008851913975457582 0.023783477182630297
3360000000.0 0.005772540938766677 -0.007679298327378817
3380000000.0 -0.0016781628471500797 -0.000610867018261531
3400000000.0 0.013461373515219185 -0.0014202225027020617
3420000000.0 0.02505728328748707 0.017915021411990577
3440000000.0 0.04464980465555893 -0.0063558716746672655
3460000000.0 0.03800308496863414 0.046415947326774426
3480000000.0 -0.06935908246502034 -0.026437676392393458
3500000000.0 0.017219216648934336 0.0850723817703411
3520000000.0 0.07132453292862481 0.07384068705398948
3540000000.0 -0.056369344291295455 0.10033091943287048
3560000000.0 0.09890261618025516 -0.06626221822632469
3580000000.0 0.006675456302591983 -0.13073330783845563
3600000000.0 0.11246933769506673 0.10004114660574365
3620000000.0 -0.010960575810577832 -0.16164061813080735
3640000000.0 -0.14124536514985186 -0.112591092759847
3660000000.0 -0.1734722553511916 -0.07928396712656764
3680000000.0 -0.0020271489326811635 -0.19349175586660183
3700000000.0 -0.1792082834843987 -0.07408882995339025
3720000000.0 -0.10952031483189228 -0.1560541918237023
3740000000.0 0.181630378365715 -0.02660050027035867
3760000000.0 -0.061656414146185334 -0.1678296303284192
3780000000.0 0.04382990940230511 0.16909473396978547
3800000000.0 0.014037534204677697 -0.1669358095142902
3820000000.0 -0.15395039869283964 0.033655207118346284
3840000000.0 -0.148079149499285 0.004872708949058473
3860000000.0 -0.07828501364128206 -0.12065676991762636
3880000000.0 0.10596277671368538 -0.09964742670309162
3900000000.0 0.09890242212457269 0.11204744427759815
3920000000.0 0.15431893776390188 -0.006871552148626877
3940000000.0 -0.1170331298683157 0.12009188304674899
3960000000.0 -0.06386385822708456 0.1640835793895408
3980000000.0 0.04057738352505274 0.1700592218296881
4000000000.0 0.16250328085773363 -0.043473336394527454
