!Created with skrf (http://scikit-rf.org).
# Hz S RI R 50.0 
!freq ReS11 ImS11
400000000.0 0.5438505429388288 0.6817796696161492
420000000.0 0.8042898368401802 -0.25970170361147366
440000000.0 0.6534679110270926 -0.4556702688975869
460000000.0 0.7334048817561806 0.06359919252579115
480000000.0 0.18469200813725806 -0.6531986980026465
500000000.0 -0.34434119232367366 0.49202931424451385
520000000.0 -0.1431049559785947 0.4906803334003129
540000000.0 -0.11376605141676915 -0.42396674849335886
560000000.0 -0.08913231259671087 0.39224893225971674
580000000.0 -0.35002134144162156 -0.10192748016929887
600000000.0 0.33586574416860426 -0.11563881639801495
620000000.0 -0.10777635136367028 -0.3392245398642537
640000000.0 0.4058094455230446 -0.08267799689486433
660000000.0 0.39160227053461855 0.14040509768599496
680000000.0 -0.26701747853758007 -0.35303743124460174
700000000.0 0.1540315289596314 0.4351875076843322
720000000.0 -0.325859513333894 0.3343405931883794
740000000.0 0.18127463483166853 0.38533508732561794
760000000.0 -0.39684212300590743 -0.013763735611912879
780000000.0 -0.26184634094074816 -0.2606811496327495
800000000.0 0.027757715214120456 -0.3339641397352963
820000000.0 -0.22606001751131063 0.17509061927199968
840000000.0 -0.07292581204769889 -0.20229464761175764
860000000.0 -0.1684007182518778 -0.05732459045011467
880000000.0 -0.07583298598825433 0.12658950804770788
900000000.0 -0.06502201568818622 -0.07529131905909209
920000000.0 -0.046713015169970826 -0.03203885429296269
940000000.0 -0.020320034827630517 0.03004480939386189
960000000.0 0.03976497312955805 0.005893934961910427
980000000.0 0.023410772579932005 0.058136297513392686
1000000000.0 -0.036195748314897934 -0.0940838734022778
1020000000.0 -0.12372591638766915 0.007417400662350134
1040000000.0 0.13381334001362427 -0.00760392782064747
1060000000.0 -0.05742989816803933 -0.14641008126407848
1080000000.0 0.011883027013739982 0.17698117653467565
1100000000.0 0.13530323998580399 -0.14724303855245766
1120000000.0 0.03938676095936934 0.22114300010685678
1140000000.0 -0.17538771178002607 -0.18235340762337302
1160000000.0 -0.1325444167482099 -0.24791623570498494
1180000000.0 0.0583685133639583 -0.30796057487078116
1200000000.0 0.3377905767304245 0.09143698033176434
1220000000.0 -0.3733034547900472 -0.045817282863062636
1240000000.0 0.3690533007322085 -0.14080827602844526
1260000000.0 -0.3705090867471869 -0.16753604912649164
1280000000.0 -0.42428243284190764 0.004761193344114822
1300000000.0 0.35340782837688545 0.2513729832667018
1320000000.0 0.4233575698149389 -0.09872394158199975
1340000000.0 0.4018133836034509 0.17338383292691442
1360000000.0 0.4292185654176237 -0.09652123747390713
1380000000.0 -0.013132097140523406 -0.4293910232290081
1400000000.0 0.0780546339485566 -0.4126603486413085
1420000000.0 -0.3969037049871594 0.09080861397557798
1440000000.0 0.3270407801647894 0.20349089784109517
1460000000.0 0.1928952110639008 -0.2992417817906631
1480000000.0 -0.22436684244105387 0.23082003992544428
1500000000.0 0.2785316018953871 -0.0438721253398167
1520000000.0 0.14000032671755885 0.20156501740717492
1540000000.0 0.15881523085154092 0.1463898490433088
1560000000.0 -0.17654820168492197 -0.06551144385634165
1580000000.0 0.08298607533788419 -0.1485393145336409
1600000000.0 -0.028895101791469837 -0.1374691874027386
1620000000.0 0.053376293395609654 0.09193536181577759
1640000000.0 -0.07769267842550888 0.02503260245257724
1660000000.0 0.06475184654174501 -0.015318252448819807
1680000000.0 -0.04152234424314504 -0.011660538124711321
1700000000.0 0.014724908132469057 0.01599067894502825
1720000000.0 -0.005512754946231073 0.006374354123247929
1740000000.0 -0.0036899165145872046 -0.010371572919007291
1760000000.0 -0.0003763802567523954 -0.025805675140028794
1780000000.0 -0.012190578330926644 0.048183938099735854
1800000000.0 -0.07879598070433376 -0.05245934489180503
1820000000.0 0.10650191020570556 0.07169908594872629
1840000000.0 -0.08213208670832277 0.14636689580440382
1860000000.0 0.16484123897802147 0.12334957378654074
1880000000.0 0.14718300840655965 -0.18938237419503973
1900000000.0 -0.25410658964746496 -0.11183825444963458
1920000000.0 0.1187564036629709 -0.29218214972123685
1940000000.0 -0.259422207498242 -0.21535826274152528
1960000000.0 -0.32662356140056664 -0.1635038138589975
1980000000.0 0.27680838848976436 0.28859195154510275
2000000000.0 0.18941994869345125 -0.37762622285990766
2020000000.0 -0.2719153026423087 -0.33629706148622457
2040000000.0 0.169727784909389 0.4033034816536254
2060000000.0 0.3516963010931024 0.2585174347119406
2080000000.0 0.4214235077535239 0.09292920872448358
2100000000.0 -0.08910018603578079 -0.4139577546092822
2120000000.0 -0.08269270838831816 -0.40299712453088254
2140000000.0 0.18595895617352132 -0.3490729738532728
2160000000.0 0.3815342670184507 -0.03402493877539737
2180000000.0 0.3729209643124108 -0.020282412177367454
2200000000.0 0.34398764739512266 -0.1190343231290029
2220000000.0 -0.3009395713731072 -0.18854709349943996
2240000000.0 -0.31936310345323327 -0.13945140845028622
2260000000.0 -0.3444803171738084 0.03286579860083872
2280000000.0 0.23245377672939704 0.25671288358787525
2300000000.0 0.20803240204541903 0.2842408648563897
2320000000.0 0.13502581742825306 0.3491843225608045
2340000000.0 0.08202779408359061 -0.40096656254964425
2360000000.0 -0.36031380963124415 -0.26862826335040585
2380000000.0 0.015502372975473674 0.49949486445071123
2400000000.0 -0.5087989753608607 0.23203454831517004
2420000000.0 0.5429332624100013 -0.2785054634308312
2440000000.0 -0.5354098505058357 0.37937517160740764
2460000000.0 -0.6712590765882344 -0.19767599651591758
2480000000.0 0.6736497388294854 0.28453118620674306
2500000000.0 -0.35964393498439373 -0.6622151299257298
2520000000.0 0.7283962656769883 -0.23922481489241754
2540000000.0 -0.6025250515569688 -0.48053987186208325
2560000000.0 -0.3528443233670608 0.6818644860198078
2580000000.0 -0.1141605673863892 -0.7451543625501513
2600000000.0 -0.7214990697289688 0.1291865523830784
2620000000.0 0.10666464374823463 0.6991654461816508
2640000000.0 0.49239473902115743 -0.4549116662028915
2660000000.0 -0.48390913157709464 -0.4042870943331746
2680000000.0 -0.15774769426387744 0.563612302896807
2700000000.0 -0.32508794067789354 -0.42246886810097833
2720000000.0 -0.05825127251276244 0.48221610117499286
2740000000.0 0.412569720745822 -0.13967778578342613
2760000000.0 -0.3113142506153588 0.23771868317199077
2780000000.0 0.3585750158648143 0.02934353858532495
2800000000.0 -0.25276081937059286 -0.21996426865775578
2820000000.0 0.18231015796397643 -0.2563686769630814
2840000000.0 -0.06002700760476828 0.30064466959257613
2860000000.0 -0.1293093781047346 -0.26934706888558196
2880000000.0 0.13092878296015684 -0.2637529914372255
2900000000.0 -0.28442674865156226 -0.07478550241569178
2920000000.0 -0.1531260644526468 0.2587092645901257
2940000000.0 0.030292784895270965 -0.30913236988016995
2960000000.0 -0.2849697212172543 -0.13595034259716457
2980000000.0 -0.3007451750557013 -0.09491217940625415
3000000000.0 -0.3049519979318699 -0.07811298486789392
3020000000.0 0.1749623645543123 0.26553760268007004
3040000000.0 0.1955859311619852 0.2537789559759581
3060000000.0 0.076426301896876 0.30590024670359217
3080000000.0 0.2766174357884356 -0.12907137113881595
3100000000.0 -0.08339171033409183 0.28376526844125
3120000000.0 -0.2462963908995857 -0.14611142217046716
3140000000.0 -0.19673276717182508 0.19179920196269823
3160000000.0 0.04618838970474269 -0.2580577041730142
3180000000.0 -0.18469380274428954 0.16392962817838916
3200000000.0 0.21910025899100946 -0.08003974961434066
3220000000.0 0.12255245165341128 -0.16928614476899873
3240000000.0 -0.06273396971810503 -0.16548396940683313
3260000000.0 0.13545067689595072 -0.0565207388105132
3280000000.0 0.04946356550606475 0.09065410175030503
3300000000.0 -0.022517425443745857 -0.06607566961503934
3320000000.0 -0.004139261969136489 -0.04354780200070593
3340000000.0 -0.0006532659808051001 0.022870700079869972
3360000000.0 -0.0005030932756637473 0.008427868011870057
3380000000.0 0.0017282491072273718 0.000786908150696966
3400000000.0 0.0024681571929529625 -0.015183984051970092
3420000000.0 0.025764579452184817 0.018967226438432728
3440000000.0 0.033544214819313314 0.03146085549352802
3460000000.0 0.048788677462615795 0.03619477774684763
3480000000.0 -0.07513911636497117 0.0060535722216687364
3500000000.0 0.03645588565186275 0.07992679957442289
3520000000.0 0.08078632642979315 0.0638676743536041
3540000000.0 -0.06478529820033484 0.0960251691878006
3560000000.0 0.11326249478633413 -0.03652771011415876
3580000000.0 0.05481411975491424 -0.11886129429956856
3600000000.0 0.01969209710787087 0.14927531317906484
3620000000.0 0.01950413131104207 -0.1611581119748436
3640000000.0 -0.08685051290731481 -0.1572232898251695
3660000000.0 -0.1497562714527079 -0.11805142098194507
3680000000.0 0.027164043951822495 -0.1913174914625416
3700000000.0 -0.15303645563943113 -0.12049907017632089
3720000000.0 -0.08509051434698842 -0.17040517287079687
3740000000.0 0.18304726964336301 0.0017275889658465854
3760000000.0 -0.010187583278811646 -0.1779869164745135
3780000000.0 -0.01436044835412608 0.17298166347267202
3800000000.0 0.032406337007019725 -0.1640392758796777
3820000000.0 -0.15488711590790796 0.02780212718287113
3840000000.0 -0.1473807654940053 0.000683064513499245
3860000000.0 -0.033630967866555554 -0.14034664551801945
3880000000.0 0.1403163781745111 -0.03907364485543137
3900000000.0 0.03883659876390528 0.14421425840621246
3920000000.0 0.12597379450968677 0.08856732808882195
3940000000.0 -0.16000654017644964 0.04962126788612258
3960000000.0 -0.14567009575533627 0.09800464516471818
3980000000.0 -0.0729791081106881 0.1578516964586183
4000000000.0 0.14872455550366376 0.0753349341465
