!Created with skrf (http://scikit-rf.org).
# Hz S RI R 50.0 
!freq ReS11 ImS11
400000000.0 0.5971131382099419 0.6356804489968118
420000000.0 0.7910859638240022 -0.2967214022349164
440000000.0 0.6177206189205658 -0.5039416118850933
460000000.0 0.7343451644891065 0.05492395089804408
480000000.0 0.16722937251578077 -0.6580064061916999
500000000.0 -0.3513650269885119 0.4875615775340021
520000000.0 -0.13793324597105577 0.49254191920580187
540000000.0 -0.12308168177336067 -0.42161669505520766
560000000.0 -0.0774955760165516 0.3947852599382585
580000000.0 -0.3536392447695059 -0.08814649077573211
600000000.0 0.3152678110595111 -0.16457524986026434
620000000.0 -0.13841242234784923 -0.32786347292482454
640000000.0 0.40281413205217464 -0.09698569516749071
660000000.0 0.4059976728576709 0.08789817911214677
680000000.0 -0.3163524527211787 -0.3092603989058515
700000000.0 0.14020648495375834 0.4403646750206096
720000000.0 -0.2974642320457014 0.3610250028362146
740000000.0 0.17281283742626927 0.3892471519844767
760000000.0 -0.3958876035363781 -0.0282655737848703
780000000.0 -0.2549563312867501 -0.2672236137288236
800000000.0 0.025908357999483416 -0.3344483984933465
820000000.0 -0.23168351472752233 0.16793394143620102
840000000.0 -0.05846260398774166 -0.2067340941632241
860000000.0 -0.16238864284059074 -0.07139876287727898
880000000.0 -0.0721430080970362 0.12829072599908803
900000000.0 -0.06498027730994298 -0.0750457619727015
920000000.0 -0.044331659224446 -0.03581957411542687
940000000.0 -0.010510698276752897 0.035291029802470425
960000000.0 0.03726431782213109 -0.01479361336328194
980000000.0 0.0497458069572336 0.03788902756727109
1000000000.0 -0.05514022491810282 -0.08472585922781112
1020000000.0 -0.12397296522524297 -0.007241205361684782
1040000000.0 0.1324591435909265 -0.018948967776974558
1060000000.0 -0.055599436110595986 -0.14676070304588243
1080000000.0 0.023281302370454893 0.1755809054407595
1100000000.0 0.11324525710582313 -0.16508166249707928
1120000000.0 0.020449982145882294 0.22349774528525948
1140000000.0 -0.1708456020032071 -0.18612270817033436
1160000000.0 -0.13080941205889368 -0.24824486847557467
1180000000.0 0.04698794147945281 -0.30997256904744097
1200000000.0 0.3466392295632674 0.04759073966173889
1220000000.0 -0.37613412224434895 0.013643913598761487
1240000000.0 0.35273060198212025 -0.17760101848732962
1260000000.0 -0.3662376191824528 -0.17730923734715845
1280000000.0 -0.4215333101464815 0.04541285960845912
1300000000.0 0.37455028158930337 0.21864767352355008
1320000000.0 0.41958603505841163 -0.11439623176856059
1340000000.0 0.3971641622896061 0.18380759635569185
1360000000.0 0.4327961151043405 -0.07909461466726889
1380000000.0 -0.011654248564180169 -0.4293085314056669
1400000000.0 0.0869324014731382 -0.4107017469065102
1420000000.0 -0.3943223433637463 0.10049750167509218
1440000000.0 0.31423249245180696 0.22228395944217855
1460000000.0 0.2063791216564484 -0.2899924288137994
1480000000.0 -0.21645430078398392 0.2384687662673695
1500000000.0 0.27982780848955663 -0.03077206085208404
1520000000.0 0.1245822195096143 0.21125570134987398
1540000000.0 0.15440801617250333 0.1505267235038884
1560000000.0 -0.17986940315792277 -0.05577520160866646
1580000000.0 0.0462298205888844 -0.16361005073625712
1600000000.0 -0.06689113709154426 -0.12325088223207764
1620000000.0 0.07971543386639052 0.06946979476199726
1640000000.0 -0.06884989955866269 0.04334372407896645
1660000000.0 0.05156754949006119 -0.04162377013791474
1680000000.0 -0.038327177630368706 -0.020274049959438566
1700000000.0 0.019700975210157096 0.008893694733856016
1720000000.0 0.0018432418955309216 -0.007727042356774188
1740000000.0 -0.005842343952963474 0.009509289076896894
1760000000.0 0.025645549702991634 -0.0049506321196881595
1780000000.0 -0.012458388708381707 0.047908336332803926
1800000000.0 -0.08654888280315526 -0.0379616298805331
1820000000.0 0.10673174558455933 0.07190732387084063
1840000000.0 -0.09653090374143877 0.1366421435581462
1860000000.0 0.14740659543329201 0.1433159605174933
1880000000.0 0.14292883942297288 -0.19205552064152756
1900000000.0 -0.25908053301106126 -0.09856314030121838
1920000000.0 0.11970699593433269 -0.2913836215317873
1940000000.0 -0.26411073569857824 -0.2092873501274234
1960000000.0 -0.33023927070335646 -0.155544903296452
1980000000.0 0.2712463709780373 0.294087795383325
2000000000.0 0.18342895610171825 -0.3805033893378673
2020000000.0 -0.2770432920926605 -0.33192185701821286
2040000000.0 0.1197854041486389 0.42091887759906355
2060000000.0 0.3434656754894051 0.26984282962341744
2080000000.0 0.42049318583369044 0.09804605907986354
2100000000.0 -0.09510507550109228 -0.4127788565124063
2120000000.0 -0.07475027959516332 -0.404332499001049
2140000000.0 0.2256179858473162 -0.32462240173060436
2160000000.0 0.3729007395574941 -0.08776470681368327
2180000000.0 0.37129913876158943 -0.03867029569748158
2200000000.0 0.34679629939306506 -0.11071500259083585
2220000000.0 -0.31863912568889674 -0.15628444965339794
2240000000.0 -0.3141736485243357 -0.1511777257321449
2260000000.0 -0.3422095888145358 0.0495215201431528
2280000000.0 0.25371466375838897 0.2364883671629514
2300000000.0 0.22340316733202162 0.2725566623535784
2320000000.0 0.12170836746141218 0.3543287497753271
2340000000.0 0.07358795386291377 -0.4030428292857753
2360000000.0 -0.376281065830031 -0.2467775458648219
2380000000.0 0.03934414377590856 0.49864666857185014
2400000000.0 -0.4948489548882107 0.26161086950865986
2420000000.0 0.5411456417726604 -0.2827286237910357
2440000000.0 -0.530290008993455 0.38678405742773536
2460000000.0 -0.6761134568241243 -0.1809507625341941
2480000000.0 0.6675290364842472 0.2994995355336434
2500000000.0 -0.4025398515227071 -0.636060154756097
2520000000.0 0.7023288133806638 -0.3059126413507303
2540000000.0 -0.6108138217973595 -0.4697308954556912
2560000000.0 -0.37612740405999207 0.668821371294385
2580000000.0 -0.15871219684952506 -0.735968027677486
2600000000.0 -0.7234019873151039 0.11145533950104368
2620000000.0 0.08792519301893656 0.7004881724458825
2640000000.0 0.4612947239028175 -0.4837060325910355
2660000000.0 -0.511869895543325 -0.3662880359142225
2680000000.0 -0.1162604024979415 0.5729384289981261
2700000000.0 -0.35837112535415366 -0.39423179040154116
2720000000.0 -0.054611693587067 0.4825664015495008
2740000000.0 0.3953837936749777 -0.18239407791305878
2760000000.0 -0.2903443508383089 0.2635394117538107
2780000000.0 0.35951022380438913 0.02563480873993539
2800000000.0 -0.24752333898181184 -0.22658783562602292
2820000000.0 0.1945050979350867 -0.24781490075164644
2840000000.0 -0.08042553112777616 0.2961949492885348
2860000000.0 -0.07360255150773183 -0.2901685949297802
2880000000.0 0.1877841952171782 -0.2268991176589244
2900000000.0 -0.2700069565239443 -0.11486553723116878
2920000000.0 -0.21381499883969424 0.21093705691566367
2940000000.0 0.07951776350483108 -0.3000059898179143
2960000000.0 -0.26275868615152276 -0.17403369565468144
2980000000.0 -0.29436345837718864 -0.11212947301310837
3000000000.0 -0.31147125390929215 -0.03665774469189242
3020000000.0 0.195857191873151 0.249066219881918
3040000000.0 0.1992112345408639 0.2481241853242569
3060000000.0 0.10496081071522335 0.295233689801764
3080000000.0 0.2616441407031667 -0.1552634698359871
3100000000.0 0.01579641155020011 0.29437032823758585
3120000000.0 -0.26142437356506343 -0.11583986013512589
3140000000.0 -0.13416975952582497 0.23988858798753748
3160000000.0 0.004366105551789743 -0.26238917030775694
3180000000.0 -0.11965345055107442 0.21774664840008864
3200000000.0 0.1981479775332221 -0.12515128336549403
3220000000.0 0.08153306514566673 -0.19360729537259383
3240000000.0 -0.09394201317187968 -0.1514748172244149
3260000000.0 0.12851170705612003 -0.07317926473888567
3280000000.0 0.05684883676334081 0.08735241534984563
3300000000.0 -0.03505628466192651 -0.061824890454185
3320000000.0 -0.03663061534371132 -0.02468292240107149
3340000000.0 0.022396719468549826 -0.005829478640323244
3360000000.0 -0.007915603059812358 -0.0023046710700587465
3380000000.0 0.0017413693920289054 0.0006795190992890737
3400000000.0 -0.014528268917108471 0.00415208453011917
3420000000.0 0.017263723820718918 0.027029744938753413
3440000000.0 0.03578130823473422 0.02971810412957469
3460000000.0 0.048242163524599216 0.0378311004335303
3480000000.0 -0.07536408600807257 -0.005160066524584368
3500000000.0 -0.0301587316193874 0.08232438304140044
3520000000.0 0.06975524682432963 0.07603823980720949
3540000000.0 -0.08871510167360844 0.07399954141745788
3560000000.0 0.11741867282080638 -0.023602992113977497
3580000000.0 0.060684782191814335 -0.11590936181939793
3600000000.0 0.06345487323742136 0.13662951343447846
3620000000.0 0.05216341812812615 -0.1530394555362233
3640000000.0 -0.0989288084425207 -0.15103724958117667
3660000000.0 -0.16373235516554155 -0.09747634652625455
3680000000.0 0.011247948359801602 -0.19265725836905098
3700000000.0 -0.17185862800927287 -0.08886812759264982
3720000000.0 -0.10573658659335299 -0.15782013784865828
3740000000.0 0.18041504580296167 -0.026302587015885285
3760000000.0 -0.028231302733782306 -0.17502684919302886
3780000000.0 0.05044026065485528 0.16539199481698597
3800000000.0 0.017489382766419342 -0.16577571098441066
3820000000.0 -0.14033460029816222 0.07066684842648059
3840000000.0 -0.14737604658993528 0.005765892785799139
3860000000.0 -0.0518954786592317 -0.13415533659720055
3880000000.0 0.13201451602215888 -0.06013910984519645
3900000000.0 0.07226056860815398 0.1301665603195948
3920000000.0 0.1411249832275913 0.06096242729892714
3940000000.0 -0.14451839799894067 0.08411691782705405
3960000000.0 -0.10313626136337484 0.14114758678075112
3980000000.0 -0.020917364503301707 0.1721795452682582
4000000000.0 0.16252759514138765 0.033371385816813676
