!Created with skrf (http://scikit-rf.org).
# Hz S RI R 50.0 
!freq ReS11 ImS11
400000000.0 0.8468745860540775 0.1736641450674629
420000000.0 0.7082924915462947 -0.4480289994561745
440000000.0 0.7381552006292074 -0.26713441506251623
460000000.0 0.6587370404638614 0.33497311797184504
480000000.0 0.16991546272514424 -0.6691061832292159
500000000.0 0.13370025383792586 0.5906114484839817
520000000.0 0.5006403417183847 0.0963571705316521
540000000.0 -0.4168465731331619 0.13766103120466686
560000000.0 0.22311483802335721 0.3234746154374478
580000000.0 -0.34850192344788455 0.08184004799670234
600000000.0 0.22537726582345535 -0.2748471068904808
620000000.0 -0.34773188451313025 0.06458702559160694
640000000.0 0.11069585457828052 -0.38703108737784747
660000000.0 -0.4110476594291634 0.033462075670606994
680000000.0 -0.09113035783165047 -0.4452060601799637
700000000.0 0.3491971830256173 0.3131143523472919
720000000.0 -0.3714456518839084 0.29391532631481193
740000000.0 0.43080715304032186 0.049763532763667746
760000000.0 0.2876170903698944 0.26448442275896705
780000000.0 -0.025711159227491027 -0.3566859545319367
800000000.0 0.038119186520758935 -0.3277143712881439
820000000.0 -0.2602328927786944 -0.11930214848550101
840000000.0 -0.02087354755587005 -0.22145149605965192
860000000.0 0.04636204261407494 0.1764903624144291
880000000.0 -0.057831173434416655 0.13472832761904763
900000000.0 0.08050426220958545 -0.04726716269333432
920000000.0 0.04081160465594193 0.028458827153659685
940000000.0 0.026901288479779076 -0.02418215918065918
960000000.0 0.03373349756567704 -0.012390371144119273
980000000.0 -0.007151199686399973 0.054437314485602864
1000000000.0 -0.045289773521352286 -0.07433261264715936
1020000000.0 0.10895580302622136 0.02671237781021029
1040000000.0 -0.1273226464707349 0.014474716600380383
1060000000.0 -0.03441373228374369 0.15331238545254158
1080000000.0 -0.14562030801909162 -0.11215208495688102
1100000000.0 0.06390212809775066 -0.2034578861960782
1120000000.0 0.11576784251935528 -0.20721725393888918
1140000000.0 -0.02685885680357512 0.25356542345261124
1160000000.0 -0.05806417588865281 0.27316876005033514
1180000000.0 -0.2678369450259161 -0.15278466068385363
1200000000.0 0.23122898373101558 0.25402757903826795
1220000000.0 -0.3750559143135199 -0.06118392590140343
1240000000.0 0.2908240544330481 -0.279122563913457
1260000000.0 -0.39611457532678657 0.11206670485075723
1280000000.0 0.12646207404176313 0.40353516023247893
1300000000.0 0.42260243329911007 0.04299098460181266
1320000000.0 0.3724106448534818 0.20967335093677508
1340000000.0 0.2385663006299944 0.36584137045512916
1360000000.0 0.38228903909397155 0.23179494100222542
1380000000.0 0.0732232039505851 -0.43607358655907585
1400000000.0 -0.4307972282715534 0.017110888967656935
1420000000.0 0.3651211985670591 0.17961508313397365
1440000000.0 0.21522302018866266 -0.30418081688805126
1460000000.0 0.11872763181485323 -0.3194903854906159
1480000000.0 -0.27570636794230785 -0.15077864503609073
1500000000.0 0.0745430085109887 0.27425241811923
1520000000.0 0.0984172314963863 0.22965544238401536
1540000000.0 0.011754895460374443 -0.2180908504917491
1560000000.0 -0.06521043836852554 0.1789818290386955
1580000000.0 -0.16458486848561682 0.02174818708332403
1600000000.0 -0.1271983021951936 0.04268036767292196
1620000000.0 -0.0877682860834738 -0.06203016080379475
1640000000.0 -0.08468921269806572 0.023729625795267065
1660000000.0 0.011528167739397632 -0.07152609944265678
1680000000.0 0.03285205392097241 0.03243012251487964
1700000000.0 -0.019103050391605102 0.008388926873629396
1720000000.0 0.000989688592603526 -0.0009336744974801791
1740000000.0 -0.0003058481564770943 -0.01942368760636572
1760000000.0 -0.032938174405338215 0.019195120172297558
1780000000.0 -0.05869388688638091 -0.013783181414473801
1800000000.0 -0.041045271096307435 0.08642181302901061
1820000000.0 0.060705597879504684 0.10812219847607339
1840000000.0 0.15049508091109548 -0.05643588850217699
1860000000.0 -0.11481599697108269 0.1603787333672667
1880000000.0 0.19352521747615492 0.1398397960450763
1900000000.0 -0.24401824417676943 -0.15063858683081333
1920000000.0 0.27724189943444993 -0.17151644348207382
1940000000.0 -0.31377699298052975 0.1563411389718507
1960000000.0 0.24253104285199384 0.2840537509365309
1980000000.0 0.3089499821894011 -0.2547255548491207
2000000000.0 -0.3873738256282355 -0.15540405821607767
2020000000.0 -0.3369658504758479 0.26122610574759253
2040000000.0 -0.010920458551688066 0.4343576165730578
2060000000.0 0.37725963138431884 0.2214268065240563
2080000000.0 0.3194109764428473 -0.2933283952885456
2100000000.0 -0.1009597699981478 -0.4149755812176683
2120000000.0 -0.30378413768564977 -0.2824888205519589
2140000000.0 -0.37749628285858666 -0.1270175624620401
2160000000.0 0.26597740674483816 -0.2796959590115836
2180000000.0 0.04516627467594454 -0.3717760743672024
2200000000.0 -0.2757319139136088 -0.23452617495538106
2220000000.0 -0.35145206661375383 -0.03209706002336382
2240000000.0 -0.2902816677570059 0.19268157690778384
2260000000.0 0.010502151729427003 0.3489597405658007
2280000000.0 0.3216990087028771 0.14082603524316478
2300000000.0 0.3257731317993528 -0.15402659536109004
2320000000.0 0.06009047177131689 -0.3815869189965596
2340000000.0 -0.41472357206672217 -0.05645111359196649
2360000000.0 0.14804467891326115 0.4349310930194221
2380000000.0 -0.06792836143536637 -0.5070312375985527
2400000000.0 0.3334281688164421 0.4555997110059111
2420000000.0 -0.5998340202583401 -0.13867772172528248
2440000000.0 0.549656761056469 -0.36941057485290024
2460000000.0 -0.14865584278385477 0.6856261920478862
2480000000.0 -0.28640411678386096 -0.6732420379386866
2500000000.0 0.40879304012535594 0.62978911508492
2520000000.0 -0.231087924451147 -0.7252769806220456
2540000000.0 -0.05378946561292713 0.7606381221949051
2560000000.0 0.5635550062953404 -0.5040085431979416
2580000000.0 -0.7078944798452093 -0.2212143051964603
2600000000.0 0.3029142367221475 0.6501007555362748
2620000000.0 0.23044645195242386 -0.6487771650915911
2640000000.0 -0.22088062713046686 -0.6130438288367324
2660000000.0 -0.23993817597105088 0.5590628671342468
2680000000.0 0.5172545234778286 -0.2162782497622611
2700000000.0 -0.42189766047358146 -0.2919125094795722
2720000000.0 0.255014872061202 0.39217623979998795
2740000000.0 -0.04017133280325314 -0.4190225180412574
2760000000.0 -0.2154608184258123 0.3162938768678938
2780000000.0 0.14866739684595398 -0.315983910229178
2800000000.0 -0.10232373117543357 0.30566704977858977
2820000000.0 0.13624717058386676 -0.27096027688801383
2840000000.0 0.07200888807852818 0.28741691988286816
2860000000.0 -0.2855397877920978 -0.05273482883626192
2880000000.0 0.17413513656225005 -0.22965571501420226
2900000000.0 -0.25402421624545524 0.1352465331343452
2920000000.0 0.23131831961250218 0.1797743350372938
2940000000.0 0.10696130642011067 -0.28352696957479445
2960000000.0 -0.3082565385255941 -0.03324554699654854
2980000000.0 -0.15681610064019347 0.2694855663721152
3000000000.0 -0.3021453673158273 0.07807080631230892
3020000000.0 -0.15865367860091895 -0.2713533598060813
3040000000.0 0.2001810188441284 -0.240481876172425
3060000000.0 0.23972937067403438 0.1932705958837475
3080000000.0 -0.24972693889230344 -0.16197107790649382
3100000000.0 0.14953922176757398 0.24766676503630544
3120000000.0 -0.09768725376269552 -0.26577617368895484
3140000000.0 0.14904733270436876 0.2304189867927936
3160000000.0 -0.22314713288470953 -0.1380608399096396
3180000000.0 -0.0038306418280252804 0.24818799391152824
3200000000.0 -0.22095756825124216 0.05917328021829804
3220000000.0 -0.1796824056172312 -0.09279896854773903
3240000000.0 0.021429164082345454 -0.17042293611372863
3260000000.0 0.11449377452752184 -0.0766202644867348
3280000000.0 -0.10111385328220525 0.006951369384771678
3300000000.0 0.04703083866123 0.056141633960944376
3320000000.0 -0.030425256469542403 0.029734438852370714
3340000000.0 -0.005774621424515725 0.0225816750600341
3360000000.0 0.008353727929317555 -0.003908184480680492
3380000000.0 0.0039049039574386253 0.004645098534795608
3400000000.0 0.004031203389372995 -0.01314081439056207
3420000000.0 -0.02821992179009643 0.009176106998827746
3440000000.0 0.02431035986025966 0.037813665993718576
3460000000.0 -0.009045443526838793 -0.05981018483107817
3480000000.0 -0.02163730335850056 0.06870146466325835
3500000000.0 -0.01078376679940475 -0.08887526499231542
3520000000.0 0.02619183161136718 -0.09754712227266253
3540000000.0 -0.0389192627808893 0.10399054331018528
3560000000.0 0.006524084515714623 -0.11891383079539158
3580000000.0 -0.08592156224731387 -0.09761476271281626
3600000000.0 0.11084224025829917 0.09677276247626902
3620000000.0 -0.16264044390591104 0.008902307795402497
3640000000.0 -0.17627637004406954 0.036106315866164626
3660000000.0 -0.17983899484260915 -0.05614349999503243
3680000000.0 -0.19041307604772986 -0.04238808708195531
3700000000.0 -0.13745916688107143 0.13720326792554532
3720000000.0 -0.18933502176597597 -0.014813918429416892
3740000000.0 0.09771641472616567 -0.15121449084650387
3760000000.0 -0.08311465633500888 -0.15597457599667652
3780000000.0 -0.049401604249001106 0.16658688176114997
3800000000.0 0.015912814804784032 -0.16804583965960457
3820000000.0 -0.11633295161655474 0.11197761993592131
3840000000.0 -0.04584456033166943 0.14393744979563514
3860000000.0 -0.11775003953946118 0.08550240861500782
3880000000.0 0.004396133931383149 -0.14332437327504383
3900000000.0 0.05811392645292959 0.1355358158465976
3920000000.0 0.13833194096899917 0.08063855960482331
3940000000.0 -0.051910525040002396 0.16400592463682595
3960000000.0 0.11006765071570498 0.14329185144268822
3980000000.0 0.06267507565620867 -0.16751654318109577
4000000000.0 -0.1369395415753207 -0.10046312157098751
