!Created with skrf (http://scikit-rf.org).
# Hz S RI R 50.0 
!freq ReS11 ImS11
400000000.0 0.5956571657413852 0.6362406646783285
420000000.0 0.7865962878819294 -0.30835030025566085
440000000.0 0.6130933896433188 -0.5094664805062674
460000000.0 0.734136891100132 0.05365012124166679
480000000.0 0.17652833587257966 -0.6554493799380244
500000000.0 -0.3619668824363675 0.4795959510078056
520000000.0 -0.13923452707241304 0.49150081964843717
540000000.0 -0.11301976340909817 -0.42433084768475066
560000000.0 -0.0976150893730273 0.3897006826970805
580000000.0 -0.3436913309083237 -0.11973210903545878
600000000.0 0.3235052624366782 -0.14797684681214693
620000000.0 -0.15161921656204955 -0.3217097176099386
640000000.0 0.4035067671198818 -0.09339112549456068
660000000.0 0.4020383986306424 0.10429773891100377
680000000.0 -0.3176625664591121 -0.30796396528317704
700000000.0 0.14295591837305888 0.43968986628699086
720000000.0 -0.2919643662648698 0.3651908917818991
740000000.0 0.17053292635024764 0.3901165451364639
760000000.0 -0.39562576739577254 -0.029948356700345444
780000000.0 -0.2409740807166041 -0.27995471395803584
800000000.0 0.028247371673349113 -0.3340987566343532
820000000.0 -0.24130750732787307 0.15352858238534622
840000000.0 -0.0698782533637994 -0.2027762563198131
860000000.0 -0.16792215883309428 -0.05782600274915079
880000000.0 -0.04754731455257339 0.1396667679418473
900000000.0 -0.07907732400715671 -0.06105967654868989
920000000.0 -0.049439371389719766 -0.028752123156026967
940000000.0 -0.012865121078183165 0.034590403214591954
960000000.0 0.03984458986335123 -0.0020933030271518423
980000000.0 0.046394319813089356 0.04215232514096689
1000000000.0 -0.04744408675797649 -0.08933672639273142
1020000000.0 -0.12400233734122516 -0.00987228036039725
1040000000.0 0.13392562960445378 -0.0038339239443317256
1060000000.0 -0.05763337913942597 -0.14590721984603122
1080000000.0 0.02008150970564067 0.17589501688706655
1100000000.0 0.11630231563693405 -0.1628906746151349
1120000000.0 0.019096598561486912 0.22378762781660758
1140000000.0 -0.1846882631471646 -0.17251884984363514
1160000000.0 -0.14007187935265655 -0.2432664732838928
1180000000.0 0.05062711962882531 -0.3093454248548349
1200000000.0 0.3476375659867263 0.03932066244430194
1220000000.0 -0.37352068736169053 -0.045776294938722664
1240000000.0 0.35542153818905514 -0.17271988558860327
1260000000.0 -0.3672049280366429 -0.1755217909782533
1280000000.0 -0.4228757783034257 0.03129179310014556
1300000000.0 0.35351222043708436 0.2510005702819995
1320000000.0 0.4207465068322278 -0.1100944599515248
1340000000.0 0.40308970924584386 0.16992706596669893
1360000000.0 0.4305588973855633 -0.08990996121015292
1380000000.0 -0.010617480504903066 -0.42924716300983556
1400000000.0 0.0950614950300325 -0.40909124682944353
1420000000.0 -0.3987825907098383 0.08263910990546178
1440000000.0 0.30705011394606196 0.2324939020734324
1460000000.0 0.21293928618364638 -0.2853810348516858
1480000000.0 -0.22703824839405679 0.22808981024047273
1500000000.0 0.2811935457051972 -0.01255697136287391
1520000000.0 0.10321191230209807 0.22291282535851764
1540000000.0 0.15137829461173677 0.153794588405484
1560000000.0 -0.17607941419051001 -0.06715727658601935
1580000000.0 0.09408226151086566 -0.14180924728399255
1600000000.0 -0.07350046567481894 -0.11931738880470032
1620000000.0 0.0800430754663898 0.06900780119398316
1640000000.0 -0.0647488225973754 0.04918642016868606
1660000000.0 0.043971941324637276 -0.04922862805749597
1680000000.0 -0.04329999490083138 -0.0034176306580070174
1700000000.0 0.021783479284864116 -0.002676257395337359
1720000000.0 -0.001194689377762263 -0.008109607729364586
1740000000.0 0.010349452522713956 0.004277349103473722
1760000000.0 0.01743084131533414 -0.019610255111380672
1780000000.0 0.0015003752270844697 0.04948513729371698
1800000000.0 -0.08239298081526719 -0.04509101279040884
1820000000.0 0.11174697051368367 0.06345402338326667
1840000000.0 -0.07970457737024715 0.14704079660231867
1860000000.0 0.1555271128893183 0.13465701366279265
1880000000.0 0.13625873534880278 -0.19697704505035757
1900000000.0 -0.26040705728376456 -0.09497967896816978
1920000000.0 0.12746404801200978 -0.28825322625751865
1940000000.0 -0.2583808831533926 -0.2163376195823883
1960000000.0 -0.32728899479013196 -0.16183645458609328
1980000000.0 0.2631595311114713 0.3014813671063061
2000000000.0 0.19136907703642542 -0.3765565730298372
2020000000.0 -0.27041679631675064 -0.3373231646515366
2040000000.0 0.11992475347877433 0.4206601461123817
2060000000.0 0.33704466010151396 0.27759146017925995
2080000000.0 0.4179985974632425 0.10723497509989843
2100000000.0 -0.0758531349684087 -0.4165262799933889
2120000000.0 -0.08157802474034266 -0.4027196380589582
2140000000.0 0.21254735566787486 -0.33300486042173233
2160000000.0 0.374454371297204 -0.07927174356045001
2180000000.0 0.37130939449073286 -0.0361250302524915
2200000000.0 0.3362671613217393 -0.13889008186493929
2220000000.0 -0.3167465521584652 -0.15912263811455596
2240000000.0 -0.3185540282823573 -0.14134985367532057
2260000000.0 -0.34110564157391293 0.0558413320943189
2280000000.0 0.25310910593031827 0.23695207674181
2300000000.0 0.21900754305701525 0.27615405863390213
2320000000.0 0.12085319711531144 0.3547725921002914
2340000000.0 0.07604942248005983 -0.4025197604988644
2360000000.0 -0.36847885479380504 -0.25800426018768213
2380000000.0 0.011713750635188053 0.5000215154215673
2400000000.0 -0.5109368444134934 0.22812530960829036
2420000000.0 0.5441911498125512 -0.27631256890782907
2440000000.0 -0.5363689299160658 0.3782125296440122
2460000000.0 -0.6707610109471974 -0.19876476235060678
2480000000.0 0.66863262277737 0.29583990819729966
2500000000.0 -0.3659489154080513 -0.6577503756409571
2520000000.0 0.7278937142371719 -0.24036493091481845
2540000000.0 -0.5881873428311833 -0.4979673675945852
2560000000.0 -0.3581859531242369 0.6782945543077998
2580000000.0 -0.08559828760546306 -0.7481694683867376
2600000000.0 -0.7257139901108915 0.09664365962006528
2620000000.0 0.14950463094207567 0.6899632012820897
2640000000.0 0.41997486257468325 -0.5203357156889761
2660000000.0 -0.5126416060281771 -0.36519169850014627
2680000000.0 -0.1284358505730613 0.5703460268219287
2700000000.0 -0.35066011178517464 -0.40145388361161266
2720000000.0 -0.07250869334043698 0.48029882626055076
2740000000.0 0.39781659249335627 -0.1773672373731806
2760000000.0 -0.2915035102088832 0.2621767022707213
2780000000.0 0.35904454088537147 0.0289944851554025
2800000000.0 -0.24919453339297692 -0.22452260772006605
2820000000.0 0.19553424269857753 -0.2469890052745775
2840000000.0 -0.07988672419033316 0.2965759933742496
2860000000.0 -0.08128989887572 -0.28809050576872974
2880000000.0 0.20910566809570216 -0.20828809389901856
2900000000.0 -0.25918772831989667 -0.13847378986052514
2920000000.0 -0.22085827641868877 0.20352189257952458
2940000000.0 0.07707370407104143 -0.3005294474937227
2960000000.0 -0.259392236355787 -0.17915019520457542
2980000000.0 -0.2877313634733956 -0.12784752088186238
3000000000.0 -0.31179951681786106 -0.03198262450128915
3020000000.0 0.18227766577999155 0.2591702241863716
3040000000.0 0.1436975182644098 0.283776104476499
3060000000.0 0.14370032405515054 0.2784363831878011
3080000000.0 0.2538724803671668 -0.1672893628921672
3100000000.0 -0.042113544042098175 0.2910455100164457
3120000000.0 -0.2761180795908407 -0.07387785141380725
3140000000.0 -0.09561039111981297 0.25777636623299754
3160000000.0 -0.030938275336758077 -0.26055492682927184
3180000000.0 -0.11587622594384728 0.2196100286952437
3200000000.0 0.19761432738621962 -0.1257354601170016
3220000000.0 0.0798237929339348 -0.19392831596441762
3240000000.0 -0.1024844462832921 -0.14584583931522352
3260000000.0 0.13202322682105336 -0.0664382622569835
3280000000.0 0.0771267049726943 0.06980584497445216
3300000000.0 -0.020176162041170707 -0.06813620125371544
3320000000.0 -0.02652300048451294 -0.03537866627649665
3340000000.0 0.022708017706873463 0.0044114579189744145
3360000000.0 0.00360101937949679 -0.007702733277453447
3380000000.0 0.0008660927840101513 0.002231211677480085
3400000000.0 0.014038704010368006 0.005776239410670672
3420000000.0 0.02757419681074552 0.016386450503441584
3440000000.0 0.04610369411735415 -0.005655944920524016
3460000000.0 0.04966113984682375 0.03588637537105116
3480000000.0 -0.07149387433788904 0.024524751111673876
3500000000.0 0.04967903208220874 0.07295646866507938
3520000000.0 0.08217588875917016 0.06227975534217366
3540000000.0 -0.05845015787210765 0.10015895124268477
3560000000.0 0.11198216080984165 -0.043197277195296216
3580000000.0 0.0033679399512533473 -0.1317104400023609
3600000000.0 0.10311248393667262 0.11110494148669227
3620000000.0 0.01295983687313517 -0.16161625966409643
3640000000.0 -0.11440709124061528 -0.14074874672516208
3660000000.0 -0.17018278978921714 -0.08686861671800238
3680000000.0 -0.014463314354991447 -0.1933365609990498
3700000000.0 -0.17786734076080213 -0.0773383282804574
3720000000.0 -0.11035872071503393 -0.15618866178433216
3740000000.0 0.18037924282355716 -0.03166915993361466
3760000000.0 -0.03463509716313219 -0.17475256484340754
3780000000.0 0.050785321484200736 0.1660268886104903
3800000000.0 0.019170146498995372 -0.16631886957148545
3820000000.0 -0.14615089105922274 0.059397640647836265
3840000000.0 -0.14629305268124995 -0.023323545197801224
3860000000.0 -0.03197229942293066 -0.14097639261811865
3880000000.0 0.13738866569862349 -0.047793133141893596
3900000000.0 0.05278932202982238 0.13985444532648844
3920000000.0 0.14063792779489528 0.0629624806502353
3940000000.0 -0.1422754925598213 0.08700862531521596
3960000000.0 -0.10025595993653258 0.1435816919470176
3980000000.0 0.003525814506234584 0.17343472250900704
4000000000.0 0.16616730754099468 -0.005427895445806753
