!Created with skrf (http://scikit-rf.org).
# Hz S RI R 50.0 
!freq ReS11 ImS11
400000000.0 0.8594326643918864 0.1170275883942679
420000000.0 0.7012978407275577 -0.4615421951496517
440000000.0 0.7329580675809442 -0.2841103343596109
460000000.0 0.6553985155385086 0.34420550947727135
480000000.0 0.1838636763844608 -0.6662391745180897
500000000.0 0.15198313238754443 0.5865908284331831
520000000.0 0.5030154457571365 0.0849307531086858
540000000.0 -0.4236266611977004 0.11558717474332737
560000000.0 0.2051496056689813 0.3346886862803789
580000000.0 -0.3560264543203714 0.029721867274454302
600000000.0 0.24082020983874236 -0.25898731784938006
620000000.0 -0.35034012511273505 0.0369884147217799
640000000.0 0.055680674748487875 -0.39733157370551575
660000000.0 -0.3909163434389528 0.12672969891680205
680000000.0 -0.20212250085649336 -0.40623412733500036
700000000.0 0.416429731435852 0.2139539488318008
720000000.0 -0.31292613678056175 0.35558285730671857
740000000.0 0.43314656454194356 0.0325717081464275
760000000.0 0.2827617987492503 0.27226479130982356
780000000.0 -0.06924213388712512 -0.35273417382278854
800000000.0 0.021577505982539748 -0.33017589270759223
820000000.0 -0.2399154498815426 -0.15682130826895577
840000000.0 0.0882484508013015 -0.20410980953221422
860000000.0 -0.09672922238259743 0.15459832805615162
880000000.0 -0.1377152804985778 0.048678926090885706
900000000.0 0.09143924538621759 -0.01250549087924932
920000000.0 0.020348477519281153 0.04361494319888183
940000000.0 0.0202293925422524 -0.028047688500968372
960000000.0 -0.022502400148620063 -0.02790391022251956
980000000.0 0.04406562589201616 0.03437305767170036
1000000000.0 -0.0705882627979119 -0.05390098680779308
1020000000.0 0.10499230825933775 0.04409784232962094
1040000000.0 -0.12182185811523268 -0.041845611378323655
1060000000.0 -0.10499002460044368 0.11722151447861563
1080000000.0 -0.08403008433576756 -0.16279141420423793
1100000000.0 0.09904669676432232 -0.18764061214479988
1120000000.0 0.15312083433245305 -0.17909004891024535
1140000000.0 0.007776992886154973 0.25294114260442546
1160000000.0 -0.06888848565774436 0.26828124687283106
1180000000.0 -0.26138465967633867 -0.16090102344346974
1200000000.0 0.2706579768342942 0.2108424055538742
1220000000.0 -0.3782088496845582 0.03643996529339324
1240000000.0 0.2277504128883146 -0.33225731386351853
1260000000.0 -0.3625487933754337 0.1940876685079796
1280000000.0 0.1800904307997333 0.3825986197200057
1300000000.0 0.42414672126555586 0.025541149097109424
1320000000.0 0.3766496211090001 0.20304712583154744
1340000000.0 0.27069115106515074 0.3434108859998499
1360000000.0 0.39576610817609353 0.20853441387637223
1380000000.0 0.06276703234929044 -0.437891192653757
1400000000.0 -0.4310731156179925 0.007351801103442366
1420000000.0 0.3597822631337982 0.19020187607506728
1440000000.0 0.22139835595605573 -0.2997248524941637
1460000000.0 0.13627934233296896 -0.3122138294246274
1480000000.0 -0.27923974836701243 -0.14313933781663685
1500000000.0 0.032107996278968265 0.28141056502691547
1520000000.0 0.056136496050870496 0.24337111655761492
1540000000.0 0.04536277248240219 -0.21367943795378289
1560000000.0 -0.07035020350231229 0.17663327268067477
1580000000.0 -0.16120934842905507 0.03747624726330187
1600000000.0 -0.12800620647180316 0.03857075107653278
1620000000.0 -0.10648127692033488 -0.008446184198849517
1640000000.0 -0.07211951582103307 0.04988634740197031
1660000000.0 -0.013384605176652747 -0.0717340808868055
1680000000.0 0.025510917027593817 0.03882569528579117
1700000000.0 -0.02112618488461425 -0.0028202056207899777
1720000000.0 -0.0009161062041236113 0.00012347894848244127
1740000000.0 -0.00661908461011825 -0.01735847115727029
1760000000.0 -0.0295613557841259 0.023260198650655976
1780000000.0 -0.05923497318063992 -0.011707124343686467
1800000000.0 -0.04057413110031499 0.08656667410368124
1820000000.0 0.07722232420418512 0.09798318540351476
1840000000.0 0.15673600702435322 -0.03943363617738266
1860000000.0 -0.11719994010985677 0.15932212230064527
1880000000.0 0.2015809953914863 0.1282278130275504
1900000000.0 -0.23956898928639112 -0.1579910317939242
1920000000.0 0.29301405849361517 -0.14340261121760522
1940000000.0 -0.31936330739680857 0.1447176210171637
1960000000.0 0.2182237824598391 0.3030118119972081
1980000000.0 0.3206225629896944 -0.23994689035983088
2000000000.0 -0.38316598591364154 -0.16502496986261275
2020000000.0 -0.3450340942810796 0.250056069545437
2040000000.0 0.022436348805593802 0.4335743414022951
2060000000.0 0.3828436338196131 0.21057992276058798
2080000000.0 0.3074939832333823 -0.30551810153863035
2100000000.0 -0.0738089200114273 -0.4208347989042328
2120000000.0 -0.35251779217085133 -0.21799820719301632
2140000000.0 -0.3900550912543579 -0.0813120532358956
2160000000.0 0.2460695826432622 -0.29810492544126327
2180000000.0 -0.00739099217303566 -0.37549960874339444
2200000000.0 -0.2886658950238214 -0.2197795710420014
2220000000.0 -0.3536655218922563 -0.01202598982143774
2240000000.0 -0.2879635330871526 0.19839250508632386
2260000000.0 -0.0018847862941704248 0.3507285433281124
2280000000.0 0.30144840458126104 0.1820375950276306
2300000000.0 0.34453980823023184 -0.10875902457601984
2320000000.0 0.10294961533327442 -0.3731726765869568
2340000000.0 -0.41139481383789595 -0.08121563576082405
2360000000.0 0.12488115301315131 0.4421687798154139
2380000000.0 -0.05231128301102709 -0.5083907668116926
2400000000.0 0.3347269373991573 0.4541558700961884
2420000000.0 -0.6025435979069328 -0.12372125847978828
2440000000.0 0.5450132253427842 -0.3754336179829626
2460000000.0 -0.13987109883257817 0.6868485833814546
2480000000.0 -0.33837830500892474 -0.6482563565940256
2500000000.0 0.42224618147265824 0.6198348705735375
2520000000.0 -0.29826141576844933 -0.6994270089308946
2540000000.0 0.018252352064043343 0.7616739040871612
2560000000.0 0.46398591371626074 -0.5970926113438614
2580000000.0 -0.7353184451780356 -0.09729468323796207
2600000000.0 0.40481877108196707 0.5935207801707822
2620000000.0 0.18654587183436722 -0.663756251667748
2640000000.0 -0.292731679813547 -0.5836666895470977
2660000000.0 -0.20235069884833218 0.5744478106981941
2680000000.0 0.5179541180284587 -0.2177381772100057
2700000000.0 -0.44725743422585135 -0.25547330103023735
2720000000.0 0.2805512866094609 0.37531279815282204
2740000000.0 -0.043140700328826866 -0.41925292791160906
2760000000.0 -0.23337612729308724 0.30366404953111176
2780000000.0 0.18675590410263915 -0.29555740095642774
2800000000.0 -0.11657565336326856 0.300229666437268
2820000000.0 0.17600822444748254 -0.24644652187015623
2840000000.0 0.07456629953428712 0.28544573455753014
2860000000.0 -0.27545038482091416 -0.08981012159809905
2880000000.0 0.17276766527342385 -0.2288407782202576
2900000000.0 -0.2380368709683595 0.1592710084516172
2920000000.0 0.23491620795263984 0.17337250009461805
2940000000.0 0.06726463980322404 -0.295169997409695
2960000000.0 -0.30902010659939155 0.024400326009578734
2980000000.0 -0.09177520862776734 0.2983890554808485
3000000000.0 -0.28686197132479824 0.12207612481173385
3020000000.0 -0.22671189597440858 -0.2186800963690458
3040000000.0 0.145930731605742 -0.27769566509276494
3060000000.0 0.24717957499082124 0.18289193605276785
3080000000.0 -0.27383098371585507 -0.11707518630262174
3100000000.0 0.191907217488024 0.21777521251657997
3120000000.0 -0.12616741898006922 -0.2541399100256106
3140000000.0 0.19770911550626005 0.19086227144868298
3160000000.0 -0.24190800847707775 -0.10429859980192653
3180000000.0 0.016798077232295677 0.24856445215731834
3200000000.0 -0.22570648195406015 0.04248380961091841
3220000000.0 -0.17965386345795276 -0.09533796921009166
3240000000.0 0.028672002266849444 -0.17027644337336834
3260000000.0 0.12595040751441597 -0.05715894345493114
3280000000.0 -0.0870809439161283 -0.053099018064388
3300000000.0 -0.016885878115374647 0.07171068240440821
3320000000.0 -0.04028344958019822 0.015568352291825594
3340000000.0 -0.00662789898514756 0.022615151675266273
3360000000.0 0.006897668395157978 -0.007032409940735784
3380000000.0 -0.006057776352625086 -0.0010231374432803492
3400000000.0 -0.007587669349594411 0.011765472661285149
3420000000.0 0.025357436112403518 0.015661278421792414
3440000000.0 0.035008515256264486 0.028145140081396455
3460000000.0 -0.02405929982607682 -0.05485369658367427
3480000000.0 0.038756616325208625 0.061177011964697894
3500000000.0 -0.03214123988495288 -0.08378677853190229
3520000000.0 -0.008281641311254738 -0.1014534730479674
3540000000.0 0.02516553043480959 0.10932555221812455
3560000000.0 -0.020907051589148334 -0.11797772866678716
3580000000.0 -0.1236430131465751 -0.04459713277463526
3600000000.0 0.14017408237123155 0.04755491100189907
3620000000.0 -0.15026982209782377 0.06445895819177266
3640000000.0 -0.1569093373464481 0.09052943695628254
3660000000.0 -0.18749198015225085 -0.025235892094254374
3680000000.0 -0.19233762285679612 0.03907574321909832
3700000000.0 -0.12003602450915304 0.15424816268034486
3720000000.0 -0.19025691869535208 0.013297513703536042
3740000000.0 0.058531874230895654 -0.17125888269764833
3760000000.0 -0.1158732688222113 -0.13478994896485594
3780000000.0 -0.0007169689449613874 0.17430971999235217
3800000000.0 -0.016649889950260906 -0.1690320029243782
3820000000.0 -0.11513796012776686 0.11554209178209524
3840000000.0 -0.012215258429927506 0.15183996051976933
3860000000.0 -0.1067031274274238 0.10082497017502691
3880000000.0 -0.01655421161123186 -0.14354257544343615
3900000000.0 0.05824399620948472 0.13707206771068667
3920000000.0 0.13590100614316813 0.08744983993059165
3940000000.0 -0.08632273293614684 0.14969696207353503
3960000000.0 0.12260370000779684 0.13369532169411386
3980000000.0 0.028273372054401384 -0.1762522806509088
4000000000.0 -0.1627706359221828 -0.041134905830475264
