!Created with skrf (http://scikit-rf.org).
# Hz S RI R 50.0 
!freq ReS11 ImS11
400000000.0 0.590916046666363 0.639418816568341
420000000.0 0.7877280737196707 -0.30637567254984827
440000000.0 0.626062931040351 -0.49401034025080587
460000000.0 0.7347605845181602 0.05653076193899647
480000000.0 0.14665160501903227 -0.6627467302213313
500000000.0 -0.345959522172962 0.4911578771086639
520000000.0 -0.14895957972869237 0.489396166574784
540000000.0 -0.11843408526636251 -0.4232195296563283
560000000.0 -0.083999444605187 0.393534491182924
580000000.0 -0.34606267373080934 -0.1140583107627545
600000000.0 0.31854590309774977 -0.15873757442024178
620000000.0 -0.1580204553440291 -0.3190958864691952
640000000.0 0.40271033020681246 -0.09742643655609484
660000000.0 0.4068503403057337 0.08466427415703322
680000000.0 -0.31161503419759046 -0.3138089514046085
700000000.0 0.1319558359250902 0.44306374155565365
720000000.0 -0.2932987901689977 0.36448442811664666
740000000.0 0.16971190077295553 0.3906062190660953
760000000.0 -0.39435817801531525 -0.042693780542085606
780000000.0 -0.22518866011927724 -0.29285032773955577
800000000.0 0.05754510343683484 -0.330720949823687
820000000.0 -0.242787580395682 0.1513062017218358
840000000.0 -0.0521211179042614 -0.2081403555469366
860000000.0 -0.15974659968629126 -0.0766522565888767
880000000.0 -0.07041933266817342 0.12910960441973807
900000000.0 -0.06946680108872011 -0.07109280752798632
920000000.0 -0.04648792845589701 -0.033375925785705
940000000.0 -0.022416736639449493 0.02944283703980027
960000000.0 0.0344927129096815 -0.020319916965557037
980000000.0 0.04879655106137078 0.0391804267784374
1000000000.0 -0.05884103375031365 -0.08244311765187587
1020000000.0 -0.12362829824422596 -0.01293510187323696
1040000000.0 0.13377799384087127 -0.005493025932212384
1060000000.0 -0.036511843154827944 -0.15261683124801592
1080000000.0 0.03397618291080231 0.1735985071307187
1100000000.0 0.12627816961619012 -0.15506192567172875
1120000000.0 0.03023184823304303 0.22252212631070228
1140000000.0 -0.17832918744432485 -0.17895528170671274
1160000000.0 -0.1334936656514642 -0.2469714662731403
1180000000.0 0.03777296105041327 -0.3113327451713792
1200000000.0 0.3485031088283532 0.03309149873508133
1220000000.0 -0.3763340863523098 0.0014670897151290137
1240000000.0 0.3502834345621943 -0.18225197939161544
1260000000.0 -0.36549640855170895 -0.17849718092213698
1280000000.0 -0.4228364706386753 0.028187402527993805
1300000000.0 0.36208254659280753 0.2381853573984697
1320000000.0 0.4226153224410507 -0.10119671919566264
1340000000.0 0.3992599355467314 0.17827083539692157
1360000000.0 0.4305226045757202 -0.08927538418379684
1380000000.0 -0.013121084041125667 -0.42914455712113686
1400000000.0 0.07750334112949446 -0.4124181220808038
1420000000.0 -0.39402292399253597 0.1010825248646929
1440000000.0 0.3176671424283858 0.2171236751983701
1460000000.0 0.20365609479592112 -0.29174774153708455
1480000000.0 -0.20366327821675292 0.24929113614037296
1500000000.0 0.2786689432945306 -0.0402468681563637
1520000000.0 0.13496649961977777 0.20467726269662767
1540000000.0 0.16780153502058773 0.13561224419031268
1560000000.0 -0.1796670961083454 -0.05702606671837259
1580000000.0 0.061418109363088585 -0.15876181263920947
1600000000.0 -0.06515992241476468 -0.12430687840840572
1620000000.0 0.07044782840720185 0.07880050946499813
1640000000.0 -0.06884803552463317 0.043387487129430934
1660000000.0 0.06024437503566595 -0.027458907726816247
1680000000.0 -0.03403702034039343 -0.02703495291338798
1700000000.0 0.005187677805769031 0.020742449479163004
1720000000.0 0.0071637093322858844 0.0037524687421942996
1740000000.0 -0.009484332006697061 0.005631177616199828
1760000000.0 0.026112933657296247 -0.001115923937978437
1780000000.0 -0.014044617365566291 0.047547333720397426
1800000000.0 -0.08774071958151124 -0.03561699454951408
1820000000.0 0.1052897570559672 0.0737832341316431
1840000000.0 -0.08912053855095475 0.14152350485875262
1860000000.0 0.14945789944042487 0.14129301931230936
1880000000.0 0.14716092460482003 -0.1886234190383211
1900000000.0 -0.25749054911655184 -0.10237768928800346
1920000000.0 0.12323132599755546 -0.2899685069120407
1940000000.0 -0.2625369170086072 -0.21131281028860485
1960000000.0 -0.3285310853768973 -0.15915117955506852
1980000000.0 0.2786987692003115 0.2869165180766293
2000000000.0 0.16548735129694978 -0.3884353390020109
2020000000.0 -0.2958967017044977 -0.315045129310852
2040000000.0 0.08527237317284346 0.4291563889397199
2060000000.0 0.33932466206502554 0.27504331840280094
2080000000.0 0.41530439958839754 0.11820210106825198
2100000000.0 -0.06398240863609478 -0.41885032197025984
2120000000.0 -0.07875471899122005 -0.40362012640325323
2140000000.0 0.2135572106796334 -0.3324979785996922
2160000000.0 0.37636078545117735 -0.070913576674188
2180000000.0 0.37300012737148786 -0.0165163054772164
2200000000.0 0.3429860585657369 -0.12197221275025757
2220000000.0 -0.30982244142575277 -0.17230021548212768
2240000000.0 -0.31712094697843657 -0.14468518321574492
2260000000.0 -0.3406566481853221 0.05919248616772775
2280000000.0 0.2385665297924306 0.2515028798380927
2300000000.0 0.20806694599762382 0.28416919223439185
2320000000.0 0.12408219297970229 0.35367009828315793
2340000000.0 0.0769916097454347 -0.4024414645155091
2360000000.0 -0.37541534124112563 -0.24811040627836597
2380000000.0 0.026342519095223758 0.49955963291291205
2400000000.0 -0.4998126445738964 0.2521068678836678
2420000000.0 0.5251790746702673 -0.3113078646240788
2440000000.0 -0.5256307264951114 0.39317501806819255
2460000000.0 -0.6782995400050702 -0.17192414049499538
2480000000.0 0.6782647921606122 0.2731401945006487
2500000000.0 -0.3680425787460168 -0.6566897999193007
2520000000.0 0.7298895814286386 -0.23299217354167046
2540000000.0 -0.6118331122419987 -0.4680458554458915
2560000000.0 -0.31565444581759666 0.6987604757189945
2580000000.0 -0.10239406960417999 -0.7457018902315626
2600000000.0 -0.7255682487629992 0.09590123553575669
2620000000.0 0.152148157423658 0.6891222089784108
2640000000.0 0.429661692012114 -0.5117841801363882
2660000000.0 -0.5251834050347304 -0.3464363504757151
2680000000.0 -0.09073127952493976 0.5774964301904998
2700000000.0 -0.37372624230109136 -0.38008235620191994
2720000000.0 -0.07092021858587193 0.4804250407926711
2740000000.0 0.40448589621173764 -0.16096571628636197
2760000000.0 -0.3068783504660071 0.24367364882604506
2780000000.0 0.35827084649111607 0.037684259595783684
2800000000.0 -0.24488295912978938 -0.22897621123417056
2820000000.0 0.19893408216003436 -0.24402594560314728
2840000000.0 -0.07788441878128649 0.29654544300957514
2860000000.0 -0.08821671132332878 -0.2857036779178974
2880000000.0 0.18601996077018215 -0.2279236730055722
2900000000.0 -0.27076319401347854 -0.11249083761198392
2920000000.0 -0.20972896625201273 0.21465651572984237
2940000000.0 0.05781914679598761 -0.3045751599078338
2960000000.0 -0.2790014705298753 -0.14668868834143917
2980000000.0 -0.30442525559822453 -0.08387567707574645
3000000000.0 -0.3128965229153481 -0.020374099879749717
3020000000.0 0.20468871743038763 0.24229192107800235
3040000000.0 0.21686678938545081 0.2333243472737439
3060000000.0 0.12326668021554786 0.28844159026069377
3080000000.0 0.2607608851767231 -0.1570880895235557
3100000000.0 0.006095446216207563 0.2949266285101806
3120000000.0 -0.26608301237628174 -0.10536255078864401
3140000000.0 -0.120832228729146 0.2473636730321969
3160000000.0 -0.009421129675365692 -0.26245159990659694
3180000000.0 -0.12351538654683224 0.21569257148033635
3200000000.0 0.2026526793043107 -0.11786040281713912
3220000000.0 0.10243740015718104 -0.18346254902957668
3240000000.0 -0.09187146282756538 -0.1527013977719363
3260000000.0 0.13736148302410647 -0.05472948476510811
3280000000.0 0.041331919643234766 0.09576351135446566
3300000000.0 -0.015769215855505257 -0.06932669060878024
3320000000.0 -0.032048697501996 -0.030640759122408347
3340000000.0 0.018483844013149682 0.014058812610576978
3360000000.0 0.005259710834890071 -0.0067606401127787725
3380000000.0 0.0006547042311841704 0.0017093589749693603
3400000000.0 0.009500037698059854 -0.011761506457988593
3420000000.0 0.025807266239770015 0.018807283783981884
3440000000.0 0.04312418719765482 0.016944331338086385
3460000000.0 0.03805772944612953 0.04778710703656352
3480000000.0 -0.07532869718522132 -0.0014128888719936927
3500000000.0 -0.0020504696973633594 0.08781049006263918
3520000000.0 0.06301663411764119 0.0811436551700053
3540000000.0 -0.08391222028175632 0.07961629487401692
3560000000.0 0.11889778317261986 -0.011072639311961292
3580000000.0 0.06344464808628775 -0.11430503388746907
3600000000.0 0.0839502506575293 0.12541917275478762
3620000000.0 0.02722393033651385 -0.15979557059661595
3640000000.0 -0.10888207163359191 -0.14402743063276752
3660000000.0 -0.16440068490476506 -0.09658890663727672
3680000000.0 0.0046079928214071576 -0.1929520238759446
3700000000.0 -0.17294172248884668 -0.08605520999716285
3720000000.0 -0.11374783149565262 -0.15237353905486195
3740000000.0 0.18136099848923423 -0.020626556860071858
3760000000.0 -0.035169148060890366 -0.17415672284392492
3780000000.0 0.04347713863826222 0.16785044628756238
3800000000.0 0.015714080774689037 -0.16616683484367237
3820000000.0 -0.14065555374174507 0.06970593630352119
3840000000.0 -0.14768496497059969 0.0028546494798057896
3860000000.0 -0.043500486328007494 -0.13730479531788037
3880000000.0 0.13159445075574952 -0.06149927932446088
3900000000.0 0.07104863165454779 0.13115520438763278
3920000000.0 0.14664413677556337 0.047003939942798896
3940000000.0 -0.13629140685138452 0.09582629634393874
3960000000.0 -0.09203483854503758 0.14928016816539277
3980000000.0 0.010150560109714463 0.17320712606734376
4000000000.0 0.1627041296446581 -0.03388150663712278
