!Created with skrf (http://scikit-rf.org).
# Hz S RI R 50.0 
!freq ReS11 ImS11
400000000.0 0.8499105873152243 0.1738888127177752
420000000.0 0.714787598329908 -0.44068735124363734
440000000.0 0.7352530917612773 -0.2776128665006096
460000000.0 0.6480449381830617 0.35608958920066924
480000000.0 0.19098529874421316 -0.6634798740605758
500000000.0 0.12323891894576658 0.5931614416733878
520000000.0 0.4982539399689196 0.10838408241656572
540000000.0 -0.4211037922119425 0.12529293732207228
560000000.0 0.22119054156096607 0.32475282899832325
580000000.0 -0.34781606401759696 0.0828135705706175
600000000.0 0.2282816702743425 -0.2704420265365512
620000000.0 -0.35088565841242414 0.013903028475624283
640000000.0 0.07502913577383657 -0.39318480561767755
660000000.0 -0.4062777751618153 0.06066885863003824
680000000.0 -0.14970692938339908 -0.42886124764142836
700000000.0 0.4106250169164401 0.22665115416141055
720000000.0 -0.3190068885870155 0.35055107779261074
740000000.0 0.4284232593613242 -0.06795835403925231
760000000.0 0.3222037025345192 0.22064866036379044
780000000.0 0.004289618672009094 -0.35785964047457874
800000000.0 0.12528931453290057 -0.306342759393898
820000000.0 -0.22446489350193616 -0.1800998139942495
840000000.0 0.03456093606722763 -0.22093492367284073
860000000.0 0.003034381477955302 0.18217654230137284
880000000.0 -0.10749175528875492 0.097374950512023
900000000.0 0.08063684539274676 0.04365133978647422
920000000.0 -0.002891811094192162 0.04872942753924024
940000000.0 -0.0029313693290764914 -0.034750967445976576
960000000.0 -0.035705974871295516 0.003604393541900109
980000000.0 0.0463366529980228 0.030496827557669574
1000000000.0 -0.06219412935621235 -0.062300528670991936
1020000000.0 0.09436079599487249 0.06226519068604169
1040000000.0 -0.11974359624345371 -0.047726389974013836
1060000000.0 -0.09070239952946245 0.12849153448931783
1080000000.0 -0.10443538503514525 -0.15079752862018994
1100000000.0 0.08728903582734947 -0.1933846824224127
1120000000.0 0.1592100909539288 -0.17360082145327593
1140000000.0 -0.03316235231139162 0.25162464654263744
1160000000.0 -0.045857811320327575 0.2744403360136647
1180000000.0 -0.29806027768571675 -0.0742932274912239
1200000000.0 0.2760088061072178 0.20196843773762035
1220000000.0 -0.37786734552803153 -0.023583735756815567
1240000000.0 0.28024368892912804 -0.28863067210049326
1260000000.0 -0.3906132204685271 0.12936488292251613
1280000000.0 0.15498410717575264 0.39379474122293645
1300000000.0 0.4248938565741154 -0.011082699030277298
1320000000.0 0.388259254661823 0.1785856834048018
1340000000.0 0.23940399036745752 0.3652197589642037
1360000000.0 0.38649254015809126 0.22498015334057414
1380000000.0 0.04344359266833327 -0.44029501900929635
1400000000.0 -0.42801099823642447 0.051723263124593764
1420000000.0 0.383746299942549 0.13376220083343135
1440000000.0 0.2196597223191828 -0.3004072385016384
1460000000.0 0.15106944584636858 -0.30541327713067323
1480000000.0 -0.26725205515232686 -0.16638616717737145
1500000000.0 0.0524031801313224 0.27983356289840206
1520000000.0 0.12791076626395315 0.2140951856805448
1540000000.0 0.009472969951699207 -0.21755425216606455
1560000000.0 -0.05528868948356308 0.18130294737045557
1580000000.0 -0.16320066931195357 0.026163230903559476
1600000000.0 -0.1320546306543487 0.022012595335908644
1620000000.0 -0.09813762502513493 -0.04365101917672876
1640000000.0 -0.07877282317819584 0.03921837907134388
1660000000.0 -0.015954652256736136 -0.0710021941596687
1680000000.0 0.040211350631728204 0.02292119036268575
1700000000.0 -0.02023885477777239 0.005278690227853424
1720000000.0 0.0008742178501192021 0.0010760313976062644
1740000000.0 0.010411013627617507 -0.01613964162970925
1760000000.0 -0.015439681572026034 0.035062774650247736
1780000000.0 -0.058049628631754134 0.017409910124193923
1800000000.0 -0.014876054272008006 0.09449201906310935
1820000000.0 0.07974899145869466 0.09482141466386075
1840000000.0 0.14592543187638424 -0.06732991307694759
1860000000.0 -0.12232722227024204 0.15500507829917715
1880000000.0 0.1796150337457776 0.15779981956801675
1900000000.0 -0.2382103807825964 -0.16052613654423314
1920000000.0 0.28228124545422417 -0.16393404520274138
1940000000.0 -0.3170104860622135 0.15083107517344585
1960000000.0 0.24686572568630064 0.2803828501397407
1980000000.0 0.30954551514378936 -0.2537581288621587
2000000000.0 -0.38292582965597505 -0.1650084929435649
2020000000.0 -0.34770945765707006 0.2459480550603089
2040000000.0 -0.03825652744204913 0.4326392006744313
2060000000.0 0.37058911673946077 0.2322370592392919
2080000000.0 0.32587646881765525 -0.28630103594785633
2100000000.0 -0.1053751256117546 -0.41398643725899614
2120000000.0 -0.34190172690774745 -0.23439747723965623
2140000000.0 -0.38064819828998175 -0.11736896468342328
2160000000.0 0.2702894149354902 -0.27584923898472674
2180000000.0 0.054730143206215554 -0.37073188711388305
2200000000.0 -0.280204779871048 -0.2298639107269616
2220000000.0 -0.35128123635420566 -0.03743056060574573
2240000000.0 -0.3058581521236543 0.16844540897239255
2260000000.0 -0.02321080910981596 0.34903673226151766
2280000000.0 0.30131421057537133 0.18128405641882986
2300000000.0 0.3343697277428152 -0.13622331686017505
2320000000.0 0.09330440709015475 -0.37501047249190395
2340000000.0 -0.40798626341820926 -0.09271942505058405
2360000000.0 0.11013813720840349 0.44559684155837376
2380000000.0 -0.038642052844060464 -0.5097927512558539
2400000000.0 0.31990814519387234 0.4648720565942196
2420000000.0 -0.5963698171883834 -0.15201700959476697
2440000000.0 0.5496994440265204 -0.36908804675136025
2460000000.0 -0.14898697573631933 0.6854437915282477
2480000000.0 -0.28761309898392745 -0.6727834711967534
2500000000.0 0.3972494777015109 0.6372891689478513
2520000000.0 -0.2454904688152042 -0.7208569433732324
2540000000.0 -0.0452389703004792 0.7615832098822071
2560000000.0 0.5495223743498412 -0.5199284219220827
2580000000.0 -0.7103872000594439 -0.214762496287034
2600000000.0 0.3062890138837777 0.6492458010234633
2620000000.0 0.22887552372164538 -0.649863158897904
2640000000.0 -0.19839682499911612 -0.6213703605447242
2660000000.0 -0.2639974629919095 0.548898216007315
2680000000.0 0.5293844938711677 -0.18626629295408467
2700000000.0 -0.4152489776649988 -0.3021662924147264
2720000000.0 0.2573472217991089 0.39096121600686795
2740000000.0 -0.030618766398525808 -0.4199338279632272
2760000000.0 -0.22126984446356543 0.3123183193907413
2780000000.0 0.15432411942110386 -0.31327452033900655
2800000000.0 -0.10861637780409072 0.30343085639575734
2820000000.0 0.15194709712355892 -0.2627537686643237
2840000000.0 0.07870226153700954 0.2852811556194663
2860000000.0 -0.2858061515646272 -0.05206210017638324
2880000000.0 0.15837449635001757 -0.24060558579324345
2900000000.0 -0.2331626229208723 0.16784950744567842
2920000000.0 0.21143133986885135 0.20320325678873652
2940000000.0 0.12910091635252183 -0.27425387891126907
2960000000.0 -0.30578508896675466 -0.051012425875347406
2980000000.0 -0.12061413385586668 0.2877444502893257
3000000000.0 -0.30000117716175206 0.08556798302062
3020000000.0 -0.1913592895270939 -0.24873597531849623
3040000000.0 0.09714826898299193 -0.297174591158735
3060000000.0 0.233015896988404 0.20089613594212197
3080000000.0 -0.2655500372259298 -0.13450501253408084
3100000000.0 0.15690600355837708 0.24292385864171523
3120000000.0 -0.16522292045979323 -0.23086533635500522
3140000000.0 0.1611871379033666 0.22189455014835907
3160000000.0 -0.23103139946578286 -0.12460665639607925
3180000000.0 0.027133371756618264 0.2468433468260225
3200000000.0 -0.2165848875524615 0.07427714361273698
3220000000.0 -0.18856915833246687 -0.07533167487304343
3240000000.0 0.016762720623957488 -0.17175920216387308
3260000000.0 0.1200935661074128 -0.068835531597389
3280000000.0 -0.09934398381015729 -0.023576577395015678
3300000000.0 0.05557950130213658 0.04857636747319505
3320000000.0 -0.03450000312929564 0.025572809308667926
3340000000.0 -0.02316163952000153 -0.004804306004366475
3360000000.0 -0.0065936381965680324 0.007324208798105102
3380000000.0 -0.001191789142561459 0.006017401626731918
3400000000.0 0.006360567753819603 0.011973341250997811
3420000000.0 0.013376789200193353 0.02646512772277086
3440000000.0 0.04388464028991426 0.009655039915580062
3460000000.0 -0.05643162202932084 -0.0223613371809848
3480000000.0 0.05783808316599065 0.04387226513358317
3500000000.0 -0.050908117186781815 -0.0738316411841114
3520000000.0 -0.03742484912230212 -0.09431334827376318
3540000000.0 0.03959422589300791 0.10482964450103928
3560000000.0 -0.05039695188864563 -0.10866823210748876
3580000000.0 -0.12734144337140038 -0.03176437802250964
3600000000.0 0.14786292567249476 0.01672661261011339
3620000000.0 -0.14220027911433875 0.08254119774845999
3640000000.0 -0.1511553306802103 0.10024520312926319
3660000000.0 -0.1893692602919362 -0.011012519793465871
3680000000.0 -0.19555553043894783 -0.01481879332309167
3700000000.0 -0.13125623252409 0.14505902462002995
3720000000.0 -0.19038997747569503 -0.010981147132335273
3740000000.0 0.1010493181100572 -0.1505325871559583
3760000000.0 -0.07536360140953426 -0.16113801807304218
3780000000.0 -0.08008675767823163 0.155865038461649
3800000000.0 0.030427290762371235 -0.16705750243737935
3820000000.0 -0.13124272452683022 0.09489883286622484
3840000000.0 -0.0738139102448685 0.13211618459595117
3860000000.0 -0.13685307748336123 0.05007044486404527
3880000000.0 0.07809352889184971 -0.12095765965166554
3900000000.0 -0.004403421784244136 0.1476070912836291
3920000000.0 0.11196279864105055 0.11477856765765579
3940000000.0 -0.09119414882719716 0.14654483848649164
3960000000.0 0.10299736862057575 0.14807198206217217
3980000000.0 0.08952304102067818 -0.15480697519408304
4000000000.0 -0.09302397234271684 -0.14202309245689052
