!Created with skrf (http://scikit-rf.org).
# Hz S RI R 50.0 
!freq ReS11 ImS11
400000000.0 0.5424222867152727 0.6829349621737106
420000000.0 0.8056247252137031 -0.25517257508551755
440000000.0 0.6376672404652819 -0.47722290471811024
460000000.0 0.7329417212955448 0.06466218283818281
480000000.0 0.1720365134653135 -0.656501315086389
500000000.0 -0.35338893394026905 0.4858805462469917
520000000.0 -0.1401691498273544 0.49149075573264184
540000000.0 -0.13336986780936036 -0.41831602095520604
560000000.0 -0.07267306435826187 0.39539819612565347
580000000.0 -0.34840271144636614 -0.10749962382833511
600000000.0 0.33378840194598053 -0.1217951647836159
620000000.0 -0.11614899427345596 -0.3366235016535171
640000000.0 0.4028125290733115 -0.09721577507719645
660000000.0 0.39969222709721786 0.11553291383795604
680000000.0 -0.2844461391586246 -0.33916673546640363
700000000.0 0.14453622698770224 0.43853559951053306
720000000.0 -0.30592098977378807 0.3528913348242077
740000000.0 0.18005392456722244 0.386230770520414
760000000.0 -0.39696676584027935 -0.012118324160527813
780000000.0 -0.25481908637449213 -0.2675861108367961
800000000.0 0.02844920747465384 -0.3339259392809494
820000000.0 -0.22503246597769286 0.17664767068043816
840000000.0 -0.08559520844197047 -0.19723643216367787
860000000.0 -0.17116376652616494 -0.04830616334605595
880000000.0 -0.07886777682313352 0.12464694170309411
900000000.0 -0.04957717835490961 -0.08646286371398774
920000000.0 -0.044025721972809614 -0.035055326632074425
940000000.0 0.00032076124602381295 0.035913541425037644
960000000.0 0.03440251080551057 -0.020859322310527298
980000000.0 0.038578164190279846 0.049815930972036813
1000000000.0 -0.032941166312124806 -0.09560134564836163
1020000000.0 -0.12393595946141331 -0.0039639244537153
1040000000.0 0.13369871724285576 -0.00870476442476144
1060000000.0 -0.054342242480266534 -0.1475098221527251
1080000000.0 0.02194419138170468 0.1759751254111092
1100000000.0 0.13063723064377458 -0.15133505987923598
1120000000.0 0.0417466846005462 0.22067918095155195
1140000000.0 -0.1763000829407353 -0.18145458879835985
1160000000.0 -0.12688540591666533 -0.2508836473217103
1180000000.0 0.05567905465616961 -0.30863243290494974
1200000000.0 0.33829523430700875 0.0897461282871019
1220000000.0 -0.375564785791015 -0.022033698493158282
1240000000.0 0.37069299826616847 -0.1364130012413326
1260000000.0 -0.36135735438879163 -0.186300930088649
1280000000.0 -0.4242528158251207 -0.0010360251356776884
1300000000.0 0.35710425939908 0.24629054163015426
1320000000.0 0.42368271462268203 -0.09739582106977634
1340000000.0 0.3952708756995362 0.18766111502528737
1360000000.0 0.4293851786255158 -0.09609527680611953
1380000000.0 -0.01715657869738543 -0.42921721567432314
1400000000.0 0.08358928064029898 -0.4116095521737384
1420000000.0 -0.3973278173807318 0.08913593080557565
1440000000.0 0.32504804304817525 0.20678171195576128
1460000000.0 0.1916596527080475 -0.3000896126514646
1480000000.0 -0.1718813588340218 0.2721185833853435
1500000000.0 0.27742841818840625 -0.05052461436555926
1520000000.0 0.13595856011096907 0.20464654691086936
1540000000.0 0.1568208067209626 0.14925336864549546
1560000000.0 -0.17175204798944 -0.07768521129039968
1580000000.0 0.0920310366720178 -0.14326774019037172
1600000000.0 -0.05183061694702794 -0.1304198773847025
1620000000.0 0.06204101662040385 0.0863506680065335
1640000000.0 -0.07413376765788433 0.03446966540797847
1660000000.0 0.06598234332369603 -0.006424471969976971
1680000000.0 -0.04276759711170245 -0.004891835610189665
1700000000.0 0.014183192627572337 0.016147922787895286
1720000000.0 -0.0060365710064691136 0.005351310511502713
1740000000.0 0.008775011076556828 0.006392081844820575
1760000000.0 0.023515001141444572 -0.010315474411783357
1780000000.0 -0.031170558543819817 0.03883274402116995
1800000000.0 -0.06903893754489956 -0.06457910251481092
1820000000.0 0.09641316052209263 0.08456198109765718
1840000000.0 -0.0929570851810694 0.1393787321451188
1860000000.0 0.15577255172392723 0.13425021608307922
1880000000.0 0.15436089480524082 -0.18300669041384274
1900000000.0 -0.25257601871771074 -0.11447619880220915
1920000000.0 0.12183863541853801 -0.29046553133703534
1940000000.0 -0.26614285215921685 -0.20654247337916878
1960000000.0 -0.33300732393551896 -0.14987117239373668
1980000000.0 0.2890492861982755 0.27625059992450324
2000000000.0 0.16014987341847814 -0.3908359801329506
2020000000.0 -0.2955992570462104 -0.31592053736339176
2040000000.0 0.17119964451830932 0.40301429557756796
2060000000.0 0.3498611056434168 0.2616972738031445
2080000000.0 0.42333236836961474 0.08487688995228214
2100000000.0 -0.10129651691507019 -0.4114172928087399
2120000000.0 -0.10530141240573798 -0.397811881635173
2140000000.0 0.16363271009128286 -0.36038934183433813
2160000000.0 0.37805007786686756 -0.0643885320430666
2180000000.0 0.3735714322033649 -0.008988672893346806
2200000000.0 0.35298095174298955 -0.09114045080990482
2220000000.0 -0.2945698211597904 -0.19858584837237891
2240000000.0 -0.31067930996818216 -0.15808875388538948
2260000000.0 -0.34526332396824905 0.026201874115934363
2280000000.0 0.23050868675042888 0.25888933002532266
2300000000.0 0.2128993048933747 0.2810412178548916
2320000000.0 0.1276524449834635 0.352214423714816
2340000000.0 0.08610937973552264 -0.40049811820735143
2360000000.0 -0.36530286964813 -0.2623650684156332
2380000000.0 0.03300474571317276 0.49919582402332824
2400000000.0 -0.5108112401837489 0.2283183095689436
2420000000.0 0.5390827910636483 -0.2864172782047586
2440000000.0 -0.535209043679019 0.3799193989655638
2460000000.0 -0.6739330494965673 -0.18873352153070683
2480000000.0 0.6759251206564819 0.2794587860072026
2500000000.0 -0.39001289176320536 -0.6444267373871146
2520000000.0 0.7011968079489077 -0.31004805903860344
2540000000.0 -0.5961257892479728 -0.4887559033560157
2560000000.0 -0.3449105178578607 0.6858306980744926
2580000000.0 -0.08778483768710214 -0.7489231466576131
2600000000.0 -0.7223487808445611 0.12339174913042027
2620000000.0 0.1282423801405819 0.6956447069930821
2640000000.0 0.4547839695675389 -0.49303278860305383
2660000000.0 -0.49352890039011843 -0.3930927104189853
2680000000.0 -0.18084357452749578 0.5570966352735972
2700000000.0 -0.2967190995578879 -0.44364843872351045
2720000000.0 -0.10173013395224759 0.47539933056372646
2740000000.0 0.409938028636743 -0.14884794908597435
2760000000.0 -0.31856900164585494 0.2288392165515744
2780000000.0 0.3545170624779974 0.06379357288790911
2800000000.0 -0.2336119393081771 -0.24072548087104148
2820000000.0 0.19723910025145394 -0.24521666218960217
2840000000.0 -0.08987271952659584 0.29333326137989546
2860000000.0 -0.11168043002278545 -0.2767618385215457
2880000000.0 0.15977941894137293 -0.24721618989041594
2900000000.0 -0.28269979059018446 -0.07968676754689465
2920000000.0 -0.14915940534322328 0.2604574550051006
2940000000.0 0.010713712460088827 -0.3100451210933687
2960000000.0 -0.28826377119419117 -0.12895386308437273
2980000000.0 -0.31196990700776744 -0.044859805998076784
3000000000.0 -0.3116681967708731 -0.03803736640605266
3020000000.0 0.175126561978076 0.26529403749543157
3040000000.0 0.21456103315072902 0.23781834765629245
3060000000.0 0.09517452526707328 0.30051332664831043
3080000000.0 0.27727875600955915 -0.12833978756998038
3100000000.0 -0.06283318830578809 0.2893287813005302
3120000000.0 -0.21723382158824625 -0.18608568049175883
3140000000.0 -0.1777719318811166 0.21020895825379834
3160000000.0 0.03669484683733041 -0.25979638871124466
3180000000.0 -0.18246806400071514 0.16705281605382752
3200000000.0 0.21988677933750797 -0.07886043101776503
3220000000.0 0.1318397979449178 -0.1619014378938146
3240000000.0 -0.06264889220539147 -0.16586982543047207
3260000000.0 0.1373501454898655 -0.05239296843980108
3280000000.0 0.044127624658059715 0.09357349476718478
3300000000.0 -0.0376195898637427 -0.059097807097712014
3320000000.0 -0.0051368225427916685 -0.04356999101950518
3340000000.0 -0.0014593630433105962 0.02282613149296173
3360000000.0 -0.007367353897549403 0.004255352676547199
3380000000.0 -0.00038285232134755126 0.0016956037710257254
3400000000.0 0.015191307771551218 0.0005995895457635646
3420000000.0 0.0049857242574828245 0.03149855547745744
3440000000.0 0.019956248368141763 0.04127749642088632
3460000000.0 0.02445347385259554 0.05531026127889406
3480000000.0 -0.07492822278497094 -0.00584780687407635
3500000000.0 0.024654680588949256 0.0838674043557861
3520000000.0 0.0788544522882497 0.0662117595337744
3540000000.0 -0.09674220963408063 0.06216816072902522
3560000000.0 0.11475279417541032 -0.029794506964532612
3580000000.0 0.05174658565207863 -0.11999477885800215
3600000000.0 0.030624363551100334 0.1470401511206882
3620000000.0 0.03536177636977547 -0.1573216627178807
3640000000.0 -0.09109301579286476 -0.15444844655947326
3660000000.0 -0.15074881916936833 -0.11612287489818614
3680000000.0 0.027872352367609165 -0.1908293022099491
3700000000.0 -0.16152050518003652 -0.1078369932264338
3720000000.0 -0.09428335207304268 -0.16511918315120278
3740000000.0 0.1823370456438207 -0.011898838005233819
3760000000.0 -0.01466835585735474 -0.1773395403693059
3780000000.0 0.0008312789567928195 0.17328827649749615
3800000000.0 0.028756707178465762 -0.1645044129871773
3820000000.0 -0.15332121761196804 0.034427944528396225
3840000000.0 -0.1470107331456151 -0.01131323197314134
3860000000.0 -0.037708759388084954 -0.13905468110823144
3880000000.0 0.1413954405199517 -0.03496854044874266
3900000000.0 0.03292796794665919 0.1458504505648811
3920000000.0 0.13600386938973774 0.07319806010145592
3940000000.0 -0.1591376709544817 0.05236542841180127
3960000000.0 -0.15533814101096396 0.08302148680571286
3980000000.0 -0.0956166814848549 0.1458650474525302
4000000000.0 0.13649805648296653 0.09604412429012466
