!Created with skrf (http://scikit-rf.org).
# Hz S RI R 50.0 
!freq ReS11 ImS11
400000000.0 0.8456675739053785 0.18882873498195737
420000000.0 0.7192002004463275 -0.43399724033793197
440000000.0 0.7394082187036338 -0.26658679544541364
460000000.0 0.6465434214874938 0.3589578828699851
480000000.0 0.18663536786036106 -0.6647817532004004
500000000.0 0.13087826432378116 0.5912292254952755
520000000.0 0.5021593817711628 0.08866796240010812
540000000.0 -0.42091822208761326 0.12560856032790146
560000000.0 0.22646671080284042 0.3212047705886477
580000000.0 -0.3507709923234848 0.07042966498747237
600000000.0 0.2306051497829114 -0.2686275144658967
620000000.0 -0.35005823127070457 0.03206738236542612
640000000.0 0.08930666606082123 -0.39050820505133865
660000000.0 -0.39938526758060894 0.0958358597456058
680000000.0 -0.14483137587932304 -0.4304132893348601
700000000.0 0.4035804043356663 0.23880588328779304
720000000.0 -0.3024587861550439 0.36498620896115774
740000000.0 0.43112627694632905 -0.048753436211076674
760000000.0 0.32358572807137786 0.21907278492428023
780000000.0 -0.020640483504006227 -0.3572963543331713
800000000.0 0.10155259170400971 -0.3150810943886559
820000000.0 -0.2371971673603689 -0.16273582628819142
840000000.0 0.04796567685368875 -0.21810164170600882
860000000.0 -0.023327767594434678 0.1808061992929295
880000000.0 -0.12381468298742636 0.0759599700916908
900000000.0 0.07789768173694668 0.048359575865345616
920000000.0 0.0034891447003296445 0.04831152811934566
940000000.0 -0.01775863131766444 -0.029795181017970598
960000000.0 -0.03506831158851192 -0.007079567400962381
980000000.0 0.04816193233258959 0.027400202698413038
1000000000.0 -0.06244334878217242 -0.06213791279502712
1020000000.0 0.10113856973925646 0.05062785811008742
1040000000.0 -0.12346713462636147 -0.03677540087050034
1060000000.0 -0.09109218212034513 0.12835783001473183
1080000000.0 -0.09840149493058915 -0.1548013424735925
1100000000.0 0.09420817847362968 -0.19015833719501818
1120000000.0 0.1601951216697052 -0.17298184776621156
1140000000.0 -0.029917147680256054 0.2519481886882066
1160000000.0 -0.04940589589179256 0.2735980272091051
1180000000.0 -0.29491733907753825 -0.0854839582980511
1200000000.0 0.27368949631112494 0.2054377489913555
1220000000.0 -0.37866129662360504 -0.009245426877553115
1240000000.0 0.269271862879772 -0.2991806976416305
1260000000.0 -0.38592088784216444 0.14324781140368953
1280000000.0 0.16113858514031637 0.39137533442821787
1300000000.0 0.42480337008731145 -0.017589791757750554
1320000000.0 0.38425235746668307 0.187076842075897
1340000000.0 0.243558537901732 0.36265778474725946
1360000000.0 0.38362855182427674 0.23021450649087216
1380000000.0 0.06636917141669103 -0.43746550889686975
1400000000.0 -0.4281634669701949 0.05059771276866238
1420000000.0 0.37473458214988825 0.15807705616937448
1440000000.0 0.2064744707584802 -0.30974401545088703
1460000000.0 0.1337298632340806 -0.31331026612145085
1480000000.0 -0.27783665227892307 -0.14749690206348157
1500000000.0 0.06640043816384607 0.27667921514654026
1520000000.0 0.12141438354994127 0.21782956636831344
1540000000.0 -0.011743607982094444 -0.2175591839740271
1560000000.0 -0.06488633018863145 0.17848242567179984
1580000000.0 -0.1631531665329473 0.027635121434133516
1600000000.0 -0.13253083837964424 0.018877829468978286
1620000000.0 -0.10307986907934549 -0.03042793957353951
1640000000.0 -0.07685800240588203 0.04309506243235617
1660000000.0 -0.004117520358872752 -0.0726327874930398
1680000000.0 0.04096074576633259 0.0218602696541784
1700000000.0 -0.018777414287271803 -0.00829739901318502
1720000000.0 -0.0006626151340789794 0.0009988617731349586
1740000000.0 -0.01797305446740713 -0.008011991897083633
1760000000.0 -0.030983073230699203 0.022319022375052525
1780000000.0 -0.06030619266272795 -0.005178617831762012
1800000000.0 -0.027883756322421252 0.09167861716230252
1820000000.0 0.0654095935066588 0.10547222589874976
1840000000.0 0.15362717219461083 -0.04738611612178253
1860000000.0 -0.13194317459402452 0.146772247586265
1880000000.0 0.17754300182144547 0.15985429590929245
1900000000.0 -0.2336239142782731 -0.16679883975770488
1920000000.0 0.2831532586367642 -0.16179379650388237
1940000000.0 -0.31567489619001393 0.15287519299529928
1960000000.0 0.24725606006953416 0.27996041560940416
1980000000.0 0.2997579747918099 -0.26514848536814073
2000000000.0 -0.3907395952200799 -0.14579289956935118
2020000000.0 -0.3202273801958697 0.28108509165584766
2040000000.0 -0.0536561805224556 0.4312092971787505
2060000000.0 0.3868472690116691 0.2040398800910176
2080000000.0 0.3168972896542392 -0.2966033321838306
2100000000.0 -0.11127284885984771 -0.4126584546936039
2120000000.0 -0.3182931230138292 -0.2665533681513353
2140000000.0 -0.38225755787643334 -0.11282780766881181
2160000000.0 0.27459398382401995 -0.27207126185588254
2180000000.0 0.07356639555731481 -0.3678575766644778
2200000000.0 -0.2631657260121815 -0.24934611208458388
2220000000.0 -0.3505485705799777 -0.045128316087492536
2240000000.0 -0.3101314478075573 0.16006389896446577
2260000000.0 -0.032750919130604794 0.34783808748547707
2280000000.0 0.29962477974979873 0.1835086477370177
2300000000.0 0.3372620972990487 -0.12738576678998847
2320000000.0 0.1030756188843044 -0.37180957886668536
2340000000.0 -0.4124299977939065 -0.07019268332671401
2360000000.0 0.12163591649014963 0.4423983803814273
2380000000.0 -0.03949687710854107 -0.509357577109258
2400000000.0 0.33534245492240744 0.4537393697713362
2420000000.0 -0.6068866363612674 -0.10175135069258857
2440000000.0 0.5364667069844978 -0.3885808701218394
2460000000.0 -0.13091127320125454 0.6894749399826613
2480000000.0 -0.3040807518426147 -0.6657959388484722
2500000000.0 0.3587177796421881 0.6602917758510375
2520000000.0 -0.24638582929474256 -0.7207696204341979
2540000000.0 -0.03176703760201685 0.7624409109572355
2560000000.0 0.5691651079935552 -0.49870112071099887
2580000000.0 -0.7247193845228693 -0.1601051986131811
2600000000.0 0.30164583939421874 0.6516116319448846
2620000000.0 0.2249387434314811 -0.651422417254612
2640000000.0 -0.1947133785490455 -0.6224791231219567
2660000000.0 -0.25268191598559314 0.5540060131032414
2680000000.0 0.5378545596712517 -0.15961128064852845
2700000000.0 -0.4066151441202911 -0.3135582611281298
2720000000.0 0.25143635420763144 0.3946390757270617
2740000000.0 -0.01756275437986358 -0.42045031774956215
2760000000.0 -0.22405385756454912 0.3100145563649277
2780000000.0 0.15542187267948918 -0.31260437124153084
2800000000.0 -0.09851550164468245 0.30676790211319777
2820000000.0 0.14828380983155023 -0.26481240732030686
2840000000.0 0.08252058804822932 0.2841211260269375
2860000000.0 -0.285011270416083 -0.057609507530187724
2880000000.0 0.16287610892851653 -0.23759122101255792
2900000000.0 -0.23840679349028887 0.16077995534785638
2920000000.0 0.22779875376388775 0.18435698386227617
2940000000.0 0.11597336197012048 -0.280023588157284
2960000000.0 -0.30964828584400544 -0.013967050290819915
2980000000.0 -0.11307887800048522 0.2906234064310596
3000000000.0 -0.29658274317099753 0.09631342934951587
3020000000.0 -0.19753390586637026 -0.2442693803954292
3040000000.0 0.15851790362527618 -0.2697058349358264
3060000000.0 0.2246368240124615 0.21054625776895775
3080000000.0 -0.2561015884353641 -0.15236368826402946
3100000000.0 0.1575549265406202 0.24289733980269168
3120000000.0 -0.1493335649102188 -0.24162619767471913
3140000000.0 0.1475808830107033 0.2315421056525582
3160000000.0 -0.22132697070600343 -0.14169179640938484
3180000000.0 -0.012282414488912463 0.24827825613619403
3200000000.0 -0.2229729873088437 0.05339302451106716
3220000000.0 -0.17332644866282457 -0.10618700917605522
3240000000.0 0.0527118239295701 -0.16433852367338914
3260000000.0 0.12472133816889666 -0.05954000176686062
3280000000.0 -0.09009208507721927 -0.04735447168717049
3300000000.0 0.035382592306000035 0.06438961579791891
3320000000.0 -0.04040451443934946 0.013624143830095567
3340000000.0 -0.018488892975809117 -0.014160121639946609
3360000000.0 -0.0023972469877035674 -0.009499016721503096
3380000000.0 2.438479507497734e-06 -0.006374408193034143
3400000000.0 0.012500495804355726 0.006515133555891714
3420000000.0 0.0013867405306207995 0.029926248630973557
3440000000.0 0.03708043176790898 0.02597538361314768
3460000000.0 -0.05066541677899437 -0.03400979869580628
3480000000.0 0.03310877034862425 0.06502746831668176
3500000000.0 -0.039513770149801536 -0.08088543484363328
3520000000.0 -0.008793941337009193 -0.10127852197717645
3540000000.0 0.028841592305506255 0.10860058920577405
3560000000.0 -0.022399260611803647 -0.1175289484724483
3580000000.0 -0.11601372288772957 -0.06104450784005549
3600000000.0 0.13826460917357897 0.054118765512830666
3620000000.0 -0.1508148697944554 0.06514108377767898
3640000000.0 -0.16226095427224538 0.08092280295681291
3660000000.0 -0.18468337544575147 -0.04270599473673784
3680000000.0 -0.1929758034551481 -0.03285721119327991
3700000000.0 -0.14359692906789234 0.13224631734597564
3720000000.0 -0.18774849530558296 -0.03415673447709158
3740000000.0 0.12032112090403818 -0.1350636224642547
3760000000.0 -0.06535065677525402 -0.16507565417459868
3780000000.0 -0.06749599454583603 0.16065209943807118
3800000000.0 0.03729315889073332 -0.16532742336591089
3820000000.0 -0.1310279916455844 0.09475197189259499
3840000000.0 -0.07248084447559966 0.13262449096269457
3860000000.0 -0.13396771875570196 0.05709140297268564
3880000000.0 0.05098489354991964 -0.13437730023019132
3900000000.0 0.01539793403970089 0.14682327143341142
3920000000.0 0.12072130220033536 0.10535862534701984
3940000000.0 -0.06313539771611572 0.15980109876679485
3960000000.0 0.09631095746864082 0.15285283475635467
3980000000.0 0.071867643204049 -0.16377318227328308
4000000000.0 -0.11150865278329511 -0.12769366176123478
