!Created with skrf (http://scikit-rf.org).
# Hz S RI R 50.0 
!freq ReS11 ImS11
400000000.0 0.6099834894171419 0.6239440543701747
420000000.0 0.7872664819542373 -0.30850739704378377
440000000.0 0.616750910112548 -0.5061537113612284
460000000.0 0.7338725969099763 0.06823749938286364
480000000.0 0.18194752437085993 -0.6541850053178214
500000000.0 -0.3630794365522645 0.4787854414172029
520000000.0 -0.14644269617981098 0.49004206125360766
540000000.0 -0.1278748140878112 -0.4203227257305122
560000000.0 -0.07493778632454794 0.39520450097989795
580000000.0 -0.35122689272499413 -0.09752205695967976
600000000.0 0.3153584130962418 -0.16500122174488815
620000000.0 -0.15784717095319414 -0.31938359574504543
640000000.0 0.40165864886494806 -0.10282930223805554
660000000.0 0.39559566407408664 0.12834209982771827
680000000.0 -0.2884796223416625 -0.3353819814545715
700000000.0 0.1321698478908391 0.44303054080984555
720000000.0 -0.3299578194041455 0.3316285489191806
740000000.0 0.16640460837564774 0.3917329778263114
760000000.0 -0.39305054866970895 -0.05243474936111203
780000000.0 -0.22272200197768918 -0.29460772673074714
800000000.0 0.04243094098170586 -0.33279255261077095
820000000.0 -0.2377754389120817 0.15879592388054237
840000000.0 -0.0768707755895065 -0.20004550184591544
860000000.0 -0.1650744320233115 -0.06411641896516374
880000000.0 -0.061539412012190105 0.13370908226434358
900000000.0 -0.07607732239977638 -0.06411425176009757
920000000.0 -0.05086716213863546 -0.026211579926757603
940000000.0 -0.020936983305415595 0.031017084438930784
960000000.0 0.03935119703594078 -0.008097842927342884
980000000.0 0.04907660273258596 0.039049947445454584
1000000000.0 -0.05987192510413656 -0.08159951815902701
1020000000.0 -0.12381100911889427 -0.009439426457919849
1040000000.0 0.132394263785274 -0.01915983002385343
1060000000.0 -0.057422367109354576 -0.14601622838339903
1080000000.0 0.04144979964605354 0.17200727789965828
1100000000.0 0.10082833637132443 -0.17288058050513644
1120000000.0 0.020899317456112985 0.22364029728521423
1140000000.0 -0.17869113254414645 -0.17891265828867842
1160000000.0 -0.1255900967106481 -0.25122012061646065
1180000000.0 0.03836771395823995 -0.311411207616183
1200000000.0 0.34825351840673563 0.036028581991740846
1220000000.0 -0.3764014057578954 -0.0015941791856609981
1240000000.0 0.356449454852618 -0.16968117357920673
1260000000.0 -0.35936991403756374 -0.19058763250899802
1280000000.0 -0.42315626277396073 0.02515574866681104
1300000000.0 0.3607384532074064 0.2401971451548207
1320000000.0 0.4204126868630318 -0.10995322129986775
1340000000.0 0.39985355503492404 0.1769536722638501
1360000000.0 0.4289366420064001 -0.09695376279400003
1380000000.0 -0.034428031181181505 -0.4279286303743255
1400000000.0 0.062499757515253655 -0.4149480759821662
1420000000.0 -0.3881844974312706 0.12112265996001124
1440000000.0 0.3286384021832188 0.1996256776856992
1460000000.0 0.19215901636394808 -0.2992490346572804
1480000000.0 -0.19597692938240469 0.25503822509956564
1500000000.0 0.27403719025675843 -0.06272220185144205
1520000000.0 0.14326588092146952 0.1992423728817186
1540000000.0 0.18093993274886033 0.11780468910167075
1560000000.0 -0.17981924702206553 -0.057413617297373674
1580000000.0 0.04210074566284329 -0.16506565183122981
1600000000.0 -0.09251763199938219 -0.10559630290437813
1620000000.0 0.06946843974495152 0.08001479952813334
1640000000.0 -0.0692487347278393 0.04328561975447744
1660000000.0 0.06231787588080018 -0.02327493860385968
1680000000.0 -0.04280002970786729 -0.01031224250192689
1700000000.0 -0.015572006678948636 0.014929283104583314
1720000000.0 -0.0028144768781363516 0.007724484381265327
1740000000.0 0.004033736758797028 0.01093144140001892
1760000000.0 0.025443396319474353 -0.0078110613770196674
1780000000.0 -0.019383522068108516 0.04593364752897396
1800000000.0 -0.08155458450208421 -0.048508353641444686
1820000000.0 0.10160813277121081 0.07940494027366012
1840000000.0 -0.10939560876646602 0.12664542497058104
1860000000.0 0.13850984644477793 0.15213463133779678
1880000000.0 0.15336508413122038 -0.18378188707833082
1900000000.0 -0.25496469258202153 -0.1083346464761193
1920000000.0 0.13115383657653557 -0.28631256329698335
1940000000.0 -0.26387103922185073 -0.20923118599120102
1960000000.0 -0.3334405834341749 -0.14791675821597944
1980000000.0 0.2729663618454593 0.29219069096059563
2000000000.0 0.1702443212431813 -0.3862429031995582
2020000000.0 -0.29516006771154324 -0.3157467975425631
2040000000.0 0.1630277229238237 0.4058114551329108
2060000000.0 0.3679858269293005 0.23549071780969122
2080000000.0 0.4261194903278326 0.0713822508550072
2100000000.0 -0.10652981501135239 -0.4103201660086982
2120000000.0 -0.09911044613415504 -0.3992885271313299
2140000000.0 0.19962426293788219 -0.34144143079959627
2160000000.0 0.3771333809932823 -0.06809476770379776
2180000000.0 0.3718710193806337 -0.036878927341268825
2200000000.0 0.34119126515696685 -0.12753100681654633
2220000000.0 -0.3129262013675647 -0.16698547110875434
2240000000.0 -0.31389345071670316 -0.15153917260903452
2260000000.0 -0.34046816096875365 0.06007980075096518
2280000000.0 0.24688922009598918 0.24346491500675846
2300000000.0 0.21535717871465326 0.2786197807188794
2320000000.0 0.13156208690770396 0.35059693556086785
2340000000.0 0.06785588987723028 -0.4037356919198949
2360000000.0 -0.3838267370995657 -0.23430973071619404
2380000000.0 0.04898817950469814 0.4976216765182911
2400000000.0 -0.4887236991906567 0.27243233183994137
2420000000.0 0.526359411009136 -0.3088709262926022
2440000000.0 -0.5189700717476903 0.40179114317260056
2460000000.0 -0.6816781432929725 -0.1582155633507988
2480000000.0 0.6899360352998285 0.2422434458694438
2500000000.0 -0.4031992772306004 -0.6357178385460898
2520000000.0 0.6990381440868468 -0.3138661208958804
2540000000.0 -0.6027164784576634 -0.48027943428774666
2560000000.0 -0.3026027941145272 0.7050486450388226
2580000000.0 -0.09191688287487085 -0.7475224882791076
2600000000.0 -0.7242351680090154 0.10639759679235325
2620000000.0 0.11786610633937046 0.696012961834751
2640000000.0 0.4082723291369541 -0.5293921765623819
2660000000.0 -0.5207079571269128 -0.3531637101753749
2680000000.0 -0.1350638387622104 0.5683162032473013
2700000000.0 -0.33978483598204756 -0.4099543421401939
2720000000.0 -0.0774434375291425 0.4789680563470092
2740000000.0 0.39701254146081794 -0.17771476270213724
2760000000.0 -0.29395713018105785 0.2586059745510823
2780000000.0 0.35863495760697245 0.029118647126819195
2800000000.0 -0.2555581113918102 -0.21636929963676121
2820000000.0 0.1836731751228858 -0.2551084506493332
2840000000.0 -0.05833348580064095 0.3006666001446478
2860000000.0 -0.09942480986858639 -0.2818244058846261
2880000000.0 0.16246444943724334 -0.24519337445537726
2900000000.0 -0.27897207571789423 -0.09050429647003785
2920000000.0 -0.2028093034283969 0.22168186197952153
2940000000.0 0.048993155410786415 -0.30648055665188995
2960000000.0 -0.278853378052699 -0.14754158951862512
2980000000.0 -0.3115331817329919 -0.04991820506409242
3000000000.0 -0.3128953640087798 -0.031476492695505585
3020000000.0 0.19634980664904653 0.24963799711123483
3040000000.0 0.23107577818302336 0.22013223572052937
3060000000.0 0.11718901149918438 0.29161651032052555
3080000000.0 0.2583807607889785 -0.16172063163279204
3100000000.0 -0.00645605150118488 0.29500214075961995
3120000000.0 -0.25144860614612086 -0.1368618560798737
3140000000.0 -0.13552470214409346 0.23984675383033796
3160000000.0 0.017038639926022954 -0.26186494926594617
3180000000.0 -0.1578529410798853 0.1919792116935535
3200000000.0 0.21352443192645099 -0.09686569460802175
3220000000.0 0.11623877955504482 -0.17505349136078255
3240000000.0 -0.06504093294160615 -0.1660219062216995
3260000000.0 0.14083944800844428 -0.04462759080946266
3280000000.0 0.02700325053787039 0.10050166229933533
3300000000.0 -0.01855594914133561 -0.0687079046879834
3320000000.0 -0.022043054224690932 -0.03842205433092557
3340000000.0 0.01209507541382421 0.019802199500392238
3360000000.0 0.008348669535039028 -0.002328877051106256
3380000000.0 -0.0019701628610165247 0.0006014797112154989
3400000000.0 0.014859906623096464 -0.002202390972337979
3420000000.0 0.020879983816126074 0.02407887968835146
3440000000.0 0.040411158287695814 0.022600963137106675
3460000000.0 0.04516333782694121 0.04121320117876052
3480000000.0 -0.07487382554289533 -0.009732771219872349
3500000000.0 0.012507262319969108 0.08729727499712996
3520000000.0 0.05832226407911558 0.08473500742313024
3540000000.0 -0.08594245266057568 0.07790202183680171
3560000000.0 0.11963334090939624 -0.0033772893777513392
3580000000.0 0.046742879049151316 -0.12289011231283356
3600000000.0 0.06312324987189219 0.13698360366386844
3620000000.0 0.05123977610545056 -0.15353818675396164
3640000000.0 -0.09557694500975168 -0.15384803095377103
3660000000.0 -0.1490279278075679 -0.11882681907142732
3680000000.0 0.02422415473533318 -0.1916494693846246
3700000000.0 -0.16041878721521444 -0.1078445101889837
3720000000.0 -0.08976338735252168 -0.16767688524934113
3740000000.0 0.18222794999341077 -0.00013139976344105357
3760000000.0 -0.010711206424482636 -0.17685065716204476
3780000000.0 0.030404522216737777 0.17005536154513295
3800000000.0 0.03254199501549473 -0.1630473338097004
3820000000.0 -0.14904700455150938 0.04834625957921726
3840000000.0 -0.14640629479967937 -0.016656832566950896
3860000000.0 -0.04264654702748943 -0.1368802605271176
3880000000.0 0.13376886665650636 -0.054784907377490887
3900000000.0 0.07026279355662265 0.1305729486416555
3920000000.0 0.14274147934796516 0.056161706618924334
3940000000.0 -0.1467670609200735 0.0790217652657957
3960000000.0 -0.09564464502224906 0.1459204723955111
3980000000.0 -0.007880351507644056 0.172836445545962
4000000000.0 0.1651011670089947 0.014596510582816082
