!Created with skrf (http://scikit-rf.org).
# Hz S RI R 50.0 
!freq ReS11 ImS11
400000000.0 0.5920890080335861 0.6389451622017748
420000000.0 0.7846602254545976 -0.31126576907007963
440000000.0 0.614970997561056 -0.5065439580269723
460000000.0 0.7350498624167775 0.03555659279280998
480000000.0 0.17702409668815797 -0.6550934587687117
500000000.0 -0.3656701031317974 0.47637774522062076
520000000.0 -0.1370570978151073 0.4925673974834066
540000000.0 -0.10784161017807127 -0.4257539286091376
560000000.0 -0.11155695974530279 0.3864978976346649
580000000.0 -0.3316286565908512 -0.15193922423399905
600000000.0 0.33328618147251327 -0.12449071983601026
620000000.0 -0.15655222508981273 -0.3200181946267685
640000000.0 0.3814200874889227 -0.15969412596756877
660000000.0 0.40333092049744923 0.09761478797853683
680000000.0 -0.2791069547478879 -0.3430987685406041
700000000.0 0.1713585742333168 0.42932687668016806
720000000.0 -0.3070510045261941 0.35284950327659304
740000000.0 0.20617003847190007 0.3726472271741846
760000000.0 -0.3942889800308216 -0.04103729578715986
780000000.0 -0.21930322310019765 -0.29743751487766573
800000000.0 0.05037737954867356 -0.33240456849920874
820000000.0 -0.22580709967624196 0.17663723446035706
840000000.0 -0.09552006135480255 -0.19214840815795653
860000000.0 -0.16296840058958717 -0.06831113863513913
880000000.0 -0.09583731019387846 0.11061251676101605
900000000.0 -0.057745288444990946 -0.080653914170166
920000000.0 -0.056099678032387836 -0.009634692702993051
940000000.0 -0.0013986297503184987 0.037072008955949226
960000000.0 0.03743194789137764 0.015022338774606656
980000000.0 0.05467334343874138 0.03046652996934056
1000000000.0 -0.06468764189547901 -0.07784245747817423
1020000000.0 -0.12392508663437068 0.009687014977139752
1040000000.0 0.13344608417242415 -0.008765967847189355
1060000000.0 -0.058311761433625445 -0.14535243852397323
1080000000.0 0.024173241522484037 0.17459525340395896
1100000000.0 0.11614698531107213 -0.16159582257253158
1120000000.0 0.051390840159392964 0.21758105652937532
1140000000.0 -0.1595963850779416 -0.19526450565851236
1160000000.0 -0.09718505600242913 -0.26309872289973496
1180000000.0 0.0466067086620019 -0.31023287356482254
1200000000.0 0.3476696200540115 0.04055265333164179
1220000000.0 -0.3725118861830987 0.05152220683258656
1240000000.0 0.34558274330023625 -0.1906620330112561
1260000000.0 -0.373387018623561 -0.1603632245748175
1280000000.0 -0.4242170700433568 0.01149678100106903
1300000000.0 0.3653328044951375 0.23371707359181787
1320000000.0 0.4188952684352054 -0.11604035589461008
1340000000.0 0.390298824851542 0.19739034450121223
1360000000.0 0.43323356897774995 -0.07570211990362433
1380000000.0 -0.029691539238645245 -0.4285254807532128
1400000000.0 0.04970579868872481 -0.41692072643241845
1420000000.0 -0.3790015848668735 0.1475492977749906
1440000000.0 0.3379338897662079 0.18344759331265917
1460000000.0 0.19655644844560916 -0.29617077807136816
1480000000.0 -0.1595152600721834 0.27931090682676973
1500000000.0 0.2781634241364128 -0.04394341638435377
1520000000.0 0.1386640357938648 0.202664382125072
1540000000.0 0.16083596491428193 0.1445391883232387
1560000000.0 -0.17523626604671233 -0.07020244537983703
1580000000.0 0.05661759401765002 -0.16078955446413837
1600000000.0 -0.08696839318531656 -0.1101257529905382
1620000000.0 0.05551579251454762 0.08964511317547681
1640000000.0 -0.07789131306629156 0.023028031945406566
1660000000.0 0.06046336427525053 -0.027412801262529263
1680000000.0 -0.04337841156351845 -0.003015379770119929
1700000000.0 0.01994948113480067 0.008797646080817297
1720000000.0 -0.005275705730233987 0.006014931821345653
1740000000.0 -0.0013068567738407024 0.010600167874517305
1760000000.0 0.022031414666640152 0.0128559509003605
1780000000.0 -0.014224887850308631 0.04764366839132689
1800000000.0 -0.08879866895560454 -0.03432306425944259
1820000000.0 0.12608368846845025 0.02690015691355311
1840000000.0 -0.04710592712804855 0.16111383161439544
1860000000.0 0.17501741522649358 0.10872097872782721
1880000000.0 0.13827385516352414 -0.19593044933940743
1900000000.0 -0.25286787448880604 -0.11477041759714951
1920000000.0 0.12426164291757898 -0.29014969976434507
1940000000.0 -0.2538437337539614 -0.22206491704575787
1960000000.0 -0.31504842721442683 -0.18448264054710506
1980000000.0 0.26521233212531836 0.2991598969874374
2000000000.0 0.18863495556954213 -0.37735247632468233
2020000000.0 -0.27327670625308675 -0.33414024720778873
2040000000.0 0.14209664992439852 0.41348998228792044
2060000000.0 0.34781090750686655 0.2630834283651012
2080000000.0 0.4269443212815752 0.061514769705327585
2100000000.0 -0.09678690914350042 -0.41185083682824736
2120000000.0 -0.0739059970679295 -0.4041144847959455
2140000000.0 0.1676197620286696 -0.35722839968478165
2160000000.0 0.37081074174743694 -0.09535208875365177
2180000000.0 0.37131673856058556 -0.03977638730194761
2200000000.0 0.32994370550739366 -0.1549618751230451
2220000000.0 -0.3331987943088866 -0.12273563203355096
2240000000.0 -0.32516389832288506 -0.12589005942586512
2260000000.0 -0.33788701163432033 0.07575264641230033
2280000000.0 0.27615244325020055 0.20992689869175668
2300000000.0 0.24449707144147945 0.2546318766722791
2320000000.0 0.1547079712029796 0.34197143325765544
2340000000.0 0.05670912038726187 -0.40610643793945905
2360000000.0 -0.3761680513211875 -0.24728421399220465
2380000000.0 0.0353468614043579 0.4990010515730523
2400000000.0 -0.5042802261376446 0.24199958900908544
2420000000.0 0.5302071820957699 -0.30194278954573817
2440000000.0 -0.5220645703692456 0.39713426382811307
2460000000.0 -0.6815616082327214 -0.15682334932847214
2480000000.0 0.6740361024243667 0.28297697807002364
2500000000.0 -0.45407528827861593 -0.5994595022499347
2520000000.0 0.6798976372994938 -0.3513141912844362
2540000000.0 -0.6412307827449695 -0.42615272837690726
2560000000.0 -0.3219107451712325 0.6963608455367647
2580000000.0 -0.1461346645788373 -0.7389238701942029
2600000000.0 -0.7146811943496706 0.16119219426603537
2620000000.0 0.12341481861518516 0.6962024523117943
2640000000.0 0.47265752398265515 -0.4743133180371035
2660000000.0 -0.502250312824996 -0.3799723288044943
2680000000.0 -0.16790425503513834 0.5601918694126268
2700000000.0 -0.3229137168972448 -0.4237586521206674
2720000000.0 -0.08632914197070124 0.4774721799649434
2740000000.0 0.41511762507867345 -0.1311793169851005
2760000000.0 -0.3057748054116115 0.24428063657048976
2780000000.0 0.358075452148981 0.038129772464713496
2800000000.0 -0.24253968119728195 -0.23111108510847178
2820000000.0 0.1900280873287807 -0.2503106511752013
2840000000.0 -0.10568312030484658 0.28764695692869685
2860000000.0 -0.08668789115083363 -0.2858265700179416
2880000000.0 0.16417491016383565 -0.24352420320157292
2900000000.0 -0.272261956381705 -0.10958304318157217
2920000000.0 -0.1715141731541672 0.24588684768833985
2940000000.0 0.02254226183707384 -0.30937632050718494
2960000000.0 -0.2887991788917892 -0.12711465211815084
2980000000.0 -0.3115405312462092 -0.04859734732783542
3000000000.0 -0.3133750236043992 0.008379487155138213
3020000000.0 0.21566635391050956 0.23263203169505695
3040000000.0 0.23957664270824014 0.21048211793540922
3060000000.0 0.109966161945123 0.29443896794384566
3080000000.0 0.2614782942947217 -0.1558195810821677
3100000000.0 -0.06959921932310005 0.28646875226051466
3120000000.0 -0.2694404031422881 -0.09647435547958032
3140000000.0 -0.15704038148526983 0.22546038294303278
3160000000.0 -0.017120046250851242 -0.2618887921266456
3180000000.0 -0.12830555644007346 0.21284623505873446
3200000000.0 0.19235328791822826 -0.1331335677660757
3220000000.0 0.08382060215970553 -0.19240249176075425
3240000000.0 -0.07976299611562511 -0.15985295251319492
3260000000.0 0.1255595401253545 -0.07893784823365413
3280000000.0 0.08117993383865225 0.06691121094032132
3300000000.0 0.0026284321210410687 -0.07231081609899298
3320000000.0 -0.0089819301988307 -0.04469677460377865
3340000000.0 0.0175186259952951 -0.017384348610663083
3360000000.0 0.005879239886697921 -0.008906368809774844
3380000000.0 -0.0011273333681553182 0.0013438938865706685
3400000000.0 0.013445813570332971 -0.004641542647483496
3420000000.0 0.024825969104909053 0.01803117999072688
3440000000.0 0.037845782341015405 -0.02279540648296853
3460000000.0 0.058733638268935635 0.009806301739943003
3480000000.0 -0.07222852607301214 0.014404517939497477
3500000000.0 0.05127827386468207 0.06903031909930979
3520000000.0 0.09288885631928678 0.04247118695161897
3540000000.0 -0.05504256230497579 0.10032177885307095
3560000000.0 0.06617379037635719 -0.09876520827659627
3580000000.0 -0.053542975684940326 -0.12017463962291346
3600000000.0 0.11586997552225911 0.0963426234415907
3620000000.0 -0.062123797287814864 -0.1501036908440564
3640000000.0 -0.16952315953856342 -0.0663276857171532
3660000000.0 -0.18978045110707298 -0.027496133036358665
3680000000.0 -0.020493228834914005 -0.19399124441968474
3700000000.0 -0.1815129042219389 -0.07235272359510868
3720000000.0 -0.08996063097315955 -0.1698849007614351
3740000000.0 0.18085747590659404 -0.03225089962482422
3760000000.0 -0.021432679501128763 -0.1776920131432014
3780000000.0 0.041308747329903445 0.16934163620605153
3800000000.0 0.03022037139511651 -0.1653485105958413
3820000000.0 -0.1579313493911198 0.011766821975339428
3840000000.0 -0.13703639058392733 -0.05768883088287226
3860000000.0 -0.011140818316415004 -0.14418163537814568
3880000000.0 0.14365616229442843 -0.023203532393361117
3900000000.0 0.022884906124931194 0.14808250255657943
3920000000.0 0.11493870579738208 0.10319313966026049
3940000000.0 -0.1638994416771173 0.03485839938486805
3960000000.0 -0.15313999048537347 0.08543736859475347
3980000000.0 -0.040645660875599926 0.16852587973549588
4000000000.0 0.1649821765157519 0.011436392449509785
