!Created with skrf (http://scikit-rf.org).
# Hz S RI R 50.0 
!freq ReS11 ImS11
400000000.0 0.5439242257779594 0.6816840270276162
420000000.0 0.8078189711866831 -0.24798167269996851
440000000.0 0.6293497950849651 -0.4877926447292718
460000000.0 0.7336140438113162 0.05633303082999457
480000000.0 0.16652890383954955 -0.6578820760343846
500000000.0 -0.3589983551268128 0.48182199844338186
520000000.0 -0.1347083915673305 0.4931294570230135
540000000.0 -0.1392226272919804 -0.41647228038313594
560000000.0 -0.08988824471856575 0.392095944975568
580000000.0 -0.3452818316150058 -0.11696668068344697
600000000.0 0.33825452702317627 -0.1080433311614213
620000000.0 -0.10028682040972645 -0.34103196916937273
640000000.0 0.4053783408464282 -0.08372483210596857
660000000.0 0.38989124896606586 0.14482048764189168
680000000.0 -0.29326467845980353 -0.33121402832004676
700000000.0 0.1583928361631115 0.43352948132184327
720000000.0 -0.3351708578213028 0.32504462773553916
740000000.0 0.18205939633957022 0.38532093347634594
760000000.0 -0.3971089486188168 -0.0025270588952800996
780000000.0 -0.2580378608191254 -0.26458257895164705
800000000.0 0.030018911522576127 -0.3338214519998662
820000000.0 -0.23894855264085346 0.15696915781491513
840000000.0 -0.06479112080979567 -0.20507085498339128
860000000.0 -0.16533326019131475 -0.06620488994199736
880000000.0 -0.07437561842586916 0.12763463097804145
900000000.0 -0.06257253313973435 -0.07732947512165282
920000000.0 -0.0465058164589317 -0.03220266692609124
940000000.0 -0.015686037226972146 0.032507937854623054
960000000.0 0.040114111336802025 -0.0004528957659022242
980000000.0 0.02456556485691323 0.05753871441589871
1000000000.0 -0.03669851895446883 -0.09407764296615292
1020000000.0 -0.12423282526579914 -0.00099218598741576
1040000000.0 0.13398380981506608 0.0015175509929099855
1060000000.0 -0.03787050569557298 -0.15260003999942487
1080000000.0 0.001644735625054572 0.1772228167762574
1100000000.0 0.14697671830841158 -0.13537230014310792
1120000000.0 0.047245163599947036 0.21954384175657543
1140000000.0 -0.17600629862446288 -0.1816464132304485
1160000000.0 -0.14208338635510517 -0.24246545857166496
1180000000.0 0.05535189028265546 -0.3084109646699357
1200000000.0 0.3346095792692261 0.10137634075348383
1220000000.0 -0.3756950580675727 -0.02080782917659664
1240000000.0 0.3631397045458431 -0.15531583261511317
1260000000.0 -0.3708655339333821 -0.16666415898334377
1280000000.0 -0.42409443896626603 0.006286781802033795
1300000000.0 0.36263523723609553 0.23800643497099552
1320000000.0 0.4243738058112267 -0.09464120858732145
1340000000.0 0.4013313223690335 0.17451230050913805
1360000000.0 0.4297654126956867 -0.09441443471804296
1380000000.0 -0.012227670072022839 -0.4295412717759186
1400000000.0 0.09073028619213805 -0.41035276266982484
1420000000.0 -0.40046326819299566 0.07496956008053964
1440000000.0 0.3208774011743805 0.21350591733190097
1460000000.0 0.19335755228219317 -0.29914888467201806
1480000000.0 -0.2251607481817373 0.23002315901808704
1500000000.0 0.280342333542301 -0.03137305492084625
1520000000.0 0.11407392274207317 0.21777711753261478
1540000000.0 0.15162632473343435 0.15427549639058605
1560000000.0 -0.16905985305808674 -0.08341529547844168
1580000000.0 0.11896246635856036 -0.12181235514205628
1600000000.0 -0.036688400959084065 -0.13543586571181992
1620000000.0 0.05969408469697256 0.08792949925136266
1640000000.0 -0.07929519982647815 0.01871606334976226
1660000000.0 0.06300882654281442 -0.02030836001153138
1680000000.0 -0.03895352900829054 -0.017447331736878766
1700000000.0 0.01950325984023963 0.009382535555001566
1720000000.0 0.0034743104827531 0.007314559607483983
1740000000.0 0.009361226615435422 -0.005341151830585843
1760000000.0 0.00989895335170144 -0.023649806454093786
1780000000.0 -0.03261826784714986 0.03719574951646627
1800000000.0 -0.07538266987946249 -0.057145695084450665
1820000000.0 0.10006115484558155 0.08016564328993293
1840000000.0 -0.09320224692265493 0.13908401097261325
1860000000.0 0.15535866854752153 0.13455757051619985
1880000000.0 0.1427376443018562 -0.19229071583617544
1900000000.0 -0.25714221617163835 -0.10412065667081138
1920000000.0 0.1097505566256364 -0.29553806430049284
1940000000.0 -0.2655065782984701 -0.20771894742546193
1960000000.0 -0.32869243931631315 -0.15923962294538604
1980000000.0 0.2822014159513842 0.2833952068240726
2000000000.0 0.1720662277790352 -0.3857234155213987
2020000000.0 -0.28665702031022405 -0.32389717889524255
2040000000.0 0.14947639348721783 0.41164428495047256
2060000000.0 0.3422581552049118 0.2714973666387294
2080000000.0 0.4196941643649321 0.10165864777272215
2100000000.0 -0.07388570574019496 -0.4172054368657586
2120000000.0 -0.08126850813021812 -0.4033448795839512
2140000000.0 0.16476929882214955 -0.35950338091207057
2160000000.0 0.3766888237284567 -0.07005030964518856
2180000000.0 0.373397053584294 -0.008489834651993242
2200000000.0 0.350879270438809 -0.09679351980338885
2220000000.0 -0.2921682404664203 -0.20119269422959496
2240000000.0 -0.3079042506202512 -0.16314623231322917
2260000000.0 -0.3453012026135217 0.02419411867539511
2280000000.0 0.21524471930438743 0.27130223147468085
2300000000.0 0.19723546013284382 0.2917554033186056
2320000000.0 0.11469707805778553 0.3562486359597344
2340000000.0 0.09240491521553729 -0.3988663339656987
2360000000.0 -0.34946088161900296 -0.2825722150726323
2380000000.0 -0.020580654573468252 0.49920459300436404
2400000000.0 -0.5207536054727354 0.20427133434397993
2420000000.0 0.5530525141946345 -0.258409728799699
2440000000.0 -0.5477380120003653 0.3614908471674359
2460000000.0 -0.6627392871911701 -0.2249046712453786
2480000000.0 0.6603557794708255 0.314319154877284
2500000000.0 -0.3120136415328375 -0.6860700529981106
2520000000.0 0.7379789250437339 -0.20753176610084195
2540000000.0 -0.5939063048415789 -0.49116776507279647
2560000000.0 -0.38806027070138716 0.6627163925832767
2580000000.0 -0.09962449434916758 -0.7474627731699237
2600000000.0 -0.7281538391898574 0.08630897035895481
2620000000.0 0.010837309053480324 0.7075001621056631
2640000000.0 0.5180848241857783 -0.4259514080111664
2660000000.0 -0.48978881727237267 -0.39813303811919065
2680000000.0 -0.15352030444680217 0.5655971386798567
2700000000.0 -0.3212317602805851 -0.4264533070160317
2720000000.0 -0.06444533585385018 0.4823968572426791
2740000000.0 0.414745879904913 -0.13603109929937973
2760000000.0 -0.3101366809497309 0.24070499617620594
2780000000.0 0.3571040111052775 0.04847507369418357
2800000000.0 -0.24480629268789497 -0.22962735815238236
2820000000.0 0.19770987037194723 -0.24540971734647135
2840000000.0 -0.08335844125404121 0.2956290357482365
2860000000.0 -0.10703815947085335 -0.27944060961134365
2880000000.0 0.1571183766534166 -0.24937558254764466
2900000000.0 -0.2823253464413275 -0.08258994238226337
2920000000.0 -0.15949025954891768 0.25476564210366986
2940000000.0 0.020793287087975294 -0.3098351900051016
2960000000.0 -0.270544930662448 -0.16329350202368162
2980000000.0 -0.3006458545008774 -0.09729177126274195
3000000000.0 -0.3044454111524259 -0.0788121721422896
3020000000.0 0.16105261534919485 0.27412746223413037
3040000000.0 0.13992900650279322 0.2879036706985428
3060000000.0 0.05343203386106339 0.3103215988089403
3080000000.0 0.27983213183431155 -0.12124439584498654
3100000000.0 -0.07138088402407991 0.286730442560818
3120000000.0 -0.2285552074953876 -0.17131262107988646
3140000000.0 -0.16869022829819516 0.21679076298789846
3160000000.0 0.023884804444496404 -0.2606907141900498
3180000000.0 -0.15938895437296466 0.1889587043063248
3200000000.0 0.21410917797857296 -0.09269305287090976
3220000000.0 0.0974972808573262 -0.18492188629859987
3240000000.0 -0.09364813178556251 -0.1505487984756771
3260000000.0 0.12440896111790126 -0.0782988067941318
3280000000.0 0.0768736037454452 0.06927946810703996
3300000000.0 -0.05771394117540301 -0.03975366521016736
3320000000.0 -0.031986286724566264 -0.03030401363632543
3340000000.0 0.021273552753856284 -0.008952790168003051
3360000000.0 -0.008373273758373653 0.0013971606226896257
3380000000.0 -0.0012205419635049775 0.0005454632501927951
3400000000.0 0.010514084673506677 0.01090880134345326
3420000000.0 -0.015833454607812564 0.027439299923381875
3440000000.0 0.024279056998825772 0.03893954779155034
3460000000.0 0.03726870633865514 0.047952718271620856
3480000000.0 -0.07218470347304534 -0.020838171322350253
3500000000.0 0.02470977450569164 0.08396931616834984
3520000000.0 0.07423963207978744 0.07084781725799709
3540000000.0 -0.0792388412072306 0.08384629109982177
3560000000.0 0.11273622582034408 -0.03767254700391328
3580000000.0 0.0555874869852514 -0.11848327971971902
3600000000.0 0.018539255375835884 0.14934015769442405
3620000000.0 0.020253177796774303 -0.16064419755078257
3640000000.0 -0.10160630931897814 -0.1481620144857268
3660000000.0 -0.15499236339044553 -0.11120507897184587
3680000000.0 0.021000116038196404 -0.1921056926747802
3700000000.0 -0.1617329829833266 -0.10799640283345481
3720000000.0 -0.09566018068924736 -0.1647253343511425
3740000000.0 0.1822704331106349 -0.014871906153259723
3760000000.0 -0.0199376651950195 -0.17727320784829434
3780000000.0 -0.006784650645970513 0.17354479276722512
3800000000.0 0.023624832045159378 -0.16550958595625656
3820000000.0 -0.14988166185148444 0.04729402823950058
3840000000.0 -0.14740021317757263 0.0031024852793381445
3860000000.0 -0.023182848420124295 -0.14236877949786278
3880000000.0 0.1436524735686962 -0.022562489384439964
3900000000.0 0.03128319561507828 0.14592315379353324
3920000000.0 0.12670204099178278 0.08807265968667272
3940000000.0 -0.16140019009381534 0.043475083538373295
3960000000.0 -0.15352704051310667 0.08563841262493994
3980000000.0 -0.06763487625460698 0.16021018929859393
4000000000.0 0.15750745241898453 0.053971077208631514
