!Created with skrf (http://scikit-rf.org).
# Hz S RI R 50.0 
!freq ReS11 ImS11
400000000.0 0.555065975991048 0.6731126797191633
420000000.0 0.8057307922323435 -0.25507034371623843
440000000.0 0.6364903459491125 -0.4793043963930547
460000000.0 0.7338297434575812 0.05543155055144557
480000000.0 0.1707863715715135 -0.6567648616846765
500000000.0 -0.3763390935875631 0.4685472163955988
520000000.0 -0.13702282935930532 0.4921007226044094
540000000.0 -0.15675446971038007 -0.41017246348133707
560000000.0 -0.07662569981601851 0.3942444020387994
580000000.0 -0.34616522177367665 -0.11264910919808672
600000000.0 0.34184737683397876 -0.09772794852278384
620000000.0 -0.12237523767443317 -0.3345613876354724
640000000.0 0.40460216172466595 -0.08931536221327518
660000000.0 0.3998442787043096 0.11605590469714967
680000000.0 -0.308234323595684 -0.31785457429655983
700000000.0 0.13501013223828356 0.44140559678458674
720000000.0 -0.30750207520020634 0.35144763436669363
740000000.0 0.1983496913954353 0.3761993202869186
760000000.0 -0.39637254320124654 -0.023188626659847382
780000000.0 -0.24518485019380884 -0.2764005890510736
800000000.0 0.035133593390863575 -0.3334896753442521
820000000.0 -0.22399568214322024 0.17781041911440038
840000000.0 -0.0969530164889251 -0.19200129708971256
860000000.0 -0.17283375038282664 -0.04241470774532995
880000000.0 -0.061654813017719176 0.13433761504834554
900000000.0 -0.06233011336142811 -0.07768193376622871
920000000.0 -0.0499909537504365 -0.02632312524703836
940000000.0 -0.023073522408585748 0.027871656926730288
960000000.0 0.039780300987847315 -0.005230239406755424
980000000.0 0.03251220870091881 0.05353027668752596
1000000000.0 -0.03463937521830663 -0.09486982121243837
1020000000.0 -0.12414096603590279 0.0007380941115524467
1040000000.0 0.13308746074822275 -0.016743524197432948
1060000000.0 -0.04464860976251647 -0.1509016170032482
1080000000.0 0.0225977795181798 0.1759377042001724
1100000000.0 0.14523220398660386 -0.1374551348470842
1120000000.0 0.058062561096981935 0.21704549549176325
1140000000.0 -0.1734465824626218 -0.18411452204727113
1160000000.0 -0.11944505021822692 -0.254443544214079
1180000000.0 0.05869470870871996 -0.3079475040581372
1200000000.0 0.3339515034989788 0.10396186507249683
1220000000.0 -0.3746839384776796 -0.03261392173276913
1240000000.0 0.36984407544500614 -0.1384650076315826
1260000000.0 -0.36833119289654065 -0.17213171281487663
1280000000.0 -0.424213710051135 0.0036619596789401773
1300000000.0 0.35951238966171284 0.2426650190325667
1320000000.0 0.4232970588797472 -0.09842338741907526
1340000000.0 0.39797409316739796 0.18168159295317798
1360000000.0 0.42910267238151906 -0.09750466856286867
1380000000.0 -0.013680363512793312 -0.4294031317226102
1400000000.0 0.0773482372956071 -0.4130175783539524
1420000000.0 -0.3977087869069098 0.08738586958208171
1440000000.0 0.32907643154459426 0.20039357277845396
1460000000.0 0.19283349791629054 -0.29925858384831533
1480000000.0 -0.20343856556388937 0.24926554958221694
1500000000.0 0.2777105646093064 -0.05057379424914814
1520000000.0 0.1435695335506391 0.19935139212472128
1540000000.0 0.1497031650166793 0.1558900918886363
1560000000.0 -0.17541015853738734 -0.06871957598862179
1580000000.0 0.08490355369164625 -0.14757997471967435
1600000000.0 -0.023282807396256638 -0.13850036959930767
1620000000.0 0.04441809801152628 0.09649178727780701
1640000000.0 -0.07984769513496016 0.016517247302017667
1660000000.0 0.06479872996913659 -0.014293935997086709
1680000000.0 -0.03469540075784404 -0.025183892248974396
1700000000.0 0.016225454238823333 0.01427521672780671
1720000000.0 -0.008165709278739997 -0.0009198953135836178
1740000000.0 0.002704716229479942 0.010239733561038172
1760000000.0 0.010967579194802601 -0.02333912771590446
1780000000.0 -0.023289872825124142 0.043861332778327794
1800000000.0 -0.06911723070631565 -0.06459378868608973
1820000000.0 0.0991281277068707 0.08175719903132814
1840000000.0 -0.08944252983406258 0.14170871015739586
1860000000.0 0.15418843806828003 0.13628746084947763
1880000000.0 0.15699744491362627 -0.18078714041613808
1900000000.0 -0.2479303430642493 -0.12443733087231133
1920000000.0 0.12169400063861578 -0.29063055922700565
1940000000.0 -0.26116461136393115 -0.21288814989240482
1960000000.0 -0.3310960012281361 -0.15368570551218558
1980000000.0 0.28475695157012615 0.2804187578556877
2000000000.0 0.15979199239498093 -0.3907669093656129
2020000000.0 -0.30525467046323024 -0.30633270144700814
2040000000.0 0.15214590279668397 0.4106650746428221
2060000000.0 0.34886588547854586 0.26301339959301656
2080000000.0 0.4237213481441542 0.08347523487099377
2100000000.0 -0.08998968434957234 -0.414055618586419
2120000000.0 -0.1168334892558816 -0.3946607006414429
2140000000.0 0.16486344392496396 -0.3599401393058128
2160000000.0 0.3780214891589993 -0.06520541188686733
2180000000.0 0.37326866639841394 -0.01913828399984233
2200000000.0 0.3532101405613107 -0.09014125144800028
2220000000.0 -0.28687706624053416 -0.20995417377277079
2240000000.0 -0.3075995243670987 -0.16448670219318773
2260000000.0 -0.34604971460292566 0.01093770581869499
2280000000.0 0.2232856754622607 0.2649587998676377
2300000000.0 0.20574057634269577 0.286109363108893
2320000000.0 0.12958807973754805 0.351450069109693
2340000000.0 0.09887602519576019 -0.3970705651364583
2360000000.0 -0.3581818002619421 -0.271335167083808
2380000000.0 0.02359429283792898 0.49952869324305027
2400000000.0 -0.5107449894106609 0.2279805344936592
2420000000.0 0.5380447665916575 -0.2882830917111792
2440000000.0 -0.5241070438781915 0.3947482457063965
2460000000.0 -0.6792041917013661 -0.16831608474930349
2480000000.0 0.6809307092178835 0.26711004926090376
2500000000.0 -0.44613988525826354 -0.6069121184775078
2520000000.0 0.695990137258484 -0.3214209754080989
2540000000.0 -0.6312467317473428 -0.442018977975194
2560000000.0 -0.31359065224818083 0.7004647543384134
2580000000.0 -0.05053227662020649 -0.7523352760774445
2600000000.0 -0.725308729728999 0.10421274885844488
2620000000.0 0.07578862180150363 0.7034099331292905
2640000000.0 0.45700787320126995 -0.49054406885570295
2660000000.0 -0.4824164468794952 -0.40591598517715827
2680000000.0 -0.18190181294868688 0.5564968643433182
2700000000.0 -0.29218284375744263 -0.4460169676068898
2720000000.0 -0.07868613256176595 0.47982563271751105
2740000000.0 0.40971230087599825 -0.1491720720773817
2760000000.0 -0.312222309862922 0.2375672725307765
2780000000.0 0.35426918362209675 0.06476884808315461
2800000000.0 -0.24220135416825614 -0.23199671433739336
2820000000.0 0.19766852907385102 -0.24504064425315292
2840000000.0 -0.07914954328756896 0.29627864171374396
2860000000.0 -0.10110648783413335 -0.28105346653835117
2880000000.0 0.15005949730675974 -0.25309126864434617
2900000000.0 -0.28227240176033186 -0.08115576288515981
2920000000.0 -0.16286825436867047 0.25209753339719093
2940000000.0 0.015971059591336836 -0.30989139756699063
2960000000.0 -0.28081334993678575 -0.14427890533121437
2980000000.0 -0.30496582789793664 -0.07917954717507948
3000000000.0 -0.3096961586476265 -0.055759458478275487
3020000000.0 0.20205015548361713 0.24541451453294583
3040000000.0 0.21140324802141475 0.24063733224227882
3060000000.0 0.10917597067174512 0.29577651113278947
3080000000.0 0.2626448704184512 -0.15542498633446403
3100000000.0 -0.10841811310517724 0.27505938410290354
3120000000.0 -0.2552519316855142 -0.1296180659379457
3140000000.0 -0.17070901722948204 0.21586704284467356
3160000000.0 0.029416562680919234 -0.2606488944259534
3180000000.0 -0.17004198970737472 0.17982441611409095
3200000000.0 0.21922196895885582 -0.08095226676167941
3220000000.0 0.12044444516360324 -0.17076084755480708
3240000000.0 -0.06940547175158666 -0.1632441372853317
3260000000.0 0.13978449552189243 -0.04577698329770187
3280000000.0 0.07167017185888332 0.07449356100386095
3300000000.0 -0.0066406441872428786 -0.06981981961169974
3320000000.0 0.0103263805688599 -0.04277535617137666
3340000000.0 0.011102876236054103 0.020207169473534584
3360000000.0 0.0047200123513247766 -0.007321588872526184
3380000000.0 -0.0009756893683704496 -0.0018100965077144906
3400000000.0 0.011739049890846313 0.009491235384341922
3420000000.0 0.006160859134932419 0.031196500760344352
3440000000.0 0.04384540636285716 0.012886664519480659
3460000000.0 0.03142134189966065 0.051578730427146495
3480000000.0 -0.07458616648702286 0.008046978772161643
3500000000.0 0.028201573040753374 0.08268921657985308
3520000000.0 0.08051820969428278 0.0635811633494071
3540000000.0 -0.06558038010040315 0.09508808553389772
3560000000.0 0.11419970376352348 -0.03219316944643479
3580000000.0 0.04964527043051619 -0.12121739509248894
3600000000.0 0.023723600246437593 0.14859311648696769
3620000000.0 0.03967797207620303 -0.15673511168479246
3640000000.0 -0.0846743300642625 -0.1584775562723771
3660000000.0 -0.1338212074024331 -0.1353930865198546
3680000000.0 0.043199770824294215 -0.18829468545499492
3700000000.0 -0.14998866559351204 -0.12337213219902492
3720000000.0 -0.07256712590366667 -0.17632347741593624
3740000000.0 0.18257374955652747 -0.0003739078369335967
3760000000.0 -0.003812946417506249 -0.17796372895510904
3780000000.0 -0.021056507063129372 0.1720833107889755
3800000000.0 0.031281566551956616 -0.1638530052529286
3820000000.0 -0.1543158797085778 0.02971078677097525
3840000000.0 -0.14685014653806908 -0.00968558685133183
3860000000.0 -0.023918384456956425 -0.14193137770919717
3880000000.0 0.14229817515657905 -0.029547052403891907
3900000000.0 0.033439410722185446 0.14552274136462895
3920000000.0 0.12705090727278265 0.08713571142135727
3940000000.0 -0.15641987561672394 0.05802069063482153
3960000000.0 -0.150893020455983 0.08983442364956527
3980000000.0 -0.08126561417889323 0.1538085220583323
4000000000.0 0.15033621855606386 0.07179260309041788
