!Created with skrf (http://scikit-rf.org).
# Hz S RI R 50.0 
!freq ReS11 ImS11
400000000.0 0.5603383230835972 0.6669856633758003
420000000.0 0.8054846653538311 -0.25461222977067954
440000000.0 0.6246156342582527 -0.49448679275021523
460000000.0 0.735061006509313 0.0379334095821439
480000000.0 0.15444002841025387 -0.6605926635496999
500000000.0 -0.36019859445043456 0.4809758151685793
520000000.0 -0.13581524625919975 0.49296472111382506
540000000.0 -0.13509445546777601 -0.4181907498042482
560000000.0 -0.08202602565850069 0.3942611368677482
580000000.0 -0.34659074340257195 -0.11326883715833753
600000000.0 0.3326075763786748 -0.12709517956499042
620000000.0 -0.14883411346669406 -0.323467998172217
640000000.0 0.39803372238241364 -0.11461261276804217
660000000.0 0.39410318980049974 0.131043628897965
680000000.0 -0.2722918166591606 -0.3490066355756588
700000000.0 0.14818634720034504 0.43793379485192907
720000000.0 -0.3242108586903537 0.33716854594169526
740000000.0 0.19378658377559957 0.37830746072333704
760000000.0 -0.39540860110937587 -0.030575472286167357
780000000.0 -0.22106180358836447 -0.29603261826871013
800000000.0 0.04177489246870414 -0.33282275161493013
820000000.0 -0.23422299248057843 0.1643012521660689
840000000.0 -0.07000573335420558 -0.2028626073702785
860000000.0 -0.16031487570938296 -0.07437971768030477
880000000.0 -0.08371732683211697 0.12070682834880445
900000000.0 -0.06718080064837612 -0.07308999608592094
920000000.0 -0.04827925863201949 -0.030524870392301395
940000000.0 -0.014572278739698272 0.034699899446780154
960000000.0 0.03709711182628006 0.015639343306581583
980000000.0 0.04648271586914921 0.041784883636298294
1000000000.0 -0.05414320726915245 -0.0852391625465257
1020000000.0 -0.12373641608237315 -0.009675907064441939
1040000000.0 0.13311282257797905 -0.01421643185506256
1060000000.0 -0.04532031568555038 -0.14980349729809517
1080000000.0 0.013781077359776043 0.17617473865997516
1100000000.0 0.11498542237651763 -0.16319778165699653
1120000000.0 0.05039177320821828 0.21823596384003696
1140000000.0 -0.1710140487477274 -0.185713941540143
1160000000.0 -0.1421461766774642 -0.2420431710397702
1180000000.0 0.02659424472380714 -0.3124131169764692
1200000000.0 0.3451665927209082 0.05684728829815749
1220000000.0 -0.37606931474546607 -0.0016293775104383082
1240000000.0 0.3562018781877436 -0.17011152908511265
1260000000.0 -0.36535261078834486 -0.17829460057216834
1280000000.0 -0.42341206538760706 0.023206550327738103
1300000000.0 0.3650793310195905 0.23350752019595547
1320000000.0 0.41993234980420124 -0.11116635141758321
1340000000.0 0.40202132189876616 0.17141685487730132
1360000000.0 0.4271375450614623 -0.10430063260693079
1380000000.0 -0.04689018718830339 -0.4266938599053634
1400000000.0 0.04967396714460013 -0.41675654623529235
1420000000.0 -0.38431185138390683 0.1329584157626342
1440000000.0 0.33724174080816094 0.18539535477593205
1460000000.0 0.19659654287070705 -0.2965146245908633
1480000000.0 -0.21857059758927377 0.23624633592853309
1500000000.0 0.27681292383187933 -0.05239189901166728
1520000000.0 0.13765564047123727 0.20369573038940222
1540000000.0 0.16412279739154864 0.1409555191649133
1560000000.0 -0.17513968212497547 -0.07088755007889162
1580000000.0 0.09655964518118375 -0.14080792195932515
1600000000.0 -0.06340404192258561 -0.12553638237772952
1620000000.0 0.03893472955419945 0.09835577527803988
1640000000.0 -0.0789405549308172 0.018830346095199436
1660000000.0 0.06310708916768532 -0.02034943549247046
1680000000.0 -0.03580232857270094 -0.023923949066401374
1700000000.0 0.012498705477024384 0.017063273266705252
1720000000.0 -0.0018178189106549977 0.007335741641921626
1740000000.0 -0.00027183885101344076 -0.010821034751520756
1760000000.0 0.018091597967127487 0.01869149874866755
1780000000.0 -0.027335375896815402 0.04182308144053486
1800000000.0 -0.06873846044469198 -0.06458257692956612
1820000000.0 0.10245088061487442 0.07767384608995592
1840000000.0 -0.09864504670451306 0.13515680158367374
1860000000.0 0.1544151696481867 0.1356476998587452
1880000000.0 0.14381494557565785 -0.19114361082738482
1900000000.0 -0.2602579785854937 -0.09483963790766893
1920000000.0 0.11778893187796902 -0.2920947152486776
1940000000.0 -0.2700535429966296 -0.2014324804993798
1960000000.0 -0.3336336170153439 -0.14852678026515861
1980000000.0 0.28451797058104916 0.28120834851950754
2000000000.0 0.19331236131768464 -0.37563339270401813
2020000000.0 -0.2980900264457483 -0.3130149558652741
2040000000.0 0.09257941116967171 0.42785811018807435
2060000000.0 0.345484530057439 0.2672283402755616
2080000000.0 0.4201867329263747 0.09989218304359443
2100000000.0 -0.08019463974557159 -0.41611631373913494
2120000000.0 -0.07429659272700119 -0.40464907983009507
2140000000.0 0.22162553523774606 -0.327528094809805
2160000000.0 0.37621730376598894 -0.07173118721536359
2180000000.0 0.37333221489563356 0.008679343226937497
2200000000.0 0.35049494217097976 -0.0968462832170566
2220000000.0 -0.32059735706711895 -0.1511261213769659
2240000000.0 -0.3161711228391987 -0.14550731906777709
2260000000.0 -0.3428799214147374 0.040473750530039335
2280000000.0 0.25353513792579496 0.236333882326774
2300000000.0 0.22831015512462044 0.26878693230112993
2320000000.0 0.13669476637350622 0.34901921955742266
2340000000.0 0.07089528599174491 -0.40319393655449204
2360000000.0 -0.37738082359950126 -0.24465362440483698
2380000000.0 0.04027038841083114 0.49874035863384175
2400000000.0 -0.5002680762701475 0.25098194714513833
2420000000.0 0.5307419927434633 -0.3016064236358094
2440000000.0 -0.5120092839361228 0.4103768010334178
2460000000.0 -0.6797589087570416 -0.1661711984140346
2480000000.0 0.6758532329366536 0.2792373646002724
2500000000.0 -0.4316446403686146 -0.6165500008541374
2520000000.0 0.7035896418857849 -0.3031351958416316
2540000000.0 -0.6192056759758425 -0.4577444762255482
2560000000.0 -0.3147617610695122 0.6993120030230159
2580000000.0 -0.0630952920893302 -0.7503095040757526
2600000000.0 -0.7222584030588303 0.11921184443211079
2620000000.0 0.10430323731953417 0.6986861348457655
2640000000.0 0.4656889987171737 -0.4802555850957223
2660000000.0 -0.5029834712504845 -0.37800365424045973
2680000000.0 -0.2118913638420104 0.5443831108412505
2700000000.0 -0.2935462858465094 -0.4440702705698295
2720000000.0 -0.06332718373145606 0.4803813919155956
2740000000.0 0.3983459020749427 -0.17576956792678788
2760000000.0 -0.29521432720730006 0.25700851931383445
2780000000.0 0.3570312013939492 0.04641968345510422
2800000000.0 -0.2562356347079324 -0.2161037134504324
2820000000.0 0.18329740136195471 -0.25595108608207556
2840000000.0 -0.08569127067177704 0.29403914500938644
2860000000.0 -0.0910099452167161 -0.28438786913008074
2880000000.0 0.15530087049112243 -0.2496697539485663
2900000000.0 -0.26739174367605595 -0.12143038587567959
2920000000.0 -0.20720692641158173 0.21695525374775684
2940000000.0 0.07352704165806442 -0.3015380883245907
2960000000.0 -0.27125884307105486 -0.16074677746794405
2980000000.0 -0.31359738261052733 -0.026008322560241846
3000000000.0 -0.31364476542375436 -1.2855820758495064e-05
3020000000.0 0.19296264487099918 0.25175863642749385
3040000000.0 0.21647374081334814 0.23445943690034812
3060000000.0 0.11419283038896694 0.2929491471443325
3080000000.0 0.26469975076882957 -0.15061190942209873
3100000000.0 0.004109666988546416 0.2950804157443287
3120000000.0 -0.2529852811482084 -0.13320908359774156
3140000000.0 -0.1255987667103482 0.24499888395595668
3160000000.0 -0.042973849163338046 -0.25923267241498565
3180000000.0 -0.14676317979965198 0.20001133796380802
3200000000.0 0.19850858702597568 -0.12402819097860553
3220000000.0 0.06518044942181009 -0.1996806403042437
3240000000.0 -0.09069603625345377 -0.15402631274854972
3260000000.0 0.1267244408347187 -0.07744842632836402
3280000000.0 0.07908150138783557 0.06940489596666749
3300000000.0 -0.03468287110643935 -0.06331558852659334
3320000000.0 -0.00225955781610286 -0.04583065270108174
3340000000.0 0.022924159963539577 0.008884269152426332
3360000000.0 -0.010066710350627808 0.0008332885418655036
3380000000.0 0.0014218592842978512 0.00014520496893305335
3400000000.0 0.00984617342553217 0.010015197815270745
3420000000.0 0.01008946925131832 0.0289855903750122
3440000000.0 0.044751278975008045 0.0011613507600353333
3460000000.0 0.05905927174039777 0.008792562762562045
3480000000.0 -0.05816150318765384 0.04585957846565008
3500000000.0 0.054972696492583815 0.06651114089198858
3520000000.0 0.0678010052749143 0.07532989525375779
3540000000.0 -0.03072914520558493 0.10995002461314171
3560000000.0 0.08683816547922439 -0.08060287751405927
3580000000.0 -0.04249661430256531 -0.12392866749177726
3600000000.0 0.11172716829945328 0.10040824378646819
3620000000.0 -0.06658879274300604 -0.14779782169195796
3640000000.0 -0.15942681622190885 -0.08582677971894628
3660000000.0 -0.18963904089520187 -0.027116340662076435
3680000000.0 -0.021172797270191737 -0.193073453812703
3700000000.0 -0.1916083638513604 -0.03317331402269009
3720000000.0 -0.12229515023843404 -0.14624810907538222
3740000000.0 0.1771618541799467 -0.04546208236576485
3760000000.0 -0.053384875216757846 -0.17034647275408338
3780000000.0 0.043410836774370944 0.16853642567051927
3800000000.0 0.02645245868012495 -0.16557145309200622
3820000000.0 -0.15412536437610938 0.03641538332566905
3840000000.0 -0.14639801531352983 -0.02598551993854159
3860000000.0 -0.08419666448055226 -0.11766237473654194
3880000000.0 0.12917582816915105 -0.0672110648069737
3900000000.0 0.09770724643774135 0.11344264094573435
3920000000.0 0.1531070782603927 0.021761504370151428
3940000000.0 -0.14422011381687733 0.08609202792517628
3960000000.0 -0.07485623515391644 0.15820189625753664
3980000000.0 0.01112730540109598 0.1728569714250072
4000000000.0 0.15949539198405482 -0.04449806240954028
