!Created with skrf (http://scikit-rf.org).
# Hz S RI R 50.0 
!freq ReS11 ImS11
400000000.0 0.8572336150424419 0.12016260499872193
420000000.0 0.7306207350036839 -0.4146741023057847
440000000.0 0.7322654482245399 -0.2859840404045033
460000000.0 0.670449540676072 0.3125013504231282
480000000.0 0.16844995719711964 -0.6700021692639946
500000000.0 0.12220008535621801 0.5935914533575489
520000000.0 0.49835349692115943 0.10945437295844462
540000000.0 -0.4230358052597485 0.11827215058779496
560000000.0 0.2139025735043014 0.3292215800200584
580000000.0 -0.3453331002824618 0.09130871905420912
600000000.0 0.22824084491347835 -0.26978756165623796
620000000.0 -0.34842416534414317 0.043705481862718984
640000000.0 0.08216772250967014 -0.39187845707270114
660000000.0 -0.3992809908366356 0.09847679939966855
680000000.0 -0.1907838844384443 -0.412510807239581
700000000.0 0.4182759048909138 0.21271074535435322
720000000.0 -0.28310156310741635 0.38088402732962623
740000000.0 0.4297127916792265 -0.06253034062334711
760000000.0 0.32019772565832844 0.22349636696124403
780000000.0 0.01763529251089328 -0.35743307701148186
800000000.0 0.14794019707700723 -0.29612113794766937
820000000.0 -0.22408244267833438 -0.18086455246772168
840000000.0 0.05340329624177029 -0.21712305345204333
860000000.0 -0.011807389503697027 0.18166404673105707
880000000.0 -0.10859767464332554 0.09581011381883252
900000000.0 0.0710867946714691 0.05755283865008476
920000000.0 0.010818711834127004 0.04735422429654272
940000000.0 -0.004220866274417673 -0.03436073733049332
960000000.0 -0.036140688161571684 -0.0001336507975084284
980000000.0 0.05088276741766819 0.022123596689897527
1000000000.0 -0.07501309126101229 -0.046592220960764964
1020000000.0 0.08288232186536429 0.07746567904119617
1040000000.0 -0.10725287675970727 -0.07223765537771983
1060000000.0 -0.10851420935728076 0.1140770093813161
1080000000.0 -0.10042404550000418 -0.15333210110351456
1100000000.0 0.09344166536670727 -0.19010877572956936
1120000000.0 0.14787893985219452 -0.1827030104785468
1140000000.0 -0.036668443954282176 0.2510805152065385
1160000000.0 -0.029566701338331888 0.27696594039097266
1180000000.0 -0.2931016431272538 -0.0916898128894861
1200000000.0 0.2878234898348446 0.18440858209622246
1220000000.0 -0.3781827895099224 -0.003779163891504643
1240000000.0 0.26654265044751974 -0.3010831156690271
1260000000.0 -0.3877734166458509 0.13811870233829082
1280000000.0 0.16974952929835996 0.3877834359122053
1300000000.0 0.4246838483012286 -0.014976295306280795
1320000000.0 0.3884366516563394 0.17819779299487884
1340000000.0 0.24825677687821024 0.359492769459742
1360000000.0 0.384591762241006 0.22832484677019907
1380000000.0 0.05577800955412692 -0.43904099303785327
1400000000.0 -0.4294844021997358 0.036283451339653765
1420000000.0 0.37259877970120203 0.1616880179589949
1440000000.0 0.2313261102760406 -0.29081199162371724
1460000000.0 0.16661810542995845 -0.29640993436682533
1480000000.0 -0.2521800104736598 -0.187699931270966
1500000000.0 0.03167636015887053 0.2825276947946151
1520000000.0 0.12829014175036899 0.2135129739215783
1540000000.0 -0.008608311917875802 -0.21717183563320064
1560000000.0 -0.06524275189568639 0.17747832365307517
1580000000.0 -0.16512176174811083 -0.0021843283924809984
1600000000.0 -0.12241203763238502 0.05386403809733146
1620000000.0 -0.10640148675241592 -0.013394901549417965
1640000000.0 -0.06544587061586347 0.05959387846031264
1660000000.0 -0.0034291114097456466 -0.07305662021022409
1680000000.0 0.025339472076670144 0.03886268209583789
1700000000.0 -0.020792084300254633 0.0005996156508842595
1720000000.0 0.00015641418883572747 -0.0014871936158643102
1740000000.0 -0.013383939405940999 -0.014197532697974155
1760000000.0 -0.026947259278404377 0.027553189692670687
1780000000.0 -0.060866450794111286 0.003913487271119716
1800000000.0 -0.0030839668689127495 0.09589276009318828
1820000000.0 0.08636893999490929 0.08977441512148437
1840000000.0 0.1534522085802328 -0.047882740073831996
1860000000.0 -0.1336984765668733 0.14528066401735468
1880000000.0 0.17197292496540237 0.16586287738963817
1900000000.0 -0.2374475001598543 -0.16208733833475422
1920000000.0 0.28311569830203975 -0.1631758631490854
1940000000.0 -0.3207528449539434 0.14330210713843342
1960000000.0 0.2365590572259556 0.2891110733678381
1980000000.0 0.3180079499533669 -0.24298036139713355
2000000000.0 -0.3772683577581392 -0.1770464018594672
2020000000.0 -0.3310475946684294 0.2675045616054245
2040000000.0 -0.040295726618276316 0.43238697297295037
2060000000.0 0.3927924290308772 0.19113173156687582
2080000000.0 0.3076543971562663 -0.3054247230137626
2100000000.0 -0.14998094027987888 -0.39965379520127264
2120000000.0 -0.3457138305857816 -0.22819190642662765
2140000000.0 -0.3907768030188686 -0.07554645525645932
2160000000.0 0.22549281125497914 -0.31360646236432926
2180000000.0 -0.013801240792489598 -0.37481760612229437
2200000000.0 -0.3092265605482495 -0.18958606180694765
2220000000.0 -0.35167039075897016 0.03989911797634781
2240000000.0 -0.28730177830041176 0.19914649929897624
2260000000.0 0.0031083542504221347 0.35020844509311344
2280000000.0 0.2913957720933781 0.1975312667988766
2300000000.0 0.35016716725597735 -0.0884889119883991
2320000000.0 0.09947684848058296 -0.3735610755093699
2340000000.0 -0.4118610339261825 -0.07643049273236736
2360000000.0 0.09372728304978602 0.44928236807243327
2380000000.0 -0.0010287878999372412 -0.5109666476426945
2400000000.0 0.2922110790099251 0.4825493224996135
2420000000.0 -0.5959179253998127 -0.15291857132013104
2440000000.0 0.5624271535743349 -0.3487640445734356
2460000000.0 -0.1548209413944616 0.6835481989131712
2480000000.0 -0.3048213475896354 -0.6639680897025775
2500000000.0 0.4134275416844451 0.6252723909242904
2520000000.0 -0.2379715678235209 -0.7218986979164197
2540000000.0 -0.009957925140362419 0.7619904906902948
2560000000.0 0.5118407574928565 -0.5554416727882877
2580000000.0 -0.7335475253580527 -0.10800717588526014
2600000000.0 0.4380015514849405 0.5687414365257176
2620000000.0 0.16948703403081555 -0.6679780952231086
2640000000.0 -0.29405272990727055 -0.5831164653285109
2660000000.0 -0.2105784325459509 0.5720295906935593
2680000000.0 0.49532288153978027 -0.26663254516394236
2700000000.0 -0.41866563612798324 -0.29978054204569665
2720000000.0 0.2644176139445274 0.38743730844858904
2740000000.0 -0.07156043888058039 -0.41595916425613877
2760000000.0 -0.22980752660309062 0.3068354846946696
2780000000.0 0.18825663120932634 -0.2944696085208947
2800000000.0 -0.15014964058587046 0.2852618447833581
2820000000.0 0.1836405109507679 -0.2414143780653037
2840000000.0 0.045214314238777156 0.2921035429459772
2860000000.0 -0.2815607288992356 -0.06850351772285088
2880000000.0 0.16069950480224993 -0.23768911549257718
2900000000.0 -0.23235905296649034 0.16714000230868997
2920000000.0 0.22482357372947523 0.18613648573616123
2940000000.0 0.10012048451125925 -0.28568760726568676
2960000000.0 -0.30868191014245494 0.022947114319532388
2980000000.0 -0.1169696559664162 0.28845313264921757
3000000000.0 -0.2652961715589917 0.16370334160090785
3020000000.0 -0.25086403671183394 -0.18955639240407382
3040000000.0 0.0705492177758503 -0.3055816235684104
3060000000.0 0.24476778644394062 0.18659491003518808
3080000000.0 -0.2810256009632126 -0.09827201375722565
3100000000.0 0.1982420341706168 0.2115858292600541
3120000000.0 -0.10881163661230936 -0.26266543789312546
3140000000.0 0.18880250992140715 0.2009179863783922
3160000000.0 -0.21838848010777206 -0.14755826750829615
3180000000.0 -0.014982975120145122 0.2488612032339939
3200000000.0 -0.2259081128264107 0.04158531326354812
3220000000.0 -0.17623249236820004 -0.10094247269704011
3240000000.0 0.07553874974543982 -0.1555876693998544
3260000000.0 0.13858574400270915 -0.0052295505483410465
3280000000.0 -0.06637165572548695 -0.07756533194274412
3300000000.0 -0.031211594804104133 0.06609201620036309
3320000000.0 -0.028497921269359065 -0.0313328774419488
3340000000.0 0.016193182152973294 -0.01677835480575335
3360000000.0 -0.0013526846631782424 -0.00993478737375899
3380000000.0 -0.002975813525944249 -0.006785518961525737
3400000000.0 0.004360582503446605 -0.013353365496579658
3420000000.0 0.025709742606329182 0.015515757991503969
3440000000.0 0.030308128526366798 -0.033882688327714454
3460000000.0 -0.04726754231757922 -0.03853438789633625
3480000000.0 0.0735440094564208 0.0004745789533704596
3500000000.0 -0.05903648088520953 -0.06873970604265815
3520000000.0 -0.050145278056419475 -0.09048588126399179
3540000000.0 0.03766471526141282 0.10608822156620891
3560000000.0 -0.06320546576159539 -0.10302766147912636
3580000000.0 -0.13150830948155348 -0.017487224160848806
3600000000.0 0.1494317729246237 -0.0026159189061491757
3620000000.0 -0.144535870816351 0.08027097553261321
3640000000.0 -0.16838766850141507 0.06994923902399848
3660000000.0 -0.18981819811687753 -0.019448544707708976
3680000000.0 -0.1964272042425941 0.00012931303003439426
3700000000.0 -0.15087019673221483 0.12485924819581908
3720000000.0 -0.190664142618348 -0.002640766393340659
3740000000.0 0.07904223871017632 -0.1630957585497882
3760000000.0 -0.07232406465333643 -0.16270488980818
3780000000.0 -0.018655905074331146 0.17316077474858949
3800000000.0 0.004035316815520563 -0.16973485320867351
3820000000.0 -0.09970506720604896 0.128053436222669
3840000000.0 0.003986249611571071 0.15118390095103704
3860000000.0 -0.11298466324078749 0.0920425692022742
3880000000.0 0.013697226952357845 -0.1430679565377922
3900000000.0 0.011850818176091684 0.14730065361477704
3920000000.0 0.12370890701067057 0.10248319001900262
3940000000.0 -0.10037717730348687 0.14027629514362608
3960000000.0 0.10204285235657794 0.14949979977729547
3980000000.0 0.06590082265163301 -0.1660259729524923
4000000000.0 -0.12090353527582483 -0.1184705134207043
