!Created with skrf (http://scikit-rf.org).
# Hz S RI R 50.0 
!freq ReS11 ImS11
400000000.0 0.5664566060641009 0.6610914729686946
420000000.0 0.786719223464812 -0.3023141338327419
440000000.0 0.6175216386783694 -0.5019254748610744
460000000.0 0.7332320449281057 0.06127202249674555
480000000.0 0.17481198508789858 -0.6553636506529048
500000000.0 -0.40150303261886605 0.4469501719582036
520000000.0 -0.15253808816102254 0.4871779777301181
540000000.0 -0.11200262586131135 -0.42417266772424395
560000000.0 -0.05489405595924263 0.3985760531981676
580000000.0 -0.3603121911570983 -0.061004419375898324
600000000.0 0.2920852105497758 -0.20708234006954138
620000000.0 -0.18010430651263443 -0.3096371768034944
640000000.0 0.4067015266858821 -0.09061267921361768
660000000.0 0.361566541274773 0.20788927846053104
680000000.0 -0.17710740108347228 -0.4069328328015939
700000000.0 0.040365626198054026 0.46136262044310933
720000000.0 -0.37265558611694977 0.2825082791344987
740000000.0 0.1146200117049316 0.4091926280778633
760000000.0 -0.3891967944529091 -0.07008790473378076
780000000.0 -0.23282940026952276 -0.28560726770047645
800000000.0 -0.001987379178550168 -0.33466922648712805
820000000.0 -0.17181645773532556 0.22846177957300098
840000000.0 -0.16753018025195815 -0.13330054389440965
860000000.0 -0.17399224632134527 0.029611165689231587
880000000.0 -3.289455114377865e-05 0.14725244810323393
900000000.0 -0.09827947689003061 -0.019715313132702878
920000000.0 -0.05830693665485898 -0.004841951190646101
940000000.0 -0.028310338779931846 0.026352471888905684
960000000.0 -0.023138008146244983 0.0330545968722992
980000000.0 -0.0029569642824308446 0.06178170075594555
1000000000.0 -0.03909870219011518 -0.091746808456949
1020000000.0 -0.11767106574263823 0.03679640385695633
1040000000.0 0.11237070642380947 -0.07226234169074681
1060000000.0 -0.10727656043022121 -0.11428841311681587
1080000000.0 0.07454332282080847 0.1607672506329445
1100000000.0 0.0717337184649297 -0.18709488359227502
1120000000.0 0.05937316980238355 0.21694696060112417
1140000000.0 -0.15503234559263235 -0.20031551275086243
1160000000.0 -0.11065635217040205 -0.25888246300896195
1180000000.0 0.07436145599916244 -0.3051571380700027
1200000000.0 0.3350528126157714 0.10192198552247109
1220000000.0 -0.37360326025818147 -0.044319972762640256
1240000000.0 0.36748211724503793 -0.14421431703451784
1260000000.0 -0.3526304052600848 -0.20155136448368463
1280000000.0 -0.4237630554770855 0.006059343581228067
1300000000.0 0.3584857986214103 0.2431498854832478
1320000000.0 0.41791525408559593 -0.1181361064454461
1340000000.0 0.406119587419062 0.16121166807373014
1360000000.0 0.42749184779578253 -0.1031979999532569
1380000000.0 -0.040825672922571686 -0.42750047271946545
1400000000.0 0.04389840009667182 -0.4175912743126214
1420000000.0 -0.383246331665028 0.13687018963271186
1440000000.0 0.33875490942082476 0.1828352502310823
1460000000.0 0.20369318475965476 -0.2919000030909419
1480000000.0 -0.20551038312887246 0.2479245266479689
1500000000.0 0.2788600571744021 -0.044139523894504484
1520000000.0 0.1366833012973658 0.20444062099776975
1540000000.0 0.15539784746031007 0.15077002244541723
1560000000.0 -0.16736483085870818 -0.08847826226664482
1580000000.0 0.09340547625556242 -0.14300056239453404
1600000000.0 -0.034338771796517314 -0.13640416008521017
1620000000.0 0.0381207266083893 0.09837735126430812
1640000000.0 -0.08088834372243763 0.00454508866806854
1660000000.0 0.06508397737262604 -0.012315757522757848
1680000000.0 -0.007393507326403031 -0.04220424213230736
1700000000.0 0.019994196467655014 0.007326294823869872
1720000000.0 -0.00047625894799682825 0.007716025586932843
1740000000.0 -0.01065111822482017 -0.0022320821493532895
1760000000.0 0.010751489262504093 0.02352590680512466
1780000000.0 -0.02982710229345838 0.03967864762688257
1800000000.0 -0.07759529817103795 -0.05384884331164928
1820000000.0 0.10797499710569186 0.06960818614556159
1840000000.0 -0.08276692954646289 0.14536296801559584
1860000000.0 0.15832061768296377 0.13078596952782826
1880000000.0 0.13273564669323273 -0.19889213700266942
1900000000.0 -0.2638421052692487 -0.08375318580026875
1920000000.0 0.1046264633100786 -0.2970862203829116
1940000000.0 -0.27247286544266486 -0.19825205506631283
1960000000.0 -0.33531263270932327 -0.1451130400768841
1980000000.0 0.2904647566976564 0.27532681360786554
2000000000.0 0.17486693784635712 -0.3846421289675865
2020000000.0 -0.2794229235957776 -0.33022625243848536
2040000000.0 0.12048001303985179 0.42103156690457133
2060000000.0 0.3225390754502533 0.2950950037884334
2080000000.0 0.4182164931118347 0.10916874501031265
2100000000.0 -0.03052161285090375 -0.42292932187502985
2120000000.0 -0.04441386711302946 -0.40919759306062925
2140000000.0 0.22966468828866815 -0.3217049379826875
2160000000.0 0.38293546321320565 -0.00641352304335548
2180000000.0 0.369731436948286 0.0515375504494701
2200000000.0 0.3569415102521852 -0.06793286386498482
2220000000.0 -0.29184921504606165 -0.20093548675669198
2240000000.0 -0.3254455519395653 -0.12115868451612335
2260000000.0 -0.33838022309437965 0.06620426159260348
2280000000.0 0.25541808213385486 0.23291478193001552
2300000000.0 0.23722939063195497 0.2597655334346443
2320000000.0 0.16697031685836203 0.3350255918137489
2340000000.0 0.03546446006584026 -0.4075857590289953
2360000000.0 -0.40013627167193166 -0.20524703806637246
2380000000.0 0.06631356199839185 0.4957136025795321
2400000000.0 -0.48938943702261173 0.2717796488933451
2420000000.0 0.5262980460781604 -0.3097007409927193
2440000000.0 -0.49994610523355076 0.42555629746524226
2460000000.0 -0.6843223913684028 -0.14809191306266448
2480000000.0 0.6600095125902353 0.3166296377886394
2500000000.0 -0.41234935529610534 -0.6304401654996351
2520000000.0 0.7147886843539908 -0.27708830909170995
2540000000.0 -0.5795799634179106 -0.5078488810930771
2560000000.0 -0.34795537623503536 0.6836196906372527
2580000000.0 0.01223374099477961 -0.7532526023953908
2600000000.0 -0.7307524841546511 0.042214114764552085
2620000000.0 0.031868417938341255 0.7053080636475042
2640000000.0 0.5288071723304283 -0.4088393241251792
2660000000.0 -0.4608889833421002 -0.42728012713070307
2680000000.0 -0.18192725423264394 0.5544953610560613
2700000000.0 -0.3048158173404496 -0.4355127209821796
2720000000.0 -0.06694816579055743 0.47904324103099993
2740000000.0 0.40191683421657276 -0.16515365103679813
2760000000.0 -0.2745861568034855 0.2782055659597998
2780000000.0 0.35974413402654387 0.0008978420943557204
2800000000.0 -0.28185131058740354 -0.18120099217364466
2820000000.0 0.14342355821675162 -0.2802527117636389
2840000000.0 -0.05618131300182516 0.3013393044970539
2860000000.0 -0.1312669230548213 -0.2684572019062592
2880000000.0 0.1610921038780039 -0.24700276198377735
2900000000.0 -0.2673794458956526 -0.12322146493955258
2920000000.0 -0.2014396640380124 0.22330518046693112
2940000000.0 0.05660030919234925 -0.30574930982518217
2960000000.0 -0.24779241993866935 -0.19607935536530247
2980000000.0 -0.3041098355825342 -0.08241541501826088
3000000000.0 -0.3122082284113341 -0.035287704621823644
3020000000.0 0.16024673207948836 0.27386550649731084
3040000000.0 0.13839451304086609 0.2874809637780833
3060000000.0 0.04642119233489843 0.31078577405178254
3080000000.0 0.28439405190799794 -0.1087385775320049
3100000000.0 -0.09968201578802352 0.2769388996525877
3120000000.0 -0.24362934269006814 -0.14887121572381815
3140000000.0 -0.16087102698653982 0.22259609289256888
3160000000.0 -0.00811908770696201 -0.2621422293543461
3180000000.0 -0.1546408457859054 0.1932517921292306
3200000000.0 0.20819171010215276 -0.10516685001233433
3220000000.0 0.07986458764099835 -0.19306378296388207
3240000000.0 -0.09540938547237071 -0.15008889364454528
3260000000.0 0.12230903422347664 -0.08302128193290687
3280000000.0 0.10061678079135862 0.028297801119936315
3300000000.0 -0.04418303576416809 -0.0562624230587447
3320000000.0 -0.03393285700778276 -0.030134189466229536
3340000000.0 -0.007413811591033499 -0.02285683338512732
3360000000.0 0.006967652138129592 -0.006300168559198259
3380000000.0 -0.00019583206320064096 0.0007571596649124857
3400000000.0 0.0010678561586597126 -0.014500364042556179
3420000000.0 -0.02808161968953884 0.013501516154924736
3440000000.0 0.035821650331930806 0.027652535177426538
3460000000.0 0.005134141889440387 0.05955968514613358
3480000000.0 -0.06445975530219705 -0.03581252925997565
3500000000.0 0.017214541198199998 0.08468971827162138
3520000000.0 0.06957236522241625 0.07450768167973405
3540000000.0 -0.057642131658101746 0.0989429588832415
3560000000.0 0.1126264128200288 -0.036738283351772816
3580000000.0 0.031106709577436494 -0.12683677254649844
3600000000.0 0.07690794596102066 0.1290438558660888
3620000000.0 -0.0025525372573064757 -0.16145627234757734
3640000000.0 -0.13265963483016138 -0.12207870374117699
3660000000.0 -0.1802328883772774 -0.06183060725355252
3680000000.0 0.013423065695764357 -0.19277184256795513
3700000000.0 -0.18326598216860504 -0.06093981206490763
3720000000.0 -0.11640203464036443 -0.1502509018350216
3740000000.0 0.17801651610156394 -0.037532349645497766
3760000000.0 -0.05810738087378958 -0.1676732238525566
3780000000.0 0.03706796408663856 0.16899241969598225
3800000000.0 0.020232793132505412 -0.16539275974705023
3820000000.0 -0.15051740127300461 0.045265085795383714
3840000000.0 -0.14677913582372223 0.008828336581953894
3860000000.0 -0.09594101963735502 -0.1069862139448053
3880000000.0 0.12309885048697591 -0.07628841282785657
3900000000.0 0.10394745230484721 0.10615860363590927
3920000000.0 0.15329046626531512 0.011560955190225687
3940000000.0 -0.13896651711238767 0.09237112812949395
3960000000.0 -0.08798734248462396 0.1508699424080282
3980000000.0 0.004538548963670285 0.17254462480001212
4000000000.0 0.1574126543794257 -0.04973420016501805
