! Created with skrf (http://scikit-rf.org).
# Hz S RI R 50.0 
!freq ReS11 ImS11
400000000.0 0.21476866561006822 0.8435932025338811
420000000.0 0.6353365159862279 0.578570616088541
440000000.0 0.7594126607481323 -0.32139055209448514
460000000.0 -0.01821149108933683 -0.7861566643130954
480000000.0 0.5326865510306648 -0.4477355426024024
500000000.0 0.4945764544397534 0.2540816184339538
520000000.0 0.3209091507825923 0.3731733373214055
540000000.0 -0.35959099693366786 0.2574437407369692
560000000.0 0.21531543200846265 -0.31380549199517815
580000000.0 -0.24758436788845128 0.2641686636581728
600000000.0 0.2759732373609209 -0.23267271102116518
620000000.0 0.07510764557599262 0.36815922176321936
640000000.0 0.14458155066963763 -0.37081052631415323
660000000.0 -0.21490040014902123 -0.33969705652994575
680000000.0 0.4108237574572133 -0.01679640725269583
700000000.0 0.2431389369850528 -0.34526058266818466
720000000.0 0.10210414951115124 -0.4104621493922667
740000000.0 0.16441427018028626 0.3911940243014883
760000000.0 0.09491275340273927 -0.39901203199413526
780000000.0 0.34285523536749163 0.15998480020166272
800000000.0 -0.3209324388211418 -0.12806262456323264
820000000.0 -0.18894540585111413 -0.22019221865845937
840000000.0 -0.22882126319485074 0.05847386628834373
860000000.0 0.17723101941907943 -0.09308388767113256
880000000.0 -0.13120934823193633 -0.05070225176933693
900000000.0 0.08110672541796596 -0.0006994274667110931
920000000.0 -0.05347271222484968 -0.023267926893483438
940000000.0 0.025421092300191923 -0.02757820268756631
960000000.0 -0.03665954512035376 0.02190945969215976
980000000.0 0.028020811604849486 0.05687901534202889
1000000000.0 0.057197685694060314 0.06248457945227159
1020000000.0 -0.106419180920944 -0.034144626690972506
1040000000.0 -0.11359342081958199 0.058316439542876124
1060000000.0 0.10058110915974953 0.12457109105492896
1080000000.0 0.14574613477310525 0.08701009742778437
1100000000.0 -0.01838834421046328 -0.18317376506791316
1120000000.0 -0.05266885204193378 -0.19035280404837046
1140000000.0 0.06286536306945902 -0.218055322747154
1160000000.0 0.1540933961349657 0.21232511441672872
1180000000.0 -0.21781624299494504 0.21504361304450786
1200000000.0 -0.34166723128383175 -0.027723952979480417
1220000000.0 0.2505694871349236 -0.2788891212296038
1240000000.0 -0.03676932600986008 0.3999487662707516
1260000000.0 0.16145248343513466 -0.3947058763322994
1280000000.0 -0.28896543357512366 0.3322271823811861
1300000000.0 0.44552144672045174 0.053156720685540525
1320000000.0 -0.020855588241525072 -0.4439784479966818
1340000000.0 0.010203949739041757 -0.43844484900989955
1360000000.0 0.14912803898871232 -0.40562957087121904
1380000000.0 -0.08803975744684195 -0.4230849104333588
1400000000.0 -0.4157841788432401 0.03883481992123079
1420000000.0 0.03144481935144631 0.3978207434809332
1440000000.0 0.34782537903743344 0.1361157795026091
1460000000.0 0.16123968709686493 -0.3050405171707438
1480000000.0 -0.21410967311735324 -0.23063726316447736
1500000000.0 -0.273038422711754 0.07827487173151026
1520000000.0 -0.1976902950465898 0.16291471795663018
1540000000.0 0.04683517537416448 -0.22337219282682058
1560000000.0 0.17965115890922895 0.07646391280167857
1580000000.0 -0.07586347901362342 0.15077971221463393
1600000000.0 0.07762744786984363 0.1170354806034646
1620000000.0 0.054336209709257476 0.097030987652402
1640000000.0 -0.08507016369671487 0.02423594059799843
1660000000.0 -0.0634198378270004 0.019075727062819715
1680000000.0 0.003515602798869302 -0.04557555068445286
1700000000.0 0.00612117698133534 -0.029027412945348146
1720000000.0 0.0015793076784178118 -0.009794470271384251
1740000000.0 0.008930850083010299 0.011149991435641188
1760000000.0 0.02683407807830809 0.025557627599329308
1780000000.0 0.04165851864512613 -0.059413014448401344
1800000000.0 0.04750980104631994 0.1003122287990559
1820000000.0 0.09427869776006655 0.11087251840403453
1840000000.0 -0.03880090611051947 0.17717798099023188
1860000000.0 -0.19879608896587225 -0.0721249267317841
1880000000.0 0.11483619036164094 0.2112740218558438
1900000000.0 0.24531748088788902 -0.11974774430281068
1920000000.0 -0.13251048201730156 -0.27306173276584744
1940000000.0 -0.32157747757971533 -0.09836176437704314
1960000000.0 -0.1290253897890981 0.3440913178077456
1980000000.0 0.38408396629891634 0.08354741715735058
2000000000.0 0.20880235195361155 -0.36050766929499656
2020000000.0 -0.4313116873358964 -0.03606870795134861
2040000000.0 -0.05049068824064539 0.43734616642920704
2060000000.0 0.4367283216260977 -0.05964700185512882
2080000000.0 0.11849763985770885 -0.41763163191044367
2100000000.0 -0.16370125647666836 -0.39177895287573883
2120000000.0 -0.3063723597272594 -0.27723755341476797
2140000000.0 -0.3988466558137599 -0.02808247985410756
2160000000.0 -0.06925159691165107 -0.3782803099319504
2180000000.0 -0.1507330411671273 -0.33548437990982954
2200000000.0 -0.21448440018080073 -0.28445352272546587
2220000000.0 -0.2781853554855947 -0.2086293349202481
2240000000.0 -0.32343000526605203 0.12443534570850483
2260000000.0 -0.09089406484404551 0.3349449529090864
2280000000.0 0.1938034643504323 0.29353417250008856
2300000000.0 0.25124840305538787 -0.2641528375070987
2320000000.0 -0.3239631681387902 -0.20941588685910204
2340000000.0 -0.22007065099838494 0.3506768780082261
2360000000.0 0.44323236453327386 0.09424494753870669
2380000000.0 -0.342292900066382 -0.36547482235135187
2400000000.0 0.2851993671012026 0.4753051303206013
2420000000.0 -0.5197523830473949 -0.31657820116435426
2440000000.0 0.6486860281639588 -0.11440321135818818
2460000000.0 -0.4038857341539758 0.5711205157450514
2480000000.0 0.06606219299614882 -0.7273977120648476
2500000000.0 -0.1341752978501754 0.7392276352880929
2520000000.0 0.2742949129535996 -0.7106079492454529
2540000000.0 -0.5311533644421168 0.5483868743188419
2560000000.0 0.7566554326491637 -0.04393373824999628
2580000000.0 -0.5118496359267561 -0.5383687781591339
2600000000.0 -0.14300420682176515 0.7042924320235724
2620000000.0 0.6006217597128022 -0.33650723101398117
2640000000.0 0.3328325563771146 -0.5595204156005638
2660000000.0 -0.5966847616814692 0.10292491296038044
2680000000.0 0.4620293447100011 0.31237831464155963
2700000000.0 -0.09306150074208924 -0.5016371589202703
2720000000.0 -0.25027183033862543 0.38844195264356657
2740000000.0 0.39540936621285266 -0.13920876237419721
2760000000.0 -0.38050407236195105 -0.02212033868215301
2780000000.0 0.33482874804603524 -0.10766448844375498
2800000000.0 -0.20436226665666418 0.25530253788054297
2820000000.0 -0.11776339849720538 -0.2860946649359111
2840000000.0 0.29769448469718146 -0.010702270778948522
2860000000.0 -0.16702280346003603 0.24227262100963995
2880000000.0 -0.0988075657943685 -0.2760706925789181
2900000000.0 0.13708706929035425 0.2611138112901514
2920000000.0 0.14259129043227312 -0.26337005459108404
2940000000.0 -0.3045863030923422 -0.029577419849080508
2960000000.0 -0.22650661268790284 0.21073375684579118
2980000000.0 -0.23625439056671566 0.2074755653554624
3000000000.0 -0.3143668944686592 0.018752440783390823
3020000000.0 -0.09274338319811651 -0.3017581836277565
3040000000.0 0.3122905985038494 0.016853472904003783
3060000000.0 -0.28918602657867454 0.11237307407849405
3080000000.0 0.2570270215983161 -0.16600425801821225
3100000000.0 -0.2088225844865976 0.21534463208575155
3120000000.0 0.1856540679693015 -0.22527953130263442
3140000000.0 -0.026457662087725254 0.2815460634166967
3160000000.0 -0.1551039127302687 -0.21901170206946588
3180000000.0 -0.09099845453550949 0.2344381449241166
3200000000.0 -0.1868058687633053 -0.13358354223733393
3220000000.0 0.07764055386360873 -0.18774641798998443
3240000000.0 0.14814859219829907 0.08823770147659955
3260000000.0 -0.1362084707420058 -0.02616361552188731
3280000000.0 0.10445694700910926 -0.0168192666642146
3300000000.0 -0.0661470088391479 -0.0370165742467004
3320000000.0 -0.04729154922512685 -0.002127298168115951
3340000000.0 0.017814412119519122 -0.013788165548608506
3360000000.0 0.002687192320628073 -0.004181490613616188
3380000000.0 -0.0035941540698335153 -0.009510778038765894
3400000000.0 -0.011038596395655187 -0.019205877460800855
3420000000.0 -0.027214282013292845 0.021246597405917694
3440000000.0 0.006578010756885317 -0.04570755177955279
3460000000.0 0.05299630192660646 -0.015910514996976984
3480000000.0 0.033002859292811625 0.05968282093042396
3500000000.0 0.07236626278905434 -0.041505508909565524
3520000000.0 -0.08956711050143176 0.04253961668890524
3540000000.0 -0.04667557655238432 -0.1040171468100599
3560000000.0 0.11642089150893832 0.04747969500940373
3580000000.0 -0.11124514959372837 -0.08042502967337342
3600000000.0 0.1538225544847449 0.008717774057127863
3620000000.0 0.017137156661765674 0.16555761203074523
3640000000.0 -0.17703033074395025 -0.013030943419955776
3660000000.0 -0.12611071944130045 -0.13990499239642995
3680000000.0 -0.03322720616384454 -0.191761270761871
3700000000.0 -0.00275169445997463 -0.1959041465116848
3720000000.0 0.1485940259786401 -0.12616348511816416
3740000000.0 0.15667222709736928 -0.11000805684539855
3760000000.0 -0.09433125334068658 0.1568882591993708
3780000000.0 0.039136181000089684 -0.16635868236740226
3800000000.0 -0.14166500273623123 -0.0738964778798747
3820000000.0 -0.1347495092137076 -0.06799495606774873
3840000000.0 0.10972725437154753 -0.09591898880520651
3860000000.0 -0.019903871459790144 0.14649856697828037
3880000000.0 0.06185724764946834 0.1432010044837171
3900000000.0 0.11835875409547586 -0.10746804268274288
3920000000.0 -0.16476352741757902 0.011317218411668214
3940000000.0 0.09887027636800891 -0.13765898370151064
3960000000.0 0.16693443840612626 0.042973505146975406
3980000000.0 0.13816568513990293 -0.10375692238424206
4000000000.0 0.1210568776669658 -0.11329217069886283
