! Created with skrf (http://scikit-rf.org).
# Hz S RI R 50.0 
!freq ReS11 ImS11
400000000.0 -0.08556274846712907 0.8670746257245094
420000000.0 0.3732035625799731 0.7775445843765312
440000000.0 0.8210608939145077 -0.1272727244016799
460000000.0 0.3373765862763784 -0.7169293782724786
480000000.0 0.6732762957424097 -0.2425866161755328
500000000.0 -0.09636656356651055 -0.5643947002148728
520000000.0 -0.1408102228728817 -0.4714802669873327
540000000.0 0.281432166702415 -0.3299916841896683
560000000.0 -0.33556674021157706 0.12652378006932366
580000000.0 0.07762199070158077 0.33078227227055484
600000000.0 0.2777057253390356 -0.1907816281351755
620000000.0 -0.34093933543019483 0.11103859174058459
640000000.0 0.111248055701976 0.3727986001234121
660000000.0 0.40142564438464 0.003717094347393625
680000000.0 0.005948459165599204 0.420060545094208
700000000.0 0.2532496450328547 -0.35023465854227454
720000000.0 -0.28101666318216145 -0.3222368070055915
740000000.0 0.37349169146586203 0.1894566167683611
760000000.0 0.05766726083618299 -0.3977409041987361
780000000.0 0.07518299334405867 0.36405521512491595
800000000.0 0.11363654562362557 -0.3252535958257551
820000000.0 0.28738515314981405 -0.061972077879417865
840000000.0 0.004714116076954224 -0.24812425572199395
860000000.0 0.1518470134508519 -0.1511819655922234
880000000.0 -0.09444472711780107 0.1279851837567844
900000000.0 -0.05330074739885262 0.07826675371634857
920000000.0 -0.0612267422292211 -0.014216693273034132
940000000.0 0.01368218622193278 0.04669401375125274
960000000.0 -0.00559634086676235 -0.053146677677545044
980000000.0 0.05438979694468785 0.04557849052717471
1000000000.0 0.0008699253282477964 -0.08073008643341824
1020000000.0 -0.005599738136087304 0.09825723148952678
1040000000.0 0.11052789206887534 0.00102066160431574
1060000000.0 -0.06139905444050234 0.13110031260740426
1080000000.0 -0.15031346268650853 -0.05412307569666414
1100000000.0 -0.14352980062759194 0.10977007875507294
1120000000.0 0.1493385938703951 0.1364974135619407
1140000000.0 0.21172255728428832 -0.0991556207376843
1160000000.0 0.26978165002986404 0.0011111021089664306
1180000000.0 0.25076256859677093 0.17771706036535515
1200000000.0 -0.07880293115673256 0.3302982115667539
1220000000.0 0.04539699975654498 -0.3638193151316868
1240000000.0 -0.193462957892457 0.34426426803932
1260000000.0 0.4096688595597611 -0.105634249308311
1280000000.0 -0.43993931434197225 0.06349105862327346
1300000000.0 0.4321879130322624 0.1486223959685328
1320000000.0 -0.19248230607717548 -0.410423315572311
1340000000.0 -0.37951232929497697 -0.2307560062717229
1360000000.0 -0.33679967023320984 -0.2732128228185344
1380000000.0 -0.3629205658955744 -0.2266541127409854
1400000000.0 -0.39331400691263296 0.131407855196152
1420000000.0 0.011118489659190637 0.3969736940439537
1440000000.0 0.3296169802258509 0.17071083647910432
1460000000.0 0.23212919454801875 -0.2532806733853463
1480000000.0 -0.1357813833198808 -0.2822888823367831
1500000000.0 -0.2693290093980879 -0.0866206788023143
1520000000.0 -0.25357910355257485 -0.03222472203770148
1540000000.0 0.20788393998279195 -0.0938086091286641
1560000000.0 -0.029431146604656337 0.19481718968048128
1580000000.0 -0.15285990907129052 -0.08150823777592663
1600000000.0 -0.05153895574923828 0.13666512369863942
1620000000.0 0.11600223377410826 0.025067430097375446
1640000000.0 0.08570542695237382 -0.04200065533882883
1660000000.0 -0.06923434043264275 0.016811759958584797
1680000000.0 0.029480105773790167 0.03710471576001735
1700000000.0 -0.02818934955790268 0.003194715103735676
1720000000.0 0.003125567790818023 0.012452878548381565
1740000000.0 -0.01709373149704849 0.012103290726595951
1760000000.0 0.040535923676621066 -0.01394323734866272
1780000000.0 -0.04114017222905498 0.06429132466147308
1800000000.0 0.07373306486413075 -0.08548027895693538
1820000000.0 0.0962094148374538 -0.11028821989917013
1840000000.0 0.10492381234857684 0.14501982831024404
1860000000.0 -0.20805323238615792 -0.02757476890800645
1880000000.0 0.058378026285893496 0.23268877840655297
1900000000.0 0.2262600617446585 -0.15450877823833048
1920000000.0 -0.199562501670712 -0.23026700287108454
1940000000.0 -0.3291780112533459 0.07169170638886417
1960000000.0 -0.012254515293396415 0.3668795428386467
1980000000.0 0.3885622729391527 -0.05687949565533697
2000000000.0 0.08577570054317356 -0.40562618432164854
2020000000.0 -0.42774878609827727 0.04996889132161938
2040000000.0 -0.08959974716790534 0.4288230029707409
2060000000.0 0.43414000146625936 0.06479484659508652
2080000000.0 0.316702078135206 -0.298236339376133
2100000000.0 0.09957801024706779 -0.4164829280806538
2120000000.0 -0.14570186350291592 -0.3929121331695281
2140000000.0 -0.3707586754071396 -0.17022944284878738
2160000000.0 -0.11585043262523873 -0.375932072886176
2180000000.0 -0.343114345829947 -0.15363312472911508
2200000000.0 -0.32915982155277346 0.14872274492456342
2220000000.0 -0.25533683814301517 0.23464790277687467
2240000000.0 -0.11267152075714251 0.3218592635856593
2260000000.0 -0.05258547720529872 0.3369449790235311
2280000000.0 0.02380487847244654 0.3455588935797765
2300000000.0 0.3472883968240815 0.10478699191914456
2320000000.0 0.03269752009549647 -0.3872451240376296
2340000000.0 -0.3996255364251115 0.13488444099622185
2360000000.0 0.4616494282211545 0.04570688115672773
2380000000.0 -0.5092898489385804 -0.03281095755626922
2400000000.0 0.5595418816515466 0.012423939568795254
2420000000.0 -0.5529410279280124 0.25897133215525914
2440000000.0 0.30503278998963945 -0.5837519094032004
2460000000.0 0.11810564876856015 0.6882949279273199
2480000000.0 -0.4066106579497495 -0.6047165578553831
2500000000.0 0.40222189163953165 0.6314172669071451
2520000000.0 -0.2684381659814693 -0.7097225861848592
2540000000.0 -0.07337684864291358 0.7565949172491476
2560000000.0 0.5770836950909015 -0.4848706851308297
2580000000.0 -0.7188374860758796 -0.17104298173520738
2600000000.0 0.23230523583157894 0.6761715358709761
2620000000.0 0.4093973752719118 -0.5474302709068908
2640000000.0 0.04531864317470604 -0.644457265351836
2660000000.0 -0.49056499978250745 0.34744735348151756
2680000000.0 0.527910514745698 0.16361515928718828
2700000000.0 -0.15803645118678653 -0.4801469314269141
2720000000.0 -0.28625832707752236 0.35722060906398256
2740000000.0 0.4149744525081137 0.03387246409685999
2760000000.0 -0.2942980498229093 -0.23974554245600233
2780000000.0 0.3283583703097345 0.1270688713359099
2800000000.0 -0.317764208000033 0.08529542511017463
2820000000.0 -0.0028308851879070927 -0.31280636376340426
2840000000.0 0.29564941463413114 0.05739239385981663
2860000000.0 -0.1457749876115669 0.2582367603480588
2880000000.0 -0.2087012775243777 -0.20598901202532696
2900000000.0 0.25674811565770667 0.1406270387201124
2920000000.0 0.0017132904602373167 -0.29424769479704344
2940000000.0 -0.29832199628577677 0.02096511332545606
2960000000.0 -0.20420678196120554 0.22156948944346522
2980000000.0 -0.2819679428568291 0.11918418007920817
3000000000.0 -0.2587381121051147 -0.1718306954544079
3020000000.0 0.07321901100630276 -0.30409717868842273
3040000000.0 0.26963695926304876 0.1555727554534646
3060000000.0 -0.29972043314380065 0.07805781262763331
3080000000.0 0.23991918359623102 -0.18872617916531065
3100000000.0 -0.03962577297857138 0.29724974773271423
3120000000.0 -0.01850034943957861 -0.28988844282802956
3140000000.0 0.18063990041349035 0.21513144441823479
3160000000.0 -0.2667289480240995 -0.023874729706541906
3180000000.0 0.15749750758401582 0.19466958396828446
3200000000.0 -0.14283479237348776 0.17777693251530724
3220000000.0 -0.1835960373602601 -0.07957158941972857
3240000000.0 0.08454469408543615 -0.14606688300080925
3260000000.0 -0.07094944032620568 0.11403957279369967
3280000000.0 0.09876990788052416 0.029036460385575287
3300000000.0 0.05112878332255437 -0.05566475818591319
3320000000.0 0.03987496336929384 -0.03195055187373984
3340000000.0 0.027233502301228337 0.013431035191194898
3360000000.0 0.004844465810974392 0.01246384360902925
3380000000.0 0.003735358056896057 0.002911793827531137
3400000000.0 -0.0003873877712915742 -0.019499432410360003
3420000000.0 -0.01740315594558408 0.03136707522174387
3440000000.0 -0.03927113336440023 0.030445442982418622
3460000000.0 -0.05864788471067191 -0.004993670905417376
3480000000.0 -0.06335603282162354 0.025179891678578717
3500000000.0 -0.024294143548102522 0.07447299007603257
3520000000.0 0.012367156645078614 0.08966702800518594
3540000000.0 0.09816928747531155 -0.03448195068592525
3560000000.0 -0.11655492591516536 -0.018581370814588164
3580000000.0 0.04344997442850372 0.12666385315020165
3600000000.0 -0.14525384743912226 0.05377578526226805
3620000000.0 -0.14744911037462782 0.0844173230979754
3640000000.0 -0.17821849389603908 0.033762475318196816
3660000000.0 -0.14835304206716868 0.12004944727408147
3680000000.0 -0.17748049654470774 0.0744171548904919
3700000000.0 -0.18288995131080366 -0.056356876305969965
3720000000.0 -0.010308073960084862 -0.18809218671561725
3740000000.0 0.1659406749822916 -0.07761704085724463
3760000000.0 -0.17638834271145995 -0.011524450395688293
3780000000.0 0.1617227094835333 0.04943529959028897
3800000000.0 0.019604703632975153 -0.15957964699238253
3820000000.0 -0.1217974801392151 -0.09404704468610513
3840000000.0 -0.004833148895445593 -0.14741027288709915
3860000000.0 0.14073692965405898 0.046128541987386466
3880000000.0 0.1523325685447601 0.01774280269509485
3900000000.0 0.010739062737689669 -0.15595817112700466
3920000000.0 -0.1386562260483908 0.08141967532061757
3940000000.0 0.07685868673967873 -0.14630723433902143
3960000000.0 0.17036728791385525 -0.008594431161056647
3980000000.0 0.10725535339166564 -0.13404105970347516
4000000000.0 0.10185528547662377 -0.1303819837229046
