! Created with skrf (http://scikit-rf.org).
# Hz S RI R 50.0 
!freq ReS11 ImS11
400000000.0 0.013355205392128349 0.8726234490501694
420000000.0 0.47977243347991694 0.7154889753811083
440000000.0 0.8204537789477111 -0.1182637100681285
460000000.0 0.13389411596768142 -0.7800586155942962
480000000.0 0.44417974612523203 -0.5453844462434707
500000000.0 0.5167299101366573 -0.19923087743627088
520000000.0 0.4754054199632896 0.11162446962063508
540000000.0 0.03671068673711636 0.43236288729664096
560000000.0 0.2124218337191347 -0.30081640923493974
580000000.0 -0.32378258172404467 -0.1452978502218215
600000000.0 0.19052599907091272 0.30237124604657795
620000000.0 -0.3793963153448088 -0.011488601765367526
640000000.0 0.38082215592636187 0.15556807540771797
660000000.0 -0.18167469589519125 -0.3762013597780773
680000000.0 -0.15425988494806328 -0.3956865807353317
700000000.0 -0.3819784759555552 0.16361270031850778
720000000.0 -0.29210261788616626 -0.27880735944860036
740000000.0 -0.30903082078638955 0.26024959347079785
760000000.0 0.19337423664893694 0.34948078085748296
780000000.0 -0.3671907047925974 -0.09778520195522943
800000000.0 0.35202308107652364 -0.07788068383795152
820000000.0 -0.08497322558297463 -0.29951224404802707
840000000.0 0.24840142208660543 0.054733481012435234
860000000.0 0.008321678927969894 0.20973965791091576
880000000.0 -0.14788037022180572 0.025585798079511706
900000000.0 -0.07185227112210632 0.03458800502747627
920000000.0 -0.02698745098642095 0.037143294885302415
940000000.0 0.020664050950839476 0.01990539180908692
960000000.0 0.0006828325665160155 0.03549330921783681
980000000.0 0.03808825465910664 0.026452153806536094
1000000000.0 -0.05574440643806981 0.002228552276061928
1020000000.0 0.07704894838637188 0.02654933006492468
1040000000.0 0.08482678835253567 0.06524982671757042
1060000000.0 0.06113184812526503 -0.14148903023140819
1080000000.0 -0.08756904657850592 -0.1538240160423909
1100000000.0 -0.007357464190186084 -0.20753950584891087
1120000000.0 0.22306548129827755 0.0449696119542397
1140000000.0 -0.2107681187305807 0.14551950947505457
1160000000.0 -0.01905699620310137 0.27685246490384113
1180000000.0 -0.26456246958469887 -0.14507730456598397
1200000000.0 0.3186403525070939 0.058508088484722914
1220000000.0 0.10578313419265413 -0.3324648459457345
1240000000.0 -0.3402287439761287 -0.17087673118901126
1260000000.0 0.05304092615314598 0.4141551837929993
1280000000.0 9.328182076897354e-05 -0.4429041623696284
1300000000.0 -0.0654383249427188 0.45745697053274703
1320000000.0 0.06405043174116865 -0.45738199491890685
1340000000.0 -0.43014384805208283 -0.1426081477908735
1360000000.0 -0.4161519502929633 0.13923284418784598
1380000000.0 -0.2794072250133865 0.3250946254734102
1400000000.0 -0.051008623653144826 0.4054502553122338
1420000000.0 0.1955897624784951 0.3344214397376658
1440000000.0 0.1393432674639197 0.33713538073586014
1460000000.0 0.300562887629381 0.16498913020589748
1480000000.0 0.23190445601312898 -0.22122719784267433
1500000000.0 -0.19550211558394753 -0.2214040706978507
1520000000.0 -0.2078030564234657 0.16856300659964382
1540000000.0 -0.11253512304285784 -0.20687020109990373
1560000000.0 0.19544027168358002 -0.03197608045826815
1580000000.0 -0.033254859677205824 0.16542532199592347
1600000000.0 -0.04616056783433543 0.13005697445532843
1620000000.0 -0.10536909775621875 0.02673418158885447
1640000000.0 0.07407764822074454 -0.04634283959826348
1660000000.0 0.007066763209045889 -0.06419993687615588
1680000000.0 0.041133320783060895 -0.015822273749545184
1700000000.0 0.005225345330994396 0.028282992103460827
1720000000.0 -0.009716142979456324 0.008885165963287346
1740000000.0 0.01797637994801301 -0.0025395160364305247
1760000000.0 -0.040290517040796586 -0.005244851246798306
1780000000.0 -0.03798764887294124 0.06440239020413534
1800000000.0 -0.017769837085012126 0.11163868295713197
1820000000.0 0.1459012150582766 -0.0005418864285735751
1840000000.0 0.15452129363222156 0.08820519019262651
1860000000.0 -0.1753427845803428 0.10768798765665585
1880000000.0 0.12676586939557383 0.1973392058617422
1900000000.0 0.2681185017016715 -0.021733633308490978
1920000000.0 -0.010393753524869397 -0.3033110232323052
1940000000.0 -0.3178248241797995 -0.11749249228210376
1960000000.0 -0.020375763552286357 0.3710265308098358
1980000000.0 0.35511556731770333 -0.17699130918210976
2000000000.0 -0.09570635711820016 -0.40670489637333374
2020000000.0 -0.39544672172753564 0.17289419893002744
2040000000.0 -0.03646861552185855 0.4364175723834373
2060000000.0 0.4031347733511446 0.17500003888809443
2080000000.0 0.3900252215898979 -0.19467919984781412
2100000000.0 0.27682300107301144 -0.3290993375207976
2120000000.0 0.04176298867249552 -0.41849529210459113
2140000000.0 -0.2892675275099498 -0.28942597760037625
2160000000.0 0.08988108131388929 -0.382445230283759
2180000000.0 -0.14248057412850518 -0.3454172059341904
2200000000.0 -0.25654737193195015 -0.24947648047958532
2220000000.0 -0.2792125860042366 -0.20349662738881263
2240000000.0 -0.3406898114843469 0.01626729417520828
2260000000.0 -0.2930624298439782 0.1751487379075929
2280000000.0 -0.19142058283158897 0.28851235075593623
2300000000.0 0.3222875408406898 0.16408901881637342
2320000000.0 0.06569099681490004 -0.37921799167772313
2340000000.0 -0.3926397938727714 0.13486912655878158
2360000000.0 0.41880478358840123 0.17989427618093054
2380000000.0 -0.37704921636356026 -0.33346180211456167
2400000000.0 0.38170887021276045 0.40465757718867634
2420000000.0 -0.5795663997419817 -0.19097453252535287
2440000000.0 0.6035104221463536 -0.26793592856293175
2460000000.0 -0.3231794407878582 0.6224902678857777
2480000000.0 0.03195092827071527 -0.7320495026710747
2500000000.0 -0.12492121518031384 0.7435754468105734
2520000000.0 0.32724948234076234 -0.6909348157646653
2540000000.0 -0.6126767941698658 0.4602027382469818
2560000000.0 0.7534918141464182 0.10171680867828334
2580000000.0 -0.3236736031388239 -0.6714427328457736
2600000000.0 -0.3728848058694239 0.6170692599594433
2620000000.0 0.6621733567483983 -0.1942816056759183
2640000000.0 0.5073386880529619 -0.4096374174025685
2660000000.0 -0.5956011426875879 -0.11716072608944537
2680000000.0 0.260899075918726 0.4936430659166095
2700000000.0 0.12101427561497852 -0.49670684708115437
2720000000.0 -0.38946158167309103 0.251961074625791
2740000000.0 0.42132513160910257 -0.019774682463367107
2760000000.0 -0.3633821505822167 -0.1244505537023339
2780000000.0 0.3533645043153596 -0.03731430525789344
2800000000.0 -0.23861714942037107 0.22999486671467764
2820000000.0 -0.1688482932611639 -0.26478982808465334
2840000000.0 0.27754911994392123 -0.11963506031514859
2860000000.0 -0.0187894637078785 0.29675220167237043
2880000000.0 -0.14102883960686954 -0.25993178599644046
2900000000.0 0.09760389821324886 0.2803470159455117
2920000000.0 0.2134849021472539 -0.211170209695423
2940000000.0 -0.2794558592003835 -0.12430293564779413
2960000000.0 -0.2946030532797476 0.09289833150169693
2980000000.0 -0.3109790926243979 0.0395559989014634
3000000000.0 -0.21539020201846298 -0.23140419249441674
3020000000.0 0.15985225448372958 -0.2721410831418006
3040000000.0 0.2345820514062109 0.20642651647320492
3060000000.0 -0.2965117800646447 -0.0909097048735008
3080000000.0 0.3015612407958326 -0.05654282691371344
3100000000.0 -0.24170957622209235 0.17896836534452623
3120000000.0 0.16634789591462226 -0.24020254844546937
3140000000.0 -0.006802130309121593 0.28259839339549336
3160000000.0 -0.2003092465461528 -0.17698540577064528
3180000000.0 0.03429620567195926 0.24731142562805616
3200000000.0 -0.22556185038872978 0.024664608545597863
3220000000.0 -0.11154503999865499 -0.16540713672927998
3240000000.0 0.13574894807605564 -0.0984578895077442
3260000000.0 -0.07088540057306318 0.11221290649540769
3280000000.0 0.07652669270403632 -0.06415947382371408
3300000000.0 -0.024828670694181917 -0.06703671128166645
3320000000.0 -0.02855199912716561 -0.03654753168264352
3340000000.0 -0.018170886559528147 -0.01779209844658046
3360000000.0 0.005433382615718683 0.007780287526681939
3380000000.0 0.005309482546812406 0.004573427032628053
3400000000.0 -0.02144429380241762 -0.002250025709605446
3420000000.0 0.03784215730619006 0.005327050583097734
3440000000.0 0.022856606005267482 -0.047000886718954756
3460000000.0 0.02640184733422104 0.05523699067250086
3480000000.0 0.06827919957822819 0.019591019730837517
3500000000.0 -0.06285881528366669 -0.05226090953401379
3520000000.0 -0.09192309928291344 0.012497425709857724
3540000000.0 0.07485068043453116 0.07492853123764597
3560000000.0 0.0012432158122579237 -0.11873757330905256
3580000000.0 -0.10430238064913001 0.08419658889774345
3600000000.0 -0.11783656348052929 -0.10174765652645822
3620000000.0 -0.1253998513047367 -0.11437255604942857
3640000000.0 -0.08190965073507797 -0.16167959392400227
3660000000.0 -0.16612022194795095 -0.09362759026922626
3680000000.0 -0.1659081547078404 -0.09762238650714565
3700000000.0 -0.1688153653499002 -0.08657699106706075
3720000000.0 0.042602613126855295 -0.18061495964837787
3740000000.0 0.17765672567208263 -0.03160876087005802
3760000000.0 -0.16582769349008486 -0.0492407417956878
3780000000.0 0.10145206122867984 0.13041369412003292
3800000000.0 0.14966448347182543 -0.04851936757582664
3820000000.0 0.002802073671760082 -0.15169404306608208
3840000000.0 0.03277685349118213 -0.14313074525703537
3860000000.0 0.14609058235128256 -0.009669419832155203
3880000000.0 0.1411524696856735 -0.053668259303103434
3900000000.0 -0.0646264185552143 -0.13779652937037906
3920000000.0 -0.14152624942630757 0.06702528855803098
3940000000.0 0.15618377730279503 -0.04409076991299289
3960000000.0 0.036083286581471224 0.16424482174205257
3980000000.0 0.17080773174954145 0.0018075527412642622
4000000000.0 0.12842564551932356 -0.1059164679990969
