!Created with skrf (http://scikit-rf.org).
# Hz S RI R 50.0 
!freq ReS11 ImS11
400000000.0 0.4461919579925097 0.7474949024021564
420000000.0 0.8447242672796442 0.001117709463141624
440000000.0 0.797707271725515 -0.05773067554387392
460000000.0 0.6829984374765019 0.29792842464057956
480000000.0 -0.020023833730485583 -0.687252895460527
500000000.0 0.16127040612175222 0.5838113126815127
520000000.0 0.36169358603993484 0.3619368934242455
540000000.0 -0.41162090118684325 -0.13846542393081895
560000000.0 0.20494481659413974 0.3381514928229397
580000000.0 -0.35067659873400725 0.08666786204626935
600000000.0 0.19003674306818422 -0.29485903270426617
620000000.0 -0.13228537463376483 -0.324120740628573
640000000.0 0.3988940417256286 0.07803823685007256
660000000.0 0.09976970678288477 0.40061640350347494
680000000.0 -0.09100594830390063 -0.4354735227866414
700000000.0 0.0325676348822894 0.4592288117073741
720000000.0 -0.44822120310192437 -0.11157914106701323
740000000.0 -0.3934870954526684 0.16829791277583503
760000000.0 -0.23917605298466302 -0.33429949922882096
780000000.0 -0.34305016281473927 0.17012336892751773
800000000.0 -0.17565739443897965 0.2926416379627384
820000000.0 0.24551283096379758 0.13796416143800705
840000000.0 -0.059667297659094114 0.19867854214263447
860000000.0 -0.15370251714611766 0.06351475632036059
880000000.0 -0.10524340702465934 -0.09057462871527476
900000000.0 -0.05584729666694164 0.07596388849726073
920000000.0 0.024570361538857024 -0.04902319816694603
940000000.0 -0.01917495140367072 0.029308600603492115
960000000.0 -0.019959309551544173 -0.029035233455271404
980000000.0 -0.05632848663411138 0.016292624236022027
1000000000.0 -0.005672500344121162 0.09691164891037626
1020000000.0 0.03387313576063497 0.11648982369136
1040000000.0 -0.07305892036138982 -0.11472461500574345
1060000000.0 -0.03210488266646069 0.15921454378475547
1080000000.0 -0.16074317652965878 -0.1006050216855211
1100000000.0 0.1573503852608837 -0.1456019041294402
1120000000.0 0.22230881941256475 -0.081523730604633
1140000000.0 -0.054923085265573025 0.2541554713980247
1160000000.0 -0.1274001590296555 0.25118488807603756
1180000000.0 -0.2899150111228513 -0.09918594487922476
1200000000.0 0.3139026860899336 0.12799738278178285
1220000000.0 -0.18092138776665628 -0.323508597251683
1240000000.0 0.36356658112927914 0.15248581518639986
1260000000.0 -0.32288600438682014 -0.24769094921878015
1280000000.0 -0.41989850377276666 0.03470464151942466
1300000000.0 0.15592366488245568 0.40106790826687233
1320000000.0 0.35174283879571877 0.2556222332840525
1340000000.0 0.12412318564171312 0.4232802885902152
1360000000.0 0.4375805612753626 0.10285991357053673
1380000000.0 -0.2970271963142511 -0.32595780525520146
1400000000.0 -0.4264690544635358 0.015684312227993897
1420000000.0 0.3270134242143332 0.23535742758290903
1440000000.0 0.24597760823586334 -0.2770798077976154
1460000000.0 0.28006903846032155 -0.19155526381882515
1480000000.0 -0.09916126555273008 -0.29619141352917455
1500000000.0 -0.26880330826750953 0.08792451616539804
1520000000.0 -0.19434547499129398 -0.16486195124587816
1540000000.0 -0.09534174141961682 0.2098092756710834
1560000000.0 -0.10223103360517218 0.1733160669640128
1580000000.0 -0.12066805317633134 0.13135158952720336
1600000000.0 0.14225081158101766 0.013403860617115229
1620000000.0 -0.08625400231918677 0.05931158067570313
1640000000.0 -0.07703866627890617 0.007953506620558744
1660000000.0 0.0589418601148522 0.005691037420844831
1680000000.0 -0.03071730392786797 -0.013574685323851057
1700000000.0 0.009013725018007063 0.0019832724250086102
1720000000.0 -0.011694955934896195 0.0034954265839375817
1740000000.0 0.01851051868694176 -0.020311229502234258
1760000000.0 -0.033996283554421754 0.012070589204815881
1780000000.0 -0.042620360129304674 -0.02232076303102947
1800000000.0 -0.07750047377760147 -0.02419867021695918
1820000000.0 0.08435941543832558 0.07288530613974414
1840000000.0 0.1455972528416373 -0.04465068293997863
1860000000.0 0.11563520411062217 -0.16341969917341212
1880000000.0 -0.21862514496455146 0.10999873053237892
1900000000.0 0.18828528173989478 -0.21912966324252214
1920000000.0 0.14983010484367354 -0.29511919213525156
1940000000.0 -0.21393464381207897 0.2768034953598591
1960000000.0 0.09443991578612466 0.35696857613795296
1980000000.0 0.1873626400606073 -0.348416782054024
2000000000.0 -0.22840727935549562 -0.3426339461276817
2020000000.0 -0.266469883727493 -0.3268958889973852
2040000000.0 -0.2788847681065315 0.3290187950829635
2060000000.0 -0.12660555199449908 0.4178355267617553
2080000000.0 0.08611058966839286 0.42807058091853173
2100000000.0 0.0961452805064503 -0.420159065588275
2120000000.0 -0.056784521747628276 -0.4143159536229037
2140000000.0 0.1088063423785933 -0.3863779352684122
2160000000.0 0.22447800884914107 -0.3146321330585949
2180000000.0 0.2463001152392001 -0.27983404285445274
2200000000.0 0.23664030293144778 -0.27100631627501875
2220000000.0 -0.3136731846098636 -0.15314744096048638
2240000000.0 -0.19680746117091227 -0.2791176736136415
2260000000.0 -0.20510208456443374 -0.27261507821117004
2280000000.0 -0.14645623170775438 0.3155238953722144
2300000000.0 -0.007990737177636608 0.357328254383891
2320000000.0 0.19295301202420417 0.3279224196027475
2340000000.0 -0.15632311949241487 -0.380566042131828
2360000000.0 -0.44817872966766836 -0.007983502524254674
2380000000.0 0.23078432083476028 0.44128343253473257
2400000000.0 -0.44973366874225607 0.32917181795650075
2420000000.0 0.49917185557355453 -0.34983371281321174
2440000000.0 -0.48827059014473145 0.4389673357186185
2460000000.0 -0.6851504926473416 -0.1496917679931356
2480000000.0 0.6827072734709904 0.26870653055843374
2500000000.0 -0.42904227048990484 -0.6208147344868015
2520000000.0 0.7024104508747705 -0.30863160647820403
2540000000.0 -0.5750479021401119 -0.5136926265906386
2560000000.0 -0.45087493335386514 0.6215086144356209
2580000000.0 0.036497985620605716 -0.7523591661628494
2600000000.0 -0.7306730592213267 -0.04374249666201605
2620000000.0 0.0041505098372187155 0.705932048904501
2640000000.0 0.5361710828210351 -0.39816684323318213
2660000000.0 -0.4483758300559418 -0.438943698970939
2680000000.0 -0.18524428141319021 0.5512283435388872
2700000000.0 -0.317447987299584 -0.4237908738373847
2720000000.0 -0.09657942496971882 0.47212859973792537
2740000000.0 0.40426241828105103 -0.15287358474354107
2760000000.0 -0.3058700669664217 0.23900119739094725
2780000000.0 0.34242784541644145 0.10433795267914948
2800000000.0 -0.249069474227487 -0.2221904346314838
2820000000.0 0.1334334472571723 -0.28325349832079555
2840000000.0 -0.09171435772762289 0.2917694693952243
2860000000.0 -0.1241961716259354 -0.2732155867409506
2880000000.0 0.023047435074096703 -0.29569624903296515
2900000000.0 -0.2588207662203432 0.14093196057239404
2920000000.0 0.029537478395758505 0.29714844428591614
2940000000.0 -0.0573547051793392 -0.3031561470716305
2960000000.0 -0.24685817880027816 -0.1939299403862645
2980000000.0 -0.2055348221585121 -0.23912458613739868
3000000000.0 -0.2384693640559335 -0.20985485908490897
3020000000.0 0.11621880990253078 0.3000678369575727
3040000000.0 0.19705905698559767 0.25589348552179586
3060000000.0 0.10777065606417376 0.2963374157798867
3080000000.0 0.2825598571451128 -0.11323456385612682
3100000000.0 -0.1837104624695199 0.23055744261025038
3120000000.0 -0.08326524643909697 -0.2731142138127629
3140000000.0 -0.2637539708066562 0.07597728074156043
3160000000.0 0.20097412852801583 -0.16584963429804872
3180000000.0 -0.24474769360276133 -0.03517843035099128
3200000000.0 0.2124515138026759 0.0958110392126558
3220000000.0 0.20430000204770304 -0.039869805158911094
3240000000.0 0.049481648381072905 -0.16850201342728183
3260000000.0 0.14083279951179725 0.03416780632839891
3280000000.0 0.06035304398109169 0.0816326142889163
3300000000.0 -0.03990683622983248 0.052613994266438195
3320000000.0 -0.038324211596618876 0.0035645796205678684
3340000000.0 -0.01815393279955099 -0.006411252954419622
3360000000.0 -0.005656973815746123 0.006351467474942796
3380000000.0 -0.002147530643539453 -0.0021222657954428842
3400000000.0 -0.0017442224980177387 0.01552406031912478
3420000000.0 -0.010494329007561918 -0.032339779021438295
3440000000.0 -0.003187485717873823 0.04889695546265814
3460000000.0 0.0428222985579088 0.047033410166957695
3480000000.0 -0.06859113777191876 0.0351111853899842
3500000000.0 0.0670843011883398 0.05765889489004677
3520000000.0 0.03691417229141004 0.09605063642762302
3540000000.0 -0.11284744352313167 0.026035760080555304
3560000000.0 0.09403853567329014 0.07460055767317868
3580000000.0 0.0946063233287654 -0.09391162231721205
3600000000.0 0.028082917681469075 0.14745618624900675
3620000000.0 0.1390419924577699 -0.0826500459505644
3640000000.0 0.06751217201074598 -0.16763088110105254
3660000000.0 0.007887539275014422 -0.19124349676462266
3680000000.0 0.15564972144668535 -0.11771502271399649
3700000000.0 -0.15209075616734932 -0.12190867172429593
3720000000.0 -0.11483236145240822 -0.1516229144681599
3740000000.0 0.1792593562675451 0.01784206974005141
3760000000.0 0.12122563352922468 -0.1260472599118956
3780000000.0 -0.17214867043307153 -0.0029651707886400084
3800000000.0 0.1675851034360525 0.014161304356002503
3820000000.0 -0.14093238910886038 -0.0775675791612458
3840000000.0 -0.1456718912293252 0.031314188840580216
3860000000.0 -0.13045536648724304 -0.05835721006518509
3880000000.0 0.1172909758533966 -0.07828219930267757
3900000000.0 -0.13004573747099693 0.0643589846699284
3920000000.0 -0.12849289822114787 0.08047586535773028
3940000000.0 -0.020946480885818217 -0.166195251065031
3960000000.0 -0.1757072731185399 -0.026041793834373557
3980000000.0 -0.03549725972801149 0.1719207293013198
4000000000.0 0.12581844769148615 -0.10872402332945331
