!Created with skrf (http://scikit-rf.org).
# Hz S RI R 50.0 
!freq ReS11 ImS11
400000000.0 0.6904740855959951 0.5260263398486148
420000000.0 0.8435754660319893 -0.009295793125987018
440000000.0 0.796751513820054 -0.05244104521013148
460000000.0 0.7470883259184425 -0.046598339030037114
480000000.0 -0.22392006520785576 -0.650262524687478
500000000.0 0.08792909270694678 0.5936647741822765
520000000.0 0.5027704025919929 -0.05430949113640892
540000000.0 -0.4157181532615798 -0.13015545780418736
560000000.0 0.21096057919430797 0.33542377464034123
580000000.0 -0.13404640710759894 0.3381055909182169
600000000.0 -0.0670515614774797 -0.3480501619711086
620000000.0 -0.3526019248481896 0.01791222651763705
640000000.0 -0.12296471466282069 -0.3830081562192717
660000000.0 -0.38634621785971124 0.12811119764926399
680000000.0 -0.039872013132020254 -0.4430166372351168
700000000.0 0.014778987143088621 0.4593186523770666
720000000.0 -0.28809396738540655 -0.3625528720442697
740000000.0 -0.3846037869282544 0.19786244144521384
760000000.0 -0.40991770960621704 0.023448804064277656
780000000.0 -0.3508745900168177 0.15277645290203087
800000000.0 0.2960266555197269 0.16469621509649401
820000000.0 0.18548756848098122 -0.2098596899187084
840000000.0 0.03603444292908546 0.19979402108092367
860000000.0 -0.11386208869036926 -0.1193203906484715
880000000.0 -0.09482816498701882 0.10209157240124798
900000000.0 0.029016106884544753 0.09200647096933458
920000000.0 -0.054557774549234855 0.007458438881151606
940000000.0 0.0357514627009352 -0.005333785625720249
960000000.0 -0.02128423246860909 -0.025003680938756656
980000000.0 -0.0015487081556638097 0.05669528424969867
1000000000.0 0.08073226937880866 0.04890093533286356
1020000000.0 0.11816106715240464 -0.017140585701698473
1040000000.0 -0.04555067987361072 0.12492215323516871
1060000000.0 0.0448248232388947 0.15250692795887708
1080000000.0 -0.04733320050151178 -0.18143119865267782
1100000000.0 0.14619218829608457 -0.16091331166995515
1120000000.0 0.24165605134380738 -0.019515227535069447
1140000000.0 -0.17859716457418182 0.1909720611824284
1160000000.0 -0.15237737581406655 0.24310793122802973
1180000000.0 -0.3136967463322444 0.008115341179936623
1200000000.0 0.33624458880215014 -0.06296097014603907
1220000000.0 -0.3349643033719584 0.16088713710747912
1240000000.0 0.3608248569349609 -0.14681103283116462
1260000000.0 -0.19383025441408866 -0.3496084554172411
1280000000.0 -0.41497801805010065 0.036167354877477007
1300000000.0 -0.0644056678782164 0.42314058781210817
1320000000.0 0.1965303022757954 0.3892975411792951
1340000000.0 0.3825095472784488 0.22875886161533363
1360000000.0 0.3777449132286703 -0.24680753614470904
1380000000.0 -0.40180223353654887 -0.18288720554193325
1400000000.0 -0.1295792854889145 0.40740363773319993
1420000000.0 0.38171096885127276 -0.12597681867397467
1440000000.0 0.12175031927846293 -0.3480461926184111
1460000000.0 0.1000413159034362 -0.3219513565264423
1480000000.0 -0.2005108186785503 -0.2377846037464167
1500000000.0 -0.28006543772758846 0.03791639026526253
1520000000.0 -0.18168786794511335 -0.1783594170719709
1540000000.0 0.12163619295316827 0.1955617306349285
1560000000.0 -0.2018812029089852 0.031571911822187736
1580000000.0 -0.13141857508635585 0.12408743835697168
1600000000.0 0.07079561717563596 -0.1254785384448
1620000000.0 -0.1020799280566081 -0.029779565598732603
1640000000.0 -0.07499153596737157 0.019915516854649835
1660000000.0 -0.006856518111990289 0.056506466426449735
1680000000.0 0.026990242035630812 0.013343187509792825
1700000000.0 -0.0071261507454120805 -0.003247665711394672
1720000000.0 -0.010744855120522053 0.0013125741033189788
1740000000.0 -0.011053415922363995 0.023735423428911526
1760000000.0 0.03565337942593839 0.015680423481364104
1780000000.0 -0.029091761374360797 -0.046053025325020744
1800000000.0 0.06730906179723548 0.04960727697092957
1820000000.0 -0.1111510493798329 -0.009807311991607276
1840000000.0 -0.1511698790068226 0.0045222761186349495
1860000000.0 0.03955205552360252 -0.1887808289094439
1880000000.0 -0.20931635893650327 0.11791555144936083
1900000000.0 -0.05820397836199912 -0.2855482529984494
1920000000.0 0.26255414661229703 -0.20441468523670533
1940000000.0 -0.053403463823634714 0.3522019334887108
1960000000.0 0.35668470943470953 -0.11874725461665434
1980000000.0 -0.08059502180503891 -0.3930374883652124
2000000000.0 -0.3881262262544863 0.1515234791562405
2020000000.0 -0.17719158268385624 0.38537971184667413
2040000000.0 -0.03736782360591193 0.43077967936307066
2060000000.0 0.19291572134440513 0.3910586174267046
2080000000.0 0.41119160217822465 0.14814476078378466
2100000000.0 0.3341101425768558 -0.27516048097239926
2120000000.0 0.08232900316459302 -0.4137486539876341
2140000000.0 -0.16969101156027352 -0.36795601215420776
2160000000.0 0.38446918319092704 -0.07037872551378412
2180000000.0 0.19907285134739983 -0.31868862173343265
2200000000.0 -0.040722559617440125 -0.35771520044646393
2220000000.0 -0.21468975625967432 -0.2745445783728981
2240000000.0 -0.3200509927550841 -0.1164608707594573
2260000000.0 -0.320266329782117 0.11320002524507355
2280000000.0 -0.1077780669989605 0.32635304604280807
2300000000.0 0.2428718338888469 0.2578580767863959
2320000000.0 0.2766515514584108 -0.2626297375750961
2340000000.0 -0.3702430775968322 -0.1816586214654437
2360000000.0 0.01372053192166521 0.4531791085931103
2380000000.0 -0.01997007975276703 -0.5076329118533779
2400000000.0 0.34543426154366863 0.44538200757131985
2420000000.0 -0.6065804577130586 -0.10958136096046471
2440000000.0 0.5663818075510301 -0.3469801831386545
2460000000.0 -0.3584253834754262 0.6071418564526607
2480000000.0 0.07832823905841876 -0.7331025716002181
2500000000.0 -0.14348698199011753 0.7440755231246903
2520000000.0 0.3422479075405025 -0.6880001190688395
2540000000.0 -0.6329724089793384 0.4377445626107984
2560000000.0 0.742239421373549 0.17912240159371334
2580000000.0 -0.24267687017807407 -0.7073487340712052
2600000000.0 -0.4782050293235735 0.5420999850757123
2620000000.0 0.6918684431154337 0.009813949709132533
2640000000.0 0.5616338929826642 -0.3354239117320104
2660000000.0 -0.5982744712278676 -0.12092821328499836
2680000000.0 0.45173298705984116 0.3356183989207447
2700000000.0 -0.2633002925520474 -0.4419273994633594
2720000000.0 0.2619969398116736 0.38539013368047764
2740000000.0 -0.21301233485472088 -0.35676864426250215
2760000000.0 -0.0037004729237204363 0.3743622506529549
2780000000.0 -0.015162460846303 -0.34048114586905115
2800000000.0 -0.01841901575272759 0.31508793855378303
2820000000.0 0.14281238514800812 -0.2643982762077207
2840000000.0 -0.005232850576763065 0.2990577158793418
2860000000.0 -0.29487807475286837 -0.05414026567776735
2880000000.0 0.020410948128472602 -0.30033504272631045
2900000000.0 0.0841831761537006 0.28869185693007077
2920000000.0 0.19749520224858763 -0.2307457581485403
2940000000.0 -0.26950368586744494 -0.1546223724918212
2960000000.0 -0.27782969624481846 0.14154101125009097
2980000000.0 -0.30263660544930154 0.0722276753103461
3000000000.0 0.036074198373845005 -0.3110086942346572
3020000000.0 0.31163617243146247 0.07763068452278613
3040000000.0 0.1913933639470072 0.2594278195535457
3060000000.0 -0.28059346483880926 0.14640706996666752
3080000000.0 0.11433970339954515 -0.28257875719666115
3100000000.0 -0.1542683662120051 0.2499179443567411
3120000000.0 0.19499588425028994 -0.20780249163540906
3140000000.0 -0.07059750237390235 0.26313831772056945
3160000000.0 0.08357313539310088 -0.24212754394476022
3180000000.0 -0.2191878784973057 -0.09951581666048874
3200000000.0 0.18289985457308158 -0.12408469209726383
3220000000.0 0.18587768125197626 0.06763737458178408
3240000000.0 0.1044719372430864 0.13183979753918468
3260000000.0 0.08852735934856756 0.10029099676415794
3280000000.0 -0.09745225156944803 0.004359231651851872
3300000000.0 -0.0671747805512703 -0.013206790506847381
3320000000.0 0.033566203340103004 -0.0109079453844667
3340000000.0 -0.006167273224973845 -0.011745209709745867
3360000000.0 -0.0033329521462060786 -0.0007384555090070106
3380000000.0 0.012434456971371818 -0.00522003496854799
3400000000.0 0.0028240168524825407 0.020250844739337935
3420000000.0 0.013907966031802272 -0.031207714688525828
3440000000.0 -0.01850413087267991 -0.04443551701754267
3460000000.0 -0.04791768995727965 -0.040729334989719736
3480000000.0 0.03187681845939301 0.07111308340101266
3500000000.0 -0.09454462282262678 0.01940167174124275
3520000000.0 -0.0246657130593984 0.10612470591592986
3540000000.0 -0.106385480624409 -0.04996579478982905
3560000000.0 0.12378084832446935 0.003644238056629173
3580000000.0 0.010490274645176725 -0.13269603469664573
3600000000.0 -0.05491125332474841 0.1346206198297655
3620000000.0 0.12642447686415426 -0.10015019675268794
3640000000.0 0.14171839448113419 -0.10960483016417585
3660000000.0 0.18886534718654938 -0.011023931092212752
3680000000.0 0.16598484688170778 -0.10448177039973086
3700000000.0 -0.11214431320083222 -0.1600374016752563
3720000000.0 -0.14494310776139693 -0.12468542683353515
3740000000.0 0.046855195799732186 -0.17160079503646483
3760000000.0 -0.15495869714050944 -0.06964234502801843
3780000000.0 -0.09222151710628107 0.13666704837438906
3800000000.0 0.15459061961758566 -0.03554710041164602
3820000000.0 -0.04390795318463155 -0.14851156078675093
3840000000.0 -0.04214100039343323 -0.14206439830817444
3860000000.0 -0.14570461609456142 -0.009558129505452
3880000000.0 -0.14096614946828423 0.01426639851078024
3900000000.0 0.09283013812867671 -0.1043551533600195
3920000000.0 0.14795304462704587 0.001820601209648716
3940000000.0 -0.14956056855894506 0.057491014361603775
3960000000.0 -0.11825671429813184 0.12279729844008111
3980000000.0 0.17253638250653644 -0.0031735939583152936
4000000000.0 -0.15235365074197604 -0.0712376031107864
