!Created with skrf (http://scikit-rf.org).
# Hz S RI R 50.0 
!freq ReS11 ImS11
400000000.0 0.6913842154274348 0.5252244043415385
420000000.0 0.8432966783935529 -0.003381960986402635
440000000.0 0.7963610147645168 -0.05436699303751334
460000000.0 0.7466551332937433 -0.049837129081380126
480000000.0 -0.2325073859777885 -0.6472366531029097
500000000.0 0.09399288741442746 0.592781014056317
520000000.0 0.5028676637862974 -0.05509461541871254
540000000.0 -0.4107661522511455 -0.14558154163212572
560000000.0 0.19541990269805376 0.3446316187156415
580000000.0 -0.1530853632557119 0.3299000840834316
600000000.0 -0.059324668218473736 -0.34914884605646906
620000000.0 -0.35206550630073513 0.02022274519123569
640000000.0 -0.14223603159021295 -0.37574653988724
660000000.0 -0.36893842969760227 0.1713402345829115
680000000.0 -0.07675213189384393 -0.4377694478029447
700000000.0 0.020949043629818913 0.45899660406776704
720000000.0 -0.318641141535972 -0.3364642232420076
740000000.0 -0.3808379791288809 0.20546047555609803
760000000.0 -0.41029957936423395 0.021955255669810218
780000000.0 -0.35167093723981663 0.15210450042661328
800000000.0 0.2904017621862058 0.17497791298846027
820000000.0 0.19963708458170507 -0.19670333000569928
840000000.0 0.023187338065304975 0.20180224534179675
860000000.0 -0.10211704789469547 0.1297320877861591
880000000.0 -0.1068865678978919 0.08943072973175137
900000000.0 0.02596751938147825 0.09253511972521568
920000000.0 -0.05390199284076855 0.009744314855348242
940000000.0 0.03249716801889354 -0.015776864688436767
960000000.0 -0.025839919707462147 -0.020522898634494642
980000000.0 0.0036214992579382847 0.05692673381008354
1000000000.0 0.06967372610130382 0.06403993918212683
1020000000.0 0.11901123908437453 0.008819828044084639
1040000000.0 -0.06859607855764709 0.1138316870385244
1060000000.0 0.014507739739440237 0.1580506798421007
1080000000.0 -0.030820694392046818 -0.18445209070222277
1100000000.0 0.14512812499331348 -0.16113274606360495
1120000000.0 0.24060648177517907 -0.02614940226519968
1140000000.0 -0.16740666628533152 0.20026063644974276
1160000000.0 -0.13244222110881132 0.2541113172628278
1180000000.0 -0.31172761833412066 0.03343688046015451
1200000000.0 0.33177327829503667 -0.08340489746826182
1220000000.0 -0.31361691049467355 0.19957334206073882
1240000000.0 0.347082222757511 -0.17722855945496296
1260000000.0 -0.20472436024104212 -0.34360025973699415
1280000000.0 -0.4146649708127916 0.044219412526337355
1300000000.0 -0.057474167279086046 0.4246172666813145
1320000000.0 0.19510169546916323 0.3903282995657787
1340000000.0 0.3741242300930573 0.24292770157383992
1360000000.0 0.3855889540558263 -0.23512623897674226
1380000000.0 -0.3918548757898253 -0.20385022510910136
1400000000.0 -0.15728620648181893 0.3977048279507061
1420000000.0 0.391691535808151 -0.09131373343513091
1440000000.0 0.12875528841765554 -0.34516834239009797
1460000000.0 0.1177443261952019 -0.31564141680354385
1480000000.0 -0.19439342264628956 -0.24209936807289595
1500000000.0 -0.2779822186142689 0.04736550763739211
1520000000.0 -0.1792400406880209 -0.18052120915941017
1540000000.0 0.13657293207337856 0.185107736479357
1560000000.0 -0.19650777319290663 0.055206367918282304
1580000000.0 -0.11309731371312502 0.14082804103687657
1600000000.0 0.03394011063988548 -0.14004215589773758
1620000000.0 -0.10662659482379816 -0.002398721450486813
1640000000.0 -0.06032665061513624 0.04971669151567772
1660000000.0 0.005451160401910386 0.057375495912656574
1680000000.0 0.03069322453487037 0.004733284008159038
1700000000.0 0.006406829262168405 0.005260858460401092
1720000000.0 0.010371093047738431 -0.002018380001127813
1740000000.0 0.02187655580091097 0.014139210723747705
1760000000.0 0.03210429546153928 -0.02222541426715219
1780000000.0 -0.051421424627848496 -0.019261171702728175
1800000000.0 0.08160697894102734 0.01915664263339002
1820000000.0 -0.11103155392630108 0.01291525808460404
1840000000.0 -0.14991509846335804 0.022483613048607787
1860000000.0 0.040517472723070797 -0.1889323623069909
1880000000.0 -0.21173670846891793 0.11413710976674617
1900000000.0 -0.04460383687463494 -0.28814441136547436
1920000000.0 0.27529398573650066 -0.18707738402776586
1940000000.0 -0.08226453967127456 0.3465113291087428
1960000000.0 0.3660135624249407 -0.08542680996457594
1980000000.0 -0.05849077987933477 -0.3965888264612142
2000000000.0 -0.39461557468472347 0.13229622657870765
2020000000.0 -0.19340666291051622 0.37690390192005946
2040000000.0 -0.04132819859753586 0.42973796666817154
2060000000.0 0.1837619563725336 0.39463613839378436
2080000000.0 0.41065675305925353 0.1474196362036596
2100000000.0 0.316261136959477 -0.2943580427618547
2120000000.0 -0.03110026260435155 -0.41960798621430245
2140000000.0 -0.1883487466747031 -0.35804258442430564
2160000000.0 0.370771515110342 -0.12191695917916022
2180000000.0 0.15832452015519227 -0.34034755655019444
2200000000.0 -0.09916078976545592 -0.34596031588041226
2220000000.0 -0.2742649178584387 -0.21514038148761838
2240000000.0 -0.3317068572999505 -0.07882209074666927
2260000000.0 -0.30079336785899713 0.1580429171597738
2280000000.0 -0.07292674153100255 0.33593581460890315
2300000000.0 0.25704910113979873 0.2437056415630357
2320000000.0 0.2690509351195951 -0.27053323713873034
2340000000.0 -0.37346522658111836 -0.1754740247918978
2360000000.0 0.007475181136138883 0.45330986406355456
2380000000.0 -0.0032647050811097796 -0.5079750332097327
2400000000.0 0.29908842008800535 0.4773423845725864
2420000000.0 -0.597775310097333 -0.14892980995418073
2440000000.0 0.5986612603448094 -0.28619076453662734
2460000000.0 -0.3932406300361425 0.5842072536337737
2480000000.0 0.11144727928871644 -0.7278214080370766
2500000000.0 -0.2034616258236037 0.7292675670142685
2520000000.0 0.3991054773281629 -0.6556582961082775
2540000000.0 -0.630805877171036 0.4397916656756853
2560000000.0 0.7479002489006413 0.15071082364410332
2580000000.0 -0.22383664970434639 -0.713321133375536
2600000000.0 -0.45052465506865524 0.5652858162420538
2620000000.0 0.6919445765863186 -0.02094230083276768
2640000000.0 0.5326506201392216 -0.38059935183729954
2660000000.0 -0.6055851402475567 -0.08308845278506634
2680000000.0 0.4798306528460158 0.29602833640961723
2700000000.0 -0.2833514912968032 -0.4307216978194997
2720000000.0 0.28001978736777305 0.37403128260732155
2740000000.0 -0.19707907385380963 -0.3671750614162673
2760000000.0 0.0025943683332086236 0.37550043550062706
2780000000.0 -0.006964012052129919 -0.3417035683154488
2800000000.0 -0.03911770580977584 0.31390553373156316
2820000000.0 0.16933140993882298 -0.24872487724360845
2840000000.0 -0.055821135104539114 0.2945894466672424
2860000000.0 -0.28963277558293676 -0.07563594946047901
2880000000.0 0.05647772616966068 -0.29529876787738096
2900000000.0 0.053776753219377665 0.29541143094508326
2920000000.0 0.19824781467821664 -0.22922399117486889
2940000000.0 -0.2648826231361199 -0.16108691241485024
2960000000.0 -0.27110092458386975 0.15259441046404984
2980000000.0 -0.2951279703526781 0.09608986408186938
3000000000.0 0.00019295764662662483 -0.31247225181256094
3020000000.0 0.3198768554699687 0.02421800957795404
3040000000.0 0.24032877153134957 0.21444580643164216
3060000000.0 -0.24762462495365484 0.19662482195639736
3080000000.0 0.07702936570047667 -0.29499310245172344
3100000000.0 -0.10405274686679826 0.27496072885617434
3120000000.0 0.09764864813044499 -0.2686822022055098
3140000000.0 -0.016940685979123012 0.2724067704600709
3160000000.0 0.03821121871521891 -0.2538903482351702
3180000000.0 -0.22896919016709566 -0.07560963824480316
3200000000.0 0.1675993319386527 -0.14537436771085557
3220000000.0 0.19099176224212372 0.05449215730198248
3240000000.0 0.10671026479279194 0.13203283309497071
3260000000.0 0.09057884459236089 0.0996502759873804
3280000000.0 -0.09831097717882238 -0.004281846800205342
3300000000.0 -0.057896428031754786 -0.03821346148685444
3320000000.0 0.03492525831994535 -0.008791610958779584
3340000000.0 -0.006823098181833155 0.011770940400445877
3360000000.0 0.0028822776985794516 -0.00258648957635529
3380000000.0 -0.012032813946607334 -0.0058808039903259085
3400000000.0 -0.0005075301822764565 -0.020391595582315555
3420000000.0 -0.033085113382360615 -0.008101242306109046
3440000000.0 -0.03127355173432977 -0.03588895504060678
3460000000.0 -0.053367562605308484 -0.03192153662887903
3480000000.0 0.06810535718423173 0.03755864953450138
3500000000.0 -0.06842728957515017 0.06812069095257424
3520000000.0 0.032045755155966374 0.10405660128757384
3540000000.0 -0.11012938255936607 -0.03936928664911188
3560000000.0 0.11851800366649724 -0.03459642099639255
3580000000.0 -0.03280895312732624 -0.12887135117642912
3600000000.0 0.004606720424842757 0.14553674461449154
3620000000.0 0.09380056914007201 -0.1311948882949756
3640000000.0 0.10854994390354876 -0.14295259424198092
3660000000.0 0.1780960501038218 -0.06507808221717809
3680000000.0 0.14026304274426193 -0.13785792172206657
3700000000.0 -0.14774491538357654 -0.12886219557446588
3720000000.0 -0.1668859579548341 -0.09395105921591639
3740000000.0 0.02574971132591891 -0.1769806023128328
3760000000.0 -0.1690381151507379 -0.022099229358447724
3780000000.0 -0.04491445518922197 0.15881536512701402
3800000000.0 0.14531457628709826 -0.06598412306999575
3820000000.0 -0.08050712867113705 -0.13276712152066175
3840000000.0 -0.07321480167247939 -0.12918677577102844
3860000000.0 -0.14697210604637026 -0.0019436934584774227
3880000000.0 -0.1397391179347659 0.02892229457694478
3900000000.0 0.08580032899108703 -0.11108952635869054
3920000000.0 0.14859343807056086 -0.004502253454783124
3940000000.0 -0.14868822065671966 0.061949347446880576
3960000000.0 -0.11352203094598722 0.127674271853193
3980000000.0 0.1717496728362824 0.0227068080750515
4000000000.0 -0.13530319674847782 -0.100878841163156
