!Created with skrf (http://scikit-rf.org).
# Hz S RI R 50.0 
!freq ReS11 ImS11
400000000.0 0.44941838032103276 0.7450496438923274
420000000.0 0.8446416281151624 -0.015824027025145033
440000000.0 0.7999249804632278 -0.007243843058445813
460000000.0 0.6735487606379233 0.3193096381605767
480000000.0 -0.02219923475001418 -0.6871341951227348
500000000.0 0.1395473131546743 0.5894779567129341
520000000.0 0.352604952283066 0.3705602442930814
540000000.0 -0.41502367539674767 -0.1269146381461689
560000000.0 0.19099383068049228 0.34657389216785195
580000000.0 -0.34840344713169213 0.09585641030121232
600000000.0 0.1626999416978178 -0.31134203190735543
620000000.0 -0.1428274226576398 -0.3195271432624946
640000000.0 0.3948469626311914 0.09618921859132488
660000000.0 0.08233833800037736 0.40494324575246127
680000000.0 -0.10229516647363694 -0.4325452175743386
700000000.0 0.01278998375553925 0.4601565786089623
720000000.0 -0.44627282988741585 -0.11871154976399617
740000000.0 -0.3935530647574839 0.16675405975255506
760000000.0 -0.23560215207183138 -0.3368955981379292
780000000.0 -0.35121575738731886 0.15311844997373925
800000000.0 -0.18508567709486415 0.28707534235464716
820000000.0 0.2505384125897412 0.1294265581721623
840000000.0 -0.05715229321395145 0.19931811149588585
860000000.0 -0.15280491915676778 0.0652894719391514
880000000.0 -0.10512035614574716 -0.09127719361344881
900000000.0 -0.06190292909177546 0.07176916164594545
920000000.0 0.04541384965279005 -0.0316309076413345
940000000.0 -0.03494391706409125 0.00676949557135151
960000000.0 0.013094602889034255 -0.033190505038969094
980000000.0 -0.05817065387933306 -0.008625858877289717
1000000000.0 -0.014381075941443238 0.09638022651597047
1020000000.0 0.028910193604927522 0.1177508597841987
1040000000.0 -0.069815209173679 -0.1166366019857166
1060000000.0 -0.03172305083277573 0.15920789172612715
1080000000.0 -0.1600850515028776 -0.10190969114411126
1100000000.0 0.15951260336473616 -0.1435495637250956
1120000000.0 0.22722935382869178 -0.06708549873543632
1140000000.0 -0.049972600990856646 0.25560197526285877
1160000000.0 -0.14388594950278522 0.2422094571109546
1180000000.0 -0.2878951926865132 -0.10482207099380242
1200000000.0 0.3091433901472659 0.13955116530143022
1220000000.0 -0.18405359917522715 -0.321931735960269
1240000000.0 0.3614306634993295 0.15740051520098788
1260000000.0 -0.3319681651588113 -0.2353341746905352
1280000000.0 -0.41941589362610676 0.04019029374059315
1300000000.0 0.15598080050714852 0.4007231657299353
1320000000.0 0.35345375652657873 0.2529123118447474
1340000000.0 0.1384491157502131 0.41857723607324065
1360000000.0 0.4393468663697091 0.09507447741856938
1380000000.0 -0.29384304610072437 -0.32881521450174633
1400000000.0 -0.4264606833970191 0.01570463337578212
1420000000.0 0.31676698667513864 0.24897876724289875
1440000000.0 0.25534066428745966 -0.2684366088821689
1460000000.0 0.292195816241756 -0.17268152243541274
1480000000.0 -0.05692504508040135 -0.3073553265839711
1500000000.0 -0.2624187753292445 0.10542926604049759
1520000000.0 -0.19793721339691256 -0.16094896136053877
1540000000.0 -0.09094774904181895 0.21211142444622247
1560000000.0 -0.1346411602216183 0.1501226024985281
1580000000.0 -0.14986436419657453 0.09719647739194398
1600000000.0 0.13880746946895003 0.033576674918318596
1620000000.0 -0.08398746091421848 0.06255616454158507
1640000000.0 -0.07612442283887862 -0.014070572162730494
1660000000.0 0.05735937774182987 0.014864594734305854
1680000000.0 -0.03296902789621247 -0.006721623209458968
1700000000.0 -0.00720846101829763 -0.005680861555705014
1720000000.0 0.0021152508083138177 0.012067363918135999
1740000000.0 0.02647975059081584 -0.003250216759072732
1760000000.0 -0.034923866062213794 0.007771663496564161
1780000000.0 -0.04019206263816477 -0.025714490222724696
1800000000.0 -0.07059016785228464 -0.039913438258681336
1820000000.0 0.07237522828630721 0.08427857315999833
1840000000.0 0.1490609263653814 -0.030229085560759393
1860000000.0 0.12720590010496202 -0.15458504912946952
1880000000.0 -0.22124267922752835 0.10468470756437313
1900000000.0 0.19143293321297972 -0.21611457477094248
1920000000.0 0.14095581520516434 -0.29951375065877084
1940000000.0 -0.20966635409456275 0.27997913283465836
1960000000.0 0.10293818213923706 0.35446243676999384
1980000000.0 0.17938016547354105 -0.3525051877472458
2000000000.0 -0.2291946484339443 -0.3421836471115004
2020000000.0 -0.27250087188911204 -0.32212180025260057
2040000000.0 -0.2838032109120601 0.32520200969102214
2060000000.0 -0.13307434946311633 0.4162654046942975
2080000000.0 0.09329050400257015 0.42686272798075425
2100000000.0 0.11124713104360794 -0.4166562400817609
2120000000.0 -0.05681571263581507 -0.4144071923788447
2140000000.0 0.11099539164347008 -0.38602596737659284
2160000000.0 0.2431896530312681 -0.3005643708241513
2180000000.0 0.2756940194011718 -0.25124973264560146
2200000000.0 0.2583698033144636 -0.25031183369956295
2220000000.0 -0.3174789650605729 -0.14529236295129994
2240000000.0 -0.17137989165784476 -0.2957858516828706
2260000000.0 -0.17744395151486644 -0.29110905369171
2280000000.0 -0.14937225526890816 0.3139206931313124
2300000000.0 -0.00836433283340279 0.35702963885456546
2320000000.0 0.18634131164203366 0.33127302703567674
2340000000.0 -0.18263296553890834 -0.36877077403260994
2360000000.0 -0.4483926732878374 0.000744872567770011
2380000000.0 0.25426938174234825 0.42828347813054113
2400000000.0 -0.4258024473609327 0.3601076688728893
2420000000.0 0.49187036218092683 -0.36031199473972125
2440000000.0 -0.4951496466772122 0.4314502661298451
2460000000.0 -0.6898873027851542 -0.12677953292248753
2480000000.0 0.6952398692140631 0.23470297241435953
2500000000.0 -0.43701228590261354 -0.6154517575540454
2520000000.0 0.711485094491804 -0.2876468159058462
2540000000.0 -0.5723303340220677 -0.5168514283019643
2560000000.0 -0.46796394665763646 0.6089106625046801
2580000000.0 0.05224635871061366 -0.7511868536449635
2600000000.0 -0.7274878058197366 -0.07913742228377929
2620000000.0 -0.03437074999669341 0.704483566790169
2640000000.0 0.5279213133685128 -0.40884921588765355
2660000000.0 -0.4556266040080779 -0.43097471573559887
2680000000.0 -0.21670555058388813 0.5390093825460449
2700000000.0 -0.31113918504945837 -0.4280464374252605
2720000000.0 -0.11312492750160251 0.46813955415652325
2740000000.0 0.40979017791899963 -0.1360455073900644
2760000000.0 -0.3137733585967276 0.228273789938267
2780000000.0 0.3412029883484119 0.10776087871689785
2800000000.0 -0.24852491243903052 -0.22272313089088674
2820000000.0 0.11920739358860943 -0.28956574272804536
2840000000.0 -0.09585356670514093 0.2907001075065821
2860000000.0 -0.12119775623677334 -0.27494951252837246
2880000000.0 0.023155625377046476 -0.29579094244382026
2900000000.0 -0.2498950013577222 0.1558166865111642
2920000000.0 0.035265750881562724 0.29646715992946704
2940000000.0 -0.047667600092059545 -0.30468119521866704
2960000000.0 -0.23126033519794742 -0.21236093255238908
2980000000.0 -0.18500557054154923 -0.255888902823311
3000000000.0 -0.2371528835519712 -0.21042005182646914
3020000000.0 0.11089991700882447 0.3023495725384112
3040000000.0 0.21429887816725215 0.24145616575788192
3060000000.0 0.10476219900555322 0.2975049805301949
3080000000.0 0.2936080435082329 -0.07992214236791097
3100000000.0 -0.1909151716980853 0.2244536809586706
3120000000.0 -0.08055632061204136 -0.2740151792975896
3140000000.0 -0.2704645269856052 0.046331382592501774
3160000000.0 0.21581678491139433 -0.1456898448671567
3180000000.0 -0.240959327314106 -0.053732075399185536
3200000000.0 0.20726451601479642 0.10609573876486679
3220000000.0 0.20503338046610228 -0.032572889896229
3240000000.0 0.0497713440909672 -0.1682457020859976
3260000000.0 0.138877048063164 0.03988041821633732
3280000000.0 0.08493913835568337 0.054979785864637705
3300000000.0 -0.05653336226133504 0.03339572136752636
3320000000.0 -0.037977563265094744 0.002787263795429013
3340000000.0 -0.017495581159117785 0.0076120813774921805
3360000000.0 -0.005872136656602047 -0.005195428503352649
3380000000.0 0.0013711051970463324 0.0026596294146431733
3400000000.0 -0.013307701876492594 -0.008143579333032166
3420000000.0 0.023036244662684075 -0.02539939419565473
3440000000.0 -0.021456432268885824 0.04433266242673784
3460000000.0 0.015811291040670358 0.06185511728339154
3480000000.0 -0.0725068348316862 0.026569063970279926
3500000000.0 0.056449685408466004 0.06804675402412762
3520000000.0 0.03175398557635003 0.09752998486892775
3540000000.0 -0.11535821959315362 0.001063486326067082
3560000000.0 0.07334661597335938 0.09445982034686758
3580000000.0 0.12065102454843847 -0.055445825330289196
3600000000.0 0.006156859963289329 0.14978024467770498
3620000000.0 0.14767426795625904 -0.06517737582579655
3640000000.0 0.09360185865397015 -0.1533381156973346
3660000000.0 0.011064279036026322 -0.19053587689465906
3680000000.0 0.15243447955114525 -0.12116118615233006
3700000000.0 -0.1510839831037066 -0.12200311291945588
3720000000.0 -0.10838837398968286 -0.15485880656463907
3740000000.0 0.1785935308607343 0.01758059063944417
3760000000.0 0.12716482825935108 -0.11961136605385311
3780000000.0 -0.17175956950274354 0.010319156361284
3800000000.0 0.16702213639469501 0.018069909735924785
3820000000.0 -0.1428538342429229 -0.07411266425610408
3840000000.0 -0.14753931278865637 0.022934778131891324
3860000000.0 -0.12538710317245122 -0.06853174436578291
3880000000.0 0.11784787076889842 -0.07781366445130804
3900000000.0 -0.13029291522515837 0.06467061154841872
3920000000.0 -0.12476267071203953 0.08657074612523433
3940000000.0 -0.03939888066402176 -0.1627672085605189
3960000000.0 -0.17698081033086413 -0.012057183193458826
3980000000.0 8.751353537902303e-05 0.1754080879137788
4000000000.0 0.09675153874453743 -0.13492835041237342
