!Created with skrf (http://scikit-rf.org).
# Hz S RI R 50.0 
!freq ReS11 ImS11
400000000.0 0.7031834360652295 0.5099896570780614
420000000.0 0.8431741976385426 -0.015300902138063257
440000000.0 0.7984270023986464 -0.018553429764892417
460000000.0 0.747960862255634 -0.031477567103919836
480000000.0 -0.2493768485327065 -0.6407041187221822
500000000.0 0.068175248976717 0.5965703503323817
520000000.0 0.5035507663978575 -0.0479599391373112
540000000.0 -0.40768955551050856 -0.15351390726102676
560000000.0 0.20788465665295178 0.33731006937308505
580000000.0 -0.14211296422903255 0.33478211270680014
600000000.0 -0.07255290048984456 -0.34689970274309884
620000000.0 -0.35275210570756227 0.015129378264871146
640000000.0 -0.13210402429893803 -0.3797508342990612
660000000.0 -0.3861910119107719 0.12908132298368638
680000000.0 -0.0725370868526283 -0.4384709843983852
700000000.0 0.029368237395462012 0.45867190289804616
720000000.0 -0.29817857181246155 -0.3547586250014932
740000000.0 -0.3654722977311655 0.2298855916166931
760000000.0 -0.4101695348488214 0.024013300716908777
780000000.0 -0.35394952331252905 0.14641005116345882
800000000.0 0.2884769537256952 0.17773656258927745
820000000.0 0.18749678274335105 -0.2077965502177824
840000000.0 0.05437393246564184 0.19547335603894242
860000000.0 -0.118285906138323 -0.11519169862745361
880000000.0 -0.09588656299900174 0.10079379880760633
900000000.0 0.028896755996585838 0.09159472403917122
920000000.0 -0.05368150021294021 0.009961458257685588
940000000.0 0.030544115271086192 -0.01913930286146967
960000000.0 -0.03286960666116694 0.0007371344688719474
980000000.0 0.02274709329334308 0.05231188746910888
1000000000.0 0.08168295078237284 0.04796921921273122
1020000000.0 0.11950330525578493 -0.003954159576047329
1040000000.0 -0.0623421355620691 0.1174299937632005
1060000000.0 0.0398430526040363 0.15375823021758186
1080000000.0 -0.040730675789408116 -0.18284934657959093
1100000000.0 0.14238945007080034 -0.16415196046468347
1120000000.0 0.24033857281067494 -0.0312698174029664
1140000000.0 -0.16729469684463796 0.20077292188831608
1160000000.0 -0.13924407740515593 0.25081855408942305
1180000000.0 -0.3134511670078643 0.015702407414530953
1200000000.0 0.3339026394297516 -0.07565081160218069
1220000000.0 -0.328032300420483 0.17493095289363025
1240000000.0 0.3600644771124513 -0.14879189708415938
1260000000.0 -0.1935012859894653 -0.3499377943048454
1280000000.0 -0.4160242122641198 0.02270390160410116
1300000000.0 -0.06260439409601817 0.42366892411321694
1320000000.0 0.18130841573721154 0.39646435065537294
1340000000.0 0.3753516654877556 0.24037944294924687
1360000000.0 0.38089340724232584 -0.2419896315585734
1380000000.0 -0.3947247620783364 -0.19791894507237756
1400000000.0 -0.1430398318835995 0.4027936943825298
1420000000.0 0.3870890243972405 -0.10884782757908289
1440000000.0 0.11844832151423454 -0.34893361179224924
1460000000.0 0.105616963548259 -0.3201666074923654
1480000000.0 -0.19084822196022624 -0.24561556025799572
1500000000.0 -0.27992071987321454 0.037944329435062756
1520000000.0 -0.17541982145916307 -0.18497682083139197
1540000000.0 0.12295809588512845 0.19483971977036652
1560000000.0 -0.20295293868370817 0.025217567989473777
1580000000.0 -0.13918624294440138 0.11536478222763391
1600000000.0 0.06602281366685739 -0.12806667035923205
1620000000.0 -0.10286164849997832 -0.027118158855086623
1640000000.0 -0.07699826142925335 0.00913373017481092
1660000000.0 -0.008012433498320173 0.0563866551323288
1680000000.0 0.029759120802271714 0.00563480429264397
1700000000.0 -0.0007702034389997083 0.007360233037059542
1720000000.0 0.0039991460731974605 -0.010004180219393305
1740000000.0 -0.02579215492199926 0.0011291223768829575
1760000000.0 0.03426920673270411 0.018800472943937767
1780000000.0 -0.02184132112284835 -0.04977010747079646
1800000000.0 0.06785088634014998 0.04858271799004481
1820000000.0 -0.11044291526723124 -0.012073632688594495
1840000000.0 -0.15111251468045922 0.005295852311365622
1860000000.0 0.04210882643175007 -0.18826713951249685
1880000000.0 -0.2139478913337089 0.10880228384932313
1900000000.0 -0.056395004854745245 -0.2859861183938339
1920000000.0 0.25731330912206857 -0.2111031633136769
1940000000.0 -0.045917179387429036 0.35334082993744675
1960000000.0 0.35661712297590453 -0.1191368130090621
1980000000.0 -0.08712406496300033 -0.39166185783150503
2000000000.0 -0.3876232756472052 0.1526815569543057
2020000000.0 -0.1959340187555952 0.37631844975728873
2040000000.0 -0.0553931628931863 0.4289195444223829
2060000000.0 0.16159856115807675 0.4050296056144779
2080000000.0 0.4078610601826521 0.1567621845099893
2100000000.0 0.3353085114852604 -0.2736901881096245
2120000000.0 0.02786564623283915 -0.4203254030789489
2140000000.0 -0.13037035739301248 -0.3835015671543415
2160000000.0 0.38140866644996635 -0.08451312821399912
2180000000.0 0.18968761977096193 -0.3240219351092437
2200000000.0 -0.06286308418510737 -0.3544770950794655
2220000000.0 -0.22509992288022068 -0.2659933885222773
2240000000.0 -0.3232997719811022 -0.10675183519599425
2260000000.0 -0.3149702873359717 0.12716184228692848
2280000000.0 -0.10530027049633618 0.32714385899463677
2300000000.0 0.24248115358379863 0.2580826786688665
2320000000.0 0.27287939394907196 -0.26674625528708823
2340000000.0 -0.37022500822644216 -0.18218833726345213
2360000000.0 0.01151899826791008 0.45366262282262354
2380000000.0 -0.014102078017965937 -0.5080467721573574
2400000000.0 0.33013741757454135 0.4571371264654042
2420000000.0 -0.6035375977605201 -0.12553661554319673
2440000000.0 0.5789166953363347 -0.32527345301975785
2460000000.0 -0.35863186669353436 0.6067083250297486
2480000000.0 0.0640678659865872 -0.7340645693273821
2500000000.0 -0.16972213395996036 0.7385384593050418
2520000000.0 0.37485793458324124 -0.670614735437495
2540000000.0 -0.6260108444648222 0.4475193178994186
2560000000.0 0.7465252922196096 0.1596244916528048
2580000000.0 -0.23450087576142203 -0.7101098252582971
2600000000.0 -0.46749585014426137 0.5514621495490484
2620000000.0 0.6920435410468276 -0.009702974733443963
2640000000.0 0.5465401853444924 -0.35995403189302067
2660000000.0 -0.6028430462805461 -0.09758598840432824
2680000000.0 0.45585885664397957 0.33068648689880176
2700000000.0 -0.24172493961755986 -0.4544795602937073
2720000000.0 0.24918896665390908 0.3941333990498666
2740000000.0 -0.17613980822657035 -0.3765593087848422
2760000000.0 -0.02936279241976335 0.37332608680272034
2780000000.0 0.0029882629628705804 -0.340659955984954
2800000000.0 -0.02716931061379551 0.3142840621677482
2820000000.0 0.14603052007623074 -0.2625821475558648
2840000000.0 -0.011605246008242526 0.29874016701929945
2860000000.0 -0.2899165717325287 -0.07615219161140746
2880000000.0 0.021181312993776496 -0.3000068193424646
2900000000.0 0.08028884858559389 0.28978952264715035
2920000000.0 0.19126701695759113 -0.23565869413995966
2940000000.0 -0.2652296128609301 -0.1615254702807486
2960000000.0 -0.2694121712817126 0.15742792058178082
2980000000.0 -0.3074475076409256 0.05156414796767941
3000000000.0 0.050630299249162465 -0.30839938233989644
3020000000.0 0.313652315001271 0.07037870123653958
3040000000.0 0.1495600904905938 0.28577716120155683
3060000000.0 -0.27307638432229614 0.16035473066846906
3080000000.0 0.11483593043367096 -0.2826780160477982
3100000000.0 -0.17659592882282218 0.23489341058868443
3120000000.0 0.19380417798489213 -0.2091340019127454
3140000000.0 -0.08560190974768715 0.25844868687691164
3160000000.0 0.0748193975611155 -0.24522922249330142
3180000000.0 -0.21139996727758764 -0.11445007116708114
3200000000.0 0.18800710625575198 -0.1162199064878324
3220000000.0 0.1790309854817494 0.08342730774571673
3240000000.0 0.10635674456971321 0.13027971843677963
3260000000.0 0.09198529180260526 0.09679305991122902
3280000000.0 -0.09748882192258293 -0.0013945243230595367
3300000000.0 -0.06787916416921413 -0.008787594253983386
3320000000.0 0.016478623199110476 -0.03118047093681267
3340000000.0 0.008073137449072213 -0.01022692308250782
3360000000.0 -0.003489511959157679 0.0012533237033289883
3380000000.0 0.012502784113473468 0.004918196746213715
3400000000.0 0.00629848690562221 0.019469008312645295
3420000000.0 0.01110651920676142 -0.032177975290898594
3440000000.0 -0.005438039702747246 -0.04765578381144167
3460000000.0 -0.03637652068419798 -0.05106812138574213
3480000000.0 0.030313598072662616 0.07166370329997335
3500000000.0 -0.08853285087320886 0.03869010381881706
3520000000.0 -0.007672911759527805 0.1085180124999433
3540000000.0 -0.10087745880151465 -0.059215779864524414
3560000000.0 0.1221385880750678 0.01578727160190808
3580000000.0 0.010490075197779052 -0.13240145592645314
3600000000.0 -0.04905345090197572 0.13662860804285695
3620000000.0 0.1077790579869996 -0.12011634988747752
3640000000.0 0.15019457576189962 -0.09625355009217708
3660000000.0 0.1861613540917394 -0.030819693139812823
3680000000.0 0.1476934420351991 -0.12905859843574963
3700000000.0 -0.13504959651506057 -0.14119111323162942
3720000000.0 -0.1634321029750816 -0.09985296100931361
3740000000.0 0.03651527539188276 -0.17455364357670558
3760000000.0 -0.16375245432104157 -0.046153812649581044
3780000000.0 -0.06317461874054091 0.15200496476495817
3800000000.0 0.15508176881071475 -0.03652768296018257
3820000000.0 -0.04571061807041231 -0.1484121957694895
3840000000.0 -0.03156693573341515 -0.14508824494764344
3860000000.0 -0.14075183450114792 -0.04127087078802358
3880000000.0 -0.14182584872578288 -0.013559970197078903
3900000000.0 0.1164947503605357 -0.07858528171690642
3920000000.0 0.14735495592282555 0.01904155905800428
3940000000.0 -0.15398832932894532 0.04614778252498724
3960000000.0 -0.1328704443022338 0.10740671874605702
3980000000.0 0.16664883135776853 0.04748374435654163
4000000000.0 -0.11796884944773489 -0.12067522933043265
