!Created with skrf (http://scikit-rf.org).
# Hz S RI R 50.0 
!freq ReS11 ImS11
400000000.0 0.45629788933572774 0.7415949984119744
420000000.0 0.8441426170714688 0.03664185362376972
440000000.0 0.7991481762643161 -0.02894226446427758
460000000.0 0.6663854861235313 0.3334811897186301
480000000.0 0.016616271171581588 -0.6875456510760929
500000000.0 0.14096383337294446 0.5888149788030214
520000000.0 0.34898740064855494 0.3735990837762107
540000000.0 -0.4093962714466634 -0.1433479841364218
560000000.0 0.19579310201574032 0.34353659073173226
580000000.0 -0.35250982783333584 0.07954130282115558
600000000.0 0.16939922054842857 -0.3078792152559783
620000000.0 -0.13121001531611 -0.3251646250319684
640000000.0 0.38877308159839224 0.11952708993352833
660000000.0 0.07968426439493924 0.40529489048783757
680000000.0 -0.07298702055680634 -0.43923967600450986
700000000.0 -0.017033381108713882 0.46010700855728587
720000000.0 -0.4500268665115638 -0.10322296341606133
740000000.0 -0.3968520755652231 0.15801884951468806
760000000.0 -0.2195312938213754 -0.3474465817253932
780000000.0 -0.33870928672959316 0.1785554362802646
800000000.0 -0.1851653184152082 0.286548326015674
820000000.0 0.2474223728271335 0.13442750991573763
840000000.0 -0.058268539871591016 0.19898627038772432
860000000.0 -0.15560383716570694 0.05870933385346723
880000000.0 -0.10003211159393749 -0.09646479779795634
900000000.0 -0.06766402531419234 0.06643335713008422
920000000.0 0.04812683892506558 -0.027413678706013602
940000000.0 -0.03473484783136891 -0.007723213432971024
960000000.0 0.020352639572812824 -0.029195695907609138
980000000.0 -0.05492529294820873 -0.020688998513030975
1000000000.0 -0.011945537209662595 0.09622534735207747
1020000000.0 0.03908137792100586 0.11457806897261451
1040000000.0 -0.08261852483193036 -0.10785652653483883
1060000000.0 -0.02536949187823313 0.16046587968473192
1080000000.0 -0.15927243815114683 -0.10331057825368295
1100000000.0 0.15930325363925055 -0.1439486733755508
1120000000.0 0.2283936066529325 -0.06258993205122194
1140000000.0 -0.064925510965129 0.25196570652342143
1160000000.0 -0.159014360874844 0.23202203509644248
1180000000.0 -0.2773465206143532 -0.12930910520196234
1200000000.0 0.2964258642280822 0.1646040552301304
1220000000.0 -0.14194783428628857 -0.3422667746577219
1240000000.0 0.3437207247587171 0.19289316938204484
1260000000.0 -0.31454350450180163 -0.2581592666131947
1280000000.0 -0.42083878606763386 0.02116478919388564
1300000000.0 0.1373176052278191 0.4075282554714279
1320000000.0 0.35771796718875676 0.24688617012806757
1340000000.0 0.13481455309429743 0.41989576428960224
1360000000.0 0.4407484100105943 0.08774804065141412
1380000000.0 -0.30380107837497 -0.3194847286239143
1400000000.0 -0.4258991703657494 0.02603472574344969
1420000000.0 0.32553883398602734 0.23734641739340312
1440000000.0 0.25647883983356007 -0.2677516247801333
1460000000.0 0.2853633005234887 -0.18443596912887036
1480000000.0 -0.11218081202454021 -0.291898287546465
1500000000.0 -0.2676826586886556 0.09333434547666612
1520000000.0 -0.19388466206590754 -0.16647565044820165
1540000000.0 -0.09337150580187027 0.21150085415727493
1560000000.0 -0.11281156001153239 0.16743627127677976
1580000000.0 -0.12888343790936854 0.12394910500785966
1600000000.0 0.13807103348450192 0.03740543275422762
1620000000.0 -0.10175628623065663 0.024181700915713873
1640000000.0 -0.06311333081585474 -0.04447877738111167
1660000000.0 0.04418925047192872 0.03929539847418295
1680000000.0 0.0010770582933909538 -0.03312664099026777
1700000000.0 -0.0021398924327128356 0.008786558913825576
1720000000.0 -0.011039825883028166 -0.0054279224264329315
1740000000.0 0.02710808689384007 6.576879499108305e-05
1760000000.0 -0.034524029039871104 -0.008445293113910393
1780000000.0 -0.012805775982642332 -0.04575195072774553
1800000000.0 -0.0416952703649485 -0.06914740684690662
1820000000.0 0.048874029988451244 0.09989925356957984
1840000000.0 0.1516041310126268 -0.008676734306232746
1860000000.0 0.13535798498008716 -0.1468575473818742
1880000000.0 -0.2258991480572813 0.09238235448732919
1900000000.0 0.19248996905589733 -0.2144086024540642
1920000000.0 0.143040642387415 -0.29775534129473896
1940000000.0 -0.20258351113235779 0.2845690728706776
1960000000.0 0.11090846269429942 0.3519266282435575
1980000000.0 0.16786199091543322 -0.35822653483424843
2000000000.0 -0.24396680437779947 -0.33196309755401276
2020000000.0 -0.28312802342220295 -0.3131293473524568
2040000000.0 -0.30304927675727233 0.3079138405672467
2060000000.0 -0.14078447791944945 0.4141315963250934
2080000000.0 0.06820801512234773 0.43229298143253597
2100000000.0 0.13650151204181263 -0.40995374147949415
2120000000.0 0.0015547861689858948 -0.41926640471238347
2140000000.0 0.15822112967661775 -0.3698463375685672
2160000000.0 0.2811503435338173 -0.2661528709036374
2180000000.0 0.31445875230391523 -0.20121237965573474
2200000000.0 0.29774917242977805 -0.20230711316337324
2220000000.0 -0.2713686631384174 -0.2193985341468344
2240000000.0 -0.13477029745879077 -0.3135378043252701
2260000000.0 -0.1499077718921216 -0.30559209796554954
2280000000.0 -0.19276675711050906 0.2886418885331656
2300000000.0 -0.048926594458631005 0.3530915570538098
2320000000.0 0.158239832368957 0.3446203799040085
2340000000.0 -0.149574123519495 -0.38227293075877894
2360000000.0 -0.44650991439420834 -0.028250180536682316
2380000000.0 0.20969182015303145 0.45084713470833804
2400000000.0 -0.4502694750812209 0.32787530177912755
2420000000.0 0.4948184735397622 -0.3558560486874715
2440000000.0 -0.5098862598361191 0.41433491783211485
2460000000.0 -0.6810689311855226 -0.16923383268275796
2480000000.0 0.6845424579603696 0.26535591567138583
2500000000.0 -0.3556465364746459 -0.6669735532906508
2520000000.0 0.728645157145925 -0.24460098957094897
2540000000.0 -0.5331648190360824 -0.5586136469368499
2560000000.0 -0.5104619471339857 0.5749533578566687
2580000000.0 0.14411076385412688 -0.7404820726191588
2600000000.0 -0.7177088449022025 -0.1483823797339756
2620000000.0 -0.10610804458577773 0.6986728964314259
2640000000.0 0.6021410555901264 -0.29072869107431093
2660000000.0 -0.39754657372672725 -0.48620773817664986
2680000000.0 -0.27966304999011166 0.5102205080940185
2700000000.0 -0.2693109704128039 -0.4559803866075328
2720000000.0 -0.14081865835564564 0.4609558550628767
2740000000.0 0.4154937205446306 -0.11876290995746053
2760000000.0 -0.32072882873530095 0.21924263927010842
2780000000.0 0.34154296178004695 0.10825832932731326
2800000000.0 -0.2596607763978374 -0.2105142771319586
2820000000.0 0.11177542814659677 -0.2931174068668657
2840000000.0 -0.056161360792005316 0.3011391152404218
2860000000.0 -0.16025781612693543 -0.2544168314562607
2880000000.0 0.021104518262664754 -0.29660639815877204
2900000000.0 -0.25256057706408147 0.1524648051458973
2920000000.0 0.02534123368371197 0.2979660201947229
2940000000.0 -0.026229513845104416 -0.30825152730837563
2960000000.0 -0.2281551913713778 -0.21690463585908948
2980000000.0 -0.1701610865675667 -0.2671959949921519
3000000000.0 -0.20597829592119946 -0.24176360630159516
3020000000.0 0.08073053149283137 0.31205918057107757
3040000000.0 0.17381109531548486 0.2725645194523545
3060000000.0 0.06779437581148416 0.30835109098013086
3080000000.0 0.30057604786945746 -0.05064253208948521
3100000000.0 -0.2158235633521629 0.20129900661011235
3120000000.0 -0.047242807136860125 -0.28209960275013773
3140000000.0 -0.2738009055226412 0.024161599790180212
3160000000.0 0.21888978420910477 -0.14183614034101824
3180000000.0 -0.2339972170690774 -0.07997120386464004
3200000000.0 0.19349579064684871 0.1301747154626724
3220000000.0 0.20727989069344077 -0.01618254469471207
3240000000.0 0.06737492885671131 -0.16202744591963894
3260000000.0 0.13961322847032642 0.03586025302768454
3280000000.0 0.07325577781300426 0.06929216787016906
3300000000.0 -0.0529981058132427 0.03799725301159652
3320000000.0 -0.03373651873050914 0.01698397664924398
3340000000.0 -0.018074146933844955 -0.0034949622437269712
3360000000.0 -0.005597464916578421 -0.004649738478855552
3380000000.0 0.002861844706314811 0.0017820069965753733
3400000000.0 6.032126093464665e-05 -0.016614012238407225
3420000000.0 0.02983460286516364 -0.018833902810878156
3440000000.0 -0.04897953544154377 -0.010569698289289029
3460000000.0 0.007680564446709955 0.06441924317906152
3480000000.0 -0.0746977436197432 -0.02198278263785952
3500000000.0 0.02454853553694538 0.08580964755967127
3520000000.0 -0.033761279268884635 0.09750341732816012
3540000000.0 -0.0985241186328086 -0.060829147536247054
3560000000.0 0.012436618900102229 0.11941957503866782
3580000000.0 0.1330528350780722 0.0009641410758073956
3600000000.0 -0.06599770258605726 0.13480390790377328
3620000000.0 0.16125363145638863 0.008857854930276955
3640000000.0 0.14051084310186568 -0.11209512861775911
3660000000.0 0.07178297707045968 -0.17647996365413302
3680000000.0 0.1763962732529053 -0.08168256684765705
3700000000.0 -0.12050285410404647 -0.1515420309488544
3720000000.0 -0.08703006533518594 -0.1674304821299423
3740000000.0 0.17079262108133675 0.052153558620474286
3760000000.0 0.14007240890559133 -0.10231007805357867
3780000000.0 -0.17025914814192597 -0.016674125601227715
3800000000.0 0.16613558079904703 0.015792069844667585
3820000000.0 -0.14746195142877044 -0.06022123959898741
3840000000.0 -0.13651851630539735 0.055712041056952974
3860000000.0 -0.1302335514979518 -0.05482417525965773
3880000000.0 0.11566163944910983 -0.07756131253395161
3900000000.0 -0.12544688706400875 0.06968960114097356
3920000000.0 -0.12529535601002645 0.08299975700163277
3940000000.0 -0.04567282147873559 -0.15971793296229567
3960000000.0 -0.17466293828596008 0.023866545151207105
3980000000.0 0.026554008363722636 0.17223875103985514
4000000000.0 0.07616674894236716 -0.1467578087935809
