!Created with skrf (http://scikit-rf.org).
# Hz S RI R 50.0 
!freq ReS11 ImS11
400000000.0 0.6911585283828852 0.5248253691616227
420000000.0 0.8424041198310429 -0.029558260948359366
440000000.0 0.7952495807864199 -0.06557402701678822
460000000.0 0.7457975949964859 -0.059874512018995976
480000000.0 -0.2301560582230338 -0.6482146510470178
500000000.0 0.0817813770103672 0.5948497050686185
520000000.0 0.5027703101122208 -0.057559126451809293
540000000.0 -0.4026708984338571 -0.1671625883816757
560000000.0 0.1958184026979227 0.344472146929258
580000000.0 -0.17459090631955093 0.3186400278849933
600000000.0 -0.06197886019767213 -0.34829184751250625
620000000.0 -0.35200112460861277 0.015288582875494783
640000000.0 -0.15248695778127455 -0.3714911829179141
660000000.0 -0.3738112442908947 0.16023730337774725
680000000.0 -0.0908006686132497 -0.4351974801568287
700000000.0 0.051832429898713284 0.45663923781933025
720000000.0 -0.30069625753753304 -0.35269243322056515
740000000.0 -0.36701049845329736 0.22849379779480394
760000000.0 -0.41011980722750857 0.028287224371450825
780000000.0 -0.3556265104149944 0.142748224331426
800000000.0 0.2849587713767065 0.18365333457508182
820000000.0 0.20662843236852688 -0.1889432031481719
840000000.0 -0.003374918340690053 0.20297799649712356
860000000.0 -0.11552150971284361 0.11778930535322583
880000000.0 -0.11605898416250232 0.07654727682403527
900000000.0 0.028115873082673333 0.0916076152344348
920000000.0 -0.05225749508394991 0.015350823876208479
940000000.0 0.018446767342885643 -0.030887786384481884
960000000.0 -0.03280863027460414 -0.0022131545475601116
980000000.0 0.010540448160968344 0.05608905486142665
1000000000.0 0.06712710730608933 0.06668882499257402
1020000000.0 0.1188794884052021 0.010579999265467186
1040000000.0 -0.07520925023217881 0.10942638569275434
1060000000.0 0.013520017166116215 0.1579891645304122
1080000000.0 -0.031999101394698116 -0.18399111088859704
1100000000.0 0.1585271984552664 -0.14726543499966563
1120000000.0 0.23467744448393418 -0.05687089291139171
1140000000.0 -0.16438786068649947 0.2020875613410589
1160000000.0 -0.09545658799685168 0.27021280988973717
1180000000.0 -0.3105497569199615 0.04342978508817147
1200000000.0 0.3258403692027668 -0.10553288435462109
1220000000.0 -0.3042629487214341 0.21425593224944456
1240000000.0 0.3371114329181486 -0.19626854175385997
1260000000.0 -0.23539276273589413 -0.32378711008660926
1280000000.0 -0.41254643440008504 0.061769710265353536
1300000000.0 -0.053838715223249074 0.4251111163362142
1320000000.0 0.17745661930008286 0.3985943540759552
1340000000.0 0.3672100902947474 0.2532289943746326
1360000000.0 0.3975882565829823 -0.21454763175479188
1380000000.0 -0.380051271516186 -0.22539053943228857
1400000000.0 -0.15503449917451825 0.3984144897992052
1420000000.0 0.38897273428349605 -0.10101526184285421
1440000000.0 0.13480146298166037 -0.34269947001855167
1460000000.0 0.114842166466822 -0.3165100317876567
1480000000.0 -0.19806335580832785 -0.23913603668570002
1500000000.0 -0.27814178277688145 0.04528432514282179
1520000000.0 -0.20197940985332732 -0.15360960206291366
1540000000.0 0.1422489331212894 0.18022732025714655
1560000000.0 -0.19336719534967656 0.06444233237156159
1580000000.0 -0.09677694470298297 0.15219422559283946
1600000000.0 0.05290196256489783 -0.13407386215502068
1620000000.0 -0.10653915002681526 0.006359240043365682
1640000000.0 -0.0554990187950669 0.055170029925519073
1660000000.0 0.020483621924060443 0.05436232261540893
1680000000.0 0.026355740536261336 0.016567882301205955
1700000000.0 0.007601964700174782 -0.003915787023401692
1720000000.0 -0.00738545909284711 -0.007359153486830816
1740000000.0 0.022885030797505274 0.011161430911770355
1760000000.0 0.02979744041592062 -0.02516280786679008
1780000000.0 -0.054747921490570284 -0.004287210740728412
1800000000.0 0.08332154980086266 0.010626633135148316
1820000000.0 -0.10893674105544669 0.025544589662156985
1840000000.0 -0.14521682466932895 0.04511072821411884
1860000000.0 0.016132679752181817 -0.19305737676120344
1880000000.0 -0.20538998314579301 0.12517469980710677
1900000000.0 -0.044858643383967806 -0.28825881135451403
1920000000.0 0.276827008598508 -0.18483380547651898
1940000000.0 -0.0979988702297467 0.34234927894283196
1960000000.0 0.37142568244024726 -0.05666575862695954
1980000000.0 -0.02230499184417803 -0.4003684766766548
2000000000.0 -0.4034487810252496 0.10234969154750535
2020000000.0 -0.20190165448067968 0.3723541766314218
2040000000.0 -0.09887035951551781 0.4200362305957576
2060000000.0 0.1834175890799816 0.3940824565605958
2080000000.0 0.41618973315611424 0.12818916140372338
2100000000.0 0.3135102005173745 -0.295992123585599
2120000000.0 -0.004369476637240523 -0.4197027889723632
2140000000.0 -0.21290279995040542 -0.3426950975313147
2160000000.0 0.36417178855916227 -0.13794797944213186
2180000000.0 0.10265691178034658 -0.36043296265802505
2200000000.0 -0.13744734951334922 -0.33214877948322147
2220000000.0 -0.29207131191508956 -0.19002019352238766
2240000000.0 -0.34069819913837246 -0.0061004542788346055
2260000000.0 -0.266942759268705 0.21046705576445215
2280000000.0 -0.017910913281355068 0.3436275344676615
2300000000.0 0.28288732910341136 0.2137028725086702
2320000000.0 0.24757989958451956 -0.2909470651495639
2340000000.0 -0.36634231108294874 -0.19011968215962805
2360000000.0 -0.012826659741233742 0.45355679312702185
2380000000.0 0.03324535320277132 -0.5071542485173065
2400000000.0 0.2687861055335049 0.49511645379170216
2420000000.0 -0.577334461882933 -0.21466698682173765
2440000000.0 0.6162683005082212 -0.24467022903672242
2460000000.0 -0.42170087750157803 0.5632240202125338
2480000000.0 0.1760262463780775 -0.7145260494569973
2500000000.0 -0.1744199930011183 0.7357664646705534
2520000000.0 0.35302090320285634 -0.6806069290842872
2540000000.0 -0.6254703631141075 0.4460058214687264
2560000000.0 0.7526268578772008 0.12260481787217709
2580000000.0 -0.23584961223866435 -0.7092077291571329
2600000000.0 -0.4210678824057503 0.5872180562271294
2620000000.0 0.689933594740131 -0.05566563608399406
2640000000.0 0.5077662622608317 -0.41345015626974
2660000000.0 -0.6101894951766368 -0.04251330303204983
2680000000.0 0.4942265886231267 0.2719298612966305
2700000000.0 -0.28386376778603756 -0.4311643242697853
2720000000.0 0.2606852825320456 0.38820485259976634
2740000000.0 -0.232535221332441 -0.3465738525865982
2760000000.0 -0.00037617373115333936 0.3758936709056588
2780000000.0 0.00018455818463129306 -0.34200788187499875
2800000000.0 -0.04878412844838994 0.3125525494824694
2820000000.0 0.17693640824007506 -0.2431602222382478
2840000000.0 -0.0593178066699216 0.2931612401901415
2860000000.0 -0.28306678495729476 -0.0968024121603161
2880000000.0 0.05286967657741562 -0.2952873019734303
2900000000.0 0.05113534037452402 0.29562423248745123
2920000000.0 0.19778735751699192 -0.2292385619947047
2940000000.0 -0.27363396583580757 -0.1451712569981282
2960000000.0 -0.25909859828219284 0.17195498633223413
2980000000.0 -0.2848806046222635 0.12243096358920275
3000000000.0 -0.03485858199321894 -0.30978816849181173
3020000000.0 0.3184781550515852 -0.03278740477454309
3040000000.0 0.24569464606408997 0.20733129430446628
3060000000.0 -0.2190384467532993 0.22790780618709744
3080000000.0 0.05825981004455931 -0.2989758986286247
3100000000.0 -0.14185682818272038 0.25685565877339583
3120000000.0 0.11791881670112152 -0.25982651753319164
3140000000.0 0.00024854642793354693 0.27284366213251576
3160000000.0 -0.006262822876960136 -0.2570565909817736
3180000000.0 -0.2388108686495458 -0.03511826842937298
3200000000.0 0.14054470179963233 -0.17207888933743729
3220000000.0 0.19738308240708793 0.022934959077923464
3240000000.0 0.12612273546042083 0.11345050483114022
3260000000.0 0.09244141307758733 0.09864026417719471
3280000000.0 -0.09706354617076904 -0.019963892444653082
3300000000.0 -0.046868506010352196 -0.05226072801913688
3320000000.0 0.02494299570545915 0.0269845121725233
3340000000.0 0.007012412572032586 0.012864733977573315
3360000000.0 0.0017941687688359667 0.002257865230301571
3380000000.0 0.010765863890655388 0.007124859349864112
3400000000.0 0.009980745960526026 -0.017060028634732955
3420000000.0 -0.033103123229498065 -0.0023117744899778985
3440000000.0 -0.04602264456676468 0.00972473269082364
3460000000.0 -0.05915027839359336 -0.01614560314626256
3480000000.0 0.0745368306650667 -0.019523884935762962
3500000000.0 -0.029416813073564734 0.09102467194741022
3520000000.0 0.07521988275148729 0.07757763997357882
3540000000.0 -0.10093993230059915 0.05936944717876961
3560000000.0 0.09165625897219024 -0.08236378830070916
3580000000.0 -0.10246039012044801 -0.08517664004697166
3600000000.0 0.07485945746814364 0.12510278378958006
3620000000.0 -0.01107757309935471 -0.16135814805213797
3640000000.0 0.03662940185365167 -0.1760289788972198
3660000000.0 0.14048319545096585 -0.12737620146986203
3680000000.0 0.08066883211054199 -0.17993800358336226
3700000000.0 -0.1728403464854854 -0.09389875877680112
3720000000.0 -0.18098752759520573 -0.06749143018781205
3740000000.0 -0.0005943105342619001 -0.18027509875650333
3760000000.0 -0.17179625213181138 0.0023115574159616624
3780000000.0 -0.0103527473412519 0.16599651551441497
3800000000.0 0.13120241909911862 -0.0926814402412885
3820000000.0 -0.08202861728760819 -0.13336875218706046
3840000000.0 -0.06693088527664441 -0.1336613875451573
3860000000.0 -0.14691033344332963 -0.018996209720534087
3880000000.0 -0.14370772003449284 -0.014322774923137657
3900000000.0 0.10726247426618368 -0.0935731036412315
3920000000.0 0.14997164047999928 -0.009099949521970331
3940000000.0 -0.15239110815926535 0.055015050157113346
3960000000.0 -0.14213526289751235 0.09674495115728068
3980000000.0 0.14876877371160802 0.09042967448701318
4000000000.0 -0.07553613129587902 -0.1515051467594833
