!Created with skrf (http://scikit-rf.org).
# Hz S RI R 50.0 
!freq ReS11 ImS11
400000000.0 0.4553962164896485 0.7414714825773706
420000000.0 0.8446931485902185 -0.010871409443030954
440000000.0 0.7974375866662756 -0.05690348740549899
460000000.0 0.6752999685112467 0.3145609704764019
480000000.0 -0.007174895371151169 -0.6876612978672207
500000000.0 0.16011542075131197 0.5840320364087014
520000000.0 0.3528094177934941 0.37042193825787384
540000000.0 -0.4086963550541251 -0.1461733570207606
560000000.0 0.17024505104558035 0.3572992012986541
580000000.0 -0.3531070806425149 0.07665216254245767
600000000.0 0.18038076320171206 -0.301317696868768
620000000.0 -0.15447363648377188 -0.3144557817599499
640000000.0 0.39868611645362134 0.078561758887841
660000000.0 0.08341203829670422 0.404386306236948
680000000.0 -0.07879908285887731 -0.43802675351761844
700000000.0 0.02896050829886234 0.45929417261203836
720000000.0 -0.44866784232135776 -0.10867451136562419
740000000.0 -0.3929008929788811 0.16874783196064674
760000000.0 -0.22072178440913864 -0.34690458885750913
780000000.0 -0.3489461549484034 0.1585374618040211
800000000.0 -0.1924879795729351 0.2820612542122493
820000000.0 0.24038950838120002 0.1470266692414616
840000000.0 -0.03806347163232591 0.2038141274257495
860000000.0 -0.15073414542580874 0.07017144039141698
880000000.0 -0.10668567218360565 -0.08879114845662955
900000000.0 -0.06349006567000363 0.0700872388389776
920000000.0 0.03933250731146402 -0.03856984495356928
940000000.0 -0.031831972008920344 0.01480807245714263
960000000.0 -0.003836610360543417 -0.035202591254882794
980000000.0 -0.05861270520128693 0.0012092184323752567
1000000000.0 -0.007779016590171629 0.09701079783132528
1020000000.0 0.028804777916773244 0.11781778736716302
1040000000.0 -0.06737166158367491 -0.11793431471648111
1060000000.0 -0.04009966989469018 0.1571921646705703
1080000000.0 -0.16073440335242206 -0.10034795865001582
1100000000.0 0.1667395124527509 -0.13462410716192277
1120000000.0 0.2239833569457835 -0.07681214603716488
1140000000.0 -0.052573687751538485 0.25496740912773685
1160000000.0 -0.1449116182220046 0.24150574069437686
1180000000.0 -0.2869666361336647 -0.10698795378375132
1200000000.0 0.31037018404852906 0.1362889582911037
1220000000.0 -0.15397254596117588 -0.33689928321928486
1240000000.0 0.3617161721062355 0.15676484190957926
1260000000.0 -0.32781238456373724 -0.24097182555952132
1280000000.0 -0.4202202359436321 0.031330255412377786
1300000000.0 0.138921940625208 0.40697867696753875
1320000000.0 0.35047370717209325 0.25732085857130993
1340000000.0 0.1356358797101858 0.41975427004033633
1360000000.0 0.43825680887819224 0.1002564099757236
1380000000.0 -0.2892483388212423 -0.33274192243750184
1400000000.0 -0.42642927060438207 0.01469137208230366
1420000000.0 0.31389044781137304 0.252776052576829
1440000000.0 0.25055529870532317 -0.27273117877857
1460000000.0 0.29153057400354176 -0.17404489094736
1480000000.0 -0.11531207145597669 -0.29024473550096885
1500000000.0 -0.2662746772557564 0.09521993721779014
1520000000.0 -0.19891517547115345 -0.15923034977427977
1540000000.0 -0.09480126045771398 0.21004685451060745
1560000000.0 -0.11337868707442414 0.16631240227618035
1580000000.0 -0.12775519558305526 0.12472535462792675
1600000000.0 0.14119620410756956 0.022704665398120334
1620000000.0 -0.08942651829152497 0.054888216102357675
1640000000.0 -0.07722142958070513 -0.008264263324976444
1660000000.0 0.05946228253168665 -0.005821670206134103
1680000000.0 -0.028039144185733663 -0.018683836740267006
1700000000.0 -0.004410384928339911 -0.008007936091627631
1720000000.0 -0.011617735899560038 0.003495285505129181
1740000000.0 0.019382544146844042 -0.019014935716322175
1760000000.0 -0.02888087700947978 0.021878459922828684
1780000000.0 -0.04342739748381761 -0.02034667315777061
1800000000.0 -0.0763173327069269 -0.027928007500855737
1820000000.0 0.07628531555851177 0.08075780860624834
1840000000.0 0.14669338027026615 -0.040308506597502264
1860000000.0 0.12159779427615801 -0.15895316783322125
1880000000.0 -0.22486277203522245 0.09631223676437833
1900000000.0 0.19479382112933522 -0.21340160181514042
1920000000.0 0.15164417635332814 -0.29420505711936673
1940000000.0 -0.22189498400047641 0.27037282291152165
1960000000.0 0.09090626677719454 0.35773561136780024
1980000000.0 0.18851847878154893 -0.34773230212381073
2000000000.0 -0.2306572677258264 -0.34100611380745544
2020000000.0 -0.2609135826964669 -0.33144002247134857
2040000000.0 -0.25951297210079927 0.3442632767284192
2060000000.0 -0.12732256419502533 0.41760502238236874
2080000000.0 0.05955473850743483 0.43255704031279907
2100000000.0 0.10715291105948588 -0.41746089006953313
2120000000.0 -0.05882609048173925 -0.41399323644010744
2140000000.0 0.1086539970904473 -0.3864862836046753
2160000000.0 0.24516514415081586 -0.2988754931688432
2180000000.0 0.24985724313967397 -0.27671580682731123
2200000000.0 0.2417138346609011 -0.26655849664960335
2220000000.0 -0.31612572219896506 -0.14731226092280048
2240000000.0 -0.19675775929820827 -0.2792648117275583
2260000000.0 -0.18695696823061234 -0.28498032940842405
2280000000.0 -0.14671552890456832 0.3154308062479676
2300000000.0 -0.014193025132452426 0.3568735724152366
2320000000.0 0.18568802032867712 0.33184090039144676
2340000000.0 -0.16323597225503347 -0.37778560941409156
2360000000.0 -0.4473016982618712 -0.025325008760674055
2380000000.0 0.22442655380765186 0.44465977909178844
2400000000.0 -0.4455335633965706 0.33516529943143314
2420000000.0 0.5107295998757246 -0.3328530857594252
2440000000.0 -0.5014982428689524 0.4237357574015235
2460000000.0 -0.6853068829407264 -0.14893828287636626
2480000000.0 0.6948269019629048 0.23472643407272134
2500000000.0 -0.44071749915207314 -0.6125289407562742
2520000000.0 0.7138025032632169 -0.28173217998521455
2540000000.0 -0.5837335112325872 -0.5035308844940656
2560000000.0 -0.4393355018587407 0.6296018108802952
2580000000.0 0.055518679891272585 -0.7513492083003446
2600000000.0 -0.7308172070579554 -0.03597216142836539
2620000000.0 -0.022321017453977198 0.7053777023886566
2640000000.0 0.5387060798783376 -0.39460314349365144
2660000000.0 -0.4695066706781542 -0.41637055923107813
2680000000.0 -0.17373546142750232 0.5548681633574089
2700000000.0 -0.31126140450938855 -0.4287715134221766
2720000000.0 -0.12259464336243558 0.4661077702681735
2740000000.0 0.40445317963654315 -0.15302836680731352
2760000000.0 -0.30410848418249026 0.24162384174444201
2780000000.0 0.34356050244914915 0.1010827338149581
2800000000.0 -0.2445034650660457 -0.2273617796914226
2820000000.0 0.13173837702741606 -0.2840880895494403
2840000000.0 -0.09563873749932607 0.2903400823020911
2860000000.0 -0.09915409852412821 -0.2836747182970472
2880000000.0 0.03362725262246779 -0.29476516395389507
2900000000.0 -0.25864817380016003 0.14110976914933224
2920000000.0 0.004869848253675758 0.2987002713835281
2940000000.0 -0.019725189305769195 -0.30789329331547977
2960000000.0 -0.2647851116436636 -0.16857151850145363
2980000000.0 -0.19895597941751525 -0.24493569667830156
3000000000.0 -0.25869409314671493 -0.18385653189743204
3020000000.0 0.13702453378209534 0.2912129517903979
3040000000.0 0.18478495002876855 0.26453284864104665
3060000000.0 0.10918952930475172 0.29583457255914836
3080000000.0 0.28314666046865433 -0.11228269279284678
3100000000.0 -0.21573923248906277 0.20068373097654868
3120000000.0 -0.11947638913719759 -0.25993883831083897
3140000000.0 -0.2594266899669856 0.09059014056283146
3160000000.0 0.18402454567320084 -0.18470286245188156
3180000000.0 -0.24445790519399635 -0.0367808009219615
3200000000.0 0.21629166321619167 0.08684998374400248
3220000000.0 0.20429945377374273 -0.0382036307955573
3240000000.0 0.0463539209670932 -0.16957002745599675
3260000000.0 0.13857371407670183 0.04198133791841588
3280000000.0 0.06903906735799833 0.07455724731765549
3300000000.0 -0.056039211037909244 0.03529867971066756
3320000000.0 -0.037486728715562995 -0.008354904558562356
3340000000.0 -0.018506450437423768 0.005392204328751815
3360000000.0 -0.005157478967280961 -0.005988406049538182
3380000000.0 -0.0032209810136031606 -0.0003267420925127995
3400000000.0 -0.0031318850154178637 0.015373624946386413
3420000000.0 0.0030802102675446742 -0.0339029840123543
3440000000.0 -0.011041398382727444 0.047649811926312374
3460000000.0 0.03495230709653233 0.05310429556223892
3480000000.0 -0.06931317812334999 0.03385228909252082
3500000000.0 0.06538426308070147 0.05980414174502968
3520000000.0 0.040228135875603796 0.09450063769213572
3540000000.0 -0.11409279283319325 0.017947040991812848
3560000000.0 0.0886787648259693 0.08067884648316495
3580000000.0 0.10658653836145203 -0.07915876951631519
3600000000.0 0.015088397725680018 0.14924697467780595
3620000000.0 0.13588115680125118 -0.08811443219306639
3640000000.0 0.08023639263838714 -0.16121189624507926
3660000000.0 0.005606100387416181 -0.1911727752102745
3680000000.0 0.14579564970458322 -0.1292636040343557
3700000000.0 -0.15470358721430377 -0.11786215118536748
3720000000.0 -0.11243483730503395 -0.15306880034196987
3740000000.0 0.17971698177869574 -0.00023617316248337523
3760000000.0 0.11988943208152868 -0.1271469741677984
3780000000.0 -0.17218385437886516 0.0026244785320265114
3800000000.0 0.1663760145288754 0.023409963954796803
3820000000.0 -0.1404204999717702 -0.07868709768373335
3840000000.0 -0.1478164247832498 0.02181352198988462
3860000000.0 -0.13029278990028184 -0.0596129482549121
3880000000.0 0.1182237249378983 -0.07774531271840751
3900000000.0 -0.12520905991386325 0.07443085792746726
3920000000.0 -0.1271170345160061 0.0831312665713545
3940000000.0 -0.038117091887868715 -0.16339771226666247
3960000000.0 -0.17719714384712731 -0.01371459194224931
3980000000.0 0.0019192662473293774 0.1755190965990783
4000000000.0 0.10168611566678191 -0.1317230510744801
