!Created with skrf (http://scikit-rf.org).
# Hz S RI R 50.0 
!freq ReS11 ImS11
400000000.0 0.4425049556773887 0.7502599502122279
420000000.0 0.8451882375408769 0.005114068896304471
440000000.0 0.7996291349055896 -0.019507964726985315
460000000.0 0.6617548858086132 0.3423794807010876
480000000.0 0.019783713656275948 -0.6873416573269178
500000000.0 0.1391261129754837 0.5892045528730689
520000000.0 0.34850930610360437 0.37412798597062347
540000000.0 -0.4112914792799676 -0.1381378569252472
560000000.0 0.19614935491432758 0.3433318611476354
580000000.0 -0.34795656801184044 0.09717405558305534
600000000.0 0.1628111940517173 -0.31146482208538495
620000000.0 -0.13990203621466896 -0.3214154181498725
640000000.0 0.38843582991856107 0.12057950325018582
660000000.0 0.037427443981221165 0.41171103908765155
680000000.0 -0.05898430722526346 -0.44133926517292277
700000000.0 -0.0015582637444661893 0.46055080557428607
720000000.0 -0.439230179601729 -0.1422489208908522
740000000.0 -0.4059266490499562 0.1362550502859016
760000000.0 -0.22230104074031626 -0.34598157651416456
780000000.0 -0.34522345094027096 0.16623120423986562
800000000.0 -0.17641499269490232 0.29201857445977286
820000000.0 0.25083496257529403 0.1281608990479554
840000000.0 -0.027956268033668154 0.2056334151944792
860000000.0 -0.14725199582652643 0.07772616782361887
880000000.0 -0.10975443865182608 -0.08561176283362545
900000000.0 -0.05817780631781929 0.07525123128308671
920000000.0 0.04538759141241917 -0.03200713979108031
940000000.0 -0.03426467400513508 -0.009850918291432744
960000000.0 0.018252402024961457 -0.03055035510214429
980000000.0 -0.05781241427383084 -0.009717606053954617
1000000000.0 -0.006928769160324395 0.09682280059974496
1020000000.0 0.03477540226430816 0.11604776568478521
1040000000.0 -0.07814092830557641 -0.1111254299920907
1060000000.0 -0.030587517325463456 0.15963592931465964
1080000000.0 -0.16213141745476287 -0.0990000131369871
1100000000.0 0.1531096401464319 -0.15054573267613997
1120000000.0 0.2246922168132438 -0.07556981300865631
1140000000.0 -0.06659729158129218 0.2516607199121362
1160000000.0 -0.16306536649236217 0.22936428483112264
1180000000.0 -0.2770366638064785 -0.1304203047816958
1200000000.0 0.29712086388557823 0.16320531104444896
1220000000.0 -0.15021885548533892 -0.33875892421743437
1240000000.0 0.34544395351488644 0.1896054311599766
1260000000.0 -0.3046582104231683 -0.2694538287477748
1280000000.0 -0.42107877169009506 0.009139767351242695
1300000000.0 0.14031684503581582 0.4064365278375472
1320000000.0 0.3549592395964408 0.25072973313198194
1340000000.0 0.13851574383112947 0.4185771655228167
1360000000.0 0.4411350058268969 0.08624446421931538
1380000000.0 -0.30142990969879124 -0.32191264141931175
1400000000.0 -0.4259957495684731 0.025714290787654033
1420000000.0 0.32030221790229296 0.2447062055637571
1440000000.0 0.2513996378353407 -0.27259885439316694
1460000000.0 0.2876997438051399 -0.1810440262005632
1480000000.0 -0.06091865863139114 -0.3070813674040294
1500000000.0 -0.2671188955339916 0.09472793530127277
1520000000.0 -0.1935027233852983 -0.1671700514776705
1540000000.0 -0.08888361382284868 0.21366727321380594
1560000000.0 -0.13154453787210027 0.15343672447256013
1580000000.0 -0.14651105055617478 0.10269218619838973
1600000000.0 0.13709483031505904 0.04117811711457967
1620000000.0 -0.09385096772880112 0.046677033006065634
1640000000.0 -0.06297032700270842 -0.04484147852759309
1660000000.0 0.04484554193025772 0.038635118285135724
1680000000.0 -0.017795299481523016 -0.02828084390706229
1700000000.0 0.0023837349284373224 -0.008528537423239743
1720000000.0 -0.010680771649222704 -0.006230548596952798
1740000000.0 0.01662536942405289 0.020716976658012132
1760000000.0 -0.031123543950008624 -0.016732554920116192
1780000000.0 -0.00835896797262281 -0.04654600856890803
1800000000.0 -0.04380614773293129 -0.06780775694008026
1820000000.0 0.04195911144569344 0.10259875578520217
1840000000.0 0.15141875674269561 -0.008390320483761232
1860000000.0 0.13689475574622673 -0.14528476696356543
1880000000.0 -0.22413840215625555 0.09699393084681517
1900000000.0 0.18933184633592953 -0.21727240586445473
1920000000.0 0.13884365243652314 -0.299781304561
1940000000.0 -0.19957681332994845 0.2866696256534607
1960000000.0 0.1125169611749374 0.3513248753136942
1980000000.0 0.1702101567965581 -0.3571140132924446
2000000000.0 -0.24428686036513023 -0.33167594711971843
2020000000.0 -0.27738321470071753 -0.31831848851390665
2040000000.0 -0.2992264966331782 0.3116408900841988
2060000000.0 -0.12172315921705429 0.4203209079759009
2080000000.0 0.08347301967675026 0.4295469275475289
2100000000.0 0.13678653610050862 -0.4098885512895273
2120000000.0 -0.009547443250497957 -0.4190304521662145
2140000000.0 0.17706274755971627 -0.36121685022199873
2160000000.0 0.3093259359533572 -0.23285966055402788
2180000000.0 0.3134721098552282 -0.20283535045446374
2200000000.0 0.2904496820212709 -0.21246028515976628
2220000000.0 -0.2761566032454255 -0.21349500033385738
2240000000.0 -0.14165797128400068 -0.3103919606314891
2260000000.0 -0.1539174568795594 -0.3036314335073208
2280000000.0 -0.1838791543429024 0.29439007006468687
2300000000.0 -0.05264092836043333 0.3521839437887979
2320000000.0 0.1748775284472344 0.3364931484671954
2340000000.0 -0.17731655786950193 -0.3705690387464106
2360000000.0 -0.44549346109100063 -0.03657507430259706
2380000000.0 0.23124213873442256 0.4403125452457131
2400000000.0 -0.46175976094183635 0.31144023570256346
2420000000.0 0.5100732361221544 -0.33370143348904996
2440000000.0 -0.5017400017331707 0.42399049301231856
2460000000.0 -0.678138008441885 -0.18073194114949925
2480000000.0 0.6679017530941322 0.30646571454861155
2500000000.0 -0.39940753880351193 -0.6416600130717732
2520000000.0 0.7452316525859412 -0.18908830138321986
2540000000.0 -0.46875593261320586 -0.6141167554418302
2560000000.0 -0.5086985275646099 0.5763710785271162
2580000000.0 0.16469717461968553 -0.7362531005335339
2600000000.0 -0.7194542697945124 -0.13852695524336187
2620000000.0 -0.11690800014917524 0.6967346926406021
2640000000.0 0.6007789765375142 -0.29305495093549455
2660000000.0 -0.38699929185829796 -0.49448895002800863
2680000000.0 -0.24674917695224777 0.5268612241920783
2700000000.0 -0.2869206633211951 -0.44544364778046197
2720000000.0 -0.1251734762771228 0.46540209076400424
2740000000.0 0.4203315423064456 -0.10006200322425268
2760000000.0 -0.32478483459810426 0.21284107434068172
2780000000.0 0.34309687730395927 0.10295036247145757
2800000000.0 -0.2595424922613207 -0.21057524362370833
2820000000.0 0.1103837494382529 -0.29361709850617024
2840000000.0 -0.0542204917629237 0.3013569387807734
2860000000.0 -0.13495247520866654 -0.2690833379843509
2880000000.0 0.004869730527807195 -0.29712857162486117
2900000000.0 -0.2606925463876419 0.13869542950857744
2920000000.0 0.010616183095094399 0.2991217805028232
2940000000.0 -0.03429807111810759 -0.30745085138885847
2960000000.0 -0.23054975516732631 -0.21459531671077184
2980000000.0 -0.18547862637689663 -0.256527035079023
3000000000.0 -0.21120080176539133 -0.23815599442005841
3020000000.0 0.0569627037909552 0.31785432515226963
3040000000.0 0.16308739524780855 0.2795431108403512
3060000000.0 0.05545016412682323 0.31093298612701875
3080000000.0 0.30040859927582986 -0.05256745876372673
3100000000.0 -0.22058662798804687 0.1964984053429915
3120000000.0 -0.07459048049361558 -0.27645915455750386
3140000000.0 -0.27418249112089005 -0.01337858652514912
3160000000.0 0.23362350982261165 -0.1157149293754626
3180000000.0 -0.2236311744053228 -0.10449200110209372
3200000000.0 0.19135579088938118 0.13270200406590268
3220000000.0 0.20742484230157937 -0.011437050976397141
3240000000.0 0.05948086514478269 -0.16461457546795963
3260000000.0 0.1388762414481596 0.038258847150780796
3280000000.0 0.06582206760456166 0.07615126259587737
3300000000.0 -0.031560012824799206 0.05689889485694064
3320000000.0 -0.024767045282536898 0.02809419881874485
3340000000.0 -0.018216219420908935 0.0006261353440105237
3360000000.0 0.005643111521303648 -0.004229530587691201
3380000000.0 -0.0015708833348742107 -0.0032207301430725046
3400000000.0 -0.009157867695701642 -0.013982222381565731
3420000000.0 0.032049869008594585 0.014986776988891925
3440000000.0 -0.04907571816857822 -0.009974201915465965
3460000000.0 -0.01947360898274741 0.061760772422515084
3480000000.0 -0.07166982414214797 -0.03036945802518626
3500000000.0 0.01666917531048194 0.08754954131206205
3520000000.0 -0.03351561301768832 0.0976281533523211
3540000000.0 -0.09418150589221247 -0.06759921388822165
3560000000.0 0.006833864740204956 0.12005536292037222
3580000000.0 0.13222556326995705 -0.01958989819253388
3600000000.0 -0.07347236362858484 0.13073867056201433
3620000000.0 0.16160446028637773 0.004470206068501431
3640000000.0 0.12877391065861815 -0.12614723046340123
3660000000.0 0.07168404827971643 -0.17665125977955334
3680000000.0 0.17764453194976396 -0.07808723136528739
3700000000.0 -0.11448706424185981 -0.15617318742417613
3720000000.0 -0.07645408621496513 -0.17240547848057408
3740000000.0 0.1749300773108279 0.035116823134380484
3760000000.0 0.13942929413405167 -0.1033165702292319
3780000000.0 -0.17083290092747397 -0.010515130220777777
3800000000.0 0.16675069297052647 0.007429149641666785
3820000000.0 -0.14653555949200256 -0.06316998562860122
3840000000.0 -0.1372210476022318 0.054604833256541654
3860000000.0 -0.13176466131509731 -0.05111386132009873
3880000000.0 0.12272520835628448 -0.06645807893492088
3900000000.0 -0.12953947573159597 0.06232491400032894
3920000000.0 -0.12723272766188115 0.08074174306295033
3940000000.0 -0.03163815580989226 -0.16324906512659898
3960000000.0 -0.17611594150352164 0.011523868693864861
3980000000.0 0.030829091540325825 0.17164110162000598
4000000000.0 0.0593029986135408 -0.15427578330143818
