!Created with skrf (http://scikit-rf.org).
# Hz S RI R 50.0 
!freq ReS11 ImS11
400000000.0 -0.752773357638341 0.4354883398645575
420000000.0 0.08518811189156922 0.8635266203034503
440000000.0 0.8301887703700087 -0.13029051311225004
460000000.0 0.03495255197598855 -0.7961014557671721
480000000.0 0.71437954578251 -0.057786045931194116
500000000.0 -0.1369139272536113 -0.5702906581145997
520000000.0 -0.48969587346727966 0.1259760942685579
540000000.0 0.014705363453705104 -0.42514232501674915
560000000.0 -0.24053437509695202 -0.2841166637932047
580000000.0 0.3114051618057359 -0.14901756248944564
600000000.0 -0.1290750108231577 -0.3272280741927435
620000000.0 0.1563639219945433 0.32943044217216483
640000000.0 0.34128933609284323 -0.20996130581876826
660000000.0 -0.3928432373974875 -0.11770275893680804
680000000.0 0.26173274564824245 -0.3358343960886442
700000000.0 -0.4255136319923016 0.008491276166100332
720000000.0 -0.14651612873977013 0.3921601213857523
740000000.0 0.34601912310823374 -0.21304377865851662
760000000.0 -0.35715211959459614 -0.1584967289959208
780000000.0 0.2891250092165094 0.20196950131065639
800000000.0 0.234171817634142 -0.2173366538338666
820000000.0 -0.263597669399715 -0.0714795603225518
840000000.0 -0.23014603996078492 0.056544121818598164
860000000.0 0.0761939415870545 -0.18562873312500472
880000000.0 0.022882402581396538 0.15593600313012917
900000000.0 -0.10821358437104564 -0.0013252985463771507
920000000.0 0.05412748124824455 0.0515694273637078
940000000.0 -0.043286750247310546 0.00040825772726285723
960000000.0 0.023783690109338906 -0.04113154245717623
980000000.0 -0.06107770515009311 -0.026461559096407863
1000000000.0 0.014682191285338018 0.08154153329993162
1020000000.0 0.050898695994585505 0.08888947792140686
1040000000.0 0.014190746714262317 0.1186785338925825
1060000000.0 -0.10368323426446684 0.1180862878812678
1080000000.0 -0.030119180197998596 0.1725366039642705
1100000000.0 0.16382727186678203 -0.11507884076326999
1120000000.0 0.0018042192091887188 0.22296288342074652
1140000000.0 0.20004766875491461 -0.16026188654876625
1160000000.0 -0.2050511532699842 -0.1954701046608556
1180000000.0 -0.017554452454579608 -0.31702512055320364
1200000000.0 0.26795016518162146 -0.21182179590940298
1220000000.0 -0.2270360164598717 0.289550877784448
1240000000.0 0.384192846233381 -0.04673479954684481
1260000000.0 -0.25465417217571135 -0.3214755577169005
1280000000.0 -0.35558021042207216 0.23193081207023458
1300000000.0 0.38301763767925756 0.20730521611810154
1320000000.0 0.436284465593134 -0.03209147870463785
1340000000.0 0.42006946857257343 -0.1195959412372133
1360000000.0 0.4367810598108138 -0.0361030508071455
1380000000.0 0.26956345203201626 -0.34215408353715054
1400000000.0 -0.34350878652669375 -0.2549286073646072
1420000000.0 -0.04826201914831203 0.4079935588344661
1440000000.0 0.3833949061559977 -0.023602797710330466
1460000000.0 0.04231976114219606 -0.35083385149829605
1480000000.0 -0.3215575862478959 0.010019830650333019
1500000000.0 -0.12786932240064378 0.25841599509562974
1520000000.0 0.07048546719086259 0.249267480064884
1540000000.0 -0.14326955142542558 -0.1788914033871419
1560000000.0 0.10608459484821636 -0.16345680419795056
1580000000.0 0.114451113379376 0.12032813165275956
1600000000.0 0.13180310635134707 0.011625555369337568
1620000000.0 0.08761971100026118 0.054545232695900794
1640000000.0 -0.061763960780826514 0.046958427568383254
1660000000.0 0.052284048060693276 -0.01448485192946526
1680000000.0 0.006585222855681595 0.03413838416996328
1700000000.0 0.00999545639444399 -0.01943339243370634
1720000000.0 -0.005123052270049159 0.00014489813551417567
1740000000.0 0.009539578855869181 0.011934285533283072
1760000000.0 0.004029271266596151 -0.0324421114614363
1780000000.0 0.04896759059944759 0.03535973872422004
1800000000.0 -0.09078284079472121 -0.018250908418562934
1820000000.0 -0.1103230665485817 0.05981835531483032
1840000000.0 0.08392082889852162 -0.13998296103166055
1860000000.0 -0.16328960598171308 0.11592646274199986
1880000000.0 0.189199165196868 -0.14720266745674115
1900000000.0 -0.23427967780256242 0.15971088290210453
1920000000.0 0.2077162385218897 -0.2412980027728632
1940000000.0 -0.32442538642682806 0.1376984940256376
1960000000.0 0.3631774703398231 0.11194285210121752
1980000000.0 -0.13568843638693887 -0.3746043855526288
2000000000.0 -0.40622283934402326 -0.08822224883610731
2020000000.0 -0.1279220240481457 0.4060330301378056
2040000000.0 0.13846290920932183 0.411058526828169
2060000000.0 0.43495917849540877 0.03492137693698795
2080000000.0 0.2606324736608153 -0.34777163035005626
2100000000.0 0.03241588579016748 -0.42528064949070316
2120000000.0 -0.192199757551363 -0.37017046957065614
2140000000.0 -0.2803787183664693 -0.29320798252925234
2160000000.0 0.17764089866128518 -0.35019067032739903
2180000000.0 -0.045134560067167345 -0.3768243569314016
2200000000.0 -0.2861425676678838 -0.2309069369748995
2220000000.0 -0.35539754027715753 -0.018904073278865872
2240000000.0 -0.2286072006279568 0.26623010406354375
2260000000.0 -0.06160601156521623 0.3453746220127538
2280000000.0 0.2349576683497677 0.26571761200671834
2300000000.0 0.31018785516326314 -0.19719320078243668
2320000000.0 -0.17707273581994548 -0.34667221820174404
2340000000.0 -0.35989165779047094 0.21624564086647535
2360000000.0 0.4485472268880692 0.10600818552358782
2380000000.0 -0.45681936847177784 -0.22295351880196718
2400000000.0 0.5437627392621265 0.12617625307868716
2420000000.0 -0.5883322825343986 0.15714585982631876
2440000000.0 0.3763355030566057 -0.5368496573114181
2460000000.0 0.12056805561671292 0.6841226329003843
2480000000.0 -0.38989458614300193 -0.61137270123595
2500000000.0 0.4167548774667602 0.6168650287068289
2520000000.0 -0.35613025050470987 -0.6654531682644289
2540000000.0 -0.07225649443316112 0.7532420687880647
2560000000.0 0.537828363279733 -0.524385789512241
2580000000.0 -0.721391260460491 -0.15136432661099045
2600000000.0 0.27799282309043205 0.657365448078632
2620000000.0 0.3434146383402829 -0.5916375581433112
2640000000.0 0.12724377838506049 -0.6355940742213466
2660000000.0 -0.5211353161315028 0.30622425545247345
2680000000.0 0.5257826117154187 0.18744371931543627
2700000000.0 -0.23537539737564248 -0.4549855634745982
2720000000.0 -0.1059032971512023 0.4527709415550419
2740000000.0 0.3707206314292635 -0.19966223175870798
2760000000.0 -0.3799280641832654 0.037628899923304614
2780000000.0 0.3508955913554536 0.021835095812162347
2800000000.0 -0.31926029330963335 0.06751135314306644
2820000000.0 0.09945225074988091 -0.2931326545743905
2840000000.0 0.12315025095804681 0.2705824230136691
2860000000.0 -0.2841425232752555 -0.07394848152778061
2880000000.0 0.2235382016650709 -0.19025737670736526
2900000000.0 -0.06385097363963271 0.28759038510806195
2920000000.0 0.20395909303052323 -0.2155518033536015
2940000000.0 -0.27000796650515696 -0.13341178417309235
2960000000.0 -0.25656520614349204 0.16336274567490025
2980000000.0 -0.25303799896652196 0.1761664782738286
3000000000.0 -0.30919930704985915 -0.014711029169286377
3020000000.0 -0.08995635588977646 -0.29807296443359665
3040000000.0 0.30873273185105365 0.0010303850004596282
3060000000.0 -0.2567941842731144 0.16700170738059708
3080000000.0 0.19040630881110135 -0.23423660741790311
3100000000.0 -0.15525687201697239 0.2527115596205019
3120000000.0 0.003120508067178438 -0.29037177672645736
3140000000.0 0.1580252259912382 0.23332319379739352
3160000000.0 -0.26651126408486786 0.015691160706282074
3180000000.0 0.18693890314534545 0.16790867618870753
3200000000.0 -0.17162842510217485 0.14905941659902527
3220000000.0 -0.10232117478662273 -0.17347029574019818
3240000000.0 0.16467387013976162 -0.05007859298105303
3260000000.0 -0.04996914166269091 0.13070349085782318
3280000000.0 0.06265340606957134 -0.08917001830140536
3300000000.0 -0.0557109050318906 0.05675034042293742
3320000000.0 0.04848184846213648 0.021793782454048925
3340000000.0 0.005197241296233647 -0.028813101756681607
3360000000.0 -0.010598702266688234 -0.0008615928253601745
3380000000.0 0.0007280596827677709 0.005400051131198427
3400000000.0 0.015247533607592276 -0.01086438327108902
3420000000.0 -0.0073022150136943095 0.03067296261474403
3440000000.0 0.027697309309509466 -0.03142315999552637
3460000000.0 0.048159340443644276 0.016360790206006625
3480000000.0 -0.01269730027522508 0.06097282227728857
3500000000.0 0.07628653175582926 0.001700716273135649
3520000000.0 -0.015625406351757947 -0.0894057703754021
3540000000.0 0.09786620625453034 0.04321457962909564
3560000000.0 -0.12081519615117915 -0.0039015272877253398
3580000000.0 0.12628078995074643 -0.04558460199539226
3600000000.0 0.09508254203940592 0.1161961545478871
3620000000.0 -0.01715722664030242 0.1617793817907702
3640000000.0 -0.1679312572197323 0.039220095608258475
3660000000.0 -0.15901042642468177 -0.09028590715246501
3680000000.0 -0.07169584539692175 -0.17471967499989566
3700000000.0 -0.0366484585503801 -0.1862331604998283
3720000000.0 0.1313762997036627 -0.13560051378643492
3740000000.0 0.17499289020859668 -0.05691728817328565
3760000000.0 -0.1778484735396237 0.011434882538751948
3780000000.0 0.16250548400457004 -0.04631592660972832
3800000000.0 -0.07715271782587171 -0.1416315405939501
3820000000.0 -0.14001635687691186 -0.0625222373873823
3840000000.0 -0.11060574609351348 -0.09575961639679843
3860000000.0 0.12007252209390903 0.08426131100386271
3880000000.0 0.08374675692275148 0.12732657787510349
3900000000.0 0.156169973575672 -0.03217773917106822
3920000000.0 -0.15796375633871584 -0.043189140224796974
3940000000.0 0.12023996622252893 -0.11743531239518656
3960000000.0 0.16965998493667794 0.03426780936992154
3980000000.0 0.09686706700825633 -0.14309068987490958
4000000000.0 0.0556323036712416 -0.15707056791262577
