!Created with skrf (http://scikit-rf.org).
# Hz S RI R 50.0 
!freq ReS11 ImS11
400000000.0 -0.7173967207486198 0.4913190556191648
420000000.0 0.13100117659312133 0.8583161523688317
440000000.0 0.8145784826232396 -0.20746452305257376
460000000.0 0.01666666147204403 -0.7960264511977542
480000000.0 0.7145771886111884 -0.057641237515195315
500000000.0 -0.18572797366063637 -0.5571052783218123
520000000.0 -0.48097310970668056 0.15341914223670802
540000000.0 0.08699906820114682 -0.4168313091158148
560000000.0 -0.2390113883917413 -0.2842125418433431
580000000.0 0.319786769339848 -0.13226671978629853
600000000.0 -0.14442227732934768 -0.3188849965859109
620000000.0 0.20688667492224677 0.2994344559888446
640000000.0 0.35469924262611763 -0.18671401820784422
660000000.0 -0.4036018628939051 -0.07435248267099062
680000000.0 0.2079310876279594 -0.3718918389811873
700000000.0 -0.4253086758493274 0.03240013230526259
720000000.0 -0.12098040024231514 0.40159246219144057
740000000.0 0.3425853327772811 -0.2197098019099438
760000000.0 -0.35216319537871993 -0.169498878542168
780000000.0 0.28283389288640004 0.21176957611630307
800000000.0 0.24196258695407252 -0.2085110330187623
820000000.0 -0.24709556475285588 -0.11712784792860886
840000000.0 -0.23540879566998063 0.02235555516060285
860000000.0 0.07464610829071261 -0.18611608351177428
880000000.0 0.023773758697817823 0.15483791591894117
900000000.0 -0.10666944607203097 -0.01470709579387513
920000000.0 0.05878781524431927 0.044885695853730326
940000000.0 -0.015511215814360888 0.04053903548693025
960000000.0 0.009213239004817863 -0.04732093360205791
980000000.0 -0.05828884630908454 -0.03370014219352397
1000000000.0 0.0006559452291177086 0.08289906277701112
1020000000.0 -0.015450780502423484 0.1015143402388366
1040000000.0 -0.02191415403360398 0.11754720715104688
1060000000.0 -0.12004724810764296 0.1006008243123839
1080000000.0 -0.05243640063841135 0.1658965666142168
1100000000.0 0.1545938079589365 -0.12670982588732307
1120000000.0 0.05170621356160548 0.21608196327968457
1140000000.0 0.170010730852184 -0.19086726501527723
1160000000.0 -0.20500329600970515 -0.19427950247962403
1180000000.0 -0.07199250813216124 -0.3094617552585804
1200000000.0 0.22069449102601454 -0.2611078850828057
1220000000.0 -0.19766483907764354 0.310802529920591
1240000000.0 0.3813299099777466 -0.07072849760495335
1260000000.0 -0.3196096326370351 -0.2580814000410902
1280000000.0 -0.3502467233308564 0.24105629286597796
1300000000.0 0.3855013020962402 0.20418403192095633
1320000000.0 0.43768139527825306 -0.018398073202624172
1340000000.0 0.41557408887593306 -0.13516056993035244
1360000000.0 0.43843689232681576 0.005793497155432258
1380000000.0 0.3043855516025937 -0.3118427386198926
1400000000.0 -0.3213828227457087 -0.28214339620158685
1420000000.0 -0.09458373561310926 0.3996540562224964
1440000000.0 0.38349843016766 0.015061252673985375
1460000000.0 0.07608280257422143 -0.3446711416720453
1480000000.0 -0.3128773001866994 0.0700395987485824
1500000000.0 -0.11784536625977236 0.26237015940132075
1520000000.0 0.09016955105467397 0.24216740223475977
1540000000.0 -0.17772426085593782 -0.1436694230794251
1560000000.0 0.052203407753811534 -0.18699590439424832
1580000000.0 0.12966929407260516 0.10294797884368077
1600000000.0 0.10085734577464284 -0.08605834691106354
1620000000.0 0.10275028739301648 0.013145556386141951
1640000000.0 -0.03462169273159132 0.07016864477898845
1660000000.0 0.038603287878584275 -0.038337239874959565
1680000000.0 0.018463488943004033 0.030574907516339418
1700000000.0 0.01664727131745372 0.014984552564510254
1720000000.0 0.0013499776498946696 0.00606810852256628
1740000000.0 -0.011606307726066929 -0.010449795401943674
1760000000.0 -0.01930390011557564 -0.025810242229219522
1780000000.0 0.05804689628699858 -0.018433543689143725
1800000000.0 -0.08883166180178174 0.02769740983167516
1820000000.0 -0.08049218036889982 0.0966742494617762
1840000000.0 0.09137973387067108 -0.13625177863034127
1860000000.0 -0.15626344921500118 0.12670373749325745
1880000000.0 0.19987847424195787 -0.13365156171309284
1900000000.0 -0.24849124401193615 0.1377282053245059
1920000000.0 0.22160978375897725 -0.22881790736745378
1940000000.0 -0.3312132392671411 0.1210249168974838
1960000000.0 0.3540512167456353 0.13773993839641638
1980000000.0 -0.11862067405011378 -0.3799494934322014
2000000000.0 -0.40289836257465644 -0.0991919717145486
2020000000.0 -0.13486335376274536 0.403051388974803
2040000000.0 0.14581274092522276 0.40736224633566553
2060000000.0 0.43490293676986697 -0.01732693494454826
2080000000.0 0.22777812161808902 -0.3687447171828453
2100000000.0 -0.02752319499552058 -0.42459241932606073
2120000000.0 -0.24715594462582083 -0.3348908598578329
2140000000.0 -0.2929703444306544 -0.2805068972813415
2160000000.0 0.11772714913588266 -0.3742368044749099
2180000000.0 -0.10555833075507798 -0.3644352938649461
2200000000.0 -0.33276215089532235 -0.1564301810533377
2220000000.0 -0.35271333085030876 0.0502359437201083
2240000000.0 -0.20227105448243932 0.28819328870650185
2260000000.0 -0.04702740200687086 0.34805929249890727
2280000000.0 0.2495887216806579 0.25315657626633375
2300000000.0 0.31791773297723647 -0.18539916968768153
2320000000.0 -0.18364195646617157 -0.3431900263960103
2340000000.0 -0.34492325840898164 0.2412917454275445
2360000000.0 0.44863350460066487 0.1078567216645836
2380000000.0 -0.4514062352914336 -0.233987099032198
2400000000.0 0.523047639842612 0.19478466669247085
2420000000.0 -0.5836467544610643 0.17223058912000203
2440000000.0 0.38273775425695217 -0.5313770946944297
2460000000.0 0.08866998715202216 0.6883259511023462
2480000000.0 -0.38852038071130524 -0.6112424501468502
2500000000.0 0.43188162695333265 0.6047063852591678
2520000000.0 -0.32996306110021134 -0.677594792880711
2540000000.0 -0.06805291249796548 0.7524443454327074
2560000000.0 0.5005826895003257 -0.5591550562168397
2580000000.0 -0.7312756286088661 -0.08310744160118694
2600000000.0 0.32093130056866565 0.6369041903255866
2620000000.0 0.27150953457140425 -0.62740170827557
2640000000.0 0.0365541858879405 -0.6469942270126314
2660000000.0 -0.4489295427371102 0.40465377686981385
2680000000.0 0.5499768272268726 0.09951094697769428
2700000000.0 -0.27367978514287294 -0.43333397855632083
2720000000.0 -0.0844284387060659 0.4582953738688639
2740000000.0 0.36326815029802434 -0.21466953841747302
2760000000.0 -0.38007623249560696 0.04483399205493828
2780000000.0 0.3489880331882217 0.04799927007341077
2800000000.0 -0.32283263994750466 0.05101259438397873
2820000000.0 0.1492384240810124 -0.2716804674473354
2840000000.0 0.036388943958824665 0.295815588305068
2860000000.0 -0.2642191247777284 -0.12862347173394237
2880000000.0 0.24782938825094333 -0.15586095433760097
2900000000.0 -0.10587660424194419 0.2730983161509953
2920000000.0 0.21002169910776014 -0.2079226034733044
2940000000.0 -0.28441117637538493 -0.09359830808481545
2960000000.0 -0.2604561857979375 0.15439922826766614
2980000000.0 -0.24816991934177654 0.17884719199536725
3000000000.0 -0.30850733523274876 -0.006175616014434952
3020000000.0 -0.1595526367232288 -0.26555883902469923
3040000000.0 0.2845885515942564 -0.11712294973954558
3060000000.0 -0.19502718022160506 0.2353802142514505
3080000000.0 0.08837098325395736 -0.2878834114739084
3100000000.0 -0.09295360048846132 0.28087334143673
3120000000.0 -0.08279849183317363 -0.27842161558861583
3140000000.0 0.20100441950792733 0.1974473091759288
3160000000.0 -0.24693894692238263 0.10293226419149874
3180000000.0 0.23942308068096288 0.07899368421595279
3200000000.0 -0.14542646312270638 0.1751041605240697
3220000000.0 -0.13180944961152188 -0.15292361760259418
3240000000.0 0.16566862297276044 -0.049342354861621786
3260000000.0 -0.026678835790055512 0.1385463939913163
3280000000.0 0.04176450471770386 -0.10166790945877388
3300000000.0 -0.039695139256802126 0.0700361278834893
3320000000.0 0.05292132542226807 0.011077759613074799
3340000000.0 0.02630350455901701 -0.014467268867711398
3360000000.0 0.005994871520265467 -0.009282784611599357
3380000000.0 -0.004436396081688434 0.002859894077078812
3400000000.0 -0.017020497424935627 0.008845911134431006
3420000000.0 0.022993071718568146 0.022472290843586748
3440000000.0 0.013527906082680657 -0.040558416843304905
3460000000.0 0.05181082900104273 0.0020161098692021403
3480000000.0 0.006964610877771958 0.06232723762849173
3500000000.0 0.07714568721316335 0.002575630818257231
3520000000.0 -0.04486803017295584 -0.08039541422987986
3540000000.0 0.0986648903775 0.04341913937139441
3560000000.0 -0.11345459945639053 0.045087494570778854
3580000000.0 0.09992493632379036 -0.09191851897823526
3600000000.0 0.1306357758770528 0.07775198202301034
3620000000.0 0.004772171241533025 0.16358764913049623
3640000000.0 -0.14991015227978285 0.08895932133982257
3660000000.0 -0.17564362440459907 -0.055628008364562664
3680000000.0 -0.10564423523085617 -0.15824452067433062
3700000000.0 -0.05768926378798921 -0.18229551447208986
3720000000.0 0.10632636786916436 -0.15803932869663734
3740000000.0 0.17513212673067577 -0.06026808086191197
3760000000.0 -0.1780946225416745 -0.02079184732556647
3780000000.0 0.16269177789253286 0.04880540160033516
3800000000.0 0.0058176655185760715 -0.16267769970836993
3820000000.0 -0.10718795461661312 -0.11139912637052214
3840000000.0 -0.06303414432191995 -0.13290817273810013
3860000000.0 0.10481045276632403 0.10417705815570222
3880000000.0 0.06438968895858614 0.13872036493090403
3900000000.0 0.15624279684835313 0.03255987179868256
3920000000.0 -0.14153674031388808 -0.08416950754603114
3940000000.0 0.16594061818645447 -0.033319406963544775
3960000000.0 0.13588243931749053 0.10827916532814566
3980000000.0 0.1572787246044194 -0.07257416927020105
4000000000.0 0.15817840815667344 -0.05156887394745868
