!Created with skrf (http://scikit-rf.org).
# Hz S RI R 50.0 
!freq ReS11 ImS11
400000000.0 -0.7000044387908988 0.5193048185228368
420000000.0 0.13670005048628955 0.8578125651740183
440000000.0 0.8114214786229774 -0.21872305659739988
460000000.0 0.027289691136041475 -0.7958769402267856
480000000.0 0.7150947046978209 -0.0516425342175568
500000000.0 -0.2090093060206978 -0.5491118964480998
520000000.0 -0.4875528443317768 0.1301957468022485
540000000.0 0.11631912192439421 -0.409447462356183
560000000.0 -0.2630856790416782 -0.2635816827254412
580000000.0 0.32050846476685124 -0.12669535131034626
600000000.0 -0.13452609524030962 -0.3234680009627912
620000000.0 0.20562777419831085 0.3015159115240452
640000000.0 0.338704574047141 -0.2129934101559518
660000000.0 -0.3980110946340862 -0.10109822829906813
680000000.0 0.19535956177257383 -0.3783664322948209
700000000.0 -0.42373259048219414 0.04555647861069303
720000000.0 -0.15499361480105267 0.38960572540555877
740000000.0 0.3493122314312229 -0.2097825337985291
760000000.0 -0.36066480604593454 -0.15041483289757204
780000000.0 0.281847921279515 0.21306904136391447
800000000.0 0.2553403347961008 -0.19191183702084552
820000000.0 -0.24519942761121172 -0.12142334209921035
840000000.0 -0.23434082280876561 0.031014058625425237
860000000.0 0.08477336150566751 -0.18184651744272007
880000000.0 0.024170858691963722 0.15490072219031822
900000000.0 -0.10738709084065819 0.010111361922549474
920000000.0 0.05187414659638825 0.05313705776520797
940000000.0 -0.0308896651786683 0.030554694953160346
960000000.0 0.006018405444390228 -0.04784759183071299
980000000.0 -0.06006788941744423 -0.03061572690384797
1000000000.0 0.0003840962282497234 0.08313388531822019
1020000000.0 -0.026369260405997092 0.09953962314179832
1040000000.0 -0.03789252976956286 0.11347980440280099
1060000000.0 -0.12246649849477646 0.09761550615842651
1080000000.0 -0.05914863075212002 0.16352161032757298
1100000000.0 0.166607617645716 -0.11036531815837086
1120000000.0 0.07021769194382206 0.21071862613520903
1140000000.0 0.1591719239722642 -0.20010774635231257
1160000000.0 -0.20963594677570682 -0.18900764541948928
1180000000.0 -0.08124983952995514 -0.3069870689851597
1200000000.0 0.21107574600030146 -0.26870811822118285
1220000000.0 -0.17247563790685935 0.3254062958123357
1240000000.0 0.3791514069386076 -0.08087344968639348
1260000000.0 -0.30628988227591447 -0.2734183815688163
1280000000.0 -0.34390186333329464 0.2500627630453718
1300000000.0 0.38864061359364893 0.1983574239143269
1320000000.0 0.43603818061221 -0.04478677553368736
1340000000.0 0.41359157659423146 -0.1416512219540564
1360000000.0 0.43841247985332077 0.008842267960916507
1380000000.0 0.30222506356179135 -0.3140654015717373
1400000000.0 -0.31305534701568255 -0.291511372157748
1420000000.0 -0.09407165918377439 0.39965296287453334
1440000000.0 0.3828413357457596 0.026930089583043076
1460000000.0 0.07224512497086642 -0.3449918386289068
1480000000.0 -0.3158502333609849 0.05430655822977031
1500000000.0 -0.12562809868777114 0.2583584129206907
1520000000.0 0.09026420440154746 0.24170372175206004
1540000000.0 -0.1793588274581101 -0.14116096229405442
1560000000.0 0.045390840350167626 -0.18837291089438768
1580000000.0 0.1354148430448596 0.09492660593822415
1600000000.0 0.10131005255749921 -0.08542211175020835
1620000000.0 0.10354923030173337 -0.00242177170972591
1640000000.0 -0.022855790879062705 0.07496172051190604
1660000000.0 0.03306598373505262 -0.04337801613169504
1680000000.0 0.012510311040729425 0.03350673402609906
1700000000.0 0.02222964484972794 -0.004903013813593169
1720000000.0 0.001782038756137287 0.006355047351689384
1740000000.0 0.002109559510627493 0.015676231369979962
1760000000.0 -0.029818921311898065 0.013341743905321599
1780000000.0 0.049649185419968475 -0.035894054269376904
1800000000.0 -0.08305167705813624 0.0419974233177865
1820000000.0 -0.07364312843438445 0.10206330186178078
1840000000.0 0.08315564180138901 -0.1417275762178377
1860000000.0 -0.15483062216003124 0.12889551240975522
1880000000.0 0.19967910913042064 -0.1343331807709549
1900000000.0 -0.2501896222701565 0.13527442129372513
1920000000.0 0.23342847498595914 -0.21704172740467437
1940000000.0 -0.3354583819983508 0.10895327251315527
1960000000.0 0.3494836101737459 0.14863373347286235
1980000000.0 -0.12655454834050672 -0.3769616349097402
2000000000.0 -0.40231158899957864 -0.10067542487482306
2020000000.0 -0.1399320011387045 0.4008169031286347
2040000000.0 0.15240037968428455 0.4044687255550542
2060000000.0 0.43427760339486515 -0.027649639319672518
2080000000.0 0.17651034181571182 -0.39523379411313325
2100000000.0 -0.04508201449376247 -0.42286195413009225
2120000000.0 -0.22595799178177944 -0.3494266758997077
2140000000.0 -0.29078605043703687 -0.2823654693298546
2160000000.0 0.10871920881351294 -0.3768234971006452
2180000000.0 -0.13130089654597255 -0.35581937405048636
2200000000.0 -0.3340472247160915 -0.15390026488136035
2220000000.0 -0.35115183982040277 0.06092347168927024
2240000000.0 -0.2014850241178169 0.2885729897050066
2260000000.0 -0.029242124821730768 0.3503054077665776
2280000000.0 0.2343581106580696 0.26717204564609476
2300000000.0 0.31349838449851547 -0.19353052571504997
2320000000.0 -0.17688199939859933 -0.34681617969699474
2340000000.0 -0.34799477229706033 0.23664272237419381
2360000000.0 0.4505347958906653 0.0997246646316249
2380000000.0 -0.45650718677760005 -0.22402890314887333
2400000000.0 0.5233114909056424 0.19361260340210365
2420000000.0 -0.5917432272404812 0.14260130161142093
2440000000.0 0.3549512846292978 -0.5502711768520442
2460000000.0 0.106519316704169 0.6853746998283524
2480000000.0 -0.4359159542341519 -0.5773905397863629
2500000000.0 0.4708173368069852 0.5744749135717782
2520000000.0 -0.3564966759584422 -0.6636014527542888
2540000000.0 -0.03969281466893819 0.7540134882360138
2560000000.0 0.5219800447295928 -0.538990531106244
2580000000.0 -0.7323267248440964 -0.06752072793145852
2600000000.0 0.3637083480676551 0.6130076291906923
2620000000.0 0.26743744766903266 -0.629000680484948
2640000000.0 -0.026625128399964063 -0.6471627295868726
2660000000.0 -0.42873190851286985 0.42568690647735424
2680000000.0 0.5495787706183148 0.09956363447643345
2700000000.0 -0.31310912994184276 -0.4057064523684455
2720000000.0 -0.049556073482335254 0.4634527760633966
2740000000.0 0.3630662306426957 -0.21497799225235498
2760000000.0 -0.3813847983524354 0.03355465016378354
2780000000.0 0.34918757802826045 0.04834520262165333
2800000000.0 -0.3232500610876759 0.04871970180961985
2820000000.0 0.15234390036590392 -0.27013422632381306
2840000000.0 0.028442725840041757 0.29673735473767515
2860000000.0 -0.25920131895658505 -0.1379610620514665
2880000000.0 0.25702983466113655 -0.14013129358597665
2900000000.0 -0.13379328385475917 0.2607089703512793
2920000000.0 0.2162701404118101 -0.20100432238887328
2940000000.0 -0.2735413806495323 -0.12091598164191579
2960000000.0 -0.2705076516450659 0.13459026559903955
2980000000.0 -0.24415081425258142 0.18433301463297708
3000000000.0 -0.30793681293875225 0.020253154957664374
3020000000.0 -0.1686192870170238 -0.2596360244001315
3040000000.0 0.2828731287472744 -0.12110846089496229
3060000000.0 -0.20373882304171953 0.22760606471453781
3080000000.0 0.0660632097035974 -0.29337672461735054
3100000000.0 -0.07098128660659185 0.28694896479566273
3120000000.0 -0.07712896888326896 -0.2797240450929109
3140000000.0 0.2208427505810561 0.1751513112175089
3160000000.0 -0.24172099909789985 0.11476222501798466
3180000000.0 0.2392574805592037 0.07937387550056504
3200000000.0 -0.13806087883304313 0.18159534864357912
3220000000.0 -0.14717930068351612 -0.13889255756545954
3240000000.0 0.16284421791452092 -0.05894508681951885
3260000000.0 -0.03324961465717709 0.1376146020998938
3280000000.0 0.06262567096339029 -0.09102429251279569
3300000000.0 -0.05009200357314036 0.06362526794991022
3320000000.0 0.04980960856477116 0.022014510163429434
3340000000.0 0.029991335347821658 0.0038231612822526594
3360000000.0 0.002857505898236508 0.010813780666165765
3380000000.0 0.0015197535275161865 0.004573394539019063
3400000000.0 -0.0005645833205454325 0.019058120126845563
3420000000.0 0.030923634440535527 -0.008788751414223908
3440000000.0 -0.01453337283772141 -0.03998523323952797
3460000000.0 0.048043152994925 -0.019322716964902037
3480000000.0 0.032742724938874396 0.0533164060307386
3500000000.0 0.07122339134855958 -0.02924942729506518
3520000000.0 -0.07075179433493574 -0.058592628088520754
3540000000.0 0.10615647968331006 0.01866385972690149
3560000000.0 -0.10354277982297885 0.06491857095162329
3580000000.0 0.08990759040979207 -0.10113201673666175
3600000000.0 0.14197502479434831 0.05521493946402619
3620000000.0 0.05531752125343662 0.1549180077504732
3640000000.0 -0.14272389556315113 0.10040666462911327
3660000000.0 -0.18121962683670864 -0.03679123561975953
3680000000.0 -0.11605687902852757 -0.15096729817801022
3700000000.0 -0.07143416808856085 -0.17776560792442997
3720000000.0 0.0910804295855676 -0.16778723405820256
3740000000.0 0.17143218956356698 -0.0709564610712707
3760000000.0 -0.1795513655214842 -0.007604779852542573
3780000000.0 0.16852556008227856 0.025189538332711207
3800000000.0 -0.003924044846685092 -0.16316780796744687
3820000000.0 -0.1270164221004401 -0.08815765416120563
3840000000.0 -0.07923573076984705 -0.12454493921301109
3860000000.0 0.10935633567226695 0.10005500484107618
3880000000.0 0.06827765704265171 0.1373436712293952
3900000000.0 0.1591436304990369 0.016506672998634276
3920000000.0 -0.13936859178686317 -0.08833075823592151
3940000000.0 0.16513199067888584 -0.03821131440845167
3960000000.0 0.14415748187933639 0.09717208401217553
3980000000.0 0.1514504394359952 -0.08464457848499164
4000000000.0 0.14709833424338237 -0.07803075341722135
