!Created with skrf (http://scikit-rf.org).
# Hz S RI R 50.0 
!freq ReS11 ImS11
400000000.0 -0.7563520957874175 0.4287000421639011
420000000.0 0.10337087093235564 0.8618861168856926
440000000.0 0.8221057627602388 -0.1758551643264998
460000000.0 0.029348176801108114 -0.7955822527601807
480000000.0 0.7166556008264376 -0.020555856296803426
500000000.0 -0.15015371910344047 -0.5678532963725252
520000000.0 -0.48105645494782273 0.15254822975848
540000000.0 0.07222573478961249 -0.4196088907691703
560000000.0 -0.2439430610951886 -0.28016791586256157
580000000.0 0.3262232319419875 -0.11612885069332096
600000000.0 -0.14914401140582206 -0.31715216046224154
620000000.0 0.19222190971915207 0.30921736119072735
640000000.0 0.3652401174316281 -0.16516297758997237
660000000.0 -0.3974935237497503 -0.10248826488853915
680000000.0 0.2424686580900708 -0.34946566172051774
700000000.0 -0.42596853325075823 -0.0076160168199097275
720000000.0 -0.15334133952893217 0.38968266802833157
740000000.0 0.3527004870512666 -0.20284823853686537
760000000.0 -0.35530429087457194 -0.1613978744007489
780000000.0 0.294013821559424 0.19530361598354068
800000000.0 0.21855940630975357 -0.23273780251687062
820000000.0 -0.2613798376184926 -0.08065853922716247
840000000.0 -0.23248934668462315 0.04483748104335076
860000000.0 0.06122770054638555 -0.19152415079297347
880000000.0 0.03300329320413443 0.1538076235565497
900000000.0 -0.10845318079269627 -0.003624842153337007
920000000.0 0.042096968813965685 0.0622094575398772
940000000.0 -0.043393457231728466 0.000712410552727062
960000000.0 0.03757497695976225 -0.029032939725979746
980000000.0 -0.05597850063255885 -0.03575273317297205
1000000000.0 0.0332586632775193 0.07547822969306181
1020000000.0 0.03350734678520646 0.09676220616891483
1040000000.0 0.00879417417321555 0.11944498302465142
1060000000.0 -0.10915894639233349 0.11322025682765052
1080000000.0 -0.04492047910275528 0.16900457909875682
1100000000.0 0.16932725466050919 -0.10736759832801614
1120000000.0 0.014742253107648144 0.22226450276990284
1140000000.0 0.2019467567284863 -0.15732390577281566
1160000000.0 -0.19361934604102862 -0.20648462449607793
1180000000.0 -0.04008775677224873 -0.3151352372953497
1200000000.0 0.24542350558865658 -0.23746095862085764
1220000000.0 -0.21912980104186444 0.2954782657888715
1240000000.0 0.38410961694510015 -0.04879269457520431
1260000000.0 -0.3043856222886607 -0.27532698931347527
1280000000.0 -0.34395752716642614 0.24884645864904847
1300000000.0 0.38100372977125724 0.2112170773414488
1320000000.0 0.4351038628414707 -0.048169332765391745
1340000000.0 0.41398003939929556 -0.13919083208060937
1360000000.0 0.43746348037380056 -0.025885594700920167
1380000000.0 0.27172767147015964 -0.34069944363693305
1400000000.0 -0.33840145964784374 -0.26196508782052047
1420000000.0 -0.0573778283181112 0.40677846554591135
1440000000.0 0.3840352422012561 -0.0003122923594427472
1460000000.0 0.03782516575039738 -0.3511957620882252
1480000000.0 -0.3070964314740574 0.09408865163537324
1500000000.0 -0.13077412978636502 0.2566199259931329
1520000000.0 0.061992115832898036 0.25113434974382653
1540000000.0 -0.1575688335371954 -0.16607506488446597
1560000000.0 0.08895453096500794 -0.1729027081470558
1580000000.0 0.11278089604194988 0.12136116769253136
1600000000.0 0.13222888323667564 0.002101783126891989
1620000000.0 0.07812862899509468 0.0673601278087464
1640000000.0 -0.06005664403923882 0.04905445376106644
1660000000.0 0.04941689116854109 -0.02213363987328404
1680000000.0 0.011624880062267556 0.032903603742635415
1700000000.0 0.019809079634161585 0.009124124958053783
1720000000.0 0.00476327073899055 0.0024207614164752068
1740000000.0 0.014666494484185916 0.0045259217668079665
1760000000.0 -0.022861655066836056 -0.023554008238346823
1780000000.0 0.060006311155076666 0.009353215219672048
1800000000.0 -0.09233308537191659 0.00837706973201083
1820000000.0 -0.10425262920686759 0.07017920501966511
1840000000.0 0.08046787493781131 -0.14227418257543273
1860000000.0 -0.1642862277029555 0.1148987460564278
1880000000.0 0.19300526779209679 -0.14229752418644226
1900000000.0 -0.2394782286299124 0.15251650158916558
1920000000.0 0.21283596457421589 -0.2368139456284484
1940000000.0 -0.3279713410535165 0.12891374524365956
1960000000.0 0.36431488220169916 0.10733292674932933
1980000000.0 -0.13787876736590618 -0.3735592187103791
2000000000.0 -0.4064655227426111 -0.08563970085569933
2020000000.0 -0.13422427649193203 0.40353019936941875
2040000000.0 0.15780171458407555 0.4035313977964486
2060000000.0 0.43565934362227654 0.016091854274936753
2080000000.0 0.2754714080041982 -0.3357974048834206
2100000000.0 0.03551583542151937 -0.42500279943690206
2120000000.0 -0.21853097276299682 -0.35489601094703677
2140000000.0 -0.24094317071073396 -0.3266780378267779
2160000000.0 0.188925985337826 -0.34424019255890664
2180000000.0 -0.06274777900574241 -0.37434299451403336
2200000000.0 -0.3029601540039038 -0.2082352330483477
2220000000.0 -0.35604828574749803 0.003028345917893473
2240000000.0 -0.2298064903336167 0.2653098561181076
2260000000.0 -0.050580747203327975 0.3474396577512408
2280000000.0 0.24302441616321696 0.25865250240599935
2300000000.0 0.30958419356253686 -0.19874720770139942
2320000000.0 -0.16925318629142316 -0.35047281393104057
2340000000.0 -0.3648660219357721 0.20815968511822136
2360000000.0 0.4498577635161389 0.10032605072660185
2380000000.0 -0.4607755881102735 -0.21472602199477028
2400000000.0 0.5288712906450016 0.1778508633866489
2420000000.0 -0.5782773051775347 0.19054974857818618
2440000000.0 0.34650725296580914 -0.5563204973632263
2460000000.0 0.09802809482421683 0.6875963993388714
2480000000.0 -0.4043382153519249 -0.60142799205928
2500000000.0 0.4867489005881672 0.5620353777996
2520000000.0 -0.38332129253889136 -0.6500534707404018
2540000000.0 -0.05168511258340846 0.7545008252669184
2560000000.0 0.5222008225005557 -0.5393995644707692
2580000000.0 -0.7112551353788042 -0.19249337490511712
2600000000.0 0.3377576989598515 0.6283556698205187
2620000000.0 0.32617527473974167 -0.601552299164571
2640000000.0 0.10864316732382287 -0.6390263280946838
2660000000.0 -0.5129790895967438 0.3195457087244785
2680000000.0 0.5387183292323868 0.14642438027495777
2700000000.0 -0.2562264114746077 -0.44363028393256376
2720000000.0 -0.08071413130309724 0.4581817761434669
2740000000.0 0.3661410923231958 -0.208626600385381
2760000000.0 -0.37890142267210053 0.04966450299204807
2780000000.0 0.3506800843694952 0.030419238792003717
2800000000.0 -0.31951045256334076 0.06889161180202981
2820000000.0 0.11152424371247052 -0.28869421685542185
2840000000.0 0.07244317875203536 0.2890308543195111
2860000000.0 -0.27800312267720534 -0.09563067180694827
2880000000.0 0.23096428520194234 -0.18071457963334708
2900000000.0 -0.08741036878578741 0.2807605212962733
2920000000.0 0.2263094837158627 -0.1920734624780568
2940000000.0 -0.27680105868262805 -0.11765784439737953
2960000000.0 -0.24595817777013126 0.1774982595912509
2980000000.0 -0.26100422762827863 0.16138033624837095
3000000000.0 -0.3082100755037379 -0.020034302008222267
3020000000.0 -0.1707966653612671 -0.25939203503100106
3040000000.0 0.3018604317975776 -0.06113394558263624
3060000000.0 -0.2426784821610098 0.18610863939389974
3080000000.0 0.13557135658458377 -0.2694541923905659
3100000000.0 -0.1116927468157043 0.2744548388615191
3120000000.0 -0.031758533629336685 -0.288404252179948
3140000000.0 0.18694216289506718 0.21147970473611125
3160000000.0 -0.26537329055244174 0.031649038705623404
3180000000.0 0.2133762436606608 0.1336285935582626
3200000000.0 -0.17145873415721524 0.1504274714541461
3220000000.0 -0.11516920399840251 -0.16594312959180552
3240000000.0 0.16578063071336535 -0.048390869142342925
3260000000.0 -0.05751082169634839 0.1283804110953368
3280000000.0 0.07020003900351154 -0.0842993609345525
3300000000.0 -0.06394027311330518 0.04822905490516395
3320000000.0 0.030284833348946584 0.04398549630402267
3340000000.0 0.02742561182922582 -0.011393446006395169
3360000000.0 0.00901370166674113 -0.006517858335065238
3380000000.0 0.0045540925079110665 -0.0019963205681181226
3400000000.0 -0.009822143974618981 -0.015573741517762838
3420000000.0 0.028005561768038117 0.014036888956943471
3440000000.0 0.009654536071372774 -0.0403749251069821
3460000000.0 0.05058205396760263 -0.003953679448829945
3480000000.0 0.005256702028113528 0.06171396180508754
3500000000.0 0.06993228893562256 -0.030292160297811208
3520000000.0 -0.04309879530031718 -0.07988169293779929
3540000000.0 0.09668564237858095 0.045563334126036165
3560000000.0 -0.11956701339556883 0.018436817606068454
3580000000.0 0.1142869396047601 -0.0716497958795032
3600000000.0 0.11456446924822349 0.09763163694316314
3620000000.0 0.019400276047903408 0.16182128806404858
3640000000.0 -0.159975103570307 0.06595644857791282
3660000000.0 -0.17319798451465193 -0.059802547426257374
3680000000.0 -0.09117951583053768 -0.16574160675445743
3700000000.0 -0.06356405524300493 -0.17903313435768597
3720000000.0 0.11850236207387868 -0.14726376058128154
3740000000.0 0.17360631569227172 -0.06283961720348899
3760000000.0 -0.17529525136920368 0.03322182469417857
3780000000.0 0.16077930330787266 -0.0523563491936127
3800000000.0 -0.08600024172003808 -0.13709226227997628
3820000000.0 -0.14358320359519017 -0.05508135488346643
3840000000.0 -0.12026281407575037 -0.08307397061485178
3860000000.0 0.12861305715741694 0.07022235454261275
3880000000.0 0.10202223421831151 0.11283411598658609
3900000000.0 0.14684154972017213 -0.062263616240538874
3920000000.0 -0.1638547058399166 -0.011159305502322666
3940000000.0 0.10534076608447251 -0.1316523757778002
3960000000.0 0.17281554834146695 -0.011907891885672995
3980000000.0 0.10164389727926806 -0.14039745944054402
4000000000.0 0.06066963866924682 -0.15593457343243797
