!Created with skrf (http://scikit-rf.org).
# Hz S RI R 50.0 
!freq ReS11 ImS11
400000000.0 -0.6965102442757217 0.5243850511463569
420000000.0 0.1499061584641819 0.8553036919905351
440000000.0 0.816267821484509 -0.20201238229711932
460000000.0 0.014172031867078699 -0.7959837225569153
480000000.0 0.7161049639989057 -0.0392278425720843
500000000.0 -0.1689302824198471 -0.562622802559341
520000000.0 -0.4805444456135159 0.15424529796153014
540000000.0 0.07619626096096734 -0.4185329906115857
560000000.0 -0.24221037324923056 -0.2817703546319465
580000000.0 0.3192344679104238 -0.13343208722631844
600000000.0 -0.13739719870167236 -0.3216136879534293
620000000.0 0.19482285922226006 0.3073245569297636
640000000.0 0.35556815949825393 -0.1849014658766042
660000000.0 -0.40347475031597685 -0.07508099284082545
680000000.0 0.2144843157518312 -0.368187906491501
700000000.0 -0.4255886255027271 0.028759222344319997
720000000.0 -0.1313716957735505 0.3982470940784719
740000000.0 0.3437508879884469 -0.21756942466579657
760000000.0 -0.3506472694296392 -0.17188990927464032
780000000.0 0.28694885370027046 0.20616242995690595
800000000.0 0.24428129830474382 -0.20583624777402224
820000000.0 -0.24360754170461735 -0.12445276580038622
840000000.0 -0.23638719160227686 0.00891867993005314
860000000.0 0.08581158395647885 -0.18123600057177652
880000000.0 0.01784315399200766 0.15553653710563795
900000000.0 -0.10659873778727598 -0.01633618420941801
920000000.0 0.0622209712467619 0.04030315842446149
940000000.0 -0.02484913399280685 0.03576746947460676
960000000.0 0.022407220101800903 -0.042545007291970346
980000000.0 -0.054694388081626716 -0.038773574244640924
1000000000.0 0.001657385126774502 0.08289371419886046
1020000000.0 -0.01518198871685738 0.10161967018228439
1040000000.0 -0.02805114315791149 0.11642485379636375
1060000000.0 -0.12283770470336254 0.09721198976044464
1080000000.0 -0.08073154031075157 0.15416964067537148
1100000000.0 0.16242252701680435 -0.1165344078446957
1120000000.0 0.04057244484614751 0.21838215630253854
1140000000.0 0.18269272958417718 -0.1786324310197805
1160000000.0 -0.21397554658001572 -0.1844923322900097
1180000000.0 -0.08508098067171657 -0.30608224283077995
1200000000.0 0.21157506896358727 -0.2683604339290467
1220000000.0 -0.18193348590701394 0.32002248881484474
1240000000.0 0.37872427065967734 -0.08327403245361222
1260000000.0 -0.3300307704962485 -0.24467751596989007
1280000000.0 -0.33910586848457286 0.25661438622934113
1300000000.0 0.3885044453032051 0.19843826964545155
1320000000.0 0.4374966211695015 -0.022029717317894187
1340000000.0 0.4133998939735673 -0.14219119686187062
1360000000.0 0.4384825628103588 -0.0032072722952632836
1380000000.0 0.30965435342715103 -0.30672981919108144
1400000000.0 -0.3167039910650523 -0.28750405221234865
1420000000.0 -0.09998610905184599 0.39837781237981146
1440000000.0 0.38324909487588504 0.020300835835489354
1460000000.0 0.07228461116301704 -0.34502969685874396
1480000000.0 -0.31412863251640316 0.06349529381239315
1500000000.0 -0.11666555427368003 0.2626706251036187
1520000000.0 0.11040593503162031 0.23296159703046931
1540000000.0 -0.17827112532948075 -0.14253725942665252
1560000000.0 0.04384594521004571 -0.18897694160614092
1580000000.0 0.13903420478742815 0.08978340376346634
1600000000.0 0.09460807489410998 -0.09288987238685452
1620000000.0 0.10355273239040724 0.00017065710809239398
1640000000.0 -0.02988344495802769 0.07245730829778912
1660000000.0 0.03407852104919859 -0.042525017320034955
1680000000.0 0.022873719121151773 0.027537424881672636
1700000000.0 0.015239290211917665 0.01668374809124907
1720000000.0 0.004495856950280516 0.004626781185388803
1740000000.0 -0.015552321656007532 -0.001194487998040315
1760000000.0 -0.02911288453006899 -0.013951917880714907
1780000000.0 0.05457907578092241 -0.02757618230465546
1800000000.0 -0.0811466068608772 0.04659695615310069
1820000000.0 -0.07873861954518896 0.0979034999701705
1840000000.0 0.08827276745137698 -0.1384700713251831
1860000000.0 -0.1561574971370073 0.12695959515468488
1880000000.0 0.19838030433198856 -0.13602871594908125
1900000000.0 -0.24853754597716954 0.13775908321317187
1920000000.0 0.2232348167645473 -0.22721581218126496
1940000000.0 -0.33144595236988994 0.12049466037557315
1960000000.0 0.3529768271986341 0.14021331799889142
1980000000.0 -0.11697401926332052 -0.38026970253737813
2000000000.0 -0.4028623584585862 -0.09924171986295267
2020000000.0 -0.13063644804570573 0.4042943508904936
2040000000.0 0.13771972017374826 0.4100297679743357
2060000000.0 0.43431931659458284 -0.029441050201099946
2080000000.0 0.21335496746200255 -0.3771343285878763
2100000000.0 -0.005675820787944774 -0.4255254774857498
2120000000.0 -0.2639683977519634 -0.32137406461104323
2140000000.0 -0.28546947882274626 -0.28786569829941044
2160000000.0 0.12241548592087792 -0.3725027830811209
2180000000.0 -0.09405295926692538 -0.3676892687905108
2200000000.0 -0.3297226692323426 -0.16264409654976517
2220000000.0 -0.34817522692087677 0.07477865119639998
2240000000.0 -0.20585528600981817 0.2853885382133845
2260000000.0 -0.043929262065075185 0.3485394802749997
2280000000.0 0.25682566893970354 0.24594022549747943
2300000000.0 0.30868637280516376 -0.20099048891770266
2320000000.0 -0.19699515205826357 -0.3359740660180314
2340000000.0 -0.3594604535025402 0.21820568446783872
2360000000.0 0.4500961095494243 0.10077971752088856
2380000000.0 -0.4562364382909252 -0.2249712418302786
2400000000.0 0.5264589677662779 0.18542555004527356
2420000000.0 -0.582024050709985 0.17799901440872198
2440000000.0 0.3480018579672685 -0.554840080444743
2460000000.0 0.10033776158348984 0.6866569130148692
2480000000.0 -0.42390446760798306 -0.5866028138204296
2500000000.0 0.49788691000935953 0.5508514268731044
2520000000.0 -0.3704171555399935 -0.6563326241040774
2540000000.0 -0.020499269356008657 0.7548383882383878
2560000000.0 0.489000869486789 -0.5688293551797899
2580000000.0 -0.7232921706651696 -0.13450892574844828
2600000000.0 0.39652431887298184 0.5923970338696546
2620000000.0 0.24472837467308153 -0.6386623303290087
2640000000.0 0.031993280286567574 -0.6471612262892489
2660000000.0 -0.43754144344813 0.41706678170087447
2680000000.0 0.5553880445014788 0.06333473609924097
2700000000.0 -0.2787952623544396 -0.43004788702525437
2720000000.0 -0.07522454670066511 0.4598586938829037
2740000000.0 0.37049834665700043 -0.20179555234562854
2760000000.0 -0.37910628845924677 0.05391490641867694
2780000000.0 0.3488805318593937 0.05025277951677088
2800000000.0 -0.324923341485611 0.03792059834909877
2820000000.0 0.1400383576831505 -0.2764976141996066
2840000000.0 0.03266159370185233 0.2962150263459047
2860000000.0 -0.2585322063749288 -0.13952619041091788
2880000000.0 0.26196262400221154 -0.13115559130616647
2900000000.0 -0.10913131841491555 0.2721099810453465
2920000000.0 0.22385498102277557 -0.19301455971253417
2940000000.0 -0.2785545944063029 -0.10942887405958916
2960000000.0 -0.26950493251023644 0.1376122206411557
2980000000.0 -0.2504787198804162 0.17550340255174848
3000000000.0 -0.30707561723929977 0.027100527999939387
3020000000.0 -0.16050273536928866 -0.2644525239599286
3040000000.0 0.28726018166315376 -0.10974868005879142
3060000000.0 -0.1876805899775853 0.24136796894691678
3080000000.0 0.0883194014932549 -0.2878177316306325
3100000000.0 -0.08440487658590516 0.28370073124798323
3120000000.0 -0.07695721185462277 -0.27990126959694067
3140000000.0 0.20602069669214318 0.19226362329247224
3160000000.0 -0.2495438093535953 0.09596853558300132
3180000000.0 0.23281742276021183 0.09610768898165428
3200000000.0 -0.14282485841033468 0.1774679886257064
3220000000.0 -0.13439964994760262 -0.15082245251043222
3240000000.0 0.1675075037832429 -0.042914762296446855
3260000000.0 -0.03409774921675327 0.1371365260407398
3280000000.0 0.05765747926343756 -0.09383815260530957
3300000000.0 -0.043500610408553984 0.06766780426450027
3320000000.0 0.049063005691593116 0.02267759966371755
3340000000.0 0.029708920778704247 -0.003726156995526032
3360000000.0 0.008966916293155101 0.006290918620075539
3380000000.0 0.0038879645996450466 0.003613465588028547
3400000000.0 -0.01904585541643785 0.002092860451485904
3420000000.0 0.028148257875726394 0.015470095531906529
3440000000.0 0.004640472698741858 -0.04237589320986907
3460000000.0 0.05179780715891067 -0.0006388154241652987
3480000000.0 0.03712959747677914 0.050859902201808485
3500000000.0 0.07595667140077351 -0.013241494558339489
3520000000.0 -0.062010765517947194 -0.06796784774906738
3540000000.0 0.10229677924534593 0.034111857689037184
3560000000.0 -0.11240292213808242 0.047889570952727285
3580000000.0 0.09022746788037447 -0.10143016225591195
3600000000.0 0.12773637510283298 0.08259181036184352
3620000000.0 0.027394180750600593 0.1618927639514176
3640000000.0 -0.15303494735060688 0.08276888489202265
3660000000.0 -0.177073382965887 -0.05138394044011273
3680000000.0 -0.11084371546479907 -0.1547902483427738
3700000000.0 -0.06145315773534664 -0.18108375958065115
3720000000.0 0.10297979726708265 -0.16031266220804152
3740000000.0 0.1772858100445306 -0.054409989060890805
3760000000.0 -0.177668715519814 -0.029804508623859693
3780000000.0 0.16253499545060865 0.05102358130586093
3800000000.0 0.006470737269066731 -0.16288324099992305
3820000000.0 -0.11522490201481449 -0.10328173320828603
3840000000.0 -0.05861596009867255 -0.13557443610495037
3860000000.0 0.1091384471457141 0.10042933888668791
3880000000.0 0.06981034460742148 0.136423476382462
3900000000.0 0.15882518146073096 0.015687831095645997
3920000000.0 -0.14693647392685436 -0.07456204832592349
3940000000.0 0.1603160077979935 -0.054759078052349384
3960000000.0 0.15786561875284869 0.07250339682491595
3980000000.0 0.12616745410077337 -0.11895152538466905
4000000000.0 0.10639165980689576 -0.12838226378660553
