!Created with skrf (http://scikit-rf.org).
# Hz S RI R 50.0 
!freq ReS11 ImS11
400000000.0 -0.7366704392076829 0.46573494041452546
420000000.0 0.06812026620996924 0.8643320191912502
440000000.0 0.8326968697307195 -0.12186617161146604
460000000.0 -0.030578896793990628 -0.796406125561139
480000000.0 0.712309257447963 -0.06951029596585792
500000000.0 -0.006984153619878705 -0.586284621531604
520000000.0 -0.43297802187910367 0.26512428188199494
540000000.0 0.054313250841765894 -0.4219999759306797
560000000.0 -0.27360146445422673 -0.25048209279501743
580000000.0 0.3269200887205206 0.10737261938979795
600000000.0 -0.2746165628379337 -0.22601549323378398
620000000.0 0.21917294371548443 0.2890545864673486
640000000.0 0.3902086380830655 -0.07680154683294645
660000000.0 -0.39453294076570755 -0.11970727009441474
680000000.0 0.23862076787817957 -0.3516499467118864
700000000.0 -0.4196119213081289 0.0686570425845577
720000000.0 -0.248258248566682 0.33650568442422046
740000000.0 0.32276280846975464 -0.24858309917140806
760000000.0 -0.3591444134687731 -0.15146978764244828
780000000.0 0.2914192079688445 0.19868406819937373
800000000.0 0.2616374665271609 -0.1819200048134727
820000000.0 -0.2700642249225898 0.042802183580079395
840000000.0 -0.23708029484884513 0.00027479167870265634
860000000.0 0.02393885318076633 -0.19916749948475446
880000000.0 -0.05387929864201359 0.14842881443999498
900000000.0 -0.09093053036327212 0.05858878027561896
920000000.0 0.06468250460792194 0.037063115220914856
940000000.0 -0.030519580213907282 -0.030709096774534334
960000000.0 -0.001091711200299554 -0.04706409543089331
980000000.0 -0.056498850475420255 -0.03582964816755333
1000000000.0 0.06755176795918623 0.04795652894335853
1020000000.0 0.016988361195101012 0.10095810946544734
1040000000.0 0.04272072530621102 0.11222783458181501
1060000000.0 -0.10510333230226131 0.11692522813573183
1080000000.0 -0.049182352538604396 0.16828883934601507
1100000000.0 0.17210154018775556 -0.10227732777740166
1120000000.0 0.05586200421824811 0.21560776248719096
1140000000.0 0.21888840011452754 -0.13332217249027922
1160000000.0 -0.19827797771047898 -0.20248013504653464
1180000000.0 -0.03227413633843162 -0.315645290197946
1200000000.0 0.25366503750966557 -0.22942717626695813
1220000000.0 -0.2303079868567369 0.2862538669932355
1240000000.0 0.3859749553787623 -0.03735429573304315
1260000000.0 -0.30863930357580827 -0.270078079527198
1280000000.0 -0.3569736555972243 0.22944774533965798
1300000000.0 0.38920658015348464 0.19614481722775046
1320000000.0 0.4361865586170708 -0.03668667844110961
1340000000.0 0.4140714228836917 -0.13798553768625052
1360000000.0 0.4383582956019139 -0.0117588440794731
1380000000.0 0.27088305140269875 -0.3408731287639931
1400000000.0 -0.338500497205808 -0.26187268034465033
1420000000.0 -0.02934424744497024 0.4097629121900833
1440000000.0 0.38391198902766205 0.014090403966047474
1460000000.0 0.02849134129021169 -0.35260743002979894
1480000000.0 -0.31136165424608647 0.078880566667167
1500000000.0 -0.13948788445844504 0.25190551512186166
1520000000.0 0.07564744642218235 0.24795070329273444
1540000000.0 -0.1303159385792821 -0.18863364640853092
1560000000.0 0.07966566285562145 -0.17772803022940886
1580000000.0 0.1056280831130058 0.12799775984020878
1600000000.0 0.12435028911273749 0.04454582331800774
1620000000.0 0.09660697036176018 0.03706550815877638
1640000000.0 -0.043629387034281944 0.06360224084050742
1660000000.0 0.0524524503032113 0.0133442540609839
1680000000.0 0.028828399569938677 0.020011554286102788
1700000000.0 0.008641290835070406 0.019663755604708837
1720000000.0 0.005366742507477851 -0.00032933734136976196
1740000000.0 0.00457132547643554 0.014772290114622087
1760000000.0 0.019174006769719035 -0.02601700255972019
1780000000.0 0.0565358521166666 0.021527574204125852
1800000000.0 -0.09144581639291866 -0.013508140005581114
1820000000.0 -0.10706742757371494 0.0662207336592047
1840000000.0 0.08375010065691499 -0.1399227963623977
1860000000.0 -0.16617971742325188 0.11223265715508164
1880000000.0 0.18992622097578715 -0.14633840434281967
1900000000.0 -0.2378034746373343 0.15494855908624333
1920000000.0 0.2038501065193675 -0.2445160533230571
1940000000.0 -0.3275977704162389 0.12941439809969038
1960000000.0 0.3617129058512024 0.11607779644883841
1980000000.0 -0.1265113590625874 -0.37789008343179525
2000000000.0 -0.40983911811152446 -0.06858121979896768
2020000000.0 -0.1350647039262058 0.4033859740488593
2040000000.0 0.13878473677277658 0.41106181839939265
2060000000.0 0.4356769444560847 0.018795609816035532
2080000000.0 0.24679695416109734 -0.35762265073672916
2100000000.0 0.041166041394129986 -0.424742339800566
2120000000.0 -0.20098874762412572 -0.3652214130438539
2140000000.0 -0.2773697527519923 -0.2963313705697645
2160000000.0 0.1920060984078676 -0.34262868523084533
2180000000.0 -0.0321422217392491 -0.37820925504257713
2200000000.0 -0.29390993702881807 -0.2211804496271699
2220000000.0 -0.3543137000230787 0.03561281471144228
2240000000.0 -0.23796281697992624 0.2582691848427643
2260000000.0 -0.04807285325952424 0.3477938438926723
2280000000.0 0.23705917272271304 0.2636391028180946
2300000000.0 0.3220304056853866 -0.17682078080737074
2320000000.0 -0.1608654319771906 -0.35446083587797667
2340000000.0 -0.35738829089191043 0.22114982333132654
2360000000.0 0.4451429058197562 0.11937792517647973
2380000000.0 -0.4561114801122236 -0.22448962679404325
2400000000.0 0.5408721311278719 0.13759983275067791
2420000000.0 -0.5806202642816719 0.18384239954046896
2440000000.0 0.38193867186886415 -0.5326377476243941
2460000000.0 0.11336770088737058 0.6851365116348835
2480000000.0 -0.3718527126384805 -0.6225712371576474
2500000000.0 0.4722407336524431 0.574699920061121
2520000000.0 -0.357122133143797 -0.6647016662302261
2540000000.0 0.015091764821920602 0.7562149156617961
2560000000.0 0.550976596436057 -0.510920502963164
2580000000.0 -0.7295617219741154 -0.10464045833060925
2600000000.0 0.2705496815055374 0.6605258779089035
2620000000.0 0.3654454305364688 -0.5784451675728943
2640000000.0 0.0980381763139312 -0.6410251817698853
2660000000.0 -0.5223129150804393 0.30424096778046705
2680000000.0 0.532470488881809 0.1681387334862504
2700000000.0 -0.2227544952521166 -0.4613985716356392
2720000000.0 -0.10452582591034595 0.45327387398912294
2740000000.0 0.38281680850324806 -0.1751046703297245
2760000000.0 -0.38131629600714667 0.01546605074535317
2780000000.0 0.35008596007010506 0.03286225061064497
2800000000.0 -0.3200995948755281 0.06356281792739907
2820000000.0 0.10458758759538367 -0.29152242818817403
2840000000.0 0.10627283116982973 0.2780593293727574
2860000000.0 -0.2808794299705488 -0.08694380057014872
2880000000.0 0.22086660475052647 -0.19293777382045635
2900000000.0 -0.0961021271771593 0.27839261363550943
2920000000.0 0.21752746051607286 -0.20238320148894626
2940000000.0 -0.27944198185442004 -0.11110602901253207
2960000000.0 -0.26646161710594135 0.1461677221766923
2980000000.0 -0.25817764496189466 0.16768467813853685
3000000000.0 -0.30764659155884666 -0.02237264326001803
3020000000.0 -0.145354292937112 -0.2753012021131883
3040000000.0 0.307280953110458 -0.025397735120511477
3060000000.0 -0.2799186601123205 0.12392407470578937
3080000000.0 0.1388253653772235 -0.26803929500165413
3100000000.0 -0.13829647595915162 0.2618676218392413
3120000000.0 -0.02040651411159308 -0.2897419307458687
3140000000.0 0.18427678726111824 0.2134777581524573
3160000000.0 -0.26544420979385114 0.028348711834653394
3180000000.0 0.2041499182589616 0.14656692925379186
3200000000.0 -0.17620692328462487 0.14430624193331984
3220000000.0 -0.10082129667144213 -0.17466201348756466
3240000000.0 0.15934916865517454 -0.06571665565614564
3260000000.0 -0.05552919470502156 0.12887057846485203
3280000000.0 0.06912753208741508 -0.0846826256848033
3300000000.0 -0.04680832100520061 0.0647696174222653
3320000000.0 0.04313857225875699 0.031086661891897058
3340000000.0 0.018825475300586324 -0.02279450586814817
3360000000.0 -0.008675864458869321 -0.006590886388442798
3380000000.0 0.0007546578202300293 0.005180095830150127
3400000000.0 0.007385001212260812 -0.017148444372392754
3420000000.0 -0.00838597499649348 0.030311006633436843
3440000000.0 0.022382684011305783 -0.03538013538915417
3460000000.0 0.05040666264536396 -0.004601408334706228
3480000000.0 -0.020650320488681807 0.058155908106225916
3500000000.0 0.07601316851191353 -0.008803885600511511
3520000000.0 -0.07234026239500595 -0.055226146880783304
3540000000.0 0.09372596986143959 0.05122738909115994
3560000000.0 -0.12120737421982268 0.0007860908534346187
3580000000.0 0.10968868418257825 -0.07811693835999496
3600000000.0 0.10470637043773139 0.1079150487782916
3620000000.0 -0.04392468264101175 0.15626342815723795
3640000000.0 -0.16054615661879457 0.06547573744727417
3660000000.0 -0.16799013963844941 -0.07199267941317118
3680000000.0 -0.07463956520186457 -0.17335436965670453
3700000000.0 -0.023742820080901086 -0.18873928262445186
3720000000.0 0.11472625391509536 -0.15072710750797305
3740000000.0 0.17417037018610929 -0.06040209746169139
3760000000.0 -0.17757257020860592 0.013560290706178615
3780000000.0 0.16635935221906434 -0.03095157265936519
3800000000.0 -0.10258186142287917 -0.12476860673690957
3820000000.0 -0.12857137022892653 -0.08329004410683066
3840000000.0 -0.09530204701329188 -0.11112667687401943
3860000000.0 0.12676751301174408 0.0734371999010599
3880000000.0 0.06663227274954106 0.137511499002552
3900000000.0 0.15105281888777816 -0.048488424350128866
3920000000.0 -0.15682791577331162 -0.0463669493307749
3940000000.0 0.11536836222278654 -0.12278867020984678
3960000000.0 0.16765366865902764 0.04167318010601739
3980000000.0 0.1470885977737814 -0.09031360541440403
4000000000.0 0.1195253040510644 -0.11626933497622595
