!Created with skrf (http://scikit-rf.org).
# Hz S RI R 50.0 
!freq ReS11 ImS11
400000000.0 -0.5820672603843337 0.6487722505255301
420000000.0 0.42929902759954164 0.7548934771321579
440000000.0 0.6642777892570088 -0.5136848530704444
460000000.0 -0.4426002916899838 -0.6605152959818344
480000000.0 0.46470497554197154 -0.5393570777826474
500000000.0 -0.40724779862015403 -0.4119661094529764
520000000.0 -0.41307670845827604 0.2782629584543527
540000000.0 -0.01614417149409323 -0.41705067048115096
560000000.0 -0.33918591917486046 0.13212729013150043
580000000.0 0.3100794302264054 0.1324841186407634
600000000.0 0.22787438514361708 -0.2601678438757789
620000000.0 -0.05874141041579134 0.3552075726066932
640000000.0 0.39216712083212646 0.06033515511754615
660000000.0 -0.2057738225789796 -0.35526774023848895
680000000.0 0.3860982903659439 -0.18646251369669162
700000000.0 -0.4196065923440255 -0.0928031824702765
720000000.0 -0.16834264282650666 0.3870145032068962
740000000.0 0.2667094032479223 -0.31286940200903757
760000000.0 -0.3902326241437005 0.02202085220952614
780000000.0 0.31537931282580844 0.16096969463250926
800000000.0 0.22361887855862678 -0.22766933158507807
820000000.0 -0.2623397733501581 -0.07935761612778243
840000000.0 -0.22607600214424062 0.0703484814202595
860000000.0 -0.013539377468639379 -0.20047779965882845
880000000.0 0.07187546931496577 0.13924824956820148
900000000.0 -0.1076634837929825 -0.014187103527841253
920000000.0 0.04374898537188474 -0.058982557249023584
940000000.0 0.0384412764736219 -0.0178387240380643
960000000.0 -0.045819875103130514 -0.012537133407757741
980000000.0 -0.06417160955672667 0.01890518279435336
1000000000.0 0.019097102200409107 0.08082496752107866
1020000000.0 0.044396835162057946 0.0925682711109551
1040000000.0 0.01319869567064219 0.11760430744203197
1060000000.0 -0.1164216152073239 0.102868037252823
1080000000.0 -0.091448632466385 0.14729034859162246
1100000000.0 0.16563574361358532 -0.11105756347746365
1120000000.0 0.014200071316077884 0.22192512369822337
1140000000.0 0.16564673151525858 -0.194598207293967
1160000000.0 -0.2245727347386305 -0.17098457550305
1180000000.0 -0.10337562536220653 -0.3003012776690361
1200000000.0 0.19064051130544965 -0.28251694982195374
1220000000.0 -0.1662648326361167 0.326994389362889
1240000000.0 0.37482656398827535 -0.09692106994338102
1260000000.0 -0.3242297672578852 -0.25070148245887275
1280000000.0 -0.3099071265039114 0.2901413502416036
1300000000.0 0.3868030837871202 0.19931828264447726
1320000000.0 0.4371317790561749 -0.014916472672366402
1340000000.0 0.4181367500109722 -0.12632289629319274
1360000000.0 0.438248593702163 0.008059992791590273
1380000000.0 0.271241500004489 -0.34078876580071954
1400000000.0 -0.3282895031519644 -0.27443469165225304
1420000000.0 -0.062477401341731895 0.4049476227282006
1440000000.0 0.381889562440994 0.024202988375067958
1460000000.0 0.07887724003360361 -0.3431933014673188
1480000000.0 -0.3121797248267726 0.07011061249487893
1500000000.0 -0.15941498725105102 0.2384985584110221
1520000000.0 0.016868327034919108 0.25699972352764355
1540000000.0 -0.11677451186287306 -0.19607756879154295
1560000000.0 0.0859464488694074 -0.1739746651773866
1580000000.0 0.1485756310550805 0.07329313817748091
1600000000.0 0.10169967083256075 -0.08434690047361412
1620000000.0 0.09787260296769365 -0.03291542137813573
1640000000.0 0.03995775270795981 0.06690363384243715
1660000000.0 -0.025958404813096917 -0.04789838016033025
1680000000.0 0.034108662963242116 -0.009920818809537688
1700000000.0 0.007692451505572646 -0.02057048370034716
1720000000.0 0.005505654665970947 0.003421567561746919
1740000000.0 -0.005821050998994545 -0.014838409131499603
1760000000.0 0.031427885280036885 -0.00893839335412374
1780000000.0 -0.03991625670660276 -0.04660905129104842
1800000000.0 -0.01910056662673755 0.09062331350876954
1820000000.0 -0.022639900294653195 0.12363297726077899
1840000000.0 0.0008402758999858632 -0.1635372629191024
1860000000.0 -0.10171963420281392 0.17315872179424302
1880000000.0 0.17608579523543902 -0.1652497621688048
1900000000.0 -0.22460798801836213 0.17616103451246856
1920000000.0 0.22023630284353513 -0.23238498609711708
1940000000.0 -0.33136335729156297 0.1254636568647708
1960000000.0 0.3683331061799353 0.09765275787000358
1980000000.0 -0.12962212341267398 -0.3772730894134095
2000000000.0 -0.4103678724176108 -0.06724357703642632
2020000000.0 -0.11571525490425034 0.4100027892569217
2040000000.0 0.16765871139976135 0.3992322855670768
2060000000.0 0.4352447797723311 -0.0069579128267495865
2080000000.0 0.1950540550276409 -0.3860188383935732
2100000000.0 -0.0592484539786704 -0.42033275037602086
2120000000.0 -0.2859173310676941 -0.30074544986751206
2140000000.0 -0.35449320116784855 -0.1926578896566164
2160000000.0 0.04775671261891534 -0.3877378416991443
2180000000.0 -0.20254976424446236 -0.3192925732630387
2200000000.0 -0.3551342223207625 -0.08912304923147683
2220000000.0 -0.32336788710648856 0.1465843281885404
2240000000.0 -0.0848488379957202 0.3407718491917716
2260000000.0 0.12866428136996308 0.3277186775602192
2280000000.0 0.3437506014310998 0.09348882394975959
2300000000.0 0.15039755433776975 -0.33755242273483305
2320000000.0 -0.34944496163853567 -0.17498677968713874
2340000000.0 -0.1516658104182431 0.3943667436688914
2360000000.0 0.4002661247987097 -0.23420757918885873
2380000000.0 -0.4903036817965071 0.1451611625980747
2400000000.0 0.5068048530778151 -0.23871943165485732
2420000000.0 -0.32831807521876155 0.5139059969586817
2440000000.0 -0.07439363539218481 -0.6511535205999942
2460000000.0 0.4853340211662955 0.4951006353316918
2480000000.0 -0.678782147510083 -0.24710743261342666
2500000000.0 0.7152349490340657 0.19151566910510864
2520000000.0 -0.6491986860036599 -0.3767355247517473
2540000000.0 0.3353300004011907 0.6723564170855376
2560000000.0 0.20866428945300777 -0.7147082246215749
2580000000.0 -0.7046590738365104 0.18916083749305496
2600000000.0 0.5853135278581036 0.39405203359533236
2620000000.0 0.011689226414217681 -0.6754705269897493
2640000000.0 -0.17572226062677498 -0.6150345664064891
2660000000.0 -0.35752402202991257 0.47685513228890425
2680000000.0 0.5492476905392019 0.021476999938850796
2700000000.0 -0.2838427107538669 -0.41558814001622324
2720000000.0 -0.06625244339328888 0.4521706354345105
2740000000.0 0.36558180352520975 -0.1947058142448078
2760000000.0 -0.3709661485626129 0.060205046761801696
2780000000.0 0.34540083654616516 0.02579412604127776
2800000000.0 -0.3178322424078761 0.04873602332105732
2820000000.0 0.11381747618978844 -0.2827201531675875
2840000000.0 0.10817696808132314 0.2728735992944666
2860000000.0 -0.28432460737753246 -0.05632058141689821
2880000000.0 0.1961741916082204 -0.21363765474805077
2900000000.0 -0.03881952262869472 0.28862935875276496
2920000000.0 0.1768631453198094 -0.23522101911989568
2940000000.0 -0.2951432133206588 -0.0377302586217777
2960000000.0 -0.21164888586979355 0.21461367365599698
2980000000.0 -0.24097893317321467 0.18664728786822926
3000000000.0 -0.30588323749268576 -0.026079769140736127
3020000000.0 -0.15104133917260001 -0.26859627411638876
3040000000.0 0.2962373833280508 -0.07532174361466923
3060000000.0 -0.22399728115956488 0.20612810116836078
3080000000.0 0.1269813790524972 -0.2717858051853358
3100000000.0 -0.1611453979183281 0.24675058803867617
3120000000.0 -0.0051744990641380065 -0.2904912077826252
3140000000.0 0.17876336987282146 0.21807033694751812
3160000000.0 -0.26650546792874624 -0.012671288159745199
3180000000.0 0.16915589928748181 0.18587445411323397
3200000000.0 -0.2002030436722624 0.10777870379785467
3220000000.0 -0.06565921615574997 -0.19077974152548535
3240000000.0 0.16436170334464392 0.05258780592854789
3260000000.0 -0.1268405797537341 0.0604462371572636
3280000000.0 0.10895562003482406 3.454580327175656e-05
3300000000.0 -0.0685708221393149 -0.038540490793757216
3320000000.0 -0.03782074290159281 0.035995555649752195
3340000000.0 -0.02721250598457392 0.009912909878956561
3360000000.0 -0.0029211890505179516 -0.009360017067557205
3380000000.0 -0.00540258250678388 -0.0005922471045674715
3400000000.0 0.019160092715504996 -0.002871503367034391
3420000000.0 -0.022203193962595562 -0.023366150482939413
3440000000.0 -0.031231800873460985 0.028566764203835644
3460000000.0 -0.003312029160204317 -0.051231352730197355
3480000000.0 0.06228582122626679 -0.006598723449283552
3500000000.0 0.021209203835249945 -0.0742705742620443
3520000000.0 -0.08745284827629975 -0.02979331064452947
3540000000.0 0.10688703906215402 -0.008084751731922172
3560000000.0 -0.09677856343871433 0.07418538581510323
3580000000.0 0.04535658482131497 -0.12822867080608266
3600000000.0 0.1499195804267701 0.026972986046288772
3620000000.0 0.05737617328305364 0.15341276977580695
3640000000.0 -0.13684462848673407 0.106693209311086
3660000000.0 -0.1786625214257435 -0.04227752772198255
3680000000.0 -0.10035416953363037 -0.16063496606910418
3700000000.0 -0.05474889922032601 -0.18201366680850262
3720000000.0 0.10226092351472434 -0.160279614156504
3740000000.0 0.18031476979531985 -0.042739625081280916
3760000000.0 -0.17990040394846538 -0.004482849910449081
3780000000.0 0.1703355644214344 -0.00390288482908841
3800000000.0 -0.04981372418336909 -0.15560534316038516
3820000000.0 -0.14870177011167385 -0.04367765486518179
3840000000.0 -0.13351081987969218 -0.061864874344711676
3860000000.0 0.132165339393426 -0.06423299718120476
3880000000.0 0.1520226551886335 0.0019607166683431277
3900000000.0 0.07764674720327099 -0.1386145240200857
3920000000.0 -0.11531315788977317 0.11621015994015822
3940000000.0 0.008229987161558223 -0.1685389821766507
3960000000.0 0.1580369139431608 -0.07035793184428636
3980000000.0 0.03321116083192885 -0.1698803663077687
4000000000.0 0.07587022365067699 -0.148140594407177
