!Created with skrf (http://scikit-rf.org).
# Hz S RI R 50.0 
!freq ReS11 ImS11
400000000.0 -0.5824981223670381 0.6511506080814677
420000000.0 0.43009435407300095 0.7549743067939879
440000000.0 0.7116143329275924 -0.4473334090088026
460000000.0 -0.4372639171203655 -0.6644396964974351
480000000.0 0.48475234080065316 -0.5212020311950412
500000000.0 -0.37569075819201714 -0.4403093604744849
520000000.0 -0.41681352364869945 0.27274979746970063
540000000.0 -0.001151241038985643 -0.41723624130460774
560000000.0 -0.3377736944066717 0.13450257682599523
580000000.0 0.31388308849740565 0.12331452378394905
600000000.0 0.2234092463485694 -0.2649167720517223
620000000.0 -0.04172400220387665 0.3583384989142935
640000000.0 0.39065568486931845 0.07295065851101735
660000000.0 -0.17128157515507011 -0.3731393280975032
680000000.0 0.38488125745390156 -0.1880508382388104
700000000.0 -0.4215506932209883 -0.0831215108283604
720000000.0 -0.1629665578924203 0.3896288179879506
740000000.0 0.23894085232958434 -0.3329339181209979
760000000.0 -0.3902659572739921 0.021236600001978384
780000000.0 0.3179427274277483 0.15517316835859504
800000000.0 0.2178269336074956 -0.2329152581249544
820000000.0 -0.265466757645688 -0.0675942706413434
840000000.0 -0.22178813957106247 0.08304099317574846
860000000.0 0.005144335534783273 -0.2009714462519665
880000000.0 0.060736938318348345 0.14409078992196783
900000000.0 -0.10525876167303104 -0.02542664509556718
920000000.0 0.04308599109731502 -0.05894087376602981
940000000.0 0.04207174930978556 -0.004374953771640326
960000000.0 -0.042024585649016094 -0.021142042751016738
980000000.0 -0.05910513169213401 0.030409498189413846
1000000000.0 0.042599880621348535 0.07116469513077259
1020000000.0 0.061277688369510586 0.08237195274097167
1040000000.0 0.03104069036553697 0.11427511378621183
1060000000.0 -0.104856059141189 0.11500396624060974
1080000000.0 -0.09718588594063583 0.14357215008382188
1100000000.0 0.14140241465430253 -0.14082471377344247
1120000000.0 0.0294950199244686 0.22067467216253517
1140000000.0 0.16607865834765295 -0.19439007329625524
1160000000.0 -0.2175361636285391 -0.17980796320444728
1180000000.0 -0.09263736633807605 -0.3038108575791269
1200000000.0 0.17518957852261338 -0.29281529560718833
1220000000.0 -0.13660252339523987 0.3407237788505395
1240000000.0 0.36981012784227724 -0.1137945588312302
1260000000.0 -0.33650981471687563 -0.23376467199868683
1280000000.0 -0.3217481747101382 0.2764129996980817
1300000000.0 0.39052499607171354 0.191453575664726
1320000000.0 0.4365215100029975 -0.02034338972153305
1340000000.0 0.4129438043619027 -0.14203027040940622
1360000000.0 0.4381585531577177 -0.005343026732248239
1380000000.0 0.25787395782429223 -0.3512022312521978
1400000000.0 -0.3463154936093089 -0.2513645843091776
1420000000.0 -0.025039340705311525 0.4090398567287489
1440000000.0 0.3826318921734514 -0.0022512971913879166
1460000000.0 0.05494594309335801 -0.3477239745538805
1480000000.0 -0.3170289646179638 0.042705874638950946
1500000000.0 -0.13765037890023418 0.2511892856696943
1520000000.0 0.05287578835936641 0.25190153508399743
1540000000.0 -0.11179722857124638 -0.1992746485666203
1560000000.0 0.11426369802836167 -0.15797696897786684
1580000000.0 0.12758252092246056 0.10719905179454968
1600000000.0 0.09301328046955352 -0.0943071337097152
1620000000.0 0.09814894062735557 -0.03439335916871887
1640000000.0 0.041681465321649284 0.0660427461755894
1660000000.0 -0.03811113457266229 -0.03887024156484912
1680000000.0 0.03569051339241513 -0.002703351276437461
1700000000.0 0.0019485141929603907 -0.02164259992481598
1720000000.0 0.0057466968660552795 -0.0027186585846690706
1740000000.0 0.0021582800650938594 0.01575249598191016
1760000000.0 0.025375430226560157 0.020722154742408763
1780000000.0 -0.0355609887583237 -0.04979209758409528
1800000000.0 -0.04157394814949311 0.08258422206780346
1820000000.0 -0.028143942497676024 0.12240924400182922
1840000000.0 0.02808737671566491 -0.16098924441335674
1860000000.0 -0.12311534116974557 0.15863111794836685
1880000000.0 0.18596442300161906 -0.15326687801681316
1900000000.0 -0.23186802525252254 0.1656964728729283
1920000000.0 0.2106205394811623 -0.24047351196391548
1940000000.0 -0.32738735233749694 0.13503848979934824
1960000000.0 0.37094434994544456 0.0868414972684792
1980000000.0 -0.17086937574747768 -0.3604864494217181
2000000000.0 -0.413269904114153 -0.049181243953354395
2020000000.0 -0.09113164461444215 0.4161297226075347
2040000000.0 0.17885080839437 0.39462110933930644
2060000000.0 0.43432111210094543 -0.03314214484175774
2080000000.0 0.18381803280357556 -0.3923050402082285
2100000000.0 -0.055559667779760145 -0.4217421003556001
2120000000.0 -0.28423017335539497 -0.30314622494735366
2140000000.0 -0.3237189535409926 -0.2418601316565184
2160000000.0 0.08916561793918629 -0.3808488227965522
2180000000.0 -0.11954794560259643 -0.35892415799123134
2200000000.0 -0.3526929946754428 -0.09820395810172712
2220000000.0 -0.3223484460036283 0.14915472151581508
2240000000.0 -0.07294601209577278 0.34326177470029534
2260000000.0 0.10903365748387121 0.3340618597848877
2280000000.0 0.3446785993986427 0.0880830069131663
2300000000.0 0.1302204560777342 -0.3453368963359709
2320000000.0 -0.3500418711768408 -0.17247982065256226
2340000000.0 -0.1538746235921254 0.3927376301293824
2360000000.0 0.3981535985220431 -0.2366975877771133
2380000000.0 -0.48911774746925557 0.1476285826785752
2400000000.0 0.5090615543543676 -0.23323563683361032
2420000000.0 -0.31968598452126346 0.5194323953406277
2440000000.0 -0.0747709165248081 -0.651332238985699
2460000000.0 0.49509122851928217 0.48580394576293595
2480000000.0 -0.6644428802026998 -0.28533055758328696
2500000000.0 0.6853906422175157 0.283767852368223
2520000000.0 -0.6451861871203808 -0.3858654029871217
2540000000.0 0.2972231333893929 0.6915532695836558
2560000000.0 0.21195736970275775 -0.7148854910074536
2580000000.0 -0.6899455770769015 0.2392561865239355
2600000000.0 0.5587646472766518 0.4329168983322949
2620000000.0 0.0761765354375539 -0.6720525083885865
2640000000.0 -0.19824833050442747 -0.6085131663079155
2660000000.0 -0.37808663701120837 0.4607321764869917
2680000000.0 0.5494998558811311 0.022100113981636825
2700000000.0 -0.286269690619201 -0.41450934733601486
2720000000.0 -0.060567670848154856 0.4536559570489152
2740000000.0 0.3790638650589785 -0.16813307437459674
2760000000.0 -0.37507221583029193 0.024606134793292423
2780000000.0 0.34451473265283333 0.028556855868389748
2800000000.0 -0.3139378894737191 0.06729656183943522
2820000000.0 0.08280582477680326 -0.2931222941069012
2840000000.0 0.13684968368850897 0.2596572570873337
2860000000.0 -0.29022524629148844 -0.007457243524699517
2880000000.0 0.14425709789371768 -0.2513783091320521
2900000000.0 0.014951976548390622 0.29118897309195757
2920000000.0 0.13962546917100804 -0.25905970848394233
2940000000.0 -0.2960659684823372 -0.032937381672155305
2960000000.0 -0.22819841358607307 0.1984250328563131
2980000000.0 -0.24814460191536247 0.17927730937047545
3000000000.0 -0.30836121768035074 0.011388765716730283
3020000000.0 -0.10564306936883912 -0.29091793884834094
3040000000.0 0.30651392719457177 -0.0014799682353733483
3060000000.0 -0.23082719101945842 0.19934775489788886
3080000000.0 0.16892849051826844 -0.2478880672800875
3100000000.0 -0.16891356955554002 0.24230686604738794
3120000000.0 0.043175450327546404 -0.28668003372113704
3140000000.0 0.11767298988544049 0.25539931757669065
3160000000.0 -0.24864167635341494 -0.09525562311055154
3180000000.0 0.10768127752797299 0.22688920034253993
3200000000.0 -0.21777080667653187 0.0647812992814622
3220000000.0 -0.007791229031615784 -0.2003702254931884
3240000000.0 0.14453712488110118 0.09123151626876586
3260000000.0 -0.13454932890004304 0.03636255634117013
3280000000.0 0.10705800559374767 -0.011938477341680973
3300000000.0 -0.06270252751080718 -0.04608504185433343
3320000000.0 -0.043409859469841605 0.028171901951767737
3340000000.0 -0.001273720431199943 0.02805483555656249
3360000000.0 0.008428831403628153 0.003451852510819142
3380000000.0 0.006649828421390971 -0.0011795938464692266
3400000000.0 0.019847967294009436 -0.0054995318523410296
3420000000.0 -0.017058612973537904 -0.02862107285401926
3440000000.0 -0.03878411955772553 0.01985423857659027
3460000000.0 0.02108607146177392 -0.048156808413016464
3480000000.0 0.06276125025986108 0.006819139700166583
3500000000.0 0.02919871313613625 -0.07194387372982504
3520000000.0 -0.0922923273698763 -0.009080563453966092
3540000000.0 0.09965850740339313 -0.040410481523516596
3560000000.0 -0.07373370909113047 0.09804237690801854
3580000000.0 0.03537278390924957 -0.13133055127316107
3600000000.0 0.15203057904525477 -0.01599698150247011
3620000000.0 0.0712219528445107 0.1485341506251575
3640000000.0 -0.1355370464313631 0.1095991978947266
3660000000.0 -0.18284131119259106 -0.02375243727122578
3680000000.0 -0.1073333617308771 -0.15698023715092907
3700000000.0 -0.058083804375982366 -0.1825505463201881
3720000000.0 0.1101019922003429 -0.15661477733800108
3740000000.0 0.18554926562553528 -0.016942490878594663
3760000000.0 -0.17991652168742125 -0.008196823139118133
3780000000.0 0.17004790140386647 -0.01703345949180358
3800000000.0 -0.07181844746809893 -0.146212128246684
3820000000.0 -0.14937105009485338 -0.039405919735693816
3840000000.0 -0.1392054137667803 -0.04870034535186814
3860000000.0 0.12736280617602033 -0.07365936086267008
3880000000.0 0.14884834740523045 0.030898767875614557
3900000000.0 0.11352912569880605 -0.11077800296972666
3920000000.0 -0.15541332845161104 0.05054044663316049
3940000000.0 0.06011736467434366 -0.15690944524997233
3960000000.0 0.15901581657786745 -0.06753988918986695
3980000000.0 0.060713865450617986 -0.16156920755402362
4000000000.0 0.10295167408170004 -0.13027760261184254
