!Created with skrf (http://scikit-rf.org).
# Hz S RI R 50.0 
!freq ReS11 ImS11
400000000.0 -0.5963651692342461 0.6353606797893647
420000000.0 0.426293406805259 0.7569126136142258
440000000.0 0.7025974358274069 -0.4616471877140475
460000000.0 -0.4316610902449246 -0.6690575054552578
480000000.0 0.4771751358127731 -0.5277225433564252
500000000.0 -0.30915907029378464 -0.4891518146496189
520000000.0 -0.40396786330204226 0.2932620225535373
540000000.0 -0.04965225213467119 -0.41393531133705713
560000000.0 -0.34011187246994323 0.12607568206965525
580000000.0 0.27788157833168814 0.1920825141409165
600000000.0 0.17814557808338433 -0.2973070570649418
620000000.0 -0.0033351248959703674 0.35995204865267666
640000000.0 0.3834510574807088 0.10372262563570658
660000000.0 -0.19782518610769592 -0.35941303873275054
680000000.0 0.3860124501020153 -0.1871513976798632
700000000.0 -0.42655754983603716 -0.050230007473500336
720000000.0 -0.15949098260218758 0.39082308220923045
740000000.0 0.2810643499230549 -0.30017322855711387
760000000.0 -0.39087192846086005 0.0012707798818020432
780000000.0 0.32169634723318213 0.14684986931865343
800000000.0 0.21546750303113238 -0.2351665829413758
820000000.0 -0.2623372908724394 -0.07995989407668845
840000000.0 -0.23083870824001654 0.05340495998402011
860000000.0 0.026470413140633794 -0.1991913529133121
880000000.0 0.048735472230707164 0.14833449510676933
900000000.0 -0.10593913339858739 -0.020781163282457896
920000000.0 0.04050408640705846 -0.06058250735308882
940000000.0 0.042414733525733134 0.0007635552093907416
960000000.0 -0.04347266576807418 -0.0187828475447454
980000000.0 -0.0614986635034605 0.02378232375470409
1000000000.0 0.033656510054455725 0.07551209979508682
1020000000.0 0.05354244075498217 0.08746381382365134
1040000000.0 0.022536091614319322 0.11614559038770461
1060000000.0 -0.11829805670438641 0.10099038047074094
1080000000.0 -0.09038633164871464 0.14762686821651952
1100000000.0 0.15550357204869147 -0.12514773789747272
1120000000.0 0.007613254999448795 0.2222569499082981
1140000000.0 0.1654601780986905 -0.19475835349237358
1160000000.0 -0.2215430981723883 -0.17480150542907005
1180000000.0 -0.09741660921535013 -0.3024208047557742
1200000000.0 0.1802636338799403 -0.2895109921216537
1220000000.0 -0.1289236330767509 0.34367007207587624
1240000000.0 0.3702134259912316 -0.1129188268786596
1260000000.0 -0.3529328816976522 -0.20843473604980892
1280000000.0 -0.3083918281793057 0.29170637140141475
1300000000.0 0.38829874455362545 0.19621257634898906
1320000000.0 0.4366979608204611 -0.01861308469465668
1340000000.0 0.4134957627299216 -0.14033936345304188
1360000000.0 0.4383792875835172 -0.0019006977061537917
1380000000.0 0.2571683296782579 -0.351760201335424
1400000000.0 -0.34552929125177717 -0.25246629269375653
1420000000.0 -0.04216332470333787 0.40777822615511344
1440000000.0 0.3810631376368213 -0.03142700709073806
1460000000.0 0.07051466253607541 -0.3449431267367929
1480000000.0 -0.31881489016659054 -0.024906610668667246
1500000000.0 -0.13849493429413987 0.25063651079609417
1520000000.0 0.05142504137767311 0.2519997869299046
1540000000.0 -0.12470083924002755 -0.19069013599439416
1560000000.0 0.08566076007104599 -0.17482187992383924
1580000000.0 0.15840971716490965 0.050106482486821244
1600000000.0 0.09744790941421161 -0.08960312260835383
1620000000.0 0.08061949866506563 -0.06605708031269142
1640000000.0 0.04380664271720194 0.06458743854171818
1660000000.0 -0.040913013286988535 -0.03603833261619957
1680000000.0 0.02416255888501113 -0.026592564399326526
1700000000.0 0.011237123157494817 -0.018776711773883445
1720000000.0 -0.0013364811845345344 -0.006211902691326177
1740000000.0 0.015744103945392735 -0.0029808235443496887
1760000000.0 0.029976968638982793 -0.014218547739087033
1780000000.0 -0.04187896799453671 -0.04459986517253974
1800000000.0 -0.019143257938841276 0.09086337870151777
1820000000.0 -0.024286679103621416 0.12314970692021901
1840000000.0 0.023177633739040124 -0.162200877637306
1860000000.0 -0.12178843412978027 0.16008921680416618
1880000000.0 0.1921319516252036 -0.14586422603679589
1900000000.0 -0.23717619029479958 0.1580205967584522
1920000000.0 0.22011183846059168 -0.23199591551021354
1940000000.0 -0.3309769432266048 0.12560816156005453
1960000000.0 0.3686768736706673 0.0958339332826301
1980000000.0 -0.16050822963118105 -0.36506583746796195
2000000000.0 -0.41193872064793285 -0.057628685845110425
2020000000.0 -0.10707823724669702 0.4120805397932542
2040000000.0 0.18085549752068716 0.3933548833785982
2060000000.0 0.43292892521257764 -0.04346381610443993
2080000000.0 0.1733470073369728 -0.3966820821446966
2100000000.0 -0.07007440631035716 -0.4193021627909266
2120000000.0 -0.30139133681465535 -0.2857542360203286
2140000000.0 -0.33230551940880154 -0.22957195233368707
2160000000.0 0.07584233185994908 -0.38360867907902324
2180000000.0 -0.14202106535794407 -0.3504166844634057
2200000000.0 -0.352846198299653 -0.09760618159706477
2220000000.0 -0.317910418935062 0.15863965173701475
2240000000.0 -0.05970453172527392 0.34592849105684087
2260000000.0 0.1187680070267406 0.33085792443291556
2280000000.0 0.3467265692551212 0.08012730361497984
2300000000.0 0.12829959016776743 -0.34626987744125043
2320000000.0 -0.34966980796413105 -0.1739276065743069
2340000000.0 -0.16361853744007304 0.3888117239635527
2360000000.0 0.416693759971676 -0.20167124916171533
2380000000.0 -0.49499313739067885 0.1258830188729248
2400000000.0 0.5201863411223244 -0.2065301877591646
2420000000.0 -0.3707260316975486 0.48417258327305174
2440000000.0 -0.007187872779832973 -0.6552404904760546
2460000000.0 0.46681536220080505 0.5127028247571266
2480000000.0 -0.6669943198575837 -0.27785103085137713
2500000000.0 0.7151941146212041 0.19321650786214914
2520000000.0 -0.6450157843680817 -0.3858461452080657
2540000000.0 0.31890914979055546 0.6814901691833417
2560000000.0 0.2039205785774644 -0.7168406214598643
2580000000.0 -0.7115735879587428 0.1643661619933367
2600000000.0 0.5801078722296595 0.403858304628689
2620000000.0 0.01007307717056814 -0.6766305748850836
2640000000.0 -0.16354071618017496 -0.6190226775990701
2660000000.0 -0.36466593939212394 0.47184965220034386
2680000000.0 0.5496584497432914 0.028317768574404704
2700000000.0 -0.279260434236089 -0.41958800233107396
2720000000.0 -0.06664451391920051 0.45328320680228945
2740000000.0 0.3663143728094959 -0.19537773145159143
2760000000.0 -0.3755685151825129 0.025317349822648473
2780000000.0 0.3431986037881972 0.04531678343414008
2800000000.0 -0.31592864817370664 0.05910749249443393
2820000000.0 0.0994261712119405 -0.28797059234272615
2840000000.0 0.12592547372496593 0.2649959412278719
2860000000.0 -0.2897443304002162 -0.019601762438713095
2880000000.0 0.13685004881627527 -0.2552345981474152
2900000000.0 0.0016485077552557312 0.29123821618777385
2920000000.0 0.14740586998999597 -0.25490872115921553
2940000000.0 -0.29600506281970973 -0.034542209274589016
2960000000.0 -0.21721915979549827 0.2097956150996901
2980000000.0 -0.2484528096170638 0.17833796040894498
3000000000.0 -0.3079435299779518 0.021128294071964013
3020000000.0 -0.13673957450614724 -0.2772918955709141
3040000000.0 0.3012317626862165 -0.05561338967741226
3060000000.0 -0.2235053376092024 0.2075013789410514
3080000000.0 0.15001267921316863 -0.26016075175816683
3100000000.0 -0.1833704659425196 0.231462474426814
3120000000.0 0.03293274987127688 -0.2880406936945503
3140000000.0 0.1411765065458367 0.24376304511669672
3160000000.0 -0.2560266354893848 -0.0746999216127465
3180000000.0 0.11348361879374155 0.22382419655965882
3200000000.0 -0.21591749463152674 0.07192316383748333
3220000000.0 -0.015900063594214246 -0.20040856397220255
3240000000.0 0.15047895802981578 0.0825667156538647
3260000000.0 -0.1348068464538493 0.03635151556513017
3280000000.0 0.10788975997011557 0.003025687910063488
3300000000.0 -0.03685114427020938 -0.06896698434635919
3320000000.0 -0.044300320065405054 0.02709351032173895
3340000000.0 -0.02590455030783908 0.011397338354266947
3360000000.0 -0.008664448892166084 0.0035155385864821657
3380000000.0 -0.0061769438152945635 -0.0020569178831775486
3400000000.0 0.0012104430927376473 -0.020483261042331436
3420000000.0 -0.026932311422296303 -0.019394913891534454
3440000000.0 -0.03194369439643248 0.02945125670445299
3460000000.0 -0.006281954585072723 -0.05215408848375443
3480000000.0 0.06277875266230892 0.0033176579218056265
3500000000.0 0.0013664679357880045 -0.07761297166239899
3520000000.0 -0.09028414208894749 0.021443294239390318
3540000000.0 0.09022803593002879 -0.05874621614215727
3560000000.0 -0.03519816824624682 0.11768396628624699
3580000000.0 0.009493823854937801 -0.13556668480999753
3600000000.0 0.1467672460144172 -0.043323069400753915
3620000000.0 0.07373410352889001 0.14690366253616655
3640000000.0 -0.11064707964028872 0.13521238052042583
3660000000.0 -0.1847385984663341 -0.0017066301520501986
3680000000.0 -0.12265552723028117 -0.1459613146672626
3700000000.0 -0.08043589715895212 -0.1743062537642353
3720000000.0 0.10167195898449503 -0.1626626861136009
3740000000.0 0.18519136483666113 -0.02614644863695521
3760000000.0 -0.1808797660817264 -0.0052998381289428385
3780000000.0 0.1711242853641215 -0.011523267011656419
3800000000.0 -0.06823513403223004 -0.14843007364540076
3820000000.0 -0.14710215186789508 -0.049645064547223595
3840000000.0 -0.13552861635978203 -0.05938849158557529
3860000000.0 0.13149600230521574 -0.06722535567048088
3880000000.0 0.14932056743339683 0.030502380182901294
3900000000.0 0.10852455906054648 -0.11639495324211366
3920000000.0 -0.1570311848128663 0.04807542925407381
3940000000.0 0.07177788795196137 -0.15296050622914847
3960000000.0 0.17108613152693797 -0.030092570135884577
3980000000.0 0.10180167673458802 -0.14028042232073107
4000000000.0 0.14395737324290875 -0.08349231245094574
