!Created with skrf (http://scikit-rf.org).
# Hz S RI R 50.0 
!freq ReS11 ImS11
400000000.0 -0.576704628450023 0.6563160574437152
420000000.0 0.43002718067885987 0.7542669761320963
440000000.0 0.6720093794971159 -0.503827625819035
460000000.0 -0.44437557262246546 -0.6597990879670097
480000000.0 0.4709985755498462 -0.5335256398438498
500000000.0 -0.37430576400093374 -0.44146697316386274
520000000.0 -0.4088541592961852 0.2844172459511289
540000000.0 0.006156096665975529 -0.4170043131725785
560000000.0 -0.33858057204752406 0.13309623006325286
580000000.0 0.30613381196661615 0.1417209837236634
600000000.0 0.2430609110346843 -0.24630387765961642
620000000.0 -0.05855952261301414 0.3556171926638572
640000000.0 0.3919066329424601 0.060560676624895456
660000000.0 -0.2080991602864136 -0.3538094069004063
680000000.0 0.3858539449767813 -0.1853427412317298
700000000.0 -0.4175492872339588 -0.09909441294129041
720000000.0 -0.16587984763232652 0.38803128202576365
740000000.0 0.2711834798649849 -0.3081886449252408
760000000.0 -0.38980751682672937 0.027605389845164814
780000000.0 0.31767997471562287 0.15640510575866287
800000000.0 0.22275501959434021 -0.22874439546219424
820000000.0 -0.26304057951593085 -0.07702621452903499
840000000.0 -0.22848273026623106 0.06247645608714494
860000000.0 0.002245796540716102 -0.20101630918679964
880000000.0 0.06236673706405444 0.14380137562709078
900000000.0 -0.10165923313386126 -0.03841983993322868
920000000.0 0.049103071065361034 -0.05476621847849539
940000000.0 0.04204655329821345 0.004337112035010978
960000000.0 -0.03802452220292685 -0.027914809506144
980000000.0 -0.06263118968993246 0.022775274693961137
1000000000.0 0.02996650305257948 0.07746565612958574
1020000000.0 0.06804261969180173 0.07651336023432
1040000000.0 0.02456806133578632 0.11599995883625333
1060000000.0 -0.11863067562879419 0.10115114301127334
1080000000.0 -0.10750707925884412 0.13615172391598682
1100000000.0 0.17819464537670815 -0.08935788203874474
1120000000.0 0.001569596933495365 0.22189917419189925
1140000000.0 0.17634896554546048 -0.1850534604186999
1160000000.0 -0.2157901468187238 -0.18176144738305092
1180000000.0 -0.0935411738982749 -0.303242075700477
1200000000.0 0.17307672946063565 -0.2933715530256551
1220000000.0 -0.13395214424851282 0.3411273072859907
1240000000.0 0.3606218577136915 -0.1395999623435599
1260000000.0 -0.34537150254013754 -0.2196534151437523
1280000000.0 -0.30333091723444044 0.2965454747440905
1300000000.0 0.39745116576162826 0.17694704715531268
1320000000.0 0.4359682719360035 -0.035522266218419786
1340000000.0 0.4105345051205347 -0.14979026411799837
1360000000.0 0.43800207778536904 -0.02444550525833008
1380000000.0 0.25367512512399115 -0.3545872294483788
1400000000.0 -0.352665387563339 -0.24236773077122856
1420000000.0 -0.046022687416757586 0.40756527238506063
1440000000.0 0.38183157784602095 0.026649652545452308
1460000000.0 0.09593324302541668 -0.3392505145738961
1480000000.0 -0.3188427022099183 -0.02596520571670303
1500000000.0 -0.15275873338431345 0.24191302591771544
1520000000.0 0.0350545192511914 0.254705511925713
1540000000.0 -0.11766812091323639 -0.19497474044817642
1560000000.0 0.10166510051335072 -0.16500359724233535
1580000000.0 0.15091798474733994 0.06675494137743225
1600000000.0 0.07080977469705264 -0.11069214462681595
1620000000.0 0.09350834750164486 -0.043570564609857844
1640000000.0 0.06388424986303946 0.04398606824656491
1660000000.0 -0.049973839947525585 -0.021707545070297374
1680000000.0 -0.001301356446125708 -0.03601141369837199
1700000000.0 -0.013199771868304358 -0.017654225332867986
1720000000.0 0.00437352335011156 -0.0049202708680865775
1740000000.0 -0.014796271255648372 0.005666043767896918
1760000000.0 0.0280646440768291 -0.01595652994981913
1780000000.0 -0.058379915808704295 -0.018831445568133823
1800000000.0 0.0005172331927005129 0.09258804814392177
1820000000.0 0.010324132350406308 0.12570193935878937
1840000000.0 -0.005077553072841255 -0.16376581956359507
1860000000.0 -0.1085490545144586 0.16940638081635387
1880000000.0 0.16687529884599392 -0.1746557741966064
1900000000.0 -0.22078414052959885 0.18150710415950191
1920000000.0 0.22373647599352212 -0.22926017599030557
1940000000.0 -0.33386222670362203 0.1188219094448965
1960000000.0 0.36856673571073395 0.0979625747532279
1980000000.0 -0.13413631481270075 -0.375677984280881
2000000000.0 -0.40963407729649864 -0.07145262291686295
2020000000.0 -0.12559983049604317 0.40659868073913813
2040000000.0 0.14838732091762757 0.40649723954660283
2060000000.0 0.43511146728174027 0.006800401198797894
2080000000.0 0.20583555462688166 -0.3803834883290201
2100000000.0 -0.05805584073256111 -0.4205730274481621
2120000000.0 -0.2900873175425732 -0.29677319639765787
2140000000.0 -0.34277115890339555 -0.2135578642244067
2160000000.0 0.041269659420688935 -0.3883765761328401
2180000000.0 -0.19416196569656566 -0.32425898376302403
2200000000.0 -0.36135938066235573 -0.05356147128509679
2220000000.0 -0.31428781707043124 0.1647061401431976
2240000000.0 -0.06466100209781366 0.3449914575858312
2260000000.0 0.1339382600199512 0.32484598906026896
2280000000.0 0.3442214848828312 0.0914409624692283
2300000000.0 0.14749763235714794 -0.33862690523226624
2320000000.0 -0.3549062980745548 -0.16417358914191102
2340000000.0 -0.12871112253876332 0.40278598246496783
2360000000.0 0.40809173329993026 -0.22012980365570523
2380000000.0 -0.4860186331749523 0.15813041098754121
2400000000.0 0.5039750875869796 -0.24477361138876513
2420000000.0 -0.34262452101949936 0.5052929265478058
2440000000.0 -0.05473665481427492 -0.653411271032837
2460000000.0 0.4958069625059788 0.4853928532181111
2480000000.0 -0.6950864449327765 -0.19792808402646958
2500000000.0 0.7111008374452561 0.21026641118577274
2520000000.0 -0.6559229051071048 -0.36675120185379934
2540000000.0 0.3412805696320909 0.6698487588608861
2560000000.0 0.1736652345404212 -0.7248296070595339
2580000000.0 -0.6957095714176611 0.22122719312652245
2600000000.0 0.556625720380097 0.4335344096272342
2620000000.0 -0.030255393791047407 -0.6746985789715039
2640000000.0 -0.1960236871649775 -0.6083140169655679
2660000000.0 -0.32483622528883593 0.49885681578316277
2680000000.0 0.5493003497789144 0.011128086751463553
2700000000.0 -0.28896691025505794 -0.4113617267228851
2720000000.0 -0.08294728426174888 0.44855823247015947
2740000000.0 0.3527144001411598 -0.2156151794698413
2760000000.0 -0.36817743486343396 0.07203565382426405
2780000000.0 0.3456670477273501 0.001092925002630437
2800000000.0 -0.31289149081055606 0.0716203930111337
2820000000.0 0.07781105981972539 -0.29446463918733196
2840000000.0 0.13435978897693207 0.26109263241948355
2860000000.0 -0.28980021073304096 -0.0016788316499168913
2880000000.0 0.16180690812766724 -0.24103609053713415
2900000000.0 -0.006685680963606865 0.2917773985491074
2920000000.0 0.1365718659663576 -0.26094545395247176
2940000000.0 -0.28375909405672656 -0.09102167344011226
2960000000.0 -0.25172991128568944 0.16533703890340926
2980000000.0 -0.24495592170091438 0.181841520845141
3000000000.0 -0.30623815449597014 -0.02150149117346671
3020000000.0 -0.1002637449871028 -0.2911322160143649
3040000000.0 0.3008654939537573 -0.054248277749453934
3060000000.0 -0.23804898469141259 0.1884606720524226
3080000000.0 0.17226977419490289 -0.24473010310450458
3100000000.0 -0.1902191744493139 0.22456207906471307
3120000000.0 0.017185758578109705 -0.2891015315295859
3140000000.0 0.16133440968671117 0.229622044760413
3160000000.0 -0.2643782286536994 -0.03036072705646828
3180000000.0 0.16071140626800468 0.1919033020898968
3200000000.0 -0.18540015228208775 0.13113776605683045
3220000000.0 -0.08583155578757813 -0.18227989743755285
3240000000.0 0.1718343412283875 0.012818884732016108
3260000000.0 -0.10978443401681914 0.08789088360426595
3280000000.0 0.10536718247517375 -0.029818125136367408
3300000000.0 -0.058920100344472745 -0.053365605644063535
3320000000.0 -0.045378959585996984 0.02714642026271161
3340000000.0 -0.026850190131001154 0.012412365327231365
3360000000.0 -0.010506545395529678 0.0017402697402513212
3380000000.0 -0.001416051995699615 0.004488169699474083
3400000000.0 -0.005227307720522369 -0.017506232761227748
3420000000.0 -0.029290941323800834 0.010314252622447725
3440000000.0 0.021787234420920024 0.03539092613003661
3460000000.0 -0.04815787755681368 -0.015162081767486945
3480000000.0 0.01360105891172145 -0.060381101714550314
3500000000.0 -0.05422370256824397 -0.054484310977178374
3520000000.0 -0.04202496308371535 0.08176647610683935
3540000000.0 0.08182750892320324 -0.0683445045667445
3560000000.0 -0.06497282405895272 0.10328233876552015
3580000000.0 -0.007317695501370162 -0.13521922396932465
3600000000.0 0.13902450545710912 -0.06170816990155153
3620000000.0 0.12402121457020555 0.10668613360981806
3640000000.0 -0.08430009183705711 0.1526846919268781
3660000000.0 -0.17926062063718082 0.046215878348577766
3680000000.0 -0.15793600970509455 -0.10495255415628914
3700000000.0 -0.1020569089968531 -0.16174481189212284
3720000000.0 0.08264859877468428 -0.17201495788418833
3740000000.0 0.16931485638937233 -0.07745580898588504
3760000000.0 -0.1745288733232337 0.04651870029392489
3780000000.0 0.1598465704112499 -0.06108243200817063
3800000000.0 -0.12032014361134749 -0.11029049879865843
3820000000.0 -0.15484737209831148 0.012321593145909459
3840000000.0 -0.14481328471517035 -0.03210148023429828
3860000000.0 0.13482837143088197 -0.05993610852221532
3880000000.0 0.15234233734775568 -0.002026435616102364
3900000000.0 0.04247859710267848 -0.1531670067516591
3920000000.0 -0.11379923825912652 0.11909013694466047
3940000000.0 0.0044559135014659865 -0.16931970899705706
3960000000.0 0.14762488461466985 -0.09264689066106802
3980000000.0 0.055543684682153975 -0.16584089658064552
4000000000.0 0.08300048369506843 -0.1470600808471825
