!Created with skrf (http://scikit-rf.org).
# Hz S RI R 50.0 
!freq ReS11 ImS11
400000000.0 -0.5445628218208868 0.6834340439434505
420000000.0 0.4259656100904149 0.7567347054326068
440000000.0 0.643934885486631 -0.5385969470612907
460000000.0 -0.4373333716022277 -0.6642230054865047
480000000.0 0.45661619507539836 -0.5462508491706395
500000000.0 -0.401580599470748 -0.4168384525700005
520000000.0 -0.4180177949093402 0.27160544248051954
540000000.0 -0.002075073490294411 -0.41698297536216494
560000000.0 -0.33856730860622036 0.13310937335659326
580000000.0 0.3009377630339735 0.1517939638945043
600000000.0 0.2578413377127946 -0.23135776998438543
620000000.0 -0.04108687840512288 0.3581677486656536
640000000.0 0.39212044487444175 0.05655917240097688
660000000.0 -0.1846848823548877 -0.3671816986036931
680000000.0 0.391748858911498 -0.1748346139686676
700000000.0 -0.4177154150823523 -0.10015036003841786
720000000.0 -0.19291652360155503 0.3755285277741924
740000000.0 0.27320318128826243 -0.30690356562169413
760000000.0 -0.3902491079514284 0.020885599415127354
780000000.0 0.31777287586795566 0.15591876629434412
800000000.0 0.2208762969380289 -0.2306724738614339
820000000.0 -0.2583070614839 -0.09111118117575356
840000000.0 -0.22570665143261648 0.07231061713267764
860000000.0 -0.002465714630422122 -0.20113655775699038
880000000.0 0.05919217287378395 0.14510817258848865
900000000.0 -0.10699715692328542 -0.02001249308780527
920000000.0 0.029887899592854216 -0.06708385816784163
940000000.0 0.040078933256332126 -0.013868017744244388
960000000.0 -0.04464995683043712 -0.01638606456184191
980000000.0 -0.05729885189428155 0.034079321802868115
1000000000.0 0.03104400900339724 0.07709750868177082
1020000000.0 0.055986679387816936 0.08582734979248292
1040000000.0 0.022322773480346468 0.11647706640181885
1060000000.0 -0.10988406340853844 0.10982949489146798
1080000000.0 -0.09226837951884895 0.14695226592786398
1100000000.0 0.17780881484682318 -0.09094331342497759
1120000000.0 0.01201541052902293 0.2221489973314324
1140000000.0 0.18810041870764532 -0.17337927134750103
1160000000.0 -0.21855207445001645 -0.17873487872605345
1180000000.0 -0.07491579050290742 -0.30899924012509816
1200000000.0 0.2206954743973529 -0.2596805104493338
1220000000.0 -0.19171380438953103 0.3130244398009126
1240000000.0 0.38022142193228786 -0.07446306751845218
1260000000.0 -0.315336051628258 -0.26184208592769637
1280000000.0 -0.3268094347619388 0.2708909132104908
1300000000.0 0.3854171112512108 0.20166785083995542
1320000000.0 0.43716712468987823 0.0005566303465879953
1340000000.0 0.4210996867885258 -0.11479884499142338
1360000000.0 0.4379512508069147 0.008891305348225798
1380000000.0 0.2751702044852363 -0.3373136172834709
1400000000.0 -0.3260775784980705 -0.2766597881213077
1420000000.0 -0.07107716371009488 0.40345658779288507
1440000000.0 0.3815101538390697 0.028468073922632738
1460000000.0 0.0928667012724958 -0.3397293433315429
1480000000.0 -0.313729654506044 0.06359885759363489
1500000000.0 -0.16087598876897063 0.23742536075607765
1520000000.0 0.010323934884982035 0.25752302685403305
1540000000.0 -0.11555362921607762 -0.1968048998250121
1560000000.0 0.10373779971538837 -0.16420799630253738
1580000000.0 0.1404167210037869 0.08843796657378032
1600000000.0 0.09973678718086372 -0.08656576977629794
1620000000.0 0.09731491271612581 -0.03458902399727207
1640000000.0 0.03652890736768833 0.0688057111904823
1660000000.0 -0.01735493012229076 -0.05119779670613511
1680000000.0 0.03393183904989082 -0.01005094823352582
1700000000.0 -0.015134318650385732 -0.015963857625129876
1720000000.0 -0.004947500410644642 0.0038790292863878514
1740000000.0 0.004634484189467203 -0.01535410166998652
1760000000.0 0.03050512461928651 0.01146656440925176
1780000000.0 -0.024023642524450776 -0.056294561387482366
1800000000.0 -0.038295706010383936 0.08389021827574597
1820000000.0 -0.02882659770112473 0.12217612485690614
1840000000.0 0.006176853022950202 -0.16322794520479075
1860000000.0 -0.09619142667603404 0.1760907133970761
1880000000.0 0.1726821876839457 -0.16835652281665267
1900000000.0 -0.21837852282043266 0.18347439067706758
1920000000.0 0.20776828234633232 -0.2436591793778647
1940000000.0 -0.32427295192677386 0.1427245358911952
1960000000.0 0.37165786122243305 0.08490773934223218
1980000000.0 -0.15245801031545217 -0.3687592410536929
2000000000.0 -0.41337472657215446 -0.04872369381472618
2020000000.0 -0.10719108243603685 0.4125154022662339
2040000000.0 0.17338083670298243 0.39748353368482037
2060000000.0 0.43565309040437966 -0.013916180458348328
2080000000.0 0.2406738346721991 -0.36023430270310347
2100000000.0 -0.03965072014815816 -0.42315205173080095
2120000000.0 -0.2513958032165462 -0.3310060489578916
2140000000.0 -0.3191161389520248 -0.24766427184014436
2160000000.0 0.050704553261876145 -0.3876577239380335
2180000000.0 -0.1886728954617395 -0.32798841081326074
2200000000.0 -0.3550260350633075 -0.08971897541606483
2220000000.0 -0.3300994817712505 0.13109413388222166
2240000000.0 -0.09488226266718905 0.33811385393710347
2260000000.0 0.1197159841512281 0.3310050273603883
2280000000.0 0.33945071658051895 0.10801320102451997
2300000000.0 0.15462450210157172 -0.3357430126300035
2320000000.0 -0.3566333426864391 -0.16053012319383891
2340000000.0 -0.1438998070500048 0.3971783893151777
2360000000.0 0.38775085113664765 -0.2548220134697428
2380000000.0 -0.483477755524205 0.16724143778731607
2400000000.0 0.49141825121992194 -0.26966052263988244
2420000000.0 -0.2980241490144244 0.532636501786812
2440000000.0 -0.12193154631663057 -0.6445287841014483
2460000000.0 0.5172496161327553 0.4624274201610154
2480000000.0 -0.6935160969083555 -0.20378460096232112
2500000000.0 0.72211137318955 0.1664805841998424
2520000000.0 -0.6583677980476218 -0.3612000421162584
2540000000.0 0.35007786829782744 0.6651406972538234
2560000000.0 0.1989634841803122 -0.7176730569444887
2580000000.0 -0.7044277607477605 0.19046656505067758
2600000000.0 0.5807585492157216 0.40054906597233675
2620000000.0 0.01079609304713242 -0.6751930477339632
2640000000.0 -0.17492847577815313 -0.6149129149713336
2660000000.0 -0.3845266697536591 0.4544106509512898
2680000000.0 0.5474117259746186 0.04131636547731512
2700000000.0 -0.2792663967921394 -0.41792770579174576
2720000000.0 -0.07999933883899678 0.44924174502732905
2740000000.0 0.35661808726437766 -0.20936633305369035
2760000000.0 -0.37042576300452684 0.05922366303484713
2780000000.0 0.3457152807912055 0.010625513543068052
2800000000.0 -0.3144708649187458 0.06426704628375471
2820000000.0 0.09969339941706014 -0.28754836705954445
2840000000.0 0.11475204269896569 0.2698645283824355
2860000000.0 -0.2885324454487667 -0.026402450922110625
2880000000.0 0.1846269846054346 -0.2236725921032903
2900000000.0 -0.011835568141688825 0.2910877659959409
2920000000.0 0.15003520171766557 -0.2533054250558378
2940000000.0 -0.2912261854828041 -0.06352456246542848
2960000000.0 -0.2261594675415718 0.19950467539379513
2980000000.0 -0.2544053304370713 0.1691631839590724
3000000000.0 -0.30627082839324105 -0.02994756508259498
3020000000.0 -0.10052678578401526 -0.2913773894293965
3040000000.0 0.3039535622605305 -0.034174255961987754
3060000000.0 -0.25055474135228145 0.17265362769988998
3080000000.0 0.16601785490535484 -0.2500546547361781
3100000000.0 -0.19010727325116644 0.22504115383616843
3120000000.0 0.05476527383178822 -0.2847794160410703
3140000000.0 0.13845784452444912 0.24495145267669605
3160000000.0 -0.2621703382802564 -0.046202644402227294
3180000000.0 0.15068491708945841 0.2002560870118172
3200000000.0 -0.21015508274861774 0.08526460768026432
3220000000.0 -0.05519739449265078 -0.19338309758801878
3240000000.0 0.16262292056862426 0.05511653902221143
3260000000.0 -0.12349824551018607 0.06582367069513553
3280000000.0 0.10833586238638086 -0.00022808606969439518
3300000000.0 -0.0681005747928161 -0.03782006436135719
3320000000.0 -0.02309775365626328 0.04615826970145082
3340000000.0 -0.013626909810188145 0.024983286275250698
3360000000.0 0.00906971367712373 0.0017099618871432873
3380000000.0 -0.001382104393198434 0.005821692257465259
3400000000.0 -0.002430403434603125 0.019540541394750963
3420000000.0 0.01827283760517574 -0.026727348374714306
3440000000.0 -0.04090886565349539 -0.012091392467703426
3460000000.0 0.02935174294166929 -0.04244732710248958
3480000000.0 0.06077410112524376 0.01717218521336269
3500000000.0 0.062322047671510374 -0.04609139653382126
3520000000.0 -0.048411529136178036 -0.07848700218287495
3540000000.0 0.09985262911874358 0.038922947453953326
3560000000.0 -0.10932507555273875 0.0542867156698191
3580000000.0 0.09250731622892483 -0.09924798563932545
3600000000.0 0.1272143683358822 0.08269913678324718
3620000000.0 0.008159522041547015 0.16293212001608476
3640000000.0 -0.15870130232918517 0.06855253646197441
3660000000.0 -0.1663882204885423 -0.07610184267709542
3680000000.0 -0.07922059783622395 -0.1712589827516279
3700000000.0 -0.034620648706121984 -0.18651069569431017
3720000000.0 0.11917787493027078 -0.1471074296088799
3740000000.0 0.18405436251836255 -0.016715753879484988
3760000000.0 -0.1782046375581306 -0.024170661656490088
3780000000.0 0.16898232459067525 0.017373253723176062
3800000000.0 -0.03462923632558424 -0.1590030005445169
3820000000.0 -0.148242438639523 -0.04174078618040025
3840000000.0 -0.13125780540366783 -0.06423191519090093
3860000000.0 0.13615268021873267 -0.05364887517812268
3880000000.0 0.15080950081794028 0.015181611153270514
3900000000.0 0.056948819865828976 -0.1474013612409608
3920000000.0 -0.11313090844466141 0.11737722159299414
3940000000.0 -0.003959613150740655 -0.167789032767085
3960000000.0 0.1548950537607648 -0.07578778723425576
3980000000.0 -0.0024622457801179356 -0.1724852833028504
4000000000.0 0.03534014802232251 -0.16215495195971608
