!Created with skrf (http://scikit-rf.org).
# Hz S RI R 50.0 
!freq ReS11 ImS11
400000000.0 -0.5612260086574693 0.6676074987726677
420000000.0 0.44472297737126265 0.744087321727689
440000000.0 0.6497924612195334 -0.530317276664168
460000000.0 -0.49125441999144054 -0.6244092581420442
480000000.0 0.4462430312575333 -0.5544646986827393
500000000.0 -0.3946640355211937 -0.4231650425749462
520000000.0 -0.40372076695538006 0.29323298031294187
540000000.0 -0.0433445373776517 -0.41449419716662317
560000000.0 -0.3511199901694106 0.0952408291339228
580000000.0 0.3249096838164945 0.09535687158755125
600000000.0 0.19810329203936597 -0.2832542671484936
620000000.0 -0.12959630367739333 0.3368517623856654
640000000.0 0.39485231144074545 0.05076042896517225
660000000.0 -0.1842695377495866 -0.36779255992068405
680000000.0 0.4192523618943506 -0.09242017214911008
700000000.0 -0.3987185955898336 -0.16096994800024428
720000000.0 -0.2179136209907945 0.36089551151691585
740000000.0 0.3108184554923314 -0.26790060733100773
760000000.0 -0.38948952716122703 -0.02482620033389113
780000000.0 0.3140324194833683 0.16122090042377613
800000000.0 0.1937477807339655 -0.2525625546491546
820000000.0 -0.2682553157207448 -0.05151905945998205
840000000.0 -0.20448034868136752 0.1190526264219768
860000000.0 -0.0748962756983345 -0.1865627562324977
880000000.0 0.12409740965305595 0.09678062895388412
900000000.0 -0.10141230550830434 0.04318391615680189
920000000.0 0.02194082717999276 -0.07207398997802321
940000000.0 -0.017934746952702064 0.03996229251568759
960000000.0 0.041146850212611066 -0.022820192190866062
980000000.0 -0.05829137697030097 -0.02881824090469265
1000000000.0 0.028174172084511322 0.0759418713256874
1020000000.0 0.08576410330892394 0.05304413709579989
1040000000.0 0.10066824579254423 0.06073306480492653
1060000000.0 -0.009905219598830135 0.15524033249526772
1080000000.0 0.0009183713358887835 0.17454032750607754
1100000000.0 0.13446162566578337 -0.15019929347341657
1120000000.0 0.03499954822715215 0.22235417616678174
1140000000.0 0.18516328041357571 -0.1803169651104056
1160000000.0 -0.1540860435705778 -0.23971493973155145
1180000000.0 0.018172480841203494 -0.3197228357508951
1200000000.0 0.2840222190092285 -0.1922790587408691
1220000000.0 -0.280308180013676 0.2386911336250824
1240000000.0 0.38610861962542536 0.03819051664193771
1260000000.0 -0.2367021141517577 -0.3350115691086525
1280000000.0 -0.37448935549062845 0.19924385813554876
1300000000.0 0.3481408561621353 0.25951523399370513
1320000000.0 0.43342766217098366 0.04964669022046515
1340000000.0 0.42470609295953443 -0.09668622018038596
1360000000.0 0.43717798988465 -0.006410370179427288
1380000000.0 0.24556256043384117 -0.35859762331833045
1400000000.0 -0.3671568701123034 -0.21800441152746702
1420000000.0 0.007597194771485832 0.4096188430518242
1440000000.0 0.3774609754690209 -0.06394492983267733
1460000000.0 0.010526718245322086 -0.35287841588143226
1480000000.0 -0.321382340796673 0.006386302404364439
1500000000.0 -0.07548023165465956 0.2780268406268064
1520000000.0 0.08136742414104606 0.2462838317695828
1540000000.0 -0.11085133648638609 -0.20194375532768738
1560000000.0 0.07033607727668707 -0.18296649102230694
1580000000.0 0.11445739235556698 0.12255969659096122
1600000000.0 0.1275075019266869 -0.03936354626769319
1620000000.0 0.09688443168948054 0.038454474901873696
1640000000.0 -0.039234918331560106 0.06767770913110585
1660000000.0 0.048736060291525475 -0.023233435166881408
1680000000.0 -0.014850446019256138 0.031011343925991714
1700000000.0 0.019445873435744256 -0.007357765257393577
1720000000.0 -0.004119730965850595 0.0041007902359041695
1740000000.0 -0.016128904138354504 -0.00412911139507533
1760000000.0 -0.020677145656372558 0.026201784087877482
1780000000.0 0.0436385159951287 -0.043082522903658764
1800000000.0 -0.08075867923558425 0.044544400213593766
1820000000.0 -0.08591757077213338 0.09088995316464724
1840000000.0 0.05654614843954714 -0.15259736755358974
1860000000.0 -0.12926165132272355 0.15247616260119226
1880000000.0 0.18583912658811572 -0.15234758414337066
1900000000.0 -0.21774342180698336 0.18276034243276124
1920000000.0 0.192808566397153 -0.25472833537194844
1940000000.0 -0.3083480039492297 0.17366256323010784
1960000000.0 0.37860436203262504 0.043488961888399624
1980000000.0 -0.18375316934359234 -0.3544203035170478
2000000000.0 -0.4163381807310561 -0.012367014048863943
2020000000.0 -0.0742037085379327 0.4205980683465167
2040000000.0 0.19847232319017408 0.3863414819372864
2060000000.0 0.4351135089838704 -0.03661276164929312
2080000000.0 0.1966232409209971 -0.38715505761262814
2100000000.0 -0.04393107874589772 -0.4237723681651223
2120000000.0 -0.2417335333988576 -0.33921973939483363
2140000000.0 -0.32359157484671863 -0.24332556502923505
2160000000.0 0.11495753647676879 -0.3747065945315599
2180000000.0 -0.12712810790001428 -0.35700261392970917
2200000000.0 -0.3399186254967707 -0.1368803403776323
2220000000.0 -0.34649465106743066 0.0778715050749158
2240000000.0 -0.12219569087085927 0.3287974119392524
2260000000.0 0.0731969519979766 0.34367039674463773
2280000000.0 0.3285098887402337 0.13592839934062464
2300000000.0 0.16208434747781966 -0.3312711720718186
2320000000.0 -0.3527390460675341 -0.16736465181495097
2340000000.0 -0.10046895803568746 0.41040788796718913
2360000000.0 0.38087686141950833 -0.2645827993246906
2380000000.0 -0.4773972931977734 0.18282273106391594
2400000000.0 0.481116154306755 -0.2873400835940471
2420000000.0 -0.31998542024009635 0.5201378166359242
2440000000.0 -0.10553451776873794 -0.6477880961956757
2460000000.0 0.5059708949945834 0.47527934945157807
2480000000.0 -0.6870454691963392 -0.2263231297808282
2500000000.0 0.6997098685699146 0.24705451269572543
2520000000.0 -0.6387459157557963 -0.3955253090189453
2540000000.0 0.3047940055817113 0.6876546816160588
2560000000.0 0.25141993236094157 -0.7014760829421197
2580000000.0 -0.7059330789424638 0.1856016827912192
2600000000.0 0.5198730981594407 0.47719363939028886
2620000000.0 0.16393608724854192 -0.6548636337802716
2640000000.0 -0.16933808618652912 -0.6163426479994287
2660000000.0 -0.4100677887740957 0.43089840035908555
2680000000.0 0.5424890612796552 0.0796034127898017
2700000000.0 -0.2955155784877967 -0.4061122025321669
2720000000.0 -0.11657475105199894 0.44024540072407764
2740000000.0 0.3667366488516124 -0.18960727203151015
2760000000.0 -0.3703055858225008 0.05667758708791881
2780000000.0 0.34576765689253686 0.0008226181214220352
2800000000.0 -0.3048483161482134 0.10017046403309014
2820000000.0 0.07386626682110335 -0.2954404361698273
2840000000.0 0.14677747843423625 0.2542340288294418
2860000000.0 -0.2902549487332782 -0.019417345565104865
2880000000.0 0.16491277051841863 -0.23968348090786792
2900000000.0 -0.02649727302827892 0.29100594710405464
2920000000.0 0.1884222437099175 -0.22808804662921692
2940000000.0 -0.2840904023582385 -0.09426109913408083
2960000000.0 -0.25702627277442147 0.15937549043681778
2980000000.0 -0.2747344793357512 0.13487978483929727
3000000000.0 -0.2854860854611185 -0.11751000594620348
3020000000.0 -0.01594307173155811 -0.3085830181288343
3040000000.0 0.3002499226812117 0.05654691248647409
3060000000.0 -0.2875161589628979 0.09985615889432
3080000000.0 0.21764234202597366 -0.20674993561906768
3100000000.0 -0.23886699350272933 0.1714280893786044
3120000000.0 0.12187987215408579 -0.2624154648319827
3140000000.0 0.08422334181936605 0.2680005028053665
3160000000.0 -0.257956187476692 -0.06264787211314758
3180000000.0 0.13374775141009324 0.2108138569351197
3200000000.0 -0.21446291829505115 0.07119626753807716
3220000000.0 -0.06629593847713512 -0.1887807266370819
3240000000.0 0.16801172118537033 0.030100714944787287
3260000000.0 -0.11174282436561378 0.08262899740412921
3280000000.0 0.09966489942968676 -0.04111753676589366
3300000000.0 -0.07723067184050467 -0.006940301094901245
3320000000.0 0.01475557177257883 0.049145999741650626
3340000000.0 0.025839997093474506 0.011666289890180087
3360000000.0 0.0004101705255451274 0.009450403309011804
3380000000.0 -0.0011581962165270099 -0.006238790804556376
3400000000.0 -0.01863936953472193 -0.00636611589789039
3420000000.0 0.031997055837275835 0.00455836921352455
3440000000.0 -0.0006575470622939629 -0.04256616962093968
3460000000.0 0.049029443265951544 -0.01627484332234412
3480000000.0 0.02317323393940057 0.058302821167364245
3500000000.0 0.07322913486509983 -0.024724075717292984
3520000000.0 -0.0238226500266674 -0.08911685559121217
3540000000.0 0.07935933890738504 0.0719809044828447
3560000000.0 -0.12149111463965775 0.007799864904248645
3580000000.0 0.11060894722415583 -0.0785490372984126
3600000000.0 0.11210997584827556 0.10196793334493022
3620000000.0 -0.019170789522790565 0.16177778481460703
3640000000.0 -0.16389337558358127 0.054699440861300255
3660000000.0 -0.15752582358542205 -0.0924795968294452
3680000000.0 -0.039547979739184815 -0.18428669747097814
3700000000.0 -0.02076093858518448 -0.18829117251531977
3720000000.0 0.1302201015157047 -0.13620615450613938
3740000000.0 0.18406657800661366 -0.006669349749805875
3760000000.0 -0.17732764723273484 -0.023780950314746568
3780000000.0 0.16887228209633226 0.0099345177803898
3800000000.0 -0.027584308733782124 -0.15981218010746503
3820000000.0 -0.14817966596483848 -0.0402028023294223
3840000000.0 -0.12839387345116254 -0.0681280071278798
3860000000.0 0.13595486869645865 -0.05222242756157369
3880000000.0 0.15070204071717602 0.0027771650405389644
3900000000.0 0.05871850414353633 -0.14605497311751117
3920000000.0 -0.09903846105403766 0.1286776649974322
3940000000.0 -0.02434509991017654 -0.16566400426079517
3960000000.0 0.13573467966512123 -0.10518040964498718
3980000000.0 -0.032539157368501596 -0.16880131939971302
4000000000.0 -0.015132648859835209 -0.16483896969228215
