!Created with skrf (http://scikit-rf.org).
# Hz S RI R 50.0 
!freq ReS11 ImS11
400000000.0 -0.6033327571805546 0.626128478955483
420000000.0 0.45621576194398805 0.7375948459831071
440000000.0 0.6753554991221521 -0.49830376762105055
460000000.0 -0.4577202445158521 -0.6499822391444977
480000000.0 0.47311353994005734 -0.5313833732975755
500000000.0 -0.37564034603917956 -0.4404517770942576
520000000.0 -0.40891776351473275 0.2844398576351288
540000000.0 0.0020228462451177265 -0.417375652248994
560000000.0 -0.3333399276952742 0.14584754405361372
580000000.0 0.3261082898158142 0.0865206011045358
600000000.0 0.21009156445637847 -0.2761659511272174
620000000.0 -0.056847310435258244 0.35737889137482237
640000000.0 0.38370467803425784 0.10652670292042761
660000000.0 -0.1199068914391473 -0.39375078575222544
680000000.0 0.4099192851418567 -0.12545657147726022
700000000.0 -0.3971562931309502 -0.1641869066478478
720000000.0 -0.22362839785618147 0.35776859275754597
740000000.0 0.3076254329430937 -0.27211221135876773
760000000.0 -0.39014585172243976 -0.0024258611256052654
780000000.0 0.31961594983103964 0.15011475729180987
800000000.0 0.20462170513511585 -0.24374912082648714
820000000.0 -0.27154133503584876 -0.03159162807166689
840000000.0 -0.19892833758571404 0.12851552511337308
860000000.0 -0.07082991827457887 -0.18815789018585796
880000000.0 0.12827676561947182 0.09104407640909218
900000000.0 -0.10213199868176855 0.04046948757419396
920000000.0 0.028033131288526997 -0.06998945035426274
940000000.0 -0.033221934594082535 0.028376620003870773
960000000.0 0.04610354239623346 -0.006321050446644723
980000000.0 -0.0585513525607319 -0.027204795237411004
1000000000.0 0.05126336115109693 0.06285127679326794
1020000000.0 0.09652213167192661 0.030031386291135272
1040000000.0 0.10339631499200647 0.0564191907646386
1060000000.0 -0.017317715803364494 0.1548606831126112
1080000000.0 -0.001173068703384956 0.17447766682565777
1100000000.0 0.11269176962872782 -0.16718865527492419
1120000000.0 0.037505747060550765 0.2220181462151165
1140000000.0 0.19355530310758323 -0.17119128226946145
1160000000.0 -0.16207331111452777 -0.23422412569897694
1180000000.0 0.02687576677316627 -0.318729316167569
1200000000.0 0.28684791640371105 -0.18742362490777356
1220000000.0 -0.2658984745405242 0.25456089447686076
1240000000.0 0.38605093801459583 0.03421109989282332
1260000000.0 -0.24349052525814333 -0.3294352189189694
1280000000.0 -0.37200270004801617 0.20315598108546146
1300000000.0 0.34897726300343174 0.2580961776637519
1320000000.0 0.4347302442146562 0.03236258156437686
1340000000.0 0.4191508089285679 -0.11870900333119055
1360000000.0 0.43707312993023617 -0.009235775764285178
1380000000.0 0.2346400424439367 -0.3660854310565571
1400000000.0 -0.37073859621729527 -0.21249093422550994
1420000000.0 0.0334534565679526 0.4081219420593128
1440000000.0 0.37543112757115565 -0.0738923611472632
1460000000.0 -0.0067949029114220795 -0.35239999144373224
1480000000.0 -0.30585680255525693 0.09628132010000716
1500000000.0 -0.08519343837226051 0.27522598452516717
1520000000.0 0.08071303725822467 0.24622551645876717
1540000000.0 -0.141405204698925 -0.1811767146934454
1560000000.0 0.10297349596793944 -0.16723267987830087
1580000000.0 0.12281701516777724 0.11456954637290404
1600000000.0 0.12082131523901941 -0.05734750196507787
1620000000.0 0.09984888241003136 0.0318995543431262
1640000000.0 -0.043280584030127245 0.06500404043673488
1660000000.0 0.04017355779798123 -0.035663756672409765
1680000000.0 0.005422474590571447 0.03472622374558377
1700000000.0 0.020519500920838298 -0.002859540689896178
1720000000.0 -0.0034884692841747993 -0.004779055717615972
1740000000.0 -0.006560347150289456 -0.01527278860805055
1760000000.0 -0.01655896916169038 0.02916829891186432
1780000000.0 0.022629609498415835 -0.05705982487790355
1800000000.0 -0.0839765885854639 0.03780458712920339
1820000000.0 -0.07657785382864657 0.09911396930118638
1840000000.0 0.06843532533012084 -0.14778655611616134
1860000000.0 -0.13903704758519758 0.14380814729070832
1880000000.0 0.1904726664719676 -0.14623410559027675
1900000000.0 -0.2225511600769131 0.1768023289046897
1920000000.0 0.19338036022778926 -0.2538566491141209
1940000000.0 -0.31110531491481375 0.16853252034720195
1960000000.0 0.3777807384668436 0.04899717697640367
1980000000.0 -0.19582259491684648 -0.3479590287388679
2000000000.0 -0.4163916145358846 -0.016138378725243603
2020000000.0 -0.06355028845950303 0.4217647908721565
2040000000.0 0.19004399675327718 0.39026636778758206
2060000000.0 0.43403588802125476 -0.04641514037319202
2080000000.0 0.18729880139429578 -0.39191787097811037
2100000000.0 -0.03803761039725288 -0.42457553267467485
2120000000.0 -0.24484924286073076 -0.3367823441655788
2140000000.0 -0.29651988235810217 -0.2755659445102826
2160000000.0 0.14270310045522425 -0.3647261097679465
2180000000.0 -0.06962812720339806 -0.3719856215780152
2200000000.0 -0.33654970938306145 -0.1437303489727598
2220000000.0 -0.3427020508788235 0.09279937484850816
2240000000.0 -0.09663889797848334 0.336786971111732
2260000000.0 0.10452533239234905 0.33507167113251296
2280000000.0 0.3414639797976067 0.09776997580169937
2300000000.0 0.13500861435625555 -0.3429397959893934
2320000000.0 -0.3520486142328386 -0.1673180573810338
2340000000.0 -0.14443476638806843 0.3959191943976974
2360000000.0 0.39419311112932887 -0.24308051597698285
2380000000.0 -0.48656437502642264 0.15552452605226713
2400000000.0 0.5062257960187068 -0.24004765459647937
2420000000.0 -0.32905526915169064 0.5138939766777852
2440000000.0 -0.04663123891649343 -0.6545898537006329
2460000000.0 0.4923597519949841 0.48982196733513456
2480000000.0 -0.6732162271388791 -0.26494948642749594
2500000000.0 0.6785723062436734 0.3009180269684096
2520000000.0 -0.6266069902010938 -0.4162037444066705
2540000000.0 0.26335921861422557 0.7054141272560785
2560000000.0 0.25820284694684076 -0.699465819036584
2580000000.0 -0.7062106946056258 0.18521024564629723
2600000000.0 0.5150500753589604 0.48354526034430145
2620000000.0 0.0634851591114179 -0.6728190465858102
2640000000.0 -0.1696327163321009 -0.6167131596981285
2660000000.0 -0.40901372707664746 0.43236848349775997
2680000000.0 0.5490458681511087 0.018959421806098258
2700000000.0 -0.2826131495235988 -0.41586372954645867
2720000000.0 -0.07566273027824562 0.4506054912523266
2740000000.0 0.36756419902490095 -0.19081927133002952
2760000000.0 -0.3737475308199226 0.03531946287367115
2780000000.0 0.3451999165375093 0.009861773138131746
2800000000.0 -0.3084131800683873 0.08907583568521107
2820000000.0 0.06423089096002328 -0.29788978696483775
2840000000.0 0.17182985614311252 0.23803506606480598
2860000000.0 -0.29064462511568234 0.012768981055904762
2880000000.0 0.15297467947139287 -0.24743155733409938
2900000000.0 0.016544459479573243 0.29218141520774266
2920000000.0 0.17123058333478103 -0.24086234891293587
2940000000.0 -0.28187029587070767 -0.09943899207015505
2960000000.0 -0.2655495020096422 0.14550566840571774
2980000000.0 -0.2768113916725133 0.1322369654909953
3000000000.0 -0.2994948224662514 -0.07592298201139373
3020000000.0 -0.010044274985056917 -0.30930538273099106
3040000000.0 0.3007552223276383 0.058124696100840395
3060000000.0 -0.28094821381039925 0.1180386112758888
3080000000.0 0.2093879059804577 -0.21439530780685717
3100000000.0 -0.23198898243146715 0.18142344119119838
3120000000.0 0.11038132697961202 -0.2669535723874388
3140000000.0 0.07816154922039024 0.2692381046077369
3160000000.0 -0.24311039055734046 -0.10615694227643793
3180000000.0 0.09269536544959402 0.23211831108731398
3200000000.0 -0.21617232442220652 0.06672910229392914
3220000000.0 -0.030377695392900694 -0.1972157255900169
3240000000.0 0.1602891527266717 0.05692340499356457
3260000000.0 -0.11755382664466271 0.07356592937022044
3280000000.0 0.09405747975488374 -0.051763681865019485
3300000000.0 -0.07701723004333859 0.01013602184873898
3320000000.0 0.013394119406907047 0.0498461455186904
3340000000.0 0.02827990953058488 -0.0017472119901276433
3360000000.0 0.008754333249608509 -0.0038331487108681367
3380000000.0 -0.0064094790651670714 -0.0015724911192188222
3400000000.0 -0.01543284895395555 0.013020570401053137
3420000000.0 0.031810868285308755 -0.007201851301638116
3440000000.0 -0.02321208916189365 -0.036123848520328905
3460000000.0 0.049348734916457845 -0.01656944176613772
3480000000.0 0.01738000573660192 0.05978526020601361
3500000000.0 0.06704182543011539 -0.037518284187074494
3520000000.0 -0.0773980026990116 -0.04980593571118734
3540000000.0 0.10676954570821844 -0.0015313984813840073
3560000000.0 -0.10109275156987535 0.06763282483542572
3580000000.0 0.07060679121283829 -0.11505511023958177
3600000000.0 0.15067506058798874 0.015228837157762631
3620000000.0 0.04451299194645716 0.1568932270599209
3640000000.0 -0.1388936017438847 0.1036720485884248
3660000000.0 -0.18110093301285612 -0.028468396696507157
3680000000.0 -0.11486141372511953 -0.15037875211511867
3700000000.0 -0.07199579114942783 -0.1765723014260423
3720000000.0 0.10013835346364967 -0.16224038030940202
3740000000.0 0.18064502969731847 -0.04293097977527509
3760000000.0 -0.17827575173213048 0.0189985494126845
3780000000.0 0.16520314491579202 -0.0412718207265581
3800000000.0 -0.09654469430681269 -0.13049014349002366
3820000000.0 -0.15389353586147433 -0.0065908800109661094
3840000000.0 -0.1467758513844152 -0.002651801557321347
3860000000.0 0.09963807353162334 -0.10744649084136737
3880000000.0 0.14917647668331416 -0.025858277408932095
3900000000.0 0.06607080202944113 -0.14353698412992574
3920000000.0 -0.11827676099472863 0.1125039420219801
3940000000.0 -0.0039751532455272786 -0.1676519401119156
3960000000.0 0.11981253597109695 -0.12433908824899154
3980000000.0 -0.023714100848831778 -0.17084352588427124
4000000000.0 0.030136213284469426 -0.16328142747275426
