!Created with skrf (http://scikit-rf.org).
# Hz S RI R 50.0 
!freq ReS11 ImS11
400000000.0 -0.5903443145388175 0.6418671785831356
420000000.0 0.44759900224836535 0.7440246977834646
440000000.0 0.6845624953889663 -0.48686077742168676
460000000.0 -0.4610816002906159 -0.6480198843211469
480000000.0 0.4789550584883643 -0.5267642885524635
500000000.0 -0.37685130147006884 -0.4395084338711366
520000000.0 -0.42198189173012995 0.26491628180133225
540000000.0 -0.011832836052604368 -0.41718692954489095
560000000.0 -0.33198125869311473 0.14872800991149165
580000000.0 0.3141730293452878 0.12226746048512455
600000000.0 0.23232153689642315 -0.25649758721285704
620000000.0 -0.05938141205753942 0.3557169128072378
640000000.0 0.3897242976119012 0.07501835954664832
660000000.0 -0.19661909158852522 -0.3605239360338932
680000000.0 0.3687018572449005 -0.21661321952859652
700000000.0 -0.4165421033967028 -0.10321889526134553
720000000.0 -0.1618931439331492 0.38954267779442586
740000000.0 0.2627042682206936 -0.31503939558075394
760000000.0 -0.3906548478962873 0.009249904583377967
780000000.0 0.3174417126763988 0.15686500015067004
800000000.0 0.21636036658496913 -0.23447559592566913
820000000.0 -0.2656894313773493 -0.06655373258501959
840000000.0 -0.22134887865953873 0.08406108536805061
860000000.0 -0.013752666116476981 -0.20063060819517634
880000000.0 0.058230922670390796 0.1454326018036275
900000000.0 -0.10353832089020859 -0.031424091077047044
920000000.0 0.04894721488515866 -0.054535551957585075
940000000.0 0.04179457505007906 -0.005382828503873065
960000000.0 -0.04519469518647998 -0.013786160287978839
980000000.0 -0.06197676286670851 0.025387953596490057
1000000000.0 0.024972371046153727 0.07942339369170763
1020000000.0 0.06821153225979323 0.07642550587183998
1040000000.0 0.026708992993395454 0.11547267616598891
1060000000.0 -0.10964676539435866 0.11075138777834069
1080000000.0 -0.09958644202176609 0.14207659103883555
1100000000.0 0.17913619810403505 -0.08753829764503307
1120000000.0 0.007155858205536382 0.22194734520514023
1140000000.0 0.17433922876001498 -0.18717968896995932
1160000000.0 -0.2145888530907798 -0.18328092162310786
1180000000.0 -0.09477855681954976 -0.3029265624429811
1200000000.0 0.17725915004276604 -0.29096915277579777
1220000000.0 -0.14582186012693182 0.33624027216087665
1240000000.0 0.3654113001189671 -0.1264790495870494
1260000000.0 -0.3421243216002668 -0.22472543638058817
1280000000.0 -0.3093621790759211 0.29025933261038933
1300000000.0 0.39234926328054165 0.1879181854093801
1320000000.0 0.43647588945119076 -0.025886767867676262
1340000000.0 0.4123298903463455 -0.14470235714259988
1360000000.0 0.43814997714196785 -0.01819568942518769
1380000000.0 0.25983785629777295 -0.34993847051687993
1400000000.0 -0.3492808123859515 -0.24728305563635733
1420000000.0 -0.05260450451706383 0.40675237063183867
1440000000.0 0.3817779165274923 0.027446301274441587
1460000000.0 0.0883934021061374 -0.3413819928254816
1480000000.0 -0.3182933400635252 -0.032089688831060365
1500000000.0 -0.15531089664408984 0.24057334647807463
1520000000.0 0.04112793396767186 0.25395141544809613
1540000000.0 -0.11021646704219895 -0.1994054250447001
1560000000.0 0.09653219795347136 -0.16803719927156688
1580000000.0 0.14492097881382748 0.07926628326084163
1600000000.0 0.09043733373759755 -0.09542330394972655
1620000000.0 0.09464090309050166 -0.041016971465940445
1640000000.0 0.051002679742668006 0.05864111057628594
1660000000.0 -0.04300278972152538 -0.03299017347779591
1680000000.0 0.01712690325513591 -0.031211020166847493
1700000000.0 -0.015964158152560335 -0.014978330396539934
1720000000.0 0.005303148103885145 0.003308400069004269
1740000000.0 -0.005654241320446328 -0.014767370418559706
1760000000.0 0.031928148048637486 -0.005917264087940343
1780000000.0 -0.0517284631053849 -0.033042910506430385
1800000000.0 -0.009871821744558903 0.0920329330370627
1820000000.0 -0.0013260286350064005 0.12593987688374575
1840000000.0 0.0005062691296186499 -0.16370978012591286
1860000000.0 -0.1124927862594924 0.16665644051421624
1880000000.0 0.17047643535132992 -0.17086413185050775
1900000000.0 -0.2216980401842881 0.18009828053874902
1920000000.0 0.22656765255006647 -0.22611440578828504
1940000000.0 -0.3321973237295962 0.12294132059918647
1960000000.0 0.36977744515859085 0.09259201687356514
1980000000.0 -0.13785864180451568 -0.3742098591659241
2000000000.0 -0.41041361544171456 -0.06726027841249374
2020000000.0 -0.12341293514253046 0.40751170699281186
2040000000.0 0.16381147668956988 0.400696597950695
2060000000.0 0.4348447744766705 -0.022354897550031075
2080000000.0 0.1907167686072316 -0.38829083209078763
2100000000.0 -0.04380789571127626 -0.422571766460629
2120000000.0 -0.2711800696469561 -0.31475468211233976
2140000000.0 -0.3224513125791025 -0.24363623089785563
2160000000.0 0.06003927174649201 -0.38629163523954224
2180000000.0 -0.20276303326788736 -0.3193513672930115
2200000000.0 -0.35689023623396166 -0.07946968979945179
2220000000.0 -0.3311334365453708 0.12847268978876625
2240000000.0 -0.09726655019333726 0.3371034014099665
2260000000.0 0.1292954751094614 0.3269090904694078
2280000000.0 0.34345703737163524 0.09391314908797481
2300000000.0 0.14324435896598334 -0.3404784004907489
2320000000.0 -0.3570780136161844 -0.15909839974739765
2340000000.0 -0.15734485328960307 0.391769517555373
2360000000.0 0.41180478085362354 -0.2124697525771119
2380000000.0 -0.48670242623208343 0.1562605425536213
2400000000.0 0.5015422115752016 -0.249740121531697
2420000000.0 -0.3174767160285002 0.5209226297237682
2440000000.0 -0.05809040219183689 -0.6530239337882533
2460000000.0 0.5023865287109945 0.4783259441363952
2480000000.0 -0.6886119975479548 -0.21937436346220687
2500000000.0 0.7139457764712764 0.2000073353247226
2520000000.0 -0.6511540401859162 -0.3757667912438357
2540000000.0 0.3343739425275398 0.6732390636160976
2560000000.0 0.18990235426227237 -0.7208060100843288
2580000000.0 -0.7138552440268702 0.15317901208816034
2600000000.0 0.5942226313730536 0.3805792718743967
2620000000.0 -0.007111006734927872 -0.6759017396647746
2640000000.0 -0.17831518640584879 -0.6141351442132789
2660000000.0 -0.35066820885862693 0.4811811675681148
2680000000.0 0.5494697077197044 0.012763809515459816
2700000000.0 -0.28197857784476066 -0.4166563409385975
2720000000.0 -0.09836104700206885 0.44570447773781197
2740000000.0 0.36528849718304807 -0.19347258563721012
2760000000.0 -0.3717206336221222 0.05012960511702473
2780000000.0 0.34482468913139375 0.023439422380720904
2800000000.0 -0.3141182646933565 0.0663371880628962
2820000000.0 0.07742485929276985 -0.29444675078114324
2840000000.0 0.1311610582904163 0.2626919088701971
2860000000.0 -0.2898600494460849 -0.013456302612088238
2880000000.0 0.16813195368588862 -0.23692274028142524
2900000000.0 -0.0059585765475672495 0.2916933561109536
2920000000.0 0.1589855317749182 -0.24792386938842018
2940000000.0 -0.28180607566076027 -0.09799257651166839
2960000000.0 -0.2244715108941348 0.20132953017979277
2980000000.0 -0.2332574856667776 0.19751064741768537
3000000000.0 -0.3057487859478423 -0.03214139256436883
3020000000.0 -0.08365124919399008 -0.2971795875277407
3040000000.0 0.3044188170924517 0.033397323258769325
3060000000.0 -0.22899509247015823 0.2001272384274087
3080000000.0 0.19085688448781962 -0.23090406828095952
3100000000.0 -0.22004031702769825 0.1956816008350492
3120000000.0 0.0422179906444316 -0.2867465336651459
3140000000.0 0.1288734722138638 0.2490627294558824
3160000000.0 -0.26280268947492647 -0.043247611312804864
3180000000.0 0.13480217647899068 0.21053963799611972
3200000000.0 -0.19686531965014292 0.11235530712862939
3220000000.0 -0.07109318264940118 -0.18799899535284195
3240000000.0 0.17012249968420504 0.025477080757729597
3260000000.0 -0.10662657429099412 0.0909264273934319
3280000000.0 0.09893413380887922 -0.04554704104038919
3300000000.0 -0.06570972999903842 -0.044134475613839444
3320000000.0 -0.03855878527012294 0.035661624444261145
3340000000.0 -0.018385979197464302 0.02283527483680714
3360000000.0 0.009241559815474355 0.004986356204574953
3380000000.0 0.003234679909850233 0.0035752930879732647
3400000000.0 0.01820032711232674 -0.003809519929252459
3420000000.0 -0.030886855024888096 -0.005571106781856752
3440000000.0 -0.009109925234365107 0.04054040299028175
3460000000.0 -0.028723695318659898 -0.04163155203102441
3480000000.0 0.037175985660768025 -0.04987297499120382
3500000000.0 -0.018107462675513723 -0.07489813650049736
3520000000.0 -0.08679208408252273 0.030140205607663298
3540000000.0 0.09668268799681382 -0.04549751476614389
3560000000.0 -0.08643438973496778 0.08626728448825134
3580000000.0 0.006540412583732085 -0.13564433899985923
3600000000.0 0.14655992282042588 -0.04104434308494308
3620000000.0 0.07883482653925528 0.14311735103017492
3640000000.0 -0.11272044001056 0.1330994243180208
3660000000.0 -0.1842365840990912 0.014400739459517758
3680000000.0 -0.13674735875979227 -0.131216746324994
3700000000.0 -0.071143962377027 -0.17693031197914685
3720000000.0 0.10695472094985826 -0.15726076071045836
3740000000.0 0.17830228471241324 -0.052021131258896916
3760000000.0 -0.178228047380258 0.024908615865630295
3780000000.0 0.1582445686914875 -0.06319035999498547
3800000000.0 -0.10275551741511513 -0.12641296762239818
3820000000.0 -0.15467552163860365 -0.0016716392910587675
3840000000.0 -0.1373284818473369 -0.054937757963260433
3860000000.0 0.14321242338199167 -0.03366450681825878
3880000000.0 0.15116447004414799 0.01344180731756993
3900000000.0 0.07161566809117736 -0.14160964057420092
3920000000.0 -0.139242593821418 0.08671296180957405
3940000000.0 0.04505916379786975 -0.16322106838066386
3960000000.0 0.1661387241306838 -0.05198981949093373
3980000000.0 0.10127649131469692 -0.14195952993900757
4000000000.0 0.12580822395918656 -0.1117886922330416
