!Created with skrf (http://scikit-rf.org).
# Hz S RI R 50.0 
!freq ReS11 ImS11
400000000.0 -0.5721889964178511 0.65679709261667
420000000.0 0.41306443583264596 0.7643982949769368
440000000.0 0.6967886402946922 -0.4693295201166554
460000000.0 -0.4283789416746024 -0.6703190874849717
480000000.0 0.472641768892024 -0.5319063483062701
500000000.0 -0.3937190360765736 -0.4241991310905467
520000000.0 -0.41183671113411446 0.28153410513703997
540000000.0 -0.008284778578174971 -0.41720165890069777
560000000.0 -0.33846272922695053 0.13295247759567905
580000000.0 0.3087561518788337 0.1358317434977064
600000000.0 0.21286078995810623 -0.2731431728403962
620000000.0 -0.059528319983400975 0.355043873753741
640000000.0 0.3922564822345006 0.060784235023721975
660000000.0 -0.21337451324429943 -0.3504231832615497
680000000.0 0.38451554295690404 -0.18893398541213682
700000000.0 -0.42140388291294717 -0.0814052792922275
720000000.0 -0.16671147331814937 0.38768897746872727
740000000.0 0.2369839700374699 -0.33372185134073984
760000000.0 -0.3900748793549204 0.024151951189681727
780000000.0 0.31572202141034417 0.1599127677234108
800000000.0 0.2191415087672442 -0.23198877355667716
820000000.0 -0.2561767648402763 -0.09772258691227563
840000000.0 -0.2296219730401958 0.05765644976440238
860000000.0 -0.011004846007713552 -0.20051370641336835
880000000.0 0.09488217213798388 0.12464855893399564
900000000.0 -0.10920610249092727 0.004440218674489003
920000000.0 0.05089489100982727 -0.05425637224388473
940000000.0 0.04019851897920634 0.01330482798447523
960000000.0 -0.04717881867870742 0.0002659449296832075
980000000.0 -0.054492815098128436 0.038690885917745
1000000000.0 0.01727243089833261 0.0813469636925882
1020000000.0 0.05319439068412111 0.08769968443717148
1040000000.0 0.015847974458133636 0.11730172279746467
1060000000.0 -0.09792246665982111 0.12095182824000743
1080000000.0 -0.09783207168345116 0.14348650939791388
1100000000.0 0.17038612916561505 -0.10414526714348428
1120000000.0 -0.012360775772014115 0.22206534705358488
1140000000.0 0.1961434702621153 -0.16361515009157668
1160000000.0 -0.2117210835832526 -0.18669042982757905
1180000000.0 -0.09596257274326542 -0.3028518696362208
1200000000.0 0.17724112669936679 -0.2919137070665086
1220000000.0 -0.13669223413471165 0.3406714791161576
1240000000.0 0.371180107428244 -0.11046517155714101
1260000000.0 -0.3444937158164358 -0.22202931483745292
1280000000.0 -0.3010157383559708 0.2989882054537663
1300000000.0 0.39755048379195235 0.17642098888634367
1320000000.0 0.43636935173068536 -0.026649457163159265
1340000000.0 0.41509248422959155 -0.13631828381227606
1360000000.0 0.4383652854038385 0.0028182827093391214
1380000000.0 0.2695434186437901 -0.3422650892392913
1400000000.0 -0.33363301933281103 -0.2678855945633751
1420000000.0 -0.05587484293866257 0.40623600522880454
1440000000.0 0.381746221247304 0.02873397458894878
1460000000.0 0.1087048239998529 -0.33497456719958374
1480000000.0 -0.3188722269566719 0.026079732633241884
1500000000.0 -0.1642722038945941 0.23495166664423547
1520000000.0 0.048191602072579824 0.2529120693622595
1540000000.0 -0.11308519404124459 -0.19852966545506748
1560000000.0 0.09842289224333355 -0.16810421164560824
1580000000.0 0.13835764776882126 0.09136066356213646
1600000000.0 0.08918530948709921 -0.0969486337251496
1620000000.0 0.08437657184359028 -0.0594745549253703
1640000000.0 0.07072480473089261 0.032281717125795424
1660000000.0 -0.05401294083244101 -0.00455819624044939
1680000000.0 0.02602479056335076 -0.024858778521413827
1700000000.0 -0.012848771880234337 -0.017762307841878683
1720000000.0 -0.001541542080095706 0.006471528945837652
1740000000.0 -0.005579320110612016 -0.015392901659715234
1760000000.0 0.03061251518181344 0.011593783287748212
1780000000.0 -0.04345500248868911 -0.04284218177678432
1800000000.0 -0.00600940225142727 0.09241502269746164
1820000000.0 0.019893445178350132 0.12432640418408468
1840000000.0 -0.02053135625948984 -0.16272653504757406
1860000000.0 -0.09400078889396042 0.17787753655069266
1880000000.0 0.16928416447666833 -0.17206776557506548
1900000000.0 -0.20711210958361537 0.19647490124041392
1920000000.0 0.20850251063082725 -0.24291312343324695
1940000000.0 -0.3288243268040647 0.1324918028504788
1960000000.0 0.3698421447853168 0.09269854621583389
1980000000.0 -0.13304164217958878 -0.37611448302723754
2000000000.0 -0.410143543871267 -0.06589632228963879
2020000000.0 -0.12604299622269355 0.4062157889417256
2040000000.0 0.14914389396063046 0.4062986660078917
2060000000.0 0.43507273103486477 0.011431356544434489
2080000000.0 0.2158218165062499 -0.37479186390240743
2100000000.0 -0.06792674602626302 -0.41894198616709066
2120000000.0 -0.2712467119574726 -0.31367811470658963
2140000000.0 -0.30883837149922 -0.2595456943845587
2160000000.0 0.04475386430136998 -0.3875487076684493
2180000000.0 -0.2006590829687212 -0.3200319446960769
2200000000.0 -0.35880663164079696 -0.07151728197953369
2220000000.0 -0.3086132655820092 0.17421439766509825
2240000000.0 -0.023409134672140997 0.3502634772481829
2260000000.0 0.14908957603714695 0.3184133399876093
2280000000.0 0.3507868072289445 0.05877765224221725
2300000000.0 0.09175739304614172 -0.357653576635608
2320000000.0 -0.3751836131559796 -0.11143892875331045
2340000000.0 -0.1070157545450228 0.40902822651925036
2360000000.0 0.39395549460506774 -0.24513285082032304
2380000000.0 -0.4848619121297334 0.1627407029466125
2400000000.0 0.4985568433413112 -0.2563926481892137
2420000000.0 -0.3415607882291591 0.505546122324269
2440000000.0 -0.053052205167484684 -0.653336946648412
2460000000.0 0.5335871306549846 0.4423817505751404
2480000000.0 -0.6737792883044357 -0.2600386493965012
2500000000.0 0.6993593845032774 0.24225555847773075
2520000000.0 -0.654685536458396 -0.36557410785780475
2540000000.0 0.3465936732671754 0.665628097405506
2560000000.0 0.13874337656121233 -0.7310059269375913
2580000000.0 -0.6683579881421432 0.29108137754254776
2600000000.0 0.5868881739207792 0.39112716755996213
2620000000.0 8.555831628982251e-05 -0.6742648469474671
2640000000.0 -0.28641685742538125 -0.5706045699756012
2660000000.0 -0.3005253988818581 0.5127032686132459
2680000000.0 0.5468494215395714 -0.04187578961446502
2700000000.0 -0.344884791905893 -0.3659531968576913
2720000000.0 -0.011429547029622808 0.45638573224916024
2740000000.0 0.35707206846778633 -0.20859227722019316
2760000000.0 -0.3703520104853418 0.06044664981043807
2780000000.0 0.3457737688889043 0.004394411425290425
2800000000.0 -0.31033218704087784 0.08237532212126603
2820000000.0 0.10501142711173853 -0.2858699596555088
2840000000.0 0.09917984526643216 0.2764735956857298
2860000000.0 -0.2821276116500139 -0.06840456294245062
2880000000.0 0.2118632927977327 -0.1974316214155768
2900000000.0 -0.06098914725421277 0.2846470894269929
2920000000.0 0.1805150237574308 -0.23221497004368016
2940000000.0 -0.2940138857813386 -0.046074421149286615
2960000000.0 -0.24477474590926737 0.1739915578200086
2980000000.0 -0.23684394156461927 0.19189390504215945
3000000000.0 -0.3051644812162744 0.02765837060762833
3020000000.0 -0.19132939012996927 -0.2415789686736892
3040000000.0 0.30132277663205126 -0.05188366585757773
3060000000.0 -0.20193628642843983 0.22754450534552323
3080000000.0 0.13228772748903841 -0.2688221920704238
3100000000.0 -0.155045178594908 0.2500088325732425
3120000000.0 -0.007733479626946338 -0.2885529947472655
3140000000.0 0.20347661913108997 0.19353854201379786
3160000000.0 -0.2643474983722703 0.028864209603719368
3180000000.0 0.18374950701659998 0.17059097043414895
3200000000.0 -0.19021497302992676 0.12432494972633323
3220000000.0 -0.047116879323013776 -0.19595020439702632
3240000000.0 0.15998051920673745 0.06425734839438034
3260000000.0 -0.1144656782103267 0.08157905753565707
3280000000.0 0.10947560835194031 0.002685550617096121
3300000000.0 -0.05523499985271213 -0.05721339660879179
3320000000.0 -0.05160027542162116 0.010612894745264256
3340000000.0 -0.028113441245183956 -0.007841076380580715
3360000000.0 0.004842950518630376 -0.008623317451144426
3380000000.0 0.0034662374078973965 0.004896099356978418
3400000000.0 -0.01133623532280413 -0.016395706410996438
3420000000.0 -0.03195441713263426 0.008597923534383281
3440000000.0 -0.03155525807777946 0.029960008595299216
3460000000.0 -0.012111369197253335 -0.050647509301278655
3480000000.0 0.04984607778196041 -0.039640608812822206
3500000000.0 0.004512891162172045 -0.07804358482766606
3520000000.0 -0.09006131828465494 0.022613893036343948
3540000000.0 0.09947167220669509 -0.04095628217305299
3560000000.0 -0.06664567710653635 0.10295899160105344
3580000000.0 0.02810467281108282 -0.13341951586793768
3600000000.0 0.15049927980513364 0.022834696858354507
3620000000.0 0.04767444822047692 0.15681696718321345
3640000000.0 -0.14711092576016896 0.09367428161385742
3660000000.0 -0.17681204516702825 -0.051528461646709045
3680000000.0 -0.10764213777195648 -0.15661252346095897
3700000000.0 -0.06829725564974591 -0.17814469402977054
3720000000.0 0.14123939803209226 -0.1273106471623397
3740000000.0 0.1845202228048064 -0.024790338271941867
3760000000.0 -0.17974644010992977 -0.017299732571929002
3780000000.0 0.16966986454774663 0.017135578421275558
3800000000.0 -0.04201839378731939 -0.15780889543465013
3820000000.0 -0.14612990972228318 -0.05096421757814091
3840000000.0 -0.12144147027293047 -0.08272388008836679
3860000000.0 0.14695779655783953 0.01100663859994541
3880000000.0 0.1270689338391707 0.08414594575983403
3900000000.0 0.13292978028931893 -0.08817772297211827
3920000000.0 -0.15561746771106266 0.05376363133330773
3940000000.0 0.09551821422372798 -0.1394362595621936
3960000000.0 0.1735508916188538 -0.0059915796498319065
3980000000.0 0.11291876367918281 -0.13218812971786584
4000000000.0 0.10180275445942837 -0.13248737877607825
