!Created with skrf (http://scikit-rf.org).
# Hz S RI R 50.0 
!freq ReS11 ImS11
400000000.0 -0.5881907257700576 0.6435944548242581
420000000.0 0.4721624513783322 0.7268060670396931
440000000.0 0.6673130552000346 -0.5084578184250459
460000000.0 -0.4666196839165806 -0.6429891004379323
480000000.0 0.479768107710339 -0.5265356208034369
500000000.0 -0.407403316627827 -0.41123627660732454
520000000.0 -0.4288837121585119 0.25370352364904525
540000000.0 -0.018905949133633585 -0.41730980292695413
560000000.0 -0.3236554635583729 0.16544797659344812
580000000.0 0.32370623340106724 0.09590705948736362
600000000.0 0.22135690310950457 -0.26698443077436423
620000000.0 -0.031768144862327034 0.36005041325847786
640000000.0 0.3762552183158681 0.12908947357125652
660000000.0 -0.13291977065847116 -0.3894789070923598
680000000.0 0.40589007796293086 -0.13899514336873828
700000000.0 -0.40451969438414326 -0.14270550389881384
720000000.0 -0.2193863418154223 0.36012227324712315
740000000.0 0.323974581880095 -0.25200299044947533
760000000.0 -0.3901925195046018 0.0019099142481327199
780000000.0 0.3112347580749876 0.16670105738595342
800000000.0 0.20467864314565962 -0.24364151265741205
820000000.0 -0.2719177108309389 -0.027334446209954514
840000000.0 -0.19878644156651998 0.12838720634832232
860000000.0 -0.09121866621802185 -0.1790458930055191
880000000.0 0.1271585065124005 0.09275077686015812
900000000.0 -0.1060021816798896 0.028242962189558626
920000000.0 0.051594484102984464 -0.05485332518799386
940000000.0 -0.0016679855979173958 0.043481633610973944
960000000.0 0.041408532001394854 -0.02210741455003462
980000000.0 -0.0509655398769416 -0.04041753507283965
1000000000.0 0.024825330563478652 0.07713440002389459
1020000000.0 0.098195311152556 0.02316103357999202
1040000000.0 0.10793225538521259 0.04690870303984009
1060000000.0 -0.002187437550556851 0.15587006006219264
1080000000.0 0.008631441949267354 0.1743610369735397
1100000000.0 0.09816292523830521 -0.1760553881715336
1120000000.0 0.043498092269791525 0.2204841863271993
1140000000.0 0.18048562566024304 -0.18522159613280828
1160000000.0 -0.13966572775044472 -0.24811259130354785
1180000000.0 0.030009479472519952 -0.31854647656810625
1200000000.0 0.29361811770789703 -0.17649545447852263
1220000000.0 -0.28344420241099066 0.23444942720346115
1240000000.0 0.3853390780172308 0.04050571513419482
1260000000.0 -0.23836837268781538 -0.33296020519658753
1280000000.0 -0.37166083202993405 0.20435133904117547
1300000000.0 0.34362874344791 0.265898570243416
1320000000.0 0.43548768798931026 0.029654656850523348
1340000000.0 0.41899052476156795 -0.1199330677690363
1360000000.0 0.4375263592609058 -0.00919689053921593
1380000000.0 0.2492194165777911 -0.35666546677282296
1400000000.0 -0.36295429937467677 -0.22575508851843173
1420000000.0 0.013669342329707752 0.40941105634640385
1440000000.0 0.37995796089429545 -0.04588259217993892
1460000000.0 0.015443946055305966 -0.3524715627780255
1480000000.0 -0.29979933528837366 0.11431591748256233
1500000000.0 -0.08993077211561232 0.27360237459026054
1520000000.0 0.08207433199135478 0.24548159562597732
1540000000.0 -0.14584026829091737 -0.17751011054292684
1560000000.0 0.08758525440871748 -0.17498983770549995
1580000000.0 0.1358178259322092 0.09701065972870966
1600000000.0 0.12651804427067392 -0.04097546829181997
1620000000.0 0.09475671311892482 0.043443428144563444
1640000000.0 -0.030887840197693233 0.07171421545118158
1660000000.0 0.03379104749517296 -0.04199654773177878
1680000000.0 0.012956854378797959 0.03215633719620029
1700000000.0 0.017046387083348238 0.011972071828716095
1720000000.0 0.002138927355669158 0.005079735363868375
1740000000.0 -0.01607056925456305 0.003986346646236039
1760000000.0 -0.01907445362398623 0.02684064118470575
1780000000.0 0.015598099873960056 -0.059389195444255506
1800000000.0 -0.07306778981382445 0.05655517034242584
1820000000.0 -0.06477872103052451 0.10754054209948773
1840000000.0 0.05321652148646789 -0.15409724083932144
1860000000.0 -0.1354074952165534 0.14763350565336836
1880000000.0 0.18287177909054644 -0.15631650302470826
1900000000.0 -0.22369642983915672 0.1763680700122239
1920000000.0 0.21091206567645496 -0.23989793036771742
1940000000.0 -0.3158994984968034 0.15931694991573314
1960000000.0 0.37883763817715554 0.040392839398424606
1980000000.0 -0.17994923981472744 -0.3562712682891329
2000000000.0 -0.41591944193009006 -0.017621425683369944
2020000000.0 -0.08652718878436536 0.41773077414728293
2040000000.0 0.19355799426219553 0.3882328493476176
2060000000.0 0.43416860564583837 -0.045651383641538965
2080000000.0 0.1879543915376133 -0.3910635078209607
2100000000.0 -0.04155419075405092 -0.4242148373810563
2120000000.0 -0.2874582230549868 -0.3013574742494878
2140000000.0 -0.31098976359312924 -0.260038620745429
2160000000.0 0.10829911718363683 -0.37682512412356456
2180000000.0 -0.10797539115134205 -0.3635736226934022
2200000000.0 -0.3288936440598508 -0.16121693993854952
2220000000.0 -0.3385261842977526 0.10740668005518242
2240000000.0 -0.13827342168759962 0.3222143375648548
2260000000.0 0.10926488543225933 0.33398293311422744
2280000000.0 0.33537909802164445 0.11859600202736306
2300000000.0 0.17644745531717884 -0.32359663716530723
2320000000.0 -0.3516581908514167 -0.16969630330577037
2340000000.0 -0.15606976685023113 0.39203133543356317
2360000000.0 0.40746658286892357 -0.22020114719125738
2380000000.0 -0.4848544962037648 0.16134788387336912
2400000000.0 0.4997302687383352 -0.25314395265461226
2420000000.0 -0.31316954222493076 0.5238799298697371
2440000000.0 -0.08436619911610979 -0.6504229342543563
2460000000.0 0.507139379817426 0.47378573352877135
2480000000.0 -0.6826155243214798 -0.2395121991662066
2500000000.0 0.6782225395127536 0.3020994131527621
2520000000.0 -0.6487609643814319 -0.3809296764468399
2540000000.0 0.2685166121112823 0.7030122413947218
2560000000.0 0.2534617721309942 -0.7017756596833685
2580000000.0 -0.7035597625875964 0.1964243050930181
2600000000.0 0.4861840194405859 0.511736463311932
2620000000.0 0.12168858726351683 -0.6650417495779942
2640000000.0 -0.11440323739505559 -0.6293271979429937
2660000000.0 -0.38468295103956673 0.45464067230174404
2680000000.0 0.5341890616044412 0.12865354025148087
2700000000.0 -0.2782117062634935 -0.4192004696510199
2720000000.0 -0.09664190164542073 0.44621158449984427
2740000000.0 0.3789266771594631 -0.1644375055376896
2760000000.0 -0.37404188102693736 0.025091634908904703
2780000000.0 0.34554178625340115 0.010630676929011592
2800000000.0 -0.31096839267707094 0.08011100328249637
2820000000.0 0.0646414688837816 -0.2977071068525715
2840000000.0 0.15429557633674537 0.2501337459298713
2860000000.0 -0.29049816454392985 0.009555974641354714
2880000000.0 0.1618433913839575 -0.2420421757027696
2900000000.0 -0.013707965995427028 0.29242880993641673
2920000000.0 0.16905561768198388 -0.24276186729337376
2940000000.0 -0.2822943286734296 -0.09943015285628978
2960000000.0 -0.25936608391777705 0.1554177673058694
2980000000.0 -0.25583054215234813 0.16897966571426243
3000000000.0 -0.2942300002892725 -0.09218719361864398
3020000000.0 -0.047895505203138775 -0.3055351715548953
3040000000.0 0.2955126563839367 0.08129102705725004
3060000000.0 -0.295378558816122 0.07199042702965147
3080000000.0 0.2509676499475171 -0.16373838560284712
3100000000.0 -0.25374214003622075 0.1490367960764365
3120000000.0 0.09284385991746344 -0.2742081211465454
3140000000.0 0.06974834927952031 0.2711238213319941
3160000000.0 -0.24636929470248511 -0.0983430103775222
3180000000.0 0.11318222203574575 0.22205849267909392
3200000000.0 -0.20310732976958917 0.098244073359707
3220000000.0 -0.06286403895434024 -0.18969686702859476
3240000000.0 0.1705725431100909 0.0018624813828681075
3260000000.0 -0.08798608129657566 0.10771708745623754
3280000000.0 0.08869796001762698 -0.06166279498735755
3300000000.0 -0.07748400572487786 0.011363594160187734
3320000000.0 0.02062241880708555 0.0473006260830702
3340000000.0 0.02832530595886869 0.003803050204763791
3360000000.0 0.009756995002842522 0.0019859510110668407
3380000000.0 0.005520766354143472 -0.0003388543136095487
3400000000.0 -0.018868992846508687 -0.002614469205789091
3420000000.0 0.022280955963212137 -0.022934789553907087
3440000000.0 -0.04062345976969376 -0.010616950893469508
3460000000.0 0.03943942582239197 -0.03233029073069094
3480000000.0 0.04801813304181158 0.03948938169709357
3500000000.0 0.03739751202460599 -0.06758954646182284
3520000000.0 -0.09223437738057394 -0.0024604306176723174
3540000000.0 0.10168009494722124 0.03250656870013754
3560000000.0 -0.11770978555196521 0.03264505252358125
3580000000.0 0.06514639283187927 -0.11882201630472912
3600000000.0 0.1490456982561948 0.02871289172770037
3620000000.0 0.05384370365482141 0.15465770418034155
3640000000.0 -0.14026941909033558 0.10301428525072702
3660000000.0 -0.1842835417954479 -0.013776089618706832
3680000000.0 -0.10097984577927385 -0.15964058120271934
3700000000.0 -0.04667294616544457 -0.18410416739457297
3720000000.0 0.12037903060937309 -0.14628786462527862
3740000000.0 0.18047973131812164 -0.040205691682015945
3760000000.0 -0.17884373673104673 0.0156621943268026
3780000000.0 0.1623340989216529 -0.04876207119788941
3800000000.0 -0.10173961011757332 -0.12600340701012436
3820000000.0 -0.15386519793757691 -0.007896359132890591
3840000000.0 -0.13792854485410594 -0.05030019741824499
3860000000.0 0.142067743668285 -0.03561622152912701
3880000000.0 0.1478149649563628 0.03116385595853202
3900000000.0 0.07717009014959411 -0.13761933844026714
3920000000.0 -0.14194917304169166 0.08095666863077552
3940000000.0 0.052781020032042304 -0.1598342510634012
3960000000.0 0.16834270730955708 -0.04049916026576948
3980000000.0 0.09860654795855989 -0.14254179115350615
4000000000.0 0.12235872926594712 -0.11381000068711404
