!Created with skrf (http://scikit-rf.org).
# Hz S RI R 50.0 
!freq ReS11 ImS11
400000000.0 -0.5672139390222546 0.6639526387010224
420000000.0 0.4029592368816486 0.7697202575331409
440000000.0 0.6957417279764213 -0.4703843732398877
460000000.0 -0.4060735214708961 -0.6842723207600402
480000000.0 0.47293050377900064 -0.5319915806780751
500000000.0 -0.41332810649749047 -0.40522369766742355
520000000.0 -0.41362260443278914 0.27800395640779885
540000000.0 0.020925681874831435 -0.4170865748932241
560000000.0 -0.32240745017795386 0.1681024371131912
580000000.0 0.31145168273730356 0.12929884926816393
600000000.0 0.2620588767292259 -0.22656848635971336
620000000.0 -0.023880237285121723 0.35971714688509937
640000000.0 0.38743092896574083 0.08480157682876813
660000000.0 -0.18949949940097963 -0.36385121659389313
680000000.0 0.3695736982065867 -0.21607749000535934
700000000.0 -0.4210544789241678 -0.08228228120565895
720000000.0 -0.18582267062105035 0.3789509017124698
740000000.0 0.27948179568945153 -0.29982815330776175
760000000.0 -0.38977383819618355 0.026010939560734785
780000000.0 0.3260271296560551 0.13739064314730615
800000000.0 0.21849257648273185 -0.23268450267129653
820000000.0 -0.257917692318606 -0.09385064017451154
840000000.0 -0.23305918462456704 0.04180129956354035
860000000.0 0.007908270939513183 -0.20066252522317807
880000000.0 0.08454501056016195 0.13195886893377234
900000000.0 -0.10856779681975175 -0.011267526097701671
920000000.0 0.05454130843010263 -0.050218393960848304
940000000.0 0.038167889777484434 0.018149267945866153
960000000.0 -0.04078675055859106 -0.023324848415543383
980000000.0 -0.062109545152780575 0.023897672856101167
1000000000.0 0.02747333373288702 0.07817941572493779
1020000000.0 0.06570837810355025 0.07862407093035591
1040000000.0 0.03548411722942853 0.11283172023653136
1060000000.0 -0.10165446718925389 0.11796463780178804
1080000000.0 -0.08797773047473757 0.14978428166794291
1100000000.0 0.1807807385913692 -0.08532508873368669
1120000000.0 -0.026587224764779063 0.22080764079199597
1140000000.0 0.20261336510275813 -0.15574850197904072
1160000000.0 -0.18571082327139068 -0.21251563887152267
1180000000.0 -0.07773303311832863 -0.3082018779630412
1200000000.0 0.20920911155879535 -0.26991161115102263
1220000000.0 -0.17627339916621276 0.3220686747688759
1240000000.0 0.3781511134774416 -0.08433602405946679
1260000000.0 -0.3532470310937171 -0.20818019180357586
1280000000.0 -0.3038325135592201 0.2964587431555742
1300000000.0 0.39014644041458724 0.19239251128471338
1320000000.0 0.4365974245116917 -0.023286091434030435
1340000000.0 0.41646240499289167 -0.1318470320668541
1360000000.0 0.4382514708737861 -0.0004991893610244232
1380000000.0 0.2659872670036615 -0.3448224054080519
1400000000.0 -0.33507659991767463 -0.26581233407770033
1420000000.0 -0.044606038516593456 0.407464575015449
1440000000.0 0.3818513002770837 0.025731792098336446
1460000000.0 0.1066971635491906 -0.3355289369648533
1480000000.0 -0.31166092975980675 0.0724319073477796
1500000000.0 -0.1563938489595024 0.2402583842951803
1520000000.0 0.05194528539785791 0.25223158174163224
1540000000.0 -0.11969934216614496 -0.19497358317472613
1560000000.0 0.09113853440182565 -0.17238053470001297
1580000000.0 0.14707220150047798 0.076722594665054
1600000000.0 0.10154370113317444 -0.08425977319620735
1620000000.0 0.09653395594282482 -0.036896527935769995
1640000000.0 0.07238841063456876 0.02884740793089633
1660000000.0 -0.05437903950385661 -0.004151350246796778
1680000000.0 0.033216224149361144 -0.012801690287217367
1700000000.0 -0.01692037953538319 -0.013722050430605629
1720000000.0 -0.005562090276948347 -0.0030513651676381507
1740000000.0 0.01607720584138738 0.002782299425508607
1760000000.0 0.02966054935212821 0.014373135063178782
1780000000.0 -0.03132884413754035 -0.05256022961412604
1800000000.0 -0.02203038465059342 0.08985196439891655
1820000000.0 0.002057549764584141 0.12577834039973038
1840000000.0 -0.0024871578382612523 -0.16388892696003238
1860000000.0 -0.10802944569475523 0.16945712466104693
1880000000.0 0.17503897304661872 -0.1656162343915387
1900000000.0 -0.21308225675436546 0.18932721326048244
1920000000.0 0.2042638307216576 -0.24618143051569283
1940000000.0 -0.3240800823919445 0.14301039159053364
1960000000.0 0.37315376020217694 0.07780452297189343
1980000000.0 -0.13978102974708545 -0.37381202220761345
2000000000.0 -0.4119952315655762 -0.05503175560966197
2020000000.0 -0.12721164455902442 0.40629441648800846
2040000000.0 0.14657393079982556 0.40751115558574436
2060000000.0 0.4351983830350507 -0.01578517870635355
2080000000.0 0.22305148775917 -0.3709832564501276
2100000000.0 -0.01780132176627322 -0.4246800979660849
2120000000.0 -0.271787153231744 -0.3137530984193157
2140000000.0 -0.3232013811425801 -0.24193488601762222
2160000000.0 0.1080070526862324 -0.3753876956381716
2180000000.0 -0.1440480977892815 -0.34966793308490635
2200000000.0 -0.35778128937845133 -0.07654664887970576
2220000000.0 -0.325855706578848 0.13961059553096666
2240000000.0 -0.07666382109707998 0.3420910990142766
2260000000.0 0.12927564002598171 0.3263293130043453
2280000000.0 0.3499501186482397 0.060457015398589824
2300000000.0 0.09381160359539155 -0.3570150620439309
2320000000.0 -0.3720542378359562 -0.11947164513646226
2340000000.0 -0.1031681192789532 0.40957127001138893
2360000000.0 0.3936667335451101 -0.24514893735512155
2380000000.0 -0.4851134367747133 0.16097025853978758
2400000000.0 0.49461916316824467 -0.26267203926009147
2420000000.0 -0.30945237080437765 0.5257471656112072
2440000000.0 -0.09046107994236745 -0.6492934983926193
2460000000.0 0.49185293206694464 0.4890215309223788
2480000000.0 -0.6794717928573907 -0.24552913010534808
2500000000.0 0.7124146432955687 0.20174730382161152
2520000000.0 -0.6257926601949985 -0.41434820549506163
2540000000.0 0.3280600225464155 0.6752780468717899
2560000000.0 0.16833875303558302 -0.7250118218359232
2580000000.0 -0.7028613814992488 0.194707766064952
2600000000.0 0.5988118358684854 0.3731471029770826
2620000000.0 -0.012461175632610245 -0.6746834921699428
2640000000.0 -0.21787329084753448 -0.6002111782214611
2660000000.0 -0.3414543144671104 0.4867881600218659
2680000000.0 0.5484982820710338 -0.016598603347808875
2700000000.0 -0.32304259384323636 -0.38541898794656815
2720000000.0 -0.04905286632598984 0.4539195221870684
2740000000.0 0.3483932126441081 -0.22272458174917983
2760000000.0 -0.36885866904042136 0.06750818540298448
2780000000.0 0.34544900462575073 0.008357613938988753
2800000000.0 -0.31020851032487845 0.08226838147404826
2820000000.0 0.08668164062054402 -0.2918050870268448
2840000000.0 0.1172178004716575 0.2691017547040324
2860000000.0 -0.28487509334204897 -0.054143867837269474
2880000000.0 0.20427635327748772 -0.20540156629666215
2900000000.0 -0.023598481775179567 0.29037256951140217
2920000000.0 0.15070686096627908 -0.2526613076079098
2940000000.0 -0.2961470488547657 -0.02985398203380982
2960000000.0 -0.22802313551789535 0.19666641484679437
2980000000.0 -0.22454171116189342 0.2073407998974393
3000000000.0 -0.3055588665907689 0.024758058644494697
3020000000.0 -0.18485405838575436 -0.2470950897840981
3040000000.0 0.2991159393607722 -0.0655968580575707
3060000000.0 -0.229844968231812 0.19974369347441065
3080000000.0 0.13951867428315162 -0.2658197600464676
3100000000.0 -0.17761678087444105 0.23514368522853044
3120000000.0 0.04047259794174939 -0.2861521982831764
3140000000.0 0.1634877986171567 0.22835758378372248
3160000000.0 -0.2657309157364253 -0.011944212785943929
3180000000.0 0.1525963506262786 0.1987448078064807
3200000000.0 -0.2046573493482147 0.09846679821769619
3220000000.0 -0.024086010577416612 -0.19972854402341844
3240000000.0 0.15546864005441427 0.07371600798850579
3260000000.0 -0.13094999293804285 0.05048750024135178
3280000000.0 0.1057804709000292 0.027681156128215645
3300000000.0 -0.04442935702515287 -0.06551304919318279
3320000000.0 -0.05153800147966265 0.009681874873589576
3340000000.0 -0.016997053769590383 -0.023372362589364624
3360000000.0 -0.0037713967141693523 -0.00878822089247052
3380000000.0 -0.0022017842186601365 -0.005856178165565285
3400000000.0 -0.006998921895633454 -0.019104194733146073
3420000000.0 -0.03315378594179593 0.0036957361092110814
3440000000.0 -0.040236577729636784 0.017156341052499514
3460000000.0 -0.007200098540280664 -0.052121679471774464
3480000000.0 0.06293700373462142 -0.009791762409209561
3500000000.0 0.01209889938871317 -0.07742585935003485
3520000000.0 -0.09229451825261653 0.011073609569120707
3540000000.0 0.10366882360833127 -0.030269093200644425
3560000000.0 -0.09147525294970739 0.08185562589903744
3580000000.0 0.04922705711425485 -0.12721478033508607
3600000000.0 0.14506609551528177 0.04678253296164533
3620000000.0 0.023877480816300513 0.16218596582178363
3640000000.0 -0.160878679573558 0.06663457196665849
3660000000.0 -0.1637089051121419 -0.08409300701430021
3680000000.0 -0.08785423657900382 -0.16835539106107225
3700000000.0 -0.05281089691231182 -0.18292201984494574
3720000000.0 0.1453750696070792 -0.12135675779570744
3740000000.0 0.18517721298606155 -0.01552662404401996
3760000000.0 -0.1787597039668641 -0.02375729928348789
3780000000.0 0.16946539348238202 0.016917913805030424
3800000000.0 -0.03651372848648948 -0.15878993730014954
3820000000.0 -0.14476226458255295 -0.05451625176923225
3840000000.0 -0.12084201225382284 -0.08291033436736481
3860000000.0 0.14639225456370625 0.011939566139238567
3880000000.0 0.123896510343429 0.08816573793938447
3900000000.0 0.1320588714268178 -0.08873014037287502
3920000000.0 -0.15392333875011302 0.057221130718344275
3940000000.0 0.0934163165246041 -0.14064086784761848
3960000000.0 0.17159907340125197 -0.02586402496617258
3980000000.0 0.10610148676947496 -0.13791178707451376
4000000000.0 0.12185891762446283 -0.11463954397444924
