!Created with skrf (http://scikit-rf.org).
# Hz S RI R 50.0 
!freq ReS11 ImS11
400000000.0 -0.5853272605486489 0.6459413794090137
420000000.0 0.42797802286700126 0.7567569010802699
440000000.0 0.6833657448613999 -0.489463054463079
460000000.0 -0.42515512035746816 -0.6721256357958612
480000000.0 0.48120501979935926 -0.5246665634162474
500000000.0 -0.40760374651669656 -0.41260632403082204
520000000.0 -0.4040733622758793 0.2917129471684905
540000000.0 0.008000298466881259 -0.4171205991545009
560000000.0 -0.3434678334131473 0.11890654374935684
580000000.0 0.3085540913438575 0.13883897195854486
600000000.0 0.18924686972154203 -0.2893483131227201
620000000.0 -0.07189282943309826 0.3525311348323503
640000000.0 0.3873419102732307 0.08907084004995905
660000000.0 -0.21427072454197202 -0.35012453460936505
680000000.0 0.37063030536027874 -0.2151711530084667
700000000.0 -0.41913274158838076 -0.09349461612237692
720000000.0 -0.16949473533101242 0.38653055850225104
740000000.0 0.2703628565535319 -0.30917766182295336
760000000.0 -0.39030376620949886 0.01784662301449568
780000000.0 0.3161053574457588 0.1590353487852181
800000000.0 0.22782152150968865 -0.22385189657119353
820000000.0 -0.2569877073170438 -0.09578943371543477
840000000.0 -0.22802362425792094 0.06401300675044216
860000000.0 -0.01575641049943875 -0.20030713639056874
880000000.0 0.08906737096209502 0.12902239245207134
900000000.0 -0.1068823772371717 -0.021253508235097304
920000000.0 0.04293202547848262 -0.06026368189639457
940000000.0 0.03747170696348526 0.01958303983103758
960000000.0 -0.04703544752932637 -0.002959786787738322
980000000.0 -0.0600386186636235 0.02943230011459016
1000000000.0 0.021226903206799562 0.08015831335889834
1020000000.0 0.043914417688144344 0.09285038531462543
1040000000.0 0.03975396081976326 0.11128363148592944
1060000000.0 -0.10340844556700772 0.11604085990440025
1080000000.0 -0.07423383412522608 0.15693582570358916
1100000000.0 0.16364734998022634 -0.11503556108609425
1120000000.0 -0.00032888012564667935 0.22255178791114036
1140000000.0 0.17921828756350053 -0.18255612462708876
1160000000.0 -0.22627610324187927 -0.1694565583100155
1180000000.0 -0.09513267104752227 -0.3035298760751396
1200000000.0 0.19005851147816663 -0.2837421583801252
1220000000.0 -0.15425217489176107 0.3332589410249099
1240000000.0 0.37431271415376655 -0.09804502641469523
1260000000.0 -0.33106409436630474 -0.24062485901835626
1280000000.0 -0.30896571174601306 0.2903804146410341
1300000000.0 0.39009336602938743 0.1919984265222195
1320000000.0 0.4352516004244332 -0.040062848803597256
1340000000.0 0.4127853983574317 -0.14247542355005505
1360000000.0 0.4383092159344333 -0.008136466975769195
1380000000.0 0.2515501524038598 -0.35584819132834333
1400000000.0 -0.35726442820000553 -0.2347603765737365
1420000000.0 -0.023127253526110073 0.40906354387796307
1440000000.0 0.38251904518120106 -0.0035365872008717852
1460000000.0 0.0840510803409033 -0.342318423884107
1480000000.0 -0.3199723024009925 -0.010769785560294851
1500000000.0 -0.15377484514301196 0.24167984240669105
1520000000.0 0.055371066951074646 0.2513598936926316
1540000000.0 -0.12382424050815738 -0.19238212639047275
1560000000.0 0.10201741791911328 -0.16577039756158818
1580000000.0 0.15033274572247343 0.06911696621192923
1600000000.0 0.09999445524248239 -0.0865460062027505
1620000000.0 0.07386817051785122 -0.07245785898470519
1640000000.0 0.05408701494094576 0.05603152242887046
1660000000.0 -0.05122521691484221 -0.01848108539050706
1680000000.0 0.026997530395487395 -0.02331335566650437
1700000000.0 0.010094897523994301 -0.019298643605220905
1720000000.0 -0.00036287722290473975 -0.006353667727941437
1740000000.0 0.016133433003105963 -0.002107704060453882
1760000000.0 0.03265624562359712 -0.0020738681411043704
1780000000.0 -0.045401450979434765 -0.04121143603402613
1800000000.0 -0.009347573282059644 0.09204738383231582
1820000000.0 -0.03109704512701993 0.12122801589551188
1840000000.0 0.008210586308487106 -0.1632362777623261
1860000000.0 -0.10974462832016399 0.16813007599381835
1880000000.0 0.18809784501417873 -0.15067633424479396
1900000000.0 -0.21826770982178487 0.1834770380757628
1920000000.0 0.20879224767852386 -0.24217252571518566
1940000000.0 -0.32505217910852574 0.14037421274551312
1960000000.0 0.3736434732290322 0.07427895170543067
1980000000.0 -0.16047600131202142 -0.36531103687904953
2000000000.0 -0.4126732900708865 -0.052592290459985924
2020000000.0 -0.09897824352438278 0.41418412084956674
2040000000.0 0.18404897049178628 0.3920504593962169
2060000000.0 0.43386458707717257 -0.035871458433724766
2080000000.0 0.20842538806039296 -0.3797450692447502
2100000000.0 -0.041313563771522545 -0.42342471344886223
2120000000.0 -0.2564725249839389 -0.32698578997230393
2140000000.0 -0.32570689446393053 -0.2392575485273382
2160000000.0 0.08261063910858715 -0.3823999673013975
2180000000.0 -0.16002944990115317 -0.3431387891237483
2200000000.0 -0.3624225577065125 -0.04933702162913121
2220000000.0 -0.3233933424179597 0.14582541586685968
2240000000.0 -0.08674784078287102 0.339644541573342
2260000000.0 0.13985969259690395 0.321871911573697
2280000000.0 0.3358657103940235 0.11503166451012706
2300000000.0 0.1294577549698182 -0.34510362367700914
2320000000.0 -0.36369815349950607 -0.14118557081578983
2340000000.0 -0.0756348110056331 0.415403607466216
2360000000.0 0.367421353667956 -0.2827954262233648
2380000000.0 -0.4674497797962624 0.20655736731166455
2400000000.0 0.4850541731662959 -0.2805709074023163
2420000000.0 -0.26969742589987494 0.5475809818637929
2440000000.0 -0.1084352723126583 -0.6470098796078851
2460000000.0 0.4985316894878298 0.4829114003133967
2480000000.0 -0.6912685295523389 -0.2103479934644239
2500000000.0 0.7072390143990477 0.22082800767607177
2520000000.0 -0.6368090575748996 -0.3974692365791312
2540000000.0 0.37494494593644834 0.651127786051348
2560000000.0 0.22400593379562778 -0.710582169236994
2580000000.0 -0.7074355140335131 0.1775669195165035
2600000000.0 0.5543055469720246 0.43594544218156844
2620000000.0 0.050290983912516594 -0.6726965345302474
2640000000.0 -0.18982394163587982 -0.6090265256132383
2660000000.0 -0.3839262131757284 0.4533358642183739
2680000000.0 0.543336979102311 0.06706562783130209
2700000000.0 -0.33530360945066123 -0.3732304445262631
2720000000.0 -0.027210921591044823 0.45491589268466015
2740000000.0 0.3492817822112826 -0.2193984793968777
2760000000.0 -0.3679728225726998 0.0687633873988206
2780000000.0 0.34418565895704156 -0.022566262565170497
2800000000.0 -0.3032755892448575 0.10348794636566781
2820000000.0 0.056532478509207014 -0.29905660126514527
2840000000.0 0.14482703257093804 0.2553169475553104
2860000000.0 -0.2889542172998646 -0.028363425855942214
2880000000.0 0.1803236424551055 -0.2270131447222527
2900000000.0 -0.04026239475733458 0.2888561872859395
2920000000.0 0.1729064206847836 -0.2380152917814564
2940000000.0 -0.29291355794640145 -0.05100600862873453
2960000000.0 -0.2626448404095319 0.1473440102334213
2980000000.0 -0.2750458078260363 0.1334091084619062
3000000000.0 -0.304829061836268 -0.03978357990236975
3020000000.0 -0.09330527192654732 -0.29409303145743326
3040000000.0 0.3048301680284914 -0.024965347388659614
3060000000.0 -0.280257604522556 0.11708305708747112
3080000000.0 0.1778615563057849 -0.24054790286773645
3100000000.0 -0.16824082011320807 0.240768185545176
3120000000.0 0.03728074304716229 -0.2861256525418391
3140000000.0 0.16794796848742494 0.22440368782428274
3160000000.0 -0.26563214680516356 -0.005640749960053165
3180000000.0 0.15704715185711085 0.19486650608115322
3200000000.0 -0.1908572447871348 0.12326014337409025
3220000000.0 -0.04262098567534993 -0.1966521718176278
3240000000.0 0.16580905653947206 0.0478506186378724
3260000000.0 -0.11053476123401104 0.08694182485491682
3280000000.0 0.10810007902115289 -0.016228469886489464
3300000000.0 -0.06712900914039564 -0.0424030280208337
3320000000.0 -0.019645291472209784 0.048902317014196894
3340000000.0 -0.022899924516746974 0.01875775782271392
3360000000.0 -0.007871047683170108 -0.006231610275922352
3380000000.0 0.0026654991107429287 0.004382884646740435
3400000000.0 0.005837678445426894 -0.018342454404679555
3420000000.0 -0.02570163073178335 -0.01954690113088918
3440000000.0 -0.03827841516408418 0.018562432115248443
3460000000.0 -0.006891839473925176 -0.051161466405889006
3480000000.0 0.06137128432762224 0.01294950319055968
3500000000.0 0.025096730850724586 -0.07331411535637962
3520000000.0 -0.09126555056784234 0.014313009396857385
3540000000.0 0.10698165816765817 -0.001623717790148996
3560000000.0 -0.07659923170135158 0.09397032131903785
3580000000.0 0.03710647261776372 -0.13079678374997153
3600000000.0 0.15008505824476806 0.022261180091074785
3620000000.0 0.06405874388059961 0.14983221032076258
3640000000.0 -0.12118030433202646 0.12434919704269232
3660000000.0 -0.18357294691474194 -0.008295164294323015
3680000000.0 -0.1316767049669719 -0.13703595352917852
3700000000.0 -0.08701072276720308 -0.1699396008697944
3720000000.0 0.10225089747176903 -0.1601298855451396
3740000000.0 0.17753763328116068 -0.05436652177755143
3760000000.0 -0.17839543979675604 0.02335323206229618
3780000000.0 0.1660220062593979 -0.038824137232230924
3800000000.0 -0.06321182483400443 -0.15064320509761947
3820000000.0 -0.15343650436920395 -0.0224182948438112
3840000000.0 -0.13470383456400414 -0.06077448843879245
3860000000.0 0.13899672351913522 -0.0497602459611095
3880000000.0 0.14913201193242218 0.03309100532623441
3900000000.0 0.11104032583173584 -0.11439936168084207
3920000000.0 -0.1348661778891409 0.09417642554050387
3940000000.0 0.02306803344316596 -0.16785639959781892
3960000000.0 0.17059006648383268 -0.03339292414557841
3980000000.0 0.09222257477795252 -0.14751217777568226
4000000000.0 0.14643668741837415 -0.08137067462403756
