!Created with skrf (http://scikit-rf.org).
# Hz S RI R 50.0 
!freq ReS11 ImS11
400000000.0 0.4950780840808217 0.7162638450676359
420000000.0 0.8407958644903902 -0.08058386955665801
440000000.0 0.7562390664858132 -0.25542203146810183
460000000.0 0.7332866439272822 0.11969138748879624
480000000.0 -0.04997216595246453 -0.6834814973790819
500000000.0 0.04977950982190581 0.5997836038530046
520000000.0 0.1584840824235671 0.48604857658594464
540000000.0 -0.3670694286998935 -0.23267466765051784
560000000.0 0.048591700775225004 0.3929679679501112
580000000.0 -0.31769431828254235 -0.16613658267425882
600000000.0 0.3445076533144517 -0.08686571370071629
620000000.0 -0.173571112826551 -0.30913208624936195
640000000.0 0.4051575740393637 -0.061114329729323465
660000000.0 0.11419333600821029 0.3987340312323079
680000000.0 -0.23695592940096372 -0.37959732992321255
700000000.0 0.1826714801382091 0.42371944217672336
720000000.0 -0.4373822318787657 0.14955199303327327
740000000.0 -0.263683512731419 0.33338236888598893
760000000.0 -0.2852462493119027 -0.2910518719318235
780000000.0 -0.37012154367294625 0.09088815570015239
800000000.0 -0.21926011305855905 0.25648861945263696
820000000.0 0.133858404195947 0.24316872638312373
840000000.0 -0.14033519346959003 -0.14958769968770086
860000000.0 0.06631308271860199 -0.15707725910032172
880000000.0 0.08355541887140247 -0.12070713139348009
900000000.0 0.0599698277236152 0.08568316413074661
920000000.0 -0.052342466598830184 -0.03263230078532325
940000000.0 0.009966512419309357 0.03679401421010394
960000000.0 -0.03752915811557563 -0.014972539493059257
980000000.0 -0.05505957210578994 0.028626026456741845
1000000000.0 -0.014476279088457217 -0.09819890740870484
1020000000.0 -0.054768198759379154 -0.11009559876985482
1040000000.0 0.06822916241324314 0.11606056203117089
1060000000.0 0.11122184790154044 -0.11192027787947774
1080000000.0 -0.12857487044084678 0.12690955742256732
1100000000.0 0.15438828162103013 -0.13570845755976094
1120000000.0 0.10339525411916096 0.20531135729902036
1140000000.0 -0.25670087007583847 -0.02357038409234447
1160000000.0 -0.28221052096981 0.021546974588730592
1180000000.0 -0.21953427634985395 -0.21872800076357923
1200000000.0 0.33322391552723135 0.07863593546537855
1220000000.0 -0.27558034187434177 -0.24917785682410065
1240000000.0 0.3838013376146116 0.09275482557427947
1260000000.0 -0.2916853312375249 -0.28697737393146094
1280000000.0 -0.424568009618618 0.030921476733984394
1300000000.0 0.3412491598877949 0.2697406587372298
1320000000.0 0.41227581055323237 -0.13897438436162302
1340000000.0 0.4111463625067677 0.14792171250301447
1360000000.0 0.4367866727707919 -0.05824571270037979
1380000000.0 -0.0687013787258855 -0.42569326078181796
1400000000.0 -0.07015215574165624 -0.4145052098893484
1420000000.0 -0.345370312358194 0.21220501049520396
1440000000.0 0.3372045408082413 0.18131726186609048
1460000000.0 0.20599159158681413 -0.28862776577642874
1480000000.0 -0.27974713150529756 0.15764890106967763
1500000000.0 0.2616734431408964 0.10708765561786664
1520000000.0 0.041444065301066015 0.24475336060940353
1540000000.0 0.1868049407716464 0.11440963403521562
1560000000.0 -0.18325502126921803 0.047853875616311665
1580000000.0 0.05403686390501523 -0.16121281994568307
1600000000.0 -0.02090252761318023 -0.1374017587370729
1620000000.0 -0.0405845517487888 0.09827719551046768
1640000000.0 -0.08225159089443597 -0.01361308115960474
1660000000.0 0.02518225723393231 -0.06317654613419403
1680000000.0 -0.00042879066030832 0.04431233536239402
1700000000.0 0.020312629382179904 0.005251752766844221
1720000000.0 0.0028347007421088213 0.005285825748154298
1740000000.0 0.004132076229618846 -0.011867697762162403
1760000000.0 -0.02878705984093706 -0.005285661163973794
1780000000.0 0.047304988225128936 0.027191077850275375
1800000000.0 0.07324271988478831 0.061755010338018536
1820000000.0 -0.04847144738650324 -0.11648013379671453
1840000000.0 0.0878251219175339 0.13540271963164363
1860000000.0 0.06834098226031654 0.1870963124791291
1880000000.0 0.2286640852426455 0.05936680843662358
1900000000.0 0.001311980171735701 -0.2782803765895371
1920000000.0 0.28993438570750807 -0.13538744410279846
1940000000.0 -0.2768074927643203 -0.20355503527485677
1960000000.0 -0.3592552013729061 0.08783205673756307
1980000000.0 0.4001781493940283 -0.026255644558301025
2000000000.0 -0.07061810407622296 -0.4131314539676113
2020000000.0 -0.3238403453213801 -0.2802996657612468
2040000000.0 0.01825540121257094 0.434052181519513
2060000000.0 0.23262570427402818 0.36881517734190095
2080000000.0 0.3541535215619771 0.24932419249374518
2100000000.0 -0.03485561016489367 -0.42424705532944107
2120000000.0 -0.05755926741684628 -0.40941513905406685
2140000000.0 0.19223670470605192 -0.3469553983939425
2160000000.0 0.36349161223356696 -0.12356878158818763
2180000000.0 0.3532159273975492 -0.12174729469179991
2200000000.0 0.290767788265147 -0.216614842894343
2220000000.0 -0.32570020412381834 -0.13338890456477598
2240000000.0 -0.2673926093989927 -0.2200210426583033
2260000000.0 -0.3296721130232186 -0.0994942652343239
2280000000.0 0.13638993079867318 0.31930989436305457
2300000000.0 0.1616994733298847 0.3156433492470408
2320000000.0 0.1716470327140814 0.33601488524297024
2340000000.0 -0.11344769680583427 -0.39509768227772046
2360000000.0 -0.44240943413948147 -0.07490925065551166
2380000000.0 0.16426055384960267 0.4701299146007213
2400000000.0 -0.45777004002988125 0.318724561546118
2420000000.0 0.5066385285901357 -0.33943100021955275
2440000000.0 -0.5013594476915876 0.4246049740878076
2460000000.0 -0.6894954220947154 -0.125750865234086
2480000000.0 0.7012399193428277 0.21207823523108374
2500000000.0 -0.4554284800874882 -0.6008341884315426
2520000000.0 0.700273207123874 -0.31256833379959964
2540000000.0 -0.6042860628213863 -0.4782436825334363
2560000000.0 -0.3372835095304126 0.6884744405810563
2580000000.0 -0.08633302358426018 -0.7479974534684662
2600000000.0 -0.7273633121076537 0.07902595669079032
2620000000.0 0.05754285392709267 0.702149032062102
2640000000.0 0.4353634656670168 -0.5037638820940549
2660000000.0 -0.5457715630000977 -0.3061649335579434
2680000000.0 -0.09811313940302414 0.5713960627867528
2700000000.0 -0.31393981048318065 -0.4249504484532378
2720000000.0 -0.15359347037462348 0.4567961074954534
2740000000.0 0.4305182464866842 -0.04761879913285916
2760000000.0 -0.3277329034349899 0.21352594949732565
2780000000.0 0.35993327104548406 0.02190676986859441
2800000000.0 -0.3178747426123667 -0.10994765754131924
2820000000.0 -0.034648740739051935 -0.31276373857472706
2840000000.0 0.1393256114003692 0.2714907796791064
2860000000.0 -0.24233967191543448 -0.16993676182301382
2880000000.0 0.1454310047513375 -0.25131073135470483
2900000000.0 -0.25625339271343384 -0.1366318786192841
2920000000.0 -0.2841490156502212 0.090834748453524
2940000000.0 0.20617445017920155 -0.2324696843044446
2960000000.0 -0.15000494528524827 -0.28001784433937865
2980000000.0 -0.27683505694432314 -0.15688038806923627
3000000000.0 -0.3120788016355897 0.05919762538380113
3020000000.0 0.3058426046833388 0.09336186496263264
3040000000.0 0.3186959957608008 0.022738241774830577
3060000000.0 0.19553121428714362 0.2442347633355991
3080000000.0 0.26052391654090895 -0.1532920407853873
3100000000.0 -0.14780363436514973 0.2528524921748972
3120000000.0 -0.08915270384264434 -0.2702398811628676
3140000000.0 -0.2751629374801518 0.001418482793733781
3160000000.0 0.2093691051745373 -0.16056687869775238
3180000000.0 -0.23432362193132006 0.09121636671946126
3200000000.0 0.22671643601830802 -0.07007633271307134
3220000000.0 -0.010416351163777695 -0.20957213963670202
3240000000.0 -0.16044483314206437 -0.06977345703436688
3260000000.0 0.06635141086073412 -0.12618834386365615
3280000000.0 0.041700577091436375 0.08933531579130498
3300000000.0 0.03576351002625002 0.056033626127081855
3320000000.0 -0.010051814513300054 -0.03968028194001468
3340000000.0 -0.012590899999913675 -0.020550088959492542
3360000000.0 -0.010325814628245904 -0.0030921731439983984
3380000000.0 0.00021321442292213986 -0.0006584896390007714
3400000000.0 -0.00578449762734899 0.015684769893841308
3420000000.0 -0.012634716347602735 -0.03404661086000538
3440000000.0 0.03340613871242211 -0.038908050064596265
3460000000.0 -0.030291853746727465 -0.0576317580262393
3480000000.0 0.07690971072697005 -0.005591340937086588
3500000000.0 0.030239836819844573 -0.08105400002554976
3520000000.0 0.09423848326208818 0.03257710333224287
3540000000.0 -0.08898342413017046 -0.07081528513512837
3560000000.0 -0.03032037931491561 0.11575531325010244
3580000000.0 0.1322324744899926 0.031307382273477055
3600000000.0 -0.034631807491643615 0.15077989932517505
3620000000.0 -0.042389353946533606 -0.1604181384908924
3640000000.0 -0.1623492373927573 -0.08353719366245164
3660000000.0 -0.17149397705535846 -0.0817275910155454
3680000000.0 0.06969404211835341 -0.17860693794537835
3700000000.0 -0.012804068862831293 -0.19157013995257036
3720000000.0 0.16038824589841155 -0.10126929536949082
3740000000.0 0.012822167012679445 0.18221684541631133
3760000000.0 0.13744392238826758 -0.11638427227783622
3780000000.0 -0.07233685911437612 0.16007770408902908
3800000000.0 0.0961935291699409 -0.13831637957948933
3820000000.0 -0.14989797565453566 0.04802799555742467
3840000000.0 -0.11462642031572724 -0.08987804958695167
3860000000.0 0.08703692363646216 -0.11070387289247252
3880000000.0 -0.0010792934724758202 0.142197566674718
3900000000.0 -0.14420555159317003 -0.036112792719965425
3920000000.0 -0.09324623096782354 0.12427666293292434
3940000000.0 -0.16713511450423785 -0.030085937723875765
3960000000.0 -0.028566358659008848 0.17396391401418365
3980000000.0 0.10769797649707878 0.13440867481422958
4000000000.0 0.12455949524127505 -0.1031509791555832
