!Created with skrf (http://scikit-rf.org).
# Hz S RI R 50.0 
!freq ReS11 ImS11
400000000.0 0.48767755701589477 0.7209268820418876
420000000.0 0.8400242288926766 -0.08762354701037209
440000000.0 0.7548415220339056 -0.25923518841319826
460000000.0 0.7308802193579806 0.1340576321211266
480000000.0 -0.058016049622307664 -0.6829684064145798
500000000.0 0.0625845781506121 0.5985876921019045
520000000.0 0.1679851251388914 0.4827634989161383
540000000.0 -0.3704239176156315 -0.22689555433974556
560000000.0 0.045950172131943 0.39304529926948395
580000000.0 -0.3103166899432245 -0.17930964061773239
600000000.0 0.34985457850983 -0.06024676799073877
620000000.0 -0.15527635487915667 -0.3189541523753914
640000000.0 0.4016710197861823 -0.08300336831803946
660000000.0 0.10491679092228595 0.4012802628761431
680000000.0 -0.2184346100585665 -0.3904378405599173
700000000.0 0.17907109876181085 0.42492875154806736
720000000.0 -0.4523467723664009 0.09413642214007321
740000000.0 -0.2975305779708153 0.30436714732002196
760000000.0 -0.2885602202343933 -0.28851993601573417
780000000.0 -0.3612295778359044 0.1217361239704444
800000000.0 -0.20090718705727462 0.2708353534578675
820000000.0 0.13843717519468907 0.24026510055494943
840000000.0 -0.13012218311497173 -0.1584075817703939
860000000.0 0.06616756744658349 -0.1570026726644572
880000000.0 0.08639019938079637 -0.11857653557407685
900000000.0 0.05279804780101917 0.09017122134095552
920000000.0 -0.04664678499210602 -0.040413403097564346
940000000.0 0.00022505029065453237 0.03820707466738594
960000000.0 0.0002613527075161464 -0.040434634244526764
980000000.0 -0.061619436754879096 -0.005928718331272341
1000000000.0 0.011223820057897339 -0.09891898340697025
1020000000.0 -0.05231342360122147 -0.11189345503032379
1040000000.0 0.09113203431126393 0.09971961245182029
1060000000.0 0.09040942079685543 -0.12972512271208658
1080000000.0 -0.1076649732261975 0.14521658805479346
1100000000.0 0.13868590087087784 -0.15134702597361943
1120000000.0 0.10644976241909435 0.20330349103136874
1140000000.0 -0.25397111954004886 -0.0422880907608907
1160000000.0 -0.28280080570799443 -0.009715113738471092
1180000000.0 -0.20553720801264058 -0.23230522182878433
1200000000.0 0.33206395823672713 0.08521694983056413
1220000000.0 -0.29588537532463843 -0.22542498019199955
1240000000.0 0.38574856161349985 0.08383249263207293
1260000000.0 -0.29869443037170496 -0.2795338423290422
1280000000.0 -0.4240669990180351 0.03758670426321785
1300000000.0 0.34443593730911665 0.2652470457259817
1320000000.0 0.41148914615313087 -0.14062763767330122
1340000000.0 0.40860481609643284 0.15438209218358895
1360000000.0 0.43554598138550876 -0.06607035842770771
1380000000.0 -0.08192467780615512 -0.4233674659443109
1400000000.0 -0.08213227399114822 -0.41235482889689223
1420000000.0 -0.33092092163835374 0.23388600978448357
1440000000.0 0.33999958932738605 0.1758912639105856
1460000000.0 0.19958465854712357 -0.2928473107990855
1480000000.0 -0.26967626680616125 0.17436796392445136
1500000000.0 0.2661437528967946 0.09622566574741201
1520000000.0 0.050749322508417766 0.24284494806934326
1540000000.0 0.1718011439189105 0.13615717252486886
1560000000.0 -0.17896386358237246 0.06191360876193038
1580000000.0 0.05741157789278655 -0.16028870250836202
1600000000.0 -0.018469473625079728 -0.13795245000629833
1620000000.0 -0.03601416551872144 0.10013407856873574
1640000000.0 -0.0823189348434457 -0.012186243503245984
1660000000.0 0.023713638655358395 -0.06324048049289367
1680000000.0 0.00295183338065575 0.0437960041072067
1700000000.0 0.020011550172059297 -0.0052572820151665
1720000000.0 -0.0036807786042591223 0.004499509068450135
1740000000.0 0.006816648339359569 0.01064185734939287
1760000000.0 -0.02578307565233662 0.01467629340748815
1780000000.0 0.05315293156499747 0.01013893255869527
1800000000.0 0.07653269303055044 0.0568319639498431
1820000000.0 -0.02792398192027655 -0.1224620334704003
1840000000.0 0.06648609422037235 0.14702991104198507
1860000000.0 0.059650201255535745 0.19032982823143127
1880000000.0 0.23086506456322478 0.051774324828065856
1900000000.0 -0.020111814706148 -0.2777987952588622
1920000000.0 0.2791536211231623 -0.15616328465980722
1940000000.0 -0.284175390090936 -0.1928925652896348
1960000000.0 -0.3551932768887044 0.10252872376149044
1980000000.0 0.3991779109570872 -0.03581493579551073
2000000000.0 -0.07155069361657317 -0.4127560533546902
2020000000.0 -0.3108368004121339 -0.29473210152113677
2040000000.0 -0.004818050426418707 0.4349338696499075
2060000000.0 0.19377041864135153 0.39152711315725525
2080000000.0 0.3703908248394944 0.22543105326308333
2100000000.0 -0.04392369744529432 -0.4234624475345754
2120000000.0 -0.07294720703789287 -0.4066316673926776
2140000000.0 0.19969308314584625 -0.3423578043809954
2160000000.0 0.3715520517075234 -0.09698220537652313
2180000000.0 0.36677863541475253 -0.07257966243773745
2200000000.0 0.29770820666121883 -0.20748186341079097
2220000000.0 -0.31185626946008177 -0.1640088101516982
2240000000.0 -0.28077670303744734 -0.20190469326259436
2260000000.0 -0.32809159267111115 -0.10277130709300146
2280000000.0 0.12860393875841278 0.32233721355986306
2300000000.0 0.15633631592963024 0.31849877848424707
2320000000.0 0.17028537699204835 0.33690492462304317
2340000000.0 -0.11622564327213038 -0.39419189998550724
2360000000.0 -0.44609853821146506 -0.04782832863494573
2380000000.0 0.18436736180664143 0.4626677455431816
2400000000.0 -0.45338414752739176 0.3247478573531464
2420000000.0 0.5100141639000659 -0.3345697193994237
2440000000.0 -0.47806371419899224 0.45090124374658813
2460000000.0 -0.6928467975426188 -0.10746754685837395
2480000000.0 0.7033413976445855 0.20487911664584232
2500000000.0 -0.5076914644214969 -0.5574085390831662
2520000000.0 0.6846703249109822 -0.3452948161607561
2540000000.0 -0.6050189040640555 -0.47712438107111893
2560000000.0 -0.3191919140638894 0.6969343809423719
2580000000.0 -0.036026381240246784 -0.7521058645180614
2600000000.0 -0.7284540977734175 0.06413988705356669
2620000000.0 0.051908374208238295 0.7026140204423627
2640000000.0 0.44150064119510635 -0.4982678373850494
2660000000.0 -0.5237347796349969 -0.3420260040947258
2680000000.0 -0.1772371083934432 0.5514821448494622
2700000000.0 -0.29133770397432324 -0.43986024772789545
2720000000.0 -0.17153899419309757 0.449942600259921
2740000000.0 0.42804670076159457 -0.06625438839831442
2760000000.0 -0.3230648944154373 0.2205310203435485
2780000000.0 0.36042415903926533 0.009229813217164012
2800000000.0 -0.32312344847253643 -0.09323094819477278
2820000000.0 -0.04231729377971399 -0.31159213605516967
2840000000.0 0.15905088981793233 0.26014685393488096
2860000000.0 -0.23103258911393793 -0.18559560779585138
2880000000.0 0.13416849524800664 -0.2576180139640432
2900000000.0 -0.2503195894043931 -0.14817221210152395
2920000000.0 -0.2709175941212694 0.1251289824863543
2940000000.0 0.19041550821704123 -0.24587784929537043
2960000000.0 -0.1575521971602621 -0.27603320227086975
2980000000.0 -0.28353379361811565 -0.14475843653016288
3000000000.0 -0.3150176469566173 0.03607051304832429
3020000000.0 0.295697646496642 0.12150224808671764
3040000000.0 0.29389771035289214 0.1248462025985493
3060000000.0 0.19826948969432023 0.24228503544641308
3080000000.0 0.2735309248468097 -0.12869808169714933
3100000000.0 -0.1626665508585543 0.2434347734633388
3120000000.0 -0.0881354470880213 -0.2705829200676288
3140000000.0 -0.2753385756051192 -0.0041027493791659635
3160000000.0 0.201037382870474 -0.1710477450667738
3180000000.0 -0.23266547713112498 0.09512457844939984
3200000000.0 0.22559630545883164 -0.07235072076099695
3220000000.0 -0.0010624676801790592 -0.20950722608098626
3240000000.0 -0.1549739084692493 -0.08048550957663918
3260000000.0 0.0835572185944112 -0.1153226946237487
3280000000.0 0.034875658335688446 0.09216787043779816
3300000000.0 0.03606208094930227 0.055547213748509926
3320000000.0 -0.014165189035379031 -0.03812243082143611
3340000000.0 -0.010822156553168084 -0.02084594491317899
3360000000.0 0.0025125206752550497 -0.009939606180839482
3380000000.0 0.00043664895681903376 0.0009366891349642078
3400000000.0 0.009025222306746515 0.014198404310757936
3420000000.0 -0.02545873202107907 -0.02616171056359023
3440000000.0 0.041615266077524624 -0.03049855908478159
3460000000.0 -0.03346004651210678 -0.05627530283397778
3480000000.0 0.07732823845030905 -0.0007706179700480921
3500000000.0 0.02782820847596276 -0.08215643057855258
3520000000.0 0.09082035504676067 0.041332376189675855
3540000000.0 -0.06861952577323403 -0.0903962797161081
3560000000.0 -0.026635876072761824 0.11688701515196052
3580000000.0 0.10820492694263399 0.08120301613173549
3600000000.0 -0.0482055524226984 0.1471193206703716
3620000000.0 -0.018109609291132023 -0.1649462538000561
3640000000.0 -0.1421553200768214 -0.11372895457367202
3660000000.0 -0.1655273758449289 -0.09299594926565746
3680000000.0 0.08269436160304894 -0.17306558837958605
3700000000.0 -0.0036351652783908426 -0.19162589512686018
3720000000.0 0.16480863122565245 -0.09393179453601916
3740000000.0 0.0005628173436598559 0.18250297294416118
3760000000.0 0.14074134669679841 -0.11161774674825246
3780000000.0 -0.07567393554775377 0.1579085590183243
3800000000.0 0.08614721192691421 -0.14440603456858914
3820000000.0 -0.14663239172163736 0.055846713372699586
3840000000.0 -0.11615359174844295 -0.08732835891231182
3860000000.0 0.08266625492563917 -0.11366518183515209
3880000000.0 0.017931242429976454 0.1406477216954882
3900000000.0 -0.1461633741233509 -0.025593684433979032
3920000000.0 -0.0875735618794855 0.12806469462130282
3940000000.0 -0.16751767980205381 -0.026656786244787754
3960000000.0 -0.02179992326859959 0.1745352945592717
3980000000.0 0.09677320668038956 0.14218491717452697
4000000000.0 0.1357113225129326 -0.0875695125045589
