!Created with skrf (http://scikit-rf.org).
# Hz S RI R 50.0 
!freq ReS11 ImS11
400000000.0 0.48205143788519345 0.725223826300502
420000000.0 0.8423098749500735 -0.07112454132061534
440000000.0 0.7725404823723061 -0.2037099937829762
460000000.0 0.7286996851330972 0.14728186701271978
480000000.0 -0.05352467026697619 -0.6832168690700644
500000000.0 0.036658909135295625 0.600973130729728
520000000.0 0.16848823557678258 0.4826063652831275
540000000.0 -0.38139308456813575 -0.2079712098541467
560000000.0 0.06757620604869448 0.3898544691438825
580000000.0 -0.31275634690871923 -0.17573200076507461
600000000.0 0.34944927451863267 -0.067818569980483
620000000.0 -0.14041278622013995 -0.3267076154047538
640000000.0 0.40677516173897343 -0.05915658638922236
660000000.0 0.0667046113273972 0.4098073491507634
680000000.0 -0.20766877287992253 -0.3958794059569137
700000000.0 0.1505204147347379 0.43549077837868977
720000000.0 -0.4570709482614561 0.06742880045907458
740000000.0 -0.3048437749478552 0.2958761003663464
760000000.0 -0.2854675743932343 -0.2914711087413802
780000000.0 -0.3567850101006856 0.13278122923190494
800000000.0 -0.19406732812580874 0.2753020587301353
820000000.0 0.15524484498828917 0.22889883052860469
840000000.0 -0.14850667181421476 -0.1413833758386269
860000000.0 0.03967018716705391 -0.16572999936113708
880000000.0 0.07078701685222413 -0.1286361480569072
900000000.0 0.03627482310286327 0.0979234628347544
920000000.0 -0.017609014780980686 -0.059334932811866074
940000000.0 -0.03110899754044638 0.02267618470342622
960000000.0 0.023540615740274117 -0.0327295584921467
980000000.0 -0.055292705161542575 -0.02807770674880089
1000000000.0 0.021841852154232348 -0.09725656509401319
1020000000.0 -0.06133403659558629 -0.10776340547516164
1040000000.0 0.11802494018165839 0.06665697865369936
1060000000.0 0.05836275528101333 -0.14741605280240833
1080000000.0 -0.07671040839676227 0.16420677611896783
1100000000.0 0.11856312329303807 -0.1681537687455495
1120000000.0 0.11578786286652187 0.19838680166232286
1140000000.0 -0.22967317984270413 -0.11624358067302429
1160000000.0 -0.27434049363869595 -0.06979174045726612
1180000000.0 -0.15861465510461092 -0.26697850584994304
1200000000.0 0.31723549372510046 0.13049457010413498
1220000000.0 -0.2616805004891101 -0.26423325294282246
1240000000.0 0.3782075127102148 0.11216785838007205
1260000000.0 -0.2660724937890958 -0.31033982763623436
1280000000.0 -0.4247031193871407 0.024392331600668147
1300000000.0 0.343327333930668 0.2660459560768578
1320000000.0 0.41241343998692137 -0.1363727762539498
1340000000.0 0.4106294911961207 0.14729505177347096
1360000000.0 0.436183557970798 -0.0600760360076011
1380000000.0 -0.08539762961226592 -0.42273773418936506
1400000000.0 -0.09141545930358973 -0.4107299961162127
1420000000.0 -0.3135778535577203 0.2572123171383694
1440000000.0 0.3532489939929669 0.14806347578321957
1460000000.0 0.18322927123863225 -0.3037575822317069
1480000000.0 -0.2510571855219539 0.20108833599234785
1500000000.0 0.2702874484600564 0.08607508108093838
1520000000.0 0.041742973538581536 0.24531548796266586
1540000000.0 0.1665246880499088 0.1437549895168136
1560000000.0 -0.1881600980580053 0.02773307830583846
1580000000.0 0.08053120368327873 -0.1506493562715691
1600000000.0 0.013085871882695606 -0.13891798596261282
1620000000.0 -0.06922688707656278 0.0810092394954262
1640000000.0 -0.07165884129276909 -0.04189949584918921
1660000000.0 0.045636816420273826 -0.0491629733728819
1680000000.0 -0.016097834164843623 0.040099348514292366
1700000000.0 0.017859288967497968 -0.008712405164554083
1720000000.0 -0.004395778660484836 0.0018574759696506063
1740000000.0 0.006358914082793787 -0.011481783426994777
1760000000.0 -0.022802426404446127 -0.019167055882232633
1780000000.0 0.03694576148474759 0.03890817888782013
1800000000.0 0.03427128268002436 0.08807108276323702
1820000000.0 0.027165099843456893 -0.12188369583766363
1840000000.0 0.0028402200864460487 0.16061114122232176
1860000000.0 0.028452642369067374 0.19698210073969444
1880000000.0 0.22919293728445017 0.0569013029719691
1900000000.0 -0.03574725019580437 -0.2757058586224005
1920000000.0 0.26160195206038284 -0.18352063623646864
1940000000.0 -0.3079302802877976 -0.1514001252263399
1960000000.0 -0.338607096555599 0.1482477312775011
1980000000.0 0.3968135618788645 -0.05764514163461927
2000000000.0 -0.08499120011846151 -0.41051409684831514
2020000000.0 -0.3170029015002081 -0.28937179638665483
2040000000.0 0.013434037615932171 0.43598946342000583
2060000000.0 0.2224356340579305 0.3775893166211133
2080000000.0 0.370531432034994 0.22741183705013987
2100000000.0 -0.05542213925929621 -0.42298568317079926
2120000000.0 -0.03840725346009323 -0.412186921651953
2140000000.0 0.2615280920037042 -0.299327422905851
2160000000.0 0.38491886816988724 -0.011216760604907724
2180000000.0 0.3751338415966227 0.00043069820031898495
2200000000.0 0.3360190277360616 -0.13879767327233644
2220000000.0 -0.2702820716376514 -0.2262576483349709
2240000000.0 -0.23835556771352145 -0.2498941417843637
2260000000.0 -0.30837845271024517 -0.15110325694566215
2280000000.0 0.0741122825289586 0.3384579310002558
2300000000.0 0.10635509934873498 0.33765262703550647
2320000000.0 0.1506267653252254 0.3455156545959035
2340000000.0 -0.11287121780393913 -0.394451459949673
2360000000.0 -0.4466414946287386 -0.03777865329575162
2380000000.0 0.20195723423667764 0.4548633117984232
2400000000.0 -0.436378910780448 0.3471196821971908
2420000000.0 0.48991968578223427 -0.36384946230738796
2440000000.0 -0.43792451684754424 0.4905489085564962
2460000000.0 -0.6987897631416766 -0.06736397372620635
2480000000.0 0.7093617168602562 0.18861907691524993
2500000000.0 -0.49066100179210737 -0.574381794133141
2520000000.0 0.697739960405601 -0.3215624937947509
2540000000.0 -0.587976358010636 -0.5002565290070197
2560000000.0 -0.38869861050480403 0.6625212677510127
2580000000.0 0.020938558076549853 -0.7538043705765073
2600000000.0 -0.731434166233649 -0.03372006950303847
2620000000.0 -0.028568719653278136 0.7044092068840734
2640000000.0 0.5013054481233398 -0.4380853975082052
2660000000.0 -0.46392974029588924 -0.41925383116833054
2680000000.0 -0.24852132321797865 0.5225264277506155
2700000000.0 -0.2236867519234601 -0.477186225527963
2720000000.0 -0.2178736945732066 0.4282995428694264
2740000000.0 0.430675024540344 -0.032036269496019856
2760000000.0 -0.32725436867195806 0.21242449001191277
2780000000.0 0.35915983341177704 -0.01913090759716361
2800000000.0 -0.3307943872311589 -0.05555134524044113
2820000000.0 -0.0962295307746128 -0.2988853926265102
2840000000.0 0.17878725216143557 0.24758530148885943
2860000000.0 -0.25022881552671206 -0.15913768156502944
2880000000.0 0.10925271891787501 -0.2698371936599044
2900000000.0 -0.2691101839199868 -0.11261585244296497
2920000000.0 -0.2636866676967994 0.14231778908911935
2940000000.0 0.1844370918372505 -0.2519906160493411
2960000000.0 -0.14177887277388004 -0.2859914610773643
2980000000.0 -0.2808294867472724 -0.1524574705570077
3000000000.0 -0.3179468435267203 -0.00779261454465726
3020000000.0 0.2693276538611147 0.17365683332520557
3040000000.0 0.2752813717955584 0.16299750850394518
3060000000.0 0.10913569851754115 0.2938032090249526
3080000000.0 0.3000388989227993 -0.04123514482996913
3100000000.0 -0.22596387023162257 0.18695734470861497
3120000000.0 0.020195019885805472 -0.2838260815705108
3140000000.0 -0.25668618037331237 -0.09851609822394349
3160000000.0 0.24850572158481946 -0.08668290155422664
3180000000.0 -0.24915018627747562 0.02776590267934117
3200000000.0 0.23566425407097102 -0.010748903098035547
3220000000.0 0.04154154287952525 -0.20436426459074472
3240000000.0 -0.14028409024739327 -0.10169578205409714
3260000000.0 0.08507834459653056 -0.11269936133345732
3280000000.0 0.02930682973507182 0.09303113083483645
3300000000.0 0.06093792552718852 0.023048175337265567
3320000000.0 -0.03930519750222616 -0.003695989007853526
3340000000.0 -0.02145357097427902 -0.005917696614814142
3360000000.0 -0.00681098749654354 0.0060352437533959784
3380000000.0 0.0016694300593768608 -0.0003186143411375394
3400000000.0 -0.017352058816705544 -0.00380904065347865
3420000000.0 0.03272503485296713 -0.01813590386153888
3440000000.0 0.04973760693716348 0.01629102047713964
3460000000.0 0.04007817519831313 -0.05255608825671046
3480000000.0 0.06437016515649567 0.044274226996907314
3500000000.0 0.08165008996376263 -0.030927941188404237
3520000000.0 0.054271603396436933 0.08445080147388646
3540000000.0 -0.011556386670748165 -0.1136137716498299
3560000000.0 -0.1056372423865989 0.056561204957799587
3580000000.0 0.054078386881454096 0.12458865190776479
3600000000.0 -0.10606074770421944 0.11326320926831315
3620000000.0 0.05837218899521433 -0.15521769239709912
3640000000.0 -0.09803651207086529 -0.15366270339488466
3660000000.0 -0.11993784183408653 -0.1465036526429726
3680000000.0 0.14704742103490143 -0.12190993008353473
3700000000.0 0.06742808164779174 -0.17868446811511252
3720000000.0 0.18545681688865023 -0.03571898864920464
3740000000.0 -0.051300792864759436 0.17395854727530083
3760000000.0 0.167225637551453 -0.06284048656356635
3780000000.0 -0.12177997396207704 0.12446579474588171
3800000000.0 0.12115306223939237 -0.11450800003668687
3820000000.0 -0.15537125398422993 0.011360544201346466
3840000000.0 -0.0987304391006173 -0.10454890038757637
3860000000.0 0.10284361205008352 -0.09343467602321513
3880000000.0 -0.022169604343333624 0.13867697024782785
3900000000.0 -0.13499538074215534 -0.057837645563845866
3920000000.0 -0.10472191481917244 0.11262879264281758
3940000000.0 -0.16393768933800168 -0.03866630976429601
3960000000.0 -0.02283255874060667 0.1731239280397279
3980000000.0 0.08404218521783516 0.14866301725992806
4000000000.0 0.14201247911954898 -0.0741129594747021
