!Created with skrf (http://scikit-rf.org).
# Hz S RI R 50.0 
!freq ReS11 ImS11
400000000.0 0.48694213792838253 0.7223378766304038
420000000.0 0.8431549993056852 -0.060973976486082514
440000000.0 0.7606136294435818 -0.24319413983015445
460000000.0 0.7281866444072356 0.15079600187104214
480000000.0 -0.040128525438193646 -0.6841303384093649
500000000.0 0.04468069552531383 0.6003951870939249
520000000.0 0.17233369791585212 0.48139005186520983
540000000.0 -0.37549750811552646 -0.21877866187741205
560000000.0 0.07136074055858581 0.38924512875437933
580000000.0 -0.29909738547978254 -0.19821667530610784
600000000.0 0.3515038571226187 -0.05589175480148142
620000000.0 -0.1737223983260214 -0.31012755779003376
640000000.0 0.40502829866256007 -0.06818082158533305
660000000.0 0.10202991844468288 0.4023403089646968
680000000.0 -0.2257538563130103 -0.38578719053099103
700000000.0 0.14175826603126604 0.43828831144772834
720000000.0 -0.45083785275744426 0.10111601521799747
740000000.0 -0.3094376433393933 0.29162861269087664
760000000.0 -0.2898724636833529 -0.2870778863652128
780000000.0 -0.3542250227938825 0.13976525510769766
800000000.0 -0.18808311169902556 0.279655187211445
820000000.0 0.14753167109346896 0.23450999471613693
840000000.0 -0.13121451586185975 -0.15808453228457484
860000000.0 0.06028589503933908 -0.15948337931816647
880000000.0 0.08412197850530588 -0.12023516936043543
900000000.0 0.03918735208231073 0.0970813787498318
920000000.0 -0.030368083154834514 -0.05393579201476104
940000000.0 -0.020215247534142017 0.0329644489553532
960000000.0 0.028920397073000637 -0.028105550467053757
980000000.0 -0.05139094893532122 -0.03483109556041026
1000000000.0 0.01413043819919072 -0.09866411207076065
1020000000.0 -0.06205708731323229 -0.10735814652598956
1040000000.0 0.10879412134910724 0.08102417603340861
1060000000.0 0.0649064862856236 -0.14467316854950815
1080000000.0 -0.08295250666652279 0.16113047772030142
1100000000.0 0.12789696327034533 -0.16108267931266385
1120000000.0 0.112303960419285 0.20038393137367602
1140000000.0 -0.24734277730708296 -0.07144416274921064
1160000000.0 -0.2780894836614839 -0.053135869048733846
1180000000.0 -0.15732972623236294 -0.26759724528398543
1200000000.0 0.3180336393999997 0.12819482060462206
1220000000.0 -0.2653804314339215 -0.26081734898837033
1240000000.0 0.38077098372306506 0.1037661835393169
1260000000.0 -0.2737923609333562 -0.3037172150609836
1280000000.0 -0.424799761272399 0.02252287155986803
1300000000.0 0.347456493795224 0.2605748273266365
1320000000.0 0.4118455968581286 -0.13832349895946736
1340000000.0 0.40876820466119484 0.15248695725311684
1360000000.0 0.4375956672612057 -0.04875782168540207
1380000000.0 -0.0769289696930997 -0.42422443489075345
1400000000.0 -0.08107832677856594 -0.41278353000924883
1420000000.0 -0.3237957609040753 0.24423630976446223
1440000000.0 0.3504691257000758 0.1543733891135454
1460000000.0 0.18685370289816808 -0.30132868165569987
1480000000.0 -0.27457339214947973 0.16694376080598455
1500000000.0 0.2712326648723551 0.081172420850415
1520000000.0 0.025459413428347247 0.24774257071896813
1540000000.0 0.17360374812234985 0.13499818900802257
1560000000.0 -0.1862470816350229 0.03800140671261813
1580000000.0 0.10373151409182846 -0.1357193846606461
1600000000.0 0.019852074837988707 -0.1380290901140139
1620000000.0 -0.05461969659807599 0.09135197485096078
1640000000.0 -0.07246688979902155 -0.040427055800892724
1660000000.0 0.049053029735882735 -0.045381221347353604
1680000000.0 -0.010741891541890375 0.04172976415312214
1700000000.0 0.017698213066170528 0.00823346530293477
1720000000.0 0.002041602617507265 -0.004307420041579849
1740000000.0 0.008796156854970117 -0.009845757571929072
1760000000.0 -0.021009056058546968 -0.021287425945882444
1780000000.0 0.03610773800109348 0.04003139985578922
1800000000.0 0.03824213176131418 0.08643205108607202
1820000000.0 0.028881082636451845 -0.12133054660475194
1840000000.0 0.021186998358297755 0.1590251017332422
1860000000.0 0.033978575922042134 0.19619171972072577
1880000000.0 0.2299581045647951 0.05313076021662722
1900000000.0 -0.039053834507241224 -0.2751877001547791
1920000000.0 0.26128270233616113 -0.18407925101353675
1940000000.0 -0.3072370792275463 -0.15311292794707326
1960000000.0 -0.34105805836530045 0.14242390976167119
1980000000.0 0.39459200921680493 -0.07095574469814725
2000000000.0 -0.09588240713430098 -0.4080721370205572
2020000000.0 -0.32595977655498204 -0.2790470305317514
2040000000.0 0.015028764178495418 0.4357978018134244
2060000000.0 0.20263837446847568 0.3887618483319697
2080000000.0 0.3811521602168286 0.20871028766004618
2100000000.0 -0.03860762893086827 -0.42482566217697587
2120000000.0 -0.03425604116262784 -0.4124209185886967
2140000000.0 0.2684532162594872 -0.292679135670517
2160000000.0 0.3847934010394019 0.005687812572946799
2180000000.0 0.37456420744389785 -0.006708872010903927
2200000000.0 0.3325196201556864 -0.14625528955805575
2220000000.0 -0.29833093852063797 -0.1867316811425136
2240000000.0 -0.24745428459148588 -0.24124120944779173
2260000000.0 -0.293743446029465 -0.17680683123280078
2280000000.0 0.07177803485816707 0.338846925151498
2300000000.0 0.1130630076960318 0.3354149746202622
2320000000.0 0.15758242412020024 0.34248353487209776
2340000000.0 -0.12894777538816735 -0.3898063750433331
2360000000.0 -0.4461678960749506 -0.04310785561466219
2380000000.0 0.20406159506370575 0.4538827695860946
2400000000.0 -0.42544195777598914 0.3608750271070811
2420000000.0 0.4657548293268821 -0.394510196964477
2440000000.0 -0.4363515683113011 0.49224995146609823
2460000000.0 -0.6981280810491844 -0.07397238840648715
2480000000.0 0.7126930806711345 0.17436495244003772
2500000000.0 -0.44075093815747435 -0.613567422157859
2520000000.0 0.7234366077716086 -0.2581133282695882
2540000000.0 -0.5926262426306033 -0.4940875793243091
2560000000.0 -0.3945263654404775 0.6584437205389775
2580000000.0 -0.05678392690198415 -0.7514019215702494
2600000000.0 -0.7317173762483484 -0.020568059349995678
2620000000.0 0.0027913589688404027 0.7045212481805311
2640000000.0 0.48692051021554233 -0.4538795241234132
2660000000.0 -0.48486775573498836 -0.3944908714861253
2680000000.0 -0.19580225783582417 0.5447074026292146
2700000000.0 -0.26479321327075517 -0.4558465607530031
2720000000.0 -0.20200050539538938 0.43638163681411046
2740000000.0 0.4317930380032219 -0.01989054695056287
2760000000.0 -0.3376300695366043 0.1956927344794243
2780000000.0 0.35989419170858555 -0.0010136293864035787
2800000000.0 -0.32669523637046344 -0.07699683172257113
2820000000.0 -0.07466341625267461 -0.3050499504932016
2840000000.0 0.1789680137243694 0.2466180789505774
2860000000.0 -0.2539911590270355 -0.1517778361315701
2880000000.0 0.12527343669659244 -0.2625698620264793
2900000000.0 -0.26329921349462926 -0.125266175159349
2920000000.0 -0.2665108260403995 0.13627530245187766
2940000000.0 0.1738943400818965 -0.25893642969621905
2960000000.0 -0.1618042576723897 -0.27491017611177243
2980000000.0 -0.2616396627357684 -0.1833960247579487
3000000000.0 -0.3161416949469852 0.03579898575375305
3020000000.0 0.2871301515938082 0.14301937613314383
3040000000.0 0.2933107075015608 0.12821956430626205
3060000000.0 0.13759630134991918 0.28205339548857816
3080000000.0 0.2946059884018296 -0.0703250511803867
3100000000.0 -0.23386634613790303 0.17667836917927457
3120000000.0 -0.016103457618444426 -0.28455351168362486
3140000000.0 -0.2608387971019478 -0.08766935360847039
3160000000.0 0.2505202009522895 -0.08098758298885539
3180000000.0 -0.25026879886943787 -0.005327860578956509
3200000000.0 0.23574566965139285 -0.0044593654062364575
3220000000.0 0.03626832347311578 -0.2053337567970788
3240000000.0 -0.14051880871775077 -0.10156715979135322
3260000000.0 0.08003372184874193 -0.11614639596768744
3280000000.0 0.028736366929995028 0.09306711342153119
3300000000.0 0.045532766674190414 0.04679815415665824
3320000000.0 -0.03907697709631167 0.006042400011261174
3340000000.0 -0.0145581275791186 -0.016889638274135133
3360000000.0 0.003740510458467145 -0.008284771200873025
3380000000.0 2.962310748140183e-05 0.001673870646505419
3400000000.0 -0.017692538684252954 -0.0018645698786071505
3420000000.0 0.03238884709726956 -0.018096702651436886
3440000000.0 0.04113917717146328 0.03203242550244139
3460000000.0 0.02645412666336542 -0.060634432171332395
3480000000.0 0.06313913892053971 0.045620154814533555
3500000000.0 0.06831181699603277 -0.05422791467124901
3520000000.0 0.051171134233043244 0.08608061129957266
3540000000.0 -0.013677701078797712 -0.11295378026560798
3560000000.0 -0.09212476593536335 0.07668649183505034
3580000000.0 0.06395869815274377 0.11942827234950026
3600000000.0 -0.08412186481141193 0.12993237970150096
3620000000.0 0.0510206426753772 -0.1573042457129995
3640000000.0 -0.10827024487678494 -0.1460477211492806
3660000000.0 -0.1256266527928028 -0.14107857378106298
3680000000.0 0.12686799074844898 -0.14236636834858318
3700000000.0 0.0464026139625584 -0.18530888620227207
3720000000.0 0.17930936485391918 -0.05733554255048844
3740000000.0 -0.03420773527274404 0.1781321774181842
3760000000.0 0.1591779306105238 -0.0809007918278394
3780000000.0 -0.09981590109483185 0.14253117584727815
3800000000.0 0.10535080371662779 -0.12963294462918368
3820000000.0 -0.15119747966398103 0.037919679367263245
3840000000.0 -0.10233078642021112 -0.10213180049658639
3860000000.0 0.09214908653837188 -0.10454853075492236
3880000000.0 -0.015305475730128018 0.14014291884460828
3900000000.0 -0.14315680390072863 -0.03661123596890743
3920000000.0 -0.08800462943913041 0.1265164722939226
3940000000.0 -0.1675009507317795 -0.020802651312267103
3960000000.0 -0.012618843423239419 0.17479125793332503
3980000000.0 0.11922384645438172 0.12298502084643115
4000000000.0 0.11257576843947127 -0.11468904576490604
