!Created with skrf (http://scikit-rf.org).
# Hz S RI R 50.0 
!freq ReS11 ImS11
400000000.0 0.48717373966760447 0.7207875039322973
420000000.0 0.8428072678951094 -0.05957199591700772
440000000.0 0.7634868412177119 -0.23400984751956666
460000000.0 0.7320414879390018 0.12829939741920396
480000000.0 -0.07009470201884997 -0.6809568079885094
500000000.0 0.027532136104412533 0.600763258967594
520000000.0 0.11993003065299482 0.49712418017787285
540000000.0 -0.36187218719109904 -0.2423882185248233
560000000.0 0.07629752726543663 0.389335035531258
580000000.0 -0.33881150328673565 -0.11795413113157524
600000000.0 0.3284789229110267 -0.13519691387157196
620000000.0 -0.1995109300764166 -0.29241075199071337
640000000.0 0.40642450564449073 -0.04621644113126722
660000000.0 0.04171194956339094 0.412536470367925
680000000.0 -0.19187123102897766 -0.404687596811597
700000000.0 0.195990840464991 0.41817794102741596
720000000.0 -0.44175532858571825 0.13602169491920515
740000000.0 -0.22785769378950366 0.3581684186843023
760000000.0 -0.28299682574135265 -0.29241396652703944
780000000.0 -0.372421903899872 0.08093982247640834
800000000.0 -0.23129754655614473 0.24574449294387227
820000000.0 0.13033441441732188 0.24527889619729773
840000000.0 -0.14575413174862076 -0.14464930779861582
860000000.0 0.06265652618689334 -0.15898025608492677
880000000.0 0.07336399284672036 -0.12751377993739982
900000000.0 0.07239071037956137 0.07582563423294744
920000000.0 -0.060224094552689886 -0.01387490881923198
940000000.0 0.03698837454543392 0.00965792457488486
960000000.0 -0.028563415236393833 0.02856206788149566
980000000.0 -0.003507680603274939 0.06179063016437787
1000000000.0 -0.06510148334488332 -0.073881965462051
1020000000.0 -0.06711374332532488 -0.10155546223713223
1040000000.0 0.04446989873919596 0.12602700103853054
1060000000.0 0.1394419125576158 -0.07260497607172904
1080000000.0 -0.15816787719430234 0.08709710695676671
1100000000.0 0.18137974819107466 -0.09741472814826317
1120000000.0 0.08531977826380245 0.214449203882447
1140000000.0 -0.2582879784925915 -0.00869023746493175
1160000000.0 -0.2775214591975322 0.05699495243229069
1180000000.0 -0.25234105703783555 -0.17980485236597196
1200000000.0 0.33830098387666174 0.051870115405736585
1220000000.0 -0.29820884630626293 -0.22146823321922549
1240000000.0 0.3812346581203553 0.10277621058687211
1260000000.0 -0.28719538501947023 -0.2916789391333406
1280000000.0 -0.42501180887771783 0.027856448562697755
1300000000.0 0.34659609553366716 0.26314772240159745
1320000000.0 0.412297968444115 -0.1391378252917749
1340000000.0 0.41004314988852303 0.1510894697774383
1360000000.0 0.43710573818490756 -0.05646202271253359
1380000000.0 -0.06272132991738273 -0.4268657796079801
1400000000.0 -0.08300004970042706 -0.41217441453159204
1420000000.0 -0.34068756652158527 0.21951129953385137
1440000000.0 0.3448528551263274 0.1659841851454522
1460000000.0 0.1889596514902373 -0.29950899924080193
1480000000.0 -0.2643402628205355 0.18128656748586325
1500000000.0 0.25959653119632803 0.11138312542088676
1520000000.0 0.034913596405022417 0.2458479638793993
1540000000.0 0.19385691208311434 0.10320904953255673
1560000000.0 -0.17823498871429858 0.0650175773364998
1580000000.0 0.03232828971581937 -0.1672593635161998
1600000000.0 -0.048709046273564545 -0.1301245031884273
1620000000.0 0.000696276444901148 0.10594271138803246
1640000000.0 -0.07570257034477644 -0.03376988144593053
1660000000.0 0.052915840582367174 -0.04235159329720094
1680000000.0 -0.018996637300188367 0.04024921430225523
1700000000.0 0.010968124068869428 0.018094793338707074
1720000000.0 -0.002584060934163845 -0.005825298457195159
1740000000.0 -0.002693009711080351 -0.012198859206991241
1760000000.0 -0.014570669300604234 -0.025314535414372473
1780000000.0 0.002550746857804138 0.05471276672454078
1800000000.0 0.06277804615082405 0.07353837337271146
1820000000.0 -0.05473638443905993 -0.1142904642184852
1840000000.0 0.11177940202164276 0.11664027091286479
1860000000.0 0.08906450482854843 0.17749158293455208
1880000000.0 0.2257496921756024 0.06653597876398543
1900000000.0 0.04443615650434932 -0.27415646502476715
1920000000.0 0.30661798995069967 -0.09130312383797262
1940000000.0 -0.2646139137524005 -0.21965699271055086
1960000000.0 -0.35693707730597884 0.09753780884924755
1980000000.0 0.39826477902433455 -0.04748304457803849
2000000000.0 -0.10583778306025654 -0.4053824867337955
2020000000.0 -0.33624693858189425 -0.26503475705723517
2040000000.0 0.0604634550320732 0.42988440559093954
2060000000.0 0.22466275576690808 0.37334341170232854
2080000000.0 0.3418766650511198 0.2658664877599481
2100000000.0 -0.015456002250042386 -0.4259858974092844
2120000000.0 -0.08249986710957802 -0.4058802430291423
2140000000.0 0.1377927204725772 -0.37256525012955694
2160000000.0 0.3513873047195061 -0.15565588557923501
2180000000.0 0.35325588375364503 -0.12118333423473401
2200000000.0 0.29027334738751703 -0.21646774402321836
2220000000.0 -0.3051827115143117 -0.17490613573686253
2240000000.0 -0.2600920524038314 -0.2283029733782095
2260000000.0 -0.3247623953697563 -0.11468907570518601
2280000000.0 0.14679431340330568 0.31509946068196304
2300000000.0 0.17137206186529125 0.3107061127222182
2320000000.0 0.19928346156717877 0.32055329041065445
2340000000.0 -0.11646368751935815 -0.39363768439926844
2360000000.0 -0.44255185403757347 -0.07152058150697516
2380000000.0 0.1800754250889544 0.4644951743582115
2400000000.0 -0.45469205065541657 0.3229644211341497
2420000000.0 0.4868197799172982 -0.367070133425201
2440000000.0 -0.4706811573537533 0.4583657417301367
2460000000.0 -0.693061399719292 -0.10561112998950643
2480000000.0 0.7069569959580908 0.19203716861046288
2500000000.0 -0.4463688623018189 -0.6078563755621006
2520000000.0 0.6950769581297398 -0.3241624005534817
2540000000.0 -0.6120722957699293 -0.46832110749600114
2560000000.0 -0.34429852926847837 0.6853402328100406
2580000000.0 -0.11551806957544075 -0.7441665793623721
2600000000.0 -0.7245321855050472 0.10272551288088362
2620000000.0 0.10406864036435803 0.6968443920480702
2640000000.0 0.41177999550269295 -0.5233576917247696
2660000000.0 -0.5388426858712806 -0.3180495728275616
2680000000.0 -0.1372565931712862 0.5630805428890474
2700000000.0 -0.3010542628917298 -0.4338922767488091
2720000000.0 -0.15550558855696678 0.4560948096853526
2740000000.0 0.4301645737554811 -0.051807122192138594
2760000000.0 -0.3334140194598585 0.20462079678747583
2780000000.0 0.35986674298061133 0.023783439862828566
2800000000.0 -0.31653523628242347 -0.11358624666939196
2820000000.0 -0.038301034057734704 -0.3124623642283909
2840000000.0 0.1560522871225224 0.26228700250967263
2860000000.0 -0.24631135092926104 -0.16419475387561494
2880000000.0 0.1311645555870499 -0.25872104213704095
2900000000.0 -0.25322340814341765 -0.14181623634368243
2920000000.0 -0.2694960464922349 0.12664792811355294
2940000000.0 0.1882874834082376 -0.2469001649178403
2960000000.0 -0.15612424707925462 -0.27672205328596206
2980000000.0 -0.2817162733971152 -0.14857830072271686
3000000000.0 -0.30620151278570606 0.08190497993530726
3020000000.0 0.3095172172270438 0.08165536240750522
3040000000.0 0.30669921771647685 0.0899170015875614
3060000000.0 0.18871759273444924 0.24955586443617786
3080000000.0 0.25803604677556297 -0.157956796176056
3100000000.0 -0.13867169709456495 0.2580725820998437
3120000000.0 -0.07324505762220469 -0.2748843842309244
3140000000.0 -0.2747287461600431 -0.019776246313167163
3160000000.0 0.2193603021741733 -0.14700854814416076
3180000000.0 -0.23953437040511735 0.07831929132432675
3200000000.0 0.22697482637336958 -0.07048463724464732
3220000000.0 -0.015675392659679085 -0.20980382488547003
3240000000.0 -0.16251400643178976 -0.06517702849369117
3260000000.0 0.06322464152908895 -0.12751745326401293
3280000000.0 0.014704852216800375 0.09696139975159762
3300000000.0 0.012050984165932463 0.06465368924804629
3320000000.0 0.014416361271339103 -0.03793311049765881
3340000000.0 0.02045264685010219 -0.012761415928070301
3360000000.0 0.010129376355057037 -0.003946470843680955
3380000000.0 0.0004506428945257656 -0.0006572051480406708
3400000000.0 -0.01551447990494947 0.007762274792752636
3420000000.0 -0.03191467449949665 -0.018847247591584397
3440000000.0 0.04493570353251838 -0.025985315426468536
3460000000.0 -0.04680837443988086 -0.04590748783547892
3480000000.0 0.07259252331339311 0.025120867632436237
3500000000.0 0.039477784827966475 -0.07711096387536766
3520000000.0 0.08355921524786368 0.05539728127597031
3540000000.0 -0.05435452806375185 -0.1003111887304902
3560000000.0 -0.0586579496079777 0.104703699909612
3580000000.0 0.10631327730922915 0.08422266720517092
3600000000.0 -0.051674724243979876 0.14629937721946193
3620000000.0 -0.019327466298971627 -0.16484186343507998
3640000000.0 -0.13631614162755265 -0.12060937313019257
3660000000.0 -0.1582519270335619 -0.10483801121004276
3680000000.0 0.09415964676980644 -0.16648780597611704
3700000000.0 0.007298962032288938 -0.19167434867758706
3720000000.0 0.17047667082065715 -0.08260424520623913
3740000000.0 0.0044881189053600865 0.1823258529611936
3760000000.0 0.1455410970931297 -0.1055374372650042
3780000000.0 -0.07273942774392478 0.15929398349372
3800000000.0 0.08326203450965204 -0.14591036724154943
3820000000.0 -0.14612845026277999 0.05669161313398731
3840000000.0 -0.10539055517869844 -0.1001412196004572
3860000000.0 0.0683454136600141 -0.12267128497862648
3880000000.0 0.007984874501892475 0.14172348167761703
3900000000.0 -0.14751556558800388 -0.01833645837548504
3920000000.0 -0.08668595076753952 0.12853490548102137
3940000000.0 -0.16892907357762368 -0.013208379703714785
3960000000.0 -0.0024895224152880068 0.17603014225882493
3980000000.0 0.1273669171598663 0.1158652214185753
4000000000.0 0.1026942577304341 -0.12500957713597818
