!Created with skrf (http://scikit-rf.org).
# Hz S RI R 50.0 
!freq ReS11 ImS11
400000000.0 0.48612483509389603 0.7223120859347089
420000000.0 0.841675234242916 -0.07341842435798787
440000000.0 0.7574630071165567 -0.2519069266061069
460000000.0 0.7311683099540228 0.13270702651442898
480000000.0 -0.059250489054752706 -0.6827213666343872
500000000.0 0.05834411427371764 0.5988829545858446
520000000.0 0.16818281342770644 0.4826123766959503
540000000.0 -0.3706444042288916 -0.227005024078644
560000000.0 0.045212699949860116 0.39337829594078655
580000000.0 -0.31568777166643613 -0.16990899960353328
600000000.0 0.3472816677414807 -0.07501871663055162
620000000.0 -0.1622832588908904 -0.31533672044621136
640000000.0 0.40328177511562124 -0.07426509288152824
660000000.0 0.11183788555603122 0.3994435182246629
680000000.0 -0.23118842103096676 -0.38303686970361117
700000000.0 0.1767998060542673 0.42601317916885306
720000000.0 -0.4401176903082911 0.14064705316945852
740000000.0 -0.28860925236259743 0.3128241751213267
760000000.0 -0.28358137636562925 -0.29308048730400893
780000000.0 -0.36436535359387157 0.11215039062936294
800000000.0 -0.2124911061622839 0.26201797597167065
820000000.0 0.1390869647986362 0.24028064346137512
840000000.0 -0.1406698163607582 -0.14928281596377804
860000000.0 0.06347313863885731 -0.158265089597673
880000000.0 0.0830913167690266 -0.12106877055300484
900000000.0 0.048054484004436133 0.09337306677423814
920000000.0 -0.05164421740744377 -0.033794345867482534
940000000.0 0.010091935337751382 0.036827289465068885
960000000.0 -0.02534835974603923 -0.03157886201142382
980000000.0 -0.06021856516863317 0.015019768138331308
1000000000.0 -0.0031725672933917972 -0.09932113513847703
1020000000.0 -0.0529471612458043 -0.11112935383031237
1040000000.0 0.08216795732570384 0.10675820242929422
1060000000.0 0.10410688783456043 -0.11875246804088611
1080000000.0 -0.11915478490366951 0.13574853037652454
1100000000.0 0.1444299403044178 -0.1461305645856516
1120000000.0 0.10772494525602334 0.20292630494131408
1140000000.0 -0.2557123926040292 -0.031321553699626574
1160000000.0 -0.2828686244819893 0.008973916110122361
1180000000.0 -0.21409675325890973 -0.22419054141322062
1200000000.0 0.33353689457665864 0.0788102852978807
1220000000.0 -0.29289275028870304 -0.229306852915537
1240000000.0 0.3846587017300993 0.08940659497843936
1260000000.0 -0.29070389664396856 -0.2880104913148679
1280000000.0 -0.4242062601851018 0.03671844946594697
1300000000.0 0.33878597707708813 0.27266201871372286
1320000000.0 0.41367994151134707 -0.13448746411248022
1340000000.0 0.4124771183664675 0.1440951030148957
1360000000.0 0.4375324068867953 -0.051164163642292794
1380000000.0 -0.06166057124785623 -0.4266891656329221
1400000000.0 -0.07283012354465684 -0.41399158891936627
1420000000.0 -0.3364677633205261 0.22572993992975118
1440000000.0 0.34091909415263855 0.1740602653064558
1460000000.0 0.203318872037016 -0.29030712790868207
1480000000.0 -0.28201689361436716 0.15327523026511172
1500000000.0 0.26484150724071054 0.09938502551339266
1520000000.0 0.04799500759715268 0.2435795892583818
1540000000.0 0.184461283421405 0.11832430728180861
1560000000.0 -0.18244215090509464 0.051332366240940036
1580000000.0 0.0581902532107054 -0.1599643297733556
1600000000.0 -0.017502141740190866 -0.13807240425747233
1620000000.0 -0.03933633895007428 0.09895293013126157
1640000000.0 -0.08082552332613756 -0.020284513528727555
1660000000.0 0.031096586647716206 -0.060261505419648705
1680000000.0 -0.0034159068244258737 0.044026284853746905
1700000000.0 0.018947530553034497 0.008672607737187277
1720000000.0 -0.005314557892601027 0.002605628479073375
1740000000.0 0.009520371889343513 -0.008694390316107385
1760000000.0 -0.029336032183899057 0.0014573992210816197
1780000000.0 0.042406412373401765 0.03388931201545612
1800000000.0 0.0732877768767395 0.06164800957698369
1820000000.0 -0.036053968887395225 -0.12068170461144483
1840000000.0 0.07434474277786976 0.14312621898648417
1860000000.0 0.052978216446500685 0.19199316278517065
1880000000.0 0.22869331609238516 0.05910823187106565
1900000000.0 -0.005748747477565862 -0.2781214973475947
1920000000.0 0.2833441078840868 -0.1482760887276439
1940000000.0 -0.28094598314012814 -0.1975770166937133
1960000000.0 -0.3543327392618159 0.10549882113044912
1980000000.0 0.3983363418883617 -0.04577644792272158
2000000000.0 -0.08538113661331895 -0.4102634974063585
2020000000.0 -0.31434375122053515 -0.2912107431345779
2040000000.0 0.022668091883893418 0.43419883012335675
2060000000.0 0.2216053934876603 0.3761894713916959
2080000000.0 0.36674437824382866 0.23109449075400404
2100000000.0 -0.058097602690930894 -0.4218860041908565
2120000000.0 -0.07823471714065908 -0.4059999325657367
2140000000.0 0.1929190314827504 -0.3465432220222102
2160000000.0 0.3657212952769405 -0.1173778993287325
2180000000.0 0.36748841927604253 -0.0689555886723052
2200000000.0 0.2992776720789912 -0.20486835905664885
2220000000.0 -0.31034789757200704 -0.16673953860727284
2240000000.0 -0.2813793540426126 -0.20115289822860422
2260000000.0 -0.32754354815909437 -0.10493270437741532
2280000000.0 0.1323279019954114 0.32086997848779475
2300000000.0 0.1582374814567244 0.3173516863128263
2320000000.0 0.17011755904729622 0.3367017134038403
2340000000.0 -0.12336040131347008 -0.39209207736730217
2360000000.0 -0.4467613585409363 -0.04336357639382151
2380000000.0 0.19577879915006077 0.45819199132881644
2400000000.0 -0.45126564762374555 0.3279653559997535
2420000000.0 0.498361428033786 -0.351571477907126
2440000000.0 -0.4864761915680548 0.4418156755714726
2460000000.0 -0.6924028574018808 -0.11030667070823359
2480000000.0 0.7000695920715698 0.21646475178893196
2500000000.0 -0.4331337699826201 -0.6175045932928769
2520000000.0 0.7033436234277272 -0.30549582737510156
2540000000.0 -0.6247470964611964 -0.45113262187432907
2560000000.0 -0.3304244476861299 0.6917931044605719
2580000000.0 -0.05768992419438745 -0.7508327796441236
2600000000.0 -0.7308550742431197 0.030334977164063606
2620000000.0 0.11747170114777672 0.6948040470255018
2640000000.0 0.4311089412772662 -0.5074391807090523
2660000000.0 -0.5389637118240264 -0.3177760528505164
2680000000.0 -0.1224656378114991 0.5665218539125
2700000000.0 -0.31437630119712434 -0.42447251162558014
2720000000.0 -0.15698927647463812 0.45563396225075475
2740000000.0 0.4294450710401059 -0.057439674951723786
2760000000.0 -0.32550499925104076 0.21703324280730663
2780000000.0 0.3604469117701095 0.013541856707056175
2800000000.0 -0.3186305021827147 -0.10742801136434327
2820000000.0 -0.03282722848985787 -0.3128615004046741
2840000000.0 0.1296095216332857 0.2768678026952128
2860000000.0 -0.22753434901373504 -0.18991947956189575
2880000000.0 0.13001089275043223 -0.25941887803537594
2900000000.0 -0.2534612985113036 -0.1422902927322506
2920000000.0 -0.27487790790987654 0.11611025260692011
2940000000.0 0.19690927363025718 -0.24062835292597826
2960000000.0 -0.17204790704348172 -0.26722083394959695
2980000000.0 -0.27847510177217 -0.15409520535234897
3000000000.0 -0.3112903303610537 0.061360927354473606
3020000000.0 0.3059374947543292 0.09408987726598728
3040000000.0 0.31548969040039876 0.05177778542347441
3060000000.0 0.19706000304507357 0.24342381216944575
3080000000.0 0.260819501647301 -0.1534121893461917
3100000000.0 -0.16855858517620945 0.23963372808158057
3120000000.0 -0.077152105139194 -0.2741211437965304
3140000000.0 -0.2753954604738064 -0.008659417245816899
3160000000.0 0.21221314545472758 -0.15714966977770922
3180000000.0 -0.2422927667090973 0.0665467947549208
3200000000.0 0.23079716521366733 -0.054946228427660664
3220000000.0 0.0076456805462853435 -0.2098681605209693
3240000000.0 -0.15484460386866022 -0.08058421466461989
3260000000.0 0.08220030392318109 -0.1162049639424592
3280000000.0 0.013784954544354522 0.09755630841384459
3300000000.0 0.0479955785813848 0.04542043432043189
3320000000.0 -0.022999990752921733 -0.03349192887731208
3340000000.0 0.012424837480918549 -0.020012413848779494
3360000000.0 0.009974238258715313 0.002601878966757952
3380000000.0 -0.0009843078564470747 -0.0005253424500892872
3400000000.0 -0.0028557470131522094 0.016734831634879044
3420000000.0 -0.020004483134466247 -0.030731537782758535
3440000000.0 0.051453804251025845 0.0033098226811091587
3460000000.0 -0.015485553785959586 -0.06360522373529305
3480000000.0 0.07648790004711935 0.011629461540162481
3500000000.0 0.04476663903022496 -0.07432882746044765
3520000000.0 0.08962054204245092 0.044762105233758794
3540000000.0 -0.046190782780035064 -0.10349104710937512
3560000000.0 -0.04778147966306965 0.10990867243254861
3580000000.0 0.102761410726129 0.08803949685175179
3600000000.0 -0.04538910130020017 0.14822101944303706
3620000000.0 -0.01372736816006728 -0.16533352713726004
3640000000.0 -0.15055985107703562 -0.10313107896358151
3660000000.0 -0.16747814238318837 -0.08945896726884756
3680000000.0 0.08482643178636047 -0.1715579368990646
3700000000.0 -0.010507285213642829 -0.19137803973627154
3720000000.0 0.16519320623365213 -0.0916730443251441
3740000000.0 0.007139256554954476 0.18225483261505754
3760000000.0 0.14183268983157213 -0.10982463217614091
3780000000.0 -0.05994767804752683 0.16437491645990895
3800000000.0 0.08066732798741318 -0.14747213921797195
3820000000.0 -0.14326181037758473 0.06417767309295484
3840000000.0 -0.11843204330304608 -0.08429924074407195
3860000000.0 0.07996514133694448 -0.1156392060039408
3880000000.0 -0.003448800267853645 0.14194684334841237
3900000000.0 -0.1434658124872477 -0.03936346893316958
3920000000.0 -0.09384491303654616 0.12367302445010467
3940000000.0 -0.1666846610654982 -0.03132546205738819
3960000000.0 -0.03009670674044833 0.17362768908383613
3980000000.0 0.09493687260285118 0.14347017062367115
4000000000.0 0.13240704920055837 -0.09237218878410774
