!Created with skrf (http://scikit-rf.org).
# Hz S RI R 50.0 
!freq ReS11 ImS11
400000000.0 0.5024907399374169 0.7095235669702082
420000000.0 0.8440986593583706 -0.040632145497829036
440000000.0 0.7610274284504861 -0.24102167744496178
460000000.0 0.735875675637069 0.10285793467944136
480000000.0 -0.061815191429775096 -0.6822958400931556
500000000.0 0.04670958573760543 0.5998990313441515
520000000.0 0.15050861614497962 0.48855923001317125
540000000.0 -0.36456721610090664 -0.23710513213177195
560000000.0 0.05385709736892478 0.3925247023776613
580000000.0 -0.32287638491960763 -0.15576826581670505
600000000.0 0.34329549785544816 -0.0911729347416425
620000000.0 -0.17497354834789974 -0.308080208972717
640000000.0 0.40621945084995903 -0.052333645464031055
660000000.0 0.09441813355186758 0.4038725443680008
680000000.0 -0.2289383872369639 -0.3847637891807993
700000000.0 0.181845917065327 0.4241764629473984
720000000.0 -0.4328949613317692 0.16226774695060628
740000000.0 -0.25634534990909696 0.33924710415728776
760000000.0 -0.28177051957002 -0.2940166152377632
780000000.0 -0.37330262320989355 0.07743763003757634
800000000.0 -0.2297391181677044 0.2475190100487739
820000000.0 0.1338662351835679 0.24341208046862753
840000000.0 -0.14499933823840747 -0.14509830429682488
860000000.0 0.06671062001524046 -0.15695810212830566
880000000.0 0.0825313776608276 -0.12154229816750234
900000000.0 0.06163097356575032 0.08437391655316691
920000000.0 -0.05448519311523201 -0.028715776066799547
940000000.0 0.02592245356437307 0.027890977580638816
960000000.0 -0.04005468280533919 -0.006251770130514726
980000000.0 -0.04094753673982585 0.046652481996740026
1000000000.0 -0.031884655561610346 -0.09381293070984313
1020000000.0 -0.05697145320517608 -0.10856070460010402
1040000000.0 0.05767415064971712 0.12122494353938289
1060000000.0 0.12799090326820572 -0.09174081043335326
1080000000.0 -0.14118701263183145 0.11238034043476686
1100000000.0 0.1641752932683447 -0.12355037634642455
1120000000.0 0.09237917116391132 0.21068270336260445
1140000000.0 -0.25723700494945506 -0.018137888984212445
1160000000.0 -0.27990574270844903 0.04237509052913081
1180000000.0 -0.2384692771493628 -0.19795587003290305
1200000000.0 0.33800078422589713 0.055310078917573065
1220000000.0 -0.3009912450401048 -0.21808409166249185
1240000000.0 0.3833907844538525 0.09465736496308634
1260000000.0 -0.29610596549050544 -0.28266993982046007
1280000000.0 -0.4243823727324888 0.035636466127111376
1300000000.0 0.34038455289939307 0.2709553652501731
1320000000.0 0.4136908469303022 -0.13460293391724998
1340000000.0 0.40935201959284534 0.1530666115798121
1360000000.0 0.4374507208334858 -0.0531792090576977
1380000000.0 -0.059317695479597005 -0.4271732285237164
1400000000.0 -0.07434667085439053 -0.41384676395361547
1420000000.0 -0.34134809585068515 0.21820556972233657
1440000000.0 0.3372259287306922 0.18129113974242267
1460000000.0 0.20344596458259256 -0.29012769418325496
1480000000.0 -0.2742768657707074 0.16643481935162388
1500000000.0 0.26246882919901626 0.10483315565875617
1520000000.0 0.04980670697943086 0.24318274871473516
1540000000.0 0.19014277519404563 0.10900832929551219
1560000000.0 -0.177789436933578 0.06534803155046541
1580000000.0 0.0413196729977517 -0.16505023809056663
1600000000.0 -0.025945810829939565 -0.13650811885119496
1620000000.0 -0.04767192283888391 0.09480961921011624
1640000000.0 -0.0785463033432467 -0.0276635825447532
1660000000.0 0.039152053701194775 -0.05569456044803929
1680000000.0 -0.012095561256739381 0.04274645737487271
1700000000.0 0.02119738839096855 0.002019749059363464
1720000000.0 -0.00489155200702048 0.003902375462931898
1740000000.0 0.012239900912481488 -0.00043830595735732536
1760000000.0 -0.02785559853592024 -0.009562691994589135
1780000000.0 0.03362979973146176 0.042900904052266015
1800000000.0 0.0694164579105085 0.06644572669234759
1820000000.0 -0.05354544487247417 -0.11442695557328104
1840000000.0 0.09789619542143009 0.12841593248597147
1860000000.0 0.0806247510104504 0.18186100180421128
1880000000.0 0.2262995614576824 0.06598733788878859
1900000000.0 0.01675228975634757 -0.2774505701289392
1920000000.0 0.29804392210433023 -0.11608939190669659
1940000000.0 -0.26775239661860745 -0.2154446391365488
1960000000.0 -0.3582194217525927 0.09194428024731463
1980000000.0 0.3996188596584731 -0.03446586641511603
2000000000.0 -0.09022927820743705 -0.4091140896364947
2020000000.0 -0.33840907360282285 -0.26229083413194243
2040000000.0 0.01694689260638172 0.43410438128370943
2060000000.0 0.20848501818128556 0.38297561469462876
2080000000.0 0.34492903789411455 0.26200187419046805
2100000000.0 -0.02430819060555652 -0.42530285896393716
2120000000.0 -0.06351794694049234 -0.4089538619395508
2140000000.0 0.17577482280143567 -0.3558581644833941
2160000000.0 0.3642339547647626 -0.12163280448837367
2180000000.0 0.35872950711153817 -0.10427795136937468
2200000000.0 0.29390531845176077 -0.2118889674505933
2220000000.0 -0.30694292435171183 -0.17247403179272996
2240000000.0 -0.26775616610177105 -0.2191558975510752
2260000000.0 -0.3285660826744437 -0.10320924474467404
2280000000.0 0.14618840113904272 0.3151519587135267
2300000000.0 0.1812218329783295 0.30509807529648303
2320000000.0 0.18761542647932852 0.32734806877361633
2340000000.0 -0.11696931607763836 -0.39356888200489787
2360000000.0 -0.44421974112990176 -0.062177040538048726
2380000000.0 0.1780907237162541 0.4652251964900818
2400000000.0 -0.4612277119655165 0.3132801759031407
2420000000.0 0.5043137524434668 -0.3427241599621029
2440000000.0 -0.48480596510512913 0.4433071415434414
2460000000.0 -0.6875091671135724 -0.13778164114613028
2480000000.0 0.6980290674279053 0.22283594200037743
2500000000.0 -0.4586924899788677 -0.5984189860074396
2520000000.0 0.6994830457457484 -0.3140299889009166
2540000000.0 -0.6109290391146336 -0.4694076083102723
2560000000.0 -0.33950647146757695 0.6872866236515434
2580000000.0 -0.07769396864039624 -0.7486799562123294
2600000000.0 -0.7276011389983934 0.07562034796022693
2620000000.0 0.11060109331364944 0.6956553723640628
2640000000.0 0.40111088491843266 -0.5313318744770928
2660000000.0 -0.5490032867458323 -0.3003504986419798
2680000000.0 -0.10485106439099343 0.570097046764872
2700000000.0 -0.31788725562910874 -0.42191362860196063
2720000000.0 -0.14736001563651788 0.45896499962190196
2740000000.0 0.4300900836279505 -0.05300106735074369
2760000000.0 -0.33142106110173797 0.2080339786581262
2780000000.0 0.3604021395621538 0.01679385629261025
2800000000.0 -0.3170815536863184 -0.11247698948239544
2820000000.0 -0.019957116013949627 -0.31411974044815144
2840000000.0 0.1347924993108222 0.2737062904285655
2860000000.0 -0.2236456933006591 -0.1939383297632504
2880000000.0 0.14794291079398655 -0.249773863125623
2900000000.0 -0.250400070028651 -0.14695490331846525
2920000000.0 -0.27599197695318195 0.1121443036969493
2940000000.0 0.1977201118462155 -0.2393788630478728
2960000000.0 -0.1802745388028528 -0.2612284018224631
2980000000.0 -0.28839437314073374 -0.13577097539907548
3000000000.0 -0.3107965929877425 0.06188136555179868
3020000000.0 0.30403252347234927 0.09922889431396753
3040000000.0 0.3110989209305918 0.07316696890559865
3060000000.0 0.19973747012544568 0.24094260541719
3080000000.0 0.25638795061950687 -0.1608699531197713
3100000000.0 -0.13820043064299475 0.2584258514232318
3120000000.0 -0.07978626535378738 -0.2732423985611605
3140000000.0 -0.275511552500695 -0.0047650091505251485
3160000000.0 0.21272368619830406 -0.15663963755453014
3180000000.0 -0.23656353960230486 0.0866381931841779
3200000000.0 0.23022304828982543 -0.0586119691147877
3220000000.0 -0.0065688059143729355 -0.21037114382488556
3240000000.0 -0.15934317686967006 -0.07209995597774937
3260000000.0 0.07527002644209395 -0.12098189921851188
3280000000.0 0.007182806777407693 0.0982678600358592
3300000000.0 -0.005777847771992078 0.0658770817071566
3320000000.0 0.0065286250881880226 -0.0401482581886931
3340000000.0 0.02131889761563712 -0.011063272735109517
3360000000.0 0.010644703224130877 0.001731082967920917
3380000000.0 -0.0001510224549357579 -0.0006286340455268864
3400000000.0 0.015703656599730807 0.006587671044960486
3420000000.0 -0.020866876278449537 -0.030283126522590863
3440000000.0 0.039784881893262784 -0.0330445608605977
3460000000.0 -0.03940882144560713 -0.05238470748677831
3480000000.0 0.07499510214964142 -0.019498923895539894
3500000000.0 0.025804797333188034 -0.08292062264970479
3520000000.0 0.08367256020333343 0.05449863071128774
3540000000.0 -0.05550345442868531 -0.09922711322273017
3560000000.0 -0.03791893214034816 0.11403169100062295
3580000000.0 0.11580475313266335 0.07065929911431153
3600000000.0 -0.04371624763400964 0.14865709830242
3620000000.0 -0.015618908528455022 -0.16511271922733067
3640000000.0 -0.14842866757104625 -0.10600582715996577
3660000000.0 -0.16502187349605615 -0.09311030903040426
3680000000.0 0.08240214203168113 -0.17285959909208615
3700000000.0 -0.0037279489710091485 -0.19168341063018726
3720000000.0 0.16603090603395276 -0.09168507441568598
3740000000.0 -0.004934890440274219 0.18226570423600688
3760000000.0 0.14507618991575175 -0.10626792647669213
3780000000.0 -0.06586670115165309 0.16238722941632458
3800000000.0 0.09071542207044163 -0.14172089160387633
3820000000.0 -0.1473109311201048 0.054840618116961726
3840000000.0 -0.11488731126704484 -0.0892172634820021
3860000000.0 0.08176508588511802 -0.11431476557988635
3880000000.0 0.021737741448107535 0.14020056565403632
3900000000.0 -0.1459044546501092 -0.0279087753088321
3920000000.0 -0.07848459124822142 0.13408115638608784
3940000000.0 -0.16800182611380476 -0.02284369598226659
3960000000.0 -0.0055170324442871226 0.17609034275550983
3980000000.0 0.11042651034999669 0.131932236335943
4000000000.0 0.11106058785250862 -0.11748904138019009
