!Created with skrf (http://scikit-rf.org).
# Hz S RI R 50.0 
!freq ReS11 ImS11
400000000.0 0.48704580004305514 0.7217648415368756
420000000.0 0.8421060155841953 -0.07289003538620613
440000000.0 0.7634489683647767 -0.23406845805530527
460000000.0 0.7212482759405406 0.17979116508432438
480000000.0 -0.027313774210790034 -0.6848909473173246
500000000.0 0.049783641174996604 0.5998359557540953
520000000.0 0.17261547226889862 0.48078421014472017
540000000.0 -0.3799744228451173 -0.21019297314183039
560000000.0 0.05782858016825282 0.39120395041337375
580000000.0 -0.3146256483261743 -0.17235983715672237
600000000.0 0.35006121337972906 -0.05980572219533118
620000000.0 -0.1337359684617079 -0.32942185406093977
640000000.0 0.4065847264230705 -0.05878630064545234
660000000.0 0.06990621117355297 0.4092198538635154
680000000.0 -0.19735351868502823 -0.4011107997332282
700000000.0 0.1360072170417173 0.44012193705736863
720000000.0 -0.45644015101960345 0.07031955301416315
740000000.0 -0.3112835361441418 0.2901240926421408
760000000.0 -0.2997093773440551 -0.2767990055822698
780000000.0 -0.35049085048943074 0.1488110632522556
800000000.0 -0.17232713124678958 0.28948104172530514
820000000.0 0.16086320205927362 0.22533774716140198
840000000.0 -0.15604447292929702 -0.13312142857394815
860000000.0 0.01878228056644321 -0.16934971489586997
880000000.0 0.0540335359077607 -0.13656713079902943
900000000.0 0.04474041416376457 0.09498070345621622
920000000.0 -0.0148490412505425 -0.060446636839449536
940000000.0 -0.027487580370435416 0.02709373451081664
960000000.0 0.030891413685245686 -0.026100163146182295
980000000.0 -0.056271337853390765 -0.026387787535955977
1000000000.0 0.021148528587408906 -0.09761898102173207
1020000000.0 -0.06078048897973799 -0.10816303947590687
1040000000.0 0.11620127588101384 0.06986679378678001
1060000000.0 0.05355402141858607 -0.1491621098833159
1080000000.0 -0.07660528682582099 0.16434113501530048
1100000000.0 0.11125513763140382 -0.17324039610641573
1120000000.0 0.10572027217887993 0.20401743770754552
1140000000.0 -0.24505482400529077 -0.07920790427066732
1160000000.0 -0.2739498084309525 -0.07188292107709295
1180000000.0 -0.1494646512286188 -0.2723621912911505
1200000000.0 0.3203171069546163 0.12384459007883515
1220000000.0 -0.26945009606908954 -0.2568518504098677
1240000000.0 0.3742292440716012 0.1250431401419474
1260000000.0 -0.2548451789931252 -0.31951362464479577
1280000000.0 -0.42522928808435434 -4.179150296711658e-05
1300000000.0 0.3431090003166669 0.2662525967635094
1320000000.0 0.41266785651346016 -0.13546867941794305
1340000000.0 0.4084427658304413 0.15296598561819463
1360000000.0 0.43697158923965385 -0.05324812702282138
1380000000.0 -0.0857287827929473 -0.422606633426671
1400000000.0 -0.09429682078965589 -0.41014278516235214
1420000000.0 -0.3103733145658832 0.26118869856000826
1440000000.0 0.35673396710648014 0.1394363756721667
1460000000.0 0.18048055584169695 -0.30544972731575937
1480000000.0 -0.282648650201145 0.15390461966552932
1500000000.0 0.2694519065262792 0.08826864610160366
1520000000.0 0.016873411954279292 0.2487972836955258
1540000000.0 0.1617909429111985 0.14952674882860867
1560000000.0 -0.1885414695470418 0.027274958541300433
1580000000.0 0.10066741915738112 -0.1382510329317223
1600000000.0 0.004152660546859222 -0.13932665860477236
1620000000.0 -0.08558897140716853 0.06319016812229013
1640000000.0 -0.06203543457581236 -0.05504436440142993
1660000000.0 0.05085309363130163 -0.04331496655062582
1680000000.0 0.004972883665204412 0.0428720422894309
1700000000.0 0.004521437497108267 -0.019383986707437992
1720000000.0 -3.607162600353735e-05 -0.004425784592479107
1740000000.0 0.002255163168048766 -0.013430793058153942
1760000000.0 -0.013175111162974804 -0.026888813049069208
1780000000.0 0.036132506911166345 0.03987337904728644
1800000000.0 0.025698770386654544 0.09061340850247405
1820000000.0 0.03289018430520969 -0.12005724643793259
1840000000.0 0.006669148904012818 0.16023799295195493
1860000000.0 0.03364797998530494 0.1959437813958057
1880000000.0 0.23135894235871374 0.04681294073153577
1900000000.0 -0.046230325690941515 -0.27394876302464327
1920000000.0 0.25197672479771127 -0.19634850812188215
1940000000.0 -0.3140397310697449 -0.13825407791404587
1960000000.0 -0.332468972787939 0.1614168876589837
1980000000.0 0.3922212383766702 -0.08282551345412928
2000000000.0 -0.1001785933606553 -0.40717005149098245
2020000000.0 -0.31852806032537156 -0.28797202103142383
2040000000.0 -0.0013244397483924738 0.43659148712606216
2060000000.0 0.22080372464849382 0.3788295341978577
2080000000.0 0.36604674346607036 0.23510248708721793
2100000000.0 -0.013365439242692475 -0.42659147058686847
2120000000.0 -0.02489861304224819 -0.41337739786095246
2140000000.0 0.282813711748997 -0.2793987675948182
2160000000.0 0.38515511764318566 0.003715331600525717
2180000000.0 0.37427038827961756 0.025072051411058345
2200000000.0 0.3377718367998897 -0.13458892847586454
2220000000.0 -0.28161265767480836 -0.21160911779833536
2240000000.0 -0.2325531425897191 -0.25502583150055347
2260000000.0 -0.2961351282972972 -0.17348494307252277
2280000000.0 0.06740123840410335 0.33974761728392294
2300000000.0 0.10316238575048613 0.3385095053663903
2320000000.0 0.15011994034208678 0.3455792786639472
2340000000.0 -0.12166267362209364 -0.39163210820588706
2360000000.0 -0.44746816464897216 -0.026285270566685864
2380000000.0 0.21531922577276524 0.44876954796702334
2400000000.0 -0.4269810678207763 0.3588925309802566
2420000000.0 0.4592425352394163 -0.40193302712612317
2440000000.0 -0.4261960624085928 0.5011049282728478
2460000000.0 -0.7006082398689286 -0.04837711678345288
2480000000.0 0.7130822152902264 0.17487568681865906
2500000000.0 -0.4637674010557493 -0.5967890795968692
2520000000.0 0.6954242987089073 -0.327209028336482
2540000000.0 -0.5933246587896556 -0.49411389413210743
2560000000.0 -0.39859381372383196 0.6566033680831225
2580000000.0 -0.0037577745706959226 -0.7539735901134459
2600000000.0 -0.7318986392729034 -0.021923821798793878
2620000000.0 0.0017866321622558162 0.7047930996220643
2640000000.0 0.5030970657934553 -0.4357033494576558
2660000000.0 -0.46373396388990096 -0.41877597861364463
2680000000.0 -0.22262063724927403 0.5339952153330396
2700000000.0 -0.23981734792875048 -0.4689738900020803
2720000000.0 -0.2125162722904678 0.43071482436662584
2740000000.0 0.4316463158464122 0.0017638079150021225
2760000000.0 -0.33186714635618153 0.20467543685134154
2780000000.0 0.35909073086674814 -0.017525068832753645
2800000000.0 -0.3311665751415241 -0.05340597699562593
2820000000.0 -0.09355637067686463 -0.2997196769952503
2840000000.0 0.20006050832600877 0.22980640489672943
2860000000.0 -0.26975000119456427 -0.12202929367819144
2880000000.0 0.10281375355806807 -0.27240725818634803
2900000000.0 -0.2726195882274387 -0.10380375594917007
2920000000.0 -0.25768254905263205 0.15300616573778192
2940000000.0 0.18435607005224378 -0.2520582210606556
2960000000.0 -0.16904964111825124 -0.27099934704101664
2980000000.0 -0.267326131308167 -0.17690197470518143
3000000000.0 -0.3182825187605722 0.007766009922141079
3020000000.0 0.27374392295375555 0.16762865578129926
3040000000.0 0.26162230015658805 0.18481147582118188
3060000000.0 0.05727515619968957 0.308262407859716
3080000000.0 0.301428998642372 -0.03189187565562577
3100000000.0 -0.27098162893817435 0.11154911988974482
3120000000.0 0.04673804736634118 -0.2805388483564743
3140000000.0 -0.25309220839073987 -0.10761239534083072
3160000000.0 0.25257401770757987 -0.07406969214367642
3180000000.0 -0.2502538714925416 0.0007263184181535487
3200000000.0 0.2352121992117031 0.011945048997748389
3220000000.0 0.06011431346080055 -0.19925859561846537
3240000000.0 -0.1358535703997067 -0.1068249781655555
3260000000.0 0.08015214283485182 -0.11562307974624787
3280000000.0 0.035166724488455814 0.0905150996257076
3300000000.0 0.06410843758031542 0.009124531045346568
3320000000.0 -0.03333264446132268 0.020470151286128637
3340000000.0 -0.019904688203906656 -0.008940397262458176
3360000000.0 -0.002260158044629756 -0.008189515228392886
3380000000.0 -0.0019033547981828001 -0.0008210705633010236
3400000000.0 -0.018168837325130693 0.0004496580977709136
3420000000.0 0.034033639448244696 -0.01595338403363446
3440000000.0 0.025380451768696265 0.04592603472644814
3460000000.0 0.049160681169167456 -0.04449553863907278
3480000000.0 0.036392338087839836 0.06927978112892208
3500000000.0 0.08272625710660518 -0.028271006803820296
3520000000.0 0.04427282752943121 0.09036046982804188
3540000000.0 0.039855399108434025 -0.10620295596371622
3560000000.0 -0.10878187320860168 0.050499055432836934
3580000000.0 0.01603101493466949 0.13451515210954845
3600000000.0 -0.11625826655896129 0.10230716866197442
3620000000.0 0.07621525667485947 -0.14684178158149744
3640000000.0 -0.0794608022680271 -0.16358745760493246
3660000000.0 -0.10132161985426709 -0.15950735206267685
3680000000.0 0.16019446138240087 -0.1027674524744818
3700000000.0 0.08363301100685087 -0.17100140203933242
3720000000.0 0.184496695629936 -0.036496507441965094
3740000000.0 -0.04611671966317225 0.1752101695891068
3760000000.0 0.16553863519397183 -0.06614529264750871
3780000000.0 -0.11896303531794278 0.1262805909345304
3800000000.0 0.12140922106953095 -0.11408275527353376
3820000000.0 -0.15409548596981532 0.019118824730355186
3840000000.0 -0.08101004302470392 -0.11894519905357985
3860000000.0 0.10518213965246799 -0.09037254222031171
3880000000.0 -0.034422463405915225 0.1362319513142744
3900000000.0 -0.13362972498884676 -0.06173602543378504
3920000000.0 -0.10267405910678525 0.11434327818182322
3940000000.0 -0.16566196675634173 -0.028165171713615045
3960000000.0 -0.010728089069234602 0.17425091534674003
3980000000.0 0.10760013578717803 0.1323591238998135
4000000000.0 0.12486017137096618 -0.10065650382485346
