!Created with skrf (http://scikit-rf.org).
# Hz S RI R 50.0 
!freq ReS11 ImS11
400000000.0 0.47956584847542033 0.7268844175363232
420000000.0 0.8422660727567329 -0.07206337031622348
440000000.0 0.7656409867714756 -0.22764457982716374
460000000.0 0.7257293189915184 0.16264152098965126
480000000.0 -0.03284702642469309 -0.6848577348448188
500000000.0 0.04114049548877335 0.6007666707257335
520000000.0 0.16114740717779752 0.4852776343641869
540000000.0 -0.38196223885034125 -0.20670236375704984
560000000.0 0.06248945339994009 0.39053978477521617
580000000.0 -0.3126392131724309 -0.17584624612660119
600000000.0 0.3525180963235982 -0.048647980900293576
620000000.0 -0.17112434951654618 -0.3121436084134983
640000000.0 0.4085856662888554 -0.04579109018903022
660000000.0 0.08001922487975928 0.4072802896049943
680000000.0 -0.1862236825276998 -0.4067601510819667
700000000.0 0.10694048278844247 0.44807487588933703
720000000.0 -0.4561033022904095 0.07368006459744716
740000000.0 -0.32366053341658874 0.2758258696209502
760000000.0 -0.28934488530913255 -0.28692734314731955
780000000.0 -0.3549206790235154 0.13591574547058943
800000000.0 -0.18538565047048275 0.280820403649018
820000000.0 0.15917950075549467 0.22603418034899095
840000000.0 -0.14692272436547876 -0.14311455444692114
860000000.0 0.03356520924729629 -0.16674468276595494
880000000.0 0.06217659943209842 -0.13289791188833813
900000000.0 0.043082156507912396 0.09491312524845164
920000000.0 -0.012366840303787473 -0.06067049203568872
940000000.0 -0.03776307852949792 0.007984252248227627
960000000.0 0.039643954442505715 -0.007826665302452112
980000000.0 -0.043982712878251944 -0.04347992331392806
1000000000.0 0.0197704442946089 -0.09750273807784973
1020000000.0 -0.08324573269165801 -0.0916736433418923
1040000000.0 0.12991586027927185 0.03874799508258777
1060000000.0 0.029471077506692107 -0.15591655549161076
1080000000.0 -0.06722327138885044 0.1687117588164086
1100000000.0 0.10628522140767255 -0.17663075392599267
1120000000.0 0.09190683201822954 0.2108299101389502
1140000000.0 -0.24068823013262175 -0.09218430149600376
1160000000.0 -0.2717400601902489 -0.08045390938365332
1180000000.0 -0.13166410496254602 -0.2813619090940564
1200000000.0 0.3142668653159887 0.13829701767180494
1220000000.0 -0.26028246466927574 -0.2660011820894989
1240000000.0 0.37258330090102726 0.12948112656493155
1260000000.0 -0.24782656098288786 -0.3246745819306382
1280000000.0 -0.4248763877992321 -0.00954217143449924
1300000000.0 0.3439139727128689 0.2648345370277425
1320000000.0 0.40940763569504507 -0.1443627228610385
1340000000.0 0.41185835209745325 0.14296403781334552
1360000000.0 0.43377117694603406 -0.07514750656720538
1380000000.0 -0.10017006184697906 -0.4195152665567897
1400000000.0 -0.11298580370580336 -0.4055086299734853
1420000000.0 -0.29380421691303127 0.28002526265374633
1440000000.0 0.361134472517002 0.1285927518577115
1460000000.0 0.1811180321501665 -0.3055652102137475
1480000000.0 -0.2690272059773234 0.17734806617384163
1500000000.0 0.2681584403893431 0.09377144379622171
1520000000.0 0.032440373244456464 0.24707876209603488
1540000000.0 0.15838977744097252 0.1532373455256546
1560000000.0 -0.18941514467502885 0.01952569284684741
1580000000.0 0.09643297657351407 -0.14106754377493785
1600000000.0 0.0302325704969707 -0.136281590005491
1620000000.0 -0.07690392475733235 0.07363759454966956
1640000000.0 -0.06600758719654364 -0.050269699495118086
1660000000.0 0.04404921539854993 -0.050469651840597936
1680000000.0 -0.015122958120334854 0.040068468666337925
1700000000.0 0.0032073868953803562 -0.019462059146415904
1720000000.0 -0.004375553216972092 -0.0007519366353736116
1740000000.0 0.012846973905979603 -0.0037765291504832793
1760000000.0 -0.011920792878546043 -0.027364316498182266
1780000000.0 0.036612533720470686 0.03927228785804509
1800000000.0 0.031977943958286285 0.08864722224676552
1820000000.0 0.03001900237919572 -0.12082696173496318
1840000000.0 0.010857642802133456 0.15997072709814128
1860000000.0 0.024962519287064444 0.1972561715473604
1880000000.0 0.22835278886794275 0.05962083529524066
1900000000.0 -0.041965447667968114 -0.2748758539955333
1920000000.0 0.2557942278436688 -0.19161393491750187
1940000000.0 -0.3114566105659497 -0.14430406058476614
1960000000.0 -0.3355745797439205 0.15473749668506523
1980000000.0 0.39256543122880566 -0.0811987867538803
2000000000.0 -0.09046348468726452 -0.4095299019945044
2020000000.0 -0.311722585109699 -0.2954482120261108
2040000000.0 -0.01153325732080281 0.43650931488939887
2060000000.0 0.22480777051943426 0.3765654600735345
2080000000.0 0.3645054504931958 0.23746511090079556
2100000000.0 -0.008114187877559362 -0.4268016974101213
2120000000.0 -0.005070705020334492 -0.41428145305199665
2140000000.0 0.28141222483933215 -0.2810621169354455
2160000000.0 0.38540578234750383 0.005968808625115761
2180000000.0 0.37440013483025397 0.02524746863421846
2200000000.0 0.34517062089517847 -0.11474726646611859
2220000000.0 -0.24723434902072505 -0.251259469440309
2240000000.0 -0.21683866460890813 -0.2687533520183306
2260000000.0 -0.29139339036746253 -0.18117425918174238
2280000000.0 0.04388669713960405 0.34343234541463447
2300000000.0 0.10027199775938044 0.3395205146130401
2320000000.0 0.13620754458491668 0.3512043125613302
2340000000.0 -0.10505945042099549 -0.39628067371757675
2360000000.0 -0.446242626639533 -0.03801653426045531
2380000000.0 0.19997947632799218 0.4552789204764134
2400000000.0 -0.4385780675499338 0.34406756979844294
2420000000.0 0.4710831341312567 -0.38789484121264084
2440000000.0 -0.4341208613917439 0.49430149582155347
2460000000.0 -0.6989335124118092 -0.07097669185884108
2480000000.0 0.713772377602351 0.1728028898318763
2500000000.0 -0.5181878292839343 -0.5503268356023444
2520000000.0 0.7050398842831813 -0.30681013092296283
2540000000.0 -0.571342285351728 -0.519977281741375
2560000000.0 -0.4038466979976299 0.6539652951332143
2580000000.0 0.058131211562438556 -0.752400692542352
2600000000.0 -0.7291042037512581 -0.07140642028226074
2620000000.0 -0.10271946606119456 0.697835799569586
2640000000.0 0.4925259665803662 -0.44846259298643887
2660000000.0 -0.4367838774097904 -0.44733106255067223
2680000000.0 -0.2802024202049914 0.5059333226803044
2700000000.0 -0.19882927926229002 -0.4876159790723786
2720000000.0 -0.23339009238535402 0.41946047524525
2740000000.0 0.4302150733593478 -0.03202025775107073
2760000000.0 -0.3177457922126883 0.2256468294075385
2780000000.0 0.35758915217537157 -0.03611852391975547
2800000000.0 -0.33435719927295726 -0.025883441732427175
2820000000.0 -0.11592232537808304 -0.29201743802632696
2840000000.0 0.21351824528554278 0.2176691991197401
2860000000.0 -0.2804031888271909 -0.09524267073155511
2880000000.0 0.09066836607726486 -0.27724388351638474
2900000000.0 -0.27203058632735644 -0.10737397674563161
2920000000.0 -0.25595896462059087 0.15674887192426842
2940000000.0 0.19742361196475713 -0.24281146167034345
2960000000.0 -0.1300313764629123 -0.292282415676228
2980000000.0 -0.23638515379681227 -0.21581469964874583
3000000000.0 -0.3183612317080107 -0.006040880754995932
3020000000.0 0.2696037985987567 0.17390596102083516
3040000000.0 0.26969185760818076 0.17249874493904604
3060000000.0 0.09101052944096825 0.30008597536835996
3080000000.0 0.302158638388452 -0.022698775997220574
3100000000.0 -0.27173969220201155 0.10938539824802995
3120000000.0 0.02357388245350873 -0.2834538744453244
3140000000.0 -0.25586688280457215 -0.10062000948049957
3160000000.0 0.2539824741093171 -0.0685809685177312
3180000000.0 -0.2500411596611054 -0.005019483588461781
3200000000.0 0.2356621149246929 0.0017737949773897236
3220000000.0 0.05543568664623815 -0.20042000470542018
3240000000.0 -0.13532019540801 -0.10787351776523363
3260000000.0 0.09344207890375582 -0.10538780141387871
3280000000.0 0.05255211725716086 0.08173111547561682
3300000000.0 0.058922189619406096 0.02694006060642304
3320000000.0 -0.038960011983684505 -0.0033924931250300977
3340000000.0 -0.019858048795686166 -0.008983937733682829
3360000000.0 -0.0007053690720238182 -0.008558545118501362
3380000000.0 0.0016474980982794576 0.0015319497492733965
3400000000.0 -0.015934215839262248 -0.009119132993373932
3420000000.0 0.020296000351843608 -0.032015084540269266
3440000000.0 0.03714517440628277 0.037624410705356326
3460000000.0 0.03213993720777601 -0.058584995509332355
3480000000.0 0.046434762454852264 0.063402214647535
3500000000.0 0.08304811493250067 -0.028525388822262295
3520000000.0 0.027192344274670648 0.09689292733584962
3540000000.0 0.0157312484141493 -0.11342872914870693
3560000000.0 -0.10895193499307809 0.05155235421664683
3580000000.0 0.04889777938244013 0.1271121181285602
3600000000.0 -0.11267040555953059 0.10760182632138997
3620000000.0 0.09239150021383127 -0.13771522255277227
3640000000.0 -0.05928813327897291 -0.17231622285804143
3660000000.0 -0.08007848353488631 -0.17156385973153537
3680000000.0 0.1681720583609664 -0.09040878458158083
3700000000.0 0.10361192141971427 -0.16027762215840088
3720000000.0 0.1881402778806485 0.00023499894758582528
3740000000.0 -0.08361727538338018 0.16064911760882597
3760000000.0 0.17561118947467022 -0.029201768030572405
3780000000.0 -0.13262158933223211 0.11158269611723173
3800000000.0 0.13805632872483534 -0.09278731889647066
3820000000.0 -0.15484579671135001 -0.008522124382371897
3840000000.0 -0.07431757638338816 -0.12290003050145396
3860000000.0 0.11216516444833037 -0.08128770156420706
3880000000.0 -0.034811384070242826 0.13525917983397284
3900000000.0 -0.12711539500635008 -0.073142166698721
3920000000.0 -0.10079394197176644 0.11511933025051355
3940000000.0 -0.1645416222868563 -0.031966440884579526
3960000000.0 0.011650389333901695 0.17295550502962062
3980000000.0 0.13936952241135284 0.09669347255053444
4000000000.0 0.07047983409241661 -0.14317540933131506
