!Created with skrf (http://scikit-rf.org).
# Hz S RI R 50.0 
!freq ReS11 ImS11
400000000.0 0.47978611534925064 0.7245247245269042
420000000.0 0.8414279583827365 -0.0754373463534353
440000000.0 0.7646010679246076 -0.22942089995957618
460000000.0 0.7320317255019158 0.12751647874597308
480000000.0 -0.08053842709136008 -0.6804926686694118
500000000.0 0.06948183996269265 0.5976938384339937
520000000.0 0.17423226639940806 0.48052517654914406
540000000.0 -0.37504263883840233 -0.21925398053090656
560000000.0 0.04214027815543398 0.3935571053920584
580000000.0 -0.3133177052266885 -0.1740195068147308
600000000.0 0.35048889458287774 -0.05712491327145148
620000000.0 -0.14798349067951838 -0.3224479044072842
640000000.0 0.40338687760536623 -0.07421255640034546
660000000.0 0.08685083977981797 0.4056960765916247
680000000.0 -0.22387898109957452 -0.3870792497114784
700000000.0 0.18510075859076114 0.4222432196323209
720000000.0 -0.4520676014269616 0.09516211130674536
740000000.0 -0.277086857033195 0.32243993988995207
760000000.0 -0.2902675946336554 -0.2869231202060344
780000000.0 -0.35787268479110673 0.1315122035206652
800000000.0 -0.19764935453343854 0.2732128038060737
820000000.0 0.13568341526570776 0.2414448460428145
840000000.0 -0.13984570583322772 -0.14978949420010926
860000000.0 0.06489000672976528 -0.15752130524221292
880000000.0 0.08628048787717131 -0.1186616106861111
900000000.0 0.04948595182409691 0.09202196841192321
920000000.0 -0.043012768539146616 -0.044044292420292196
940000000.0 -0.006621925480435401 0.03753296625656254
960000000.0 -0.0010914606060284193 -0.04045118131334172
980000000.0 -0.061969610663221035 -0.00393740086189032
1000000000.0 0.01428565087872511 -0.09878159889470871
1020000000.0 -0.047782841225088815 -0.11419262285266625
1040000000.0 0.08930000469583856 0.10165954471630544
1060000000.0 0.08470339638195365 -0.13356712570559337
1080000000.0 -0.0982160834343994 0.15167732488443844
1100000000.0 0.13914631022413845 -0.15085547301704788
1120000000.0 0.11790807572429524 0.19685931487413064
1140000000.0 -0.2540742100844161 -0.04107209755021465
1160000000.0 -0.2824129434136811 -0.017648791925538785
1180000000.0 -0.19150880491471944 -0.24388471480420923
1200000000.0 0.3313207073209609 0.08775999059403637
1220000000.0 -0.27151400624696653 -0.2539067009758822
1240000000.0 0.38502436588548367 0.08750008200134467
1260000000.0 -0.2936889264049856 -0.2847849026916861
1280000000.0 -0.424525529932588 0.031192365947113655
1300000000.0 0.3490241934738557 0.2591312054292026
1320000000.0 0.41218786994778767 -0.13842398243904058
1340000000.0 0.4088430263435392 0.15338273866931257
1360000000.0 0.43692419914299196 -0.05711765196546823
1380000000.0 -0.06925907799902908 -0.42566578831184143
1400000000.0 -0.07905996443855368 -0.41309229600604586
1420000000.0 -0.33656411623077304 0.2260720126577334
1440000000.0 0.3476982793135558 0.15993401637946675
1460000000.0 0.20637463214200183 -0.28846276126171405
1480000000.0 -0.23206950080364233 0.2218714455096608
1500000000.0 0.2670344605894758 0.09393696284734737
1520000000.0 0.04636738093232473 0.24391818697550888
1540000000.0 0.1770560654518279 0.1293682709958176
1560000000.0 -0.18382108780891254 0.046436109576687284
1580000000.0 0.09246627371891095 -0.14316475346503607
1600000000.0 -0.03498060857044163 -0.13449549380312062
1620000000.0 -0.027927359441014207 0.10272485809952714
1640000000.0 -0.08247897546615979 -0.011438825784360986
1660000000.0 0.02401664257538942 -0.06293795797259424
1680000000.0 0.007553744721987671 0.04309628041902855
1700000000.0 0.016294078906339857 -0.012777902446283476
1720000000.0 -0.00029631956182181457 0.005550374256514264
1740000000.0 0.012882563696414603 0.0017016811570273625
1760000000.0 -0.027080909412282875 0.012092813237535206
1780000000.0 0.0530382968069211 0.01086885039818361
1800000000.0 0.075039353534115 0.05825446252973287
1820000000.0 -0.017223273578020615 -0.12410157996304119
1840000000.0 0.05605618285310927 0.15114348818719447
1860000000.0 0.050777964744007906 0.19280608595862342
1880000000.0 0.22951991904963331 0.057027837733959835
1900000000.0 -0.022489896341093864 -0.2776407273881584
1920000000.0 0.2744327329878606 -0.16455617028583291
1940000000.0 -0.2878829752604352 -0.18728535531266524
1960000000.0 -0.35474178434713505 0.10442223855480803
1980000000.0 0.39854879808989463 -0.0421957934025617
2000000000.0 -0.07292769954236364 -0.41240460166778775
2020000000.0 -0.3030448526652136 -0.3028025723517743
2040000000.0 -0.010539206669140528 0.4349330978748369
2060000000.0 0.2042214394769774 0.3862523818059093
2080000000.0 0.3575386337918502 0.24554713627847155
2100000000.0 -0.030023226469975458 -0.4247993617908874
2120000000.0 -0.08401191631697018 -0.40460972771219705
2140000000.0 0.21023786393116273 -0.33611184378910663
2160000000.0 0.3757700362567285 -0.07998081744666596
2180000000.0 0.36961566062643214 -0.057607033711478614
2200000000.0 0.2903390053672915 -0.21790957633077732
2220000000.0 -0.3198042555702624 -0.14828509707635604
2240000000.0 -0.2647336443030012 -0.22287556653104912
2260000000.0 -0.31805504050836025 -0.1302923704499861
2280000000.0 0.12554925362215105 0.32336662596000243
2300000000.0 0.15042375540530273 0.32145702806342896
2320000000.0 0.16483706361023143 0.33957255992050933
2340000000.0 -0.11799065577556524 -0.39365578092339076
2360000000.0 -0.44666185029825217 -0.04386847893032263
2380000000.0 0.20363276070101127 0.4546733745628475
2400000000.0 -0.47090614681749243 0.2987577492726135
2420000000.0 0.5035004953974074 -0.34422448183685156
2440000000.0 -0.46533374199319594 0.46397668192843433
2460000000.0 -0.6924570594976435 -0.11076002308730146
2480000000.0 0.6900203523635029 0.24780673224434926
2500000000.0 -0.5018038925026209 -0.5630007172692033
2520000000.0 0.6778320957607845 -0.35860192998049506
2540000000.0 -0.6188044150389974 -0.4596053951017648
2560000000.0 -0.3432608601990855 0.6857921418811133
2580000000.0 -0.08211455945543698 -0.7485662091434419
2600000000.0 -0.7312602082917733 0.02287833378348337
2620000000.0 0.03228898211980945 0.7034125384418889
2640000000.0 0.45154311895570526 -0.48905662669796457
2660000000.0 -0.5262494565776482 -0.33806518836751004
2680000000.0 -0.12331998181835849 0.566004520997386
2700000000.0 -0.2913687713349055 -0.44013107747826846
2720000000.0 -0.17447805480355952 0.4487230379329691
2740000000.0 0.4306151239028679 -0.043698477728578565
2760000000.0 -0.3320002257644135 0.20604318940384658
2780000000.0 0.3602795166008215 -0.0005706758880912667
2800000000.0 -0.32503932331438246 -0.08544790103621669
2820000000.0 -0.0558285695310524 -0.30925990436307177
2840000000.0 0.16472585732837997 0.2563459622402076
2860000000.0 -0.2415392003122585 -0.17112918535194077
2880000000.0 0.13651343380665515 -0.25657131607325195
2900000000.0 -0.2585343509461686 -0.13332149291227194
2920000000.0 -0.27454654135304785 0.1177904182756942
2940000000.0 0.21006181448662178 -0.22952897090338545
2960000000.0 -0.15730421468661998 -0.27641272925213356
2980000000.0 -0.27408119594183367 -0.1632855976296059
3000000000.0 -0.3156983439377437 0.028912481253714827
3020000000.0 0.2938148866942881 0.12611481060740978
3040000000.0 0.3017097011994365 0.10501499751626851
3060000000.0 0.17593301260614244 0.2587468150344167
3080000000.0 0.27649228507721973 -0.12247918859097671
3100000000.0 -0.16927743343382737 0.23913814984559073
3120000000.0 -0.06919499621788931 -0.2760370071677986
3140000000.0 -0.27421750338679385 -0.021702631168294347
3160000000.0 0.2186950249709949 -0.14732659838588244
3180000000.0 -0.23569169515170835 0.08772687220623396
3200000000.0 0.22691740022024998 -0.06806357003869364
3220000000.0 0.007062485481705601 -0.20919489068759464
3240000000.0 -0.15129903981307272 -0.08715112705706028
3260000000.0 0.0816873810579627 -0.1164697627391897
3280000000.0 0.03880022857316076 0.09049545012402821
3300000000.0 0.04000847800489888 0.05270476925625841
3320000000.0 -0.013812803371732015 -0.03803184908711862
3340000000.0 -0.0022407268224875635 -0.02326412702076041
3360000000.0 0.009781140780058994 -0.002452140937369556
3380000000.0 -0.001092225289070928 -0.00020472628200220405
3400000000.0 0.013580775605030316 0.010008629957820108
3420000000.0 -0.010216082327822283 -0.03506055458104001
3440000000.0 0.05142357900216731 -0.0042300667361708085
3460000000.0 -0.03998807529339811 -0.05211228922408658
3480000000.0 0.0773320739954362 0.003616013058122878
3500000000.0 0.039184692148027195 -0.07736356547340503
3520000000.0 0.09442276943963397 0.032858968138902364
3540000000.0 -0.08181967998972625 -0.0790238637979759
3560000000.0 -0.044662286732499286 0.11097946844354872
3580000000.0 0.11114348054223815 0.07720271288852096
3600000000.0 -0.03820530369677828 0.15028451314871497
3620000000.0 -0.028775711174716632 -0.16358653659141467
3640000000.0 -0.15087929540572112 -0.10236339766156007
3660000000.0 -0.16746718094484886 -0.08929820562503699
3680000000.0 0.07930736404575772 -0.17445995448281748
3700000000.0 0.0021178938974539467 -0.19173651632536692
3720000000.0 0.16933105921776814 -0.08441261875326596
3740000000.0 -0.0059129985139885835 0.18226712668322187
3760000000.0 0.14758707104812113 -0.10239823094276736
3780000000.0 -0.08397549528500606 0.1535124216895515
3800000000.0 0.09451968740580939 -0.13890743210642192
3820000000.0 -0.14663519072791367 0.05531985520457504
3840000000.0 -0.11293742054637979 -0.09159991169246003
3860000000.0 0.0700868675949746 -0.12165457063466455
3880000000.0 0.001674902348786316 0.14199431321426803
3900000000.0 -0.1435814067798286 -0.037833821170441165
3920000000.0 -0.08640180428634858 0.12900177045518466
3940000000.0 -0.16745275285903022 -0.025051685730458628
3960000000.0 -0.01790735288145572 0.17490996502962916
3980000000.0 0.11418012112262262 0.12834632162332688
4000000000.0 0.1097502560392322 -0.118325704129756
