! Created with skrf (http://scikit-rf.org).
# Hz S RI R 50.0 
!freq ReS11 ImS11
400000000.0 0.14768761221729754 0.8604296323791091
420000000.0 0.625282781507457 0.5911567847300032
440000000.0 0.7919936594493424 -0.23667019031433245
460000000.0 0.14640032370359676 -0.7759848502600635
480000000.0 0.5176558098879839 -0.4828277671999363
500000000.0 0.268411600678767 -0.49386095673721553
520000000.0 0.24137430638508994 -0.42279432157928576
540000000.0 0.4273360260428497 -0.013709991231855392
560000000.0 -0.3130418208069987 -0.1611961238430217
580000000.0 -0.30987842986516523 0.12111526785056455
600000000.0 0.28603899892366697 0.1645937948063626
620000000.0 -0.12327941572186976 -0.32706363787335485
640000000.0 -0.32392278533908764 -0.20159598658733643
660000000.0 -0.3914587274810526 0.07542873719829249
680000000.0 0.08742022668527197 -0.4190079266808936
700000000.0 0.09168421587976153 0.4400964215461736
720000000.0 0.1814369361338034 -0.41525574037026325
740000000.0 0.38341755887371526 -0.22469155845504357
760000000.0 -0.4148410146390394 0.052063351923120456
780000000.0 0.11763199058984174 -0.3637836539773279
800000000.0 0.002708937360688509 0.3483291080369396
820000000.0 0.07099687672482567 0.2822899177098008
840000000.0 0.22942059336239165 -0.041952520417514086
860000000.0 -0.006923722881106879 0.19714927585624922
880000000.0 -0.11531673891902508 -0.0738976897803592
900000000.0 -0.055629294463133375 0.04632201032733685
920000000.0 -0.024146385048252193 0.03313043315106325
940000000.0 0.03379544545742721 0.008815425352094777
960000000.0 -0.04521370747415506 -0.013386185285392746
980000000.0 0.04796121446767488 -0.021759626517232872
1000000000.0 0.030719632443067232 0.050589901876992624
1020000000.0 0.07210722566537905 0.009652899810820553
1040000000.0 -0.027608462654410342 0.07671890687645883
1060000000.0 0.11879168942249262 -0.021305138095222005
1080000000.0 -0.07884633122314488 -0.11365929387730152
1100000000.0 -0.03841837188970084 -0.16025636222266185
1120000000.0 -0.19369211154745705 -0.028163872201866558
1140000000.0 0.21635361027485894 0.1070109926319139
1160000000.0 0.22630355550534442 -0.1755095522814214
1180000000.0 -0.16486744775510126 -0.28706688853118695
1200000000.0 -0.3363485860902074 -0.15055428591915257
1220000000.0 -0.02289082605930848 -0.3972245635063226
1240000000.0 0.4101521944620908 0.08552814606068905
1260000000.0 -0.43946176815796606 0.020467535846813305
1280000000.0 0.4408145458578406 -0.08394350930678338
1300000000.0 -0.41492432339030966 -0.16813523479551595
1320000000.0 -0.1359971642767871 0.4126285307415878
1340000000.0 -0.36681726123730946 0.20295222881030672
1360000000.0 -0.12862303808011105 -0.38698738694872337
1380000000.0 0.2196023247797568 -0.3436742604817423
1400000000.0 0.1604682269161585 -0.36292129269545176
1420000000.0 0.13314210741895297 -0.3633997589036791
1440000000.0 -0.16510956010651595 -0.333832425074441
1460000000.0 -0.3534083667284987 0.014569618800953739
1480000000.0 0.11165766318461713 0.3148577379913195
1500000000.0 -0.11392698297685426 -0.2870936152830404
1520000000.0 -0.1706477217579002 0.22656956317579002
1540000000.0 -0.1743317861070914 0.18438854772085145
1560000000.0 0.0722505907476242 0.2031898673257975
1580000000.0 0.17498257973769799 0.04396687143041847
1600000000.0 -0.12164648439117813 0.08219725727278021
1620000000.0 -0.019837678933388406 -0.1034221910234748
1640000000.0 -0.07178156102452116 0.03053036568985848
1660000000.0 -0.02958363445074305 0.044137773485583696
1680000000.0 -0.023575397699278442 -0.003938603034442682
1700000000.0 -0.005452767349982408 0.012027563278685097
1720000000.0 -0.022772444791889713 -0.021590421928449174
1740000000.0 0.026269404592867814 -0.04658677261264704
1760000000.0 -0.005888989596016164 -0.06866810136670479
1780000000.0 -0.045570866593078026 -0.0752425888828175
1800000000.0 0.11365842497594966 -0.005840586334836077
1820000000.0 0.059506461426304134 -0.11204413581425732
1840000000.0 0.13639181389500254 0.06427628015447552
1860000000.0 -0.04989820951883794 0.16601981666290108
1880000000.0 -0.0965778927802926 -0.1850254179938406
1900000000.0 0.11130820375293288 -0.22477914697719065
1920000000.0 -0.2854573012862499 -0.08112295429656044
1940000000.0 0.02106953871772529 0.3426965939175367
1960000000.0 0.11173034982477606 -0.36730205536050686
1980000000.0 -0.056459014540645565 0.40889665226676386
2000000000.0 0.29804727314840845 -0.3191058899744393
2020000000.0 -0.35465603321983025 0.2805754227623159
2040000000.0 0.4224448228171136 0.16937261721368174
2060000000.0 -0.18042472750088398 -0.4133833242978862
2080000000.0 -0.38792535793129534 0.20136427844780586
2100000000.0 -0.19446077465031847 0.37219115976866696
2120000000.0 -0.286855922356776 0.27860986542149735
2140000000.0 -0.3656777435956127 0.1099268993073607
2160000000.0 0.26986856830893163 -0.2477940517202268
2180000000.0 0.34953834987884813 0.06497058729771563
2200000000.0 0.21505253402620325 0.2749237439898822
2220000000.0 0.3240437804222858 0.13854685998125543
2240000000.0 0.002255240829627412 -0.35297917787970584
2260000000.0 -0.35643327730659546 0.01681131209445114
2280000000.0 0.1569731737088142 0.32367644786718375
2300000000.0 0.26513781563919986 -0.2593347273480847
2320000000.0 -0.3798874329040027 -0.08254830590829729
2340000000.0 -0.1405569697090067 0.39021997639098893
2360000000.0 0.4504385697456589 0.004563293144672224
2380000000.0 -0.3338444042997564 -0.3686216521769661
2400000000.0 0.17286781268584644 0.5208850306754951
2420000000.0 -0.31081983332261887 -0.5165897268708207
2440000000.0 0.594756710870556 0.2740920748069204
2460000000.0 -0.6773883706468014 0.1650711361715139
2480000000.0 0.5011242215556742 -0.5309211071363219
2500000000.0 -0.5294487861941413 0.5349424839903831
2520000000.0 0.5966773501802634 -0.4766788417008915
2540000000.0 -0.7215261444071597 0.256853474508172
2560000000.0 0.7122155325099341 0.26750387004119486
2580000000.0 -0.22067533698950723 -0.713050764434928
2600000000.0 -0.42300895836442415 0.5850276342884084
2620000000.0 0.6915850842091756 0.00023236590429027285
2640000000.0 0.6000329024282663 -0.261154238531861
2660000000.0 -0.5138092784653376 -0.33152851312563764
2680000000.0 0.03675925391496536 0.5666421776323999
2700000000.0 0.21976643313225622 -0.47557743667545194
2720000000.0 -0.2711493054283358 0.39268387419849204
2740000000.0 0.23050099817944858 -0.3664287921498107
2760000000.0 -0.06393147286007395 0.3853753305974681
2780000000.0 -0.2085544377498572 -0.28783808513358755
2800000000.0 0.3141601904164188 0.08059873390511123
2820000000.0 -0.2898018088441565 0.08392616875073904
2840000000.0 0.27533389498632815 -0.08339520167981491
2860000000.0 -0.27263920675991843 0.07871145453237348
2880000000.0 0.27772671350685185 -0.06177851687324198
2900000000.0 -0.2736185444452357 -0.09601045466941731
2920000000.0 0.08827231720734105 0.288830457138096
2940000000.0 0.14566743912325658 -0.27653332997579816
2960000000.0 -0.29751657379397106 -0.11659458760227966
2980000000.0 -0.27696082281001855 0.17161152391304782
3000000000.0 -0.2912256211038922 0.1498794874585837
3020000000.0 -0.32447619592233845 -0.026831342160788054
3040000000.0 0.00011081130737020621 -0.3195780592192138
3060000000.0 0.20585243343377993 0.23587418242925337
3080000000.0 -0.18978071392402424 -0.23641140453747847
3100000000.0 0.10594584961798392 0.2751206180787147
3120000000.0 0.005078994538556578 -0.28480662749522
3140000000.0 -0.17209886989419243 0.21325789184799823
3160000000.0 0.24958742254616467 -0.0821023967813137
3180000000.0 -0.05148953807281279 -0.2443699675237678
3200000000.0 0.21793790171839336 0.08149274839874524
3220000000.0 -0.025464484340453505 0.2079569723041424
3240000000.0 -0.13732293686992594 0.12155200223639716
3260000000.0 -0.15116045016731677 0.008673731636864085
3280000000.0 -0.10517411229583137 0.048564262449698956
3300000000.0 -0.05508896741161452 0.05980096310825154
3320000000.0 0.04633071126472857 0.00705367776401249
3340000000.0 0.006765860200211281 -0.01539678501738003
3360000000.0 0.004135495321111149 0.008571425051982185
3380000000.0 0.009617683798677393 -0.020481742175156793
3400000000.0 -0.018156023907889677 0.025383073176701253
3420000000.0 -0.025394211140426184 -0.024254563771450386
3440000000.0 -0.00921570389071355 0.03610757795146494
3460000000.0 0.023062022721966932 0.0376121670244243
3480000000.0 -0.018484329165100004 0.05780761866013604
3500000000.0 -0.011323450194659952 0.08180626236495345
3520000000.0 -0.04058896446119143 0.09863894811307954
3540000000.0 0.09547899509259015 0.07883010120120629
3560000000.0 0.11796308031336428 0.06500859369123127
3580000000.0 -0.029547300945908624 0.14168125139354493
3600000000.0 -0.12473124822583034 -0.0936132399583673
3620000000.0 0.10177109678951116 -0.12847482327739884
3640000000.0 0.06901793132575068 0.1566491334440125
3660000000.0 -0.16652256430226603 -0.06861973293369834
3680000000.0 0.15285500577093483 -0.10670731075941889
3700000000.0 0.16659405669286959 0.09244613587370361
3720000000.0 0.03555103947804117 0.1917622767983035
3740000000.0 0.07004200087539066 0.18033071348036073
3760000000.0 -0.16644470048140061 0.08885175518678896
3780000000.0 -0.018578280418491574 -0.17725707470835936
3800000000.0 0.05246422927341344 0.1564077053215611
3820000000.0 0.11037835378422084 0.10513990019545273
3840000000.0 -0.10873168777695494 0.08886769577141643
3860000000.0 0.12684224871975167 0.055734060796680765
3880000000.0 -0.14690888263197294 0.005359829834506522
3900000000.0 -0.10068541450241676 0.11971107967854998
3920000000.0 0.15900123772263933 -0.05293475428386152
3940000000.0 0.09543601279404702 0.14946166008240555
3960000000.0 0.1825322213034537 -0.024025299942536705
3980000000.0 -0.18185886559379555 -0.012450707509369363
4000000000.0 -0.05534101070099462 0.1629291244190737
