! Created with skrf (http://scikit-rf.org).
# Hz S RI R 50.0 
!freq ReS11 ImS11
400000000.0 0.19195590555589645 0.8500078229285558
420000000.0 0.6408086389459356 0.5728730216467629
440000000.0 0.772824311340086 -0.28894928229845906
460000000.0 0.01929717612639256 -0.7861305088373568
480000000.0 0.5461651898296409 -0.43125286556311343
500000000.0 0.5070702522197041 0.22926906924765555
520000000.0 0.3381278225376613 0.35640143075416714
540000000.0 -0.3738711384875608 0.23681445070902873
560000000.0 0.2072344565409967 -0.3189524758292564
580000000.0 -0.2239043771582956 0.28495757989010034
600000000.0 0.2510122350560006 -0.25850993195512884
620000000.0 0.07013385568740385 0.36928841293083253
640000000.0 0.18146706216254255 -0.3544149392662225
660000000.0 -0.2478611149750985 -0.3169623006695318
680000000.0 0.41113660166640786 -0.011810920676726847
700000000.0 0.26023707723909884 -0.332213588414001
720000000.0 0.07385717693332544 -0.4170825195750521
740000000.0 0.16761476062557373 0.38920011728217474
760000000.0 0.1125955370766822 -0.3940921881021409
780000000.0 0.34183346738010334 0.1619927648932192
800000000.0 -0.3277223341184104 -0.10904917277100058
820000000.0 -0.19683906151434477 -0.21304481875937306
840000000.0 -0.22089198307557914 0.08465884576179199
860000000.0 0.15908177563827458 -0.12145555161121278
880000000.0 -0.12837257787554762 -0.056674760365071554
900000000.0 0.07964812163405685 0.016450970025584842
920000000.0 -0.056398903020862846 -0.014904786004597787
940000000.0 0.02006826291851353 -0.03170686343950247
960000000.0 -0.041410601472815445 0.007578144311330928
980000000.0 0.014436891497832744 0.061679175956125376
1000000000.0 0.06169752226416536 0.05782500697524846
1020000000.0 -0.10460905019865567 -0.03915670738190489
1040000000.0 -0.10842814399717358 0.06751035823680618
1060000000.0 0.10186098799765857 0.12368969000529861
1080000000.0 0.14608096346493976 0.08677675228779363
1100000000.0 -0.018447384351952867 -0.18349002664102876
1120000000.0 -0.04547232204224469 -0.1921809615814481
1140000000.0 0.09081153567381597 -0.20789233646250618
1160000000.0 0.14974723204996274 0.2155030625751633
1180000000.0 -0.2179741850881675 0.21508420368035838
1200000000.0 -0.34281244383349746 -0.0122168551501958
1220000000.0 0.2563184713595833 -0.27332333362385963
1240000000.0 -0.04841592639763923 0.3985243752559685
1260000000.0 0.16207560429077003 -0.39440143838422387
1280000000.0 -0.2889441395010645 0.33225393154495364
1300000000.0 0.44447662304897745 0.060431139880187654
1320000000.0 -0.030017551485926205 -0.4435122972304878
1340000000.0 0.0020820910402363333 -0.4386869241081695
1360000000.0 0.14239468276066405 -0.40793929334330725
1380000000.0 -0.1068674944623925 -0.41867620126258925
1400000000.0 -0.41624657007171517 0.035261060834440784
1420000000.0 0.0338879234462635 0.39792207584501194
1440000000.0 0.3511359753619176 0.12757771263587112
1460000000.0 0.1605215871789702 -0.3055744317874559
1480000000.0 -0.23991821640888622 -0.20379352028357572
1500000000.0 -0.27248257361877803 0.08108478090300643
1520000000.0 -0.19082415204816724 0.1707771225666663
1540000000.0 0.048245067250789725 -0.2229410736717407
1560000000.0 0.17944313086273198 0.07707939176511071
1580000000.0 -0.07010071852011382 0.15392926424819375
1600000000.0 0.09617877592704949 0.10239645245630792
1620000000.0 0.0359528598034881 0.10519356904013166
1640000000.0 -0.08195907577561434 0.034243596334442995
1660000000.0 -0.06404987319970201 0.016825831837855226
1680000000.0 0.010361230736658742 -0.04444104404902706
1700000000.0 0.016343655902936932 -0.024616201380608427
1720000000.0 0.006734744077746229 -0.007385600966393292
1740000000.0 -0.005734235475289275 0.013119600405576404
1760000000.0 0.03498925270790938 0.012674470113850426
1780000000.0 0.04071019763383416 -0.06014597897108935
1800000000.0 0.038794253788425465 0.10383021270428795
1820000000.0 0.09098112583726559 0.1137697697275675
1840000000.0 -0.05326737214962381 0.1734925258760769
1860000000.0 -0.19411109470082422 -0.08404811575869317
1880000000.0 0.10357367473416632 0.21703438777008704
1900000000.0 0.24710933198494087 -0.11606849099005981
1920000000.0 -0.1220642475924241 -0.27792854103168746
1940000000.0 -0.3204462549765833 -0.10118481471273731
1960000000.0 -0.13262523685579505 0.34258866768817325
1980000000.0 0.3839049973812258 0.08380612386159325
2000000000.0 0.20668299062040493 -0.3617310810857373
2020000000.0 -0.43014122982666625 -0.04779163247578504
2040000000.0 -0.06864671816999737 0.4349907620542288
2060000000.0 0.43914036837079845 -0.04019213758572221
2080000000.0 0.08909030538104576 -0.4248619626948996
2100000000.0 -0.16432193847658821 -0.3915482368368102
2120000000.0 -0.3291564940141931 -0.2498344373634454
2140000000.0 -0.39862983547384845 -0.03175588558105459
2160000000.0 -0.05343711553446335 -0.38095549792034455
2180000000.0 -0.13863219313279665 -0.3408649892334614
2200000000.0 -0.2103177171118754 -0.2876453680453322
2220000000.0 -0.2881818150534515 -0.19499566958564152
2240000000.0 -0.32202615783646377 0.12698225283770656
2260000000.0 -0.0850062161745339 0.33653810035869564
2280000000.0 0.17865474866465375 0.3026992982399696
2300000000.0 0.26581391090236317 -0.24920400216157929
2320000000.0 -0.31435476342556723 -0.22307161463123398
2340000000.0 -0.22895135963510538 0.34458244361765594
2360000000.0 0.4369023654422741 0.11897196156936726
2380000000.0 -0.32773202262844936 -0.37822582510847264
2400000000.0 0.26604194631622086 0.48596214280873695
2420000000.0 -0.5007450739213353 -0.3458557803752844
2440000000.0 0.6523025229082756 -0.09162101706563802
2460000000.0 -0.40590278056628115 0.5697091266043237
2480000000.0 0.0917865865575635 -0.7249596893509048
2500000000.0 -0.11588849913532587 0.7423699299862067
2520000000.0 0.222005358701855 -0.728849659674851
2540000000.0 -0.5346585408818066 0.5455538646430593
2560000000.0 0.7569748754647161 -0.041281361076839954
2580000000.0 -0.4683482719836343 -0.5771134979775197
2600000000.0 -0.11918837793676415 0.7093416496895693
2620000000.0 0.602012980157163 -0.33517374518640186
2640000000.0 0.36553544455868814 -0.5391477647496732
2660000000.0 -0.5967709004262366 0.10332787392876111
2680000000.0 0.44142521820493275 0.3412041683341228
2700000000.0 -0.07586423232669033 -0.5044731841250556
2720000000.0 -0.2524749854093874 0.38705204616446054
2740000000.0 0.399688546211338 -0.12667095808332324
2760000000.0 -0.3810641362854128 -0.008587456886483255
2780000000.0 0.33159688730394854 -0.11728903148776187
2800000000.0 -0.20076171090718925 0.2584448482317609
2820000000.0 -0.13556029887637186 -0.27845671710086123
2840000000.0 0.2967086804767689 -0.029326240296547988
2860000000.0 -0.14915235548421327 0.2536495915480392
2880000000.0 -0.08974531293207828 -0.27975310141109083
2900000000.0 0.14966101577301677 0.2545308420961259
2920000000.0 0.13024039502979576 -0.2698563982080669
2940000000.0 -0.3025212394593312 -0.04781696816814276
2960000000.0 -0.22451238378276406 0.21357935349233786
2980000000.0 -0.2287313311690949 0.21598056146914735
3000000000.0 -0.31526446302361044 0.00039761916185093087
3020000000.0 -0.08680654184291625 -0.30345835596180726
3040000000.0 0.3127872461677155 -0.012345689722565367
3060000000.0 -0.28624932783441476 0.120274408797975
3080000000.0 0.25788905378689453 -0.1645286186291366
3100000000.0 -0.22568790708123435 0.19788049396269564
3120000000.0 0.19523452286005577 -0.217316562135807
3140000000.0 -0.040311850165354386 0.27957191076798305
3160000000.0 -0.12410760560610783 -0.2375764590977646
3180000000.0 -0.10326153965840937 0.22983676479476545
3200000000.0 -0.18906111330744108 -0.1303292480774548
3220000000.0 0.08113602358377806 -0.18624325920752835
3240000000.0 0.13815056413274543 0.10294758854377109
3260000000.0 -0.1322714958147886 -0.04145102879325693
3280000000.0 0.09958621714433444 -0.03500501194921015
3300000000.0 -0.05207961316348335 -0.054932205391848926
3320000000.0 -0.03622025716606571 -0.02990019264294908
3340000000.0 0.009176896996038842 -0.020638510903937705
3360000000.0 -0.0047485489924619624 0.0009822272955646932
3380000000.0 -0.010365479160956993 -0.0019214163015705019
3400000000.0 0.005647673403580421 -0.021624885672909728
3420000000.0 -0.031440107693405266 0.014386935944918538
3440000000.0 0.0026953247281258806 -0.04638662923389082
3460000000.0 0.05565400222442327 0.002436045723990089
3480000000.0 0.01001609550569111 0.06739638506268364
3500000000.0 0.07954987423475826 -0.026355023728063923
3520000000.0 -0.09777393072411425 0.018740244277496553
3540000000.0 -0.024921467400116533 -0.11167231851071174
3560000000.0 0.11135985494509297 0.05962836535460222
3580000000.0 -0.09249770027370102 -0.10171259757259693
3600000000.0 0.1460496635846121 0.049327723059394965
3620000000.0 -0.010205768994911026 0.1657553491723665
3640000000.0 -0.17414944281982986 -0.03577769953287683
3660000000.0 -0.10651999438378573 -0.15516928786956904
3680000000.0 -0.014277665279813832 -0.1940505863444518
3700000000.0 0.02411608298284104 -0.19432766836628454
3720000000.0 0.15781452678074953 -0.11494632001765588
3740000000.0 0.165968714825659 -0.0948999490611655
3760000000.0 -0.09516463642398557 0.15606685056844613
3780000000.0 0.045683769490421695 -0.16442289241891156
3800000000.0 -0.13475545059074456 -0.08560022308808378
3820000000.0 -0.13221156388973254 -0.07291212224534932
3840000000.0 0.11060699906602406 -0.09425693523085413
3860000000.0 -0.02066789742974373 0.14613285330473558
3880000000.0 0.05608241350487978 0.14515997431571231
3900000000.0 0.1137755632800453 -0.11175940265642936
3920000000.0 -0.15886267087261519 0.0425516705903577
3940000000.0 0.07574820503970038 -0.15035058544876945
3960000000.0 0.1712470348072541 -0.012088806323837412
3980000000.0 0.07409910147181747 -0.15556881807820688
4000000000.0 0.031342674704244886 -0.16243481660197254
