! Created with skrf (http://scikit-rf.org).
# Hz S RI R 50.0 
!freq ReS11 ImS11
400000000.0 0.17536715154618526 0.8555743454100373
420000000.0 0.6053890802657056 0.6111249229502863
440000000.0 0.7855552939113437 -0.26127247975945267
460000000.0 0.15431672615740802 -0.7733949986131015
480000000.0 0.5011416156677191 -0.5018823205212374
500000000.0 0.1791619399229587 -0.5341780467402575
520000000.0 -0.02763299241130922 -0.4867215790131676
540000000.0 0.41705121918440674 -0.07140257252959752
560000000.0 -0.2996417818258065 -0.18250006052195833
580000000.0 -0.27179380408728315 0.18954494676571176
600000000.0 0.28027639783334307 0.16410580303694103
620000000.0 0.07938234584016143 -0.3375129849444988
640000000.0 -0.20541965804200385 -0.32144763562328393
660000000.0 -0.3969512967831294 0.05503813490096606
680000000.0 1.058628683570464e-06 -0.4309124109792836
700000000.0 0.32680689710280714 0.30910963822451126
720000000.0 0.008714712683273692 -0.44920668479291626
740000000.0 0.41112743804502677 -0.15498576344789397
760000000.0 -0.3764382256270141 -0.17459831223137467
780000000.0 0.3251923105892482 -0.20112847579766172
800000000.0 -0.22525862507131958 0.26650919992713723
820000000.0 -0.16967532772592595 0.2374399374152308
840000000.0 0.04997818909124551 0.2319370001611757
860000000.0 -0.13772254266302447 0.1515857227471828
880000000.0 -0.1444288833638445 0.010780356876187988
900000000.0 0.06092674214621229 -0.05108445166280143
920000000.0 0.03582832153702856 -0.03181244084103473
940000000.0 0.004332874588543436 -0.041696382281519
960000000.0 -0.041419639602366366 0.03567246520385342
980000000.0 0.058514152455084845 -0.02281959379179931
1000000000.0 -0.04672175519507826 -0.050423871527136156
1020000000.0 0.057098413135525015 0.05396220823829236
1040000000.0 -0.05829266798906119 0.05581747356684557
1060000000.0 -0.11433694476510751 0.022944476981973414
1080000000.0 -0.0761875633062256 0.10838828028117992
1100000000.0 -0.12312427766935786 -0.09956041310796315
1120000000.0 -0.14393024044283287 -0.12326998684821969
1140000000.0 0.10013461197936956 0.21575689575433138
1160000000.0 0.2830741208918906 -0.030141565308607756
1180000000.0 -0.049471500101109865 -0.32678009799712804
1200000000.0 -0.2672982532830319 -0.25054301364555875
1220000000.0 0.1762059466694817 -0.3558990007538481
1240000000.0 0.3243130057762091 0.2653255622535006
1260000000.0 -0.4184195322855745 -0.13790180343449865
1280000000.0 0.44102036887898777 0.09651598769937003
1300000000.0 -0.376711183478496 -0.249647793942491
1320000000.0 -0.119069749644943 0.42314685623446807
1340000000.0 -0.24476189297155393 0.34478042812283577
1360000000.0 -0.30390736898372206 -0.2761546319564088
1380000000.0 -0.07949332352076224 -0.40031699331103593
1400000000.0 -0.09215811085982115 -0.3841298631945597
1420000000.0 -0.07797537889235853 -0.3746616970427477
1440000000.0 -0.2289992905553552 -0.28751247488286713
1460000000.0 -0.3418587188133422 -0.06192625331499414
1480000000.0 -0.14300416570839963 0.29645257406988057
1500000000.0 0.21918995330253982 -0.215186193477227
1520000000.0 -0.23998930208182154 -0.14917181432527238
1540000000.0 -0.15963707855059928 -0.2004164372275107
1560000000.0 -0.21794040873083723 0.029511606056864162
1580000000.0 0.030902339350263864 0.1851168991723223
1600000000.0 -0.15367390630186234 -0.010781654063608407
1620000000.0 -0.11186395413826854 -0.008649719985901963
1640000000.0 0.07663535672037794 -0.033337302593834904
1660000000.0 0.03452851230561087 -0.04711942708209673
1680000000.0 -0.029730363558646646 -0.004698823800203448
1700000000.0 0.019068439723308565 -0.004393439241489105
1720000000.0 -0.0013734695716934053 0.03409407953885788
1740000000.0 0.04926664690949423 -0.024999652271492295
1760000000.0 -0.07136144246010938 0.014105844784934074
1780000000.0 0.07851866597909128 -0.0485794115573571
1800000000.0 0.09105437333431127 0.07611286906191582
1820000000.0 0.022595152124991923 -0.13019018768584154
1840000000.0 0.128406092512945 -0.0882601616758051
1860000000.0 0.17617661074658536 -0.017188283280760167
1880000000.0 -0.1505639280508062 0.1433644506910518
1900000000.0 -0.21869709112604027 -0.11374485533235858
1920000000.0 -0.2640014441816548 0.12158884135441829
1940000000.0 0.019709442471094348 0.3357093673783321
1960000000.0 0.2594830702647259 -0.2738087093697635
1980000000.0 -0.2963233161201175 0.28143823904357185
2000000000.0 0.43492195772877534 -0.0013707307247967716
2020000000.0 -0.4412661677835053 -0.10326900706503958
2040000000.0 0.24351361069154345 0.38849071355483156
2060000000.0 0.027187762149101936 -0.4559051150103795
2080000000.0 -0.4223342666578984 0.13519212492465396
2100000000.0 -0.14189606377331615 0.4019504591453805
2120000000.0 0.002666799942311781 0.4039810900351764
2140000000.0 -0.2760197148365231 -0.2659983313158002
2160000000.0 -0.01419924757823776 -0.36485923378465485
2180000000.0 0.3448336105823108 -0.07493000360848089
2200000000.0 0.2781197171107335 0.20451399218316665
2220000000.0 0.23665422935395994 0.25597566095339547
2240000000.0 0.23262521167113467 -0.2623273636498561
2260000000.0 -0.22541406316135562 -0.27492870216502263
2280000000.0 -0.19794544601400751 0.3031664126660302
2300000000.0 0.3703261058335912 0.04841632219937898
2320000000.0 -0.25086045175309724 -0.30245519763014234
2340000000.0 -0.2710851303834241 0.3184739515723788
2360000000.0 0.43898704327780014 0.1128759330485863
2380000000.0 -0.29210073050238683 -0.40407115956691686
2400000000.0 0.1300278199688053 0.5337501600568489
2420000000.0 -0.21489397461785167 -0.5627416749987133
2440000000.0 0.4996796614933519 0.4218264614821744
2460000000.0 -0.6967368140336397 0.009905011615030086
2480000000.0 0.6444704267405585 -0.3430839920144757
2500000000.0 -0.5812525607196887 0.47738772419363834
2520000000.0 0.6177228920011802 -0.4498870167121915
2540000000.0 -0.740680546818499 0.2007893073624964
2560000000.0 0.6669462472974383 0.3705937397835831
2580000000.0 -0.13334577646025061 -0.7366359184509855
2600000000.0 -0.5098640773437241 0.5153133778750377
2620000000.0 0.6938431279056211 0.029028424221645508
2640000000.0 0.623153199384245 -0.20952205581110628
2660000000.0 -0.47208849835246747 -0.3942431507546548
2680000000.0 -0.052805158303298454 0.5685022237396541
2700000000.0 0.3497958017240371 -0.39609055685232414
2720000000.0 -0.38143890554970117 0.29690898958756345
2740000000.0 0.31779467888784296 -0.3043211959928636
2760000000.0 -0.11655470733254951 0.3807305825020576
2780000000.0 -0.22538263202363293 -0.2845093765278545
2800000000.0 0.3303663001865384 -0.00375249810561754
2820000000.0 -0.22079687943762805 0.21126852352517517
2840000000.0 0.19860099900075787 -0.2098887384722268
2860000000.0 -0.2302802960109842 0.16476541592450805
2880000000.0 0.2709037440322169 -0.07956775211421102
2900000000.0 -0.24753666737077554 -0.1464184135838844
2920000000.0 -0.06833413703685813 0.2911768467613579
2940000000.0 0.2797244472012528 -0.13358699263657237
2960000000.0 -0.16421631214346472 -0.27219856278911947
2980000000.0 -0.324261133497319 -0.03667605842536793
3000000000.0 -0.32943164207386516 0.00436615434165297
3020000000.0 -0.32688037043433327 -0.028007508745667303
3040000000.0 -0.021693956757427052 -0.321261898181851
3060000000.0 0.28846032702654467 0.1259925400101754
3080000000.0 -0.29894913177915133 -0.058507842554345435
3100000000.0 0.29415450013924827 0.013813618208964732
3120000000.0 -0.20242145756776908 -0.19616778686101596
3140000000.0 0.0827167209611288 0.2583976598422285
3160000000.0 0.15870311768523515 -0.20293797747322495
3180000000.0 -0.12761708427546506 -0.209170253448625
3200000000.0 0.202000938208035 0.10780972716155776
3220000000.0 -0.12280957626249236 0.16811448687325073
3240000000.0 -0.1849148852779094 -0.005866179834975418
3260000000.0 -0.13190004217726728 -0.08326304479900952
3280000000.0 -0.0946455619437673 0.07820619741443849
3300000000.0 0.08708591212217745 0.0151094957085274
3320000000.0 0.04924450595438035 0.020849324023879925
3340000000.0 0.022566195393602582 -0.007556026504701739
3360000000.0 0.013920182609156036 -0.0011928309749570406
3380000000.0 -0.02321797788194473 0.011699571216564926
3400000000.0 0.013198171200982182 -0.03233715993260036
3420000000.0 0.027420166952971857 -0.02798226431702552
3440000000.0 -0.004515404918586153 -0.03635326930402928
3460000000.0 0.021559419775691396 -0.03204707189521017
3480000000.0 0.03070088557660826 -0.045776769577507204
3500000000.0 0.06996536266596454 -0.03794372220541705
3520000000.0 0.06350033276342572 -0.0859830009131482
3540000000.0 -0.12505021137634295 -0.016410367981369477
3560000000.0 -0.0065222770280424286 0.13906941170987408
3580000000.0 -0.08603989138293164 0.12278349551476658
3600000000.0 -0.11552575063876594 0.1105759558382784
3620000000.0 -0.14817077884167537 -0.07319113236540704
3640000000.0 0.1656611778473509 -0.03551415840595531
3660000000.0 -0.1524483564143603 0.09049210735467404
3680000000.0 0.13696544752854237 -0.12089929761723886
3700000000.0 0.1020420476187187 0.15721179515678876
3720000000.0 -0.16817494932968485 0.09617826427683744
3740000000.0 -0.14333476395771716 0.13218102395158535
3760000000.0 -0.1661477722402301 -0.09599241393009379
3780000000.0 0.0336873987815211 -0.17955714132015604
3800000000.0 0.09761195175483978 0.13817993083066363
3820000000.0 0.14661055562839256 -0.04449721771855645
3840000000.0 0.01712298696923213 0.13878988540133835
3860000000.0 0.12904942911718364 0.04327399549650043
3880000000.0 -0.12530647608999543 -0.07036962376888031
3900000000.0 -0.11286350999404171 -0.10617901976657129
3920000000.0 0.04435290065841859 0.16236722273031665
3940000000.0 -0.09912428376450552 0.14880515391166615
3960000000.0 0.07899728794538569 0.16995373488983775
3980000000.0 -0.10289402092397722 -0.15410411811084943
4000000000.0 -0.14055307753328036 0.1022850773039536
