! Created with skrf (http://scikit-rf.org).
# Hz S RI R 50.0 
!freq ReS11 ImS11
400000000.0 0.2174430230924 0.8446672000778999
420000000.0 0.6540393509552558 0.5573236533521867
440000000.0 0.7546026293794588 -0.331879696201428
460000000.0 0.010588254790896635 -0.7861153325121821
480000000.0 0.5340897672527051 -0.445839762240262
500000000.0 0.49074813216121066 0.26099040726146233
520000000.0 0.33310766898228866 0.36297484321775025
540000000.0 -0.3453690069081159 0.2765261885344257
560000000.0 0.2335396717894048 -0.29990794484499694
580000000.0 -0.26296146846814683 0.24933829535346202
600000000.0 0.258359969856919 -0.25218492015739224
620000000.0 0.10105781401706665 0.36142644906512217
640000000.0 0.18632421945818134 -0.3516374067939849
660000000.0 -0.25540611473875835 -0.3105332560499757
680000000.0 0.41047147391072725 -0.02505363798458356
700000000.0 0.2559582683772382 -0.33565851579024597
720000000.0 0.07075270647741558 -0.4171816745680086
740000000.0 0.17773499464352546 0.38484642712547673
760000000.0 0.09330954314328234 -0.3996725544128348
780000000.0 0.341602355696566 0.16243469050910186
800000000.0 -0.3202706438533092 -0.1298376506812261
820000000.0 -0.186073073453549 -0.2226016909743851
840000000.0 -0.22851660215728528 0.05959177868302335
860000000.0 0.17063139693358356 -0.10547053478267127
880000000.0 -0.1323396471262331 -0.04807313617682153
900000000.0 0.08110684374544412 -0.006843775172978951
920000000.0 -0.05048324468242998 -0.02893840153097151
940000000.0 0.030184469726083688 -0.022400910408910506
960000000.0 -0.03778001350690687 0.020099253137645167
980000000.0 0.030486747968392496 0.05567100445288667
1000000000.0 0.059148883375909615 0.06080078634943603
1020000000.0 -0.10238792348883828 -0.04529470418483614
1040000000.0 -0.11524111684766579 0.05539506128438186
1060000000.0 0.0979669263032415 0.126747177854147
1080000000.0 0.14687380983056303 0.08473762989019595
1100000000.0 -0.014844356860670722 -0.18334282724426285
1120000000.0 -0.02784317671920397 -0.19534881862692874
1140000000.0 0.05610620374867132 -0.21984331345060892
1160000000.0 0.1508865797659278 0.2145459469993497
1180000000.0 -0.202790197745229 0.22926219148238225
1200000000.0 -0.3430578389005749 0.00040996402952781684
1220000000.0 0.2441056360425435 -0.284553482736198
1240000000.0 -0.01945976335548114 0.40102184350953674
1260000000.0 0.16330658987279573 -0.393827923422826
1280000000.0 -0.2863115480079646 0.33443673388624384
1300000000.0 0.44478604756787304 0.05901644799960216
1320000000.0 -0.015872016915864366 -0.44423469909083935
1340000000.0 0.009916209792903799 -0.43850296376090936
1360000000.0 0.14266312717812388 -0.40781067635074797
1380000000.0 -0.09077479547295751 -0.4224802970910844
1400000000.0 -0.41699873078220834 0.02117713429492275
1420000000.0 0.040061484212698444 0.3966834761000181
1440000000.0 0.34588063005767206 0.1408614680087284
1460000000.0 0.1577415841235765 -0.3066635308642563
1480000000.0 -0.22401563958416498 -0.22065708025388564
1500000000.0 -0.2726796652759163 0.07900394858645401
1520000000.0 -0.18408359793363754 0.17810498029482635
1540000000.0 0.041012813562753825 -0.22436838158894865
1560000000.0 0.17993893537006644 0.07484077103461462
1580000000.0 -0.07981019729279074 0.1488827447742946
1600000000.0 0.07999132328805053 0.11546707631742735
1620000000.0 0.028750585129742132 0.10715162304972271
1640000000.0 -0.08382798195484943 0.02827842812049536
1660000000.0 -0.06424947652681084 0.016363738491974606
1680000000.0 0.005405373834267054 -0.045493023058604136
1700000000.0 0.0019546909242685187 -0.02972429479558147
1720000000.0 0.00818914213759087 -0.00570437511501598
1740000000.0 -0.0007091319442183858 -0.014231149096730065
1760000000.0 0.03499147755507096 0.012134609140480078
1780000000.0 0.035678387080944465 -0.06326557917552716
1800000000.0 0.0507110865586617 0.0987412113633736
1820000000.0 0.10142357065864223 0.10465271655758665
1840000000.0 -0.03800598517521947 0.177464521049205
1860000000.0 -0.19795172290976526 -0.07464960296515605
1880000000.0 0.10328233880360563 0.2172904267518265
1900000000.0 0.2432718028884694 -0.12410905680978095
1920000000.0 -0.11782796851165105 -0.27975389072214407
1940000000.0 -0.3168136656101179 -0.11269758532662505
1960000000.0 -0.1359982748174907 0.34152856269566023
1980000000.0 0.3837031598179659 0.0849946480193948
2000000000.0 0.21260813046740523 -0.3582175281762869
2020000000.0 -0.4318585495705882 -0.024337708487219795
2040000000.0 -0.08218457897887954 0.43256051528964706
2060000000.0 0.4400231094812643 -0.02880849444494325
2080000000.0 0.0962292410170643 -0.4230965199037245
2100000000.0 -0.1702256356305335 -0.3888555836345946
2120000000.0 -0.3289835629273792 -0.24921598403922263
2140000000.0 -0.39846933333101153 -0.03173468227113486
2160000000.0 -0.0678722609074481 -0.3783305802831314
2180000000.0 -0.15781230553359604 -0.33220824739765115
2200000000.0 -0.2336118867003352 -0.26881970964046503
2220000000.0 -0.2924237642236484 -0.18841385771960287
2240000000.0 -0.3149916705300821 0.1434471262612761
2260000000.0 -0.07374489738102104 0.339368161545384
2280000000.0 0.21163376669729844 0.2815905127057144
2300000000.0 0.23248732594442115 -0.28150036212480284
2320000000.0 -0.3260430171278357 -0.20636192391760708
2340000000.0 -0.23049774066509163 0.3438150953274003
2360000000.0 0.4415787126611791 0.10168578094542405
2380000000.0 -0.34692703661906044 -0.36140087098950957
2400000000.0 0.2811524742080407 0.47767522748486185
2420000000.0 -0.5046933675254957 -0.3402114818389254
2440000000.0 0.6474050011115701 -0.12103012865833132
2460000000.0 -0.39372628775202306 0.5781092332776392
2480000000.0 0.06131098951023328 -0.7278431308436926
2500000000.0 -0.1067603207299412 0.7433999426975295
2520000000.0 0.21594042318069334 -0.7302004224868949
2540000000.0 -0.5144764794335273 0.5637926241502239
2560000000.0 0.7555712834434954 -0.05614440359769385
2580000000.0 -0.528443236298885 -0.5217867514384272
2600000000.0 -0.14203622968393786 0.7046397976361346
2620000000.0 0.5738831623396464 -0.38027562392530295
2640000000.0 0.31353979328824244 -0.5703932859567794
2660000000.0 -0.5951041155668633 0.11088677890054349
2680000000.0 0.46055660468499826 0.3142856470336021
2700000000.0 -0.0966802759095156 -0.5005217698415022
2720000000.0 -0.24875825377526323 0.3890899281237962
2740000000.0 0.39613571076332926 -0.13669860761756794
2760000000.0 -0.38044020029439574 -0.018942954999604588
2780000000.0 0.3348230907581014 -0.10723520495474408
2800000000.0 -0.20749388264656288 0.2526580940785535
2820000000.0 -0.12759333161809733 -0.2816943395899251
2840000000.0 0.2970078729925739 -0.022850225979521178
2860000000.0 -0.17093533134604258 0.23937691574463155
2880000000.0 -0.0976132431244291 -0.27680084046709125
2900000000.0 0.12398955034834677 0.268064792640187
2920000000.0 0.13037799927625932 -0.26957897523212704
2940000000.0 -0.30102129258983307 -0.05529054851982793
2960000000.0 -0.22298263994764322 0.21458496239064098
2980000000.0 -0.2255667593950765 0.21813329435143838
3000000000.0 -0.3147842710484959 0.010645052159231188
3020000000.0 -0.11213768059227244 -0.29476875136401004
3040000000.0 0.3116955177966082 -0.02801813942844696
3060000000.0 -0.2837213310338856 0.12581572220987858
3080000000.0 0.24912561576362469 -0.17689948487296456
3100000000.0 -0.24816146625193808 0.16800590924115974
3120000000.0 0.13849401829619648 -0.2575655554553352
3140000000.0 0.008672218027269803 0.28245390438903517
3160000000.0 -0.14228427252950784 -0.2272667959041773
3180000000.0 -0.078540393978333 0.23913125876364347
3200000000.0 -0.19907012374838676 -0.11481753697681837
3220000000.0 0.08016593912392773 -0.1862528502530248
3240000000.0 0.13752881727200747 0.10457043654702991
3260000000.0 -0.13561969377262534 -0.02963032316522907
3280000000.0 0.1041798922360958 -0.018552390554234802
3300000000.0 -0.0671500375409228 -0.035336163371038606
3320000000.0 -0.047275261029205914 0.0006709713426146752
3340000000.0 0.018917073157544536 -0.0127723569638677
3360000000.0 0.004225577150795262 -0.002950964738004779
3380000000.0 -0.007891826926349996 -0.006371651359833882
3400000000.0 -0.022044880284496856 0.0023782503825517964
3420000000.0 -0.014385289430219142 0.03131350863080239
3440000000.0 -0.01569725242572858 -0.043571253651277404
3460000000.0 0.02717846278780146 -0.048710461706123254
3480000000.0 0.04947879764426288 0.04696167058470793
3500000000.0 0.07481718239976132 -0.03687369030954352
3520000000.0 -0.08603650036614072 0.0496496748469874
3540000000.0 -0.03740999970424288 -0.10765651081556918
3560000000.0 0.11722591325425837 0.04551769907497485
3580000000.0 -0.10981351577047554 -0.08280545700966793
3600000000.0 0.15442326286899216 0.006958357620665563
3620000000.0 0.024066887999027453 0.16495086553054317
3640000000.0 -0.1756125939284768 -0.02538739166984463
3660000000.0 -0.12016819345642814 -0.1448986055409549
3680000000.0 -0.032206550555138776 -0.19202488432762585
3700000000.0 0.002918604318730756 -0.19621852378089788
3720000000.0 0.15121722915372354 -0.12307490387588148
3740000000.0 0.15769761401358356 -0.10868029980474452
3760000000.0 -0.08815879260078642 0.16033085698468227
3780000000.0 0.03261189368529991 -0.16768793553840627
3800000000.0 -0.14341305701841223 -0.07066891228693852
3820000000.0 -0.13251118138216705 -0.0729931301019425
3840000000.0 0.10868695811586096 -0.09712648013551241
3860000000.0 -1.6318711348057903e-05 0.1477650260391692
3880000000.0 0.07642578008596326 0.13589053954443014
3900000000.0 0.10944890289017693 -0.11618477922785038
3920000000.0 -0.15968694136347145 0.04023872495215524
3940000000.0 0.08597154358598023 -0.14581895651348223
3960000000.0 0.17155299076349892 -0.011917781300492487
3980000000.0 0.10089011843161157 -0.13989258005111554
4000000000.0 0.08168379682613011 -0.14435066981228792
