! Created with skrf (http://scikit-rf.org).
# Hz S RI R 50.0 
!freq ReS11 ImS11
400000000.0 -0.8549610127524373 0.005747988575499613
420000000.0 -0.07245932124831997 0.8557953565258642
440000000.0 0.8030143457557137 0.2054979236109521
460000000.0 0.7708648272643797 -0.10992620117375244
480000000.0 -0.237510577099784 0.6762859448008668
500000000.0 0.5074988458458565 0.30075208134498105
520000000.0 0.2819337378283355 -0.4389411870537092
540000000.0 0.442263611377323 -0.08540397577342677
560000000.0 -0.3443744743199124 -0.2093618163242097
580000000.0 -0.12724679501749456 -0.3299772056207291
600000000.0 -0.2588934855116255 -0.2617607679303746
620000000.0 -0.26093624448642183 -0.26899670650130225
640000000.0 -0.10765149399786261 -0.3728335925452704
660000000.0 -0.33564707185930615 0.23173915721158558
680000000.0 -0.0037275247756596397 -0.4119852157310172
700000000.0 -0.42210707426084626 -0.03768574956929266
720000000.0 -0.4127298418943906 0.006914364822371013
740000000.0 0.40133296126466184 0.11195371974954728
760000000.0 -0.385980227981364 -0.07741379412031389
780000000.0 -0.06971174657200661 0.3538054379907227
800000000.0 0.19809711226924198 -0.25613056856111266
820000000.0 -0.15598888590598664 -0.22729035807900752
840000000.0 -0.24129941693338386 0.03627756553232901
860000000.0 -0.13028623463473554 -0.15069357663114533
880000000.0 0.1063671619694965 0.12145138275732985
900000000.0 -0.03941226752078928 -0.09817261718527391
920000000.0 0.04482559777469378 -0.05312710694868795
940000000.0 0.016406672516811792 -0.04730101321256532
960000000.0 0.019132719408126463 0.04735428146231835
980000000.0 0.01797311881295579 0.0667255144078009
1000000000.0 -0.014774520175816317 -0.08550185265753447
1020000000.0 0.10170072151777207 -0.01618563329207402
1040000000.0 0.07794610606383479 0.09754075111553788
1060000000.0 0.1524001912866801 0.01710040078389198
1080000000.0 0.01963756297222844 0.17550892985340316
1100000000.0 -0.19192430628231763 0.03129013860892017
1120000000.0 -0.01219657180277048 0.21742764433352565
1140000000.0 -0.2171043076513215 -0.12438297801055644
1160000000.0 -0.04793274794326963 -0.2750177995275892
1180000000.0 -0.17637089775839496 -0.2618595816692046
1200000000.0 0.32517710097363195 -0.09570369411035354
1220000000.0 -0.20246725867714857 0.3084080090916958
1240000000.0 0.3768246993921109 0.08111933346516742
1260000000.0 -0.1355188224976226 -0.39110814277380046
1280000000.0 -0.25201708351868835 0.3430768245615807
1300000000.0 0.343426470009452 0.27613860440948834
1320000000.0 0.30507112298918326 -0.31331980102206897
1340000000.0 0.43883116788830945 -0.016536486884805936
1360000000.0 0.3704369113360784 -0.23371553890256785
1380000000.0 0.2530167930452333 -0.3596587397575431
1400000000.0 -0.4271050255460067 0.0021982589732899055
1420000000.0 -0.0403072390804742 0.40727890616705703
1440000000.0 0.34598306460615424 -0.16679849987261608
1460000000.0 0.0440148192654806 -0.34922293490591033
1480000000.0 -0.3160054977338022 0.0531555834779183
1500000000.0 -0.1204623828079542 0.2607429100261804
1520000000.0 0.0888254383883964 0.24057420562241608
1540000000.0 -0.18545333801034658 -0.13030562912773827
1560000000.0 0.1640930876794261 -0.10246306905509521
1580000000.0 0.0735015793347633 0.14527253391902317
1600000000.0 0.1334586015080025 0.01289129259374832
1620000000.0 0.098903582129275 0.024952600176207235
1640000000.0 -0.07883134911403725 0.0020666021811798154
1660000000.0 -0.023938558138028893 -0.049362927541878855
1680000000.0 0.009203714531698104 0.03400532845380715
1700000000.0 0.014524835141482765 0.015473350140740465
1720000000.0 -0.00601010736443343 -0.00019473298290228593
1740000000.0 -0.015307398192596466 -0.005577799682863474
1760000000.0 0.030287736894359936 0.00907347732165661
1780000000.0 -0.024963523693912616 -0.05603847533878803
1800000000.0 -0.06774689596459599 0.06633319626099547
1820000000.0 0.03500597730801677 0.12227334603800889
1840000000.0 0.0855443130286987 -0.14048234298253112
1860000000.0 -0.12368423901745332 0.16178776144087623
1880000000.0 0.19189377279781772 -0.14805560658307915
1900000000.0 -0.2467250997978664 0.14370693094248488
1920000000.0 0.1575074793667343 -0.27969598105931137
1940000000.0 -0.3212113758925613 0.14558008675160927
1960000000.0 0.37520972730447394 0.054597538229936474
1980000000.0 -0.022839507703450616 -0.396363025509336
2000000000.0 -0.3954912140078356 -0.12560998973655566
2020000000.0 -0.2055524848388074 0.37340541423741924
2040000000.0 0.22388823735911592 0.37124669829858287
2060000000.0 0.4313223506243579 -0.06054053948852338
2080000000.0 0.27022630527400593 -0.337312812128338
2100000000.0 -0.039891620018847565 -0.4231979166860518
2120000000.0 -0.1914189318756895 -0.37079823893749003
2140000000.0 -0.37907966736707144 -0.1463732017852682
2160000000.0 0.04825048464384119 -0.39133872331284786
2180000000.0 -0.2668585623299392 -0.2723226490039303
2200000000.0 -0.3672381913733018 -0.031883241013418356
2220000000.0 -0.2235477725766644 0.28138232089097304
2240000000.0 0.06292001476826066 0.34870106765848813
2260000000.0 0.23384919217680064 0.2668908017794592
2280000000.0 0.3565217345108796 0.02999986916068632
2300000000.0 0.2100304148231826 -0.30755236925464385
2320000000.0 -0.3022707169612391 -0.25581368642238267
2340000000.0 -0.15606584481988872 0.39966780677814817
2360000000.0 0.379141187730865 -0.2741669352083898
2380000000.0 -0.47941693493628335 0.18855955569970392
2400000000.0 0.4520775687933719 -0.3379564983071368
2420000000.0 -0.16553259007226176 0.5912665193113926
2440000000.0 -0.3554836392806581 -0.5553222447615368
2460000000.0 0.673279247163629 0.177222290374062
2480000000.0 -0.6910537264919501 0.2168954666773124
2500000000.0 0.709905317798927 -0.21529919576179415
2520000000.0 -0.7464896900647027 0.07898311636708118
2540000000.0 0.7154039329423542 0.22826737907177425
2560000000.0 -0.3828793625157409 -0.6386720488304428
2580000000.0 -0.37417149385466336 0.626117597088794
2600000000.0 0.7007748590742483 -0.07726440194560993
2620000000.0 -0.45516477618708084 -0.498571162516048
2640000000.0 -0.6037394404756851 -0.2092103162054495
2660000000.0 0.056396241677737595 0.5914230304616485
2680000000.0 0.4538844067416271 -0.3104806654789608
2700000000.0 -0.4690428302961272 -0.18460119361938018
2720000000.0 0.19941523795158791 0.41245931994058255
2740000000.0 0.19357677321992967 -0.36725423784161126
2760000000.0 -0.3589815888172365 0.11706780975833667
2780000000.0 0.3301347604551705 -0.10609456064950987
2800000000.0 -0.31329872572451267 0.0716009688095337
2820000000.0 0.20164650425301453 -0.22720864215020756
2840000000.0 0.04257979683960149 0.29050540887340776
2860000000.0 -0.26426113072814633 -0.11543339298305998
2880000000.0 0.23923557049750535 -0.15884487075965403
2900000000.0 -0.07964770882000104 0.2750266547614496
2920000000.0 0.260817596236198 -0.12652143586233763
2940000000.0 -0.2819214443285783 -0.08516971121196204
2960000000.0 -0.20419784665049087 0.21631559388306018
2980000000.0 -0.13934105685342002 0.26676318797631743
3000000000.0 -0.28445750564165034 0.1079746092061618
3020000000.0 -0.253706598219259 -0.17016058025687217
3040000000.0 0.21028570807771987 -0.21771245699399872
3060000000.0 -0.03550438324320704 0.29919685074173213
3080000000.0 -0.05820149079980386 -0.2919876594982229
3100000000.0 0.13988696437457987 0.2576544242722704
3120000000.0 -0.18318992538882303 -0.21912941027203214
3140000000.0 0.27699702452304703 0.01405676642122993
3160000000.0 -0.21342209494254247 0.15423277014150102
3180000000.0 0.2478604547747336 0.00023235417206937897
3200000000.0 -0.045623655615791105 0.2207016914622747
3220000000.0 -0.18343067800686527 -0.08013403142388714
3240000000.0 0.10467293927756216 -0.1352363554005197
3260000000.0 -0.007731884382491959 0.13794511258318928
3280000000.0 0.010927486034025324 -0.10706046998082856
3300000000.0 -0.037229847387177974 0.06897622901073708
3320000000.0 0.04770708721142946 0.021799883607250898
3340000000.0 0.014852707441931772 -0.024538059639114505
3360000000.0 0.006309928505908813 -0.006283384141180568
3380000000.0 0.0012332587155489915 -0.007742294985920286
3400000000.0 0.01737040120867456 0.01045461815530051
3420000000.0 -0.028463460030601687 0.016049261747371302
3440000000.0 -0.04023578941550589 -0.015720683845533812
3460000000.0 -0.010904916741089784 -0.049679736347022614
3480000000.0 0.05033101370574942 0.03647297684918641
3500000000.0 0.06630935738641329 0.03634769259527469
3520000000.0 -0.05051044002018898 -0.07683204387383953
3540000000.0 0.10144590957569813 0.03325638042755844
3560000000.0 -0.1048998722170697 0.05932347518425798
3580000000.0 0.13187708875878332 -0.02024466133974424
3600000000.0 -0.015671572925785388 0.151593188324819
3620000000.0 -0.10357703351931578 0.12741126056284774
3640000000.0 -0.17466199588196626 0.022491475229180068
3660000000.0 -0.18101817183465482 -0.04033531205932229
3680000000.0 -0.13814374352616313 -0.13119987714756912
3700000000.0 -0.07403260115536377 -0.17472338739223275
3720000000.0 0.13689842078929962 -0.12981927643657945
3740000000.0 0.17441526936429863 -0.0582689021881178
3760000000.0 -0.17772469001916416 -0.002289041563376953
3780000000.0 0.16797107993018623 0.018824733521607052
3800000000.0 0.05759369242041352 -0.14854337870594286
3820000000.0 -0.024022805296208326 -0.15083505017357782
3840000000.0 0.13687324587461602 -0.05460080121604206
3860000000.0 0.047842631332551386 0.14126385704505492
3880000000.0 0.0806819027709734 0.13318830873766158
3900000000.0 0.14481754609967892 -0.06760692845604487
3920000000.0 -0.15096366322985766 -0.06412537807093188
3940000000.0 0.16645576466415227 -0.03158921444509188
3960000000.0 0.13623180890625708 0.10596429933823762
3980000000.0 0.15782657638446407 -0.07276260458549372
4000000000.0 0.1276426220665469 -0.10603102546636108
