! Created with skrf (http://scikit-rf.org).
# Hz S RI R 50.0 
!freq ReS11 ImS11
400000000.0 -0.8525348544478057 -0.06618741320667418
420000000.0 -0.07957092666963225 0.8550796218256114
440000000.0 0.8073325139236505 0.1840992306322759
460000000.0 0.7700601482262804 -0.11045918418387213
480000000.0 -0.2375205954718307 0.6762190815736834
500000000.0 0.513304968572174 0.2919105160988685
520000000.0 0.24713646351715787 -0.4590977101821333
540000000.0 0.44609005222347775 -0.06036155305825442
560000000.0 -0.3317497519040466 -0.23023898880904908
580000000.0 -0.1333984833181437 -0.328320211254715
600000000.0 -0.2481857366680208 -0.27018198643596186
620000000.0 -0.21080511341165825 -0.30822405515176216
640000000.0 -0.09597724507441482 -0.3752254800134368
660000000.0 -0.3179810081426187 0.2555459345543801
680000000.0 -0.043189063131556675 -0.40918770121245185
700000000.0 -0.42343789702438617 -0.02087678305512855
720000000.0 -0.412303021504118 -0.010889934552755725
740000000.0 0.3992131780165334 0.11916945942219842
760000000.0 -0.39008253077314514 -0.054275841867593405
780000000.0 -0.08063850232942928 0.35135052101310266
800000000.0 0.19428458812315422 -0.2590631534261239
820000000.0 -0.15120499021512218 -0.23063266339374808
840000000.0 -0.23782840046913298 0.05420706414846243
860000000.0 -0.15051402712738435 -0.13095594521600745
880000000.0 0.07975583056778075 0.14089607191546172
900000000.0 -0.047555762944885935 -0.09445473435537652
920000000.0 0.04441339071932749 -0.05283798026753669
940000000.0 -0.018830737299567128 -0.04634926392765874
960000000.0 0.03263616020892274 0.03956999694940634
980000000.0 -0.004516098502147125 0.0693858852920923
1000000000.0 0.005908235432500074 -0.08676340044792127
1020000000.0 0.10246073045793719 -0.0021771630943386165
1040000000.0 0.08518001383001521 0.09068728003208976
1060000000.0 0.15201517579489685 -0.017401392099242338
1080000000.0 0.014309395462678778 0.17578654406455765
1100000000.0 -0.18506581460062488 0.05895776491702231
1120000000.0 0.004078380572335378 0.21700050559418863
1140000000.0 -0.23576883493414205 -0.08299315632219681
1160000000.0 -0.09751697488642089 -0.26199899953577577
1180000000.0 -0.19056974854490832 -0.2522355128119387
1200000000.0 0.3219765476116209 -0.10727990993256074
1220000000.0 -0.20481215208009035 0.307077634073254
1240000000.0 0.3849712382456807 0.020694255578099133
1260000000.0 -0.1507155754776445 -0.38607372786688143
1280000000.0 -0.218553479966475 0.36601542927865316
1300000000.0 0.33236112169274107 0.2900289119629973
1320000000.0 0.321730795911204 -0.2975775991151129
1340000000.0 0.43938276653418584 -0.00438417769381927
1360000000.0 0.37169149738136353 -0.23143093185439192
1380000000.0 0.27715616970300144 -0.3415321525158577
1400000000.0 -0.42651259780146344 -0.022799441500956787
1420000000.0 -0.05208828804598555 0.40541583793467817
1440000000.0 0.34102871975194815 -0.1748159927967539
1460000000.0 0.00384152926168843 -0.3507951878153884
1480000000.0 -0.3094511568552821 0.08083484040204066
1500000000.0 -0.07700646149963018 0.27608119227971306
1520000000.0 0.12956289388009612 0.22124055348935082
1540000000.0 -0.20474809957311918 -0.09726929646814025
1560000000.0 0.12937394607393926 -0.14372149034329806
1580000000.0 0.11160857835013772 0.11913779227470887
1600000000.0 0.12145018321143575 -0.05728493216975901
1620000000.0 0.10274001289527625 0.00040392739181906124
1640000000.0 -0.0797802279542707 0.0039220765286716985
1660000000.0 0.016900767302223448 -0.05249173719033949
1680000000.0 -0.0011603477157010737 0.03546784181299706
1700000000.0 -0.02163556013550671 -0.0008291024238476743
1720000000.0 0.0017603006254595678 -0.006098130734184982
1740000000.0 -0.0164908308220731 0.002902666097009215
1760000000.0 -0.016167219411164575 -0.027869646108043152
1780000000.0 -0.059424434636155855 -0.015628200198092676
1800000000.0 -0.040460585805276776 0.08678918662049293
1820000000.0 0.05919068765471011 0.11264256302557524
1840000000.0 0.08431211740428772 -0.14103373495433535
1860000000.0 -0.11491567972020081 0.167822613945414
1880000000.0 0.1933420384560755 -0.14618719274775427
1900000000.0 -0.24112851045674244 0.1528440197584676
1920000000.0 0.1482684096173737 -0.28495972788365076
1940000000.0 -0.32975367861168076 0.12409759384936744
1960000000.0 0.3738437968179704 0.06315191967621275
1980000000.0 -0.0011745044496841712 -0.3971050388495504
2000000000.0 -0.3846328926123955 -0.1569671277999206
2020000000.0 -0.20082579977814238 0.3759049394308942
2040000000.0 0.17869563486862636 0.39533711690269707
2060000000.0 0.43159388101159724 -0.05520912944504445
2080000000.0 0.26476877731006704 -0.3412805203556331
2100000000.0 -0.07240620274325918 -0.41837468770376274
2120000000.0 -0.18698286548689128 -0.3722296302297385
2140000000.0 -0.3887602155086526 -0.11737108668553829
2160000000.0 -0.03240641567564052 -0.3922037279545081
2180000000.0 -0.2760036031296807 -0.26202342971019577
2200000000.0 -0.3675351030569069 0.007169693990329901
2220000000.0 -0.19570182240457043 0.29953167320685387
2240000000.0 0.08870273720818296 0.3415253328776606
2260000000.0 0.2757442942293304 0.22102002903858617
2280000000.0 0.3570730111294125 -0.008076821300464066
2300000000.0 0.15769531375836626 -0.3364960803527009
2320000000.0 -0.34409032652428856 -0.19513203626182735
2340000000.0 -0.07171690546825202 0.42304520966717346
2360000000.0 0.33226425205369187 -0.32958601428169165
2380000000.0 -0.43957157435166655 0.2685503831518468
2400000000.0 0.4387763111807765 -0.3556285159583641
2420000000.0 -0.1459334103440415 0.5967144239110302
2440000000.0 -0.37500098098737467 -0.5418406634527906
2460000000.0 0.6772560550480178 0.16009828126666661
2480000000.0 -0.7020257324698099 0.17577905159093032
2500000000.0 0.6921975520395002 -0.26503161634809147
2520000000.0 -0.7343811653789067 0.15284792165932096
2540000000.0 0.7209627734956534 0.20886706206833594
2560000000.0 -0.40515954185025216 -0.6229010918249609
2580000000.0 -0.31862623103333987 0.6544147378169581
2600000000.0 0.6847690839753348 -0.16332876376076907
2620000000.0 -0.4941560315501503 -0.45816385652610214
2640000000.0 -0.6099452570072316 -0.1861100894018577
2660000000.0 0.10375687458704937 0.5841947675079903
2680000000.0 0.4379061528449508 -0.3303070276051433
2700000000.0 -0.47077775612804545 -0.17607730331045618
2720000000.0 0.174105319820516 0.4227306543890493
2740000000.0 0.21429180430571346 -0.354539505890372
2760000000.0 -0.35860126259842273 0.11430826860046527
2780000000.0 0.33385336802767057 -0.08960051489650239
2800000000.0 -0.31462417644090346 0.0603532718849489
2820000000.0 0.20251939894921794 -0.22532886959170817
2840000000.0 0.034971862825442325 0.2904263471839276
2860000000.0 -0.2712191556252933 -0.09507776907297386
2880000000.0 0.21312273447389743 -0.19065160918744709
2900000000.0 -0.07339372819717915 0.27673371859395773
2920000000.0 0.24371869877762828 -0.156853803870195
2940000000.0 -0.2889960499101658 -0.05491683218032867
2960000000.0 -0.1683237861328589 0.24495541970439252
2980000000.0 -0.09663241928348627 0.2853199708166909
3000000000.0 -0.25444121551884746 0.16641550839088565
3020000000.0 -0.28448538900624576 -0.11090717200824861
3040000000.0 0.22865101987882333 -0.1980914617224573
3060000000.0 -0.007946424303727623 0.30106764425113447
3080000000.0 -0.06865351977381147 -0.28978413361852284
3100000000.0 0.1341410534417183 0.26042160185835384
3120000000.0 -0.21461627722694637 -0.18864799531965648
3140000000.0 0.2768270050380758 -0.028691979994663344
3160000000.0 -0.21071948763646609 0.15970077302153035
3180000000.0 0.24351547516062208 0.04882141413039451
3200000000.0 -0.08847945189332079 0.20829526459102457
3220000000.0 -0.17265573001265166 -0.10202760225431551
3240000000.0 0.10385318807570532 -0.13575850379349683
3260000000.0 -0.04656118887651907 0.13041570139795305
3280000000.0 0.04082050919488823 -0.09938307358026216
3300000000.0 -0.0696988588202231 0.035509594947484804
3320000000.0 -0.004667264566332829 0.05128517501063006
3340000000.0 0.027476249023861508 -0.0009755496878080382
3360000000.0 0.0033284388678323723 -0.00837915193632291
3380000000.0 0.007202506102227973 0.003052518743925528
3400000000.0 0.010516962004762778 -0.017827375053683227
3420000000.0 0.017887148399498707 0.02691164460831392
3440000000.0 -0.012881091887402461 0.040279224875005154
3460000000.0 -0.02725112445564251 0.042741474334490444
3480000000.0 0.035431838762940225 -0.04984928631199079
3500000000.0 0.057852334249523074 -0.047598029298690996
3520000000.0 -0.06779771458709892 -0.05976899068105059
3540000000.0 0.09557672288964335 -0.04418098147011757
3560000000.0 -0.052026515992228704 0.10731848484032634
3580000000.0 0.10434415815381826 -0.08015362793169477
3600000000.0 0.058069980552102794 0.14057272919837666
3620000000.0 0.0020117698057163036 0.16318528447899527
3640000000.0 -0.14924292211904877 0.0936446234655888
3660000000.0 -0.18457793328052827 0.011823953961250088
3680000000.0 -0.17724787677981563 -0.06938237980262002
3700000000.0 -0.12226630923873709 -0.14470980302628775
3720000000.0 0.1288292582062971 -0.1366080322371969
3740000000.0 0.1675793053632459 -0.07495736978453446
3760000000.0 -0.17758355307941723 0.003640702970099694
3780000000.0 0.16872817267421422 0.001586686294897338
3800000000.0 0.006152261247121557 -0.160079014330162
3820000000.0 -0.06216488310350546 -0.1397302633465775
3840000000.0 0.13427833119361954 -0.06143078680992914
3860000000.0 0.07775035081330497 0.12763792423838313
3880000000.0 0.10266149780639457 0.11779553842731204
3900000000.0 0.10001339102713443 -0.12490395406214688
3920000000.0 -0.16420464900537204 0.005832393430399059
3940000000.0 0.13085720868244746 -0.10617297258022537
3960000000.0 0.1677310460470348 0.04220301340201988
3980000000.0 0.1350740221458337 -0.11050402952872654
4000000000.0 0.058077095181056304 -0.15548894301368438
