! Created with skrf (http://scikit-rf.org).
# Hz S RI R 50.0 
!freq ReS11 ImS11
400000000.0 -0.855123770102324 -0.005807816544063481
420000000.0 -0.0611975131123339 0.8561979852861095
440000000.0 0.808216958022993 0.1877991785092946
460000000.0 0.7607769189486835 -0.16425163506046128
480000000.0 -0.2550946849807351 0.6692961335204621
500000000.0 0.45779311685057866 0.37325720316717176
520000000.0 0.15497610596599506 -0.49790832505870003
540000000.0 0.43414408423783785 -0.11297831704222716
560000000.0 -0.30691956301976964 -0.263384310071683
580000000.0 -0.09911351685768041 -0.3412960507890967
600000000.0 -0.32041159872615155 -0.18184113151843095
620000000.0 -0.2579894497538116 -0.2699616386782941
640000000.0 0.025618040128248996 -0.3857678781730874
660000000.0 -0.3350339862991008 0.2360568970912106
680000000.0 -0.05385817868359343 -0.4072393029246949
700000000.0 -0.42039522784273486 -0.05890403719035833
720000000.0 -0.4015881379721964 -0.09468863655355328
740000000.0 0.3938198678014088 0.1335364312207425
760000000.0 -0.3867982550546737 -0.07220134507190704
780000000.0 -0.04751706700766705 0.35780152049003044
800000000.0 0.2076074957644074 -0.24715344918935767
820000000.0 -0.16582129516079186 -0.22192916566083276
840000000.0 -0.24280708004997978 0.025805693812837642
860000000.0 -0.11624691172790833 -0.16122633773518893
880000000.0 0.13509821684462484 0.08976687054674604
900000000.0 -0.03039917440652439 -0.10180310193601444
920000000.0 0.022978467456852326 -0.06601877994609842
940000000.0 0.023013117307424245 -0.045039577577540485
960000000.0 0.010646643416482526 0.04903281892271029
980000000.0 -0.007501011043911086 0.06861491779032874
1000000000.0 -0.0018759946135443468 -0.08728532844889439
1020000000.0 0.10039766926508129 -0.018629373611360897
1040000000.0 0.07240021568356148 0.10209263654791931
1060000000.0 0.15094194124594293 -0.024825179559030963
1080000000.0 0.011091898862798497 0.176521438937184
1100000000.0 -0.17123049709562033 0.09216386084860552
1120000000.0 -0.013138300755069283 0.2173115477154629
1140000000.0 -0.22420702193389708 -0.11102053533751635
1160000000.0 -0.04346098098346844 -0.27579529999210073
1180000000.0 -0.18022728180644265 -0.25901614210232077
1200000000.0 0.31624774539940875 -0.12164561737078834
1220000000.0 -0.21100583131855802 0.3026188578798788
1240000000.0 0.37773670143645005 0.07927673848243985
1260000000.0 -0.1574073567927117 -0.3828405754333062
1280000000.0 -0.2516267942156367 0.34393277392701066
1300000000.0 0.36018223916232706 0.25424392963545567
1320000000.0 0.3011665048818964 -0.31695626542137983
1340000000.0 0.4387332733094792 -0.017069067134678668
1360000000.0 0.34558559557016044 -0.26951616308613796
1380000000.0 0.2560319830003207 -0.35699589589653724
1400000000.0 -0.42713519213158335 -0.01971280227630197
1420000000.0 -0.005245716866575368 0.40890459438887605
1440000000.0 0.35935125906459925 -0.13606897450747324
1460000000.0 0.01899968935580262 -0.35047476162949737
1480000000.0 -0.31865312597310397 0.03177912300792191
1500000000.0 -0.1086116506236922 0.26572956007871046
1520000000.0 0.11356214378987994 0.22946852635668755
1540000000.0 -0.186281338752813 -0.12824129918167035
1560000000.0 0.13711490683443733 -0.1365223748882637
1580000000.0 0.10035471295715705 0.12822807058348326
1600000000.0 0.13332145004544377 -0.018448858035177925
1620000000.0 0.1020771692712526 0.006249250007717336
1640000000.0 -0.06500958365958899 -0.045746722561246844
1660000000.0 -0.021276108115019846 -0.05031133943372117
1680000000.0 0.013149624250556121 0.03355254186516003
1700000000.0 -0.01457761568389926 0.016348174759888274
1720000000.0 0.006326715019952665 0.002654857130887565
1740000000.0 -0.01391499101725132 -0.008845417371646165
1760000000.0 0.017437798193907922 -0.027952696057932942
1780000000.0 -0.03256748943225659 -0.05218991168515152
1800000000.0 -0.07282764277530412 0.06295285424123107
1820000000.0 -0.0051710512543544675 0.12759789699423846
1840000000.0 0.12144989577495895 -0.11130559123215228
1860000000.0 -0.139462743630561 0.1481927888497783
1880000000.0 0.20492289164694716 -0.1284082851789655
1900000000.0 -0.25275072950562655 0.1321212980557631
1920000000.0 0.15544770762532673 -0.2807427399891436
1940000000.0 -0.3203331182487641 0.14588837156474804
1960000000.0 0.3758754030243184 0.04654305759492506
1980000000.0 -0.06031950898692517 -0.39217850801686893
2000000000.0 -0.40300159081009257 -0.09963958249259044
2020000000.0 -0.15953209514249567 0.39563868108245803
2040000000.0 0.2016611450384125 0.38494518651672094
2060000000.0 0.41453448003005927 -0.13341247277301269
2080000000.0 0.234065302533357 -0.36391275706520854
2100000000.0 -0.10518950164683732 -0.41260296446014405
2120000000.0 -0.16308630873328503 -0.38464622339737214
2140000000.0 -0.3803759934159172 -0.14488178880769592
2160000000.0 0.041138580288767226 -0.392734526728026
2180000000.0 -0.26042510542721026 -0.27911634237758864
2200000000.0 -0.3670192412627788 -0.03735536908580251
2220000000.0 -0.23708260826907754 0.270117709087132
2240000000.0 0.037040278500482735 0.35171799532042036
2260000000.0 0.23654901128167613 0.26372829666039765
2280000000.0 0.35635797498105865 0.02313604108361719
2300000000.0 0.20199907269907663 -0.311409793475255
2320000000.0 -0.314915720790025 -0.2391139260541424
2340000000.0 -0.12211576054744205 0.4105259073035552
2360000000.0 0.34390348995407827 -0.3165756318742345
2380000000.0 -0.45333899811111866 0.24302717470131827
2400000000.0 0.40727214156666236 -0.3906863636831887
2420000000.0 -0.11144993289145799 0.604049608552265
2440000000.0 -0.38126182932700275 -0.5383137225876682
2460000000.0 0.6828734839837257 0.1396528428504744
2480000000.0 -0.6899432711563663 0.22357215520170112
2500000000.0 0.7188997802759813 -0.18808286964785487
2520000000.0 -0.7502083039985814 0.04221620362783364
2540000000.0 0.7025881395670254 0.2661693893388032
2560000000.0 -0.3142060636900785 -0.6745816913792317
2580000000.0 -0.3879985680399987 0.6171503110181451
2600000000.0 0.7001660512709136 -0.07958765385867195
2620000000.0 -0.42460628543620366 -0.5233692992630788
2640000000.0 -0.5786374677587537 -0.2685032669898173
2660000000.0 0.03419132972301847 0.5918230880042649
2680000000.0 0.47148677784799536 -0.2791142281179026
2700000000.0 -0.46594214275210444 -0.18646732587161027
2720000000.0 0.18523034271538702 0.4167366701546644
2740000000.0 0.20035303136804988 -0.3616441364891289
2760000000.0 -0.3431601743448744 0.15399197662913888
2780000000.0 0.31753015500711507 -0.13635844210400225
2800000000.0 -0.2964548795789287 0.12184307459797926
2820000000.0 0.1460084198911874 -0.26597281849190596
2840000000.0 0.08777763290190546 0.2796781595551124
2860000000.0 -0.2836369129441798 -0.051850839280890744
2880000000.0 0.21039583756527425 -0.19548168608439478
2900000000.0 -0.05969363559398284 0.2805119099987022
2920000000.0 0.2200054381945154 -0.18940403296231093
2940000000.0 -0.2850380042135082 -0.07551708929469092
2960000000.0 -0.24232531018790923 0.173591279824714
2980000000.0 -0.16397480406463985 0.25368140654629
3000000000.0 -0.2822228765947469 0.1118679419268545
3020000000.0 -0.25199117557273853 -0.17243464054993385
3040000000.0 0.27322417134225424 -0.13114303170740896
3060000000.0 -0.03802352590173999 0.2996454278373317
3080000000.0 -0.021432496703421393 -0.29683217120957134
3100000000.0 0.08607992219019645 0.2795301401608284
3120000000.0 -0.15675688895490048 -0.2382213515753137
3140000000.0 0.27164876093570156 0.05415518374815674
3160000000.0 -0.21572357156241392 0.1512016406340794
3180000000.0 0.24105580862054432 0.05519343639681634
3200000000.0 -0.0926095035826104 0.20540032820391943
3220000000.0 -0.16363134754810027 -0.11409855624080631
3240000000.0 0.11569034417497606 -0.12527062518947404
3260000000.0 -0.040267330003978676 0.13145362357367457
3280000000.0 0.023779608744593908 -0.10369218635896413
3300000000.0 -0.03567655620841775 0.0690927372954034
3320000000.0 0.04837872480946151 0.017780386012401752
3340000000.0 0.017647769745611448 -0.021925822085475045
3360000000.0 0.008344008374409734 0.005397268916016019
3380000000.0 0.004874326346006955 0.005773904849738949
3400000000.0 0.013350482063500962 -0.015763564265542228
3420000000.0 -0.032491428559670986 0.004292505785014629
3440000000.0 -0.024152427904833147 0.036045592633758367
3460000000.0 -0.02245494936337374 -0.04604428768530337
3480000000.0 0.050576108692172335 0.036476086133292465
3500000000.0 0.07515004030007488 0.015486129717104374
3520000000.0 -0.053714409742412886 -0.07499620130455303
3540000000.0 0.0909346614333558 0.055963804547715774
3560000000.0 -0.10679994062791993 0.055679991478294964
3580000000.0 0.13077919134973395 -0.02898184238536156
3600000000.0 -0.014272598754542848 0.15232904706843778
3620000000.0 -0.09245895969302416 0.1363807082504693
3640000000.0 -0.1733782902668028 0.03728370184532828
3660000000.0 -0.17229510119782024 -0.06935810694492268
3680000000.0 -0.10581212248432814 -0.15865704920486245
3700000000.0 -0.020182275842594483 -0.18849616918137255
3720000000.0 0.18225425810771972 -0.048868951634878546
3740000000.0 0.17911926131608358 0.04036468421365012
3760000000.0 -0.15513820954372778 -0.08541951335105463
3780000000.0 0.14382549053351332 0.08875749334516708
3800000000.0 0.11180439355680062 -0.11316534753164025
3820000000.0 0.02904441767541372 -0.14920883153602427
3840000000.0 0.14539244380825592 -0.012531557940459773
3860000000.0 0.01624348089192852 0.14697836687529475
3880000000.0 0.0013336716856985453 0.15484187498170227
3900000000.0 0.1384697197210362 -0.07652566358419913
3920000000.0 -0.11744614512566959 -0.113582947503107
3940000000.0 0.16799024723896513 0.006492528372043445
3960000000.0 0.05926226282079622 0.16159698507629397
3980000000.0 0.17202463465427012 -0.016471303427293686
4000000000.0 0.14536509338582423 -0.07739986329814211
