! Created with skrf (http://scikit-rf.org).
# Hz S RI R 50.0 
!freq ReS11 ImS11
400000000.0 -0.8538582169061146 -0.034993238876995875
420000000.0 -0.08149004139086964 0.8551234713568895
440000000.0 0.7964103131037079 0.2306734270562157
460000000.0 0.7657668553381038 -0.141539628674155
480000000.0 -0.2403509550451685 0.675218496793416
500000000.0 0.4996192201142588 0.3139890887323641
520000000.0 0.28008133294865667 -0.4399102118423472
540000000.0 0.44328922542752763 -0.07799564524999097
560000000.0 -0.34083829144671784 -0.21534599021255535
580000000.0 -0.13893689451627142 -0.32533058015948363
600000000.0 -0.2635169619423792 -0.25689943073974314
620000000.0 -0.23632570223497457 -0.2906051048044951
640000000.0 -0.09989507969932604 -0.374972455625024
660000000.0 -0.3467514239482336 0.21507819092500524
680000000.0 0.002883633009132311 -0.4117810852839588
700000000.0 -0.42227230863416193 -0.03781373916893535
720000000.0 -0.41220118126613464 -0.02043610569311367
740000000.0 0.39691872603337985 0.1265593607002971
760000000.0 -0.3840051967094657 -0.08605031771980332
780000000.0 -0.0710782158841061 0.35351206401673907
800000000.0 0.19376177484219878 -0.25935575603157757
820000000.0 -0.15694536643485685 -0.22664601903418072
840000000.0 -0.2424465775808371 0.026967278076433728
860000000.0 -0.12074335317543954 -0.15822660013166887
880000000.0 0.10254625199861633 0.12497702843444512
900000000.0 -0.037714365555038785 -0.09889641951196486
920000000.0 0.046035828979729305 -0.05217085417112499
940000000.0 0.013968113834357886 -0.04833629725437561
960000000.0 0.011409875240682524 0.04974693980164751
980000000.0 0.008642747258380122 0.06838646881879842
1000000000.0 -0.012557306354822462 -0.08565664568442885
1020000000.0 0.1013296109708916 -0.017617357443070455
1040000000.0 0.08407504523255976 0.09232789152817096
1060000000.0 0.1531119185881313 0.00729434141698293
1080000000.0 0.020932772523428435 0.17539381248957706
1100000000.0 -0.19126085009568874 0.03566312342504902
1120000000.0 -0.0071543613749793615 0.21778972741842942
1140000000.0 -0.2141470639938682 -0.1296373180675109
1160000000.0 -0.05836773495993307 -0.27330550732682524
1180000000.0 -0.17008349995018499 -0.2659735788905667
1200000000.0 0.3303130687567145 -0.07600387399889763
1220000000.0 -0.21332055845433492 0.3010825296504047
1240000000.0 0.3752367516976205 0.08789247938215886
1260000000.0 -0.1153228156486126 -0.3975226424803983
1280000000.0 -0.2531968954830173 0.3422428497994686
1300000000.0 0.32739422917940636 0.2948266473343557
1320000000.0 0.30429710166550056 -0.3141656754945542
1340000000.0 0.438009213820519 -0.03013964103589456
1360000000.0 0.36799827754132103 -0.23733256354202498
1380000000.0 0.2554193503611013 -0.35794519167741123
1400000000.0 -0.426829517924376 0.011719797130989779
1420000000.0 -0.048586109199170766 0.4065906600326925
1440000000.0 0.3403369101718055 -0.17817785496898061
1460000000.0 0.028721034322058882 -0.35075264317606647
1480000000.0 -0.3193052134293588 0.02858509832941813
1500000000.0 -0.1235492450889971 0.25950964668640414
1520000000.0 0.08760652169590191 0.24119166122340246
1540000000.0 -0.17529768028697298 -0.14365963047588368
1560000000.0 0.15880971564036947 -0.11034717801347073
1580000000.0 0.08907920253948987 0.1363291561133344
1600000000.0 0.1338894139156975 0.004514966685433986
1620000000.0 0.09738034987780254 0.030182577926428256
1640000000.0 -0.07857523333498467 -0.005685474005669542
1660000000.0 -0.02865988220094661 -0.046669430891875995
1680000000.0 0.01507794711424378 0.03159182579945716
1700000000.0 -0.020011932653716934 0.005644655332474531
1720000000.0 0.005388581420499052 0.0019369603959171339
1740000000.0 -0.013209904625765947 -0.009196215069663052
1760000000.0 0.02900968582327164 0.012708106693785807
1780000000.0 -0.02403775684247936 -0.056349989513739145
1800000000.0 -0.054389931805433764 0.07837361549256681
1820000000.0 0.03313966341430493 0.12267184314063091
1840000000.0 0.09422913699403915 -0.13468185500871183
1860000000.0 -0.12794888463991044 0.15839150428284138
1880000000.0 0.19495360250480767 -0.14358040241464368
1900000000.0 -0.24468928601337836 0.14696047858838418
1920000000.0 0.15895734415525756 -0.2788192122879814
1940000000.0 -0.3193535345416934 0.1494071167019688
1960000000.0 0.37679646448957055 0.043052411505928194
1980000000.0 -0.027516955764997846 -0.39606940608444235
2000000000.0 -0.39818242957314687 -0.11734892295352523
2020000000.0 -0.206977112930663 0.37263253858657397
2040000000.0 0.2094456459455905 0.37970701013567965
2060000000.0 0.42792081631260837 -0.08079070022366715
2080000000.0 0.2358619351679817 -0.3619402099590143
2100000000.0 -0.07703711686894496 -0.41799357771330137
2120000000.0 -0.1791437009440305 -0.37722990720826466
2140000000.0 -0.3767978618575047 -0.15223406979796208
2160000000.0 0.02166458813232885 -0.39371766032067124
2180000000.0 -0.26487543800306196 -0.27405148818676106
2200000000.0 -0.3661525031228301 -0.04161829103927939
2220000000.0 -0.2362612125878785 0.27077420157716414
2240000000.0 0.05364688468334318 0.35009500901847845
2260000000.0 0.23258234342386172 0.26788217818728227
2280000000.0 0.35545802982042135 0.03932303963637356
2300000000.0 0.21494805725107613 -0.30387688013850467
2320000000.0 -0.30178063207588607 -0.25635353358956836
2340000000.0 -0.1455643817963474 0.40361388926716074
2360000000.0 0.3753827289189656 -0.2791663964178752
2380000000.0 -0.47327427124773225 0.20299045643383146
2400000000.0 0.43896919636663584 -0.3549062985300594
2420000000.0 -0.16487155440335036 0.5917751564214665
2440000000.0 -0.37204838247886024 -0.5442910960574465
2460000000.0 0.6781493582567435 0.15831139237010552
2480000000.0 -0.687407540365567 0.22877834651489265
2500000000.0 0.714728877849815 -0.20050280763483458
2520000000.0 -0.7435871422000044 0.10204848464929321
2540000000.0 0.7117319822681516 0.23996158533887635
2560000000.0 -0.3646903763581654 -0.6495004736732282
2580000000.0 -0.30511423639545454 0.6625049358854189
2600000000.0 0.6990158164116713 -0.0930416744129333
2620000000.0 -0.45594324176394047 -0.4982854271466164
2640000000.0 -0.5795153141859569 -0.2688403559586962
2660000000.0 0.06399133318534811 0.5908129121297505
2680000000.0 0.46150770627464216 -0.29894002588112745
2700000000.0 -0.4686172620096374 -0.18547783094136594
2720000000.0 0.19158625624787806 0.41604310715026865
2740000000.0 0.21684047415656935 -0.35387294283006265
2760000000.0 -0.36184299232445927 0.10744183063823814
2780000000.0 0.33294680575886476 -0.0968455594771334
2800000000.0 -0.31207677905191106 0.07630056761295136
2820000000.0 0.19902053426195557 -0.22941719522291348
2840000000.0 0.0420174194741465 0.29041048585452933
2860000000.0 -0.2618843486514566 -0.12066252303642172
2880000000.0 0.2215703058922147 -0.18236136972373657
2900000000.0 -0.07289160788711894 0.27677083347618653
2920000000.0 0.25727765590245194 -0.13411442480709126
2940000000.0 -0.28532327529396273 -0.07413689475216705
2960000000.0 -0.18502284352951004 0.23306137472535382
2980000000.0 -0.1544826817359623 0.25825435897322724
3000000000.0 -0.28010244680093976 0.11858186472534543
3020000000.0 -0.27371195907576784 -0.13580400813040827
3040000000.0 0.18551445168975655 -0.2395480163019903
3060000000.0 -0.032822034918531834 0.2998152140140647
3080000000.0 -0.03582793848859363 -0.2959143546368803
3100000000.0 0.14379188535913895 0.25584030624769805
3120000000.0 -0.16922440408532807 -0.23039152212500988
3140000000.0 0.2684353794958091 0.06852189059815923
3160000000.0 -0.23313367728266662 0.12213183886678457
3180000000.0 0.2457302872051641 0.028182297076340075
3200000000.0 -0.06366578263480223 0.215790093308018
3220000000.0 -0.17285382663894505 -0.09962007831426406
3240000000.0 0.11019424818077095 -0.13062480908086244
3260000000.0 -0.028916477263046005 0.1349382881117693
3280000000.0 0.016233270581269464 -0.10601922508118546
3300000000.0 -0.0566514790114391 0.05388825406454191
3320000000.0 0.04172821994479143 0.031379522405304075
3340000000.0 -0.0034967947387031096 -0.028376321612957032
3360000000.0 -0.00566396773953113 -0.007773242367814874
3380000000.0 0.0052862355091539606 -0.006077986459880756
3400000000.0 -0.009321243740997166 0.0178275258526998
3420000000.0 -0.032037075658077216 -0.004646463067674603
3440000000.0 -0.041186175675932385 -0.013814178239562085
3460000000.0 0.005561189789967363 -0.05034681460145138
3480000000.0 0.032115221818058086 0.052585353487608455
3500000000.0 0.05477349407781208 0.05176260406601701
3520000000.0 -0.02949534641799936 -0.08698046352614892
3540000000.0 0.10117325692946796 0.03512597978074677
3560000000.0 -0.11598167393089898 0.03175985166646975
3580000000.0 0.1324042550439387 -0.014544309243448976
3600000000.0 -0.075710013296444 0.1314155216580473
3620000000.0 -0.12365042179202454 0.1073359858643513
3640000000.0 -0.17567823170962488 0.006667681724264186
3660000000.0 -0.17759427800988822 -0.05210880162021477
3680000000.0 -0.14440318342501154 -0.12418594434946521
3700000000.0 -0.07765685726169723 -0.17276737024783884
3720000000.0 0.135268095328373 -0.13217495016076578
3740000000.0 0.17472138391156677 -0.057225201757345176
3760000000.0 -0.1768545204752144 -0.016630314541187935
3780000000.0 0.16850245225584717 0.0013514444579223767
3800000000.0 0.04426531898127828 -0.15299345244890825
3820000000.0 -0.028319104096995267 -0.14993113853010184
3840000000.0 0.13627103994663273 -0.055578846265750194
3860000000.0 0.04647140218901314 0.14173621770700948
3880000000.0 0.07445430735598887 0.13701383672887119
3900000000.0 0.14042454851741631 -0.07571395571724567
3920000000.0 -0.1572977908270279 -0.046961991956694336
3940000000.0 0.15798992557617597 -0.06015506471436624
3960000000.0 0.13708242566006557 0.10540570366299375
3980000000.0 0.14574674200754353 -0.09494271478038116
4000000000.0 0.09821251612523076 -0.13406881385204839
