! Created with skrf (http://scikit-rf.org).
# Hz S RI R 50.0 
!freq ReS11 ImS11
400000000.0 -0.8534913988851791 -0.05051750675333236
420000000.0 -0.0591561710312226 0.8559605533105618
440000000.0 0.8014697706219666 0.20991424290898722
460000000.0 0.7652751594631599 -0.14252062426800688
480000000.0 -0.20803989685390706 0.6853757252064976
500000000.0 0.5047982980698267 0.3048297480509352
520000000.0 0.2621995641141358 -0.45146716282864424
540000000.0 0.4371651685958675 -0.10831685758510579
560000000.0 -0.3426986216156266 -0.21180518988165295
580000000.0 -0.06274161929524877 -0.3488426846281594
600000000.0 -0.2796415555377598 -0.23928144085569195
620000000.0 -0.28234268668007667 -0.24490967517690768
640000000.0 -0.0699085880089106 -0.3810858592181197
660000000.0 -0.32050553654245084 0.2517898311180113
680000000.0 -0.0407534989797352 -0.4095108930053296
700000000.0 -0.4232921732888778 -0.002179042843670647
720000000.0 -0.41102785673033504 -0.03760902621619097
740000000.0 0.4042014579839274 0.09658659679268901
760000000.0 -0.3866747554149363 -0.07432390675239872
780000000.0 -0.053554969184141606 0.3565844380590902
800000000.0 0.19689176441741543 -0.2573827457906544
820000000.0 -0.16005611269744613 -0.22481363953411362
840000000.0 -0.24346000882973123 0.018561220570493274
860000000.0 -0.11992181718869187 -0.1591249980942894
880000000.0 0.11152713335883802 0.11706269016368337
900000000.0 -0.04104414224377502 -0.09748318238616413
920000000.0 0.043694635068358495 -0.05398384453651781
940000000.0 0.002190933540816639 -0.04979189205497038
960000000.0 0.03349282685505078 0.03857042521820067
980000000.0 0.014248368758673623 0.06745810306889095
1000000000.0 -0.005366297860555308 -0.08672593397526826
1020000000.0 0.10288129848305724 -0.004985012602617679
1040000000.0 0.07850477492362723 0.09692796927494636
1060000000.0 0.15325037093126545 0.008892427992666081
1080000000.0 0.019439898639074582 0.17522590929308957
1100000000.0 -0.18784506904714202 0.04948674800829666
1120000000.0 -0.012370846720934369 0.21699127702744697
1140000000.0 -0.1964456220247618 -0.15417088898721515
1160000000.0 -0.0708392599125913 -0.26957899224226056
1180000000.0 -0.18530174009033729 -0.2547047745406482
1200000000.0 0.3141261449483551 -0.12630092594717907
1220000000.0 -0.20367920533852577 0.3069622347241226
1240000000.0 0.3823923381035135 0.049091503133057816
1260000000.0 -0.16733494630035145 -0.3789757625191523
1280000000.0 -0.23060715608751123 0.3584141606173042
1300000000.0 0.3650933869634964 0.2472836502121175
1320000000.0 0.29327140698384374 -0.3248210623935177
1340000000.0 0.43869012571871185 -0.022158403204378365
1360000000.0 0.3709687161537304 -0.23327867269507346
1380000000.0 0.2519469571286881 -0.3608062006607575
1400000000.0 -0.4272002574999172 -0.010577440444103066
1420000000.0 -0.047108015326793685 0.40630347931663846
1440000000.0 0.3546874157949345 -0.1468410679719304
1460000000.0 0.040133852752175604 -0.3489796164212032
1480000000.0 -0.3131186046407866 0.06540482895228088
1500000000.0 -0.10455164522918692 0.26731137696701485
1520000000.0 0.11696859874139429 0.22722852891729128
1540000000.0 -0.18982458892093054 -0.12194078098992184
1560000000.0 0.11978755257636588 -0.15125410321299138
1580000000.0 0.12379004598540137 0.1056091683344042
1600000000.0 0.12375400743470737 -0.05236401976962302
1620000000.0 0.10218180146686831 -0.007405598507657086
1640000000.0 -0.07936335337154735 -0.0037489517191025648
1660000000.0 -0.013447572064916077 -0.05342352744126766
1680000000.0 0.020672791255750674 0.02950574841621477
1700000000.0 -0.012879309519298254 0.017997758750739206
1720000000.0 0.0043830974801860765 -0.005315969153766767
1740000000.0 -0.0054354275715410155 0.015334287265205733
1760000000.0 0.020291082813421533 -0.02579874978941749
1780000000.0 -0.05255181510931836 -0.032942690718745574
1800000000.0 -0.061525421908757955 0.07376545398311628
1820000000.0 0.011469481237709217 0.12723610596944793
1840000000.0 0.11573484164166781 -0.11771456461494106
1860000000.0 -0.14106405925780793 0.14706738671512268
1880000000.0 0.20559838014516835 -0.12851121352133535
1900000000.0 -0.2561785570085933 0.12612201628277664
1920000000.0 0.1788787256430386 -0.26647611974975105
1940000000.0 -0.3264590857683272 0.13210431530145625
1960000000.0 0.3739213530057833 0.06021154270024929
1980000000.0 -0.03294040679559195 -0.39526583031238255
2000000000.0 -0.3954725167032602 -0.12578134421999718
2020000000.0 -0.18319368023943064 0.3847285065363599
2040000000.0 0.21716973432383552 0.3756428758528532
2060000000.0 0.4268871986763172 -0.08585916532989604
2080000000.0 0.2467147793453343 -0.3547223569579318
2100000000.0 -0.09975017568218676 -0.4132367419871031
2120000000.0 -0.21076907064900152 -0.3601860746187801
2140000000.0 -0.3837549105668527 -0.13483667522109033
2160000000.0 0.011746807800492122 -0.3946085882502766
2180000000.0 -0.27506788093938167 -0.2645132898795013
2200000000.0 -0.36888307287980143 -0.016569950582580373
2220000000.0 -0.2204231145657112 0.28416424713352834
2240000000.0 0.06079079881579972 0.3486890769561507
2260000000.0 0.2328694298372024 0.2673125715124554
2280000000.0 0.35743267896664954 0.0101428450285116
2300000000.0 0.20761299024555965 -0.30823332889699373
2320000000.0 -0.3078380167531104 -0.24892386708691028
2340000000.0 -0.14443970887848423 0.4034110579256328
2360000000.0 0.3606436489248453 -0.2981187234624514
2380000000.0 -0.4647214754418101 0.22120500259490533
2400000000.0 0.44351263618772363 -0.3490150910111562
2420000000.0 -0.14656546547272206 0.5965829909884114
2440000000.0 -0.3662835135478026 -0.5481769903344161
2460000000.0 0.6738031187234688 0.17735207328960814
2480000000.0 -0.7042853533218043 0.1727598152714548
2500000000.0 0.7114536889511706 -0.21210231796558843
2520000000.0 -0.7446919278777815 0.0952958486027016
2540000000.0 0.6960141011737283 0.2823685017061723
2560000000.0 -0.3235702194572238 -0.6695944558574436
2580000000.0 -0.34433167417039945 0.6420499831317119
2600000000.0 0.6995129942230203 -0.08312294724017714
2620000000.0 -0.47561971310452045 -0.47739348655624375
2640000000.0 -0.575113074774773 -0.2759693052643919
2660000000.0 0.05401721500692365 0.5908962994258289
2680000000.0 0.4524409867242757 -0.3099519733229901
2700000000.0 -0.4735498797976245 -0.16841760492942495
2720000000.0 0.20538778807434627 0.4082512258987544
2740000000.0 0.17648699065295215 -0.37493844652738645
2760000000.0 -0.34494076907372123 0.1519989094250653
2780000000.0 0.32164312963013936 -0.1290151476855184
2800000000.0 -0.30553755037078784 0.09985031994512009
2820000000.0 0.1771711568177881 -0.24726227703764314
2840000000.0 0.0509130208789863 0.28949994163989695
2860000000.0 -0.2579497679098228 -0.12879567168111833
2880000000.0 0.2523242603660888 -0.1376274065488381
2900000000.0 -0.08829397602422387 0.2723358178494647
2920000000.0 0.2634447924827712 -0.12038979568461747
2940000000.0 -0.27968700542283 -0.09046416572626319
2960000000.0 -0.22063563696782454 0.1989897138155762
2980000000.0 -0.12830204658203959 0.2722835869410763
3000000000.0 -0.27134332992365967 0.13543150483677285
3020000000.0 -0.27526538791720445 -0.13098101307612353
3040000000.0 0.23977506558508033 -0.18411345231246753
3060000000.0 -0.023480196624840938 0.30042684071675607
3080000000.0 -0.07514297689540513 -0.28774073245200527
3100000000.0 0.1929285833396574 0.2202931296424145
3120000000.0 -0.18444786995753265 -0.2173158885971432
3140000000.0 0.27708024287398736 -0.018743759884644263
3160000000.0 -0.18322040686055316 0.18998492518387913
3180000000.0 0.2477853655487276 0.004033600497430217
3200000000.0 -0.06549408014732874 0.21625000163392413
3220000000.0 -0.18442432427995412 -0.0802871580269535
3240000000.0 0.1003242096102296 -0.13970203988938792
3260000000.0 -0.022540719828582256 0.1367938225387371
3280000000.0 0.023468068158750188 -0.10489702457732358
3300000000.0 -0.05741658142883063 0.054042719593686867
3320000000.0 0.03693672821291708 0.03788115250982112
3340000000.0 0.017288874311710122 0.02326036612322071
3360000000.0 -0.008120606150702862 0.006216254698845351
3380000000.0 0.0045256749836084745 -0.004290069706039517
3400000000.0 -0.019035238218461387 0.006241380506193665
3420000000.0 0.02241816438678847 0.0232207265288335
3440000000.0 0.01456636883319741 0.03974616146737396
3460000000.0 -0.05061765350282496 0.0009292076988249613
3480000000.0 0.05890549715517424 -0.018601293237533904
3500000000.0 0.07546302943060726 -0.00590187085034824
3520000000.0 -0.0551174680819463 -0.07275183899191558
3540000000.0 0.10576446281837039 0.005069133953476898
3560000000.0 -0.08800985816835445 0.08159645405548438
3580000000.0 0.10323488730479648 -0.08497912974337535
3600000000.0 0.050304213104942985 0.144389666512011
3620000000.0 -0.04146367803767406 0.15972874163822962
3640000000.0 -0.15784017575288897 0.07999768754590746
3660000000.0 -0.18542713903705857 -0.01547821771704034
3680000000.0 -0.15263165286765534 -0.11460840703221763
3700000000.0 -0.08850140197115991 -0.16834035546273063
3720000000.0 0.1525286894711216 -0.1119913815704219
3740000000.0 0.18293975641870205 -0.02268825138180937
3760000000.0 -0.1760198362837429 -0.02463064296924203
3780000000.0 0.16608221774417714 0.035522847368427785
3800000000.0 0.08956256695109278 -0.13264596347699958
3820000000.0 -0.007568398841014859 -0.1526834249174124
3840000000.0 0.14225828691267942 -0.038204366826274434
3860000000.0 0.04873439436535252 0.1406793460936282
3880000000.0 0.03568998876666008 0.15165780408357724
3900000000.0 0.11841514527206426 -0.10722566840198633
3920000000.0 -0.14950412688168555 -0.06776120429819736
3940000000.0 0.16112797058228115 -0.05032976438462948
3960000000.0 0.12805949545709075 0.11634126880959042
3980000000.0 0.1559939412062223 -0.07664068802404118
4000000000.0 0.08360666831471665 -0.1437719791829885
