! Created with skrf (http://scikit-rf.org).
# Hz S RI R 50.0 
!freq ReS11 ImS11
400000000.0 -0.8538513579526146 -0.01835438282335495
420000000.0 -0.03847413010250665 0.8568893291271588
440000000.0 0.8104793799677105 0.16962088340785733
460000000.0 0.7658306403489099 -0.13796419615797995
480000000.0 -0.22946928564664565 0.6786989892938791
500000000.0 0.49391094823074844 0.32229204650574006
520000000.0 0.26641660428645486 -0.44840165990599096
540000000.0 0.44356572178811704 -0.07682465300157969
560000000.0 -0.3628415463555474 -0.17487721496027278
580000000.0 -0.15315573984872877 -0.3196008426196201
600000000.0 -0.2945624407871009 -0.22257144417807903
620000000.0 -0.23526567248121827 -0.29335193757574773
640000000.0 -0.0648001183730723 -0.38443060537131946
660000000.0 -0.37767379131092216 0.15797250531144513
680000000.0 0.09965118760685339 -0.40028352147854285
700000000.0 -0.40369284188351595 -0.12933766850102987
720000000.0 -0.4039327386407361 -0.08374614010050947
740000000.0 0.3751760579028779 0.1798648337472417
760000000.0 -0.37461010026367886 -0.11798690517712632
780000000.0 -0.07160191388527291 0.3524715768229959
800000000.0 0.17499446106459562 -0.2712904632471653
820000000.0 -0.1907890729552161 -0.19775102829314134
840000000.0 -0.21286860990007786 0.11885070967982467
860000000.0 -0.18944709441061422 -0.06218580111740293
880000000.0 0.1613146066675738 0.02469759293571673
900000000.0 -0.09344412699863489 -0.054396765464504476
920000000.0 0.04561705535691102 -0.05589369090551004
940000000.0 0.030553081387946216 0.041464387770885125
960000000.0 -0.044939839368629254 -0.0225021702864695
980000000.0 -0.041973434504122165 0.052558484773433466
1000000000.0 -0.03337390953844084 -0.07789495425812601
1020000000.0 0.07440267277840931 -0.06906477370683356
1040000000.0 0.1237904288726528 0.009722048613361501
1060000000.0 0.12241065263539666 -0.09251989429168633
1080000000.0 0.11378570249505499 0.1367903586141932
1100000000.0 -0.17258771556098976 0.09413800344127043
1120000000.0 0.01956246208145 0.21951180570032439
1140000000.0 -0.20450069975578675 -0.14886209122349103
1160000000.0 0.021418988812086082 -0.28083426281315677
1180000000.0 -0.09256767315659055 -0.3038789425679478
1200000000.0 0.34033114668544967 0.012562289594585286
1220000000.0 -0.2925380751065454 0.22635962065153317
1240000000.0 0.3339961918874231 0.1931103017149083
1260000000.0 -0.029894036639933286 -0.41277959864425323
1280000000.0 -0.3099391544852827 0.29112830069202433
1300000000.0 0.27992281429930976 0.3392721500806461
1320000000.0 0.33354958162051535 -0.28119581968643165
1340000000.0 0.4381253256661015 -0.005727600883468874
1360000000.0 0.35919315498347115 -0.2492942826870443
1380000000.0 0.2226076961996065 -0.3787553595095979
1400000000.0 -0.4248966247908486 0.03942615124073479
1420000000.0 0.03016084005245957 0.407993931654048
1440000000.0 0.30704014409111213 -0.23093961997315704
1460000000.0 -0.02844917304451045 -0.3512407209291671
1480000000.0 -0.29209827211444206 0.13320055481945658
1500000000.0 -0.0631389487264261 0.2815055092926033
1520000000.0 0.1212260174672606 0.22752366682589173
1540000000.0 -0.18716865263958812 -0.12984275498609638
1560000000.0 0.1685010731165932 -0.09778368643465074
1580000000.0 0.06655193075147287 0.14981155617221914
1600000000.0 0.12571039025840514 0.048514146954196063
1620000000.0 0.07560441539268341 0.06937447000048531
1640000000.0 -0.05499534307769225 -0.05664842174637645
1660000000.0 0.017471628403358173 -0.05152134649480381
1680000000.0 -0.02524330284102749 0.023583366594000434
1700000000.0 -0.018549665250905237 0.008201461923709314
1720000000.0 -0.0024555816097505583 0.004837057880188903
1740000000.0 0.013028130848949833 0.009529270761469174
1760000000.0 -0.00038288572522205875 0.03202050457303125
1780000000.0 0.01849150980540315 -0.0582735182516195
1800000000.0 -0.0842697437154499 0.043848173154714905
1820000000.0 0.006525787572672042 0.12646433476909202
1840000000.0 0.10554042808937006 -0.12536549234710964
1860000000.0 -0.12733712205145542 0.15802717692478505
1880000000.0 0.1818397621083389 -0.15937609623147994
1900000000.0 -0.23593373182034655 0.16013923923706685
1920000000.0 0.13284417504965795 -0.29194368383380553
1940000000.0 -0.3023749496188058 0.1814182615424395
1960000000.0 0.37881986880585256 0.020744755867991335
1980000000.0 -0.0497202991427704 -0.3942709819514162
2000000000.0 -0.40274927914170006 -0.10216184859176992
2020000000.0 -0.19735742701143327 0.3784295878109127
2040000000.0 0.20879281237180505 0.3808603963779535
2060000000.0 0.4334024574780829 -0.05009654959406841
2080000000.0 0.270523131677381 -0.3378556844054633
2100000000.0 -0.02868945220946301 -0.4246442752893289
2120000000.0 -0.15072739205809893 -0.3899052513535378
2140000000.0 -0.3538913405515475 -0.20051226373915002
2160000000.0 0.08816813625940621 -0.38436327421765204
2180000000.0 -0.2376512877115436 -0.29781822123542606
2200000000.0 -0.36396423656423477 -0.05517742690631434
2220000000.0 -0.2660721760894912 0.2406065046190674
2240000000.0 0.05941669555495459 0.34815873111877615
2260000000.0 0.22978453432922138 0.26921115297409776
2280000000.0 0.35697318362266606 0.008114572070589911
2300000000.0 0.18802372701422526 -0.3205380761099541
2320000000.0 -0.32343221571227565 -0.22740224733828737
2340000000.0 -0.12622766917695696 0.4093334830458858
2360000000.0 0.3523570998507147 -0.3074821132418279
2380000000.0 -0.4556298770291266 0.239606298843185
2400000000.0 0.4403549882500628 -0.35330714235481164
2420000000.0 -0.1529033716539437 0.595136634634945
2440000000.0 -0.37119135190367997 -0.5453001921734771
2460000000.0 0.6711116342010112 0.1874817951146709
2480000000.0 -0.7069798046956111 0.1626323606084154
2500000000.0 0.7158038543515408 -0.19735589418379607
2520000000.0 -0.745347179549536 0.0880218479340742
2540000000.0 0.6958490720727035 0.2835511262487934
2560000000.0 -0.298318622320114 -0.6824344585461695
2580000000.0 -0.4155058462735849 0.5992772745092702
2600000000.0 0.7029994772473468 -0.04628233193423848
2620000000.0 -0.3540862463282957 -0.5739206596346519
2640000000.0 -0.5537948653692372 -0.31676837881190645
2660000000.0 0.005255516732794407 0.5928184263294254
2680000000.0 0.46128187324048475 -0.29677074135665327
2700000000.0 -0.46664099734322445 -0.18725417617462306
2720000000.0 0.2050810295246357 0.4083792034210442
2740000000.0 0.17778072936130446 -0.37404526845789715
2760000000.0 -0.34685637356544574 0.14730044247551996
2780000000.0 0.31875262115829006 -0.13512059500212917
2800000000.0 -0.30071292645964365 0.11244700442466624
2820000000.0 0.158136134618261 -0.25930220075775234
2840000000.0 0.09195788492729225 0.2789870896695075
2860000000.0 -0.2762351677860716 -0.08534995205090862
2880000000.0 0.21569237549398787 -0.19081411594128572
2900000000.0 -0.0854597430417832 0.27417847167874104
2920000000.0 0.26728371455708316 -0.11557400954342464
2940000000.0 -0.27582876961554714 -0.10691487174202255
2960000000.0 -0.24769681176402245 0.16599312540967776
2980000000.0 -0.21639034978080557 0.20959736238394786
3000000000.0 -0.30155836878221054 0.044713905783701505
3020000000.0 -0.20349023870560334 -0.22863185640546166
3040000000.0 0.2914002911861723 -0.08217586868744799
3060000000.0 -0.12593422734974638 0.27391600188264015
3080000000.0 0.033717395358563655 -0.2957377765946594
3100000000.0 0.09206091964674196 0.2780418778540989
3120000000.0 -0.09223807599574549 -0.26941011369055423
3140000000.0 0.2626126352582972 0.08692258239095718
3160000000.0 -0.23938492694877211 0.10749816302859183
3180000000.0 0.23800798521607064 0.06278761777417703
3200000000.0 -0.08706744353973361 0.20646869006548615
3220000000.0 -0.17294127227225065 -0.09851246694889447
3240000000.0 0.09165636986988682 -0.14307789018266398
3260000000.0 0.01018332078134536 0.1365815516844286
3280000000.0 -0.008702339819258977 -0.10633364671626737
3300000000.0 0.0026499475829177056 0.07768787887534849
3320000000.0 0.04217209758016958 -0.030074145139335522
3340000000.0 -0.02739238064784555 -0.007715198748655961
3360000000.0 0.005605940261037687 0.007876517172044187
3380000000.0 0.0006207711625751683 0.008187567112813928
3400000000.0 -0.020375853543908196 0.001387468183531372
3420000000.0 4.836348438750394e-06 -0.03219184046357621
3440000000.0 0.004250102687958439 -0.04294518605946617
3460000000.0 0.050000399445105176 -0.0062756591508352335
3480000000.0 -0.020512552809971257 0.05827406254666007
3500000000.0 0.0077164823401548776 0.07508842966565529
3520000000.0 0.033703818685191504 -0.08500950411778108
3540000000.0 0.047112625747415045 0.09539148470554161
3560000000.0 -0.11884770056193826 -0.015324640055923919
3580000000.0 0.12771343042523495 0.03631519310645186
3600000000.0 -0.08031225641348726 0.1285855005703486
3620000000.0 -0.13020344624078053 0.09912641022782291
3640000000.0 -0.17489960651182412 -0.009354241865587832
3660000000.0 -0.1628260447289383 -0.08614352152907417
3680000000.0 -0.11866777583811192 -0.1474591626479494
3700000000.0 -0.05823164995468823 -0.1793374816317742
3720000000.0 0.13767621560636087 -0.12696111905788673
3740000000.0 0.17569691570705404 -0.05068608922418759
3760000000.0 -0.1760966714209126 0.00554717437283524
3780000000.0 0.1673914203364009 -0.010234332534829216
3800000000.0 0.028913730172654938 -0.15544269496926133
3820000000.0 -0.05528697910847276 -0.1412040485977081
3840000000.0 0.12038416747519749 -0.08291288263378079
3860000000.0 0.08095983217785642 0.12417468671476842
3880000000.0 0.10513398647015963 0.11397585322808018
3900000000.0 0.11134547422875425 -0.11362810495928513
3920000000.0 -0.16296551363513495 -0.015750520184976996
3940000000.0 0.13822486494640582 -0.09608989524485194
3960000000.0 0.15210331478757388 0.08167393818690247
3980000000.0 0.1503958079490433 -0.08711011418351218
4000000000.0 0.11276419714942786 -0.12171210128969859
