! Created with skrf (http://scikit-rf.org).
# Hz S RI R 50.0 
!freq ReS11 ImS11
400000000.0 -0.0736866425375807 0.8677244235002709
420000000.0 0.3878620944035733 0.7697823539083761
440000000.0 0.820244847481816 -0.12930278072076476
460000000.0 0.32302096200460606 -0.7242802770199892
480000000.0 0.6557650331048313 -0.28672402581280704
500000000.0 -0.04062909862278367 -0.5695623870302795
520000000.0 -0.15106425930695833 -0.469481255549493
540000000.0 0.2983054091389137 -0.3152344300043726
560000000.0 -0.32916080285878857 0.14172565964795084
580000000.0 0.048556767121663104 0.3359172114139724
600000000.0 0.2907979695577903 -0.1701348686400121
620000000.0 -0.3111891670638133 0.17718743817960367
640000000.0 0.15649500958488122 0.3551637858060352
660000000.0 0.401053593386529 -0.01673091492843825
680000000.0 0.040290962029048076 0.41854610723216434
700000000.0 0.23887488090018136 -0.3604442050007138
720000000.0 -0.2788496664193826 -0.323356181685323
740000000.0 0.39663288582323225 0.13418372594299144
760000000.0 0.1040892740527049 -0.3890057789942163
780000000.0 0.12948318700030237 0.34884049381583815
800000000.0 0.1144812974711945 -0.32485174617787077
820000000.0 0.2922749863285108 -0.03818291479102514
840000000.0 -0.014231802566629675 -0.24732822488528675
860000000.0 0.1618685580782474 -0.1409520646372318
880000000.0 -0.06847639399604477 0.14289352868987623
900000000.0 -0.06219621485048827 0.07095926818224751
920000000.0 -0.050777761250220536 0.03759002570346292
940000000.0 0.03608291232595371 0.031194632705751058
960000000.0 0.032440191285521607 -0.042524858981292865
980000000.0 0.05076233462216425 0.050241000475086846
1000000000.0 0.006351121838225267 -0.07981756429166731
1020000000.0 -0.023146650780958202 0.09569252949025489
1040000000.0 0.10139824671265049 0.04312966724626815
1060000000.0 -0.07348627125510421 0.1252095134874683
1080000000.0 -0.155732017294859 -0.03431032227907336
1100000000.0 -0.1357166144307257 0.1184083133380293
1120000000.0 0.16367369338999313 0.11925201269206627
1140000000.0 0.1906778858916976 -0.13487444455277506
1160000000.0 0.26767837723203697 -0.035396259024106265
1180000000.0 0.278624189302221 0.1302054512138495
1200000000.0 -0.08343369909111557 0.3290999364659834
1220000000.0 -0.023194528094316165 -0.36629893112798967
1240000000.0 -0.16694742902329862 0.3582026209558186
1260000000.0 0.409896120976717 -0.10680889826446349
1280000000.0 -0.4393930346621581 0.06571678118994606
1300000000.0 0.42654024728832407 0.16608515281087918
1320000000.0 -0.18125529089913986 -0.41546575634427224
1340000000.0 -0.3657356365691016 -0.2521096320580967
1360000000.0 -0.32312797705957547 -0.288678873250672
1380000000.0 -0.34431744933884356 -0.25353857785059564
1400000000.0 -0.40059634427853374 0.10470694177229403
1420000000.0 -0.016866257071109576 0.3963414507763336
1440000000.0 0.3230296488972326 0.1818150919506185
1460000000.0 0.2176285449613028 -0.26544967188176666
1480000000.0 -0.13522579602054985 -0.28140896315391806
1500000000.0 -0.2690766038698463 -0.08517820922084536
1520000000.0 -0.25551407177997176 -0.003964708841619388
1540000000.0 0.19540788237340356 -0.11670303952007764
1560000000.0 0.0015583445604469516 0.19653843142196123
1580000000.0 -0.15361303611639887 -0.07953923360318918
1600000000.0 0.010137781573648624 0.14601463768635584
1620000000.0 0.1181069785671151 -0.0100501665566689
1640000000.0 0.08099630387889092 -0.051273571697629444
1660000000.0 -0.058860287137178814 0.040407909622104166
1680000000.0 0.020784213020295643 0.0432501492541858
1700000000.0 -0.023524025649737584 -0.016131717326209768
1720000000.0 -0.01059306416914357 0.006184791953907483
1740000000.0 0.0023023669542579736 0.020222574689833368
1760000000.0 -0.016854797817582978 -0.03960541581481277
1780000000.0 0.012447903321396229 0.07552266525848997
1800000000.0 0.027708065160869277 -0.11060562276113686
1820000000.0 0.049048458221460374 -0.13869907613001095
1840000000.0 0.12452158306111977 0.12932504534740175
1860000000.0 -0.20980864420906115 -0.021474254571039027
1880000000.0 0.06991925105254171 0.23036105132708845
1900000000.0 0.23328522945131405 -0.14513766845129278
1920000000.0 -0.19818281614629105 -0.2321445920362741
1940000000.0 -0.33455409131026254 0.040369843944772756
1960000000.0 -0.024528790230236505 0.3666576531680317
1980000000.0 0.3919537108097873 -0.016828210089845873
2000000000.0 0.09799697272502238 -0.4027131265017638
2020000000.0 -0.429729349747717 -0.013032978559011575
2040000000.0 -0.06879569175980144 0.43165089673442336
2060000000.0 0.4329007574002855 0.06661355877653258
2080000000.0 0.31083100477799946 -0.30266894015944124
2100000000.0 0.06332463730301761 -0.42221849155482677
2120000000.0 -0.13109655182808216 -0.39657032373525813
2140000000.0 -0.38631248572337057 -0.1264102949873352
2160000000.0 -0.1533224434616757 -0.36072249579526244
2180000000.0 -0.3601460236792914 -0.10374886831989268
2200000000.0 -0.2953728007386621 0.20560902430381917
2220000000.0 -0.21005668002169306 0.2750143365647627
2240000000.0 -0.027931063053270904 0.33924643728436626
2260000000.0 0.032227177465379765 0.33886904688094033
2280000000.0 0.09047200567147305 0.33368200305615664
2300000000.0 0.359883529418754 0.038480555152760866
2320000000.0 -0.04062205578321812 -0.38633004177091906
2340000000.0 -0.3666549904988743 0.20890850788159576
2360000000.0 0.463102383539323 -0.031547391618135676
2380000000.0 -0.5102290530977888 -0.001662657825820918
2400000000.0 0.5591147704478369 -0.026228026116659618
2420000000.0 -0.5485149313105508 0.2680873414629404
2440000000.0 0.3184923880855515 -0.5764324091945727
2460000000.0 0.10761050801858214 0.6896852570254841
2480000000.0 -0.4273692831035416 -0.5891291117830371
2500000000.0 0.46998821969265003 0.5813671507812095
2520000000.0 -0.2873742774805795 -0.7010572515758602
2540000000.0 -0.05070075256217037 0.7573595003985096
2560000000.0 0.5528758696804208 -0.5104300731051371
2580000000.0 -0.7128853522054992 -0.18906900335065766
2600000000.0 0.293758894723055 0.649708164685921
2620000000.0 0.3119879331315927 -0.6063201215836863
2640000000.0 -0.008309073029458292 -0.6442760832089298
2660000000.0 -0.468067948505621 0.37446871516777613
2680000000.0 0.5344533900041937 0.13288908092822643
2700000000.0 -0.186938532796581 -0.46793742520620046
2720000000.0 -0.2673229669075338 0.36986988865378273
2740000000.0 0.4147467860100267 0.009914832753439223
2760000000.0 -0.31893466127617903 -0.20392310359855725
2780000000.0 0.33035847832758164 0.11849062542915159
2800000000.0 -0.30945260434016764 0.10736164742318255
2820000000.0 -0.0224274624152238 -0.3107236139096577
2840000000.0 0.29888611404829724 0.027068053024114153
2860000000.0 -0.10227170722435458 0.2769045989709914
2880000000.0 -0.2264819843901668 -0.18483343445181352
2900000000.0 0.27081962434410684 0.10838562973878726
2920000000.0 -0.038870847140960854 -0.2914616109977255
2940000000.0 -0.2929671925181569 0.058577107711566226
2960000000.0 -0.19393677428678607 0.22963514063607918
2980000000.0 -0.2676331879562958 0.14731565728902812
3000000000.0 -0.279188851781843 -0.13624629635139143
3020000000.0 0.03708804134538513 -0.3108821273248776
3040000000.0 0.2475392316697399 0.1893439080466557
3060000000.0 -0.30063517304837517 0.07647595306433354
3080000000.0 0.220920574065665 -0.21095559589124416
3100000000.0 -0.05658700550749194 0.29435616075332155
3120000000.0 -0.003803500152164793 -0.2907464144075248
3140000000.0 0.14531689945376342 0.2409699230360328
3160000000.0 -0.2579964472404493 -0.07207444121489107
3180000000.0 0.1448929608001803 0.2050932158622158
3200000000.0 -0.19610661264634885 0.11645271178235543
3220000000.0 -0.15218759101793447 -0.130298661977846
3240000000.0 0.14418612069656372 -0.0874871946942861
3260000000.0 -0.1232461464475067 0.05281011407763332
3280000000.0 0.05187166118676792 0.0887325850087262
3300000000.0 0.07531601838582302 0.004335214488544784
3320000000.0 0.03515751117156164 0.03657356387453854
3340000000.0 -0.03008906379882436 -0.00043178484365606905
3360000000.0 -0.008442033872978883 -0.009271052744120533
3380000000.0 0.003560406022709248 -0.001710928434913752
3400000000.0 0.018059822351491145 0.007812420070500616
3420000000.0 0.034874205166527665 -0.008749601399128297
3440000000.0 0.040809136681473186 0.029024205411046822
3460000000.0 -0.020023341221497272 0.055277159096865015
3480000000.0 -0.011660383554855894 0.06719775404003883
3500000000.0 0.03780712284696864 0.06879023135634302
3520000000.0 0.07792524966960582 0.04692798328478539
3540000000.0 0.05258779959114395 -0.09034635973868059
3560000000.0 -0.10151207087902253 0.06125129035642739
3580000000.0 0.11677525395771268 0.06688721560085283
3600000000.0 -0.07628233004185557 0.1358649997621329
3620000000.0 -0.09802733216991287 0.1394510469287308
3640000000.0 -0.14525125554320015 0.10960327670531539
3660000000.0 -0.09445364912536135 0.16670834146080776
3680000000.0 -0.14624845800951855 0.12718285905931653
3700000000.0 -0.1923211881029295 -0.0034870348504910218
3720000000.0 -0.05386331831234507 -0.18227125902758232
3740000000.0 0.15160976848071953 -0.10516185626364317
3760000000.0 -0.1765396069337603 0.024504391381491773
3780000000.0 0.16903141091260243 0.020809728202395083
3800000000.0 -0.003805864333246196 -0.16257813021353587
3820000000.0 -0.14023533470554364 -0.06701283802607172
3840000000.0 -0.035556269507817186 -0.14473674116373042
3860000000.0 0.1491890756526526 0.010532883675127384
3880000000.0 0.15469684925422283 -0.010060962197717878
3900000000.0 -0.020644732336659748 -0.15627820078725307
3920000000.0 -0.13340987686495911 0.09218674904959907
3940000000.0 0.06153185659960071 -0.15513822442043407
3960000000.0 0.1718331722853132 0.006914990589407782
3980000000.0 0.1391719562483589 -0.10309531024921945
4000000000.0 0.1536190810222367 -0.06479818927333358
