! Created with skrf (http://scikit-rf.org).
# Hz S RI R 50.0 
!freq ReS11 ImS11
400000000.0 0.2349605266839993 0.8409823602194259
420000000.0 0.6591988753540949 0.5519967711261407
440000000.0 0.7920075076956832 -0.22764667441524022
460000000.0 0.21646551641442818 -0.7565810522029559
480000000.0 0.6716648643492115 -0.201761516259327
500000000.0 0.5630098181167457 -0.04172902481495465
520000000.0 0.411018183921395 -0.2753254558142098
540000000.0 0.3517892849083697 0.2509402050097412
560000000.0 -0.2933319061653736 -0.21395820954879594
580000000.0 -0.25128845286108137 0.2323963613081624
600000000.0 0.33849369569876103 -0.035900371370381316
620000000.0 -0.3508875302509075 -0.056603646259064895
640000000.0 -0.308226150156767 0.23137564371990257
660000000.0 -0.1287977906217066 0.37851941472066536
680000000.0 -0.35672492322653643 -0.2323528670622939
700000000.0 0.2899486050723708 0.3346927308402651
720000000.0 0.2091386847121136 -0.39351398446984026
740000000.0 0.43408144933065773 -0.07032960552197391
760000000.0 -0.40756886348202614 -0.09568770069305772
780000000.0 0.07560226670211016 -0.3770449234978908
800000000.0 0.17242239941298051 0.3013164030518925
820000000.0 0.20291882297448044 0.19902413965780522
840000000.0 0.17896502462795147 0.14199997499479716
860000000.0 -0.10285578994266585 0.16427979396760156
880000000.0 0.12248633971255311 0.04576171132531645
900000000.0 0.050320161779029586 -0.05121233460662211
920000000.0 0.04040702020478012 -0.004417531321299503
940000000.0 0.024525917980086694 0.007199758929716825
960000000.0 -0.02673673638652434 -0.02264098797129178
980000000.0 0.008681465437240446 -0.050466907159994336
1000000000.0 -0.05242045991586553 0.022817399484039297
1020000000.0 0.062342043482423115 0.03979013371839595
1040000000.0 0.07529113686884381 0.04331289204180603
1060000000.0 -0.12716212086450537 0.01350529560499369
1080000000.0 0.14280383412892164 -0.04032484855908863
1100000000.0 -0.02882478624436998 -0.17759535056356238
1120000000.0 -0.032197101684225814 0.20753913469625032
1140000000.0 -0.06292587990481777 -0.24277048459937853
1160000000.0 -0.27307047693067715 0.102805299097862
1180000000.0 -0.09760777601438898 0.31581452735932475
1200000000.0 -0.1293812944342935 0.33705115968565336
1220000000.0 -0.33327937875903313 -0.1946718352328947
1240000000.0 0.40572260541267824 0.023216698804355795
1260000000.0 -0.4028567136628433 -0.1458834136329102
1280000000.0 0.358096123303252 0.2557673855009999
1300000000.0 -0.05025737845315212 -0.4401260794285778
1320000000.0 -0.4333852048611902 0.01189742815479435
1340000000.0 -0.3524866020849108 -0.23326493787932123
1360000000.0 0.13889095126575496 -0.3903624900059496
1380000000.0 0.32982072697956916 -0.2528806913884554
1400000000.0 0.20660331787546002 -0.34976156911015843
1420000000.0 -0.1339984689474681 -0.37350995810126
1440000000.0 -0.3742440341341698 -0.06457653151303167
1460000000.0 -0.03866227649053058 0.3581175081709037
1480000000.0 0.24802917747925693 -0.22736549708258302
1500000000.0 -0.26491011184150687 0.15459669150145466
1520000000.0 0.27681769371278053 0.02309504891222043
1540000000.0 0.22012778645135966 0.10305043426723076
1560000000.0 0.1875605538756696 0.0710754440798726
1580000000.0 0.0591575015274935 0.1535956183354596
1600000000.0 0.0841687078003759 -0.09829847756815067
1620000000.0 0.07018067621652155 0.06037915865762509
1640000000.0 -0.013161093382557656 -0.0692652961185533
1660000000.0 -0.04209459747558171 -0.018919891661551915
1680000000.0 -0.023730120022577024 -0.006645992468463815
1700000000.0 -0.010186220004636965 -0.005414784234397767
1720000000.0 0.002638138378381962 0.011871647508927524
1740000000.0 -0.019449731487784117 -0.02098380440162979
1760000000.0 0.02225512514283628 -0.03735102511925374
1780000000.0 0.010768206875549798 -0.06876213791897243
1800000000.0 -0.03594290435136682 0.0908858977279335
1820000000.0 -0.11688220145366363 0.03853018393166383
1840000000.0 -0.02798949479203297 0.15444740476010405
1860000000.0 0.16652101620812226 0.09025425177946649
1880000000.0 0.19312510174615782 -0.12174143616351205
1900000000.0 -0.17558295137703597 -0.20772191330865478
1920000000.0 0.13444791860305166 0.28169917997421656
1940000000.0 0.0905245274541085 -0.3387939121973957
1960000000.0 -0.25995427089126794 0.28129286992155833
1980000000.0 0.3574620747498956 -0.19446073885151954
2000000000.0 -0.31273535652050055 -0.28837452601661206
2020000000.0 -0.09929208948988923 0.42437876429938226
2040000000.0 0.4091214420720623 0.15826468945480185
2060000000.0 0.2439910974888498 -0.3609890232972933
2080000000.0 -0.09669492398815399 -0.41570425470049077
2100000000.0 -0.09806748581636508 -0.4064580541565528
2120000000.0 -0.11334179930136645 -0.39209963967964023
2140000000.0 -0.15673084711557722 -0.3654205211708947
2160000000.0 0.3191801638131856 -0.21504775075275262
2180000000.0 0.19959863170073916 -0.3134699096738823
2200000000.0 0.07843818318078143 -0.3522308288903211
2220000000.0 -0.2712222576637837 -0.2264323953013142
2240000000.0 -0.29216158479373766 0.1896977802083938
2260000000.0 0.008488587933195468 0.347368362529307
2280000000.0 0.2253645864978275 0.2658628813067409
2300000000.0 0.2989941324738788 -0.2022945918010678
2320000000.0 -0.14085822856422175 -0.35547413855743265
2340000000.0 -0.38424427477845013 0.1523166383191553
2360000000.0 0.3622626335606881 0.27370483311047733
2380000000.0 -0.2973804710112211 -0.40465292371494216
2400000000.0 0.28529584518029244 0.47537112325347725
2420000000.0 -0.5107233107681602 -0.32945188776841255
2440000000.0 0.6546143037842365 -0.0621225298368235
2460000000.0 -0.51563185232625 0.4724669767804633
2480000000.0 0.23504175838009495 -0.6923679442201119
2500000000.0 -0.29395111733800633 0.6932759966762548
2520000000.0 0.39759498518775693 -0.6518882810228601
2540000000.0 -0.62588497746152 0.441324834455159
2560000000.0 0.7433726192288163 0.15667465335327208
2580000000.0 -0.3465722865094041 -0.6592967238170424
2600000000.0 -0.3506672950792298 0.6296410015422643
2620000000.0 0.6811796648267937 -0.10566890390913279
2640000000.0 0.48780277019727136 -0.43315985772730614
2660000000.0 -0.6041941961447117 -0.0713862707958051
2680000000.0 0.32143886462118093 0.4599505977707141
2700000000.0 0.015634759844844026 -0.5135222525070154
2720000000.0 -0.20529815088507022 0.41724302626319665
2740000000.0 0.36692213735470647 -0.2048620445639543
2760000000.0 -0.3774045355083438 0.05063329343088551
2780000000.0 0.32001146501844313 -0.14330136987493675
2800000000.0 -0.1994579983615494 0.2576176015627384
2820000000.0 -0.1231496679112654 -0.2837823929422334
2840000000.0 0.2964425597773968 0.042502642545008566
2860000000.0 -0.16830674833972975 0.24400685739857655
2880000000.0 -0.12799681425117976 -0.266754462165054
2900000000.0 0.1816375248161882 0.23509004378682216
2920000000.0 0.0843612360188978 -0.28941356882641456
2940000000.0 -0.3073900451754565 0.004941973878201588
2960000000.0 -0.17476535531736198 0.255292837911372
2980000000.0 -0.26249038537295405 0.1698886648566392
3000000000.0 -0.23886913669330032 -0.20614490569471097
3020000000.0 0.09826120770735138 -0.30134801593283955
3040000000.0 0.2229000204153092 0.22293205203462196
3060000000.0 -0.3127493302358531 0.03045164079112174
3080000000.0 0.282486700044003 -0.12576931689954818
3100000000.0 -0.20696294578347438 0.2210937911820808
3120000000.0 0.05917579780293282 -0.2888016829051816
3140000000.0 0.12184961005943892 0.25578237926090597
3160000000.0 -0.22570047593963097 -0.1426360820306368
3180000000.0 -0.03184834429439942 0.2469875587247607
3200000000.0 -0.17782146283280287 -0.13955266032997396
3220000000.0 0.16301277076201698 -0.11334786756166917
3240000000.0 0.001425946083464966 0.16880474105784554
3260000000.0 0.058159934494172526 -0.12433754488854448
3280000000.0 -0.05001701838629168 0.09407183453084872
3300000000.0 0.07647766354976052 -0.019694399448279706
3320000000.0 -0.05020189188472541 -0.010119811594017442
3340000000.0 -0.007376827722829667 -0.02604216060040016
3360000000.0 0.006052443308989695 0.0016880321617582597
3380000000.0 0.0040007559781191 -0.009579943569579837
3400000000.0 -0.022396632957655312 0.011255524430605141
3420000000.0 -0.011875977370102117 -0.03653802524679341
3440000000.0 -0.04027494548695289 0.028981190022697525
3460000000.0 0.03314210991688575 0.046399889718622994
3480000000.0 -0.028447757546986384 -0.05952674060927717
3500000000.0 0.0065153614090577875 -0.0786474735388516
3520000000.0 -0.08606658376572741 -0.04038113325902656
3540000000.0 0.09606759152340337 0.05535947633700058
3560000000.0 -0.11704554645096273 0.04317395630976102
3580000000.0 0.11331709026736812 -0.0809363034259716
3600000000.0 0.09754334949528594 0.12407750952936326
3620000000.0 0.01667309767292976 0.16853182915233322
3640000000.0 -0.1547278249777678 0.09261966939100331
3660000000.0 -0.18916111323389545 -0.011441802970821029
3680000000.0 -0.14123147800010705 -0.1330227339401044
3700000000.0 -0.10158742510761158 -0.16456800195090893
3720000000.0 0.07951972007657099 -0.17562584577196902
3740000000.0 0.1657285002051348 -0.08959247135406433
3760000000.0 -0.16049534652234124 0.08225341301729476
3780000000.0 0.16997064431643227 0.009168396227403822
3800000000.0 0.03813800959942588 -0.15581422800085018
3820000000.0 0.018602470841277037 -0.15217939169127606
3840000000.0 0.13538580432682773 -0.059282032164158956
3860000000.0 0.05386805173703408 0.13856215402735672
3880000000.0 0.08694805087213209 0.1290754160597798
3900000000.0 0.02711275523626444 -0.15621507569932058
3920000000.0 -0.13398370053118952 0.09227234208133414
3940000000.0 0.11031258247308039 -0.12376278550183076
3960000000.0 0.16080923702698716 0.05260842476987034
3980000000.0 0.14799322447001464 -0.0823925970994224
4000000000.0 0.14073417987349943 -0.08324253562516573
