! Created with skrf (http://scikit-rf.org).
# Hz S RI R 50.0 
!freq ReS11 ImS11
400000000.0 0.026019307916504798 0.8728034691414316
420000000.0 0.48677268187605915 0.710720080698555
440000000.0 0.8016096053791735 -0.20776318096396687
460000000.0 0.07741449834299632 -0.7874595244919405
480000000.0 0.44950904434062855 -0.5402563458733216
500000000.0 0.5033793049552597 -0.23211017400468864
520000000.0 0.4795109635349823 0.0838155795317493
540000000.0 0.04096013542676691 0.4333553986047946
560000000.0 0.24892680145680227 -0.2705331509080933
580000000.0 -0.33481196479105874 -0.11520957846456199
600000000.0 0.2326245591034261 0.270179847384493
620000000.0 -0.3744529539981676 0.06774427844678596
640000000.0 0.3782241203206639 0.16122991707629974
660000000.0 -0.1989519192198755 -0.3679624422964228
680000000.0 -0.09713442201944542 -0.41307009106913645
700000000.0 -0.38443961728836357 0.15580404115636923
720000000.0 -0.2703084248750262 -0.298363639633903
740000000.0 -0.27554835349392837 0.2934742086793731
760000000.0 0.2908481620960352 0.27188766988239255
780000000.0 -0.3773653077322075 -0.053313846455007585
800000000.0 0.35868422175818865 -0.037446627478453016
820000000.0 -0.025521374067286485 -0.31132921277325415
840000000.0 0.23406497948735164 0.09530050960100175
860000000.0 0.060584226564907744 0.20199088531267345
880000000.0 -0.11598031902104378 -0.09499624940578734
900000000.0 -0.05843037272742702 0.054207515629730474
920000000.0 -0.02826733838823737 0.0348873374065134
940000000.0 -0.02668048705147953 0.014099590697712648
960000000.0 0.0322459943478083 -0.013057215171894593
980000000.0 0.009248330523520507 0.04645862308289369
1000000000.0 -0.051036821991846615 0.02185678443714553
1020000000.0 0.0710036332956129 0.04137859035468038
1040000000.0 0.04270072327455106 0.09750695151332271
1060000000.0 0.07863408964110268 -0.13259987126663253
1080000000.0 -0.09214102423497632 -0.150643530509418
1100000000.0 -0.027351787971776453 -0.20598379334647135
1120000000.0 0.21671889597437127 0.0667321946660844
1140000000.0 -0.22115370950493946 0.12954846141932355
1160000000.0 0.021075069379677226 0.27640595563084225
1180000000.0 -0.27777497541512364 -0.11766621939538725
1200000000.0 0.3237601754749605 0.01144341393489728
1220000000.0 0.09268406896597914 -0.33669021997820847
1240000000.0 -0.34802264186651766 -0.15466974523789842
1260000000.0 0.041443623656169284 0.41540012508122043
1280000000.0 -0.010623405063881427 -0.44292599865136384
1300000000.0 -0.08494195591261737 0.45434989791104785
1320000000.0 0.05081832357359356 -0.4588199907195629
1340000000.0 -0.43383059996449286 -0.1311053688822396
1360000000.0 -0.41905301225510183 0.13027635517372635
1380000000.0 -0.28069928686330736 0.32472072844011723
1400000000.0 -0.07766203669247737 0.40125066444484003
1420000000.0 0.1867676638740848 0.33978117901159816
1440000000.0 0.10273814405293073 0.3494209424212388
1460000000.0 0.277145532323228 0.20189682064858894
1480000000.0 0.23320118230177964 -0.21836807237125955
1500000000.0 -0.21878268658013705 -0.19677831118580105
1520000000.0 -0.20630527630610757 0.169516134779395
1540000000.0 -0.11619533132795085 -0.20461974681093417
1560000000.0 0.19388599949694474 -0.03755206115060047
1580000000.0 -0.0783776626753311 0.14890947390906628
1600000000.0 -0.03998119057624725 0.131346119237856
1620000000.0 -0.07859272796083074 0.07462440756677804
1640000000.0 0.04536553030926397 -0.07443922574981574
1660000000.0 -0.03496779661187119 -0.05520359358854933
1680000000.0 0.038556438383485284 -0.021602532845217615
1700000000.0 0.02966767730337538 0.0001304016084476953
1720000000.0 0.012219124194190367 -0.0045949648367086884
1740000000.0 -0.004606012812849509 -0.017177571805505998
1760000000.0 -0.0228097339279212 0.033739785280404944
1780000000.0 -0.01169131034896326 0.07402112260654513
1800000000.0 0.03370131360816577 0.10765060236139687
1820000000.0 0.14456683932299763 -0.023920261336404545
1840000000.0 0.17458412622248576 0.03624770168796307
1860000000.0 -0.18130221485941847 0.09917442083912568
1880000000.0 0.11918636391733077 0.2020801703533787
1900000000.0 0.2693337171722326 -0.003989740241361621
1920000000.0 0.00045627611768859626 -0.3035333984181597
1940000000.0 -0.30744992333766163 -0.14278843762749696
1960000000.0 -0.044923990433829275 0.36853563938892175
1980000000.0 0.3635337845131849 -0.1588426358773557
2000000000.0 -0.07099649703321291 -0.41144523618766476
2020000000.0 -0.4122219653831702 0.12767630851743061
2040000000.0 -0.028205944422414284 0.43620512520201116
2060000000.0 0.4021461784690709 0.1767732313785213
2080000000.0 0.3791462605900627 -0.21340744120077695
2100000000.0 0.23826540611836838 -0.3575718272648859
2120000000.0 8.343525893700011e-05 -0.420115701060879
2140000000.0 -0.30933736788250105 -0.267821950693941
2160000000.0 0.0337650969026818 -0.39083351081148354
2180000000.0 -0.19171793782520394 -0.3205473171178593
2200000000.0 -0.2884633266113201 -0.21181179416307372
2220000000.0 -0.31573765810197063 -0.14098296940627006
2240000000.0 -0.33684876817523707 0.055636326927357885
2260000000.0 -0.2773307113489349 0.1999893515883848
2280000000.0 -0.17162678427838335 0.30192605793608934
2300000000.0 0.33506128249478684 0.139442900609117
2320000000.0 0.05991078765461844 -0.38118722359596224
2340000000.0 -0.394654426929476 0.13267104270567928
2360000000.0 0.4165833005361775 0.1876074018607223
2380000000.0 -0.3688267060584593 -0.3437137736222811
2400000000.0 0.3700408615690054 0.416192610405111
2420000000.0 -0.5747462434833002 -0.20618768525551776
2440000000.0 0.6132720045924723 -0.24453794661466496
2460000000.0 -0.3242073099904226 0.621341439751841
2480000000.0 0.04659623476578437 -0.7306630036172339
2500000000.0 -0.08404058689793083 0.7480919608946114
2520000000.0 0.22478682740260392 -0.7293711886126505
2540000000.0 -0.5928658092941806 0.4840917412677307
2560000000.0 0.7592607008293739 -0.0005820446266367149
2580000000.0 -0.3984447891170749 -0.6291857603247133
2600000000.0 -0.2440066637370105 0.6778682993527754
2620000000.0 0.6527271100266228 -0.2226913069555252
2640000000.0 0.4247081016404729 -0.49491181248580646
2660000000.0 -0.6072458296665554 -0.01088656273934793
2680000000.0 0.31725505172015644 0.4600030645186862
2700000000.0 0.07300021523907256 -0.5066500006672103
2720000000.0 -0.3747561998371269 0.2748505105582697
2740000000.0 0.4215490916691124 -0.026818748407252256
2760000000.0 -0.36934458016518806 -0.10867559581783581
2780000000.0 0.3552479371377795 -0.025058618997350957
2800000000.0 -0.2620978191894103 0.20389078494588608
2820000000.0 -0.1426494574487456 -0.2799794560058801
2840000000.0 0.29391292682962467 -0.07102456616186005
2860000000.0 -0.06546083520742633 0.2894391621306551
2880000000.0 -0.10571469848973088 -0.2756076816320266
2900000000.0 0.10014689593349399 0.2783164311101401
2920000000.0 0.20148538837208085 -0.22097916051242605
2940000000.0 -0.2708694884782413 -0.13980285649572102
2960000000.0 -0.28522036320350136 0.1165019676791787
2980000000.0 -0.3052548314057919 0.0678080254116302
3000000000.0 -0.24186646490912322 -0.20108890893588272
3020000000.0 0.05094131984464344 -0.31059629723475324
3040000000.0 0.2898974732447027 0.11477943915752144
3060000000.0 -0.3078883647281331 -0.029723195778571018
3080000000.0 0.2789307951599203 -0.1259269628978313
3100000000.0 -0.23554842709630916 0.1859327734747424
3120000000.0 0.0765933293347027 -0.281943435001788
3140000000.0 0.07743203515160847 0.271728593472958
3160000000.0 -0.24150975944408057 -0.11438402106442908
3180000000.0 0.09306597541512573 0.2321578995415546
3200000000.0 -0.20804772318207396 0.09089867142935819
3220000000.0 -0.15187949200636267 -0.12981094818195726
3240000000.0 0.1082318094530892 -0.12889971871109668
3260000000.0 -0.03552988766128987 0.1285762185811233
3280000000.0 0.04514434674164091 -0.0899390474675739
3300000000.0 -0.04269428032752501 -0.05827614072896524
3320000000.0 -0.03544828862490727 -0.031470528057951065
3340000000.0 -0.014891142802432443 -0.02150493925076974
3360000000.0 -0.010303494923396071 -0.0013810612321994134
3380000000.0 0.00628420626916828 0.0005267183478967396
3400000000.0 -0.019823042032587782 -0.005809096972542836
3420000000.0 0.03658235945580785 0.0061668167555769425
3440000000.0 0.0020479011302606057 -0.051255270793414166
3460000000.0 0.05307557665905529 0.029683950106651917
3480000000.0 0.06981637428439348 -0.009503285488901857
3500000000.0 -0.06704166589452062 -0.045193189713725226
3520000000.0 -0.08748604415088516 0.029736723009509462
3540000000.0 0.10271190980435889 0.024523797314902163
3560000000.0 -0.048328960368944254 -0.10794064791994541
3580000000.0 -0.05822976106960892 0.12065830899568382
3600000000.0 -0.13179260165709528 -0.08168098743549557
3620000000.0 -0.15669346229903314 -0.0647295045150556
3640000000.0 -0.11749156706050767 -0.1379686943422171
3660000000.0 -0.18596658319120438 -0.04316339650791127
3680000000.0 -0.18622622481521725 -0.050612354287676374
3700000000.0 -0.18488695675041936 -0.04366170833859285
3720000000.0 -0.002583837384635468 -0.18643803610294496
3740000000.0 0.1695130205439229 -0.06305356524134001
3760000000.0 -0.17219744950358887 -0.023407015442726945
3780000000.0 0.11244465679047158 0.12237255958056904
3800000000.0 0.1459994686606684 -0.060731041580976745
3820000000.0 0.007789987310601966 -0.15242724356940116
3840000000.0 0.009809448927839524 -0.1475594096950295
3860000000.0 0.14607053065965298 -0.01958957901853742
3880000000.0 0.13067831546351114 -0.07642281155663098
3900000000.0 -0.07844131456180618 -0.1312555271687287
3920000000.0 -0.13002905750060975 0.08884465589861405
3940000000.0 0.15743321148698372 -0.04225492077675333
3960000000.0 0.047585112282702395 0.16199960927654072
3980000000.0 0.17138160242411726 -0.007265695760260555
4000000000.0 0.12949478666803158 -0.10578788628070566
