! Created with skrf (http://scikit-rf.org).
# Hz S RI R 50.0 
!freq ReS11 ImS11
400000000.0 -0.09111598343384432 0.8654286793364476
420000000.0 0.37903327436469053 0.7747446790337499
440000000.0 0.8211268694291526 -0.12571042315626985
460000000.0 0.3429308878249134 -0.7146940818455415
480000000.0 0.6656151508956194 -0.2628751676606201
500000000.0 -0.036040230811038874 -0.5714248068835556
520000000.0 -0.14671177267438001 -0.47041329652255476
540000000.0 0.30406853678677737 -0.3087323463333981
560000000.0 -0.3198331749415149 0.16321003696006095
580000000.0 0.05412017342410967 0.3343129434922081
600000000.0 0.2733903596212687 -0.1977617462064065
620000000.0 -0.32956422453928896 0.13893669557381005
640000000.0 0.10718585749842427 0.374041425686888
660000000.0 0.3981934135836345 -0.05135223253576597
680000000.0 -0.008667297170973129 0.41975759912738103
700000000.0 0.21968629042539792 -0.3729399916705579
720000000.0 -0.2403183395188723 -0.35287849521108966
740000000.0 0.3988291364866449 0.12895085904399167
760000000.0 0.11257821813548527 -0.38570810865134264
780000000.0 0.08564213154688387 0.362067394611366
800000000.0 0.11259770808622264 -0.3250727919411764
820000000.0 0.28811379124490666 -0.06268965525458296
840000000.0 -0.00796343986967967 -0.24739456949961722
860000000.0 0.15526388156613863 -0.1479271055105695
880000000.0 -0.07030634363581302 0.1422110474546412
900000000.0 -0.03734159822656627 0.08705116471952493
920000000.0 -0.06290676624046439 0.0035866843066387644
940000000.0 0.025605653720458484 0.040376114660225844
960000000.0 0.02236282415098777 -0.04913441537804217
980000000.0 0.05395712479573344 0.045970844223739316
1000000000.0 0.0314613407817787 -0.07386566759614065
1020000000.0 0.012934803790839125 0.09767234053908555
1040000000.0 0.10422406777361806 0.03616040890190649
1060000000.0 -0.04615946161385071 0.1372868211973167
1080000000.0 -0.1479138820239048 -0.059655197313503966
1100000000.0 -0.1340861246637548 0.12163064618516424
1120000000.0 0.1488399388527025 0.1370120903964865
1140000000.0 0.20591992267257972 -0.11098931680184436
1160000000.0 0.2702254780106627 0.003919622711931105
1180000000.0 0.24363805505982455 0.18672701835033007
1200000000.0 -0.07356155850422602 0.3321020456863632
1220000000.0 0.061953160798111966 -0.36115940748227165
1240000000.0 -0.1817898290523635 0.35068433184706044
1260000000.0 0.4137223784222299 -0.08598704116588562
1280000000.0 -0.43922203380150765 0.06748900374511743
1300000000.0 0.4285996287216142 0.15702043373881602
1320000000.0 -0.20436238922683822 -0.4047457860018175
1340000000.0 -0.38334585145919464 -0.22392416272685
1360000000.0 -0.32730646380158057 -0.28402288200558995
1380000000.0 -0.3783737844701457 -0.19926703608333476
1400000000.0 -0.39682814688161366 0.12030145375142931
1420000000.0 0.03745620680167053 0.3947768016541064
1440000000.0 0.3284881604462909 0.17307287302553329
1460000000.0 0.2174206509677849 -0.2660845826735185
1480000000.0 -0.14513126713499616 -0.27775513121683326
1500000000.0 -0.2724361401522099 -0.07702932470213013
1520000000.0 -0.25203322822771956 -0.04432648642150747
1540000000.0 0.20743224505575855 -0.09506251121866277
1560000000.0 -0.027873374772773563 0.19517426319724546
1580000000.0 -0.14707213439145683 -0.09169181545517303
1600000000.0 -0.05449963243476304 0.13556084633674081
1620000000.0 0.11853350168463965 0.003090072294809391
1640000000.0 0.0817639193288223 -0.04946338248968017
1660000000.0 -0.0633690520504403 0.03227286002562375
1680000000.0 0.02773172683587576 0.03827146563265995
1700000000.0 -0.020168989014601162 0.02022366331373133
1720000000.0 0.004285915784505862 0.01204476460093004
1740000000.0 -0.019814224440254644 0.007252918955370561
1760000000.0 0.0421160837771829 -0.007078134838830359
1780000000.0 -0.047383396561058055 0.0596848982820416
1800000000.0 0.05041079033830743 -0.10154371567464358
1820000000.0 0.09417441452517358 -0.1117926000897972
1840000000.0 0.11854883999755295 0.1340676549554982
1860000000.0 -0.20859997705710326 -0.022982832183033028
1880000000.0 0.06331425167717383 0.23162088984945234
1900000000.0 0.2228006706273777 -0.15936138436018657
1920000000.0 -0.19744928494122965 -0.2319419627657754
1940000000.0 -0.3284275912653735 0.07532131292990908
1960000000.0 -0.01234010007233778 0.36682752692253195
1980000000.0 0.38926173594835295 -0.0527636771208092
2000000000.0 0.08528409627615266 -0.405665025453119
2020000000.0 -0.430410816200254 0.01880158913214025
2040000000.0 -0.0600409104120611 0.43369192929735967
2060000000.0 0.4315644354290547 0.08093725359979878
2080000000.0 0.3049709287694496 -0.3099843528555702
2100000000.0 0.11954323296540122 -0.41148035223180407
2120000000.0 -0.1376834108018628 -0.39571514829847093
2140000000.0 -0.37934386607333503 -0.1499444125881299
2160000000.0 -0.10405874644786502 -0.37913072322512414
2180000000.0 -0.34718813634125795 -0.14449871827056018
2200000000.0 -0.33476892454369245 0.13547080107216627
2220000000.0 -0.23491308917843615 0.2549405062845496
2240000000.0 -0.12525500722317945 0.3174234558655838
2260000000.0 -0.04267558286398718 0.33853983453068615
2280000000.0 0.01724964416649479 0.34570215932783954
2300000000.0 0.3468705396452938 0.1061330061641611
2320000000.0 0.041760550606690365 -0.3863023845358422
2340000000.0 -0.3991396430042213 0.1373450103053148
2360000000.0 0.46038027981072804 0.057106234236349175
2380000000.0 -0.509246649855998 -0.03540718150439608
2400000000.0 0.5591553589111506 0.023461449440682517
2420000000.0 -0.5635454079652777 0.23475368222578225
2440000000.0 0.31720158410890725 -0.5772048870510283
2460000000.0 0.10489278527427788 0.6901933383050868
2480000000.0 -0.39799731677842776 -0.6103000898052454
2500000000.0 0.4267845338167605 0.6147346366269077
2520000000.0 -0.27316202202662815 -0.7077121052060815
2540000000.0 -0.07622247854390417 0.7563987160448058
2560000000.0 0.5758734196225535 -0.4863905034067262
2580000000.0 -0.7053465111429622 -0.2202990349037766
2600000000.0 0.2343828418815882 0.6756023988800981
2620000000.0 0.37788327292872015 -0.5701847001434457
2640000000.0 0.0668202459809481 -0.6428537319679128
2660000000.0 -0.5047061054151946 0.3273886515699996
2680000000.0 0.5341484603670712 0.1433962560816065
2700000000.0 -0.1457850348876157 -0.484464616577429
2720000000.0 -0.28732226918193443 0.35676504061093983
2740000000.0 0.41325405001515114 0.05094285873754386
2760000000.0 -0.29738310998040773 -0.23615694668436346
2780000000.0 0.32028297865105354 0.14690420223528275
2800000000.0 -0.3167437217722255 0.08862430051997698
2820000000.0 -0.003726118246868912 -0.3127324333798804
2840000000.0 0.29729114201384843 0.04935675330883664
2860000000.0 -0.11955974440256827 0.2712921485519255
2880000000.0 -0.21222381279082939 -0.2024967906083513
2900000000.0 0.26194816034937957 0.12969605053823294
2920000000.0 -0.006296946382137259 -0.2942607482933158
2940000000.0 -0.2957127564349694 0.04605272653265771
2960000000.0 -0.1991918344776989 0.2260250696131656
2980000000.0 -0.27481092839528637 0.13363881265132713
3000000000.0 -0.25637588053896604 -0.17583932429145477
3020000000.0 0.0629051564967842 -0.3070853298972305
3040000000.0 0.26521083066848494 0.16330841108247796
3060000000.0 -0.30132096609659287 0.07125970363478765
3080000000.0 0.24449949240089142 -0.18319021789691575
3100000000.0 -0.012451413608250141 0.2994672245671786
3120000000.0 -0.011315587373640853 -0.29015543516440034
3140000000.0 0.1605266497942357 0.2303875146632311
3160000000.0 -0.26160185042576306 -0.05707876088075021
3180000000.0 0.19380594823389513 0.15935172641838702
3200000000.0 -0.15900450172098907 0.16323028318099503
3220000000.0 -0.18540581327465872 -0.07392720177954039
3240000000.0 0.11187223499741303 -0.12707406080532935
3260000000.0 -0.05289191983827984 0.12325359261599776
3280000000.0 0.10271524665340422 0.008400618582786111
3300000000.0 0.05217526144377762 -0.05453313690327725
3320000000.0 0.050270578405265116 -0.01029030970662447
3340000000.0 0.02837779707227234 -0.010447101729724118
3360000000.0 0.012731587605198103 0.004641200210918167
3380000000.0 -0.001325744590022011 0.004461528157059144
3400000000.0 0.0031233094788276137 -0.018876246713923277
3420000000.0 -0.030645257279007822 0.01899862600472397
3440000000.0 -0.02745257836417081 0.0413611758373231
3460000000.0 -0.049051407046672976 -0.03161047765882661
3480000000.0 -0.06766137157467567 -0.0016008212308324507
3500000000.0 -0.030286261896356678 0.07237412179234483
3520000000.0 0.009200490903667815 0.08995387328015207
3540000000.0 0.09660384883553905 -0.040126936735237075
3560000000.0 -0.11789032553239114 -0.011290737559457323
3580000000.0 0.06101575237001142 0.11943130403267918
3600000000.0 -0.12809665211922838 0.08842966286765895
3620000000.0 -0.14234532140825684 0.09279175495571303
3640000000.0 -0.1769693920367292 0.04116381729725261
3660000000.0 -0.14889563507249415 0.11953431554614276
3680000000.0 -0.1827302894754382 0.060521474729381505
3700000000.0 -0.1839449010724933 -0.053471326443666735
3720000000.0 0.0016999627165732302 -0.1883866008848158
3740000000.0 0.16241956691949772 -0.0847046603851463
3760000000.0 -0.17518910226293632 -0.023781207117859464
3780000000.0 0.15843865172287372 0.059294024938042415
3800000000.0 0.03574044345624952 -0.15695204864860984
3820000000.0 -0.11818895771229611 -0.09905906376133633
3840000000.0 0.013925012088971261 -0.14689149930734288
3860000000.0 0.141264052029738 0.04293878503263154
3880000000.0 0.1524289916934694 0.014408724470651215
3900000000.0 0.010168659350737559 -0.15570899185460724
3920000000.0 -0.14277139328843158 0.07335402153999894
3940000000.0 0.09381403705204827 -0.13631403898719938
3960000000.0 0.1698181252161373 0.013360764276555602
3980000000.0 0.13306801166972046 -0.10804427142816787
4000000000.0 0.14854426663346665 -0.07336113208613655
