! Created with skrf (http://scikit-rf.org).
# Hz S RI R 50.0 
!freq ReS11 ImS11
400000000.0 -0.08742384184045941 0.8629159292195657
420000000.0 0.1281485168966422 0.8485881809357633
440000000.0 0.7407984476895904 0.3717315949669894
460000000.0 0.6274593654723758 -0.4789208177719645
480000000.0 0.20935658762702947 0.6797502254896652
500000000.0 0.554093635566726 0.19883608144656237
520000000.0 0.14737486604381844 -0.4904041060264488
540000000.0 0.3972687981659479 0.2247470030937731
560000000.0 -0.3092108266039961 0.23828762736547884
580000000.0 0.29696174504339423 -0.201767798641375
600000000.0 -0.30918983682866374 -0.19034561899021227
620000000.0 0.35791818185337726 0.11676838817969251
640000000.0 -0.044249451477876824 -0.3999525915949936
660000000.0 -0.31855404959148764 -0.26076297555642175
680000000.0 -0.019504502777509886 -0.421935817286619
700000000.0 -0.3834930231166539 0.18111663054343838
720000000.0 -0.3419224779395848 0.23358192317131274
740000000.0 0.4020121884888436 -0.06133101922819757
760000000.0 -0.09132338372739265 -0.38182816111093415
780000000.0 0.27082343349022464 0.2363051177181195
800000000.0 0.21694774553223686 -0.2356220043414687
820000000.0 -0.23493690302295292 0.1448570359841974
840000000.0 -0.19382548755358234 0.13908178868049295
860000000.0 -0.20498478344501586 0.029914759139014122
880000000.0 0.14619966288999256 -0.059215468797512445
900000000.0 0.08669920215181345 0.060988868941482616
920000000.0 0.020486091082010282 -0.07179163126156007
940000000.0 -0.03620687920264486 -0.03460038879435814
960000000.0 -0.04018376461081962 -0.03290986237891967
980000000.0 0.030838589105288743 -0.06161749193917727
1000000000.0 0.040366076944239104 -0.07381165348143226
1020000000.0 -0.03337631773714836 -0.10029364995379784
1040000000.0 0.11276691439195678 -0.04313751018577446
1060000000.0 0.15509978159359084 -0.020832819830379143
1080000000.0 0.16087503473158649 0.0675904798221079
1100000000.0 -0.1362754635470075 -0.14412110304409834
1120000000.0 0.16378277860570736 0.14720862450709893
1140000000.0 -0.019684900627974393 -0.2516501506674518
1160000000.0 -0.16275212099576855 -0.232156538601886
1180000000.0 0.019774259788769878 -0.31490902960340594
1200000000.0 0.32341450562207047 -0.1104252731663289
1220000000.0 -0.35892216898789575 0.05545665069498161
1240000000.0 0.2613430972415638 0.2837251381836506
1260000000.0 0.18557748710848826 -0.365567457847953
1280000000.0 -0.42167225856681995 0.07634685339760351
1300000000.0 0.12125447272125169 0.42291006168285356
1320000000.0 0.42846282153552584 -0.09840172827484803
1340000000.0 0.43089208786777566 -0.08106507088300544
1360000000.0 0.4170372550245794 -0.12862590905011964
1380000000.0 0.17191445991802956 -0.400337887806281
1400000000.0 -0.36148543387548415 -0.22087557945434913
1420000000.0 -0.054740815380486196 0.4022037635451499
1440000000.0 0.36945879745565124 0.09358200292666452
1460000000.0 0.01488198677748759 -0.35160518824802695
1480000000.0 -0.31189269040038475 0.0732831208266683
1500000000.0 0.029963543801056005 0.28506062694307466
1520000000.0 0.19198967138889445 0.16794225787687564
1540000000.0 -0.19871109216574187 -0.10547205862539076
1560000000.0 0.1457651615599473 -0.12308912849413157
1580000000.0 0.03775391853687561 0.15778009241518523
1600000000.0 0.12642470641274894 0.04362385742962886
1620000000.0 0.08682355394407726 0.054254230412383364
1640000000.0 -0.06203565154677286 0.04931519165261307
1660000000.0 -0.05413797287389592 0.002658131624014426
1680000000.0 -0.010426119922083834 -0.030956801935371134
1700000000.0 0.004443537287525119 -0.016554143077418614
1720000000.0 0.004961233290421239 0.005686707110232348
1740000000.0 -0.015134198329831509 -0.009674973092380629
1760000000.0 -0.022875401944504 -0.019892714202793718
1780000000.0 0.010753924444157906 0.056538600475295124
1800000000.0 0.00410697275619753 -0.09174569069985089
1820000000.0 -0.11569645510866004 -0.05141852328378529
1840000000.0 0.16708437513939564 -0.0005075792590487621
1860000000.0 -0.10138134792442673 0.1784826408277073
1880000000.0 0.08368851526574286 -0.22785431239295353
1900000000.0 -0.15325681975829264 0.2365737914574078
1920000000.0 0.18824599675907047 -0.25572313314873596
1940000000.0 -0.3498108824970394 0.0040257384595519426
1960000000.0 0.27852963576642215 0.2566887028326187
1980000000.0 0.035876427641304734 -0.39648790841817055
2000000000.0 -0.3706656405629444 -0.18644397115757974
2020000000.0 -0.2311774240341568 0.3572181530652345
2040000000.0 0.09816375920650368 0.41883791068221915
2060000000.0 0.40836554427416316 0.14270517165460028
2080000000.0 0.39810804444356257 -0.16119452075352753
2100000000.0 0.29184800345985984 -0.30793068470109386
2120000000.0 0.046333071053137956 -0.41347619126655816
2140000000.0 -0.2413281384351431 -0.3247877240464117
2160000000.0 0.1584983557066566 -0.3556589184701217
2180000000.0 0.012680774267246491 -0.37318294135324426
2200000000.0 -0.15810490859262577 -0.3241120859816132
2220000000.0 -0.31874255894583364 -0.14646965132393985
2240000000.0 -0.3043792768232456 0.16239739810373532
2260000000.0 -0.171152749445898 0.2977209872542403
2280000000.0 -0.07102516806918273 0.33879810130604
2300000000.0 0.30474209636382626 0.1906344835352991
2320000000.0 0.25996717782088935 -0.28000153939882844
2340000000.0 -0.35508827554811934 -0.2110783034210297
2360000000.0 0.01501411290624813 0.45328726721178103
2380000000.0 0.11883730704116216 -0.4875283937010754
2400000000.0 -0.12689200706112722 0.5397584899844404
2420000000.0 -0.18396501877571184 -0.5794108833502284
2440000000.0 0.5630522312893479 0.34068071391256527
2460000000.0 -0.6777960104209899 0.17286468604412475
2480000000.0 0.5138316466862104 -0.5214704419662007
2500000000.0 -0.5160577649792873 0.5496873459335171
2520000000.0 0.5581226032943745 -0.5248710662019753
2540000000.0 -0.745325534461485 0.18882050878872253
2560000000.0 0.6933766103866718 0.3199179969342497
2580000000.0 -0.15572303403217727 -0.7331127525343819
2600000000.0 -0.41013700236293493 0.5996461556276751
2620000000.0 0.6961655466669955 -0.037236331474470766
2640000000.0 0.5759170641435118 -0.322806590812791
2660000000.0 -0.589176843816232 -0.17846620297525584
2680000000.0 0.29765856038261546 0.48469147577756305
2700000000.0 0.04138033414738446 -0.5195138732156745
2720000000.0 -0.287567881197509 0.3743361441454516
2740000000.0 0.40131465519484527 -0.14795327614386802
2760000000.0 -0.3872055206775335 0.0023112511587783545
2780000000.0 0.3477022416200563 -0.07634630703140416
2800000000.0 -0.2906876871474027 0.15715723266258458
2820000000.0 0.004299318546537545 -0.3134108146745215
2840000000.0 0.2651903931768128 0.14571467573692157
2860000000.0 -0.2537822193664698 0.15609111136155154
2880000000.0 0.005759400976555221 -0.29709764347572654
2900000000.0 0.08242665907362648 0.2872750229989025
2920000000.0 0.149346650054067 -0.2635227612241291
2940000000.0 -0.30810945957049946 -0.02209867953455821
2960000000.0 -0.1497279225111015 0.27206724093219464
2980000000.0 -0.2154325979736641 0.22952997618150114
3000000000.0 -0.31798154120571254 0.006591657535309266
3020000000.0 -0.07059939526686547 -0.3104644920619992
3040000000.0 0.31164113240177077 -0.051579880072721095
3060000000.0 -0.2492952433666817 0.18855354271892502
3080000000.0 0.19928379690264889 -0.23494845537223794
3100000000.0 -0.1509917239797842 0.26206983551044527
3120000000.0 0.04171618727346957 -0.2916160301236249
3140000000.0 0.057081271900949956 0.27845845990661516
3160000000.0 -0.16207878192230415 -0.21565742965662577
3180000000.0 -0.060424230948470624 0.24553950943364716
3200000000.0 -0.2253889137677985 -0.04629032519863896
3220000000.0 0.054800001120846466 -0.19463517492956017
3240000000.0 0.1481430360803286 0.0878604230321812
3260000000.0 -0.13765875274984754 -0.015609394174566683
3280000000.0 0.1057201284314135 0.014059004597417362
3300000000.0 -0.05950439983249241 -0.0487207749766723
3320000000.0 -0.025687075889450375 0.04057556409065153
3340000000.0 0.012455996479368061 0.020656741990942095
3360000000.0 0.004627540161534014 0.0037060967731941874
3380000000.0 -0.010067492037038994 -0.002579589388220235
3400000000.0 -0.016272530426355337 0.017945647123067964
3420000000.0 0.00520893397590332 0.03743273841265624
3440000000.0 0.028290039123799855 -0.04121032245166827
3460000000.0 -0.022871977534675837 -0.0539502810610566
3480000000.0 0.05804261018430616 -0.03736123923313889
3500000000.0 0.0386303241136514 -0.07296955455974972
3520000000.0 -0.09779954130413901 0.0005333370293910244
3540000000.0 0.11321614029090107 -0.007656224335389878
3560000000.0 -0.124724763975099 0.020364579915318433
3580000000.0 0.13173450342039078 -0.049812648323097085
3600000000.0 0.028721644333955004 0.15742584557674988
3620000000.0 -0.02114025301902793 0.1697075663455931
3640000000.0 -0.17184509538544063 0.05782460920386155
3660000000.0 -0.18803725742819025 -0.030856491234406445
3680000000.0 -0.15343758891620207 -0.1190374027096059
3700000000.0 -0.06131011482300727 -0.18389430001256457
3720000000.0 0.13407932400533307 -0.1377232854037319
3740000000.0 0.18308522292102564 -0.0378730473951042
3760000000.0 -0.17898577107923605 0.014504214422964066
3780000000.0 0.16382937818930546 0.04765129236754922
3800000000.0 0.05605204923509938 -0.15054999264077093
3820000000.0 -0.04766583677248409 -0.14563306372246104
3840000000.0 0.06080070631561465 -0.13368976958294843
3860000000.0 0.06746867209128626 0.13080167568622594
3880000000.0 0.10078043241037694 0.11604856306822864
3900000000.0 0.11792896438003271 -0.10358338592132332
3920000000.0 -0.16206049326913494 -0.012378399851057549
3940000000.0 0.11497702870767405 -0.1217722367129963
3960000000.0 0.15389233613446046 0.07517685506360089
3980000000.0 0.11188519419621003 -0.12964768778012836
4000000000.0 0.049575564727032735 -0.15690343844474317
