! Created with skrf (http://scikit-rf.org).
# Hz S RI R 50.0 
!freq ReS11 ImS11
400000000.0 -0.06474231641544954 0.8668389341593439
420000000.0 0.11835154378177308 0.850154960161111
440000000.0 0.738116809515583 0.3771932292746581
460000000.0 0.628782622634881 -0.4763687709330797
480000000.0 0.22013515711984213 0.676162360157984
500000000.0 0.5442525029169641 0.22465050635529218
520000000.0 0.14225014787329748 -0.49179098865978665
540000000.0 0.40900871284174267 0.2026890013359731
560000000.0 -0.30462411774745507 0.24374831466123173
580000000.0 0.2861411628541788 -0.21687448087604466
600000000.0 -0.3095523889015703 -0.19012961807429785
620000000.0 0.36175629482144606 0.10539058350857357
640000000.0 -0.040671528586044364 -0.4006339356324694
660000000.0 -0.3093824591991738 -0.2720437131206502
680000000.0 -0.010968847115517589 -0.42223410555114044
700000000.0 -0.3870939984639416 0.17328289477045153
720000000.0 -0.34040048833493514 0.23574611989228092
740000000.0 0.4008965082656587 -0.067851770731101
760000000.0 -0.0868083473420839 -0.38263366352824185
780000000.0 0.2711878732594677 0.23603315652035073
800000000.0 0.214986587733146 -0.2372056142093499
820000000.0 -0.22990407704765398 0.15267985506269235
840000000.0 -0.17581575521785858 0.16117311819283542
860000000.0 -0.2028463390622388 0.04282104071415872
880000000.0 0.14040767661016715 -0.07235684202815136
900000000.0 0.08887606202167646 0.058223787728562695
920000000.0 0.020532440125193542 -0.07184112256239415
940000000.0 -0.0336450846416489 -0.0370837323787219
960000000.0 -0.0418310637128916 -0.03080895623238433
980000000.0 0.02537166640615814 -0.06407993642131006
1000000000.0 0.034929475574843855 -0.07654715854181827
1020000000.0 -0.03885339669800615 -0.09823248403895303
1040000000.0 0.11312215139981048 -0.04221300056368795
1060000000.0 0.1554741465376732 -0.017754229941040416
1080000000.0 0.16521745649998512 0.056038427830132014
1100000000.0 -0.14481318662401818 -0.13569795306883198
1120000000.0 0.18022795410232845 0.12689955412515133
1140000000.0 -0.010545593523108904 -0.25217797513887935
1160000000.0 -0.18163184793288145 -0.21809473186042108
1180000000.0 0.021258594469453006 -0.31499014169196127
1200000000.0 0.3236925046231086 -0.10994440849494772
1220000000.0 -0.3605310733782529 0.04395665314976696
1240000000.0 0.24274934916985585 0.2996516061535373
1260000000.0 0.19472472533659418 -0.36088813513182827
1280000000.0 -0.42205899015197207 0.07453098341758244
1300000000.0 0.12560655722679795 0.42165393825770825
1320000000.0 0.427409812340603 -0.10290135778995199
1340000000.0 0.43130447466348076 -0.07892767889680141
1360000000.0 0.41803095981511806 -0.12533375073436642
1380000000.0 0.1695612807112742 -0.4013511045592474
1400000000.0 -0.3619231383135913 -0.22012110115212274
1420000000.0 -0.054268614078130245 0.40225440424175235
1440000000.0 0.370188848250478 0.09036304454846576
1460000000.0 0.006860344638393895 -0.35191341090373673
1480000000.0 -0.3177593859286294 0.04243166412784356
1500000000.0 0.03231275951261752 0.28491026802702557
1520000000.0 0.19458299843042173 0.1650593864628734
1540000000.0 -0.20045336244562917 -0.10254881990368044
1560000000.0 0.1391730329063676 -0.13073668464724617
1580000000.0 0.05608599278589543 0.15250105217246523
1600000000.0 0.12760780130214552 0.041017836774316196
1620000000.0 0.0913432813612365 0.046817090081039625
1640000000.0 -0.06871700463836715 0.03985278997070187
1660000000.0 -0.05300811645978511 -0.011590814391622548
1680000000.0 -0.003030158390026354 -0.032538413140651694
1700000000.0 0.012790328125006203 -0.011366623051424503
1720000000.0 -0.003482809727139128 0.006935418905881987
1740000000.0 -0.014311679714151813 -0.011304032230372048
1760000000.0 -0.024450810905797947 -0.018329853091628358
1780000000.0 0.005288273604016308 0.05747423674975014
1800000000.0 0.01817385693315197 -0.09015045704876529
1820000000.0 -0.10822771822670225 -0.0656472899789317
1840000000.0 0.16647534785774176 0.013719192881735127
1860000000.0 -0.1138425110732602 0.170693718536952
1880000000.0 0.09167443570707803 -0.22459110765985563
1900000000.0 -0.16066223177397376 0.2313251702049809
1920000000.0 0.19870481444203325 -0.2472937565758958
1940000000.0 -0.3495578469398221 -0.0006703609680011218
1960000000.0 0.28194319709404836 0.2525291964268738
1980000000.0 0.021185239878239403 -0.397266361576467
2000000000.0 -0.37714946838902813 -0.17257943372360068
2020000000.0 -0.2158396537841635 0.36656793067520493
2040000000.0 0.0992654785000755 0.4187666535160196
2060000000.0 0.41004435987229454 0.1388923391974166
2080000000.0 0.40034505193208925 -0.15600228495924728
2100000000.0 0.27994986352090556 -0.3191005512578978
2120000000.0 0.050660095186796227 -0.4134136524213577
2140000000.0 -0.22565688529955363 -0.33634759278497334
2160000000.0 0.14563711452234465 -0.3613564386745856
2180000000.0 0.02312933470257689 -0.37298146094531076
2200000000.0 -0.1465710726026237 -0.32963084092222567
2220000000.0 -0.3019369354022422 -0.17914957966734596
2240000000.0 -0.3132506403578568 0.14427609966881366
2260000000.0 -0.17358053629730108 0.29629109308087126
2280000000.0 -0.08551505408587594 0.33533255198671597
2300000000.0 0.29854843925258034 0.19949194010210225
2320000000.0 0.2564507966794335 -0.2829808488834661
2340000000.0 -0.35401409068809514 -0.2124340832515876
2360000000.0 0.028542436235182583 0.45253956729629685
2380000000.0 0.11334243234700196 -0.4889124391839564
2400000000.0 -0.12772851663381388 0.5395130202824354
2420000000.0 -0.18560962830112884 -0.5788659317550315
2440000000.0 0.5668917186926954 0.3345346864938785
2460000000.0 -0.6803985898276498 0.16397132380596094
2480000000.0 0.5134474047015656 -0.5223919542039935
2500000000.0 -0.5175359308089235 0.5489708464119434
2520000000.0 0.5644043661360827 -0.5188217719279292
2540000000.0 -0.746953831908548 0.1839162303924244
2560000000.0 0.6870834375211564 0.33426823718203863
2580000000.0 -0.16630679204297322 -0.7309678042396861
2600000000.0 -0.4504393776893276 0.5701987959399808
2620000000.0 0.6965886648769047 0.030158927323846178
2640000000.0 0.5752085679083878 -0.3241737406684674
2660000000.0 -0.5959238851642081 -0.15582797469722076
2680000000.0 0.32688841758008486 0.46554741443898884
2700000000.0 0.04429632247876125 -0.5192032808629938
2720000000.0 -0.2858029456293578 0.3756386283893354
2740000000.0 0.4000962476440909 -0.15091558501489694
2760000000.0 -0.38685688801355833 0.012808205640398656
2780000000.0 0.34606287728780244 -0.08289336633962423
2800000000.0 -0.2833377273106074 0.16980418441557274
2820000000.0 -0.00711681503648182 -0.31334095183323313
2840000000.0 0.2754305724328967 0.12408021048966457
2860000000.0 -0.2260642296655277 0.19348583310218695
2880000000.0 -0.00042640053179192865 -0.2971854351847522
2900000000.0 0.09030774929504211 0.28486021272741396
2920000000.0 0.13154239123512468 -0.2728137349686419
2940000000.0 -0.308882623970129 -0.007113859496708503
2960000000.0 -0.15723683019052917 0.26810784640893903
2980000000.0 -0.21684953164887158 0.2288178414301363
3000000000.0 -0.31769537617339866 0.02183626044303934
3020000000.0 -0.0703094179448902 -0.31094932860787333
3040000000.0 0.308784110863041 -0.06765969576945709
3060000000.0 -0.26641278367166077 0.16331072222539908
3080000000.0 0.21533187636595932 -0.2204935658952156
3100000000.0 -0.1314525277080041 0.27277856321431304
3120000000.0 0.11192789684270577 -0.27212829760708684
3140000000.0 0.061328750052036744 0.2777397831804171
3160000000.0 -0.16200049144594283 -0.21610452151805362
3180000000.0 -0.07130811921170077 0.24272655596025047
3200000000.0 -0.22077370721816794 -0.06577083612020253
3220000000.0 0.06491052697274294 -0.19194846880117863
3240000000.0 0.14266874533506904 0.0961613444849749
3260000000.0 -0.13480984346862201 -0.03155476968581896
3280000000.0 0.09522381049575712 0.047830607433470486
3300000000.0 -0.04070935131271722 -0.06504703634444067
3320000000.0 -0.02955245052460661 0.03755714751713119
3340000000.0 -0.0069354037086635425 0.022558537076130744
3360000000.0 0.0012416586124762107 0.005157094941141097
3380000000.0 -0.010540559505111772 -0.002464601015105073
3400000000.0 -0.005061142867618892 0.024271201195106458
3420000000.0 0.012914396160185769 0.03613171217818886
3440000000.0 0.04217128069883009 -0.027753557056591056
3460000000.0 -0.029431399369189162 -0.051324282003424385
3480000000.0 0.06317926523172271 -0.029100745113238055
3500000000.0 0.03369910855490416 -0.07619251898783881
3520000000.0 -0.09688176979875002 -0.015506094760531611
3540000000.0 0.11405870008674364 0.005368673742883909
3560000000.0 -0.1266802447334063 0.005372412141214171
3580000000.0 0.13732196977885242 -0.034103697899326324
3600000000.0 -0.018044842567556677 0.15911459664034355
3620000000.0 -0.044941929500934764 0.16559199661192625
3640000000.0 -0.17479008987358582 0.05157388950374307
3660000000.0 -0.17868670312638382 -0.06655513285202695
3680000000.0 -0.13645118420884322 -0.13818199357021582
3700000000.0 -0.02930629235439188 -0.19140940311131657
3720000000.0 0.15275468878134726 -0.11531097316671426
3740000000.0 0.1860596923707613 -0.014384353152103457
3760000000.0 -0.17879064097227507 -0.010732147833855416
3780000000.0 0.16179189296210436 0.05077518737638083
3800000000.0 0.0714873944550228 -0.1432947332075935
3820000000.0 -0.03506228152530791 -0.1485043335615962
3840000000.0 0.09177443721995103 -0.11456752184003273
3860000000.0 0.04579100182297096 0.13960548263081282
3880000000.0 0.09154732767159188 0.1227493036965747
3900000000.0 0.12880251093696626 -0.08902067839638485
3920000000.0 -0.15943611004852115 -0.0299850516302621
3940000000.0 0.11717038074221117 -0.11810899554207405
3960000000.0 0.15243985630400234 0.07600407825953048
3980000000.0 0.12813385642965833 -0.11283003367749271
4000000000.0 0.04971239687884671 -0.15632003691886381
