! Created with skrf (http://scikit-rf.org).
# Hz S RI R 50.0 
!freq ReS11 ImS11
400000000.0 -0.07182098590033245 0.865974085509769
420000000.0 0.13685510989265173 0.8466968674469358
440000000.0 0.7273219430433608 0.3971000326017199
460000000.0 0.6640251202782395 -0.4271937068670957
480000000.0 0.24497474691569893 0.668019648180518
500000000.0 0.5753728953407299 0.12091550306090905
520000000.0 0.34748329666137884 -0.37683607455530777
540000000.0 0.4526556842063532 0.0699217690241595
560000000.0 -0.3055967500320951 0.2409963148505115
580000000.0 0.2830293067870219 -0.21957187809522377
600000000.0 -0.25309709665636204 -0.2613317960154802
620000000.0 0.3743039847746158 0.050135544209640365
640000000.0 -0.04201194155018896 -0.40006223820780745
660000000.0 -0.3224041419949633 -0.25535413538594964
680000000.0 -0.006142578052917302 -0.42293580707317086
700000000.0 -0.3875945302149941 0.17204453102968065
720000000.0 -0.29669694245599476 0.2885462728054774
740000000.0 0.4060185911005393 -0.019562286703469173
760000000.0 -0.1056970697318156 -0.3779124730364309
780000000.0 0.26004552369048417 0.24790538687520744
800000000.0 0.21697505040656714 -0.23552733120680158
820000000.0 -0.22543598878651455 0.15921938975455446
840000000.0 -0.1882640626684212 0.1457315893672729
860000000.0 -0.20303027404882099 0.041838973803462166
880000000.0 0.14186015023239976 -0.06894470387305122
900000000.0 0.08163924810635188 0.06824776745088221
920000000.0 0.006925474385353364 -0.07447216761523692
940000000.0 -0.0382708144344656 -0.032000948183107135
960000000.0 -0.03494340710123267 -0.03832979553161006
980000000.0 0.0350062481574234 -0.05973408039091107
1000000000.0 0.04077004392870209 -0.07347254937515478
1020000000.0 -0.03914656313011851 -0.09823221744490764
1040000000.0 0.10634323426648835 -0.056938768990917855
1060000000.0 0.15540871666994555 -0.01783752610364476
1080000000.0 0.16364377974869132 0.061282996448376724
1100000000.0 -0.1393522918613043 -0.14166723352167926
1120000000.0 0.16204863238630848 0.14910998618273597
1140000000.0 -0.025664382542117833 -0.25126415386600043
1160000000.0 -0.17126472247432128 -0.22614595805712703
1180000000.0 0.02983728977083127 -0.31405805650425755
1200000000.0 0.3239169894187191 -0.10918440613060822
1220000000.0 -0.36086067865718785 0.040141441536954856
1240000000.0 0.2459829782957858 0.2971249714175823
1260000000.0 0.2050581118151696 -0.3550990921668212
1280000000.0 -0.4229852699288462 0.0681833973010296
1300000000.0 0.10723637948682826 0.42668576999747326
1320000000.0 0.4282146926591134 -0.09886894494975756
1340000000.0 0.42788107760578437 -0.09581870781380579
1360000000.0 0.42059443753305054 -0.11625569918357444
1380000000.0 0.1700074066758681 -0.4013635829194539
1400000000.0 -0.36297324621165855 -0.21851339499639613
1420000000.0 -0.06417558855836848 0.40095546230904733
1440000000.0 0.3702327748965258 0.09064639490632684
1460000000.0 0.007103555789014938 -0.3517639745240871
1480000000.0 -0.3142980600056351 0.06159067977616737
1500000000.0 0.04575862654158332 0.28270886930085226
1520000000.0 0.17899649764959993 0.18217360536375138
1540000000.0 -0.20261612508079693 -0.09845000881612326
1560000000.0 0.1397348296357209 -0.13034392653146262
1580000000.0 -0.0008543040018035062 0.16239450525378113
1600000000.0 0.12897987748065629 0.03608708826955689
1620000000.0 0.09315174524924676 0.04303991660470683
1640000000.0 -0.06907172651557415 0.03824926793603993
1660000000.0 -0.053678919385136546 -0.007494001558880189
1680000000.0 -0.0021105506130025854 -0.03251352329440006
1700000000.0 -0.0044684400434899475 -0.01666072506561105
1720000000.0 -0.007264926753529946 0.0013030375308301072
1740000000.0 0.009134641283979703 -0.015369523617215448
1760000000.0 -0.015245015394549356 -0.026353138206841705
1780000000.0 0.010423405208906082 0.05665939778653982
1800000000.0 0.045674360340596847 -0.07901623981525925
1820000000.0 -0.1082997736659452 -0.0659621108901156
1840000000.0 0.1665174333420722 0.012224208722141174
1860000000.0 -0.10194981496392466 0.1779506400099041
1880000000.0 0.09254687195682135 -0.22408548150409408
1900000000.0 -0.15442927019549865 0.23566628747165957
1920000000.0 0.19389342490739223 -0.2512110634611724
1940000000.0 -0.34966712771220876 0.006354647023693237
1960000000.0 0.27931155079194375 0.25553738175467633
1980000000.0 0.015892984425402417 -0.39773088154543634
2000000000.0 -0.37533243584230325 -0.17710673634431512
2020000000.0 -0.22074481217485825 0.3640671665062983
2040000000.0 0.1190936945317449 0.41358634528392024
2060000000.0 0.4113735940516188 0.13515919087443962
2080000000.0 0.3985028548809062 -0.160873048884835
2100000000.0 0.2783161233621365 -0.32051158877857777
2120000000.0 0.06642308328877884 -0.4111479738287119
2140000000.0 -0.2056636726058334 -0.3489401815230497
2160000000.0 0.18336932739782605 -0.34374897054956266
2180000000.0 0.02548324402977173 -0.3726790213113476
2200000000.0 -0.12584257848763802 -0.33801249152545126
2220000000.0 -0.3004186684160609 -0.1805042420512111
2240000000.0 -0.311566607825625 0.14760282369183306
2260000000.0 -0.18136205025249522 0.29119902165593775
2280000000.0 -0.09438819652044703 0.3326303747393648
2300000000.0 0.29658061503643046 0.2022170486329363
2320000000.0 0.25375950478737686 -0.285225171697253
2340000000.0 -0.3494531786656189 -0.21920752200613947
2360000000.0 0.02127346904628462 0.4529632061337764
2380000000.0 0.11369662963119995 -0.4886892835285303
2400000000.0 -0.11508782982464612 0.542462885747375
2420000000.0 -0.18299737147548817 -0.5796731504601147
2440000000.0 0.5614882001892525 0.3435407059017506
2460000000.0 -0.6828513044385607 0.15374136185499285
2480000000.0 0.5260141438045383 -0.5096417450797243
2500000000.0 -0.5409163710828288 0.5263622536851337
2520000000.0 0.573074423470416 -0.5090799447312083
2540000000.0 -0.7542130377308564 0.15238055411543505
2560000000.0 0.688030729408379 0.33259062636393727
2580000000.0 -0.09260265653195632 -0.744322456704063
2600000000.0 -0.44949761643051833 0.570891377647389
2620000000.0 0.6967099542767982 -0.028847825176807503
2640000000.0 0.5694035046948742 -0.3342366791747001
2660000000.0 -0.5846288936189099 -0.19340268438846164
2680000000.0 0.2802721881743755 0.4949325014267916
2700000000.0 0.0586106324823581 -0.5177698269547137
2720000000.0 -0.3003804428710335 0.363889347364531
2740000000.0 0.4029956716962314 -0.14270217720968167
2760000000.0 -0.38706947651867174 0.0002591850112825406
2780000000.0 0.34649111169287705 -0.08083465277636304
2800000000.0 -0.2828902107502037 0.17019155917317744
2820000000.0 -0.011819361583707298 -0.31308830091356993
2840000000.0 0.28054003958192253 0.11181977680419594
2860000000.0 -0.2194951923188131 0.20074448976447126
2880000000.0 -0.0032936339238874264 -0.29711417771962817
2900000000.0 0.09206967139526707 0.28466822923364987
2920000000.0 0.12805291595395818 -0.2747966483223546
2940000000.0 -0.308742418164165 -0.01743115303821639
2960000000.0 -0.16879530694837752 0.26138992279852874
2980000000.0 -0.2091417263338156 0.2358862216989273
3000000000.0 -0.31852034958103886 0.0064921051407845435
3020000000.0 -0.09662327591647726 -0.30396040539169583
3040000000.0 0.315816283123319 -0.01838868169042604
3060000000.0 -0.2625310904019354 0.17003371745712836
3080000000.0 0.22392679867111626 -0.21213485712149732
3100000000.0 -0.19536059525082286 0.2315328146833354
3120000000.0 0.09614694237373374 -0.2785049564477342
3140000000.0 0.02238007052588694 0.28358009323515104
3160000000.0 -0.14019056267384722 -0.23069338029650807
3180000000.0 -0.09632444565900655 0.23371538723469926
3200000000.0 -0.2119346699980699 -0.0897161996122125
3220000000.0 0.07435374127087498 -0.1879405458423484
3240000000.0 0.12636688677562805 0.11633767506283044
3260000000.0 -0.12870875722916192 -0.05071408573175504
3280000000.0 0.10598082522649059 0.00583191013664227
3300000000.0 -0.05912799381519133 -0.0481450834762018
3320000000.0 -0.020427755439398437 0.043029552378400636
3340000000.0 0.018045605353478735 0.01535300933427014
3360000000.0 0.005259945338655014 -0.00033616133776057257
3380000000.0 -0.007583569701067184 -0.007772701410151781
3400000000.0 -0.024723756268671463 -0.0017996141031697557
3420000000.0 0.0034643489566617562 0.03825025822825012
3440000000.0 0.046080699358423856 -0.02044692537310979
3460000000.0 0.012555484322119032 -0.057525211609718324
3480000000.0 0.06914618698697127 -0.004086894447099939
3500000000.0 0.03464177283264022 -0.07562138163604748
3520000000.0 -0.08919766670166941 -0.04000022334605451
3540000000.0 0.10563047576948069 0.04115201137997196
3560000000.0 -0.12562572900293092 -0.011981290353350342
3580000000.0 0.14048105689386373 -0.009853009643461403
3600000000.0 -0.008959538920473228 0.15973443334625323
3620000000.0 -0.056885295889260494 0.16118876719611228
3640000000.0 -0.17757570616449164 0.037336358773954886
3660000000.0 -0.18056504458987124 -0.06017573541652331
3680000000.0 -0.13774467807481092 -0.1365198034503061
3700000000.0 -0.04935147051671269 -0.18734130901767998
3720000000.0 0.143442355279267 -0.1275308298665947
3740000000.0 0.18521466232759123 -0.022117571231274735
3760000000.0 -0.17906374562531197 -0.00027180020175420307
3780000000.0 0.16043514296755684 0.055325318239936444
3800000000.0 0.06837671541468789 -0.14480233575680704
3820000000.0 -0.009664025143157163 -0.152936364646293
3840000000.0 0.0838516608193663 -0.12049995869107975
3860000000.0 0.028333187486997206 0.1444823164366426
3880000000.0 0.08676460823729702 0.12640462311442957
3900000000.0 0.13512860930761525 -0.0794578024260447
3920000000.0 -0.15760735729524672 -0.03811940966098145
3940000000.0 0.12676276157962904 -0.10793129122152045
3960000000.0 0.14788362598329993 0.08483820773672535
3980000000.0 0.13757254733326088 -0.10090753492597689
4000000000.0 0.07629714597613674 -0.14510703317024531
