! Created with skrf (http://scikit-rf.org).
# Hz S RI R 50.0 
!freq ReS11 ImS11
400000000.0 -0.06245243099745726 0.8657255158610709
420000000.0 0.10339756828582575 0.8520392957096936
440000000.0 0.7112412141090931 0.4264605741719183
460000000.0 0.6515736182262447 -0.4464017370336319
480000000.0 0.199103995097227 0.6828407911497993
500000000.0 0.5448061269166306 0.22253200971942255
520000000.0 0.14244053115782696 -0.49226970799791575
540000000.0 0.3994395623327533 0.2221215675094013
560000000.0 -0.2829300732890122 0.26912306743921416
580000000.0 0.2727654106243649 -0.23328760149187255
600000000.0 -0.3185574252718741 -0.1738065802768072
620000000.0 0.35845260685009633 0.11533990100436116
640000000.0 -0.03232903329384475 -0.401358295785384
660000000.0 -0.32302608143667283 -0.2554984066157472
680000000.0 -0.009176767209028118 -0.42240060964960296
700000000.0 -0.3932314962414812 0.1583908203277014
720000000.0 -0.3294390498169914 0.25091558041716294
740000000.0 0.3988842561397192 -0.07592189810261861
760000000.0 -0.09753723785381875 -0.3800344062093328
780000000.0 0.26787810734613304 0.23997568393054045
800000000.0 0.21903854395241923 -0.23370809996332123
820000000.0 -0.2359790808398645 0.143352596443764
840000000.0 -0.18325760847567793 0.15275828971157238
860000000.0 -0.20116334880167946 0.050295287892465027
880000000.0 0.13896315147942673 -0.07543673031705733
900000000.0 0.09278369328993306 0.05229443427038615
920000000.0 0.02940479522212228 -0.06908970379863345
940000000.0 -0.009802406119552024 -0.04916152479309162
960000000.0 -0.03948736195500066 -0.033567618558625126
980000000.0 0.02829134148350477 -0.06270754500820312
1000000000.0 0.040316938552560994 -0.07401288340933798
1020000000.0 -0.030728645690243174 -0.10122692802140253
1040000000.0 0.1140202562038186 -0.04007745134182145
1060000000.0 0.1561401405023433 -0.010478021054090684
1080000000.0 0.1660541471068452 0.05416277591747639
1100000000.0 -0.13124303710353075 -0.1488931505650391
1120000000.0 0.18021420521821058 0.12684441841756927
1140000000.0 -0.02162267678995658 -0.25156921906945373
1160000000.0 -0.1708369964069248 -0.22644977722570797
1180000000.0 0.01600903491902454 -0.31517299667994486
1200000000.0 0.3223979492876635 -0.11356220058468454
1220000000.0 -0.3607718607352755 0.042036653460805914
1240000000.0 0.2550604188759907 0.28945374417198366
1260000000.0 0.2016521162536383 -0.3569294224821925
1280000000.0 -0.42176740132031015 0.07490854102806792
1300000000.0 0.11537804458298558 0.42434803835166174
1320000000.0 0.42773660974940503 -0.10124778320426907
1340000000.0 0.42913442314130285 -0.08892541160213124
1360000000.0 0.41772730435801214 -0.12617520042290023
1380000000.0 0.17210520492040582 -0.4002481018165585
1400000000.0 -0.35695664822111456 -0.22830210934087444
1420000000.0 -0.06941867522180016 0.40013471870075984
1440000000.0 0.371014379332277 0.08704113379102613
1460000000.0 0.0022188040958263855 -0.3518763923584172
1480000000.0 -0.31652817937244615 0.0488271011617734
1500000000.0 0.032731283391800405 0.28465660929420317
1520000000.0 0.1755390265249934 0.18561131482383378
1540000000.0 -0.20118235144029975 -0.10120756397987023
1560000000.0 0.1514579291128102 -0.11632538920261909
1580000000.0 0.008618680479885888 0.16224376525686995
1600000000.0 0.13080782309255387 0.027987351324244437
1620000000.0 0.0842598439889088 0.05822529406855096
1640000000.0 -0.0675280915011532 0.04145251046334197
1660000000.0 -0.05368595417586768 -0.006767512216588257
1680000000.0 -0.02319817652715329 -0.02315861504912124
1700000000.0 0.011338726633599697 -0.01287744536290592
1720000000.0 0.004169207318896337 0.006263450307448157
1740000000.0 -0.010951084143000302 -0.01421954413735289
1760000000.0 -0.022523333290678366 -0.02034040852229126
1780000000.0 0.012415776133959715 0.05632705113410126
1800000000.0 0.02137265244864097 -0.08931560303685573
1820000000.0 -0.10946364624557497 -0.06360116470455814
1840000000.0 0.16700387431212102 0.0056493426684185895
1860000000.0 -0.10639634214857614 0.17544719049428376
1880000000.0 0.08776476054447586 -0.22619042691683822
1900000000.0 -0.15542498139588248 0.23522030110859957
1920000000.0 0.19874952661131207 -0.24748689630326529
1940000000.0 -0.34966952744429475 -0.004348920676401438
1960000000.0 0.275135100209362 0.2601089728888429
1980000000.0 0.026569864520248544 -0.39695015597401423
2000000000.0 -0.3734929865282796 -0.18019185495367615
2020000000.0 -0.21638995075592785 0.36622823965673784
2040000000.0 0.10290480636856805 0.4179302793475794
2060000000.0 0.4192232773378412 0.10653744144230923
2080000000.0 0.40510029739183007 -0.14315968796926842
2100000000.0 0.27088220815526104 -0.32665640796989537
2120000000.0 0.0797869615470421 -0.40878654349649945
2140000000.0 -0.2535221480602372 -0.3153832425323208
2160000000.0 0.15676617469929022 -0.35650091817192137
2180000000.0 0.01557890720307827 -0.3731892527326258
2200000000.0 -0.13938913570721503 -0.3326009433247995
2220000000.0 -0.3019728521109654 -0.1786273314313496
2240000000.0 -0.3123818799586403 0.14589633434503937
2260000000.0 -0.1811271691507816 0.2914485955414712
2280000000.0 -0.08909165426091592 0.3340199334809894
2300000000.0 0.29863904960264515 0.1991810133116842
2320000000.0 0.264298695835472 -0.27518985894807874
2340000000.0 -0.3499158348014884 -0.2183992984066628
2360000000.0 0.019657960173743563 0.4527384152904037
2380000000.0 0.1132357366824444 -0.48860389894779693
2400000000.0 -0.12666349278494848 0.5395146196289815
2420000000.0 -0.16254802258325324 -0.5854437967336105
2440000000.0 0.5583178458425276 0.34805117776533345
2460000000.0 -0.6864318940768203 0.13543507570590613
2480000000.0 0.5329255417662143 -0.5020824956869862
2500000000.0 -0.5800488520178027 0.482919078811015
2520000000.0 0.6546870075495083 -0.3991203264946026
2540000000.0 -0.7581960463357399 0.13034370734561204
2560000000.0 0.6704340659629662 0.3665006829534551
2580000000.0 -0.11771757880076927 -0.7405016012573123
2600000000.0 -0.46813179179628256 0.5559432013637009
2620000000.0 0.6974458548094558 0.0024111237868483845
2640000000.0 0.5839578880645313 -0.30855160614421545
2660000000.0 -0.584346219110648 -0.1953040987501616
2680000000.0 0.2813133736287767 0.4947615752860601
2700000000.0 0.06348942491946552 -0.5176070240155578
2720000000.0 -0.3031303454200787 0.3622641250700996
2740000000.0 0.40321686750549524 -0.14356788419300945
2760000000.0 -0.38742931029828925 -0.006367449508091874
2780000000.0 0.34881884754500136 -0.07205569358864551
2800000000.0 -0.2919536594173836 0.15466703827606632
2820000000.0 -0.00017435699234469296 -0.3135377299118092
2840000000.0 0.2753763853667478 0.12423081173103306
2860000000.0 -0.24445353860778038 0.17027574502690787
2880000000.0 -0.005554552700653042 -0.29714117066949747
2900000000.0 0.07459010624766163 0.28980393337472793
2920000000.0 0.15492545192539384 -0.260593550619839
2940000000.0 -0.30883631057628264 -0.015411562578298885
2960000000.0 -0.15854684970593624 0.26744833622913255
2980000000.0 -0.22447943398865916 0.2207131641649946
3000000000.0 -0.3182279861921297 0.005550112226649561
3020000000.0 -0.07238806807535814 -0.31078351869361953
3040000000.0 0.31244084196815375 -0.050089706737026264
3060000000.0 -0.27407878256799734 0.15051258078965435
3080000000.0 0.22427454855397974 -0.21154024008290204
3100000000.0 -0.11937622454056036 0.2785423919215959
3120000000.0 0.10009548331209578 -0.27679139893915744
3140000000.0 0.04364094741017264 0.2809249870804299
3160000000.0 -0.1684104031800001 -0.2115884942805619
3180000000.0 -0.0729309232707592 0.24248174666542746
3200000000.0 -0.2191729589309713 -0.07026785524151978
3220000000.0 0.0709358016902736 -0.18968504314297488
3240000000.0 0.1381750853889074 0.10246708204407577
3260000000.0 -0.1359832272017348 -0.025477143332342782
3280000000.0 0.09673733456434874 0.04434489852749881
3300000000.0 -0.0741504316669185 -0.01945166351766513
3320000000.0 -0.012512410660438301 0.04610945024552738
3340000000.0 0.005882904579933382 0.022934016204463864
3360000000.0 0.003522350324559698 -0.004245456787335704
3380000000.0 0.004096193322533643 -0.010029925505285314
3400000000.0 -0.018027429660058696 0.017072746545176067
3420000000.0 -0.006567550356469361 0.03774043918774367
3440000000.0 0.048688327441296995 -0.013460353696559221
3460000000.0 -0.03002666889971893 -0.05121362306314391
3480000000.0 0.0631489634542416 -0.02906576020942837
3500000000.0 0.05667285669424729 -0.06070248005269383
3520000000.0 -0.0941459305025692 -0.02719575044958083
3540000000.0 0.11323004358686886 0.012107809035123764
3560000000.0 -0.12641270091213586 0.00841744876909014
3580000000.0 0.13061697505520392 -0.05430449621426061
3600000000.0 0.025374048938656864 0.1585519003885998
3620000000.0 -0.05836198399583624 0.16063796739090125
3640000000.0 -0.17594473474362426 0.04527965781470413
3660000000.0 -0.18023562505961108 -0.06180859238707793
3680000000.0 -0.1414336870056414 -0.13286897693103106
3700000000.0 -0.04896393076745676 -0.18729460274531712
3720000000.0 0.1480788440454823 -0.12222208544615275
3740000000.0 0.18362035989548814 -0.033283879370031
3760000000.0 -0.17915474619762298 5.108817651034581e-05
3780000000.0 0.16417884348456088 0.043882120519076584
3800000000.0 0.05199490398651292 -0.15147962889211547
3820000000.0 -0.029635720138625372 -0.15028989667050685
3840000000.0 0.0650511438494825 -0.1313204309472147
3860000000.0 0.05655963102063292 0.13556928194842743
3880000000.0 0.09794757204374303 0.11753756227453972
3900000000.0 0.12955656564158324 -0.08764194562038159
3920000000.0 -0.1588923215944025 -0.033089234655533685
3940000000.0 0.1362152059665422 -0.09601218807788925
3960000000.0 0.13279042999483504 0.10729723112614507
3980000000.0 0.1583305639274098 -0.06425857951798186
4000000000.0 0.10495394138627066 -0.12594183596305894
