! Created with skrf (http://scikit-rf.org).
# Hz S RI R 50.0 
!freq ReS11 ImS11
400000000.0 -0.11088241010452646 0.8609344331514444
420000000.0 0.15747277070485866 0.8432639035111642
440000000.0 0.724009082066639 0.40328539037712974
460000000.0 0.644423765926869 -0.4555509856114776
480000000.0 0.21829725800891148 0.6763502489083004
500000000.0 0.5737385639489486 0.13457159796176746
520000000.0 0.3332057388908827 -0.3886245412863584
540000000.0 0.44801059121166387 0.09624479323912125
560000000.0 -0.24777404410324397 0.3006863778565068
580000000.0 0.32861368281584624 -0.14148201891764933
600000000.0 -0.2413939719635487 -0.27313775337966617
620000000.0 0.3770674923179157 0.014319208515606046
640000000.0 0.0018406121829882135 -0.40256318104982924
660000000.0 -0.3466307574986038 -0.22099005262900442
680000000.0 0.005435398180912528 -0.42263910737565613
700000000.0 -0.3931963830011322 0.1579666504774458
720000000.0 -0.320027151249037 0.26259930454532626
740000000.0 0.39885700192176327 -0.07960923171211094
760000000.0 -0.099305421032927 -0.3791855558535193
780000000.0 0.2648563622314154 0.2423021986596303
800000000.0 0.2154389501355918 -0.2376131301345595
820000000.0 -0.22666412806015376 0.15752794322625543
840000000.0 -0.17255121170228738 0.16422433553548232
860000000.0 -0.19981873572840386 0.05428602594192064
880000000.0 0.13697710313361783 -0.07841288247640102
900000000.0 0.065212799164787 0.08359768975091746
920000000.0 0.01607378310386642 -0.07362390914444386
940000000.0 -0.04180997154662705 -0.027420900265770376
960000000.0 -0.04617553945194955 -0.023623779918430645
980000000.0 0.03370305700295989 -0.06075236066397175
1000000000.0 0.03992459591347352 -0.07390852209474708
1020000000.0 -0.01945491373537389 -0.10397358829054366
1040000000.0 0.10670789445230024 -0.05724431588002443
1060000000.0 0.15600303967633797 -0.005328596832152951
1080000000.0 0.15891267611371956 0.07278188943068563
1100000000.0 -0.1509461721347189 -0.12902397025898574
1120000000.0 0.15991181303924384 0.15134702720176302
1140000000.0 -0.031909955366282904 -0.25082244587332503
1160000000.0 -0.1785685822006842 -0.22019590000483105
1180000000.0 0.024532506252677572 -0.31454064022966777
1200000000.0 0.32146895352844246 -0.11705895620660949
1220000000.0 -0.3622871300276459 0.02491720679060971
1240000000.0 0.2517008977636318 0.292457257009386
1260000000.0 0.20721613323832178 -0.3536860344589996
1280000000.0 -0.42510601451335667 0.05359355961990981
1300000000.0 0.1334827334927154 0.4193185465994997
1320000000.0 0.4303865173324419 -0.08816388948526475
1340000000.0 0.4321679500899001 -0.07380690354848443
1360000000.0 0.41796989933969037 -0.1250215223383476
1380000000.0 0.1754264693662187 -0.3989593948887571
1400000000.0 -0.3641385190166443 -0.21632048484871685
1420000000.0 -0.06885374485606413 0.4000051691317143
1440000000.0 0.37166352052655754 0.08478027540269026
1460000000.0 0.005486857324889784 -0.35187625105971326
1480000000.0 -0.31369635926084144 0.06614875036571774
1500000000.0 0.04713788932728369 0.2827146673422384
1520000000.0 0.1784392958921878 0.18305073259049146
1540000000.0 -0.19988120932958908 -0.10446775891725224
1560000000.0 0.1423321460279589 -0.12767763124885498
1580000000.0 -0.003449248769157535 0.16269888469877578
1600000000.0 0.11958077829745876 0.0607910440107656
1620000000.0 0.09293114917734006 0.04353576621120058
1640000000.0 -0.07016691279571272 0.037037527153562205
1660000000.0 -0.05016438323581476 -0.02076079581684331
1680000000.0 0.0019846831765034127 -0.032421482689165004
1700000000.0 0.015643924558383693 0.006365156270690385
1720000000.0 -0.0036391090682836697 -0.006074678062760169
1740000000.0 0.007878496860156525 -0.016457497293771713
1760000000.0 -0.01145968398604497 -0.028053815439247058
1780000000.0 -0.010710119030494047 0.056378521433874534
1800000000.0 0.04989092547289965 -0.0768686868844841
1820000000.0 -0.10096285873841102 -0.07561271952622962
1840000000.0 0.165481638946229 0.01895293673164312
1860000000.0 -0.10829374777408612 0.1737823700625606
1880000000.0 0.07983852025941064 -0.22871006869529828
1900000000.0 -0.1453551383886334 0.24101015937459702
1920000000.0 0.1921647558511672 -0.25240534016410093
1940000000.0 -0.34962136287690626 0.006967229462142902
1960000000.0 0.2870841349016125 0.24665463196761608
1980000000.0 0.01185890486214103 -0.39791506107785507
2000000000.0 -0.37541085981083555 -0.1767926786077684
2020000000.0 -0.2090832009832115 0.370814202635784
2040000000.0 0.06927109996029472 0.4251100887397922
2060000000.0 0.40977520828749153 0.14004032162173613
2080000000.0 0.3930752008269604 -0.17379520286017386
2100000000.0 0.29313812297279274 -0.30703124109485613
2120000000.0 0.10303087392084005 -0.4037101688700221
2140000000.0 -0.22915181799595713 -0.3334775229215483
2160000000.0 0.1819891940456468 -0.3442223133867223
2180000000.0 0.046343917734509424 -0.370642777719859
2200000000.0 -0.1166380579720469 -0.34101374168164605
2220000000.0 -0.28060033687590863 -0.2093362344665209
2240000000.0 -0.31069559914984374 0.1487778549720912
2260000000.0 -0.1874261383966363 0.28701578307710324
2280000000.0 -0.08102594779381841 0.335985921647959
2300000000.0 0.30354254834066613 0.19106020421695144
2320000000.0 0.2629825522527298 -0.27635971207784177
2340000000.0 -0.3431020058778808 -0.22841959280341115
2360000000.0 -0.002027274265239906 0.4526714836924343
2380000000.0 0.14801592854167742 -0.4789163680598226
2400000000.0 -0.1700581304249999 0.52736298678525
2420000000.0 -0.14080631485127668 -0.591160219890377
2440000000.0 0.5447749513952888 0.3688973670989241
2460000000.0 -0.6925858142158995 0.10053864588974033
2480000000.0 0.550231527940346 -0.4833720940671375
2500000000.0 -0.5194379716838772 0.5472744624308518
2520000000.0 0.6234112541457717 -0.4469008284455955
2540000000.0 -0.7570089547878617 0.13949207972641717
2560000000.0 0.6684154679490276 0.37098030546876487
2580000000.0 -0.03562836969829846 -0.7496413204060145
2600000000.0 -0.4834710431836267 0.5432421702328853
2620000000.0 0.6905801606581787 0.10297028733947057
2640000000.0 0.6101514048244413 -0.25395182573554137
2660000000.0 -0.5714733889594457 -0.23200154855738572
2680000000.0 0.2322013913159503 0.5199167833782732
2700000000.0 0.12165358169440044 -0.5073184824702933
2720000000.0 -0.31350800085640546 0.35379895634434966
2740000000.0 0.4019442207621241 -0.1476112390416637
2760000000.0 -0.38751087739732365 -0.004893668908300644
2780000000.0 0.34913446044208774 -0.07036153083298319
2800000000.0 -0.29029403156708616 0.15796233116520492
2820000000.0 -0.0017909330012096164 -0.3134099448854795
2840000000.0 0.2798319164370885 0.11425357766582141
2860000000.0 -0.2314319480661723 0.18756329451173245
2880000000.0 -0.01438198271755761 -0.29705682125422705
2900000000.0 0.09675878170429128 0.28323967809818495
2920000000.0 0.12924830027481285 -0.27460046704505
2940000000.0 -0.3090754241617365 -0.01665908511089061
2960000000.0 -0.15821049737355103 0.26834616872239325
2980000000.0 -0.20994152993621895 0.23576851305513824
3000000000.0 -0.31917632168638665 -0.0062701800584132605
3020000000.0 -0.04577463412491269 -0.31663152655986393
3040000000.0 0.3118437508461934 0.05668110352462036
3060000000.0 -0.2975868589826896 0.09713707541351568
3080000000.0 0.22957812826130725 -0.20642210309364525
3100000000.0 -0.16303065830669497 0.25544758526913236
3120000000.0 0.09992884657454108 -0.27771197749479865
3140000000.0 0.014768857857147186 0.28451426519127726
3160000000.0 -0.14541806179465086 -0.22724234255626546
3180000000.0 -0.12307874968782793 0.22067433936338327
3200000000.0 -0.20300794988824045 -0.10876140445688237
3220000000.0 0.08138557025906845 -0.1852903427495964
3240000000.0 0.13466791323408042 0.10590623714758915
3260000000.0 -0.13391332214001408 -0.03343531247245118
3280000000.0 0.09939252062640194 0.03687030988316566
3300000000.0 -0.06864450791944686 -0.033303160104057386
3320000000.0 0.012165241731756399 0.04597109509074638
3340000000.0 0.020875886205506535 0.010039002878086843
3360000000.0 0.004769254876589159 0.0018178662637090206
3380000000.0 0.008962769211629583 0.006281716594013255
3400000000.0 -0.024933887164658743 -0.0023673094711641205
3420000000.0 -0.01635442975284184 0.03473549667280878
3440000000.0 0.050014032346470616 0.00493401224241649
3460000000.0 -0.01684159646948094 -0.056789746789456384
3480000000.0 0.06704841256476644 -0.01888871183058618
3500000000.0 0.0524961781361426 -0.06476602412004157
3520000000.0 -0.09264283977453881 -0.03231437659586413
3540000000.0 0.10788899728146231 0.03533228238947214
3560000000.0 -0.12674099465404606 0.0018683690065308069
3580000000.0 0.14012286578217525 -0.016681358746683216
3600000000.0 -0.004815351870332734 0.1600388248630503
3620000000.0 -0.0588680347564612 0.16067069270478307
3640000000.0 -0.1789927659526998 0.031234373818037262
3660000000.0 -0.17862587020521523 -0.06685498245333414
3680000000.0 -0.13262204317310813 -0.14178621574848227
3700000000.0 -0.028367216006131075 -0.1914888926275512
3720000000.0 0.1528900966875655 -0.11579071103336828
3740000000.0 0.1858927694402922 -0.015008438859834038
3760000000.0 -0.17884744184361054 -0.002225619708316684
3780000000.0 0.1617847485291013 0.050835760531415655
3800000000.0 0.06273731479438145 -0.14749094465232288
3820000000.0 -0.024055844585075085 -0.15091433057850046
3840000000.0 0.08925145655211736 -0.11656887849450076
3860000000.0 0.03550129784945373 0.14254410064308243
3880000000.0 0.08313355386189546 0.128549390598151
3900000000.0 0.13798622352650666 -0.07388584750998041
3920000000.0 -0.15569935145647484 -0.044019850206413226
3940000000.0 0.13985320433303397 -0.09008609898519293
3960000000.0 0.13305699386495265 0.1061116738534639
3980000000.0 0.14788088333318497 -0.08480579459920806
4000000000.0 0.07055142744144614 -0.14752201054525
