! Created with skrf (http://scikit-rf.org).
# Hz S RI R 50.0 
!freq ReS11 ImS11
400000000.0 -0.0933924043559054 0.8655836485692101
420000000.0 0.17786414690440427 0.8393906996965868
440000000.0 0.7373379670042448 0.3795694865799706
460000000.0 0.6515416914349467 -0.4443469217730663
480000000.0 0.19640501990219916 0.6831851267722897
500000000.0 0.5678626470216098 0.1572027205918776
520000000.0 0.24903823306299014 -0.44698365667187934
540000000.0 0.4374008277072799 0.1324033375212984
560000000.0 -0.3390715422375136 0.19106887670197148
580000000.0 0.2982742375226345 -0.20042683708116105
600000000.0 -0.2787392811737848 -0.2324589960654719
620000000.0 0.37561963053520386 0.03717143930251931
640000000.0 -0.024936550293616203 -0.40155742871866706
660000000.0 -0.3179612018384058 -0.261425562280374
680000000.0 0.024090282974931487 -0.4221430956708876
700000000.0 -0.38585343369330444 0.1763636754117987
720000000.0 -0.3204341042939771 0.261357694213375
740000000.0 0.39872321638688446 -0.07512088207285261
760000000.0 -0.06741956062554781 -0.3869538529317965
780000000.0 0.28218297640032447 0.22245244934466962
800000000.0 0.22035048724645806 -0.23255027739047401
820000000.0 -0.23364570835171375 0.14701631857678066
840000000.0 -0.17446191640419748 0.16232163624236567
860000000.0 -0.20071486774960673 0.051485666890455396
880000000.0 0.13941868843563995 -0.0747125007646132
900000000.0 0.08276610130549995 0.06722687213111318
920000000.0 -0.00016159727911520562 -0.07549583924420823
940000000.0 -0.007179180062024171 -0.049197216982685914
960000000.0 -0.0023395202732558102 -0.05168195142253404
980000000.0 0.031183077657430457 -0.061506081632399866
1000000000.0 0.02487524335414412 -0.0800170696786692
1020000000.0 -0.033258448918420995 -0.10024023651121042
1040000000.0 0.10748598633649369 -0.055236774018817936
1060000000.0 0.15415536706603533 -0.026396084484002515
1080000000.0 0.15660759349075606 0.07732243447362096
1100000000.0 -0.13987214649128543 -0.14128748067044353
1120000000.0 0.15850094990697913 0.15297685842319073
1140000000.0 -0.018673378969390735 -0.2521393459369269
1160000000.0 -0.16117953571274363 -0.2335593574494703
1180000000.0 0.034184388511305064 -0.3137610812241987
1200000000.0 0.323713539283453 -0.11016902260758042
1220000000.0 -0.3613046330236404 0.0349191506290018
1240000000.0 0.25074397819484806 0.29308646932830507
1260000000.0 0.19701410754806314 -0.35944314577968367
1280000000.0 -0.42259194485402757 0.06885099867785258
1300000000.0 0.11300938390737406 0.4249117849692147
1320000000.0 0.42905471611791596 -0.09361865254091477
1340000000.0 0.42803034081637975 -0.09433694346029109
1360000000.0 0.4158213067241206 -0.13218935664482037
1380000000.0 0.15369208654281552 -0.40779673448913334
1400000000.0 -0.36311823067269294 -0.21810559553477082
1420000000.0 -0.06473550729419277 0.40087760175789006
1440000000.0 0.3717930360009337 0.08488452408744422
1460000000.0 -0.0010057240636095557 -0.3520500940714705
1480000000.0 -0.31741087880133173 0.04408502372699681
1500000000.0 0.02494481449182052 0.28568793899236483
1520000000.0 0.17320542545939147 0.18809432599976653
1540000000.0 -0.20149909702600513 -0.10114585750138519
1560000000.0 0.1494048818594668 -0.11874054830678682
1580000000.0 -0.012135400717418145 0.1621059215358398
1600000000.0 0.12694960217162998 0.042388003893667044
1620000000.0 0.08863368116082168 0.051181638899339424
1640000000.0 -0.07235413434287322 0.031275520913853064
1660000000.0 -0.051290774961104464 -0.017073504900090852
1680000000.0 -0.028830566114669203 -0.015466510359545452
1700000000.0 0.016477261732735293 0.0035725492993493
1720000000.0 -0.007035867631242524 0.0007930477058638354
1740000000.0 0.007073353641345974 -0.016404417726620425
1760000000.0 -0.022082630635813064 -0.02087566685203252
1780000000.0 -0.0017782897430427488 0.05749098185522173
1800000000.0 0.029787955255959165 -0.08677761722316239
1820000000.0 -0.10741844862925497 -0.06632913319325513
1840000000.0 0.16618744664937055 0.014389714579519687
1860000000.0 -0.10491584339895728 0.17615652356062658
1880000000.0 0.08330311185253386 -0.22773186708605053
1900000000.0 -0.15232935697707214 0.23681616425466814
1920000000.0 0.19735985621556465 -0.24839663345619456
1940000000.0 -0.3497604470481732 0.006349306663109321
1960000000.0 0.28011888117419864 0.2547708864571737
1980000000.0 0.02203396240755732 -0.39747241840912817
2000000000.0 -0.3548055272969764 -0.21592528991005558
2020000000.0 -0.22284796507595214 0.3629511373440964
2040000000.0 0.08969585245281834 0.42112504090878083
2060000000.0 0.4106160019082623 0.13758677098574396
2080000000.0 0.3889968422528699 -0.18248354257645966
2100000000.0 0.2885487573554957 -0.31178340264288895
2120000000.0 0.09088388076481899 -0.40667192301644284
2140000000.0 -0.2418019786717109 -0.324605239988267
2160000000.0 0.20181895597309524 -0.33330573359791316
2180000000.0 0.024693397376252545 -0.37275205434700354
2200000000.0 -0.10572740072330537 -0.34490560693173516
2220000000.0 -0.29841362204216587 -0.1837082761553089
2240000000.0 -0.3261036332387922 0.11272088076102556
2260000000.0 -0.20479142657372656 0.27516519051189187
2280000000.0 -0.09764629899738472 0.33174750920081075
2300000000.0 0.29176177858918584 0.2087969961709721
2320000000.0 0.2624445454527885 -0.27698123677880065
2340000000.0 -0.34075946700849846 -0.23161983481669332
2360000000.0 0.006554120750845634 0.45279646417950564
2380000000.0 0.1171659794854895 -0.4875286777975549
2400000000.0 -0.13083514051590112 0.5385464014763213
2420000000.0 -0.14877550347606777 -0.5894648579108205
2440000000.0 0.5596535107091352 0.34655970188937774
2460000000.0 -0.6832219446094893 0.15234725770920035
2480000000.0 0.5612710381332937 -0.4717768207604808
2500000000.0 -0.510260605845811 0.5563101843849625
2520000000.0 0.5947576554180315 -0.484481313295349
2540000000.0 -0.7536494663040474 0.1570549906635287
2560000000.0 0.6770869303987573 0.3551754977753893
2580000000.0 -0.05627191234281702 -0.7482388941501292
2600000000.0 -0.48766950795284697 0.5391453712570717
2620000000.0 0.6969348806020094 0.03189288110697099
2640000000.0 0.5933238493547156 -0.28995881149688074
2660000000.0 -0.5698685384306289 -0.2334816441106416
2680000000.0 0.24631232940290074 0.5124477522960369
2700000000.0 0.09071543396462595 -0.5129318306524618
2720000000.0 -0.2982809816653923 0.36566011332242543
2740000000.0 0.39185221822006355 -0.17137775900149152
2760000000.0 -0.3863037289914265 0.021202009419981873
2780000000.0 0.34300250729500187 -0.0944855083775802
2800000000.0 -0.2757137433004704 0.1818445417926438
2820000000.0 -0.025851756806948612 -0.3122214913155192
2840000000.0 0.287071378474268 0.09451761924359423
2860000000.0 -0.21547587214502434 0.20555213822606339
2880000000.0 -0.014157403018084864 -0.2970860285186747
2900000000.0 0.10484229255022684 0.280464375942555
2920000000.0 0.11751074268102092 -0.27979505412748845
2940000000.0 -0.30914414082089126 -0.01522426992211092
2960000000.0 -0.17711574950605696 0.25600351558017126
2980000000.0 -0.22282812574662528 0.22340131617836256
3000000000.0 -0.3185998420941754 -0.009507696661304655
3020000000.0 -0.10162613116880069 -0.3027507093644587
3040000000.0 0.3158825304059539 -0.02251660298638891
3060000000.0 -0.2682607943710135 0.16103283785773959
3080000000.0 0.24097190327163304 -0.19230449855972334
3100000000.0 -0.19613638396359684 0.23088107816429565
3120000000.0 0.0833295863514009 -0.28272357104498586
3140000000.0 0.044980106332604866 0.28099868372064724
3160000000.0 -0.12963228905063226 -0.23669748471904303
3180000000.0 -0.08930689568658914 0.23665267436325216
3200000000.0 -0.21519998797518658 -0.08149837128336905
3220000000.0 0.08117932048869757 -0.18489764111256388
3240000000.0 0.1288384759051462 0.11344704058692438
3260000000.0 -0.13170554482081478 -0.04199093781619611
3280000000.0 0.10568929002044408 0.008960712373167496
3300000000.0 -0.06013828504379845 -0.04656335835964426
3320000000.0 -0.01997273981046324 0.043050145383219926
3340000000.0 0.02346331267844599 -0.0017680775880220987
3360000000.0 0.0008121473043060301 0.0052237917665903496
3380000000.0 0.0035501803851434514 -0.010394048995953522
3400000000.0 -0.022648816532613032 -0.010311816073495303
3420000000.0 -0.017274290545632495 0.03434788213348618
3440000000.0 0.04134932002431392 -0.029363575145848215
3460000000.0 0.010893347063218178 -0.05788936603357075
3480000000.0 0.05458904295225921 -0.04349563185145533
3500000000.0 0.0636626204179336 -0.053773533076538635
3520000000.0 -0.09593125447088731 -0.021719032498693076
3540000000.0 0.11329083855648853 0.011901990236199403
3560000000.0 -0.12695775775416837 0.00027297257463144146
3580000000.0 0.13872005854761357 -0.027090637347659843
3600000000.0 -0.019862612732633064 0.15879341543915787
3620000000.0 -0.06275240345361024 0.15914142512121243
3640000000.0 -0.17998328219953372 0.022197147234303237
3660000000.0 -0.17602307748993637 -0.07226325920463114
3680000000.0 -0.12669374259933888 -0.14695542726241473
3700000000.0 -0.023673484174634576 -0.1919846954374501
3720000000.0 0.15559044035902467 -0.1117414617150985
3740000000.0 0.18599701046965364 -0.008239950910144268
3760000000.0 -0.17773028220481718 -0.019385623211585736
3780000000.0 0.1596701801217328 0.05758238623932279
3800000000.0 0.06891877363062299 -0.14394317891003355
3820000000.0 -0.012262295786235207 -0.15211131396041955
3840000000.0 0.08055725735165033 -0.12148118096554608
3860000000.0 0.04320165193651345 0.1397817647942808
3880000000.0 0.09728028181816499 0.11722238997681989
3900000000.0 0.12395195558196001 -0.0944595810890118
3920000000.0 -0.1587874940302157 -0.02911586048448234
3940000000.0 0.12881934841852688 -0.10457441580433813
3960000000.0 0.1539437921462117 0.0712818312483944
3980000000.0 0.14635035961801995 -0.0866743782926677
4000000000.0 0.08643160968398267 -0.13863443376994838
