! Created with skrf (http://scikit-rf.org).
# Hz S RI R 50.0 
!freq ReS11 ImS11
400000000.0 -0.086681785939431 0.8644211763350673
420000000.0 0.1288136806352146 0.8486832509916757
440000000.0 0.7411634180478698 0.3715613187447612
460000000.0 0.6224626893859402 -0.4844770112543148
480000000.0 0.21287913936512126 0.6784797814519486
500000000.0 0.5493008375919455 0.21132994242556627
520000000.0 0.134563897140734 -0.49371553703938387
540000000.0 0.4080742966523843 0.203993057857546
560000000.0 -0.31259789469439087 0.2329364709692861
580000000.0 0.29810554640681897 -0.20053724292046252
600000000.0 -0.3074602268520893 -0.19326683466210212
620000000.0 0.35436634629011654 0.12823130400831456
640000000.0 -0.04113994008732185 -0.40055815972006575
660000000.0 -0.3215881620604962 -0.257157141313926
680000000.0 -0.00933217444008062 -0.4223967171699997
700000000.0 -0.3903198747245279 0.1656807525959243
720000000.0 -0.3288861782845035 0.2516684810039629
740000000.0 0.40102630439707665 -0.06479768606827838
760000000.0 -0.1064573090213221 -0.37760991230187385
780000000.0 0.2767385099325121 0.22949276532298296
800000000.0 0.21363671071145918 -0.2383231029383922
820000000.0 -0.2277612309582963 0.1559699392849807
840000000.0 -0.18719429856638709 0.14793083860903078
860000000.0 -0.20409216533910626 0.03645880710255191
880000000.0 0.14577403949702836 -0.060818778645285766
900000000.0 0.08632705971928718 0.06188406935323209
920000000.0 0.022881734718128342 -0.07116656303883541
940000000.0 -0.020746129667336147 -0.045534962759128765
960000000.0 -0.036597778319523044 -0.03665947098614275
980000000.0 0.02316006238565861 -0.06461625535121947
1000000000.0 0.03337165678942131 -0.07716230554713938
1020000000.0 -0.04288014470277116 -0.0964602121755005
1040000000.0 0.10858490014105206 -0.052785444445578034
1060000000.0 0.1549358049011618 -0.022401667509666306
1080000000.0 0.16437875619140638 0.05875295474653775
1100000000.0 -0.13516261992815432 -0.14519837678645922
1120000000.0 0.17526967671274998 0.13355706907845566
1140000000.0 -0.004744841183367981 -0.25245500060605186
1160000000.0 -0.17766746817528478 -0.22139552909004553
1180000000.0 0.021003092012998277 -0.3149641111282104
1200000000.0 0.3241160089432177 -0.10854268634925855
1220000000.0 -0.36032538511747564 0.04566484020392605
1240000000.0 0.2510204582477521 0.2928948560294872
1260000000.0 0.19846888586962788 -0.3587895051066436
1280000000.0 -0.422603635037999 0.07095705506039018
1300000000.0 0.11485088718795043 0.42465057999369826
1320000000.0 0.4290209209222529 -0.09577769878931362
1340000000.0 0.4310241890753599 -0.08039480638735699
1360000000.0 0.41577810341787375 -0.13269692086292398
1380000000.0 0.16970909484540234 -0.40128649242154907
1400000000.0 -0.36493603507277994 -0.21508823025542542
1420000000.0 -0.04887352340160516 0.4028598755893792
1440000000.0 0.37074688029456193 0.08862689141687807
1460000000.0 -0.006277037679725841 -0.35168919500023554
1480000000.0 -0.30654641757219053 0.09314874922148363
1500000000.0 0.04605535715441417 0.2828438826102638
1520000000.0 0.19744980722278097 0.1616555027048656
1540000000.0 -0.20693223022503252 -0.08913573696919151
1560000000.0 0.1518014889610597 -0.11617019796502313
1580000000.0 0.03517354075255491 0.15871049763683823
1600000000.0 0.13015133009199936 0.031711262003409256
1620000000.0 0.08769085029736648 0.05315312085689058
1640000000.0 -0.06585933440231105 0.04442156907531229
1660000000.0 -0.05296369166207846 -0.011094460204879867
1680000000.0 -0.020003380015956283 -0.02609674140037303
1700000000.0 0.01689700715506617 -0.00010906387091669715
1720000000.0 0.0003951836220369716 0.007535989015045382
1740000000.0 0.00561346846239862 -0.016934683415189764
1760000000.0 -0.020470843643660128 -0.022540122056325104
1780000000.0 0.0048476948569516265 0.057504331326594285
1800000000.0 0.03912273020322487 -0.08254342853716501
1820000000.0 -0.10781973140223684 -0.0662948416556182
1840000000.0 0.16665585116683201 0.00923855891316281
1860000000.0 -0.0993906821875428 0.17967344965632667
1880000000.0 0.09274201027357945 -0.22406649568586418
1900000000.0 -0.15503561037817792 0.23519810692755513
1920000000.0 0.1876989586550744 -0.2557319154190248
1940000000.0 -0.34956783791664325 0.004071048567389046
1960000000.0 0.2795494515199219 0.2553455343110092
1980000000.0 0.030493205141686634 -0.3969672294016729
2000000000.0 -0.3760570122812704 -0.1753745200040814
2020000000.0 -0.21050848442122905 0.36986637218745577
2040000000.0 0.09244512033580948 0.4206142662999544
2060000000.0 0.4154292058753278 0.12146003143608416
2080000000.0 0.39613207658459065 -0.16658938796231001
2100000000.0 0.28587613811707724 -0.3138417532813122
2120000000.0 0.07572231528093223 -0.4095222581162136
2140000000.0 -0.22833633178365212 -0.33413084659252407
2160000000.0 0.16487463334613212 -0.3527773716173287
2180000000.0 0.030393527210288967 -0.3721815256853783
2200000000.0 -0.1202717768749362 -0.33997130355849625
2220000000.0 -0.289753081686882 -0.19739413286669016
2240000000.0 -0.3157071069966778 0.13790539981613265
2260000000.0 -0.160901303914111 0.3030812315391646
2280000000.0 -0.07525171412251395 0.3374378953301823
2300000000.0 0.3055824183303207 0.1881218981217764
2320000000.0 0.24957976680586813 -0.2887662003910596
2340000000.0 -0.3620483568623504 -0.19825287515305182
2360000000.0 0.031352257445048354 0.45230178251370623
2380000000.0 0.0901324372816625 -0.49373930598059057
2400000000.0 -0.10324323032277413 0.5448801400545977
2420000000.0 -0.1800491951654898 -0.5808872232597525
2440000000.0 0.5637123903258227 0.3402662908200764
2460000000.0 -0.6792033558980725 0.16937998545134322
2480000000.0 0.5331810219872753 -0.5026904419307723
2500000000.0 -0.5113230969125494 0.5549779959735356
2520000000.0 0.5750494603612126 -0.5074270052657242
2540000000.0 -0.7512486269783517 0.16630128032635735
2560000000.0 0.6897825376180325 0.3284550354081136
2580000000.0 -0.1454322814048108 -0.7356329916309109
2600000000.0 -0.47300058675869566 0.5512545577053861
2620000000.0 0.695810001485285 -0.03935673814012563
2640000000.0 0.59368181503564 -0.28801185876459845
2660000000.0 -0.5893993640576691 -0.17767643160948834
2680000000.0 0.2880807397175987 0.49000168735323596
2700000000.0 0.03939915758621653 -0.5193255529991591
2720000000.0 -0.2861865179699356 0.3749365562994707
2740000000.0 0.3829286837359081 -0.1898816983335128
2760000000.0 -0.38629089110172843 0.019714974876502703
2780000000.0 0.3436196957560851 -0.09163404355019678
2800000000.0 -0.2805997277233431 0.17403321996788457
2820000000.0 -0.014224095120538172 -0.31297412878873937
2840000000.0 0.280528630776105 0.11162597362000196
2860000000.0 -0.22323871288655514 0.19677893838789806
2880000000.0 -0.004033678186714391 -0.29722680314407374
2900000000.0 0.10273452037085717 0.28075600382734694
2920000000.0 0.1581481642262311 -0.25877727278787316
2940000000.0 -0.30895516974151876 -0.012386501530276548
2960000000.0 -0.1636662245716564 0.2644940575317759
2980000000.0 -0.21557354000147322 0.22984228412350205
3000000000.0 -0.31834853387318246 0.012639522754272796
3020000000.0 -0.10101299882627823 -0.30250050021434005
3040000000.0 0.3141714076184888 -0.03717560638046556
3060000000.0 -0.2727035308667155 0.15311162688139973
3080000000.0 0.2210835675193694 -0.21528138378265124
3100000000.0 -0.1896035135053444 0.2360927544487109
3120000000.0 0.08454013212011613 -0.28230433897091656
3140000000.0 0.03404909826706065 0.28244970193628177
3160000000.0 -0.14211009517219 -0.22964549067925413
3180000000.0 -0.09230240936311354 0.23550485026241624
3200000000.0 -0.21322009492425603 -0.08664557240778839
3220000000.0 0.09597608186518031 -0.17776913656857476
3240000000.0 0.12505301890489331 0.1179706242500624
3260000000.0 -0.12816079389336305 -0.051523053038197444
3280000000.0 0.10016752325474106 0.03479674426693401
3300000000.0 -0.05168090102626514 -0.05612065076132363
3320000000.0 -0.03409852935766767 0.03303052952074505
3340000000.0 0.013628256960997173 0.019180386131917384
3360000000.0 0.005131771281614401 0.0013478125934646304
3380000000.0 -0.010897799210346934 -0.002102013419640175
3400000000.0 -0.024688187517498468 -0.0017755788863058884
3420000000.0 -0.007018062243353397 0.037575726233058944
3440000000.0 0.042108060245138086 -0.028193110538420652
3460000000.0 0.0034550070464606326 -0.058780705825315714
3480000000.0 0.053338650204455246 -0.044949989852111835
3500000000.0 0.036899603362771184 -0.07468790056964608
3520000000.0 -0.09600656673843182 -0.019594591777727783
3540000000.0 0.11356953486157549 0.005937597608597435
3560000000.0 -0.12634474614876032 0.0023482705551289063
3580000000.0 0.14032831313872257 -0.011512662685044405
3600000000.0 0.006364922720426471 0.16035211873728528
3620000000.0 -0.07367655826157812 0.15419191005262511
3640000000.0 -0.1790176832928488 0.027577522280170633
3660000000.0 -0.1813853270445813 -0.05849199902265372
3680000000.0 -0.14366294655413675 -0.13048339833271666
3700000000.0 -0.048163941685358265 -0.18749104419790877
3720000000.0 0.14208126172789212 -0.12815398037236045
3740000000.0 0.1845092171591895 -0.02789197147710574
3760000000.0 -0.1786286676463143 0.011587560032388087
3780000000.0 0.16525845631701733 0.03996163697910154
3800000000.0 0.06347756690289666 -0.1472037807478904
3820000000.0 -0.03289315310531137 -0.1491977647824271
3840000000.0 0.0860245732622914 -0.1190282741494329
3860000000.0 0.05589173090440734 0.13561732925891878
3880000000.0 0.09084048849182455 0.12342710842557632
3900000000.0 0.12273631026297538 -0.09724851148256311
3920000000.0 -0.16102888614392155 -0.019837320357560577
3940000000.0 0.12448284730372279 -0.11069186061000033
3960000000.0 0.15427107785010039 0.0722677678869595
3980000000.0 0.12982697576618943 -0.11099597971351692
4000000000.0 0.055967369007050065 -0.15427511728139062
