! Created with skrf (http://scikit-rf.org).
# Hz S RI R 50.0 
!freq ReS11 ImS11
400000000.0 -0.0707761257064655 0.8654879876436444
420000000.0 0.12956695346811178 0.8476857583783646
440000000.0 0.7325668309673974 0.38823277467301814
460000000.0 0.6371268656311808 -0.4663338247289949
480000000.0 0.23823978035228152 0.6690572060672129
500000000.0 0.5540311178044274 0.1991697791379753
520000000.0 0.2692689172811047 -0.43683454078410633
540000000.0 0.4503586275248297 0.07240556057395707
560000000.0 -0.33909515897557735 0.1914598115104695
580000000.0 0.30865824150576804 -0.18359140451647765
600000000.0 -0.30952812925579026 -0.191485011942908
620000000.0 0.36882087999530455 0.07590676403836051
640000000.0 0.002779297490605261 -0.4025661141226659
660000000.0 -0.33141344992246347 -0.24338321697881696
680000000.0 0.0016538657970578486 -0.42256586474618885
700000000.0 -0.38181508206281706 0.18383878154813546
720000000.0 -0.3204475325044929 0.26147660003000994
740000000.0 0.40453321591121005 -0.042357413165981815
760000000.0 -0.0859507138011612 -0.3829398404384051
780000000.0 0.2824423668010732 0.2225298485671143
800000000.0 0.22263471443846228 -0.22995016663843149
820000000.0 -0.22837217006742114 0.15556922871003132
840000000.0 -0.19400656516049875 0.13865928683860373
860000000.0 -0.20627804931212215 0.020634571853636853
880000000.0 0.1458284833859023 -0.06013319870525956
900000000.0 0.0775825981369597 0.07285862362362859
920000000.0 0.020519481259975502 -0.07191252042304967
940000000.0 -0.03067549279095275 -0.03884258813130128
960000000.0 -0.029972878012130288 -0.04274823505736991
980000000.0 0.016063093929500588 -0.0669741387755899
1000000000.0 0.04066696214813472 -0.07345416519965543
1020000000.0 -0.03177754564419356 -0.10128043189410885
1040000000.0 0.10382688901525154 -0.06133432409742743
1060000000.0 0.1556530639852219 -0.01565085372436445
1080000000.0 0.1571368039820593 0.07649564966555868
1100000000.0 -0.14242071283995375 -0.138489067127917
1120000000.0 0.16427557685292837 0.14674454223945765
1140000000.0 -0.01491636771181788 -0.25214532708990284
1160000000.0 -0.1688617430483709 -0.22804703527016632
1180000000.0 0.0240328197848844 -0.3145993984132555
1200000000.0 0.32469881407793316 -0.1069581493554729
1220000000.0 -0.3608223009815456 0.04061764915881503
1240000000.0 0.24947380179406015 0.2941744463206679
1260000000.0 0.20503249654466515 -0.355166409108468
1280000000.0 -0.42331966542154237 0.06564904038235277
1300000000.0 0.11419420486773393 0.4248646453521868
1320000000.0 0.42781354045990766 -0.10117922534469881
1340000000.0 0.4298996817369314 -0.0863384312806069
1360000000.0 0.4207577693377213 -0.11519317627798585
1380000000.0 0.16601252654211798 -0.4029028304231683
1400000000.0 -0.3658844325292822 -0.21328776303450786
1420000000.0 -0.053858568261640316 0.40234435659076323
1440000000.0 0.37122798187884026 0.08644850759310953
1460000000.0 0.0009101858644587906 -0.3518906567511116
1480000000.0 -0.31812115306710337 0.03903839168290616
1500000000.0 0.03519135081712495 0.28455832349052335
1520000000.0 0.19655837572191934 0.16254353428145565
1540000000.0 -0.20070586951927466 -0.10235577651012173
1560000000.0 0.13440007353662545 -0.1355491424061121
1580000000.0 0.03240965070030901 0.15924123318149175
1600000000.0 0.12146968923631252 0.05657893711060062
1620000000.0 0.09286369894966602 0.0436925018020276
1640000000.0 -0.06987567944023476 0.03725110985930097
1660000000.0 -0.05097180684333173 -0.018199753718825186
1680000000.0 0.00998821689321284 -0.0308508691689621
1700000000.0 0.011676452761480036 0.011943618963848017
1720000000.0 -0.006492272351622353 -0.00330409918765846
1740000000.0 0.011194386536464457 -0.013909075938475068
1760000000.0 -0.018843772992666742 -0.023941489646842194
1780000000.0 -0.0024733101129203695 0.05750812790352836
1800000000.0 0.035805846528990395 -0.08451798109726637
1820000000.0 -0.10326345190649862 -0.07296375385770724
1840000000.0 0.16597181430698574 0.016613553865939882
1860000000.0 -0.10413614861823949 0.1764725143933857
1880000000.0 0.08932513885256882 -0.22536029091212761
1900000000.0 -0.15178196693784698 0.237117790696656
1920000000.0 0.18929433282787775 -0.2546135039057587
1940000000.0 -0.34941629138293534 0.012231615153544474
1960000000.0 0.2829808097593353 0.25148493289939494
1980000000.0 0.014468247464115387 -0.3978824772097767
2000000000.0 -0.3782500921569545 -0.17069778595747764
2020000000.0 -0.2202085497182574 0.36442647486597274
2040000000.0 0.08199042686320253 0.4229775541525513
2060000000.0 0.40614601117941374 0.1506468449247881
2080000000.0 0.39666618364496226 -0.16604331417027562
2100000000.0 0.28864773014035333 -0.31143329571875633
2120000000.0 0.07256003925965632 -0.4103201776876471
2140000000.0 -0.214112851367089 -0.34396907892672735
2160000000.0 0.19569278439935547 -0.3369866929541672
2180000000.0 0.05417423311544668 -0.36964100834541297
2200000000.0 -0.11702337951197471 -0.3411507721070653
2220000000.0 -0.29806318470305476 -0.18453030120220246
2240000000.0 -0.3158218032280193 0.13816027802250444
2260000000.0 -0.1816231345297625 0.2911213249979868
2280000000.0 -0.0894885618702704 0.3340196679336247
2300000000.0 0.3052496454030171 0.18928159945093795
2320000000.0 0.2658966060157237 -0.27382106477527635
2340000000.0 -0.35635398647819744 -0.20848176073938604
2360000000.0 0.004249712875050468 0.4532304278933036
2380000000.0 0.11293281119464561 -0.48886489896386415
2400000000.0 -0.15210410939046148 0.5332596327592342
2420000000.0 -0.18831605894176992 -0.5782563281672274
2440000000.0 0.5686630065909434 0.33158362501681216
2460000000.0 -0.682546927082534 0.1556336111525202
2480000000.0 0.5234188062978484 -0.5127524412414537
2500000000.0 -0.5083641907637942 0.5576326896527832
2520000000.0 0.5901335621360079 -0.4897010530879722
2540000000.0 -0.7461894671640734 0.18784172671539298
2560000000.0 0.6873684604998563 0.3340480624218573
2580000000.0 -0.09229476564820822 -0.7443850796516538
2600000000.0 -0.45855957126742924 0.563778293870704
2620000000.0 0.6973182762298844 -0.005822597166504339
2640000000.0 0.5846317589123375 -0.307072190336341
2660000000.0 -0.581357219301012 -0.20323451728927794
2680000000.0 0.3011794299338187 0.482589770473287
2700000000.0 0.06663345759011116 -0.5167985639658276
2720000000.0 -0.29561985751194814 0.36775715245923757
2740000000.0 0.39387771104021463 -0.16600240146904455
2760000000.0 -0.3866611305424781 0.011832312046394846
2780000000.0 0.3449053339015018 -0.08738518816544612
2800000000.0 -0.27671438893215133 0.18044515996144145
2820000000.0 -0.012408927165153186 -0.31285107209652424
2840000000.0 0.28166246140197343 0.10898071397874921
2860000000.0 -0.21425055880252172 0.20662021407168488
2880000000.0 -0.007995309127578346 -0.2972270032842582
2900000000.0 0.09102388705364285 0.2850480086449804
2920000000.0 0.1305910760195463 -0.27375689944985454
2940000000.0 -0.30904786386981153 -0.013864590928079644
2960000000.0 -0.1581457366506235 0.26784705387944835
2980000000.0 -0.21524209196047575 0.23038879075114602
3000000000.0 -0.3179159016235079 -0.0042162676111800815
3020000000.0 -0.08747695799919193 -0.3067396561016144
3040000000.0 0.3153611394975291 0.02342568618363154
3060000000.0 -0.27188736592812374 0.15508591092019441
3080000000.0 0.2316203428908669 -0.20363199906166982
3100000000.0 -0.14727631839661873 0.2648985792169515
3120000000.0 0.10946756207873624 -0.2731106304319128
3140000000.0 0.013014011827967123 0.28405267707506676
3160000000.0 -0.15882667790768584 -0.21829770651013494
3180000000.0 -0.09403295568976108 0.23456963197589475
3200000000.0 -0.2126684911048961 -0.08784225859868905
3220000000.0 0.07073867105247415 -0.1892682079196878
3240000000.0 0.12945191288561128 0.11288306148348548
3260000000.0 -0.13086236551401093 -0.04479588242407884
3280000000.0 0.10520442232541898 0.013936165674453332
3300000000.0 -0.05301728817822048 -0.05478140219568236
3320000000.0 -0.024617937380053523 0.04080680828930685
3340000000.0 0.020602014406657956 0.011668346235685521
3360000000.0 -0.00074193822983331 -0.005322607863992331
3380000000.0 -0.008697198302407508 -0.006544085811721021
3400000000.0 -0.0231233781531746 -0.008637794518684157
3420000000.0 -0.020779720938033305 0.03197913772185237
3440000000.0 0.03998069360277282 -0.03089542032461903
3460000000.0 0.006841483090238361 -0.058531079861007036
3480000000.0 0.05847321126036839 -0.037722857020289484
3500000000.0 0.03806731632029818 -0.07423291162546744
3520000000.0 -0.0939849497310069 -0.02798073192553386
3540000000.0 0.1112004475348865 0.023181824733594935
3560000000.0 -0.12665190463120915 -0.003908269470033812
3580000000.0 0.13718188556573815 -0.03432151137492534
3600000000.0 -0.003488800164586735 0.16021567277539855
3620000000.0 -0.06224669179758731 0.15931105514010765
3640000000.0 -0.1792539721103241 0.02884601798581976
3660000000.0 -0.17790248157941357 -0.06779978958223994
3680000000.0 -0.12743467483743537 -0.14621093426379847
3700000000.0 -0.03762267954312903 -0.18997270693231655
3720000000.0 0.1526541455677716 -0.11604411582599432
3740000000.0 0.18635601754644907 -0.0007563288093918756
3760000000.0 -0.17861782029859377 -0.0070880972207254785
3780000000.0 0.15581748731883097 0.06747001760382744
3800000000.0 0.06825165327497787 -0.1444651428322954
3820000000.0 -0.0033085000339376828 -0.15290139261010952
3840000000.0 0.08621680598161724 -0.11820335393215532
3860000000.0 0.034476042674574395 0.14234230712045592
3880000000.0 0.08000862335461918 0.1303777822692889
3900000000.0 0.13132669930765484 -0.08414838456924693
3920000000.0 -0.16018665228736967 -0.023643565012109857
3940000000.0 0.13021108165905737 -0.10391628328514137
3960000000.0 0.15504992568610176 0.06893084948726007
3980000000.0 0.12514846314428965 -0.11581713979012939
4000000000.0 0.057781202294060544 -0.15314730705005258
