!Created with skrf (http://scikit-rf.org).
# Hz S RI R 50.0 
!freq ReS11 ImS11
400000000.0 -0.6305401851222984 0.6017148279921324
420000000.0 0.29597708151225893 0.8177254232926721
440000000.0 0.6819982336198362 -0.48890178737737927
460000000.0 -0.2774792352465606 -0.7424443036341525
480000000.0 0.5110296878299765 -0.490192137330937
500000000.0 -0.25794835631194973 -0.5156695824587463
520000000.0 -0.4374402463100211 0.2335062007069377
540000000.0 0.29117777952696644 -0.2898486383311978
560000000.0 -0.32798090801476387 -0.1659023103738863
580000000.0 0.3216501573321673 0.10935599351882705
600000000.0 0.20569718089954636 -0.27982759345877267
620000000.0 -0.2594116142619711 0.25071227997819745
640000000.0 0.36612973684217365 0.142199810864042
660000000.0 0.16710598983090308 -0.3674885250369238
680000000.0 0.33499765424905686 0.2630934665355938
700000000.0 0.01877250602173447 -0.43108744667815757
720000000.0 -0.4039461977979434 0.14051925054105893
740000000.0 0.21831328112820872 -0.34982871868633136
760000000.0 -0.36636451991769614 -0.14101580445176717
780000000.0 0.25363902607896194 0.2505348310188805
800000000.0 0.032000718996206545 -0.32227655532385835
820000000.0 -0.2761258153097916 0.011098408443252654
840000000.0 -0.03521052450808071 0.23840834908265598
860000000.0 -0.1739006521957226 -0.10660817239374105
880000000.0 0.1613737236130706 -0.008435531895750204
900000000.0 0.03462002417798928 0.10933361693921657
920000000.0 -0.025963332549629348 0.07306886957611032
940000000.0 -0.03970640482896083 -0.01837158177796088
960000000.0 -0.04330907607164286 -0.02002488400586545
980000000.0 0.02586473973665962 0.06265916265324524
1000000000.0 0.06948789630518194 -0.04968592299175243
1020000000.0 0.020369293508176154 -0.10115241477387954
1040000000.0 0.11153370176750539 -0.04501739804450717
1060000000.0 0.1552220200681679 0.02392081017973288
1080000000.0 0.10380767703820735 0.1420572018806726
1100000000.0 -0.11265840646950159 -0.16601467009558374
1120000000.0 0.102514359485021 0.1963116096665646
1140000000.0 0.18812355486030868 -0.17223755905892477
1160000000.0 -0.1119608713388963 -0.2602232865964571
1180000000.0 0.035948470073150926 -0.31494277563591433
1200000000.0 0.31764290893657204 -0.12297764438122258
1220000000.0 -0.2952368605631101 0.21615085946698773
1240000000.0 0.3572761745480598 0.14306216727757928
1260000000.0 -0.10931738892738421 -0.3934219821158413
1280000000.0 -0.4139637599302682 0.09282197187828789
1300000000.0 0.2892016914694803 0.32534111907316965
1320000000.0 0.4164683447556732 0.13309984628058594
1340000000.0 0.4361527197812846 -0.03180012751900015
1360000000.0 0.4383756332597004 0.0300046237386276
1380000000.0 0.20412373530608455 -0.38450395810181975
1400000000.0 -0.37531064356289195 -0.20771616485436312
1420000000.0 0.00131477575779035 0.4104244894371334
1440000000.0 0.3827150979324758 -0.02645082503596994
1460000000.0 0.01054313521631059 -0.35408123599665997
1480000000.0 -0.31514074162466527 0.06369092118477673
1500000000.0 -0.12794013834623855 0.25821955531474844
1520000000.0 0.1334213774423652 0.22327711512101342
1540000000.0 -0.16710787171027716 -0.15901891619017453
1560000000.0 0.08276996544926232 -0.1780153403256181
1580000000.0 0.15656750119582324 0.0609777768608889
1600000000.0 0.11221989540505858 -0.07165488024914729
1620000000.0 0.08666793836364364 -0.057364611265831304
1640000000.0 0.05568065761770051 0.054899790993781436
1660000000.0 -0.04939224076015481 -0.020882218245068588
1680000000.0 0.02808317160271727 0.019703722309726085
1700000000.0 0.01832031204360196 -0.008701890798970475
1720000000.0 -0.004660383908475632 0.00019212095104661814
1740000000.0 -0.014643822007930032 0.0027939857619277376
1760000000.0 0.031023616772691266 -0.00922776925986356
1780000000.0 0.04734494596648714 0.03768255049096033
1800000000.0 -0.07794163498074604 0.047524571772452014
1820000000.0 -0.1182812454421116 0.03257283957878171
1840000000.0 0.1552184125393196 -0.04044323490461572
1860000000.0 -0.19798557943129358 -0.010825409862122682
1880000000.0 0.237443008455433 -0.02674109385361151
1900000000.0 -0.27030701849719935 0.08324420712262695
1920000000.0 0.28414237261147185 -0.14163651274503683
1940000000.0 -0.35163712521345036 0.008644015742083943
1960000000.0 0.3050233080762907 0.22379741726562405
1980000000.0 0.009961316052058924 -0.3969491475300794
2000000000.0 -0.36251090608130615 -0.19981365145249372
2020000000.0 -0.28756254339293663 0.31235784067714495
2040000000.0 -0.039594716497671024 0.4294128819576929
2060000000.0 0.3631914688700358 0.23587593510627666
2080000000.0 0.41880744939991965 -0.09891913701863006
2100000000.0 0.3154395769415913 -0.281581527921373
2120000000.0 0.02822399181899082 -0.4120480343346349
2140000000.0 -0.061625694911384594 -0.3969212285631158
2160000000.0 0.33946768774351643 -0.18602567321282004
2180000000.0 0.2060276886958671 -0.3113299036286675
2200000000.0 -0.04563023866576436 -0.3570565110085915
2220000000.0 -0.275526468923714 -0.21219426424058654
2240000000.0 -0.33469258078107705 0.0672937056642225
2260000000.0 -0.22478375149647917 0.25495277475261
2280000000.0 -0.030823249645695397 0.3421126928833851
2300000000.0 0.31975463235972734 0.15561551216601732
2320000000.0 0.23135210005111242 -0.2975566190067972
2340000000.0 -0.28269279355754645 -0.2939657852929937
2360000000.0 -0.12035332221100783 0.4322049809425446
2380000000.0 0.3553659519391804 -0.34832183465018957
2400000000.0 -0.41214330917346703 0.3653132007178696
2420000000.0 0.2780313530836005 -0.5378451855774791
2440000000.0 0.05485873602192335 0.6544506097826865
2460000000.0 -0.5078681202305965 -0.4814462424550566
2480000000.0 0.7105028524772061 0.18505022345681232
2500000000.0 -0.736440997322238 -0.1780663200802709
2520000000.0 0.7274018220987599 0.2575185070088453
2540000000.0 -0.5935293391493367 -0.4989101316980123
2560000000.0 0.19116947756456404 0.7463577444347431
2580000000.0 0.44122152957588007 -0.6149495175697318
2600000000.0 -0.724704919453393 0.11523329485473247
2620000000.0 0.60209142561247 0.3638057112546274
2640000000.0 0.6636599146542722 -0.06582447117118559
2660000000.0 -0.48631735729921566 -0.387211631602117
2680000000.0 0.17698030630710443 0.5464952984205217
2700000000.0 0.1474154093415489 -0.5046968325405955
2720000000.0 -0.30015867703032123 0.36976122505923403
2740000000.0 0.38599045437726587 -0.18988393245962054
2760000000.0 -0.36417098214732113 0.13832136568960218
2780000000.0 0.30272244427583334 -0.19200990677740712
2800000000.0 -0.15908456720810185 0.29210831036679974
2820000000.0 -0.2010473554737622 -0.2438858685772113
2840000000.0 0.304147116439066 -0.012342838405666643
2860000000.0 -0.13797983386147236 0.26809378710194354
2880000000.0 -0.13797186847313547 -0.26815687881638967
2900000000.0 0.21559265983023126 0.21380274329557333
2920000000.0 0.006352418668713081 -0.30689740920772873
2940000000.0 -0.3088622142715856 0.038883778660517676
2960000000.0 -0.1735490376711676 0.2625013695417766
2980000000.0 -0.1981785734956221 0.24981351035496863
3000000000.0 -0.31871042115189596 -0.016307382545613924
3020000000.0 -0.013714119195026984 -0.3191935373376706
3040000000.0 0.24604977901971198 0.19796792749202907
3060000000.0 -0.3137837189218634 -0.00992126335338958
3080000000.0 0.3066138119798249 -0.03705276832859929
3100000000.0 -0.3034157132568828 0.005771938708182553
3120000000.0 0.24483539551957914 -0.16945228800264778
3140000000.0 -0.18210952684940665 0.22295934440752976
3160000000.0 -0.07006789894759663 -0.2644581001548025
3180000000.0 -0.13496247906271475 0.21849984816639192
3200000000.0 -0.193606871036871 -0.12787154765118283
3220000000.0 0.10879089488625233 -0.17352253774453918
3240000000.0 0.10649951043236705 0.1388228897879007
3260000000.0 -0.1411151346170771 0.013850991059280752
3280000000.0 0.09417076346531997 0.05697752352542196
3300000000.0 -0.07938602536645875 -0.0005110082402202997
3320000000.0 0.032760606108894 0.03991821884232244
3340000000.0 0.01604789711784015 -0.021383748656668738
3360000000.0 -0.004332211527155152 0.0058055649345861585
3380000000.0 0.0047812714371272096 0.007599049474269447
3400000000.0 -0.0073089056475153435 0.021576018306938317
3420000000.0 0.014861597081929898 -0.03255671598595795
3440000000.0 -0.03766354889464178 -0.026306460042302325
3460000000.0 0.012764902317346696 -0.05351177352151356
3480000000.0 0.06522221633636638 -0.008635517189884093
3500000000.0 0.008633803159470108 -0.0794334568066871
3520000000.0 -0.06518227700544521 -0.06792963459598378
3540000000.0 0.10802297037973856 -0.020690648469184374
3560000000.0 -0.10131369819233464 0.07173405328234142
3580000000.0 -0.016892931700887896 -0.13773753555440907
3600000000.0 0.1523642664034355 -0.022842965800463265
3620000000.0 0.13471068188363305 0.09674185092840673
3640000000.0 -0.0418345771043032 0.1725306896756337
3660000000.0 -0.17248457776553952 0.07029146796264817
3680000000.0 -0.1875657414494073 -0.03657142428274003
3700000000.0 -0.15297622717277345 -0.11617238639205009
3720000000.0 0.007552883850217756 -0.19131451398003366
3740000000.0 0.12125425685114867 -0.14100655299339673
3760000000.0 -0.1384769519707135 0.11490800223478846
3780000000.0 0.15041496017595435 -0.07877536748996973
3800000000.0 -0.06761907505957855 -0.14779965149660704
3820000000.0 -0.15296607878736646 -0.027162879088828362
3840000000.0 -0.1294263390800629 -0.07091516903362441
3860000000.0 0.14415204519203798 -0.031444384060621014
3880000000.0 0.1457821136079666 -0.042805142502282754
3900000000.0 0.04923926683482742 -0.14991133069090642
3920000000.0 -0.11370221128565483 0.11613328458174443
3940000000.0 0.07684453117402526 -0.14893328958545013
3960000000.0 0.16990459531234434 0.03495488961681349
3980000000.0 0.12312770299186897 -0.12164079416966007
4000000000.0 0.1459785196430848 -0.0806678319264045
