!Created with skrf (http://scikit-rf.org).
# Hz S RI R 50.0 
!freq ReS11 ImS11
400000000.0 -0.6462278263046304 0.5855057586266851
420000000.0 0.29690855032562924 0.8175567892926653
440000000.0 0.7017377128803002 -0.4612563045948616
460000000.0 -0.24724269369319735 -0.7538042248588905
480000000.0 0.5110026526161596 -0.4903426240885026
500000000.0 -0.24301916268473647 -0.5234490496648757
520000000.0 -0.4170789499126669 0.2681744390869727
540000000.0 0.2962636645534939 -0.2829730952640905
560000000.0 -0.3307665039316261 -0.16003202221441706
580000000.0 0.3148786836981823 0.12689705868599435
600000000.0 0.19521875522833648 -0.2870920353763041
620000000.0 -0.2656785570469227 0.2441869897605093
640000000.0 0.35849981173007617 0.16122318058364993
660000000.0 0.1687857238109676 -0.366732028529546
680000000.0 0.3385717111700681 0.2581433155112712
700000000.0 0.03491423025656622 -0.43001760726933247
720000000.0 -0.40761980859548863 0.12932933462011897
740000000.0 0.19575296293495967 -0.3613920159027964
760000000.0 -0.36170561363703324 -0.15256773906554352
780000000.0 0.24641086051602845 0.2577518493457136
800000000.0 0.03631870547930947 -0.3216366109400578
820000000.0 -0.27528602849992884 0.02327145136867543
840000000.0 -0.03269879065652169 0.23870670251358164
860000000.0 -0.17097938417782635 -0.11101610743074203
880000000.0 0.1618308969088503 0.004258211834192906
900000000.0 0.042300476917585754 0.10668567041034427
920000000.0 -0.029754957116963694 0.07189536826309012
940000000.0 -0.02789170017041897 -0.03414197240298901
960000000.0 -0.043404418914644076 -0.019816671789584545
980000000.0 0.022459012512715933 0.06374508226603104
1000000000.0 0.06646180662652808 -0.05361386050643909
1020000000.0 0.017249872454901654 -0.10150490936243534
1040000000.0 0.1124738778572934 -0.04306146944957793
1060000000.0 0.15517308706209512 0.024996191178802585
1080000000.0 0.09583466935561812 0.1478780969359251
1100000000.0 -0.10761220335723722 -0.16932480406905678
1120000000.0 0.12133689636000441 0.18548213586881804
1140000000.0 0.18708178492098337 -0.17342828220736278
1160000000.0 -0.1002859880252282 -0.26510064658935767
1180000000.0 0.02898829919384955 -0.31589783579527214
1200000000.0 0.3157587018992623 -0.12832103646368298
1220000000.0 -0.2939949000979642 0.21781078381218624
1240000000.0 0.35774853568246145 0.14153027023157952
1260000000.0 -0.1007802780154143 -0.39573528547468106
1280000000.0 -0.41503783051782245 0.08794275638538221
1300000000.0 0.2941270260897612 0.32096469670060657
1320000000.0 0.41752246565810397 0.12890859814428343
1340000000.0 0.4365652145795629 -0.022751951074646858
1360000000.0 0.4376930104976855 0.0370921500665137
1380000000.0 0.21456467167657636 -0.37876101995327477
1400000000.0 -0.37156349771054403 -0.2144831010521762
1420000000.0 -0.00928731338755628 0.4104896929578326
1440000000.0 0.3814733303546778 -0.03957375611054759
1460000000.0 -0.003782898266418861 -0.3542659050765331
1480000000.0 -0.3106422807874026 0.08300163150983786
1500000000.0 -0.10297702236564125 0.26879766165261304
1520000000.0 0.1331262973235205 0.22373811053015794
1540000000.0 -0.17515988358689022 -0.15030101418173047
1560000000.0 0.08643211779139212 -0.176727500863996
1580000000.0 0.1463284190979445 0.0832845431168975
1600000000.0 0.116490289224007 -0.0651639623014782
1620000000.0 0.09839551263334652 -0.03350734227900095
1640000000.0 0.04696908058081357 0.06266099399835401
1660000000.0 -0.0443144758635214 -0.030326772454074016
1680000000.0 0.007817961363484663 0.033042300275768766
1700000000.0 0.020077345014857265 0.0013788448198190227
1720000000.0 -0.003710428150718652 -0.0022333054765173673
1740000000.0 -0.015311502110879643 0.0016172262715860404
1760000000.0 0.03260692090416589 0.0010238899946590095
1780000000.0 0.02904404346740431 0.053226566067724766
1800000000.0 -0.08970647365746982 0.014457511627833337
1820000000.0 -0.12153268658330385 0.010576313865919281
1840000000.0 0.15766452083878083 -0.028866839114591633
1860000000.0 -0.19506023283400623 -0.03284149725230992
1880000000.0 0.23815065174626043 -0.006239812904027899
1900000000.0 -0.2731085563332086 0.07152284928917968
1920000000.0 0.2812941236646193 -0.14639373307293463
1940000000.0 -0.3508968438973054 0.018227449878142413
1960000000.0 0.30869846201761947 0.21816386650177777
1980000000.0 -0.002673124167043085 -0.39679435185537765
2000000000.0 -0.36998405620237923 -0.18511902751529544
2020000000.0 -0.28408491795324897 0.31543910598367114
2040000000.0 -0.05422915395569633 0.4279681438240872
2060000000.0 0.37412282196009444 0.21796189178172826
2080000000.0 0.4200247714855358 -0.09426448735840968
2100000000.0 0.29899694775145597 -0.29893379160939043
2120000000.0 0.06471070699327691 -0.4080401222262097
2140000000.0 -0.03668484060382633 -0.40010020666194085
2160000000.0 0.34692638121051367 -0.17173598099637857
2180000000.0 0.229687530559841 -0.2940633555140007
2200000000.0 -0.02900535315836919 -0.3586161516699409
2220000000.0 -0.26834512774643754 -0.22087171904399705
2240000000.0 -0.33614132384515255 0.05679193429779235
2260000000.0 -0.2488405845549816 0.22994632066293286
2280000000.0 -0.03935995869302519 0.3403112261571258
2300000000.0 0.3021531979626079 0.18500345236045423
2320000000.0 0.2639073368887163 -0.2671795984878075
2340000000.0 -0.24265692974237615 -0.3260599827440062
2360000000.0 -0.16822516699713777 0.41430294466169143
2380000000.0 0.3843978151252083 -0.3137592044406299
2400000000.0 -0.4676456428582933 0.2878292655069919
2420000000.0 0.3583099008015836 -0.4862193338834319
2440000000.0 -0.0473922105707031 0.6537188384811143
2460000000.0 -0.39416892922630575 -0.5771802980644176
2480000000.0 0.662280852008189 0.31563943064869565
2500000000.0 -0.7022610097243219 -0.2832368514250761
2520000000.0 0.6709006118720764 0.3810057668383393
2540000000.0 -0.49941062588230206 -0.5931559145293165
2560000000.0 0.023634049196455696 0.771043362341828
2580000000.0 0.5787709293720478 -0.4892557444849415
2600000000.0 -0.734954442936742 -0.021511278125232052
2620000000.0 0.4770691382439923 0.5196272523627031
2640000000.0 0.6598148595749509 0.11067427073198562
2660000000.0 -0.38116156325070766 -0.4942392517262853
2680000000.0 0.012186574168573156 0.5767974245252927
2700000000.0 0.24955184580948492 -0.4653971889963837
2720000000.0 -0.3505057625819125 0.32609720591225216
2740000000.0 0.413157185313148 -0.12752526820199164
2760000000.0 -0.38194671528106705 0.08690476423251428
2780000000.0 0.3302129879200886 -0.14404236331096235
2800000000.0 -0.18297724963914969 0.2796659829575276
2820000000.0 -0.17034498443505666 -0.26794893964535127
2840000000.0 0.30509086001028074 0.012955325002761225
2860000000.0 -0.174881955832338 0.24734394341096447
2880000000.0 -0.11668112979944247 -0.27923445433300514
2900000000.0 0.2004761757324753 0.2294633725634205
2920000000.0 0.04204759107373507 -0.30525631751692267
2940000000.0 -0.31226137291509465 -0.00030364946082961976
2960000000.0 -0.17092200301519558 0.2651257331188893
2980000000.0 -0.21901795952053602 0.23290100439273853
3000000000.0 -0.3191460006371818 -0.025197427069791115
3020000000.0 -0.023314166210626493 -0.3193027898448367
3040000000.0 0.2755294796971708 0.15612877156856628
3060000000.0 -0.31461645808582367 -0.015407795811118735
3080000000.0 0.3088084140619952 -0.025102540809792247
3100000000.0 -0.30366686955213623 -0.01959243387179802
3120000000.0 0.2551851198812564 -0.15517437139426626
3140000000.0 -0.18677624800119758 0.22021460797792233
3160000000.0 -0.042037346852251356 -0.2709729687936274
3180000000.0 -0.15771008418641252 0.20344062221228154
3200000000.0 -0.18585218965200492 -0.13996437817729665
3220000000.0 0.12112825482524311 -0.16531258328257223
3240000000.0 0.10812073363947793 0.13803850812856483
3260000000.0 -0.14167108830843317 -0.008125996680122496
3280000000.0 0.10703314581758273 0.025442959688240344
3300000000.0 -0.07919383975837156 -0.005901043352244637
3320000000.0 0.03842549707356675 0.03428630778688012
3340000000.0 -0.022075155681723108 -0.014976254125125587
3360000000.0 -0.0013748720520725581 -0.006983372804108868
3380000000.0 0.008205745816355768 -0.004490082818613103
3400000000.0 -0.018839441393859853 0.013568933470787048
3420000000.0 0.035057655982793506 -0.00786170890709183
3440000000.0 -0.002705559830303458 -0.04628601876296389
3460000000.0 0.04732455013923017 -0.029175224613024877
3480000000.0 0.05792009889526638 0.0323743841903524
3500000000.0 0.04992610448109485 -0.06314512198945048
3520000000.0 -0.03956586361875099 -0.08652981143871707
3540000000.0 0.10955632677113655 0.015100587801116097
3560000000.0 -0.11809132782184152 0.03998141343860371
3580000000.0 0.02838438169105282 -0.13589917779098276
3600000000.0 0.15457332253969375 0.0032208420554723327
3620000000.0 0.11522408556113992 0.11988115062758443
3640000000.0 -0.07073468996836585 0.16285394070654577
3660000000.0 -0.17748258230764574 0.058205615823977534
3680000000.0 -0.18081323281521217 -0.061814439201355945
3700000000.0 -0.14508052327755208 -0.12558254195360682
3720000000.0 0.016264840507620566 -0.19107769897586693
3740000000.0 0.12159700522244979 -0.14092750799502046
3760000000.0 -0.1445913339928332 0.10674660063028425
3780000000.0 0.15295951995464552 -0.07365285709910652
3800000000.0 -0.06259227492086653 -0.14977559329191215
3820000000.0 -0.15314873620946387 -0.022724716751800926
3840000000.0 -0.1167933053809283 -0.09028607459449205
3860000000.0 0.1454476202326163 -0.020422145768315088
3880000000.0 0.14897213850521865 -0.02871428587923949
3900000000.0 0.06219603850912635 -0.14468594878494778
3920000000.0 -0.11973097551222933 0.10852968241808521
3940000000.0 0.07612166213624416 -0.14790316920970378
3960000000.0 0.16810515303379606 0.036730600875554006
3980000000.0 0.12434446317358389 -0.11927187891654963
4000000000.0 0.15257437394245202 -0.06529201171253678
