!Created with skrf (http://scikit-rf.org).
# Hz S RI R 50.0 
!freq ReS11 ImS11
400000000.0 -0.6761192869922824 0.5501466637864734
420000000.0 0.28490285696592094 0.8210365633570235
440000000.0 0.6996756975046251 -0.46194334805208914
460000000.0 -0.22398586558040168 -0.7605007451681632
480000000.0 0.46146512213456004 -0.5370365203726714
500000000.0 -0.3264180515810455 -0.47663061069219204
520000000.0 -0.4366980577273662 0.2348479026430819
540000000.0 0.29145417946906016 -0.2892414308427631
560000000.0 -0.29694857273901404 -0.21613071727981908
580000000.0 0.32545334253570574 0.1050461880045565
600000000.0 0.3034955868234198 -0.16190296107173516
620000000.0 -0.22990782136533658 0.2770347091230994
640000000.0 0.37131988946511896 0.12702677856111813
660000000.0 0.11034022933834772 -0.38745308871169765
680000000.0 0.37991120028380604 0.19139217980769482
700000000.0 0.002617634980032747 -0.4312498872810647
720000000.0 -0.3483846606015589 0.2485435450716004
740000000.0 0.2411693588232351 -0.3345917356502102
760000000.0 -0.38041541675299767 -0.09666662758878361
780000000.0 0.2647764721827504 0.2392447958947495
800000000.0 0.09402997468404779 -0.3106773647660116
820000000.0 -0.27658663329779937 -0.00250006341821405
840000000.0 -0.12406635613182435 0.2067610574311046
860000000.0 -0.16047598743851907 -0.12424260039204088
880000000.0 0.16066509078914443 0.0134333208136092
900000000.0 0.009999802774993882 0.1137866160781437
920000000.0 -0.037789834597033514 0.06701989608271366
940000000.0 -0.04078645555276876 -0.015557952194904927
960000000.0 -0.03276845099444816 0.03553047663746667
980000000.0 0.01810177712702014 0.06668095307165553
1000000000.0 0.07334257968966314 -0.043861851987284706
1020000000.0 0.08331400607904066 -0.06226132400091315
1040000000.0 0.1161825013921666 -0.03288603612191771
1060000000.0 0.12953099560166728 0.08904177485422039
1080000000.0 0.07341031697969665 0.15889840545545778
1100000000.0 -0.07667468594439107 -0.18489006309841222
1120000000.0 0.10604018590602425 0.1935210410381441
1140000000.0 0.17045007237499155 -0.18832651462900152
1160000000.0 -0.2006716527289548 -0.19946174056666663
1180000000.0 -0.025175594817863897 -0.3163100406358179
1200000000.0 0.2657656793277454 -0.21308054761154127
1220000000.0 -0.25788177378392857 0.2595052985182303
1240000000.0 0.36483610252857046 0.12354137850259486
1260000000.0 -0.13635007403462113 -0.3853561424277991
1280000000.0 -0.4132057709554429 0.09921043828619619
1300000000.0 0.29487491222802875 0.3204860254234175
1320000000.0 0.42112554112692735 0.11855210722796643
1340000000.0 0.43661951272025606 -0.02794991752816055
1360000000.0 0.4308601683977346 0.08759783461531574
1380000000.0 0.24861218758215178 -0.35681631275394404
1400000000.0 -0.35055656791904105 -0.24619668514927712
1420000000.0 -0.05347296617429412 0.40630143963058263
1440000000.0 0.3826801675861061 0.015442759215248812
1460000000.0 0.021096794769267818 -0.3525730788414323
1480000000.0 -0.3203292499129496 0.012203368687118474
1500000000.0 -0.09557694449569896 0.27111373151858137
1520000000.0 0.14082811635057774 0.2179792300602878
1540000000.0 -0.19329330518924986 -0.12471408479096241
1560000000.0 0.04553008788807604 -0.19023762945290132
1580000000.0 0.1609494400762956 0.04687236356381168
1600000000.0 0.07141208823095341 -0.11206094801688553
1620000000.0 0.07421206646225448 -0.07289240025811468
1640000000.0 0.06488543600666405 0.043743775396516166
1660000000.0 -0.052804814373367974 -0.013249697840178019
1680000000.0 0.0327675928650772 0.012251555437442142
1700000000.0 0.0055639585630672 -0.020254744056258215
1720000000.0 -0.0016679308570986208 0.005281009696111808
1740000000.0 0.014101724700847027 0.007306819302615309
1760000000.0 0.02093941583947587 -0.025288362131455498
1780000000.0 0.051943727626256146 0.03233953264871644
1800000000.0 -0.08032893289712363 0.045313801433473126
1820000000.0 -0.12070746380025454 0.024194265125938905
1840000000.0 0.15825261581908506 -0.030008100476906465
1860000000.0 -0.19689120420196346 -0.02697524985025241
1880000000.0 0.23903654107937977 -0.00666850651399542
1900000000.0 -0.27736220103118403 0.054580519960221785
1920000000.0 0.2888725143206016 -0.1316614840663845
1940000000.0 -0.3513788154105451 -0.00796403277670727
1960000000.0 0.3062194448990577 0.2215521617536421
1980000000.0 0.0064628891427519946 -0.39663322986923744
2000000000.0 -0.36428254400141025 -0.1947459536926034
2020000000.0 -0.27802135875689105 0.3197034129988796
2040000000.0 -0.027870345332818378 0.4293015777571131
2060000000.0 0.3751046816816259 0.21509414812804165
2080000000.0 0.4104731177702005 -0.12623542213503275
2100000000.0 0.27218256791990747 -0.32291262516484937
2120000000.0 0.05029737651337668 -0.408959967109425
2140000000.0 -0.07992918460582239 -0.39239469494748574
2160000000.0 0.3280922116690603 -0.2033418839418538
2180000000.0 0.1914849555150389 -0.31952350757356474
2200000000.0 -0.08891619478703984 -0.3485755637911223
2220000000.0 -0.3047773401803641 -0.16772410168462284
2240000000.0 -0.3153711454904037 0.13065276480894658
2260000000.0 -0.20064865635849613 0.27414096377205954
2280000000.0 -0.04329663375109555 0.3407636614120376
2300000000.0 0.31956950641558185 0.1563093249107701
2320000000.0 0.25419243583288464 -0.2783191367755441
2340000000.0 -0.2538464402851682 -0.31931407409817925
2360000000.0 -0.17348494809654402 0.41359474667507307
2380000000.0 0.39617354969022006 -0.30078847160813
2400000000.0 -0.47024068456309653 0.2848199411857052
2420000000.0 0.3722951155887234 -0.4759638326745169
2440000000.0 -0.07202066415312172 0.6511325768062063
2460000000.0 -0.3938208645190234 -0.5765302518082833
2480000000.0 0.6693058919892146 0.29824137657049343
2500000000.0 -0.7228873728454343 -0.2205478310008226
2520000000.0 0.720553914090967 0.2698953594010104
2540000000.0 -0.5706696120632113 -0.5226550259880953
2560000000.0 0.1448104873843455 0.7563644967222078
2580000000.0 0.4342584349154895 -0.6194692725803654
2600000000.0 -0.7298726849642638 0.07878641078350807
2620000000.0 0.5515864077453407 0.4379082099797707
2640000000.0 0.6673038050558118 -0.036447470958420575
2660000000.0 -0.48067070149134183 -0.39740467475599756
2680000000.0 0.1503786018742168 0.5567148463833227
2700000000.0 0.12183167448640135 -0.513934092454367
2720000000.0 -0.2884074761486924 0.382401315295465
2740000000.0 0.40645736753302397 -0.148698353425003
2760000000.0 -0.3799056202837031 0.09741009936554144
2780000000.0 0.33454037802943065 -0.13493323405731242
2800000000.0 -0.23169668069386656 0.24141030051989712
2820000000.0 -0.11896890672788117 -0.2940965619891926
2840000000.0 0.2863645143645771 0.10662433476851056
2860000000.0 -0.23210637421692068 0.19325538858004188
2880000000.0 -0.06474727405461654 -0.29423905944937817
2900000000.0 0.20168741073515023 0.22593726147420967
2920000000.0 0.007656570448037324 -0.3058537259612482
2940000000.0 -0.3090711416096993 0.03505296486049048
2960000000.0 -0.17010585705711115 0.2642227704648253
2980000000.0 -0.15202770297690904 0.27973668469865426
3000000000.0 -0.30824514633900313 0.08206361853089685
3020000000.0 -0.1723985091522793 -0.2690313309592719
3040000000.0 0.3092409280851154 0.06816081596713618
3060000000.0 -0.3082069943827215 0.06179265842243251
3080000000.0 0.2975041033944623 -0.08268070833499515
3100000000.0 -0.3027434167407154 0.01502489033103264
3120000000.0 0.22819332072228812 -0.19042785593104408
3140000000.0 -0.11760141473502704 0.26283769008613217
3160000000.0 -0.1030546549294244 -0.253388258804512
3180000000.0 -0.09845582236274403 0.23750595090134405
3200000000.0 -0.20192913510190774 -0.1156394322747515
3220000000.0 0.10708782173987347 -0.17593807765120206
3240000000.0 0.10377762540096412 0.14147445312514048
3260000000.0 -0.14226712025559204 0.0076050987435203705
3280000000.0 0.1083648433117087 0.02167088290643698
3300000000.0 -0.07423268306198537 -0.028293446327870973
3320000000.0 0.020869068761387284 0.04756050803518642
3340000000.0 0.02040691186828078 -0.01788712412145107
3360000000.0 0.006787213601344974 0.003450232121646436
3380000000.0 0.0032877691004093916 0.008245059261238322
3400000000.0 0.007608461211935854 0.021285183673751932
3420000000.0 0.021503845085763862 -0.02846322357450745
3440000000.0 -0.04347843439719564 -0.01410684222956073
3460000000.0 -0.034027935193591326 -0.042755007380306985
3480000000.0 0.03895303810158334 -0.05287953206401325
3500000000.0 -0.023521387845868113 -0.07592712210557465
3520000000.0 -0.08881713834810681 0.033613042217626794
3540000000.0 0.09687035067427924 -0.05060490970065657
3560000000.0 -0.0700837471977357 0.10268168702684005
3580000000.0 -0.01871516537325547 -0.1368052607039781
3600000000.0 0.149920010742845 -0.038447171852748915
3620000000.0 0.12830068291785124 0.1056194679351607
3640000000.0 -0.02142044511969699 0.17636173751499096
3660000000.0 -0.14266984715881859 0.12204690562202214
3680000000.0 -0.19208672179499003 0.0040925173221695275
3700000000.0 -0.1830824191526134 -0.06062985988504405
3720000000.0 -0.01827277390262976 -0.19129971616109684
3740000000.0 0.0934274078041023 -0.16149155803834844
3760000000.0 -0.12538712002692207 0.1297677068323514
3780000000.0 0.13737469309106853 -0.10143335667791914
3800000000.0 -0.08469334630129585 -0.139259701995171
3820000000.0 -0.15297087219663036 0.027553450825752723
3840000000.0 -0.13198341393617122 -0.06730255104365654
3860000000.0 0.14438328375487225 -0.034410314130711994
3880000000.0 0.1471524390287428 -0.04134741271248992
3900000000.0 0.05631870525619845 -0.14857328860142396
3920000000.0 -0.13941760246121684 0.08579959006794756
3940000000.0 0.09910144535210667 -0.1365535598642305
3960000000.0 0.16433636773172636 0.05712967258114208
3980000000.0 0.17463199115287112 0.010048657105061637
4000000000.0 0.12207722360819113 0.11559680402237021
