!Created with skrf (http://scikit-rf.org).
# Hz S RI R 50.0 
!freq ReS11 ImS11
400000000.0 -0.6173960267899773 0.6177250955487785
420000000.0 0.3268442167196248 0.8054351533224737
440000000.0 0.6628940297199446 -0.5137188189128711
460000000.0 -0.2752357656710609 -0.7434992495840836
480000000.0 0.5030123056638219 -0.4985318568098109
500000000.0 -0.2729068228350968 -0.5078467599965434
520000000.0 -0.42812782424802864 0.250633001303077
540000000.0 0.2956646108182617 -0.2839964758756454
560000000.0 -0.3169628434285697 -0.18567115105025092
580000000.0 0.28897322552798477 0.17766365163169812
600000000.0 0.1853660479998753 -0.293259321860448
620000000.0 -0.26251509983044935 0.24755264411649242
640000000.0 0.3785586689286415 0.10548891557611177
660000000.0 0.15196672983244738 -0.37372000108995285
680000000.0 0.35857825918614344 0.22924641310918017
700000000.0 0.013231015628356707 -0.43123990652410127
720000000.0 -0.39245463535552133 0.17170478201574005
740000000.0 0.23608316800850856 -0.338086072303522
760000000.0 -0.36909363347971813 -0.13407892610775973
780000000.0 0.2529864502212996 0.25202833025749527
800000000.0 0.04951305674360558 -0.32009838977404514
820000000.0 -0.2764967135296184 -0.0024904329070125205
840000000.0 -0.053083293688087285 0.23459176936790785
860000000.0 -0.17155669549527322 -0.11043600492106989
880000000.0 0.16125667582949335 0.005318365585050647
900000000.0 0.04320349603031544 0.10608417177580962
920000000.0 -0.02823831785746849 0.07201636936116501
940000000.0 -0.04337299450407067 -0.0049766467836266865
960000000.0 -0.043619564653389224 0.020953763219081132
980000000.0 0.04435010611071046 0.05190823585016967
1000000000.0 0.07537859363572752 -0.04161138218879054
1020000000.0 0.040994897986904325 -0.09471210099201939
1040000000.0 0.11985704015667788 -0.010248206001567062
1060000000.0 0.14837954649814253 0.05099511819819665
1080000000.0 0.08233179276973278 0.15518190157802397
1100000000.0 -0.10699368838713588 -0.16910232136231443
1120000000.0 0.11613574233206464 0.1880126147716933
1140000000.0 0.1702419307506615 -0.18946256730793037
1160000000.0 -0.1296105578512861 -0.2518738009839903
1180000000.0 -0.013941983806243166 -0.31677297745172883
1200000000.0 0.30504479707914506 -0.15190430591576717
1220000000.0 -0.2773651324582338 0.23867901361222127
1240000000.0 0.3659491997106175 0.1194101837947144
1260000000.0 -0.12178111225107387 -0.390090211441435
1280000000.0 -0.41476912222440643 0.09040597154602212
1300000000.0 0.3064379581801344 0.30980390031623883
1320000000.0 0.4176135114390359 0.1296331716325713
1340000000.0 0.4366533561530689 -0.027259675172221557
1360000000.0 0.4348812471461466 0.06203534295463609
1380000000.0 0.2267759354356842 -0.3715429137151146
1400000000.0 -0.36262191868433297 -0.22891923434631503
1420000000.0 -0.04170244570266053 0.4082564157538159
1440000000.0 0.38320991262141385 -0.01272585938312202
1460000000.0 0.03528306685716008 -0.3520749281180169
1480000000.0 -0.31878687441956394 0.038114750431389434
1500000000.0 -0.12545655354257515 0.2586484583283585
1520000000.0 0.13382994508624307 0.2224328030387754
1540000000.0 -0.1670011447272296 -0.1589713876411701
1560000000.0 0.10720792436194235 -0.16430942663574158
1580000000.0 0.15961114651596015 0.0513380701275109
1600000000.0 0.08902404806173708 -0.09880072833775774
1620000000.0 0.07664359600444075 -0.07026568346241377
1640000000.0 0.056213179538068335 0.054307617873716886
1660000000.0 -0.05387674246420836 0.00229266926536475
1680000000.0 0.03190420646862479 0.01299346824769353
1700000000.0 0.02041989478037615 -0.0014262883626341815
1720000000.0 -0.00465656946470992 0.0018762348110156896
1740000000.0 -0.01189840992709853 0.00937447518643495
1760000000.0 0.02571437061148916 -0.02014237011210264
1780000000.0 0.052851015508271745 0.029892238693951575
1800000000.0 -0.08084826679274303 0.042962391515921475
1820000000.0 -0.1169533984733256 0.036200080020964545
1840000000.0 0.15539176365740595 -0.04170382512640373
1860000000.0 -0.19700597799194405 -0.023151458745436282
1880000000.0 0.23863234475436262 -0.014686876177106194
1900000000.0 -0.2753338187625197 0.06508404741779548
1920000000.0 0.28888621912226914 -0.13197296686027374
1940000000.0 -0.35167038525709665 -0.004461867659208877
1960000000.0 0.29969576847374363 0.23074033111054107
1980000000.0 0.008862591958924627 -0.396631572970162
2000000000.0 -0.3621334446364361 -0.19955435055242524
2020000000.0 -0.2807575003232851 0.3179280508440736
2040000000.0 -0.036031555275541124 0.4293638431479259
2060000000.0 0.3595642409743303 0.2409209994589901
2080000000.0 0.4130226992500352 -0.1192620047226632
2100000000.0 0.2767357912004785 -0.3188410810691844
2120000000.0 0.0334265355684051 -0.41140094531456034
2140000000.0 -0.05226092112714444 -0.3981941475362935
2160000000.0 0.3348451088243153 -0.19427326196260528
2180000000.0 0.19248619467112346 -0.3200858561188073
2200000000.0 -0.05691057164962998 -0.3557964305969666
2220000000.0 -0.27153962233428386 -0.2178084849245235
2240000000.0 -0.3346190270544831 0.06986197332360321
2260000000.0 -0.23199819139979613 0.24887105295896828
2280000000.0 -0.05614312028542243 0.33912282092779567
2300000000.0 0.3003556234021932 0.19005475811776848
2320000000.0 0.265278967387208 -0.26784191923631306
2340000000.0 -0.22795247277420574 -0.33767374139290035
2360000000.0 -0.17692499504154915 0.41190006634543624
2380000000.0 0.3992662316497288 -0.2958983115290136
2400000000.0 -0.4778000546306037 0.271830470544262
2420000000.0 0.36062511954474546 -0.48491637740022486
2440000000.0 -0.03226808077703782 0.6543334345393873
2460000000.0 -0.41573224970383116 -0.5614263213061359
2480000000.0 0.6777040196700145 0.2788623091700199
2500000000.0 -0.731664163690566 -0.1905524092304687
2520000000.0 0.6878638450337788 0.3479556512967814
2540000000.0 -0.5255135396801945 -0.5690655341827701
2560000000.0 0.10734164383571541 0.7632038830228469
2580000000.0 0.5144567078285283 -0.555629133130102
2600000000.0 -0.7325081710705842 0.057924150982490326
2620000000.0 0.54065556420843 0.45263950350775767
2640000000.0 0.6689897502972368 0.00856972028466162
2660000000.0 -0.44822206063854575 -0.4344654022143884
2680000000.0 0.07962311879499119 0.5719314746315017
2700000000.0 0.20493431630142514 -0.48745047312111783
2720000000.0 -0.3291060386222682 0.3488202213306853
2740000000.0 0.41195286791132657 -0.13401450361553197
2760000000.0 -0.38305884964113823 0.08605776385023244
2780000000.0 0.3356662020133081 -0.13257321122535265
2800000000.0 -0.20449219944393435 0.2650111770889074
2820000000.0 -0.1379490777512953 -0.28623161199510905
2840000000.0 0.30221713158366786 0.043787611175240715
2860000000.0 -0.18966400564199562 0.23546551506143573
2880000000.0 -0.09395857993214059 -0.28703615781616026
2900000000.0 0.17753648678176395 0.24664668730632824
2920000000.0 0.03498829223961515 -0.3048873154639245
2940000000.0 -0.30966358203492156 0.030493954398054742
2960000000.0 -0.1735430567862068 0.26200328827826186
2980000000.0 -0.2016530240755158 0.24631306540005016
3000000000.0 -0.3192878971930119 -0.006156382148530466
3020000000.0 -0.028592477673346182 -0.31820689415282927
3040000000.0 0.2916437143191733 0.121665515775344
3060000000.0 -0.3131938925748342 0.024738770384686398
3080000000.0 0.29686444104866966 -0.08716899437275027
3100000000.0 -0.2846095700912704 0.10713619146270816
3120000000.0 0.22417512984965102 -0.19706244841933618
3140000000.0 -0.1397970600336172 0.2522611038219799
3160000000.0 -0.10402825691766807 -0.2537456754059464
3180000000.0 -0.11160277442864197 0.2322320471982282
3200000000.0 -0.21420570777783235 -0.0917120652143972
3220000000.0 0.08025204928399081 -0.18914209578924887
3240000000.0 0.12900726754525974 0.11961736729085734
3260000000.0 -0.14203505150648169 0.011912315434484894
3280000000.0 0.10526266204008895 0.03437072279522049
3300000000.0 -0.07397265277332579 -0.031125356690266927
3320000000.0 0.014150755862263727 0.05046218206854288
3340000000.0 0.01652066940748636 -0.02193705438119457
3360000000.0 0.0023127250957982104 0.007558268755602693
3380000000.0 0.00872535257631664 0.0007082379475211605
3400000000.0 -0.005667406142679608 0.021989802449330218
3420000000.0 0.009639794952786473 -0.034190606321577874
3440000000.0 -0.046124401172306324 -0.0049418658812302235
3460000000.0 0.003256381721326929 -0.05536434094279641
3480000000.0 0.05945371275402746 -0.029516390310627142
3500000000.0 0.006538960891339839 -0.08029196968164888
3520000000.0 -0.08260295670241226 -0.04733055157513428
3540000000.0 0.10813668304436114 -0.022700091495284735
3560000000.0 -0.07861170688384285 0.09743135271695016
3580000000.0 -0.02599265838915248 -0.13656676006607263
3600000000.0 0.15030415274875136 -0.03777459553570794
3620000000.0 0.13962675428965404 0.09080942771555321
3640000000.0 -0.05001295486337186 0.17091484778618057
3660000000.0 -0.1664142246309261 0.08682855731430172
3680000000.0 -0.18676265132243172 -0.045024083211899796
3700000000.0 -0.1568987277556311 -0.11225344641811213
3720000000.0 0.021636213900180883 -0.1913209622549635
3740000000.0 0.11484215055999863 -0.1476821438419724
3760000000.0 -0.14099125999774237 0.11253549406455017
3780000000.0 0.15349734977489105 -0.07370463189785353
3800000000.0 -0.05675076977192106 -0.1527961849292953
3820000000.0 -0.15499086517301552 -0.01609224465363428
3840000000.0 -0.11314518333594228 -0.09594739182919078
3860000000.0 0.14732224269133948 -0.01412083501735085
3880000000.0 0.1517376389221899 -0.01654773660561709
3900000000.0 0.07103157730407164 -0.14142158643086145
3920000000.0 -0.13513740318124817 0.09002677534103708
3940000000.0 0.08172912812792367 -0.14586332359334145
3960000000.0 0.16586208824702142 0.047839809305607446
3980000000.0 0.12735670354382894 -0.11690507225067243
4000000000.0 0.15276124449870804 -0.0657639824537982
