!Created with skrf (http://scikit-rf.org).
# Hz S RI R 50.0 
!freq ReS11 ImS11
400000000.0 -0.6375101890670535 0.5959128289716003
420000000.0 0.3202138278850577 0.8078936441799867
440000000.0 0.6474353164577212 -0.5331155398885852
460000000.0 -0.25841545567494567 -0.7498992619249443
480000000.0 0.4781735898251055 -0.5228910650608837
500000000.0 -0.2693378132454643 -0.5091167180881131
520000000.0 -0.442511643433846 0.2261638411259251
540000000.0 0.24332229443720102 -0.33077272889725307
560000000.0 -0.3264709246675833 -0.16623707503200078
580000000.0 0.31721896101652725 0.12669569605222938
600000000.0 0.21723581935380126 -0.2691698295917396
620000000.0 -0.2018784747066349 0.29909724403203625
640000000.0 0.3696486601547159 0.1320474023568454
660000000.0 0.12055233794603205 -0.38565614497377354
680000000.0 0.3707902852867082 0.2083293829404273
700000000.0 0.060452796168929304 -0.4272314265970542
720000000.0 -0.3497650681586369 0.24633375622164724
740000000.0 0.28512421101136537 -0.29879693097708354
760000000.0 -0.3636371265736136 -0.14841045348743495
780000000.0 0.24759263232264353 0.2571584914660149
800000000.0 0.08177428877303101 -0.31331120980300337
820000000.0 -0.27542190699701136 0.023973875414901476
840000000.0 -0.10497046487091258 0.21700193850081675
860000000.0 -0.1780867642274993 -0.09740467702629323
880000000.0 0.15863724980356825 0.029686293075925005
900000000.0 0.04491586205330933 0.10501459577097824
920000000.0 -0.03614167453690495 0.06796637498859029
940000000.0 -0.04352210902289716 -0.00018550704716087683
960000000.0 -0.04823124231091166 -0.004663456178724158
980000000.0 0.025784079822668934 0.06384687302585042
1000000000.0 0.07492096982455425 -0.04166011135685045
1020000000.0 0.05630979508360461 -0.08673326178345186
1040000000.0 0.11723199954631477 -0.026052348841499248
1060000000.0 0.1400003121864996 0.07126075905221642
1080000000.0 0.08641867883535972 0.15253335626170011
1100000000.0 -0.11931893275498436 -0.16061647577640212
1120000000.0 0.11963925514069751 0.18638939855896416
1140000000.0 0.16387303213607785 -0.19483771675733402
1160000000.0 -0.14865483381560407 -0.2410472634954826
1180000000.0 0.0015288935411085726 -0.3171389593359447
1200000000.0 0.2990554350974444 -0.16361073753853037
1220000000.0 -0.2748954249122438 0.24141658377073616
1240000000.0 0.3653212072223877 0.12157481666193642
1260000000.0 -0.11720069170028034 -0.3916710662925487
1280000000.0 -0.41476168779779893 0.09117866048125745
1300000000.0 0.29320209547618986 0.3223762513398425
1320000000.0 0.4165575212539831 0.1332244939463684
1340000000.0 0.4364855649056062 -0.028057103975607643
1360000000.0 0.43533146311519927 0.06093211338928321
1380000000.0 0.2290498477166779 -0.3696296785683524
1400000000.0 -0.3643476872962213 -0.22595457284600284
1420000000.0 -0.032725461633243774 0.40902534885902736
1440000000.0 0.383556366093199 0.0009207665935912742
1460000000.0 0.01936193845749436 -0.3531778723105232
1480000000.0 -0.3164108422842308 0.05424377947493288
1500000000.0 -0.10483454976276321 0.26772400461301915
1520000000.0 0.12551190850292862 0.22773502641522358
1540000000.0 -0.1842286807938557 -0.13809408754402172
1560000000.0 0.08199584699052966 -0.17803952497639763
1580000000.0 0.1624193353596429 0.042399928620054005
1600000000.0 0.08975235538373967 -0.0985178215650708
1620000000.0 0.0712838925957879 -0.07617594378298127
1640000000.0 0.05777946675693551 0.0530614093353814
1660000000.0 -0.052188546914575744 -0.013711711850677578
1680000000.0 0.0330194763172645 0.010186933292544742
1700000000.0 0.01660345084583599 -0.012325694571826468
1720000000.0 0.005048586068970338 0.00023434222872771365
1740000000.0 0.0027454308094747703 0.015526812988075178
1760000000.0 0.032362808173851454 -0.00504690821762421
1780000000.0 0.04449132658384848 0.04168790448612464
1800000000.0 -0.08440123519446825 0.03597601258960081
1820000000.0 -0.12042914603010514 0.022144690046373202
1840000000.0 0.1576500329913257 -0.03160822551915796
1860000000.0 -0.19611017667187025 -0.029099729741382436
1880000000.0 0.23889984959530045 -0.00388558541405916
1900000000.0 -0.27730741028328476 0.05569374006925253
1920000000.0 0.2877205628893656 -0.13418044190577752
1940000000.0 -0.35158538988771093 -0.00748051821591549
1960000000.0 0.29945293374802473 0.23084824838916956
1980000000.0 0.006476954252831804 -0.3966040547655573
2000000000.0 -0.36740599876889884 -0.1891623402990581
2020000000.0 -0.27508212792427117 0.3226358589914869
2040000000.0 -0.03238990513629524 0.4294402165671574
2060000000.0 0.3761808875368665 0.2134795792974176
2080000000.0 0.4047798402912478 -0.14474472006391179
2100000000.0 0.2699060520092685 -0.32460179670456046
2120000000.0 -0.010425857302860561 -0.4127085763172627
2140000000.0 -0.09588766263549954 -0.3899932901410191
2160000000.0 0.31317608371833267 -0.2275544248353816
2180000000.0 0.19508464837802914 -0.3186804145074297
2200000000.0 -0.06974360269871237 -0.3537269030447031
2220000000.0 -0.2941848718099437 -0.18688636135768005
2240000000.0 -0.32995717777312444 0.08832039938794826
2260000000.0 -0.23249100488745061 0.24842809479699232
2280000000.0 -0.050186993614081465 0.3403134327280937
2300000000.0 0.30715060195649185 0.17982408676007333
2320000000.0 0.2749175198013756 -0.25800707789068367
2340000000.0 -0.21035095676979998 -0.3486921323306631
2360000000.0 -0.20777013442042938 0.3968458131231905
2380000000.0 0.40761406884425644 -0.2843204061922371
2400000000.0 -0.4731180989556475 0.27989848563935177
2420000000.0 0.3837427146972728 -0.4668353706424548
2440000000.0 -0.00313154706200284 0.6551374443580099
2460000000.0 -0.4333850171025233 -0.5477059561892379
2480000000.0 0.6919656372711372 0.24030004187246382
2500000000.0 -0.736542060933312 -0.170981238386178
2520000000.0 0.7187193772364708 0.27718235946885117
2540000000.0 -0.556975481155751 -0.5383285703991488
2560000000.0 0.1481328998334863 0.756405591245327
2580000000.0 0.48852827483185723 -0.5788344043949681
2600000000.0 -0.7299402146732596 0.08509401980594572
2620000000.0 0.5682749397392463 0.4176214468698469
2640000000.0 0.6688820294452671 -0.003541270648038391
2660000000.0 -0.46968469413951563 -0.41121158248249795
2680000000.0 0.15298942148054936 0.5570282025693305
2700000000.0 0.17841447664054874 -0.49768875324443007
2720000000.0 -0.3237579271353883 0.35351701010135417
2740000000.0 0.4166272353485064 -0.116697155313178
2760000000.0 -0.3833235487568197 0.08307356764544307
2780000000.0 0.3328154805845604 -0.13878443215073769
2800000000.0 -0.20750475073912084 0.2620739709452379
2820000000.0 -0.13510621320392366 -0.28729081035475507
2840000000.0 0.30316714814085755 0.034782161322935976
2860000000.0 -0.20348403662643913 0.2235097302459928
2880000000.0 -0.09543077763325766 -0.28640937028332397
2900000000.0 0.18757640831820516 0.23891917081282815
2920000000.0 0.016359331928302842 -0.3063782497950667
2940000000.0 -0.3083740516555785 0.042354442022061844
2960000000.0 -0.16952733287612023 0.2651448182476888
2980000000.0 -0.17691089249425665 0.26516935242347306
3000000000.0 -0.3185711872853134 0.020672809332714173
3020000000.0 -0.08678724452018667 -0.30738508560449235
3040000000.0 0.30284245192937154 0.09083179486024921
3060000000.0 -0.31034591610560597 0.04897584451572681
3080000000.0 0.29517228363366 -0.0935020030372021
3100000000.0 -0.29909123985398933 0.05362428089898897
3120000000.0 0.20962796040359835 -0.21240046408426067
3140000000.0 -0.12937057015352213 0.2580435039769812
3160000000.0 -0.10515438938820547 -0.25331089948008934
3180000000.0 -0.11018317535555892 0.23270046888056742
3200000000.0 -0.20626074791261348 -0.1081764709175207
3220000000.0 0.09116864689006243 -0.18418832315480058
3240000000.0 0.12245097605850198 0.12599686023353185
3260000000.0 -0.14242289193062552 0.004198909759953588
3280000000.0 0.10699742212000102 0.027879294969566128
3300000000.0 -0.07504948297702273 -0.02788034700307652
3320000000.0 0.01735213575950708 0.04919847583524306
3340000000.0 0.011185033252038366 -0.024719401919123984
3360000000.0 0.007780765513586742 -0.0008883729099008693
3380000000.0 -0.004234682985875347 -0.00810405541395509
3400000000.0 -0.014919122829913162 0.017107763041153266
3420000000.0 -0.00045323968676843783 -0.0357478836646542
3440000000.0 -0.04620217848590244 -0.003670040108676087
3460000000.0 0.013519605341267471 -0.0536760882482414
3480000000.0 0.06495066295390226 -0.011452032774136922
3500000000.0 -0.005687267745500624 -0.0804857488189253
3520000000.0 -0.07550862394789773 -0.05741995924150084
3540000000.0 0.10505559528411818 -0.034987901063303475
3560000000.0 -0.08032094762345202 0.096038518714743
3580000000.0 -0.03282259924435149 -0.13543018548358446
3600000000.0 0.1413263020982896 -0.0647279695935392
3620000000.0 0.13386921139293098 0.09916977945411165
3640000000.0 -0.05091866394921248 0.17071305617037597
3660000000.0 -0.1662629632974894 0.08754408314637561
3680000000.0 -0.18917297255646282 -0.032957453026218164
3700000000.0 -0.15186790485953855 -0.11880948743213883
3720000000.0 0.029842187581199636 -0.18978671571211578
3740000000.0 0.13083629911917294 -0.1335745983236919
3760000000.0 -0.1567654458154963 0.08903977585388967
3780000000.0 0.16231369376835497 -0.051784996657629354
3800000000.0 -0.021564099511939022 -0.16170691187462136
3820000000.0 -0.14937050172201555 -0.04387624637001878
3840000000.0 -0.0695767788757281 -0.13130339789208564
3860000000.0 0.14752052561449253 0.012401609614280463
3880000000.0 0.15159827969978934 0.016881637713999083
3900000000.0 0.10591960281374627 -0.11793908790376804
3920000000.0 -0.14648729600146335 0.06992102810367377
3940000000.0 0.11333084857174544 -0.12303476232244423
3960000000.0 0.15533223348637662 0.0748593020296117
3980000000.0 0.15070932957529387 -0.08439526919871364
4000000000.0 0.16297042717173518 -0.03153326955704184
