!Created with skrf (http://scikit-rf.org).
# Hz S RI R 50.0 
!freq ReS11 ImS11
400000000.0 -0.6320225414230726 0.6037135741300765
420000000.0 0.3054359314447014 0.8153607810911079
440000000.0 0.7069942108823462 -0.45577524449452833
460000000.0 -0.2570410095179053 -0.7499456700396044
480000000.0 0.6044909330226562 -0.36961568820623747
500000000.0 -0.38051609335100717 -0.431478557683621
520000000.0 -0.49700818258231927 0.04208197881227728
540000000.0 0.16455100587082594 -0.37720038358227764
560000000.0 -0.34333666249145023 -0.11319831017429446
580000000.0 0.20282392516722617 0.2790761954157769
600000000.0 0.14761281977782334 -0.31336483187834985
620000000.0 0.02722529232433254 0.36052810791296436
640000000.0 0.2511201843905385 0.3027338294228787
660000000.0 0.26665882222822906 -0.30829458558590456
680000000.0 0.4199532750471635 0.07289207476262578
700000000.0 0.045153371247369005 -0.42703406670043803
720000000.0 -0.4260468815581335 -0.03143966033282332
740000000.0 0.22876260360735884 -0.34201144532830907
760000000.0 -0.39154047685678145 0.0167293889645442
780000000.0 0.27752546458184496 0.22047098754409217
800000000.0 0.20678422564227567 -0.24988053464479304
820000000.0 -0.1523334150656319 0.23266260637229624
840000000.0 -0.19042765185097152 0.14670014304448337
860000000.0 -0.1537543107282956 -0.13464143697179343
880000000.0 0.16275209327052018 0.0032333235592424104
900000000.0 0.10922886577251285 0.031976575080631016
920000000.0 -0.07239143727531233 0.024587109982775256
940000000.0 -0.0003664152642269721 0.0452688486789307
960000000.0 -0.025948086202195988 -0.04150772554314696
980000000.0 0.06847849035540596 0.0019198669222697138
1000000000.0 0.027262872105233867 -0.07811375774601273
1020000000.0 0.09203018717271116 -0.04906365635815469
1040000000.0 0.08889843716122382 -0.08317405894119038
1060000000.0 0.1491704725533386 0.04429225360825587
1080000000.0 0.10284505676126762 0.14216465459264985
1100000000.0 -0.037608961125260784 -0.1983388548571067
1120000000.0 0.11341388338341717 0.19251831892671653
1140000000.0 0.1656525578714074 -0.1921207009534097
1160000000.0 -0.05806159845929152 -0.2785295870004252
1180000000.0 0.09000388722526513 -0.3059538446415299
1200000000.0 0.3056358537606315 -0.15001463970755066
1220000000.0 -0.3365384584075549 0.14084913655732004
1240000000.0 0.33998189358660796 0.18121007866483532
1260000000.0 -0.11139499017230539 -0.3925565649470784
1280000000.0 -0.42006528822589073 0.05411681239660585
1300000000.0 0.2305436062762709 0.36844164069112195
1320000000.0 0.42701576032586314 0.09226137480084225
1340000000.0 0.4322362970992491 -0.05315644488714877
1360000000.0 0.43176245871957364 0.0779317707717276
1380000000.0 0.17975966257856282 -0.39661192417587987
1400000000.0 -0.39048521810473297 -0.17574561062330396
1420000000.0 -0.068939886286135 0.4051761607899346
1440000000.0 0.379855061542377 -0.06022263412549808
1460000000.0 -0.030179045589037695 -0.35227708880434905
1480000000.0 -0.32019183751220004 0.03338453235836377
1500000000.0 -0.14056860088490936 0.25240311499891965
1520000000.0 0.13886336081420655 0.22011041551431337
1540000000.0 -0.17038493761258472 -0.156787665732415
1560000000.0 0.11488347926160251 -0.16093560049500963
1580000000.0 0.1274017982466823 0.11096636074540578
1600000000.0 0.1277914400957456 -0.03639330616103756
1620000000.0 0.10459319836435081 0.003643543478034815
1640000000.0 0.042980864809283315 0.06577990221068868
1660000000.0 0.006909518680616791 -0.051715626106629796
1680000000.0 -0.017838146211307224 0.029048320810271862
1700000000.0 -0.003663604482180933 -0.0203161504371194
1720000000.0 0.0016469755882488105 0.0026437287484220207
1740000000.0 -0.011744219715696716 0.011964797070636607
1760000000.0 0.02874422423933068 -0.013373044454159728
1780000000.0 -0.0461184620381763 -0.03843328021909921
1800000000.0 -0.09150726646417359 0.013207693821156772
1820000000.0 -0.10888926862263638 0.0515166352655478
1840000000.0 0.15592800692893785 0.03066088158295266
1860000000.0 -0.1814450745393319 -0.07996299052669191
1880000000.0 0.21877308768874135 -0.09623535578426021
1900000000.0 -0.27361079669152827 0.0641999151154869
1920000000.0 0.29947079288698747 -0.10332358775001102
1940000000.0 -0.34734805309861533 0.05611140382784258
1960000000.0 0.33248703492487114 0.17855661208039203
1980000000.0 3.5502918067527584e-06 -0.39656655083428105
2000000000.0 -0.3728970766179115 -0.18037566640287203
2020000000.0 -0.2334006756201433 0.3556006789245484
2040000000.0 -0.044348072418351404 0.42983866459213116
2060000000.0 0.3712439143787325 0.22531718438557757
2080000000.0 0.42604376859751025 -0.06824696867896562
2100000000.0 0.3119459798166379 -0.28741904752635006
2120000000.0 0.04802038087896442 -0.41109116600597756
2140000000.0 0.022090653958181845 -0.4020809001273988
2160000000.0 0.3675861373342625 -0.12604750218381952
2180000000.0 0.24218196996722002 -0.28447343329405045
2200000000.0 0.10452246865586606 -0.34518842659600524
2220000000.0 -0.23461604146566659 -0.25777010773318626
2240000000.0 -0.33963330161164795 -0.025636671718790097
2260000000.0 -0.29451155885165503 0.16917277773695308
2280000000.0 -0.09339067379846051 0.3289535459714181
2300000000.0 0.271457176955411 0.22663235851824395
2320000000.0 0.28281800527095735 -0.24680160779881435
2340000000.0 -0.27836509807036713 -0.296094624719338
2360000000.0 -0.17909854675838197 0.40850072101749124
2380000000.0 0.36098438269938316 -0.3407078157100063
2400000000.0 -0.46135077655316964 0.29790652671201223
2420000000.0 0.31987001232637063 -0.5128742947322237
2440000000.0 0.036232363104086576 0.6547374997519503
2460000000.0 -0.43522330221441624 -0.5480530409232806
2480000000.0 0.6747151280906608 0.2903802443137985
2500000000.0 -0.7143240252544153 -0.2536903765384265
2520000000.0 0.6870555412786967 0.3531605378382218
2540000000.0 -0.5114828140802419 -0.5844302312716638
2560000000.0 0.020011904245509717 0.7716449686994966
2580000000.0 0.5933439901330054 -0.4725248105028405
2600000000.0 -0.7266239561536394 -0.11883086198324
2620000000.0 0.4124046706173605 0.5725327245588868
2640000000.0 0.6452322823944525 0.17496233646961612
2660000000.0 -0.33336150880943116 -0.5271153001891097
2680000000.0 -0.008315807007536513 0.5763416223207781
2700000000.0 0.26931621300489356 -0.45317335510009304
2720000000.0 -0.3669085917160558 0.30611574518642953
2740000000.0 0.42369642379890454 -0.08093191188499856
2760000000.0 -0.38514633529200154 0.06666060909964941
2780000000.0 0.31740912344116806 -0.16897247325604536
2800000000.0 -0.1550137635279626 0.2946318545548037
2820000000.0 -0.16743224566148368 -0.2690140692739012
2840000000.0 0.30477329509394524 -0.026872135887650143
2860000000.0 -0.05895386150498841 0.2967275270965639
2880000000.0 -0.1295987743176226 -0.2732833905648445
2900000000.0 0.1908917892836402 0.2392901723044075
2920000000.0 -0.021931603210786445 -0.3080326410159025
2940000000.0 -0.3119632863410406 0.02425975208090403
2960000000.0 -0.21333739276938332 0.23354540280481267
2980000000.0 -0.24267502708186342 0.20955069340666174
3000000000.0 -0.3165916205774384 -0.05605926775554359
3020000000.0 0.020191478011990508 -0.32021977517476896
3040000000.0 0.22457696089770318 0.22454384565179017
3060000000.0 -0.3096812143681717 -0.062048816246954755
3080000000.0 0.30899299177836786 0.024940568631806506
3100000000.0 -0.2885773134521408 -0.09577469685393526
3120000000.0 0.288608640468602 -0.07708007056954364
3140000000.0 -0.22741749955816945 0.17799504735791502
3160000000.0 0.02049182950140319 -0.27273328197221886
3180000000.0 -0.20614127523486905 0.15331628384232654
3200000000.0 -0.15114239811950525 -0.17544541701647534
3220000000.0 0.15020379899226516 -0.138120969972094
3240000000.0 0.09896139890468757 0.14360227423376168
3260000000.0 -0.14037078681407786 0.005707181476054092
3280000000.0 0.10511273302052053 0.027437953794197157
3300000000.0 -0.07273474152509936 0.029752693546065755
3320000000.0 0.0416357153445179 -0.028490142963798374
3340000000.0 -0.020339885822339667 0.0160534380272261
3360000000.0 0.007225910706464194 0.0003218598131872028
3380000000.0 -0.00648527924994171 0.008487367660483011
3400000000.0 0.0230433753209092 -0.006311089615380946
3420000000.0 -0.004993946658221718 0.03642360869274131
3440000000.0 0.04654819129457335 -0.0057546888972913384
3460000000.0 0.04682943348200671 0.032135799045018655
3480000000.0 0.030905799136446265 0.05953610854598959
3500000000.0 0.07984991793605137 0.013751160837402772
3520000000.0 0.009114989809139527 -0.0954214841962536
3540000000.0 0.07549626262285973 0.08147168175400786
3560000000.0 -0.11239356345211182 -0.05520465140448727
3580000000.0 0.09971997972857576 -0.0968379314587904
3600000000.0 0.1189639817317037 0.09968285513770345
3620000000.0 0.055891217731261725 0.15720842043357403
3640000000.0 -0.1596257676291328 0.07471070584559313
3660000000.0 -0.1849574152297654 -0.029730685814248942
3680000000.0 -0.13159878832270372 -0.13804698295029477
3700000000.0 -0.0721533312420222 -0.17672465609790372
3720000000.0 0.10488614479929295 -0.16000331978066762
3740000000.0 0.1566319495428863 -0.09886418530411556
3760000000.0 -0.17706413903803353 0.02329328396853439
3780000000.0 0.16325530284060114 -0.041532609974965704
3800000000.0 0.012744215358885256 -0.16000775935229025
3820000000.0 -0.144412712950954 -0.05306134985586633
3840000000.0 -0.07207212138503902 -0.12597023610048452
3860000000.0 0.14217275976149069 0.032821092263220684
3880000000.0 0.14905712487832934 0.012959289352101167
3900000000.0 0.120969173555338 -0.0983380277857298
3920000000.0 -0.1332183447604838 0.08851458794576293
3940000000.0 0.1059424345463849 -0.1260943448507324
3960000000.0 0.16850480365025575 0.019568452887859435
3980000000.0 0.11274182213689439 -0.12771623734777102
4000000000.0 0.10891156679177827 -0.12198961721718897
