!Created with skrf (http://scikit-rf.org).
# Hz S RI R 50.0 
!freq ReS11 ImS11
400000000.0 -0.6062207464740964 0.6301283110878142
420000000.0 0.34082331710803715 0.7994797244891632
440000000.0 0.7070482521761847 -0.4522393806459923
460000000.0 -0.2540090860186235 -0.7513694420149029
480000000.0 0.4977517633380704 -0.5034404309515972
500000000.0 -0.2747769338251268 -0.5069225589922156
520000000.0 -0.37944009547335267 0.31979612467641144
540000000.0 0.27499098388826704 -0.300869272693677
560000000.0 -0.24838632342048486 -0.26789843797635576
580000000.0 0.21223226105240373 0.2653044536532595
600000000.0 0.2570798249603247 -0.23429281166566
620000000.0 -0.29169633604963 0.21430868436296197
640000000.0 0.3761263633547524 0.11517902804532221
660000000.0 0.18243451339613354 -0.36024942536343124
680000000.0 0.34618635603043235 0.2485737908366948
700000000.0 0.013701500223385498 -0.4312554370657098
720000000.0 -0.40008011552639267 0.15184746655909206
740000000.0 0.20403074581927608 -0.35823441047368576
760000000.0 -0.3735978579572258 -0.12039812301982127
780000000.0 0.27461743778155173 0.22793173313657306
800000000.0 0.03854512740965861 -0.32176410065739336
820000000.0 -0.2762323468537689 0.009015845006163632
840000000.0 -0.04214299515353648 0.23692400880879355
860000000.0 -0.18043891440983167 -0.09516235080151803
880000000.0 0.16147083899404696 0.003266024218154081
900000000.0 0.008830630305571534 0.11468059666984869
920000000.0 -0.026379840808446887 0.07283148657499622
940000000.0 -0.03539534424328495 -0.02554787099763372
960000000.0 -0.04538120562322939 0.01554213505133498
980000000.0 0.0476426893815377 0.04889543129161662
1000000000.0 0.05908398373668136 -0.06216052738929304
1020000000.0 0.009269401764089039 -0.10238414296861682
1040000000.0 0.11998938992059419 -0.005746816700090577
1060000000.0 0.14187083153852578 0.067492471753142
1080000000.0 0.0977427176506991 0.14599390026116288
1100000000.0 -0.08897902991962713 -0.17953219493951106
1120000000.0 0.11738998472824957 0.18740926107306577
1140000000.0 0.20727160673462391 -0.148560386891251
1160000000.0 -0.13719556544689585 -0.24824370401503965
1180000000.0 0.002350014635239127 -0.3172765853488368
1200000000.0 0.3079117027776648 -0.14570471316794495
1220000000.0 -0.28804307549191127 0.22537692077540528
1240000000.0 0.3620353552834598 0.13007242701523392
1260000000.0 -0.10847968709513267 -0.3938255204229896
1280000000.0 -0.41578088211751313 0.08523312416462396
1300000000.0 0.2855990599845381 0.32879972219940073
1320000000.0 0.4167296821045675 0.132198194976135
1340000000.0 0.43652580485032827 -0.02809422598690956
1360000000.0 0.43503153175297904 0.06074467488451522
1380000000.0 0.22888024524163436 -0.3701382632244111
1400000000.0 -0.3617568179030158 -0.23060980027124092
1420000000.0 -0.030998113999199908 0.40930699558378014
1440000000.0 0.3828030143790837 -0.023377813251212097
1460000000.0 0.023141353569037175 -0.3533176358002132
1480000000.0 -0.3163511869871341 0.05484306939766083
1500000000.0 -0.1243351460317021 0.2594738290306668
1520000000.0 0.12563877664797096 0.22784410935873511
1540000000.0 -0.18456534046199052 -0.1384679857638837
1560000000.0 0.08133677951800755 -0.17876652364397397
1580000000.0 0.15036576900141932 0.07523904773650557
1600000000.0 0.0943194373781641 -0.0942757630290275
1620000000.0 0.09044442050779301 -0.05134714811182086
1640000000.0 0.0518434395301701 0.0587952505073327
1660000000.0 -0.04742149978258847 -0.025366023559836675
1680000000.0 0.0319608448368014 0.012871877883163014
1700000000.0 0.0014845324290546575 -0.02054725255976163
1720000000.0 -0.0031793362758163147 0.003537140662775666
1740000000.0 0.006014469237121279 0.014112233730752722
1760000000.0 0.030738142814126332 -0.00965402755014424
1780000000.0 0.04132501424404935 0.04415510596673266
1800000000.0 -0.08360481544603902 0.03665971649850219
1820000000.0 -0.1201814704246035 0.022970171705405888
1840000000.0 0.15577995785304619 -0.038998784334769165
1860000000.0 -0.19663366698391488 -0.024664487517954494
1880000000.0 0.2381073252561341 -0.017325825593629177
1900000000.0 -0.273208750274716 0.07239084404092411
1920000000.0 0.2855619055812853 -0.13830906868186857
1940000000.0 -0.3514714850466642 0.0045495123886311346
1960000000.0 0.29890106678300005 0.2315468841512722
1980000000.0 0.007234444404911401 -0.39673792870829294
2000000000.0 -0.3655733399163676 -0.19348518834770947
2020000000.0 -0.27700432108095463 0.32138070687902676
2040000000.0 -0.046727940242619316 0.42843897078836185
2060000000.0 0.3654633040687231 0.23189884595227545
2080000000.0 0.4126820709131578 -0.1203836959309756
2100000000.0 0.2892922894245617 -0.3076708655052175
2120000000.0 0.045269163186235965 -0.4102652159723717
2140000000.0 -0.05254869450670033 -0.39790037340411244
2160000000.0 0.333337780955727 -0.19615774684244403
2180000000.0 0.2052074038059058 -0.3114176500657021
2200000000.0 -0.024327793674450773 -0.3589018915937417
2220000000.0 -0.2621193098060754 -0.2283296718384354
2240000000.0 -0.3386712842030568 0.043915516253101014
2260000000.0 -0.23406611287932064 0.24606756292837928
2280000000.0 -0.045071921871745343 0.3403625161714462
2300000000.0 0.3101024967990841 0.1732316131537159
2320000000.0 0.25669938515924123 -0.27523309045123395
2340000000.0 -0.2517440965264143 -0.3200566692635129
2360000000.0 -0.16363686276683398 0.41688472575083035
2380000000.0 0.39460161062790255 -0.30146968812447816
2400000000.0 -0.45959157467294964 0.3017858396881921
2420000000.0 0.33704402691841057 -0.5016726504562586
2440000000.0 -0.03545122304560455 0.6547291913260596
2460000000.0 -0.4188147387772263 -0.5595949105721364
2480000000.0 0.6775512145130627 0.2808188933228425
2500000000.0 -0.7035223527537572 -0.27941112291555825
2520000000.0 0.6750424643383786 0.37231987549244133
2540000000.0 -0.5477393654854618 -0.5480195692572403
2560000000.0 0.0942440839213066 0.7648516531681417
2580000000.0 0.4968477634296964 -0.5711625440363458
2600000000.0 -0.7326325751770535 0.05549259735003468
2620000000.0 0.5467428201657138 0.44465751067632747
2640000000.0 0.6671964620276376 0.039515381895163466
2660000000.0 -0.46207101532224854 -0.41816837078319735
2680000000.0 0.14411768502129932 0.5581769028493414
2700000000.0 0.14238139812699072 -0.5083122796814212
2720000000.0 -0.29411820349983747 0.37751965900402
2740000000.0 0.408164797836819 -0.1423400424380607
2760000000.0 -0.37873166260809776 0.10044774801309148
2780000000.0 0.3239008987841061 -0.1577874585573183
2800000000.0 -0.188193638189072 0.27606921753733177
2820000000.0 -0.15694090828288607 -0.2756554373623533
2840000000.0 0.3043913927105904 0.018495916331670924
2860000000.0 -0.15917537386975295 0.25651128598638895
2880000000.0 -0.1029663505159639 -0.2839157206285469
2900000000.0 0.20809143042110456 0.220746339244076
2920000000.0 0.01911618659353369 -0.30636280824412254
2940000000.0 -0.31022028440668875 0.023187523907550366
2960000000.0 -0.16487938962385554 0.26752941602908703
2980000000.0 -0.1981829559352759 0.24924180700056542
3000000000.0 -0.31842351869021224 0.015818552303501206
3020000000.0 -0.08776323951226436 -0.30683911715237616
3040000000.0 0.2836936965637392 0.13837691770045002
3060000000.0 -0.3138137355026505 0.009349150763802418
3080000000.0 0.30040056912701296 -0.07248891601762551
3100000000.0 -0.29685064694472735 0.06485258179439961
3120000000.0 0.22121350988056918 -0.199917331941638
3140000000.0 -0.14918708712200077 0.2469015532104847
3160000000.0 -0.09411512767070553 -0.2571633255379241
3180000000.0 -0.12853345807660518 0.22287942928591148
3200000000.0 -0.20966498443972487 -0.10061166838028224
3220000000.0 0.08344781948803548 -0.18775415024331493
3240000000.0 0.1319787119875587 0.11555247760867551
3260000000.0 -0.1407373355903108 0.01955729795657595
3280000000.0 0.09911051103333607 0.04865242623276421
3300000000.0 -0.07976492317304408 -0.0029636645762476624
3320000000.0 0.03769512919498565 0.0357273938668774
3340000000.0 0.004551643890395559 -0.02650425359295406
3360000000.0 0.004757142642604011 0.005757558345379602
3380000000.0 0.007513813889734337 -0.0047205868085432
3400000000.0 0.005559468133308722 0.022253558730378757
3420000000.0 0.022615166715784885 -0.02727458056426897
3440000000.0 -0.04302416126537388 -0.016371448068371562
3460000000.0 -0.004858123101401295 -0.05513347342851174
3480000000.0 0.06541893380244015 -0.008371434774681285
3500000000.0 0.01681217976283641 -0.07813025453731742
3520000000.0 -0.07276747428874755 -0.060476269436865966
3540000000.0 0.10825457631051413 -0.018923519867205755
3560000000.0 -0.08502642113315358 0.0914597440896435
3580000000.0 -0.023817168599327313 -0.13642335447378542
3600000000.0 0.15354782077101578 -0.01418224712772014
3620000000.0 0.14604007873364566 0.07957421047924468
3640000000.0 -0.04605704636181668 0.17087310527452823
3660000000.0 -0.15924109179785603 0.09734922383100125
3680000000.0 -0.18910735741773044 -0.028391434417021067
3700000000.0 -0.16684676098902174 -0.09561371241219495
3720000000.0 -0.004231326045490921 -0.19177237154092266
3740000000.0 0.09719262882503824 -0.15898987959565736
3760000000.0 -0.12649170409627408 0.12835500998608718
3780000000.0 0.1325996566127932 -0.1065431349622121
3800000000.0 -0.08556828974518967 -0.1383826644189759
3820000000.0 -0.15393906417308795 0.02138750834685776
3840000000.0 -0.12945566450912754 -0.07285807274500856
3860000000.0 0.13439126610757143 -0.061900631321786005
3880000000.0 0.13769577655235893 -0.06520141295671694
3900000000.0 0.03292600864579083 -0.15511288140372698
3920000000.0 -0.10920479368599452 0.12092965682745092
3940000000.0 0.05726648239300669 -0.15748743318456276
3960000000.0 0.17311457861384544 0.009276585648136857
3980000000.0 0.12270414949240929 -0.1227401015043196
4000000000.0 0.13990927495762154 -0.0912971462613535
