!Created with skrf (http://scikit-rf.org).
# Hz S RI R 50.0 
!freq ReS11 ImS11
400000000.0 -0.6271346424929448 0.6075579126700477
420000000.0 0.31128049966300364 0.8121663210226022
440000000.0 0.6915619387097718 -0.47619849461348956
460000000.0 -0.19707245248285685 -0.7688513741861375
480000000.0 0.49216103157665053 -0.5078088274876029
500000000.0 -0.16372079810830528 -0.5526298286010445
520000000.0 -0.45888538858388 0.1887812411429879
540000000.0 0.2616106914692776 -0.3172206116171445
560000000.0 -0.3499157665428626 -0.09786579801524753
580000000.0 0.3231810197671429 0.1150469860085438
600000000.0 0.2551899351164828 -0.23362374425361596
620000000.0 -0.17916671573586532 0.313443169073951
640000000.0 0.32820175167617505 0.2205782775712668
660000000.0 0.14932240892790397 -0.37702129086154057
680000000.0 0.3330380974938661 0.2648490774723669
700000000.0 0.09638684977296018 -0.4208137365159038
720000000.0 -0.3799533078505519 0.19766471046544884
740000000.0 0.30879312873454745 -0.27276434452356324
760000000.0 -0.3667013878098287 -0.13568934102689328
780000000.0 0.31130279924639165 0.1767783577768979
800000000.0 0.1529380784886308 -0.2842446777465052
820000000.0 -0.24232761752283388 0.1345322390886705
840000000.0 -0.1459131475756017 0.1914412190443608
860000000.0 -0.2019762255215514 -0.0335586815845045
880000000.0 0.16174621127310795 -0.005411642524891448
900000000.0 0.09553272379527815 0.06464780414698135
920000000.0 -0.0648104591283282 0.04005013004204604
940000000.0 0.010963706706311124 0.04342217803540172
960000000.0 -0.04636016581520041 -0.014134799036352797
980000000.0 0.038488031508255055 0.055436905559232
1000000000.0 0.004758737493683764 -0.08556208409737588
1020000000.0 0.08369850487959404 -0.060823598666522365
1040000000.0 0.06367140351625401 -0.10228296412990773
1060000000.0 0.13129928763530305 0.08523907574554922
1080000000.0 0.10325396815361544 0.1420132684211227
1100000000.0 -0.08794263868137732 -0.18073352473193235
1120000000.0 0.08703928026006526 0.20440521447841115
1140000000.0 0.18942161064559268 -0.17148660714655392
1160000000.0 -0.09809658503474339 -0.2657819701732442
1180000000.0 0.05061128299100957 -0.3132445259237527
1200000000.0 0.3279794525087382 -0.09177869402839964
1220000000.0 -0.31910653768919117 0.17740467891184983
1240000000.0 0.3572609067041378 0.14274975391905773
1260000000.0 -0.08764521899386273 -0.39875214059567854
1280000000.0 -0.42298869535421263 0.031021578458759802
1300000000.0 0.272402156704258 0.3389871227908302
1320000000.0 0.4161543332805475 0.13360048685085701
1340000000.0 0.4360954408804472 -0.027829492273781863
1360000000.0 0.43535664764803234 0.054697417186132316
1380000000.0 0.18559965520482666 -0.3930300317721839
1400000000.0 -0.3682674866635948 -0.2204936395067741
1420000000.0 0.0037623005302799147 0.4102766858103054
1440000000.0 0.3812715334903035 -0.04539135690484333
1460000000.0 -0.017785244158644443 -0.3535757650672155
1480000000.0 -0.3174495515488571 0.055477593863191274
1500000000.0 -0.1471719011776963 0.24805563750533355
1520000000.0 0.13778075327960593 0.22070127054482191
1540000000.0 -0.17914147398706745 -0.1469010646722626
1560000000.0 0.11930308530100361 -0.15713812635744268
1580000000.0 0.1465536098369208 0.08392659293715872
1600000000.0 0.1267220956086485 -0.042071069566449515
1620000000.0 0.10463727898741997 0.004530046230826523
1640000000.0 0.00247711085936312 0.07794541748180775
1660000000.0 -0.029489435942351802 -0.04402056389419501
1680000000.0 -0.0009215922010145364 0.033471142929095386
1700000000.0 -0.011554459290378048 0.01584379829242391
1720000000.0 0.004539187772411211 0.00043859720087887315
1740000000.0 0.014969018734825399 -0.004941121962522677
1760000000.0 0.01690669660876833 0.027950047759805453
1780000000.0 0.021981443273768463 0.056280892704329344
1800000000.0 -0.08668550019606673 -0.02669343543992498
1820000000.0 -0.1184670948666535 -0.02665708542565233
1840000000.0 0.1587342437125247 -0.017879287222415642
1860000000.0 -0.19093624858099773 -0.04951327423756144
1880000000.0 0.2355696180130199 -0.033586282319069974
1900000000.0 -0.27394460398291415 0.06648384557925185
1920000000.0 0.2632119485796315 -0.17666508588528496
1940000000.0 -0.3497844655050453 0.03421209240495855
1960000000.0 0.3182215352261763 0.2032565808563739
1980000000.0 -0.038604640794085314 -0.3952343249087067
2000000000.0 -0.3768756900839311 -0.17254341682928342
2020000000.0 -0.2555507874105216 0.3394857416825205
2040000000.0 -0.040732372913462905 0.4300188644404932
2060000000.0 0.3701441834057384 0.22686659198787193
2080000000.0 0.4202637036641002 -0.09732094771959146
2100000000.0 0.3190808493668142 -0.27871522517995095
2120000000.0 0.09813134531227403 -0.40225525813383306
2140000000.0 0.018375349666910606 -0.40188646540595996
2160000000.0 0.37577725753389846 -0.09522945819596067
2180000000.0 0.265427847588226 -0.26293321342039594
2200000000.0 0.04709418424173057 -0.3571138529092207
2220000000.0 -0.1979918839731107 -0.28562685314413244
2240000000.0 -0.34026060229943317 0.017354263511096524
2260000000.0 -0.2753339878031068 0.1972112928085705
2280000000.0 -0.09869539711461765 0.32760904692614834
2300000000.0 0.2951971428896483 0.19543031511880202
2320000000.0 0.25481057236711513 -0.2755412463001563
2340000000.0 -0.24860106157793307 -0.3205588648854223
2360000000.0 -0.15483937056187988 0.41918573424194194
2380000000.0 0.3637448752545911 -0.33769406017739667
2400000000.0 -0.4429158082379882 0.324990386196006
2420000000.0 0.31975910111187555 -0.5130315735718601
2440000000.0 0.009730857300603113 0.6559505837465603
2460000000.0 -0.4423179078739122 -0.5422226522593921
2480000000.0 0.6707814551706893 0.29945416050757906
2500000000.0 -0.7222647718338191 -0.22942815553523838
2520000000.0 0.6847273931948082 0.35700988851998006
2540000000.0 -0.47753433049161326 -0.6119240058261527
2560000000.0 0.02955920739513709 0.7713187931563251
2580000000.0 0.595088700934153 -0.46987413806161843
2600000000.0 -0.7327251776013226 -0.06259002674110699
2620000000.0 0.4650589470439763 0.5301202941653264
2640000000.0 0.6568696524541628 0.12587716328146736
2660000000.0 -0.38652934485646323 -0.48943678665284734
2680000000.0 0.02346915260225699 0.576008831266659
2700000000.0 0.23799783536161292 -0.47079203930884816
2720000000.0 -0.353804986708612 0.32169355549955125
2740000000.0 0.42202304376235894 -0.09115202288414961
2760000000.0 -0.379565585613158 0.09391580336991051
2780000000.0 0.32659650096011267 -0.15067672993651782
2800000000.0 -0.17458582911724643 0.2844036882659619
2820000000.0 -0.19012091871224604 -0.25386140055817324
2840000000.0 0.3057546674202415 0.007600204722497618
2860000000.0 -0.16092858036652374 0.25655553266849007
2880000000.0 -0.14079759660313773 -0.26788699501370444
2900000000.0 0.2243333656915907 0.20622162177347003
2920000000.0 -0.007858261454203092 -0.3081601552450099
2940000000.0 -0.31197807088614343 0.023489813321158126
2960000000.0 -0.18857800685569368 0.25340090344119726
2980000000.0 -0.2233366726457415 0.22956740394329161
3000000000.0 -0.31506136986097216 -0.05918060358704996
3020000000.0 -0.0009307036232252741 -0.3206921381605901
3040000000.0 0.19463218506339686 0.25030967857935393
3060000000.0 -0.2934390563419049 -0.11559182698585209
3080000000.0 0.30964475920802775 0.013345868886822675
3100000000.0 -0.3008959214175392 -0.046733172811826505
3120000000.0 0.2952532171909813 -0.043067471053716
3140000000.0 -0.23739367632358255 0.16357078539496162
3160000000.0 0.02682487634124076 -0.2721872568600336
3180000000.0 -0.18827606049762372 0.17482318427807284
3200000000.0 -0.14611512466641702 -0.17996767226401125
3220000000.0 0.13641129225608808 -0.15191004721093782
3240000000.0 0.09413750043990268 0.1462478868411483
3260000000.0 -0.14047157364544757 -0.010714906716398215
3280000000.0 0.10876350323648969 -0.004929803265770675
3300000000.0 -0.07548631016751041 0.020299636805621888
3320000000.0 0.0487139440654906 -0.013969981647253025
3340000000.0 0.0026964036316211495 0.025706933763978857
3360000000.0 -0.007380852335603964 -0.0017236217143598786
3380000000.0 -0.004632666106921519 0.009337343022784925
3400000000.0 0.021621431066850175 0.009785616043120142
3420000000.0 -0.01829498645724804 0.031398649458695846
3440000000.0 0.037660465291211295 -0.027576053063600427
3460000000.0 0.03355591312931983 0.0448742290143627
3480000000.0 -0.012355644534168939 0.06514018291987299
3500000000.0 0.07700152085473345 0.023053959943597185
3520000000.0 0.03866809201599131 -0.0869833156893955
3540000000.0 0.08813081542602562 0.067317232883855
3560000000.0 -0.12057972460195246 -0.032421390184927484
3580000000.0 0.09654776860303968 -0.09917525477371045
3600000000.0 0.14315062894778413 0.0588110827864052
3620000000.0 0.053975755338206616 0.15638157374415346
3640000000.0 -0.1322188677945624 0.11690856227732502
3660000000.0 -0.18615212294713523 -0.002930202826309121
3680000000.0 -0.15313185343308094 -0.11319872775309252
3700000000.0 -0.11824645166430947 -0.14995254931002774
3720000000.0 0.0628389324365794 -0.17962941776356936
3740000000.0 0.13980847527628387 -0.12090784373383222
3760000000.0 -0.14990767976953343 0.09674509517907778
3780000000.0 0.15118323158175218 -0.0740940709856247
3800000000.0 -0.06912329598673336 -0.14536895124327248
3820000000.0 -0.15326049752905746 0.007969941466213375
3840000000.0 -0.1228233369676828 -0.07891475563734945
3860000000.0 0.1357262222645026 -0.05405227968259448
3880000000.0 0.14346759147981036 -0.04501429322083148
3900000000.0 0.047206643280141715 -0.14912303213492037
3920000000.0 -0.11204475938189364 0.11515928244067991
3940000000.0 0.05066670271029796 -0.1574532565848687
3960000000.0 0.17000674630731166 -0.0184330908753177
3980000000.0 0.08031292864072272 -0.15150714630277928
4000000000.0 0.09800567071423852 -0.13305290477899903
