!Created with skrf (http://scikit-rf.org).
# Hz S RI R 50.0 
!freq ReS11 ImS11
400000000.0 -0.6432267413058592 0.592596937903483
420000000.0 0.31640718648814825 0.8105590235045812
440000000.0 0.6914285986717527 -0.4760264487730469
460000000.0 -0.19696733247446677 -0.7687683916248899
480000000.0 0.5006679512306142 -0.49928140039342134
500000000.0 -0.17802689514262773 -0.5485596517714646
520000000.0 -0.46556755104376296 0.17010275513591303
540000000.0 0.25862569649948813 -0.31942341286143977
560000000.0 -0.3558581005343735 -0.07540086888977342
580000000.0 0.3142678518578486 0.1368129943880759
600000000.0 0.25101545791435603 -0.23805649916300536
620000000.0 -0.17159732758677707 0.31805129404129023
640000000.0 0.32760118741352606 0.22197809879822514
660000000.0 0.14049675855797847 -0.38065922473968006
680000000.0 0.3429128713812388 0.2515112516646904
700000000.0 0.11018472156650615 -0.4174669892838392
720000000.0 -0.36834993968639945 0.21926964661531992
740000000.0 0.3043405643910296 -0.2783392749896425
760000000.0 -0.3669798829764374 -0.1348471697102529
780000000.0 0.30176273034796314 0.19249517928592594
800000000.0 0.14463766981364573 -0.28854069702635143
820000000.0 -0.23628580433009486 0.14441923471555324
840000000.0 -0.12655618943054292 0.20452452937601434
860000000.0 -0.203760864069949 -0.02048465492086111
880000000.0 0.16160521777595677 -0.014360557527400382
900000000.0 0.10593562326817858 0.04534649898157337
920000000.0 -0.06069842905497967 0.04611944341221089
940000000.0 0.031016608680758864 0.032183921587557014
960000000.0 -0.0471511945475589 -0.01185564072610948
980000000.0 0.038625706891531164 0.05564325613794024
1000000000.0 0.008929564780698762 -0.08524875761642567
1020000000.0 0.08161662558431548 -0.06339240880025221
1040000000.0 0.04973327512410072 -0.10958193684649033
1060000000.0 0.1434213679177105 0.06241163814154608
1080000000.0 0.10938519930100206 0.13751649984498746
1100000000.0 -0.09560730634032609 -0.17697951468477052
1120000000.0 0.08874577304625127 0.2039494010851244
1140000000.0 0.19191681608185296 -0.1688302185863772
1160000000.0 -0.07724017102532724 -0.27265875111567034
1180000000.0 0.0631188880912173 -0.31111119211305116
1200000000.0 0.32971502466539776 -0.08581096762646308
1220000000.0 -0.3178964251517419 0.1795364138028552
1240000000.0 0.3536606733160961 0.15150470834201912
1260000000.0 -0.09077316684039144 -0.39793555357255084
1280000000.0 -0.4234339714704781 0.021248185227225266
1300000000.0 0.25094517768240476 0.35492263452333506
1320000000.0 0.4119698648728811 0.14637492202965918
1340000000.0 0.435394309840972 -0.036531664196733205
1360000000.0 0.4367188212113188 0.04480773565957479
1380000000.0 0.1896542929103662 -0.3911481810260425
1400000000.0 -0.36940524711337025 -0.21884194715269087
1420000000.0 0.0032495340011655634 0.41039872449402276
1440000000.0 0.3811026724279936 -0.047434075591513546
1460000000.0 -0.02070685950062038 -0.3536438023549575
1480000000.0 -0.3086065470215696 0.093447252654801
1500000000.0 -0.14593855851150853 0.24910137844542543
1520000000.0 0.13904606539822642 0.21994274426994204
1540000000.0 -0.15938156657687058 -0.16874249196307992
1560000000.0 0.10322788627811633 -0.1680162276655282
1580000000.0 0.1434469376862386 0.0889095125578543
1600000000.0 0.12616935463136855 -0.043330039593516494
1620000000.0 0.10449764631435372 0.005189776433885669
1640000000.0 0.012561319029412566 0.07698893853772971
1660000000.0 -0.0419562587900258 -0.03283378304250393
1680000000.0 -0.006864404357057888 0.03267985158282998
1700000000.0 0.01512330001726156 0.01289555360866068
1720000000.0 -0.0006447144538289269 -0.0044933966394462566
1740000000.0 0.015493053407484303 -0.002356290924183931
1760000000.0 0.016837443961904217 0.027997685749312898
1780000000.0 0.025277889190437514 0.05479350896188039
1800000000.0 -0.08961550704790912 -0.014055606915983189
1820000000.0 -0.11969490197382908 -0.01907594878622825
1840000000.0 0.15694817824934496 -0.02938142276087569
1860000000.0 -0.19348487577819232 -0.039014250132730015
1880000000.0 0.23528276146888097 -0.03683373086668923
1900000000.0 -0.272561745694049 0.07255441051615401
1920000000.0 0.26142548263882137 -0.17955762296582106
1940000000.0 -0.3497895552526782 0.03567007874989538
1960000000.0 0.31556309128102916 0.20749809540027914
1980000000.0 -0.02991100157716917 -0.39612848536541656
2000000000.0 -0.3696213004509881 -0.18783579483960516
2020000000.0 -0.27000703601314563 0.32839399784113726
2040000000.0 -0.03608364096704324 0.43039796042354955
2060000000.0 0.37002608187644576 0.22682647285556146
2080000000.0 0.42707512617756965 -0.06173151121638889
2100000000.0 0.32015502465641654 -0.2773689839620471
2120000000.0 0.13818363985815352 -0.39035642856206276
2140000000.0 -0.03455640644011205 -0.4007165948505191
2160000000.0 0.37288244237012347 -0.10642733863174672
2180000000.0 0.25626275844894303 -0.2719069577388636
2200000000.0 0.06665214687697993 -0.35418607787500267
2220000000.0 -0.23233627481357164 -0.25862206604297744
2240000000.0 -0.3407408612817935 0.012218896585866045
2260000000.0 -0.27245256619438896 0.20203812925611925
2280000000.0 -0.10957384882110913 0.3245321812125862
2300000000.0 0.2952955969158073 0.1959249249648879
2320000000.0 0.25521582824046707 -0.2757590160825661
2340000000.0 -0.2788672668060633 -0.2961074664912599
2360000000.0 -0.14161387155971658 0.4242933923617588
2380000000.0 0.33509130238760676 -0.3670759361966554
2400000000.0 -0.4374130274739786 0.33346128405102576
2420000000.0 0.28839598236301883 -0.5319937164711995
2440000000.0 0.08178748952199462 0.6515498582418279
2460000000.0 -0.5002467452876351 -0.4900306804841339
2480000000.0 0.6932737874722334 0.24482100246305002
2500000000.0 -0.7444123419338017 -0.14444876452693212
2520000000.0 0.721494843414306 0.2759491304114114
2540000000.0 -0.5206799084254384 -0.5760757916589667
2560000000.0 0.09740594796669831 0.7655629568905218
2580000000.0 0.5473524588602463 -0.5243527829507715
2600000000.0 -0.734881554926468 -0.0059245247679068904
2620000000.0 0.4890879129801045 0.5072729280095352
2640000000.0 0.663748763948598 0.07360265633203794
2660000000.0 -0.4001283455122242 -0.47692098147979767
2680000000.0 0.023091677924710844 0.5746023247834534
2700000000.0 0.22900930628979463 -0.4736078294655541
2720000000.0 -0.35098436494172525 0.3227272493742696
2740000000.0 0.4108800329546948 -0.12868351611740972
2760000000.0 -0.37062792968685787 0.12079843929410297
2780000000.0 0.3132981169498173 -0.17456495581939166
2800000000.0 -0.16342348903116038 0.28990459311562145
2820000000.0 -0.21385615045449777 -0.2332528594088826
2840000000.0 0.3036148770559012 -0.029117211943666812
2860000000.0 -0.1428684462591895 0.2667860967566459
2880000000.0 -0.1363847833568431 -0.27018579774927054
2900000000.0 0.22117188812583874 0.20993271222889548
2920000000.0 -0.0028996566993104147 -0.3081435174786036
2940000000.0 -0.31268475115470173 0.0035441444244048766
2960000000.0 -0.1972002277559973 0.24654012843607764
2980000000.0 -0.22260466820081132 0.22972300494342549
3000000000.0 -0.3151868823946059 -0.056026154721633824
3020000000.0 0.013972794490821712 -0.3199599673707765
3040000000.0 0.2499510920050814 0.1941891772094551
3060000000.0 -0.30845825722396786 -0.06451095014956505
3080000000.0 0.3090560676893984 0.008949845785461815
3100000000.0 -0.30189030208117873 -0.034702970518405325
3120000000.0 0.2954957024627773 -0.03624076377221569
3140000000.0 -0.198952305874527 0.20850806640978783
3160000000.0 -0.015819538763318104 -0.2726922799893056
3180000000.0 -0.1877193171660388 0.17462730661670622
3200000000.0 -0.16040935718160979 -0.16730630417668874
3220000000.0 0.125520678150125 -0.1612638888007527
3240000000.0 0.10513847436653405 0.1387310449116182
3260000000.0 -0.14072727507558963 0.0069180272874247144
3280000000.0 0.1082323870228398 0.014111777632671161
3300000000.0 -0.07628125838653889 0.017867192063062757
3320000000.0 0.050140397501949034 -0.00876911266680988
3340000000.0 -0.01470101083902098 0.021454207240547078
3360000000.0 0.001525899745456454 0.007121677567828795
3380000000.0 0.007250825424554648 -0.007063920969671033
3400000000.0 0.019828232005738546 -0.0127316284447416
3420000000.0 0.018745739504013984 0.03126100810664096
3440000000.0 0.02037401864399038 -0.04182724316029028
3460000000.0 0.04946301044049741 0.025627979500738175
3480000000.0 0.0213925002494625 0.0626630571283086
3500000000.0 0.08005000341545888 0.0016571181128730785
3520000000.0 0.019854967849740442 -0.09285997609326467
3540000000.0 0.07787463629482369 0.07813161640782702
3560000000.0 -0.12200623812436781 -0.025810735330450422
3580000000.0 0.08479912871607329 -0.10959459879254009
3600000000.0 0.14497585630615262 0.05363682013345167
3620000000.0 0.0583404964991203 0.15479389781254355
3640000000.0 -0.12638540539374096 0.1237658756360359
3660000000.0 -0.1853321893883172 -0.01008190132491608
3680000000.0 -0.1519825814669569 -0.11491111186538693
3700000000.0 -0.11665427774221006 -0.151089323566113
3720000000.0 0.0681012789212921 -0.17823184789847407
3740000000.0 0.14178180821015351 -0.11883923591343663
3760000000.0 -0.15345461815531358 0.09176452001914907
3780000000.0 0.15980486031661217 -0.05520244665289394
3800000000.0 -0.05693761603735379 -0.15071750486766655
3820000000.0 -0.15167580684692936 -0.028335494708404296
3840000000.0 -0.11841304062117357 -0.08586922233411243
3860000000.0 0.13931264091705425 -0.04496332851813682
3880000000.0 0.14911769792244603 -0.022353415943906853
3900000000.0 0.07289238014999237 -0.138798488678059
3920000000.0 -0.12865856965404593 0.09652018406316987
3940000000.0 0.09005483222934373 -0.13945607757748843
3960000000.0 0.17069378079731432 0.010408366111388343
3980000000.0 0.10578517889461155 -0.1353107689338027
4000000000.0 0.12648395866967757 -0.1060762932424194
