!Created with skrf (http://scikit-rf.org).
# Hz S RI R 50.0 
!freq ReS11 ImS11
400000000.0 -0.6389837493012465 0.5968392643008662
420000000.0 0.3157413678719737 0.8104117599658923
440000000.0 0.6921770068543303 -0.4744443215982166
460000000.0 -0.2041209484448211 -0.7667670206433178
480000000.0 0.48838268556465264 -0.5113298078286765
500000000.0 -0.16479020544515893 -0.5525917058378813
520000000.0 -0.45764323449691136 0.19107940146836908
540000000.0 0.2608637467597931 -0.3165344594368881
560000000.0 -0.33320098074010196 -0.1462695448917424
580000000.0 0.31862261781363344 0.1250504831247285
600000000.0 0.2726933954044841 -0.2123658201891412
620000000.0 -0.1975426820238817 0.303756533246737
640000000.0 0.34967617524148026 0.18476234718548992
660000000.0 0.13122826783858302 -0.3829981408246518
680000000.0 0.33721016328691406 0.2600780119889767
700000000.0 0.06430773061233783 -0.42680047657724235
720000000.0 -0.3696978086146631 0.21703740070123798
740000000.0 0.2996672960236609 -0.28270490343428245
760000000.0 -0.3625590640294411 -0.14812891941727413
780000000.0 0.31008545302313817 0.17849335054737842
800000000.0 0.1406292096988708 -0.2903008819153548
820000000.0 -0.23823471815196987 0.1414549946319056
840000000.0 -0.1374242976882791 0.19747602013414214
860000000.0 -0.20219899045161438 -0.028796240480908
880000000.0 0.1608479135005546 0.020094187057931846
900000000.0 0.10165276401101485 0.053864679338477064
920000000.0 -0.059315851230128995 0.04765777703089686
940000000.0 0.039791259281033185 0.019508463953049896
960000000.0 -0.048255158497212604 -0.005505366847369433
980000000.0 0.040906624392323315 0.05398717093256164
1000000000.0 -0.0020983596535236624 -0.08577832670104206
1020000000.0 0.06369132014422502 -0.08117427165530336
1040000000.0 0.07237216865288501 -0.09612801842217612
1060000000.0 0.1378057683900385 0.07427123113324541
1080000000.0 0.10313010862114456 0.14208132663204595
1100000000.0 -0.08677470187163537 -0.1809888722848378
1120000000.0 0.09047665533748224 0.2031145261684962
1140000000.0 0.1842055267504892 -0.17710681140356296
1160000000.0 -0.09774075664244335 -0.2659083292871108
1180000000.0 0.05097527665611255 -0.31314427091960945
1200000000.0 0.3259554087299748 -0.09888620652535779
1220000000.0 -0.31358116857252266 0.1868024622957036
1240000000.0 0.3525681703825062 0.15377378734287048
1260000000.0 -0.08421294783361524 -0.39961806661668653
1280000000.0 -0.4226510472451436 0.03540092767527439
1300000000.0 0.2519847808097588 0.3544956909322409
1320000000.0 0.4165223471190545 0.13322867953455686
1340000000.0 0.43546315955870524 -0.037406316666944175
1360000000.0 0.436350111217451 0.047223226549095686
1380000000.0 0.1986912106996783 -0.38675173556188486
1400000000.0 -0.3664431067879431 -0.22397643804586656
1420000000.0 0.006373161783770132 0.4103845692098834
1440000000.0 0.380978084713096 -0.04684213481032376
1460000000.0 -0.0038257830991892043 -0.3542928671562584
1480000000.0 -0.316699120156732 0.06105200962987262
1500000000.0 -0.14520250762039066 0.24908300190179128
1520000000.0 0.1369577516107132 0.22119650619774273
1540000000.0 -0.17579570531636637 -0.15059038782173534
1560000000.0 0.11087651607043503 -0.1630754971192093
1580000000.0 0.14432442327083098 0.08698226159221861
1600000000.0 0.12340631500070355 -0.05062704033545806
1620000000.0 0.10354065565193998 -0.015269762026416145
1640000000.0 0.0061645674231439644 0.07772310020656517
1660000000.0 -0.036674298619071344 -0.03852670674867094
1680000000.0 0.006569102263478333 0.03296502429069553
1700000000.0 0.00026779379281680684 0.019703194563461694
1720000000.0 0.0002592901902698815 -0.0046303152346875345
1740000000.0 0.010841246558152384 -0.011087685937994349
1760000000.0 0.018386850513958358 0.026846138888108835
1780000000.0 0.04022637602589443 0.04504681410664886
1800000000.0 -0.09029863745696035 -0.01025503660418178
1820000000.0 -0.12021126040058494 -0.01652299844292089
1840000000.0 0.15699352425146354 -0.03019803195811062
1860000000.0 -0.1941719287070186 -0.035836007883417904
1880000000.0 0.23563022320474578 -0.03465854235341682
1900000000.0 -0.27473579564547695 0.0638606182599042
1920000000.0 0.26901134464818865 -0.16808938506580376
1940000000.0 -0.35047523751705006 0.028616911425871368
1960000000.0 0.3072783719112157 0.21974621685999185
1980000000.0 -0.02984799350589285 -0.3960237976892123
2000000000.0 -0.35411214235559135 -0.21650564415201673
2020000000.0 -0.2826295686390979 0.31743342274553543
2040000000.0 -0.045043657546325305 0.4296636101300579
2060000000.0 0.36927922005893943 0.2278067413255469
2080000000.0 0.42320857849300136 -0.08309924771918038
2100000000.0 0.3168427444036141 -0.28100700628742137
2120000000.0 0.07161389190923735 -0.40724685340394196
2140000000.0 -0.02058950362168242 -0.40161450237904706
2160000000.0 0.37075183197214046 -0.1133972398698582
2180000000.0 0.25444152485950644 -0.27364522206410047
2200000000.0 0.0351162158439225 -0.35848479763909685
2220000000.0 -0.2173574616257347 -0.2711365283399297
2240000000.0 -0.34036117914797553 0.021698999048895683
2260000000.0 -0.2645244480376778 0.21230783606044001
2280000000.0 -0.0957913828709712 0.32879841209906807
2300000000.0 0.29674825275527017 0.19348274916350544
2320000000.0 0.2514262176155831 -0.27929070179752463
2340000000.0 -0.26236764249600775 -0.3102825146726158
2360000000.0 -0.13959432908734687 0.42519704373025047
2380000000.0 0.35483275812635967 -0.3479203972735418
2400000000.0 -0.43309286625016125 0.33910714698275896
2420000000.0 0.28040607465008605 -0.5362606267041546
2440000000.0 0.05833281930114865 0.6538048116209454
2460000000.0 -0.48199400373914486 -0.508027876209117
2480000000.0 0.6995281949855358 0.22465006532268036
2500000000.0 -0.7285217732519833 -0.20974459867721224
2520000000.0 0.7215734553254571 0.2748461686982267
2540000000.0 -0.5658822001212906 -0.5308189649664193
2560000000.0 0.08063883727532226 0.7674025503703747
2580000000.0 0.4675943723282056 -0.5961142961078513
2600000000.0 -0.7349095289661968 0.004588108824588792
2620000000.0 0.506468218652126 0.4894222963885719
2640000000.0 0.6659851023437056 0.04667052807934508
2660000000.0 -0.4387427214900507 -0.44166566244690625
2680000000.0 0.1276720630640999 0.5609239614912211
2700000000.0 0.1796335709360027 -0.49472140062479114
2720000000.0 -0.32430588428299995 0.34974304642260695
2740000000.0 0.39831531994930197 -0.16423364789774755
2760000000.0 -0.37055053420672535 0.12137574065074297
2780000000.0 0.31412921164729046 -0.17319844487204392
2800000000.0 -0.1636351948253723 0.2900383552370412
2820000000.0 -0.20727685155668882 -0.23946319366587393
2840000000.0 0.3041005003457537 -0.021563589315987404
2860000000.0 -0.15136082856226854 0.26153647886647624
2880000000.0 -0.13678828257771883 -0.26945915932225695
2900000000.0 0.2229256723070533 0.20753659342773434
2920000000.0 0.014046773227561147 -0.3074392673780864
2940000000.0 -0.31188679277059483 0.014252553643688564
2960000000.0 -0.19466310395680186 0.2483784281346666
2980000000.0 -0.22929865425556595 0.22206756884420137
3000000000.0 -0.3144578799474558 -0.05929806721362629
3020000000.0 0.011492761670362646 -0.31998838152480275
3040000000.0 0.24622903103451568 0.1987099937419253
3060000000.0 -0.30601612835932546 -0.07354272434902309
3080000000.0 0.3094270011440329 0.010371873154951763
3100000000.0 -0.3042298944867251 -0.002477267667990312
3120000000.0 0.28843737911214523 -0.07568557872842786
3140000000.0 -0.22092471672734024 0.18477073699508434
3160000000.0 -0.0034431412969262547 -0.2734093890981142
3180000000.0 -0.17798677616837846 0.18446312993708114
3200000000.0 -0.17073410353175153 -0.1567112439389896
3220000000.0 0.11906687678448023 -0.16594737038797078
3240000000.0 0.10692917247874553 0.1375056506755206
3260000000.0 -0.14093644460446667 0.006146800165176661
3280000000.0 0.1090296910137346 -0.004238159082022356
3300000000.0 -0.0782376918856463 0.006455563690481376
3320000000.0 0.050925723643109946 0.0024962304965332528
3340000000.0 -0.02503009146013459 0.007018326334417735
3360000000.0 -0.006393008853121154 0.0035832808346982197
3380000000.0 -0.007809317770235361 -0.006240424116209422
3400000000.0 -0.00024055478737528558 -0.023350271985144246
3420000000.0 0.031046753512736724 0.019156161955803344
3440000000.0 0.0007801650118766097 -0.04640151354431126
3460000000.0 0.0556363645601783 -0.0024937428798691647
3480000000.0 0.02455146971427108 0.061428709784637936
3500000000.0 0.07629659310290655 -0.025099095633774146
3520000000.0 -0.0025983892737440977 -0.09483631816499395
3540000000.0 0.09476149468637085 0.05629174835842667
3560000000.0 -0.12470669464681822 -0.006037923811450415
3580000000.0 0.08948653014737881 -0.1050573474255912
3600000000.0 0.14719795694493093 0.04626761195771007
3620000000.0 0.06790424657213537 0.1507402625480163
3640000000.0 -0.10606507277930888 0.14162056703599316
3660000000.0 -0.18447748050541465 0.023955816271752937
3680000000.0 -0.15313743689025794 -0.11306352638575307
3700000000.0 -0.12254608577587561 -0.14674703327397853
3720000000.0 0.05779673140962076 -0.1812455632148845
3740000000.0 0.14485158825931918 -0.11540845609137225
3760000000.0 -0.15535160009640234 0.0888219038326455
3780000000.0 0.15565345704831549 -0.06489993338388246
3800000000.0 -0.056146405725856725 -0.15147528861555765
3820000000.0 -0.15158534230526974 -0.028993787887974437
3840000000.0 -0.10651722652073689 -0.10090241096791944
3860000000.0 0.141232511220371 -0.039538659718802244
3880000000.0 0.14998664153862767 -0.01615581704036882
3900000000.0 0.06665206827977319 -0.14188310428904766
3920000000.0 -0.11844079606637041 0.10871977965860866
3940000000.0 0.07183653831152445 -0.14966110191244017
3960000000.0 0.1712303770407909 -0.009665816494462727
3980000000.0 0.08521631156962584 -0.1495214086482946
4000000000.0 0.08829937597268989 -0.140299334835087
