!Created with skrf (http://scikit-rf.org).
# Hz S RI R 50.0 
!freq ReS11 ImS11
400000000.0 -0.6482620433481371 0.5844617397350146
420000000.0 0.3198338402806794 0.8091043357418741
440000000.0 0.7011033112686488 -0.46174342053831724
460000000.0 -0.20908044758570266 -0.7659302437891418
480000000.0 0.5050056622623076 -0.49497086025046927
500000000.0 -0.21833484217404991 -0.5342485091010312
520000000.0 -0.44938120227204037 0.210335837801997
540000000.0 0.32247333436465975 -0.25403720966866217
560000000.0 -0.3424812378213352 -0.13000656393965343
580000000.0 0.3240647645741961 0.10414535943787578
600000000.0 0.266578403854602 -0.2206307189691348
620000000.0 -0.23698542921162136 0.2741655557357316
640000000.0 0.3550493262071876 0.17005670510775964
660000000.0 0.2041494052125341 -0.3497095275943386
680000000.0 0.342689002760097 0.2524115875154564
700000000.0 0.07843098559429404 -0.4246572526210007
720000000.0 -0.37908792170464883 0.1980506817406263
740000000.0 0.2635244447302715 -0.31568453042521377
760000000.0 -0.36850455766575846 -0.13396893832953471
780000000.0 0.30952575728441917 0.1795839181814726
800000000.0 0.14350159039337956 -0.28950526210608546
820000000.0 -0.2608071641641075 0.09204681405764227
840000000.0 -0.13713715759482703 0.1984092953828265
860000000.0 -0.20017806555238504 -0.03910499286767059
880000000.0 0.16273731674044473 0.0017051960537800624
900000000.0 0.10001560003529884 0.05605549924755928
920000000.0 -0.0567141224632297 0.05167982254713073
940000000.0 0.04341742640225194 0.005311881856500658
960000000.0 -0.020250817548646757 -0.044374393993098296
980000000.0 0.054652807937005554 0.04044114629253758
1000000000.0 0.04166664283472199 -0.0744886117286701
1020000000.0 0.049225947164377684 -0.09134341287787175
1040000000.0 0.06874133501434258 -0.0987217655997532
1060000000.0 0.1375642258279963 0.0751124998945388
1080000000.0 0.08926723091170469 0.15087096624670313
1100000000.0 -0.09430944149348902 -0.17742248716780545
1120000000.0 0.11186216686603863 0.19163218409225063
1140000000.0 0.18389292834192553 -0.17726067818015273
1160000000.0 -0.11217704839972586 -0.2601242007670352
1180000000.0 0.04689608700832229 -0.31372642321918087
1200000000.0 0.316893742530843 -0.12602080104904403
1220000000.0 -0.30241710217959006 0.20493868053477915
1240000000.0 0.35938478004377683 0.1377949390525492
1260000000.0 -0.09548296739463759 -0.39733856006324186
1280000000.0 -0.42056298774949147 0.05497681695979271
1300000000.0 0.27644431449462276 0.3354430788614291
1320000000.0 0.4146267203687546 0.1396167827724714
1340000000.0 0.435704843734398 -0.03529398058969548
1360000000.0 0.4367979986876781 0.045011213379993836
1380000000.0 0.2022781336250813 -0.38473317029740384
1400000000.0 -0.3615236309283265 -0.2314290023008757
1420000000.0 -0.026515189512162054 0.4096565794102627
1440000000.0 0.3808376177719076 -0.045137455684339245
1460000000.0 0.0087560344264911 -0.35420623418039116
1480000000.0 -0.30663602920843713 0.09793835117740243
1500000000.0 -0.14884395490277824 0.24647057575877104
1520000000.0 0.13766347294588524 0.22099408388403433
1540000000.0 -0.18697282082154187 -0.13639263508294322
1560000000.0 0.09754819668836025 -0.1712183661607378
1580000000.0 0.14027659270025047 0.09337989238569222
1600000000.0 0.11055545201795414 -0.075018069259783
1620000000.0 0.1021929204884358 -0.022236215279393016
1640000000.0 0.002225856422335203 0.07797068004761026
1660000000.0 -0.03737485724862 -0.03767781648665695
1680000000.0 0.0073129340063454685 0.033169095441975396
1700000000.0 0.0020490865512811066 0.02000489547136412
1720000000.0 -0.0037233633267042417 -0.0029700804638505157
1740000000.0 -0.0055673243161072465 -0.014314358401517433
1760000000.0 0.02977854589482848 0.013616626293809787
1780000000.0 0.03409534092832361 0.050126503494303
1800000000.0 -0.08861776374501089 -0.02052023757699549
1820000000.0 -0.12108155743917332 -0.011452563425142176
1840000000.0 0.15657242837925286 -0.0331814993062577
1860000000.0 -0.1943553914454115 -0.03628765931241218
1880000000.0 0.23687028825167275 -0.023688483896606428
1900000000.0 -0.2732055935185213 0.0707855117304961
1920000000.0 0.27071818412525017 -0.16567161679015052
1940000000.0 -0.3508782123512526 0.024656891460081605
1960000000.0 0.31016212606874205 0.21538010350622366
1980000000.0 -0.024488075109409296 -0.3963662083137583
2000000000.0 -0.37116283965211916 -0.1841224946472573
2020000000.0 -0.259409700019866 0.33638980885510844
2040000000.0 -0.06541815051401424 0.4268325296001097
2060000000.0 0.3869769615111702 0.1955142337791844
2080000000.0 0.41769121915070057 -0.10694642558105433
2100000000.0 0.31887305261781285 -0.2788177974168876
2120000000.0 0.07994639639268424 -0.4059326107606921
2140000000.0 -0.04075296674096146 -0.39999068764578144
2160000000.0 0.36272571678711174 -0.13658412051525085
2180000000.0 0.24019497648033256 -0.28651466384650814
2200000000.0 0.005053900663064602 -0.3602368720858265
2220000000.0 -0.2262331005753135 -0.2643807715079163
2240000000.0 -0.3384999728314989 0.039933409807431194
2260000000.0 -0.25861105740976364 0.2200328791020058
2280000000.0 -0.07557550641140422 0.33462089005080364
2300000000.0 0.3020774927196699 0.18589856334169355
2320000000.0 0.24108400414491046 -0.2888298815285568
2340000000.0 -0.27286277222772237 -0.3019884002434602
2360000000.0 -0.14946630503982 0.422007284433531
2380000000.0 0.3596331840579323 -0.34301558701384455
2400000000.0 -0.4149473068768464 0.3616138013177462
2420000000.0 0.2680973752275936 -0.5425102273564085
2440000000.0 0.058227533157007745 0.6540599669076157
2460000000.0 -0.48408462741265385 -0.5057616431127149
2480000000.0 0.7058750703306529 0.2028524561958328
2500000000.0 -0.7274964747025383 -0.2131713170117583
2520000000.0 0.7108601212587339 0.30141962782943
2540000000.0 -0.5755334499471015 -0.5200422224067343
2560000000.0 0.14409178518923885 0.7576071991080011
2580000000.0 0.48630703941029085 -0.5812088776926208
2600000000.0 -0.7341598815327338 0.024916927613893716
2620000000.0 0.535038644510059 0.4582264223918867
2640000000.0 0.6662463101513173 0.04396262610968144
2660000000.0 -0.45406950620390607 -0.426537040078912
2680000000.0 0.13548422107560557 0.5592717145075083
2700000000.0 0.1620540612049764 -0.501008271317578
2720000000.0 -0.3131064632598281 0.3600641019916699
2740000000.0 0.4106143339581862 -0.13051980007368078
2760000000.0 -0.3742874887922123 0.11011489462499294
2780000000.0 0.31835151569134945 -0.16541198446275562
2800000000.0 -0.17113266043195977 0.28557648627471577
2820000000.0 -0.19441966739451996 -0.2497786977238533
2840000000.0 0.304741077090023 -0.007907653108664998
2860000000.0 -0.14486825978414986 0.2651362126918184
2880000000.0 -0.14822659722305231 -0.2629998561890031
2900000000.0 0.22268064328699552 0.20745121448142598
2920000000.0 -0.003849052927866922 -0.30766364266436924
2940000000.0 -0.31039084749598567 0.031581314602837654
2960000000.0 -0.17754737346858543 0.2606295862706082
2980000000.0 -0.21038067432906252 0.24024611950447147
3000000000.0 -0.31662962323726934 -0.0414771088066069
3020000000.0 -0.029132043962344884 -0.31840549754636804
3040000000.0 0.23477212573364148 0.2119289980354791
3060000000.0 -0.3104617361750712 -0.05328581816191699
3080000000.0 0.3086897998760591 -0.021613491211021088
3100000000.0 -0.30377551712132156 0.010637931139526614
3120000000.0 0.2893092278224355 -0.07140804590559094
3140000000.0 -0.2041537865021147 0.20367703940258428
3160000000.0 -0.02280333697291972 -0.27257229464141003
3180000000.0 -0.16143197721179217 0.19949466535979193
3200000000.0 -0.17039130832111984 -0.1572071374157359
3220000000.0 0.11927685710631598 -0.16660205905521078
3240000000.0 0.11125253632188098 0.1340993650735826
3260000000.0 -0.14105119145361467 0.006072885344993777
3280000000.0 0.10632370858852297 0.02579947010249048
3300000000.0 -0.07510872912869354 0.02358742911928885
3320000000.0 0.050900325057685596 0.005918374292242419
3340000000.0 -0.026049118803494083 -5.248424411799678e-05
3360000000.0 0.004893195731052755 0.005112184502525882
3380000000.0 0.0024316214902710253 -0.00944583879421014
3400000000.0 -0.022529625253187937 -0.006320688970785566
3420000000.0 0.03545665159933499 0.008230484128425268
3440000000.0 -0.013836879210291765 -0.0441995777434963
3460000000.0 0.052321316609409474 -0.019540583143755206
3480000000.0 0.0442358504369025 0.04907088236301406
3500000000.0 0.07404878237746097 -0.030898460402428204
3520000000.0 -0.007533200886096765 -0.09438174137001334
3540000000.0 0.08957637483131713 0.06359604651535282
3560000000.0 -0.12432003320540144 0.008868654614287928
3580000000.0 0.048029003432334516 -0.1299301646257948
3600000000.0 0.15353014356291295 0.017919192230387265
3620000000.0 0.11231227097647627 0.12233318577283811
3640000000.0 -0.08702436948659792 0.15438732085152584
3660000000.0 -0.1821392135517453 0.03897767509452926
3680000000.0 -0.16961471356102661 -0.0874249805729828
3700000000.0 -0.1318791018582665 -0.13854156914862809
3720000000.0 0.04341307692952279 -0.18609837984570915
3740000000.0 0.13258835828251303 -0.13019520222820702
3760000000.0 -0.14760558056335968 0.10181946392085936
3780000000.0 0.15678604886634354 -0.06379213089691435
3800000000.0 -0.05344568600075591 -0.15283114265958297
3820000000.0 -0.15435588400092018 -0.0032969681226473297
3840000000.0 -0.11619744041349234 -0.09014057958937136
3860000000.0 0.13993024900048118 -0.046219391392503015
3880000000.0 0.1494273640229218 -0.02515218236936452
3900000000.0 0.07656711082649731 -0.13790318216657935
3920000000.0 -0.1299620961305787 0.09604793203036899
3940000000.0 0.09624549140929195 -0.13626280273334293
3960000000.0 0.16599666108810407 0.045688433677178925
3980000000.0 0.13176845388268574 -0.11071343550394873
4000000000.0 0.14772381355429529 -0.07565282310783576
