!Created with skrf (http://scikit-rf.org).
# Hz S RI R 50.0 
!freq ReS11 ImS11
400000000.0 -0.6217719563119645 0.6090027401360835
420000000.0 0.3433758899134499 0.7964594433660198
440000000.0 0.6286482785320401 -0.5535904327314368
460000000.0 -0.3253364696611697 -0.7217988017574869
480000000.0 0.4666928000975196 -0.5328320701123174
500000000.0 -0.311751154085568 -0.48684597678451985
520000000.0 -0.429026746758422 0.24752206193038692
540000000.0 0.3268762005938084 -0.2482014278014712
560000000.0 -0.33221769909440013 -0.15507601769027357
580000000.0 0.34060054834583847 0.040669586313003034
600000000.0 0.25913858147701985 -0.22648969919957132
620000000.0 -0.24198581776674483 0.2705602351989765
640000000.0 0.36099500365986315 0.15871414526858205
660000000.0 0.2093011772000332 -0.34661531081431446
680000000.0 0.3387697143928374 0.25842168560803824
700000000.0 0.12291917308876088 -0.4146232649906353
720000000.0 -0.39164665730058945 0.17186392504060663
740000000.0 0.3491079398321727 -0.219512979586591
760000000.0 -0.37032481815617724 -0.124451911681593
780000000.0 0.2340180002916696 0.26915974990913644
800000000.0 0.06709493058244863 -0.31493539648796076
820000000.0 -0.26592193781243856 0.07414652436455856
840000000.0 -0.03822033957275792 0.23725876969584286
860000000.0 -0.20317510138911907 -0.009214439277258374
880000000.0 0.14315169942289124 -0.07567317769391868
900000000.0 0.08855320696529452 0.0755522929166821
920000000.0 -0.026297598504509873 0.07500100625226508
940000000.0 0.044278379910429745 0.010479454677265089
960000000.0 0.03377823847560321 -0.034014806181481005
980000000.0 -0.0389488383642134 0.05422543406748192
1000000000.0 0.05568147633800377 -0.061911296177314855
1020000000.0 0.01639647077314407 -0.10038455313505022
1040000000.0 0.05202493058852099 -0.10787281547342685
1060000000.0 0.15307453816749 -0.03620247749387784
1080000000.0 0.1542825136727013 0.08584342794275375
1100000000.0 -0.16013584429312655 -0.1240005942388809
1120000000.0 0.1479059258530893 0.16792775072197172
1140000000.0 0.1975307627598837 -0.16487911298540195
1160000000.0 -0.10079131153140769 -0.2672500999094737
1180000000.0 0.105114501818149 -0.30140760841895403
1200000000.0 0.33645722789851007 -0.06342250318646668
1220000000.0 -0.3395115425666168 0.13912405152857202
1240000000.0 0.31640602859832223 0.22010906707815445
1260000000.0 -0.032092389529680035 -0.40749018180720786
1280000000.0 -0.42424685092696485 0.009247232895041443
1300000000.0 0.2464268458286223 0.3585341315837107
1320000000.0 0.407861851401881 0.15578692118527968
1340000000.0 0.4365725010486609 -0.007251347270878512
1360000000.0 0.43431757696487316 0.062162336596963984
1380000000.0 0.20623190060426214 -0.3821528538167425
1400000000.0 -0.38555887295653557 -0.18679309461336327
1420000000.0 0.021321797523825965 0.40965459359828316
1440000000.0 0.3786860570550568 -0.06078355032633134
1460000000.0 -0.024472242225365492 -0.35340825612221033
1480000000.0 -0.30415594207376695 0.10557572646096132
1500000000.0 -0.08052419449788832 0.2770851045209856
1520000000.0 0.15548847303621804 0.2092308624735449
1540000000.0 -0.18546895686148052 -0.13862524302752965
1560000000.0 0.07318519256638371 -0.18300974512053125
1580000000.0 0.1492712636468357 0.07862629276620356
1600000000.0 0.12571531290859492 -0.04592878969262769
1620000000.0 0.09906967518510834 -0.03330255235630463
1640000000.0 -0.007035086389395238 0.07785834021740687
1660000000.0 -0.023476742316629235 -0.048136317536451985
1680000000.0 -0.009244154752455136 0.032275099688014314
1700000000.0 0.01945575039583651 0.004201138650710427
1720000000.0 -0.001976637977016767 -0.004261185653101941
1740000000.0 0.013990861720889964 -0.006645895720673244
1760000000.0 0.024120084137180545 0.0221887123328662
1780000000.0 0.02073722948826838 0.05743715490966308
1800000000.0 -0.09094524590650789 -0.005087057159362437
1820000000.0 -0.1221510997713914 0.0019767217753079505
1840000000.0 0.15988894702514442 -0.012757842274622245
1860000000.0 -0.19612340309073054 -0.026694046846726778
1880000000.0 0.23769640491618776 -0.021257449735513936
1900000000.0 -0.2722198487241814 0.07629735857891908
1920000000.0 0.2792857230451114 -0.15027996863651905
1940000000.0 -0.3513389671617769 0.01424898190785583
1960000000.0 0.31269998561200046 0.21289556777734098
1980000000.0 -0.014552805787592632 -0.396605833123535
2000000000.0 -0.36993229370995384 -0.18524160648594534
2020000000.0 -0.24697960511220377 0.3451387771695187
2040000000.0 -0.07024160404690542 0.4255056394735255
2060000000.0 0.3791716476339961 0.20896756750040718
2080000000.0 0.41737610462752883 -0.10598362341493969
2100000000.0 0.2907049339474849 -0.30683622068909133
2120000000.0 0.0623369697091934 -0.4083672166153167
2140000000.0 -0.07519356471138892 -0.3946984570865112
2160000000.0 0.3466437678892501 -0.17281773911668097
2180000000.0 0.2152101216925858 -0.30524775290991174
2200000000.0 -0.019147002908137863 -0.35952772540601696
2220000000.0 -0.2829013234699433 -0.20252766847099457
2240000000.0 -0.3297987391078603 0.08630351984895893
2260000000.0 -0.2313630787238173 0.2487014074779413
2280000000.0 -0.04159256372504651 0.3409011199290703
2300000000.0 0.3120735217994533 0.1701936391295443
2320000000.0 0.2569297712841346 -0.2756080558184164
2340000000.0 -0.22723617997960796 -0.3376912732251024
2360000000.0 -0.18041721463948254 0.40988276866334633
2380000000.0 0.39548193483093996 -0.3010447300538382
2400000000.0 -0.4668088066641421 0.2899920821243685
2420000000.0 0.3578285242603281 -0.4869899135514812
2440000000.0 -0.01700232890065802 0.6551399889081759
2460000000.0 -0.42470496296006305 -0.5547989389794681
2480000000.0 0.6759105934762296 0.28406319030922583
2500000000.0 -0.7281456742051157 -0.20453779029442373
2520000000.0 0.6955396135765712 0.3317189482922352
2540000000.0 -0.534486071098381 -0.5604305669068762
2560000000.0 0.08093500335742536 0.766170479070468
2580000000.0 0.5349393018188171 -0.5353746496608467
2600000000.0 -0.7331693857596759 0.035568995905887676
2620000000.0 0.5070029149460598 0.48898542221562513
2640000000.0 0.6657270610987446 0.054197112491018135
2660000000.0 -0.42779429354212617 -0.4532120164022318
2680000000.0 0.038487511412039446 0.5748496676329294
2700000000.0 0.20416696334141327 -0.48648098434317893
2720000000.0 -0.326190106299025 0.34992992915328053
2740000000.0 0.401099516151443 -0.16075280040874745
2760000000.0 -0.3775521410712709 0.10392779247155802
2780000000.0 0.32405895102825283 -0.15780675467937402
2800000000.0 -0.17584786953150422 0.2844008848561934
2820000000.0 -0.16415159529006815 -0.27216039219048344
2840000000.0 0.3052358767769001 0.019857107938990776
2860000000.0 -0.19044090624168386 0.23615163824071947
2880000000.0 -0.09041330092872683 -0.2890168744134178
2900000000.0 0.17024275795231059 0.25264720938331553
2920000000.0 0.07630397029406971 -0.29877889163067234
2940000000.0 -0.30909685425196765 -0.04383501238651475
2960000000.0 -0.226593067205698 0.21869579680788498
2980000000.0 -0.23609999284097122 0.2138657699932556
3000000000.0 -0.3143990064451106 -0.05545428250490021
3020000000.0 -0.0015217940016141857 -0.31885810942711607
3040000000.0 0.26544792478578694 0.16993198246830518
3060000000.0 -0.31355951785667807 -0.013317367800793569
3080000000.0 0.30668610191643686 -0.03602226892344106
3100000000.0 -0.302213751982553 -0.014749383569483316
3120000000.0 0.24964991560929153 -0.16091238417868112
3140000000.0 -0.1582171398266524 0.24010645654674379
3160000000.0 -0.09726818617482985 -0.2552297349372772
3180000000.0 -0.09527261740893131 0.23773250552447467
3200000000.0 -0.2048032086262063 -0.10859320233329997
3220000000.0 0.06344526898773821 -0.19471173427342417
3240000000.0 0.15446803505970863 0.0823403221441745
3260000000.0 -0.13397017248593857 0.04723132290748902
3280000000.0 0.1077600967987695 -0.02428311739607931
3300000000.0 -0.0772512795778992 0.021009366506322617
3320000000.0 0.052463407654429424 0.00042668437088774384
3340000000.0 -0.027476604199458427 -0.0003478372066838728
3360000000.0 -0.005490175044804929 0.006236704064173138
3380000000.0 0.0028946509628180496 -0.008105669205084815
3400000000.0 0.004553177388344646 -0.0215940948671197
3420000000.0 0.03436483963332274 0.007749158085187713
3440000000.0 -0.021198748408308432 -0.04041305304170061
3460000000.0 0.047491304944076135 -0.02737459934474976
3480000000.0 0.05491751480316978 0.03555817819662317
3500000000.0 0.04773545683393334 -0.06392806905452587
3520000000.0 -0.07213186577584217 -0.06145983867334253
3540000000.0 0.10885240901883689 -0.018246283824169412
3560000000.0 -0.09236023407339729 0.0842107570821352
3580000000.0 0.00707702487096886 -0.13826660635133464
3600000000.0 0.1528643895362601 0.014841371602702054
3620000000.0 0.11621044661555664 0.11806463510083752
3640000000.0 -0.057845680776452794 0.16748291382456837
3660000000.0 -0.16847023768261038 0.08049689400109651
3680000000.0 -0.1860660231714082 -0.04545005398549936
3700000000.0 -0.15649798051816705 -0.11180777757758521
3720000000.0 0.008835365623876993 -0.1917841415917485
3740000000.0 0.12142445822518302 -0.14142309690553276
3760000000.0 -0.1426170463701601 0.1096183538389016
3780000000.0 0.15054316171826987 -0.0786628645518556
3800000000.0 -0.05350419433290094 -0.15335333546882707
3820000000.0 -0.15364165618766867 -0.02047756628842068
3840000000.0 -0.11013619257557734 -0.09839614922828115
3860000000.0 0.1431583866456297 -0.035105072201622935
3880000000.0 0.1470981926623267 -0.03733380117989252
3900000000.0 0.06461476450048895 -0.14367330563088393
3920000000.0 -0.11255227125357833 0.11618069479017168
3940000000.0 0.06029141088389817 -0.15526950392715197
3960000000.0 0.17190026834102423 -0.0029870118774091054
3980000000.0 0.07838179541098178 -0.1530560532735845
4000000000.0 0.08916171927567369 -0.1395761690650515
