!Created with skrf (http://scikit-rf.org).
# Hz S RI R 50.0 
!freq ReS11 ImS11
400000000.0 -0.6327398646191169 0.6016013894792969
420000000.0 0.3153451260364735 0.8108000921652638
440000000.0 0.6750040848674558 -0.4993316413131664
460000000.0 -0.2417331173261853 -0.755314923059104
480000000.0 0.5304785356264469 -0.4693938233355053
500000000.0 -0.26088978952838277 -0.5144140230526884
520000000.0 -0.42406451668715023 0.2564967604851184
540000000.0 0.28058754946249187 -0.29937230704451956
560000000.0 -0.34057405554427117 -0.13705091808523115
580000000.0 0.30992456407735336 0.13852095677978085
600000000.0 0.18022554742557292 -0.2967881458753479
620000000.0 -0.22224333871067317 0.28483523519370607
640000000.0 0.3583987612181989 0.16129214689663005
660000000.0 0.16676809763774836 -0.36775261100137063
680000000.0 0.3359244710110546 0.26191117957840854
700000000.0 0.048211378855071554 -0.42888136845216573
720000000.0 -0.4044737165712182 0.13980337683002006
740000000.0 0.24374767072061582 -0.33218225528208783
760000000.0 -0.36469319925104404 -0.14452419730080432
780000000.0 0.2340538593496039 0.26959337524402466
800000000.0 0.04622968850419383 -0.32019402731597746
820000000.0 -0.2750901079095391 0.029200893240731142
840000000.0 -0.015361837725997817 0.24003160385037112
860000000.0 -0.1894839052206105 -0.07661343477273681
880000000.0 0.16115212392810693 -0.016124367180305556
900000000.0 0.06145349212264127 0.09768297526002193
920000000.0 -0.031813567504656616 0.07122518335679592
940000000.0 -0.017389898261349568 -0.04055986050441604
960000000.0 -0.0433354327261389 -0.020456373012296917
980000000.0 0.043098521424133104 0.05251163320447032
1000000000.0 0.06608055531688874 -0.05424680023395551
1020000000.0 0.01985447782880918 -0.10112684421963741
1040000000.0 0.11557614679916263 -0.033387326082192054
1060000000.0 0.15207213576411205 0.04029884208928277
1080000000.0 0.0949396536266354 0.14831604614430352
1100000000.0 -0.10366138249443756 -0.17189521540590358
1120000000.0 0.13279263969090274 0.17750898785402466
1140000000.0 0.19653022311992208 -0.16267246878669941
1160000000.0 -0.12462234576005861 -0.2549931849198288
1180000000.0 0.0376444659007111 -0.31503108913541694
1200000000.0 0.31954053755187817 -0.11859876686119324
1220000000.0 -0.2979661036483126 0.2122889575014168
1240000000.0 0.3528738009535809 0.15312589837821547
1260000000.0 -0.09611635803071855 -0.39681069228823385
1280000000.0 -0.41712539787055153 0.07633478491485397
1300000000.0 0.28493436120102933 0.3289619869275911
1320000000.0 0.4157720431509003 0.13401929127671272
1340000000.0 0.43650228581836764 -0.02467947944767891
1360000000.0 0.4377821267648051 0.03623023291433487
1380000000.0 0.21108353992499632 -0.38062360430250286
1400000000.0 -0.3720301913919702 -0.21366211777951222
1420000000.0 -0.01930679188987321 0.4101650033188047
1440000000.0 0.38237250689602065 -0.03332214845107001
1460000000.0 0.019520560763622852 -0.3537602790710053
1480000000.0 -0.31799455464183424 0.049634852959100036
1500000000.0 -0.10578801301330353 0.26791400073117677
1520000000.0 0.14125368780522746 0.21848583585232706
1540000000.0 -0.17001475734790944 -0.15627810747769733
1560000000.0 0.09438864032576307 -0.17263670839420955
1580000000.0 0.13292458115710207 0.10342105811226551
1600000000.0 0.12070054573631742 -0.056873306634315036
1620000000.0 0.09406192019577762 -0.04481436382017893
1640000000.0 0.026991457414609604 0.0733445864969032
1660000000.0 -0.03998001737874346 -0.03544051631675385
1680000000.0 0.017762839720923216 0.029032176051338995
1700000000.0 0.01949646028221788 -0.005096522631637051
1720000000.0 -0.0015743572490948545 0.00423630437386909
1740000000.0 -0.00455761423758837 -0.014587243783771232
1760000000.0 0.030250543882513935 0.012277839732338971
1780000000.0 0.024580963348919092 0.05568130068427528
1800000000.0 -0.09076074030867164 0.006383088041355958
1820000000.0 -0.1219579334962708 0.0015734758666364449
1840000000.0 0.15828932878214313 -0.02382984158617088
1860000000.0 -0.19605448819710358 -0.02651023592265043
1880000000.0 0.23821325180132544 -0.009027275148252842
1900000000.0 -0.27217960543362646 0.07530547388035011
1920000000.0 0.28189011653110807 -0.1454027179887506
1940000000.0 -0.3513583319002113 0.009692604329164854
1960000000.0 0.31048583369581917 0.21577361013960933
1980000000.0 -0.015409957490473693 -0.39644206452957426
2000000000.0 -0.37174501519321085 -0.1818694297302438
2020000000.0 -0.268662854586631 0.3287858702783662
2040000000.0 -0.021094919677022806 0.43101707407212064
2060000000.0 0.37182029015374046 0.22284760147880542
2080000000.0 0.4146276007166411 -0.11720073580581396
2100000000.0 0.2906694393443301 -0.30772403889253247
2120000000.0 0.058524247848086894 -0.4094992471894602
2140000000.0 -0.04145729229410619 -0.40020621360319525
2160000000.0 0.3466809953519196 -0.17341110469004348
2180000000.0 0.2384780618736811 -0.28796012254378484
2200000000.0 0.0002792496229673962 -0.3603316848210817
2220000000.0 -0.25093788791072835 -0.24123715024892106
2240000000.0 -0.3387846937248521 0.04190352729453814
2260000000.0 -0.2502086867443698 0.2295365897783816
2280000000.0 -0.06459119142488914 0.3368752585184468
2300000000.0 0.29407814020650275 0.19823830736500933
2320000000.0 0.2598244303637659 -0.27206008577408664
2340000000.0 -0.24608598220731537 -0.3238162084203759
2360000000.0 -0.15421045302713307 0.4202928323386754
2380000000.0 0.3619086836255083 -0.34027118659850597
2400000000.0 -0.43565911172748234 0.3354996213561218
2420000000.0 0.3080580094570926 -0.5204327638634125
2440000000.0 0.04392327015792562 0.6546822380292557
2460000000.0 -0.4827699786618439 -0.5063258742223171
2480000000.0 0.6950736550275506 0.2367657215476168
2500000000.0 -0.7382354074407381 -0.17025966090646893
2520000000.0 0.7202272561534732 0.27782709999105665
2540000000.0 -0.5574614896023603 -0.5394874850089034
2560000000.0 0.11149980147600705 0.7634881451345459
2580000000.0 0.5209290718293464 -0.5504733632155475
2600000000.0 -0.7336094011032503 0.042777020678835584
2620000000.0 0.5153674095623431 0.4808108649564957
2640000000.0 0.6646792751667802 0.06734297472354363
2660000000.0 -0.4296336241314359 -0.4511201198301446
2680000000.0 0.09584434855169634 0.5675129693941474
2700000000.0 0.18462070953746276 -0.49343789605031285
2720000000.0 -0.32035915772387435 0.35384136742418476
2740000000.0 0.40278005448897586 -0.1533902220797673
2760000000.0 -0.3746918098257768 0.1091717220934991
2780000000.0 0.3143514313721672 -0.17356314468997708
2800000000.0 -0.1702102192446626 0.2864671608605774
2820000000.0 -0.19233731351193004 -0.2514834057320556
2840000000.0 0.30395887560344687 -0.01931712382836439
2860000000.0 -0.15124346281354753 0.261951022634243
2880000000.0 -0.14239692933387119 -0.2665879568903038
2900000000.0 0.21143823536776754 0.21896578649505163
2920000000.0 0.0017771196550522372 -0.307920720883386
2940000000.0 -0.31163971372054533 0.018913032760208098
2960000000.0 -0.1846407073927039 0.25591615949952085
2980000000.0 -0.20149114205217092 0.24825180428893304
3000000000.0 -0.3200429507628238 -0.00306815084499935
3020000000.0 -0.04584748642091452 -0.31680406668861527
3040000000.0 0.27792630580406086 0.15184675437571477
3060000000.0 -0.31173600754457303 -0.042744159747160546
3080000000.0 0.3094527991297959 -0.010963247764738936
3100000000.0 -0.29922595427421855 -0.05237326875235336
3120000000.0 0.2678782315155449 -0.13094991061173192
3140000000.0 -0.1902074017435418 0.21675451634510573
3160000000.0 -0.027484246410638798 -0.27244779495807114
3180000000.0 -0.16483949599781922 0.19715596971151217
3200000000.0 -0.1771438793432001 -0.14992230198880735
3220000000.0 0.12377106467289845 -0.16297222261442787
3240000000.0 0.10343243236163119 0.14088515008473423
3260000000.0 -0.14125688093388078 0.008256551616297883
3280000000.0 0.10826562001490014 0.016976187151455102
3300000000.0 -0.07552830103176947 -0.023576022017215148
3320000000.0 0.04293755808649299 0.028309802786794076
3340000000.0 -0.02285082311964865 -0.013156540636351991
3360000000.0 0.007384295243964462 0.00036570241571243716
3380000000.0 0.00820195407893578 0.005114849602550767
3400000000.0 -0.020892274256972154 -0.010289524334147607
3420000000.0 0.03538577205037294 -0.00835664118625384
3440000000.0 -0.03074868740044432 -0.03537513391376243
3460000000.0 0.046942712066115805 -0.029935383309544386
3480000000.0 0.05597723867763619 0.035572048867599494
3500000000.0 0.04016708201504666 -0.07028248990211025
3520000000.0 -0.03533095325736533 -0.08821618119984587
3540000000.0 0.11075817074141395 0.01045970036719067
3560000000.0 -0.11652682460254156 0.045972594100664205
3580000000.0 0.0635989221198524 -0.12342723417611558
3600000000.0 0.15527719406282742 -0.008593089340608914
3620000000.0 0.07479791893373595 0.1481197400420542
3640000000.0 -0.10224456866227037 0.14544261833661795
3660000000.0 -0.18410285450881664 0.03474315089202311
3680000000.0 -0.16407543819986628 -0.09877662854522365
3700000000.0 -0.11313068300726797 -0.15524688162901
3720000000.0 0.07055290130474579 -0.17739389945855277
3740000000.0 0.1508537048530657 -0.10847599973454727
3760000000.0 -0.16425331460575296 0.07175621448619034
3780000000.0 0.16029928483859665 -0.053863046463923654
3800000000.0 -0.020295359795304575 -0.16058246877229942
3820000000.0 -0.14922995828101618 -0.038804831584658965
3840000000.0 -0.09045060491798158 -0.1160418556298752
3860000000.0 0.14669960642302346 -0.0047977405677709925
3880000000.0 0.14988657142035186 0.021148791940938036
3900000000.0 0.09661887588946531 -0.12390507256673541
3920000000.0 -0.14249519816787629 0.07521192921379277
3940000000.0 0.10554135633681978 -0.1288284749567591
3960000000.0 0.16425870163073378 0.047514356130841824
3980000000.0 0.11668992476201809 -0.12560286760000045
4000000000.0 0.13168848357097265 -0.09956287269090204
