!Created with skrf (http://scikit-rf.org).
# Hz S RI R 50.0 
!freq ReS11 ImS11
400000000.0 -0.660825498296758 0.5694909775318727
420000000.0 0.3193898606796507 0.8106453295013609
440000000.0 0.7271966511989214 -0.4216551918788061
460000000.0 -0.34191475035648444 -0.7141663864057065
480000000.0 0.5979011626631806 -0.37592852542482336
500000000.0 -0.2571111248171537 -0.5225378349187125
520000000.0 -0.4370874414952636 0.22957867200960128
540000000.0 0.24874035848581846 -0.3233855822992852
560000000.0 -0.11286682167398367 -0.34395193220127024
580000000.0 0.2788472571291438 0.2092521300194297
600000000.0 0.13343507326119858 -0.31464710011265407
620000000.0 -0.22231653201315485 0.28347828362355776
640000000.0 0.16524141350421423 0.3577849282449855
660000000.0 0.15154431675746546 -0.3820979271685857
680000000.0 0.4205852240397079 -0.05117986969082547
700000000.0 0.215408729485153 -0.3704556577486612
720000000.0 -0.4295460940985364 0.04675896590654637
740000000.0 0.029830739797103083 -0.4098141152499644
760000000.0 -0.24898845550825585 -0.30074281834822497
780000000.0 0.31841866935619156 0.16811161555022097
800000000.0 0.16487371993802993 -0.27481192062251764
820000000.0 -0.20240394868354072 0.1899009472983176
840000000.0 -0.17858779529272234 0.1637069626214158
860000000.0 -0.1820627765645436 0.0877395726120845
880000000.0 0.0927228376118296 0.13267920153181836
900000000.0 0.1034826640639197 0.055951380159168
920000000.0 0.057680113743477326 0.045887238135025724
940000000.0 0.0326000697519546 0.028520153379512306
960000000.0 -0.0007693470809286031 0.04764654332210241
980000000.0 0.04830056967283863 0.04832379901800859
1000000000.0 -0.08352622397141837 0.02538623167541988
1020000000.0 0.08574672046060514 -0.05318000781553604
1040000000.0 0.09827204147987657 -0.07121285615620482
1060000000.0 0.15639396203880546 -0.0022912983529289697
1080000000.0 0.07372442060323205 0.16129970422648385
1100000000.0 -0.08445164713830347 -0.18150715547552307
1120000000.0 0.10079354568242187 0.19796136040343057
1140000000.0 0.22009730297156996 -0.13230252822729016
1160000000.0 -0.13082769002511074 -0.251240531570665
1180000000.0 0.06972570541955884 -0.30902653650549144
1200000000.0 0.33355181709129056 -0.0682066002762033
1220000000.0 -0.3267029641263963 0.1653185155803347
1240000000.0 0.3685727465628513 0.10777026222234985
1260000000.0 -0.015432634698364376 -0.40718043522844377
1280000000.0 -0.41963594001753035 0.06428161945960681
1300000000.0 0.2762587012789771 0.3349801373183226
1320000000.0 0.4223791495136526 0.11250151231959105
1340000000.0 0.43644224351851657 -0.008927581680048383
1360000000.0 0.4369873283870951 -0.04002550596696908
1380000000.0 0.21860767315311452 -0.3753745768589446
1400000000.0 -0.3971258260477624 -0.16296008365779246
1420000000.0 -0.04495861373533148 0.4079609438652816
1440000000.0 0.3646763817216615 -0.12443676785947701
1460000000.0 0.018823506604302664 -0.3530253282096135
1480000000.0 -0.32290516927530305 0.01691471573482672
1500000000.0 -0.08743569017873903 0.2757276912798994
1520000000.0 0.13601468988766185 0.22018374838330335
1540000000.0 -0.12098798215992373 -0.19843676507874008
1560000000.0 0.091084315320882 -0.1762107871233071
1580000000.0 0.1411264231412906 0.08889992739327865
1600000000.0 0.11859194447772956 0.062238848205782536
1620000000.0 0.0990984525237991 -0.035654514898053456
1640000000.0 -0.006743025829869403 0.07635614844348267
1660000000.0 0.016951435704343945 -0.05051803499375594
1680000000.0 0.03206126729753221 0.008977061079188421
1700000000.0 -0.01864814113423004 0.0006156342769437582
1720000000.0 0.0010616251520433012 0.00510974081372845
1740000000.0 0.006843113289785869 0.013135097377659978
1760000000.0 0.026449070035411935 0.021418478033061978
1780000000.0 0.05963770387586989 0.0026466760866218904
1800000000.0 -0.014358607600528553 -0.0893223364007831
1820000000.0 -0.11879704589382846 -0.029776959743043847
1840000000.0 0.13559088388848733 -0.0831814797461145
1860000000.0 -0.17451293016405076 -0.09105185209098376
1880000000.0 0.23866135881264913 -0.005612720770134577
1900000000.0 -0.25898505452973847 0.11090086389012871
1920000000.0 0.26822931525803084 -0.16838039711930308
1940000000.0 -0.35195673343569733 0.011344730296894012
1960000000.0 0.32420462923028204 0.19356872425636104
1980000000.0 -0.031749867232854334 -0.3965176748491573
2000000000.0 -0.38829407183174103 -0.14477999442998157
2020000000.0 -0.26967452899170663 0.32897293586267584
2040000000.0 -0.014395891393228234 0.4327493616212646
2060000000.0 0.38981927049852183 0.19059448038392204
2080000000.0 0.43048277304918586 -0.03480729935362648
2100000000.0 0.31130876003028485 -0.28846769343673856
2120000000.0 0.10719939314438875 -0.4002789462156539
2140000000.0 0.02361182115842062 -0.4016495593620341
2160000000.0 0.37651160411672346 -0.09526221567680933
2180000000.0 0.2661248979373819 -0.26305916444135474
2200000000.0 0.08722024348961256 -0.3500050517892113
2220000000.0 -0.21081060812976946 -0.2766740026499502
2240000000.0 -0.3412046001091367 -0.003403019229271122
2260000000.0 -0.27488147724640066 0.1991495334851545
2280000000.0 -0.11433801896771173 0.3231037578174098
2300000000.0 0.2947286492410017 0.19701298678886217
2320000000.0 0.2591245299791476 -0.2722983064107397
2340000000.0 -0.26831288552188376 -0.30631253877854614
2360000000.0 -0.1436874539172703 0.42355325030008956
2380000000.0 0.3434876315173853 -0.3595379733756178
2400000000.0 -0.41118678792601926 0.3658132532379854
2420000000.0 0.25255682790666517 -0.5502883215426512
2440000000.0 0.10154936878255698 0.6489148756868154
2460000000.0 -0.5154969774627329 -0.4744813623106967
2480000000.0 0.7105373974194417 0.18907513505656418
2500000000.0 -0.7458141196042551 -0.13866506089291294
2520000000.0 0.7148410294918622 0.29402554509326645
2540000000.0 -0.5744253904444109 -0.522359032415335
2560000000.0 0.0637155693900747 0.7692805720635637
2580000000.0 0.5468198388450448 -0.5252629369043522
2600000000.0 -0.7349668624775081 0.016108540970748618
2620000000.0 0.5363845972120342 0.45654282306739374
2640000000.0 0.6609838868141589 0.09478451609487498
2660000000.0 -0.39126970748869394 -0.48398362804525485
2680000000.0 0.0676861837794977 0.5708568053359011
2700000000.0 0.2318091099763551 -0.4718099305609353
2720000000.0 -0.3384554606379419 0.33550296625803855
2740000000.0 0.4076861835135314 -0.13735153580851034
2760000000.0 -0.3699099611001945 0.12237730444480463
2780000000.0 0.3055604765471987 -0.1869844532354717
2800000000.0 -0.16416587487702336 0.28935580719228643
2820000000.0 -0.22041057722460464 -0.22727235149047936
2840000000.0 0.30277593225388005 -0.040430529720614505
2860000000.0 -0.12053421643543547 0.2773446068861171
2880000000.0 -0.14360044928599178 -0.26591093270827326
2900000000.0 0.22699225017245497 0.20401463264730568
2920000000.0 -0.024649073648064502 -0.30726978628333884
2940000000.0 -0.31191138503018373 0.011545807824467031
2960000000.0 -0.2201218963851242 0.2270285723911368
2980000000.0 -0.22967542405042585 0.22377032272478692
3000000000.0 -0.31261001261659116 -0.07102357030852903
3020000000.0 0.07829434723307993 -0.31039445760627726
3040000000.0 0.23994235900339722 0.20779601238552262
3060000000.0 -0.3135561156554846 -0.02927383582246146
3080000000.0 0.301490701080098 0.06993947122245397
3100000000.0 -0.29846069101525674 -0.06033681795189635
3120000000.0 0.2929283611935879 -0.05473839472696334
3140000000.0 -0.23264215965282964 0.1696269728145778
3160000000.0 0.03661845614461921 -0.2704793324941966
3180000000.0 -0.20044499091767784 0.15932802247560657
3200000000.0 -0.1628566790620536 -0.1640486268711757
3220000000.0 0.12580519210881105 -0.15968633399071236
3240000000.0 0.0906331812261353 0.14801561028011445
3260000000.0 -0.14037244540361518 0.0048034604582320485
3280000000.0 0.10804945792212475 -0.007283271631932681
3300000000.0 -0.07550897582625063 0.01868973844726639
3320000000.0 0.050641548789145896 -0.0009660162745490422
3340000000.0 0.011226381972526135 0.023361989899855655
3360000000.0 -0.005541541098501126 -0.004327169681848758
3380000000.0 -0.006364601424107025 0.008146722497746763
3400000000.0 0.020989099273373214 0.010922053415133401
3420000000.0 -0.009915066971091235 0.03536309261491575
3440000000.0 0.03911949986007346 -0.02609591898978865
3460000000.0 0.042409461464846435 0.036632522337429946
3480000000.0 -0.015979470920304172 0.06446030429555573
3500000000.0 0.07965866397205003 0.012544741704061332
3520000000.0 0.059401154037356484 -0.07408417966177815
3540000000.0 0.05816213641286013 0.0938658132381152
3560000000.0 -0.11918820803731676 -0.037693405696444145
3580000000.0 0.11739747805942068 -0.0734457859228669
3600000000.0 0.10752475982252926 0.1102662825982178
3620000000.0 0.018983856367538004 0.16397730810389716
3640000000.0 -0.15690717067815643 0.08015386528871944
3660000000.0 -0.18125465494016776 -0.040979579895731665
3680000000.0 -0.13370095733902343 -0.13524809339740054
3700000000.0 -0.06661314672714362 -0.17878138846213054
3720000000.0 0.10256145303975257 -0.16050195054741354
3740000000.0 0.1462093830808045 -0.11255841622618322
3760000000.0 -0.1606431391440973 0.0756156164979675
3780000000.0 0.16805604275484662 -0.010413560200116717
3800000000.0 -0.06542335502530912 -0.14721587472972492
3820000000.0 -0.13977274760838618 -0.061099345614654126
3840000000.0 -0.07521466448052333 -0.12556074774261172
3860000000.0 0.13930529651065326 -0.042619524616210214
3880000000.0 0.14921149486403318 0.009008292359463795
3900000000.0 0.08489719145974298 -0.131781750543903
3920000000.0 -0.11391680002332737 0.11233798770789641
3940000000.0 0.06502851772081707 -0.15196991828289608
3960000000.0 0.16856841171174583 -0.02466197218262148
3980000000.0 0.05202728724408651 -0.16267895835681936
4000000000.0 0.0501123605209338 -0.1568472487176887
