! Created with skrf (http://scikit-rf.org).
# Hz S RI R 50.0 
!freq ReS11 ImS11
400000000.0 -0.07037510317865864 0.8675055401019356
420000000.0 0.3797187842908423 0.7739176247166792
440000000.0 0.8198952228732242 -0.13017465872485476
460000000.0 0.29468282513801236 -0.7354358298108485
480000000.0 0.6552709535131996 -0.28650487287650206
500000000.0 -0.08642660999619631 -0.5658993501031554
520000000.0 -0.1424047301980358 -0.4715792605938188
540000000.0 0.32662671083150224 -0.2847927562441683
560000000.0 -0.33532610613208536 0.1252778850251112
580000000.0 0.03489429584592786 0.33808498955402044
600000000.0 0.30865949482737426 -0.1347950614890732
620000000.0 -0.32890369502838346 0.14049863128748713
640000000.0 0.09776429593310698 0.3757702161186384
660000000.0 0.4004932754857472 -0.02194339525652812
680000000.0 -0.028658989009763585 0.4192604579595912
700000000.0 0.21308864445917447 -0.37572681718857287
720000000.0 -0.2482870921557796 -0.3472185883021181
740000000.0 0.38494614296954105 0.1645204046172524
760000000.0 0.06847480457316503 -0.3974343399717181
780000000.0 0.09522194417502738 0.36034562287540434
800000000.0 0.1289205651634326 -0.3195026619550317
820000000.0 0.28399823221701676 -0.078092417470417
840000000.0 -0.032578274132750204 -0.24601012731613378
860000000.0 0.15589234967730442 -0.14819864228511392
880000000.0 -0.08750992957323865 0.13350893607138972
900000000.0 -0.03938537564412225 0.08657458062106803
920000000.0 -0.06269854728756706 -0.007595799596525668
940000000.0 0.01867181622244812 0.0446334090127968
960000000.0 0.03742607654681575 -0.03923351592830003
980000000.0 0.06298713424812315 0.03225160256247616
1000000000.0 0.016654903275225993 -0.07911027649319403
1020000000.0 -0.011435927686769834 0.09762514490228213
1040000000.0 0.10760359609884652 0.026051652446548314
1060000000.0 -0.06886341568119993 0.12863342507109038
1080000000.0 -0.14465511984656731 -0.06636875046806966
1100000000.0 -0.11025315675740019 0.14359994735824091
1120000000.0 0.13605176878459238 0.14916828736177531
1140000000.0 0.2010458620451189 -0.11970591169075356
1160000000.0 0.2698433270013719 -0.020569500896287195
1180000000.0 0.23719179845725258 0.19519702812058118
1200000000.0 -0.06624397805419023 0.33273476375505545
1220000000.0 0.09056027346010055 -0.3547584369534034
1240000000.0 -0.2204945898309013 0.3265031943376939
1260000000.0 0.4142150022186996 -0.08651378807272059
1280000000.0 -0.44319529438207517 0.026747888245027274
1300000000.0 0.4253335520606618 0.1661663536312679
1320000000.0 -0.17511339097382306 -0.4180103403714534
1340000000.0 -0.37731440028851526 -0.234872120038003
1360000000.0 -0.34234267550696673 -0.26660880972727546
1380000000.0 -0.3746378100018477 -0.20816914719133991
1400000000.0 -0.38814710854642903 0.14675880757559
1420000000.0 0.044106546180030376 0.3950110936345775
1440000000.0 0.31774807928252924 0.19283826517698716
1460000000.0 0.19745128298844322 -0.2823168511110088
1480000000.0 -0.08951061631413135 -0.3005654898074013
1500000000.0 -0.26623233231739235 -0.09642193837189002
1520000000.0 -0.2560678351703005 -0.012997020775784088
1540000000.0 0.22716547911647794 -0.027062201177591724
1560000000.0 -0.06071943997282074 0.1868257410142038
1580000000.0 -0.13009033539719414 -0.11354491992352772
1600000000.0 -0.1083680470051675 0.09752397047508699
1620000000.0 0.10259865916875642 0.05794279982631328
1640000000.0 0.08783908835705424 -0.03510740063899661
1660000000.0 -0.07010712260502054 -0.002692616865931058
1680000000.0 0.036875174626669185 0.028744796282696886
1700000000.0 0.0010065935860693734 0.028617313766821768
1720000000.0 0.011544278284347445 0.006837633790688875
1740000000.0 0.02063134840722179 0.0032640644586349695
1760000000.0 0.0349519762340685 0.023615501196097132
1780000000.0 -0.05857214370200091 0.04788271833494298
1800000000.0 0.04935293358674039 -0.10178631964492962
1820000000.0 0.09402369679758618 -0.11173587540684048
1840000000.0 0.10298602383665192 0.1459267752310902
1860000000.0 -0.20931626559307406 -0.0044395651886180165
1880000000.0 0.10087730113284943 0.21808392666942822
1900000000.0 0.217827949333238 -0.16566985629174746
1920000000.0 -0.22037346504347896 -0.21088759231515397
1940000000.0 -0.32815250278115715 0.07754568617070554
1960000000.0 -0.007209669874225245 0.3673739997192957
1980000000.0 0.38849977898525884 -0.057974729949825575
2000000000.0 0.09969959491996412 -0.40276727313694843
2020000000.0 -0.43024062486462594 -0.017132382289528084
2040000000.0 -0.06484057847412433 0.4333131161077218
2060000000.0 0.42014256518090354 0.12690781063679996
2080000000.0 0.33875521360461985 -0.2719387190009471
2100000000.0 0.14005154811792817 -0.40500391999399477
2120000000.0 -0.1463853548663786 -0.3921254903476571
2140000000.0 -0.3693654013105776 -0.17317342896293525
2160000000.0 -0.1258088177395986 -0.3725755999964743
2180000000.0 -0.34474915611010715 -0.148646662757478
2200000000.0 -0.3338211068289191 0.1353263429549826
2220000000.0 -0.23271496164416375 0.25583596442021483
2240000000.0 -0.14847771651913774 0.3061505234780982
2260000000.0 -0.06394330347628512 0.33437862504523286
2280000000.0 0.02807636360758411 0.3445144701199179
2300000000.0 0.3533862938193184 0.08079921743623866
2320000000.0 0.08250396310816714 -0.3796468279536573
2340000000.0 -0.3995875917151553 0.1356813868611544
2360000000.0 0.4624302903965124 0.04055719816460243
2380000000.0 -0.5102728024077758 -0.013208512862068512
2400000000.0 0.559993140658465 -0.002147493762357112
2420000000.0 -0.5565606855947297 0.25117743457074493
2440000000.0 0.3169208081117258 -0.5773119517151637
2460000000.0 0.11055003126531364 0.6895754320759303
2480000000.0 -0.42752095612376917 -0.5891482511670334
2500000000.0 0.39345183804791106 0.6364428953036785
2520000000.0 -0.2802872744922074 -0.7042460538612055
2540000000.0 -0.07318808504009644 0.7557166561793734
2560000000.0 0.5818787309109484 -0.47856803080948745
2580000000.0 -0.7255010339064166 -0.13672310127433138
2600000000.0 0.2969396706588377 0.6496598305528757
2620000000.0 0.34793907574533905 -0.5881367689153039
2640000000.0 -0.008162458825420903 -0.645827256739762
2660000000.0 -0.4724805470031283 0.37056778172672944
2680000000.0 0.5361692266555403 0.13529071166658618
2700000000.0 -0.16697916343053412 -0.47706649344906477
2720000000.0 -0.27800873991293124 0.3632460294726903
2740000000.0 0.414817788439985 -0.03598694860529112
2760000000.0 -0.31381751555337034 -0.2147764647657941
2780000000.0 0.33641860001681534 0.1057244320975088
2800000000.0 -0.3217222561405465 0.07145942245196313
2820000000.0 0.02478742388986444 -0.31181376447415804
2840000000.0 0.29544458526232287 0.060130407952637834
2860000000.0 -0.11023424771862536 0.2752357198238626
2880000000.0 -0.20036112058856245 -0.21485016948291097
2900000000.0 0.24448835121865586 0.16117918772632425
2920000000.0 0.015272503345503997 -0.2945257470138297
2940000000.0 -0.2956052889602033 0.04542517225336411
2960000000.0 -0.21716698143039478 0.20687866340802386
2980000000.0 -0.2975504475054718 0.06772200943816395
3000000000.0 -0.25180924300611524 -0.18225284350866655
3020000000.0 0.04367571037911769 -0.3095328886632608
3040000000.0 0.25105817067097647 0.18300523510538547
3060000000.0 -0.30276484977636503 0.0632482252229771
3080000000.0 0.2046099830408399 -0.2272828331286484
3100000000.0 -0.0072654994903758536 0.3000995517408657
3120000000.0 0.022354041262464083 -0.2893505575298552
3140000000.0 0.19736359160317196 0.20174902944024914
3160000000.0 -0.2658521121460146 -0.03444489499060666
3180000000.0 0.17424292702416555 0.18033757285063476
3200000000.0 -0.1392561985614149 0.1806446073117938
3220000000.0 -0.19197047170627501 -0.057822480085136276
3240000000.0 0.04926422696874882 -0.16149837283379337
3260000000.0 -0.05430682861033647 0.12325250648109012
3280000000.0 0.10136057275387955 0.01991955036253275
3300000000.0 0.02332052375854409 -0.07246307149047751
3320000000.0 0.03914361481659578 -0.03237592608980053
3340000000.0 0.029478848442404223 -0.005169622845422338
3360000000.0 0.011064437628724359 -0.007344656640945901
3380000000.0 0.0015297006512727852 -0.00458789087561436
3400000000.0 0.011255961018111799 -0.015363785001024198
3420000000.0 -0.03045069353946004 0.01762046728957502
3440000000.0 -0.046255683760473995 0.017047726529616454
3460000000.0 -0.041281842816967215 -0.04069144681048134
3480000000.0 -0.06624834110561731 -0.01460452326627906
3500000000.0 -0.06724339344683823 0.03968239486925578
3520000000.0 -0.03943655833440211 0.08167226792265302
3540000000.0 0.10186981280622708 -0.020769283957844893
3560000000.0 -0.1095547691008793 -0.043987609939343246
3580000000.0 0.06178257056588835 0.11845936096011331
3600000000.0 -0.13776737419207805 0.07070278547585349
3620000000.0 -0.1517158975024832 0.07604064138150363
3640000000.0 -0.17969925434664116 0.0181324436781487
3660000000.0 -0.17116196492156718 0.08190548843316069
3680000000.0 -0.19014803652185613 0.026633137719842864
3700000000.0 -0.18257141557751555 -0.054514747921947944
3720000000.0 -0.018174982526336293 -0.18600053224205823
3740000000.0 0.16609847244223433 -0.0767555534534366
3760000000.0 -0.17651305005275172 -4.562637213932745e-05
3780000000.0 0.1551211842139054 0.06755905049610444
3800000000.0 0.02946708008560709 -0.15855613729481852
3820000000.0 -0.12119660387760342 -0.09463561869853601
3840000000.0 -0.0030196696325555236 -0.14742946090554748
3860000000.0 0.13850012609057158 0.050026352414725854
3880000000.0 0.15315432896487663 -0.00831919979606887
3900000000.0 -0.026217752950422658 -0.15387287486043777
3920000000.0 -0.11345282792301545 0.11443230106227487
3940000000.0 0.07551148866282062 -0.14726001110255296
3960000000.0 0.1697635865308649 0.018122628263053414
3980000000.0 0.1102950079762379 -0.13223393319254126
4000000000.0 0.11494546827941517 -0.1199257814442499
