! Created with skrf (http://scikit-rf.org).
# Hz S RI R 50.0 
!freq ReS11 ImS11
400000000.0 -0.7166703653577419 0.48724954673316856
420000000.0 0.2824389334663159 0.8191406748811555
440000000.0 0.7939279257921591 -0.26649632234126275
460000000.0 0.22132770216703573 -0.7560554056004569
480000000.0 0.5524549423393565 -0.4643941485301512
500000000.0 -0.42812236344600846 -0.3638183651903159
520000000.0 -0.4155505044670144 -0.25806976149285354
540000000.0 0.021268878389893525 -0.4118344169595761
560000000.0 -0.3629848453106337 -0.05310857303332295
580000000.0 0.10949235060971997 -0.2997537210244506
600000000.0 0.09092554038239285 -0.3156367666274953
620000000.0 0.3045259614812033 -0.13616268613167387
640000000.0 -0.3380613409152995 0.0827782947152825
660000000.0 -0.2808159551146908 0.2599281104316593
680000000.0 0.15650151232897302 -0.3712085846293406
700000000.0 -0.43473819034980765 0.057497114146323594
720000000.0 -0.003602450912660168 0.43942079729628636
740000000.0 -0.4354326656644009 0.12248365332351359
760000000.0 0.0015887812351274141 -0.43359612854592444
780000000.0 0.36035112775506634 0.17646218521181306
800000000.0 0.05623142503776432 0.3592068547813548
820000000.0 -0.09117950979824575 0.28663046642331613
840000000.0 0.14621638412320193 -0.20486930378013815
860000000.0 -0.007651055095175688 -0.2011583093570438
880000000.0 -0.06647772510568468 -0.13455595072425353
900000000.0 0.06243857020138141 0.04082215714477817
920000000.0 0.025109463989033364 -0.03415482844792102
940000000.0 -0.03175753297349256 -0.03565736240323438
960000000.0 -0.01521637077773471 -0.05595663111542007
980000000.0 -0.035014317125269534 -0.0519841138915742
1000000000.0 0.020979070193999135 -0.06538114579237927
1020000000.0 0.0581098350147877 -0.04211214070152452
1040000000.0 -0.07797235588684787 0.003341898741100828
1060000000.0 0.10322527318604909 -0.04315395553033981
1080000000.0 0.12520330196273596 -0.04894592033820743
1100000000.0 0.0936371767515136 -0.12994398910934482
1120000000.0 0.007597734354284432 -0.19600629324469426
1140000000.0 0.1588855041695785 0.18272747668379483
1160000000.0 0.18990024021011087 -0.2156728801818423
1180000000.0 -0.3191732957892791 0.08860496848430449
1200000000.0 -0.36166783322517393 -0.006695207373579683
1220000000.0 -0.2270858888118873 -0.32296010800416997
1240000000.0 0.394944522936477 0.12147539453166215
1260000000.0 -0.4366173068223546 -0.011809761859061603
1280000000.0 0.4312784452758954 0.09955564220689213
1300000000.0 -0.16993743883900403 -0.4147958382767127
1320000000.0 -0.36482344402215405 0.23898059445696518
1340000000.0 -0.3970157998422169 -0.15744590154223895
1360000000.0 -0.13868691650798515 -0.3984295042449211
1380000000.0 -0.1615757878957584 -0.3886979866715986
1400000000.0 -0.39262221220675864 0.09827647184283762
1420000000.0 -0.3655329995391738 0.13357463482332305
1440000000.0 -0.06180408089942268 0.362699248624457
1460000000.0 -0.03758873732554535 0.33967496206328834
1480000000.0 0.1671624763660403 0.276110947672798
1500000000.0 0.2631120434823672 -0.14363954620359973
1520000000.0 -0.21936826407133828 0.1666651791608569
1540000000.0 0.24709209637597102 -0.05495752169627911
1560000000.0 0.17914259879505157 -0.12888983980589905
1580000000.0 -0.02292620988367067 -0.18686936521045205
1600000000.0 0.15396447667887514 -0.012017080304498492
1620000000.0 -0.039033744122221874 0.11029271752980556
1640000000.0 0.07834562819831899 -0.036188204014406714
1660000000.0 -0.04852763140677031 0.035973792644451455
1680000000.0 0.024477162099840338 0.019882610501340277
1700000000.0 -0.0001603886190064573 0.01215477766329026
1720000000.0 -0.019497652506953393 -0.011148703937453344
1740000000.0 -0.04113755726576572 -0.009237284634664292
1760000000.0 0.025670878876809786 -0.05718411435863593
1780000000.0 0.08423511523011011 0.0019661771239131956
1800000000.0 -0.10739445520832416 0.044432288625907534
1820000000.0 0.12106118889065677 -0.07591237403003086
1840000000.0 -0.16445642736457233 -0.041802092822852716
1860000000.0 0.14607939851394455 0.132817398356943
1880000000.0 0.21260318127173558 0.07193827970714861
1900000000.0 0.2577254051120831 0.015154501006017326
1920000000.0 0.11175578705636358 -0.26949826193974374
1940000000.0 0.09069951230075544 -0.3133973440981407
1960000000.0 -0.3175874203359936 -0.17337005423918497
1980000000.0 -0.17470277957240993 0.34969120240614276
2000000000.0 0.31618865683687786 0.2752481980217092
2020000000.0 0.20734521643719708 -0.3911807230813724
2040000000.0 -0.411656754327292 0.19976362958553848
2060000000.0 0.4422159873636653 0.1298302802667694
2080000000.0 -0.18943267353152055 -0.41640801257789356
2100000000.0 -0.25662123078345855 0.3616879670700749
2120000000.0 0.21780161463018485 0.3612671102554887
2140000000.0 -0.30156280239211636 0.2587730461938534
2160000000.0 -0.31927351817160343 0.1991715435727684
2180000000.0 -0.28891330982949776 -0.21016124804131217
2200000000.0 0.021830744146387467 -0.34444115366764166
2220000000.0 0.3293624304100477 -0.08994781098372057
2240000000.0 0.23579252958199065 -0.25404933350252923
2260000000.0 -0.050057262970846755 -0.35240860486709114
2280000000.0 -0.3567753307674131 0.08262663838833052
2300000000.0 0.33336857611135734 0.18699110656034126
2320000000.0 -0.18391624136625037 -0.36113413977270875
2340000000.0 -0.1644871555274399 0.4003035169531717
2360000000.0 0.2785448645980397 -0.3761316231271498
2380000000.0 -0.47512484827063045 0.18685678521874752
2400000000.0 0.5272159210459929 -0.18671764381870226
2420000000.0 -0.46229310336214985 0.39701635914379385
2440000000.0 0.16781142516703512 -0.6350976964023162
2460000000.0 0.2546248234918424 0.6474255797225228
2480000000.0 -0.5580284630248615 -0.4645346100243815
2500000000.0 0.5390120127144254 0.516404192587233
2520000000.0 -0.45781794705869394 -0.602043312062841
2540000000.0 0.22265594070655145 0.7244079089908555
2560000000.0 0.3753060051617931 -0.6518609969912799
2580000000.0 -0.7325071266975988 0.08083392039376686
2600000000.0 0.47640188837577635 0.5293472889727595
2620000000.0 0.1430166227966139 -0.666293821238922
2640000000.0 -0.12060832570566518 -0.6323136612299735
2660000000.0 -0.49913881946075883 0.33115708946760186
2680000000.0 0.4387863289426568 0.34067491635545594
2700000000.0 0.08089193142090395 -0.5071014190282603
2720000000.0 -0.2978399643155895 0.36430002215812557
2740000000.0 0.37695097617256396 -0.20792069244660966
2760000000.0 -0.2788589496290171 0.27748031052648914
2780000000.0 -0.05046660698502818 -0.3556797862774007
2800000000.0 0.27655729258182365 0.18092945204070668
2820000000.0 -0.2611287024572955 0.1642123954894991
2840000000.0 0.09420472648322506 -0.2756990449660068
2860000000.0 -0.029579932333529062 0.280922681818855
2880000000.0 0.012156060951350233 -0.27946301407755236
2900000000.0 -0.16113802136446972 0.22705707731419683
2920000000.0 0.14747845467436826 0.24454920135742897
2940000000.0 0.21391115394532167 -0.20164118656531774
2960000000.0 0.11305065105386115 -0.2795376097695195
2980000000.0 -0.0872795623048516 -0.2997843916238023
3000000000.0 -0.0993648865004753 -0.3002714613586091
3020000000.0 0.040184827933409835 -0.3174547536978629
3040000000.0 0.28041789697057273 -0.14696929720654547
3060000000.0 0.11861857147992763 0.29023747837448177
3080000000.0 -0.29399525174822483 -0.08343128641080323
3100000000.0 0.25312025899306717 -0.15360479335644467
3120000000.0 -0.16719064547989285 0.22767199123450385
3140000000.0 0.009322024893128313 -0.2679714593603231
3160000000.0 -0.18256237913540171 -0.1702724240983195
3180000000.0 0.06898702454117457 0.22233522103935577
3200000000.0 0.061763523748904404 -0.20428848574656105
3220000000.0 -0.12040521922273517 0.1528758094860994
3240000000.0 0.019801048636850564 -0.17265621428093564
3260000000.0 0.12240640781424411 0.08909839868476772
3280000000.0 0.07448597076120685 0.09982004106870383
3300000000.0 0.05448486939946826 -0.08012080323517268
3320000000.0 0.05282634392007316 -0.04074116279773056
3340000000.0 -0.02014833153425727 0.030249236519959383
3360000000.0 -0.012095906057443866 0.017574067323127187
3380000000.0 -0.02681644847365945 0.00938050104709733
3400000000.0 -0.028282168881017034 -0.029433854356966323
3420000000.0 0.04204481274442471 -0.026742282164330163
3440000000.0 0.01883290987659564 -0.04360956384879747
3460000000.0 -0.037598164169032056 0.018320239126014652
3480000000.0 -0.042383257240077965 -0.003934398345300241
3500000000.0 0.0586189953340648 -0.014193828853061523
3520000000.0 -0.016378673872528806 -0.08854218085679443
3540000000.0 -0.07222618413311863 -0.09026508304068633
3560000000.0 -0.021968624306863926 0.13634292349768373
3580000000.0 0.15130789725801203 0.02673488190317188
3600000000.0 -0.02263800623240605 -0.1674568784946485
3620000000.0 -0.1719096833074849 -0.01711732362539
3640000000.0 -0.16496188213051094 -0.0634551305518033
3660000000.0 0.06880993328170827 -0.16184558777365754
3680000000.0 -0.07166820251555377 0.1607656686814696
3700000000.0 0.09359148199053194 -0.1467981706575383
3720000000.0 -0.17590065904888097 0.030467891397909546
3740000000.0 0.08474290008084286 -0.1605150817971131
3760000000.0 -0.038106849361510584 0.18014739485386566
3780000000.0 -0.1802292516508211 -0.03314187648728585
3800000000.0 0.004783330091598873 -0.17682316779044294
3820000000.0 0.08866843131446939 0.1404024189893746
3840000000.0 0.14127318568722586 -0.05009071291183035
3860000000.0 -0.008425585951099232 0.13801538273368097
3880000000.0 0.1303130095762862 -0.043042108578200886
3900000000.0 -0.14145949672044858 -0.004803614451773439
3920000000.0 -0.07790566685039947 -0.13365322667564575
3940000000.0 0.17043819637976115 0.026277434132128425
3960000000.0 0.12871905167178693 -0.13608354090551397
3980000000.0 0.10659788882670189 0.15981600326184728
4000000000.0 -0.11572982756382154 -0.14347693962512473
