! Created with skrf (http://scikit-rf.org).
# Hz S RI R 50.0 
!freq ReS11 ImS11
400000000.0 -0.7195800902764974 0.48110928527079766
420000000.0 0.23333554297229533 0.8344682740295001
440000000.0 0.7729131461389791 -0.32485546689148226
460000000.0 0.14343463048921168 -0.7732716694153897
480000000.0 0.6174628971531453 -0.371371795287805
500000000.0 -0.4198704405865534 -0.37916556755078523
520000000.0 -0.48010702752262674 -0.09331054442893728
540000000.0 0.05907131822805159 -0.4042760160778379
560000000.0 -0.3044059810970676 -0.20678166514400903
580000000.0 0.05700267736120691 -0.31631079639354054
600000000.0 -0.08393093200388543 -0.316510536391782
620000000.0 0.32103679685893843 -0.08075369655830125
640000000.0 -0.34721493459683667 0.03029154574973328
660000000.0 -0.2523483584339479 0.2893384807448701
680000000.0 0.044536810407982755 -0.40062761015100196
700000000.0 -0.43434806038029977 0.048976211586301784
720000000.0 -0.05223370616558121 0.437220048716691
740000000.0 -0.4339331653769268 0.13282149376246405
760000000.0 -0.001506959383609381 -0.43325957392616304
780000000.0 0.3525818209927336 0.19208567650163672
800000000.0 0.057133575441666536 0.3593120512401077
820000000.0 -0.07671783204448003 0.2909876066920013
840000000.0 0.17277520103381128 -0.18352118389080793
860000000.0 -0.02947855693221281 -0.19905307128065647
880000000.0 -0.06444264326703314 -0.13493463661934635
900000000.0 0.06352512459392036 0.03852370586498282
920000000.0 0.024755304219896756 -0.034222609525548044
940000000.0 -0.04564437159749396 -0.016033484046550087
960000000.0 -0.023628844665576822 -0.053263732914433454
980000000.0 -0.004163996213534127 -0.06288464859827306
1000000000.0 0.02474969363804002 -0.06389717589982416
1020000000.0 0.05603864750859501 -0.04515465764068417
1040000000.0 -0.07758491269008891 -0.007665038800686371
1060000000.0 0.08658455023424241 -0.0703853775820704
1080000000.0 0.12847485571065048 -0.03884614913305004
1100000000.0 0.08857602106651936 -0.13306220202222166
1120000000.0 0.03801605201065942 -0.19238068161007074
1140000000.0 0.16991815693885293 0.17233820340536304
1160000000.0 0.17367938348728068 -0.22872478485383646
1180000000.0 -0.32185918569533273 0.07688840861830154
1200000000.0 -0.36197162507954345 -0.0026860210501070693
1220000000.0 -0.2432872669209986 -0.31079033591349897
1240000000.0 0.3890004741045533 0.13866638145915303
1260000000.0 -0.4363202902136183 -0.02740899503131654
1280000000.0 0.43577534102912946 0.07990794426150785
1300000000.0 -0.16315249391575434 -0.41764660184020325
1320000000.0 -0.3662188804685326 0.23737974622709332
1340000000.0 -0.3969068375525302 -0.15794326186675658
1360000000.0 -0.13319473453211605 -0.4004458656033714
1380000000.0 -0.16829042905586658 -0.38574914739756916
1400000000.0 -0.3923143677953381 0.09966086591348518
1420000000.0 -0.36532296806584974 0.1324606711627613
1440000000.0 -0.04317188067876248 0.3653676773856493
1460000000.0 -0.030658000559003522 0.3399744237335666
1480000000.0 0.20436792907862528 0.24907595800871254
1500000000.0 0.26400627478365013 -0.14161327276429023
1520000000.0 -0.21491838994053253 0.17211533424279388
1540000000.0 0.24640267665274546 -0.05716113795138305
1560000000.0 0.17683238543317803 -0.1312358494647391
1580000000.0 -0.03351537003265335 -0.1852416191954488
1600000000.0 0.14982588518165446 -0.03810735264115987
1620000000.0 0.005640223530535205 0.11689823507437926
1640000000.0 0.06611496739966578 -0.055636798444619315
1660000000.0 -0.04953216870963162 0.035664262092643104
1680000000.0 0.003492226619620918 0.03170363327896634
1700000000.0 0.00022600852429997999 -0.012764697736627865
1720000000.0 -0.018574745866276738 -0.012446079791620532
1740000000.0 -0.04117829076939122 0.007652154902359914
1760000000.0 0.018706342992661083 -0.059595326475150014
1780000000.0 0.08415341475909952 -0.009565861465899014
1800000000.0 -0.11158600172067622 0.0315211052897359
1820000000.0 0.12171441899054998 -0.07590154226490663
1840000000.0 -0.1669784101487656 -0.03304871957790445
1860000000.0 0.15094834894960876 0.12775241233541743
1880000000.0 0.21272686294712256 0.07196380436156523
1900000000.0 0.2579983326864579 0.018086822166040326
1920000000.0 0.10668635685646438 -0.2715372186530269
1940000000.0 0.10077828394489224 -0.31000393937802223
1960000000.0 -0.31618761106326326 -0.1753208172924008
1980000000.0 -0.1969588422739622 0.3375670499290426
2000000000.0 0.28846231239974324 0.30418768388382156
2020000000.0 0.20542778478873122 -0.39182010483354307
2040000000.0 -0.4287288411331463 0.15972990146030686
2060000000.0 0.4391274844628268 0.13949752587886144
2080000000.0 -0.18805472832745881 -0.4169051734244791
2100000000.0 -0.23367508774231885 0.3766973625629856
2120000000.0 0.27185026236314086 0.3222475722013385
2140000000.0 -0.2804977382182242 0.2812649897374103
2160000000.0 -0.31004049442552467 0.2132860257393452
2180000000.0 -0.3184703612878868 -0.16134582630014874
2200000000.0 -0.0025539543542147224 -0.34491753748331566
2220000000.0 0.31472766997502494 -0.13183461639617458
2240000000.0 0.2283239255795313 -0.26077776806751024
2260000000.0 -0.05784274106208585 -0.3512844398887862
2280000000.0 -0.347807150682806 0.1157811767928887
2300000000.0 0.3475585346046098 0.16047212539148897
2320000000.0 -0.18321822701695464 -0.36214523824713735
2340000000.0 -0.15536395513108617 0.4041543850001144
2360000000.0 0.26315450666531753 -0.38741484644502605
2380000000.0 -0.4679104077095055 0.2056367924736241
2400000000.0 0.5296536798816472 -0.18019711458865803
2420000000.0 -0.4653931599892448 0.39345258685723833
2440000000.0 0.1546097218012615 -0.6381640792643701
2460000000.0 0.26895275651879225 0.641201884705342
2480000000.0 -0.5610309075321844 -0.4604626819064482
2500000000.0 0.619848920298267 0.4142175178684809
2520000000.0 -0.5162047965255062 -0.551944408714277
2540000000.0 0.2286677417419962 0.7219074313251809
2560000000.0 0.30772716743552453 -0.6855973774273416
2580000000.0 -0.7318915068798062 0.0819973092992295
2600000000.0 0.5168572719433936 0.489292762022506
2620000000.0 0.08040135707427128 -0.6762419532583805
2640000000.0 -0.18700875332632605 -0.6155071237829542
2660000000.0 -0.4803373820560494 0.3572970409313621
2680000000.0 0.44043946103499115 0.33793726624489007
2700000000.0 0.0755885188557699 -0.5077425257813658
2720000000.0 -0.28553406888428684 0.3738714388467811
2740000000.0 0.3773718210310727 -0.2067576520854099
2760000000.0 -0.2901647464812401 0.26546469859597743
2780000000.0 -0.030178469893519005 -0.3582208272419513
2800000000.0 0.27514143093771976 0.18299706918920886
2820000000.0 -0.27288621697050014 0.14306921906650513
2840000000.0 0.13647584964207982 -0.25788842477076496
2860000000.0 -0.04219881080546164 0.279407259354345
2880000000.0 0.007743597342869199 -0.2791619941312279
2900000000.0 -0.1608864023944165 0.22651988583532168
2920000000.0 0.14890005134651274 0.243328020008301
2940000000.0 0.20780900205415845 -0.2073117124111177
2960000000.0 0.08800392152407606 -0.2879192171432972
2980000000.0 -0.12460566306705426 -0.2855645635001025
3000000000.0 -0.09734642405506598 -0.301168074440191
3020000000.0 0.0015531074733165506 -0.3199019193557856
3040000000.0 0.2555094577314122 -0.18645240256813728
3060000000.0 0.15242007959872383 0.2733888000547154
3080000000.0 -0.2950050905573608 -0.08022734898700513
3100000000.0 0.2687227507976698 -0.12505954340746453
3120000000.0 -0.1095718325678743 0.26063757261378273
3140000000.0 -0.011012315934726973 -0.2678257519832354
3160000000.0 -0.18235230823502457 -0.1707648951525444
3180000000.0 0.08073268382392672 0.21824725352333435
3200000000.0 0.037539232551400174 -0.21021343556564798
3220000000.0 -0.12082447716347058 0.1518262830035476
3240000000.0 0.03226714180379954 -0.1710126557502725
3260000000.0 0.10415238147730081 0.11016863909498217
3280000000.0 0.08210073911305109 0.09379741440997194
3300000000.0 0.07932762844199519 -0.05576225382599195
3320000000.0 0.06441746258403559 -0.017914164033230616
3340000000.0 -0.030411640536717296 0.02071244364549101
3360000000.0 -0.021229567922570018 -0.004009310592385778
3380000000.0 -0.007982781250805756 0.0271103498524779
3400000000.0 -0.033510875825846435 -0.02333398245065447
3420000000.0 0.037689985057715064 -0.032483394619387124
3440000000.0 0.0101236389112379 -0.046742515756004195
3460000000.0 -0.028817071424281367 0.030210113568037638
3480000000.0 -0.02961756752147403 0.030671249602479633
3500000000.0 0.030634240938164962 -0.05189919502009766
3520000000.0 -0.014484397641355591 -0.08852812276256045
3540000000.0 -0.09597394481391744 -0.06500123915086198
3560000000.0 -0.02815543467315275 0.13471236257586405
3580000000.0 0.14896630136524178 0.03595672257232881
3600000000.0 -0.04371901391604461 -0.1640580190941949
3620000000.0 -0.17266863673048288 0.00992634956593256
3640000000.0 -0.16986549701279177 -0.048759584838872015
3660000000.0 0.05047735474759294 -0.16849262099189494
3680000000.0 -0.04632531993926202 0.17021668933017745
3700000000.0 0.06975629333059709 -0.15987452220216555
3720000000.0 -0.17339081120159786 0.03901418594121464
3740000000.0 0.08668202774569216 -0.1596471545688916
3760000000.0 -0.0346105864813799 0.18076768677759722
3780000000.0 -0.18026613289152413 -0.035881545087589214
3800000000.0 0.028622970412147876 -0.1749677272254761
3820000000.0 0.08605119423858659 0.1424016483854723
3840000000.0 0.14183599488908494 -0.05013328975056452
3860000000.0 0.004756825932174193 0.13869645804212813
3880000000.0 0.1226303832539901 -0.06191931570849964
3900000000.0 -0.14173054223627515 0.006417903097734513
3920000000.0 -0.09677437262690351 -0.12028917288451538
3940000000.0 0.17251565957954942 0.015365457815939686
3960000000.0 0.1140819222060635 -0.14800139073944002
3980000000.0 0.11522033466420548 0.15405741348108337
4000000000.0 -0.12934444394664912 -0.13203052911741134
