! Created with skrf (http://scikit-rf.org).
# Hz S RI R 50.0 
!freq ReS11 ImS11
400000000.0 -0.7022876457292987 0.5083394788640283
420000000.0 0.27594965878114525 0.8201717340099091
440000000.0 0.7924784028813828 -0.27386021663393123
460000000.0 0.19807508092305767 -0.7631350393677343
480000000.0 0.5465048645245699 -0.4703650260989217
500000000.0 -0.3587750217417761 -0.43314109437669207
520000000.0 -0.4263826804959072 -0.24287263234879383
540000000.0 -0.07045375340334309 -0.4049306511914716
560000000.0 -0.3440581083168293 -0.12440906433988788
580000000.0 0.24735418722210878 -0.20285830047243258
600000000.0 -0.061159919262961014 -0.32394934075739135
620000000.0 0.25154736828047863 -0.21589375007258088
640000000.0 -0.34739759874794196 0.0036298276559270787
660000000.0 -0.25173423330134587 0.28950952151258935
680000000.0 0.09369090719515769 -0.3924575217081956
700000000.0 -0.4140492019606339 0.1413535182906911
720000000.0 -0.011154460444250053 0.44027524883889585
740000000.0 -0.41801822263566313 0.17535220745851243
760000000.0 -0.021436983774801334 -0.43322658253768115
780000000.0 0.342827860773781 0.2092995088148883
800000000.0 0.015467561132128866 0.3635626034530099
820000000.0 -0.1327467254582099 0.270081380673589
840000000.0 0.19516483139848742 -0.15824273376173956
860000000.0 0.007427705310055858 -0.20034350849156152
880000000.0 -0.08135024385119981 -0.12572811611328388
900000000.0 0.06079389792805813 0.04244773466116867
920000000.0 0.0229881069611268 -0.03508384549742326
940000000.0 -0.043872802505700616 0.020528224135559787
960000000.0 0.006401101457475384 -0.057981118816697576
980000000.0 -0.003963971610224451 -0.06281949982473528
1000000000.0 0.02903267451794875 -0.06170715438137764
1020000000.0 0.07072588720072893 -0.012173068893858002
1040000000.0 -0.07091217357167172 -0.0318929950356779
1060000000.0 0.10621331785809124 -0.03414748141691557
1080000000.0 0.1216963923088435 -0.055997338328401036
1100000000.0 0.07107459741105826 -0.14338692639899156
1120000000.0 0.018629789409732356 -0.19504498319151597
1140000000.0 0.15395536855797867 0.18684480682150312
1160000000.0 0.17337969822992244 -0.22880303708044636
1180000000.0 -0.31305324730094314 0.10812206565928385
1200000000.0 -0.3611840350075209 -0.020671176922694524
1220000000.0 -0.23969034110508924 -0.31394504772738413
1240000000.0 0.3876221708321588 0.1429882471424964
1260000000.0 -0.43597425502716036 -0.028437980878301794
1280000000.0 0.4331162835714858 0.09395894479560135
1300000000.0 -0.1588211535177907 -0.41924401927577654
1320000000.0 -0.37073323073188097 0.22971092274580177
1340000000.0 -0.3893073509704781 -0.1754114665598431
1360000000.0 -0.12189282903609107 -0.40395475009027937
1380000000.0 -0.15039308044189423 -0.39313699446985206
1400000000.0 -0.3975257569416655 0.07331595858599951
1420000000.0 -0.3752166014022371 0.10168068429992598
1440000000.0 -0.049099617863958646 0.3642078153106792
1460000000.0 -0.015014718171079407 0.3405079036735855
1480000000.0 0.23120824020804684 0.2233238078418863
1500000000.0 0.23481270358671058 -0.18562740796689584
1520000000.0 -0.18088934175423352 0.20694084348536476
1540000000.0 0.23449974087316341 -0.0937958072941534
1560000000.0 0.15915648361253354 -0.15203348352231738
1580000000.0 -0.0890510366756209 -0.16641353219440552
1600000000.0 0.12978049178185636 -0.0836966002723191
1620000000.0 0.009924002692107685 0.11637450083177248
1640000000.0 0.07667575643279982 -0.03920545486691702
1660000000.0 -0.03462690454303302 0.049844010413449345
1680000000.0 -0.00034376096400519184 0.03144016148095114
1700000000.0 -0.012056240246588872 -0.002477945778830949
1720000000.0 -0.019141472663234432 0.011486463318020779
1740000000.0 -0.0154510768711899 0.03925789570024589
1760000000.0 -0.035589757646349154 -0.051725199003630665
1780000000.0 0.08416501577568766 -0.007050407645258604
1800000000.0 -0.1086083403690528 0.04227402334618687
1820000000.0 0.10882867539236037 -0.0925177254602877
1840000000.0 -0.1664229264485109 -0.03560477365617272
1860000000.0 0.1271962771536199 0.1512157155667634
1880000000.0 0.2051538115248919 0.09263752751172849
1900000000.0 0.24838046210969744 0.07164564193665574
1920000000.0 0.14729803963898558 -0.25201785294006096
1940000000.0 0.13272839917406193 -0.2979628708877886
1960000000.0 -0.29456677200286435 -0.2092488046914568
1980000000.0 -0.18930637401137793 0.34185226688617704
2000000000.0 0.30278500793751706 0.2896504586375313
2020000000.0 0.20315580939122488 -0.39315775246796564
2040000000.0 -0.4035772229458304 0.21532275125460962
2060000000.0 0.44356072605680197 0.12224759594720033
2080000000.0 -0.24246995800556848 -0.38680667409400227
2100000000.0 -0.2198352357265481 0.3843675945314555
2120000000.0 0.288310747490596 0.3072026131866014
2140000000.0 -0.2537733202369584 0.30507723743681303
2160000000.0 -0.2915959541943589 0.23763206670767315
2180000000.0 -0.31308414744661855 -0.17196952184361242
2200000000.0 0.0012142810104131768 -0.3452410262464252
2220000000.0 0.3158958992375655 -0.1304181896246971
2240000000.0 0.2157764762037096 -0.272183511009548
2260000000.0 -0.08363855547667876 -0.346302001819903
2280000000.0 -0.3450964047269864 0.12495338844662875
2300000000.0 0.3508591052723022 0.15433654072153624
2320000000.0 -0.18863982705424995 -0.3593888263556347
2340000000.0 -0.15194310993524307 0.405382827389866
2360000000.0 0.2934308922174216 -0.36513675117110267
2380000000.0 -0.48288577615127437 0.16734532751287934
2400000000.0 0.538256081077803 -0.15228112989489812
2420000000.0 -0.4986215127374322 0.3500264480856959
2440000000.0 0.2116084389287531 -0.6211032778384267
2460000000.0 0.22554645366978726 0.6574739177833615
2480000000.0 -0.4981105981355522 -0.5276826020474388
2500000000.0 0.5902217645906225 0.454324858672062
2520000000.0 -0.48565900831138686 -0.5794875736979442
2540000000.0 0.2446805700968716 0.7170494676696187
2560000000.0 0.31248034963963944 -0.6833782417337002
2580000000.0 -0.722889016420376 0.14036158805399768
2600000000.0 0.5683835611028647 0.42950482079670327
2620000000.0 0.007204812824629134 -0.6816139581757149
2640000000.0 -0.15476234590806073 -0.6254049351375026
2660000000.0 -0.4231337314884029 0.4254154099669811
2680000000.0 0.46031327668569494 0.3128977812811491
2700000000.0 0.06150141751656524 -0.5107162991574277
2720000000.0 -0.2798451015042123 0.37878999297875954
2740000000.0 0.3708576267793186 -0.22061148505949665
2760000000.0 -0.298205331204205 0.2578021658149507
2780000000.0 -0.0010320339300467396 -0.3602532763357945
2800000000.0 0.25050719368654545 0.21589826862335848
2820000000.0 -0.28066516836670213 0.12706143302622172
2840000000.0 0.14182157618783847 -0.2544528369720829
2860000000.0 -0.06863581335743174 0.27344240105473966
2880000000.0 0.0454029066647522 -0.27524981815542654
2900000000.0 -0.18041128623635033 0.2102723817877491
2920000000.0 0.1574340467414571 0.2372465905799613
2940000000.0 0.22951529261596906 -0.18212084339719226
2960000000.0 0.059336502219703886 -0.29441783436664404
2980000000.0 -0.1837889700080326 -0.25096232338398894
3000000000.0 -0.15726514378314949 -0.27639774469360523
3020000000.0 -0.04291679358023755 -0.3175067955803503
3040000000.0 0.2743044714951014 -0.15833518422382958
3060000000.0 0.16377306956162782 0.26780047036723603
3080000000.0 -0.30440447850083024 -0.03322038045187227
3100000000.0 0.1705329332512303 -0.24354139092945049
3120000000.0 -0.14159752658441205 0.24521384381372252
3140000000.0 -0.011291398223286883 -0.26936004451789675
3160000000.0 -0.18521567445891843 -0.1695674761137734
3180000000.0 0.06313749461507243 0.22532713879255536
3200000000.0 0.05536420549689512 -0.20765078927958608
3220000000.0 -0.10186692412467885 0.16791658942148405
3240000000.0 0.050695599515080916 -0.16745833849161107
3260000000.0 0.11129742124370332 0.10392076844074241
3280000000.0 0.04502267468826218 0.11707055550184868
3300000000.0 0.08114566884572127 -0.05270326159652169
3320000000.0 0.06615243730980495 -0.005476148611541024
3340000000.0 -0.01794342874096679 0.031490026894458144
3360000000.0 -0.009254960172031873 0.018961959040080276
3380000000.0 0.02119670488464456 0.01818240457910754
3400000000.0 -0.03846934475979379 0.012041650493216337
3420000000.0 0.004577868701406094 -0.0492148989867524
3440000000.0 -0.013134301933978314 -0.04571492005099656
3460000000.0 -0.009806113569129696 0.04011410037502014
3480000000.0 -0.04199003426806755 -0.003178028576960804
3500000000.0 0.04650024983811257 -0.03982538281310642
3520000000.0 -0.025244630425459904 -0.0862248396541092
3540000000.0 -0.09324363560293308 -0.06905973257810838
3560000000.0 -0.01221319203375508 0.13761321126405776
3580000000.0 0.15273832462825127 0.014148643918877043
3600000000.0 -0.08605965776282029 -0.1463994936994365
3620000000.0 -0.17189400957288659 0.022960284342717463
3640000000.0 -0.16614069633760756 -0.05894012603238555
3660000000.0 0.10269824985736276 -0.14356731080122498
3680000000.0 -0.09867919841611618 0.14558497340062942
3700000000.0 0.10466125068918986 -0.13951780989611418
3720000000.0 -0.1754109093265627 -0.027115931083541607
3740000000.0 0.07944090310049436 -0.16360181442272526
3760000000.0 -0.04451012554455807 0.17822911732478539
3780000000.0 -0.18372794507571769 -0.004712091692585953
3800000000.0 -0.01586194975416142 -0.17695267344185078
3820000000.0 0.1270247514781998 0.10817319057829046
3840000000.0 0.12193950355529115 -0.08784829971703376
3860000000.0 0.048437952024523216 0.13057261383770505
3880000000.0 0.11732903836489439 -0.07263960259614768
3900000000.0 -0.1377799980953684 0.03579829979507369
3920000000.0 -0.09034751985337747 -0.1266788476112523
3940000000.0 0.1723583082455169 -0.016294703879036494
3960000000.0 0.06664806999828832 -0.17586180441860838
3980000000.0 0.14769271109980536 0.12423939674807359
4000000000.0 -0.14742672901447587 -0.10802346704205612
