! Created with skrf (http://scikit-rf.org).
# Hz S RI R 50.0 
!freq ReS11 ImS11
400000000.0 -0.08217834546396714 0.8672714872886127
420000000.0 0.38868105961575544 0.7698739686119197
440000000.0 0.8185525252469634 -0.14090829318639095
460000000.0 0.3249805325477936 -0.7226320357069408
480000000.0 0.6629880990834125 -0.2685032350824866
500000000.0 -0.054029907568171234 -0.570129803593985
520000000.0 -0.14516365526917677 -0.47068062228324464
540000000.0 0.32532281930816564 -0.28612963576946754
560000000.0 -0.3267401334759548 0.1477378702462708
580000000.0 0.02477473831365007 0.33871187051857954
600000000.0 0.27476118735221183 -0.19607835789648664
620000000.0 -0.3404836594447109 0.10957249628491564
640000000.0 0.11245734885708106 0.3717179484197407
660000000.0 0.39843846712165837 -0.04734762837612752
680000000.0 -0.012610206725776589 0.4197204331196749
700000000.0 0.23702073674650576 -0.36134150805472576
720000000.0 -0.2686734929795692 -0.3321686262879574
740000000.0 0.38504430731524003 0.16601482190504085
760000000.0 0.10670710461043233 -0.3877395617919726
780000000.0 0.08423254326727703 0.36262574280376
800000000.0 0.1272304475233664 -0.3199496668914406
820000000.0 0.28469766755850273 -0.07561672809448498
840000000.0 0.008194517589258064 -0.2479099104012964
860000000.0 0.17396960746080603 -0.12546170530233564
880000000.0 -0.07393021405510877 0.14080213059364127
900000000.0 -0.03602069876022121 0.0871165266842517
920000000.0 -0.0625492978247161 0.008438363999411223
940000000.0 0.027739946856832575 0.03896007963199706
960000000.0 -0.015470096189393608 -0.05155543376760552
980000000.0 0.04712089334354859 0.05321572276173678
1000000000.0 0.0160425313095635 -0.0789048524467442
1020000000.0 -0.021521084749703025 0.09632215935103138
1040000000.0 0.10295921213058057 0.03944151499610326
1060000000.0 -0.05828680098605388 0.13320850084893116
1080000000.0 -0.14915065913104347 -0.05633328049865639
1100000000.0 -0.13440872232282025 0.12089427376302937
1120000000.0 0.1564619844857002 0.1279549938816606
1140000000.0 0.2141256279192465 -0.09373811209395357
1160000000.0 0.2699634720362662 -0.019651443581999023
1180000000.0 0.24382229622799742 0.18659837644854751
1200000000.0 -0.06806428379764523 0.33267576666016097
1220000000.0 0.08583318412419906 -0.3563303380548057
1240000000.0 -0.15547930618126624 0.3626697257133444
1260000000.0 0.41329843584112563 -0.08999379500436426
1280000000.0 -0.438201609252462 0.0730476101972989
1300000000.0 0.42173523634443727 0.1752809765658193
1320000000.0 -0.1842711678639673 -0.41439706202825094
1340000000.0 -0.3693804971258541 -0.24689114571075466
1360000000.0 -0.3301761954799422 -0.2813672403811905
1380000000.0 -0.3562952229812027 -0.237011323410469
1400000000.0 -0.39275426952993103 0.130905900286206
1420000000.0 0.01857691426625404 0.3963876650118087
1440000000.0 0.31207237767523727 0.20061920070321204
1460000000.0 0.2123825863988787 -0.2701979753197502
1480000000.0 -0.09258107796722352 -0.2996796390942847
1500000000.0 -0.26998081643276756 -0.08361127506853029
1520000000.0 -0.25563484265537245 -0.0023309438456622584
1540000000.0 0.21521164607521634 -0.07524702545060302
1560000000.0 -0.023044442905192645 0.19496327293324053
1580000000.0 -0.15362846734173508 -0.08047897282282801
1600000000.0 -0.07279424623583085 0.12678707553323945
1620000000.0 0.11577931230754472 0.025439966531675604
1640000000.0 0.08370308985211189 -0.04564357856072316
1660000000.0 -0.06808702250435152 0.020731005252315166
1680000000.0 0.022177492149407313 0.04178261013705038
1700000000.0 -0.02847637462039734 0.0009844618774309628
1720000000.0 0.006624224023921463 0.01127643257513117
1740000000.0 -0.01873168842590371 -0.0095575585175949
1760000000.0 0.04037447101635551 -0.01419557796827203
1780000000.0 -0.03524893643294903 0.0677689269643174
1800000000.0 0.055474112056789315 -0.0991199540189756
1820000000.0 0.09217814259929778 -0.1141211663309569
1840000000.0 0.11053161051731296 0.1410278268403497
1860000000.0 -0.20969649512232466 -0.015758599554602862
1880000000.0 0.06900624508520035 0.23002574030953263
1900000000.0 0.22841757695940315 -0.15140586891557337
1920000000.0 -0.19655110360071476 -0.23251995392936914
1940000000.0 -0.330707510716157 0.0645940202585496
1960000000.0 -0.005764557016564705 0.36665058353545416
1980000000.0 0.38906054179034033 -0.054495672901485596
2000000000.0 0.08387846383878828 -0.40576986443822716
2020000000.0 -0.43024303416606896 0.01681528868551401
2040000000.0 -0.06694706688404062 0.432402979986851
2060000000.0 0.43337571652131684 0.07004212836063571
2080000000.0 0.3189009003507276 -0.2951815655342007
2100000000.0 0.10004791981273808 -0.41609427120150455
2120000000.0 -0.12599377909228252 -0.39937437111226576
2140000000.0 -0.3654833314220294 -0.18049540617914145
2160000000.0 -0.12102697923419933 -0.3736814570963344
2180000000.0 -0.34185238188993533 -0.15633039894027492
2200000000.0 -0.33417747891846794 0.1364373996302465
2220000000.0 -0.2567429843252814 0.2333199360656473
2240000000.0 -0.07981277008627528 0.331558904340773
2260000000.0 -0.04761369105358257 0.33763591931434106
2280000000.0 0.023269095588575914 0.34532860718180086
2300000000.0 0.34921078943057815 0.09704871222530088
2320000000.0 0.028857432758625186 -0.38755546824720766
2340000000.0 -0.3957781316942564 0.1471609159822107
2360000000.0 0.46316268200749466 0.030242044101846048
2380000000.0 -0.5093462666540656 -0.03441108251883621
2400000000.0 0.5598554337419097 -0.003307292246055553
2420000000.0 -0.5645981233117234 0.23213893953560963
2440000000.0 0.34039613882596537 -0.5639977089924334
2460000000.0 0.10974744713167939 0.6893724369593754
2480000000.0 -0.4129867475800943 -0.5999854261700006
2500000000.0 0.3895186453556655 0.6391277096963712
2520000000.0 -0.25939213877635825 -0.7125381380466054
2540000000.0 -0.05018438075786491 0.7581502640305866
2560000000.0 0.5710642967901834 -0.4914620619382874
2580000000.0 -0.7146316979071146 -0.1864664177547904
2600000000.0 0.2670577041083252 0.6626956604419981
2620000000.0 0.3411968116309117 -0.5923672014025825
2640000000.0 0.01968818508420159 -0.6456927065043698
2660000000.0 -0.4773366619339739 0.36561941665491693
2680000000.0 0.5333331227894712 0.14545669008152864
2700000000.0 -0.1632063707614323 -0.4785760236332299
2720000000.0 -0.27388244646480614 0.36727935155446745
2740000000.0 0.4156622678547887 0.027138642048730375
2760000000.0 -0.28943893768990947 -0.24636236050224009
2780000000.0 0.32285754189713667 0.1416171185584133
2800000000.0 -0.32063598790782777 0.07374163523086381
2820000000.0 0.00761083387209071 -0.3125013985614085
2840000000.0 0.28710029899196526 0.0929732650932057
2860000000.0 -0.14980266172441303 0.2558692785589582
2880000000.0 -0.2108398633196358 -0.20373314121418257
2900000000.0 0.2566955376784103 0.13894207918627885
2920000000.0 -0.010360552152813392 -0.2937043796529262
2940000000.0 -0.2935445310671785 0.05627212092458253
2960000000.0 -0.19455737305125978 0.22933614012794515
2980000000.0 -0.2769374894468976 0.12723495227352008
3000000000.0 -0.2539939304645335 -0.17773645975623054
3020000000.0 0.028182185078991177 -0.3113137173136903
3040000000.0 0.27747488708342644 0.14034448259196683
3060000000.0 -0.2998249956112012 0.07587428266056201
3080000000.0 0.21615624458958257 -0.2157580866811049
3100000000.0 -0.01180700423603898 0.2993531766722413
3120000000.0 -0.03859524523339995 -0.28751652909175884
3140000000.0 0.1734778312891947 0.2211313817359738
3160000000.0 -0.2658004363793848 -0.03358953531478795
3180000000.0 0.20033985853037778 0.1511023835320938
3200000000.0 -0.14318330027536014 0.1772128901882103
3220000000.0 -0.19027870399150912 -0.06316212389209316
3240000000.0 0.09553270239974296 -0.13952914041087033
3260000000.0 -0.06704594524097694 0.11678547394231226
3280000000.0 0.09267548420914128 0.045101802067800935
3300000000.0 0.03976243655907077 -0.06482055004200717
3320000000.0 0.04919419913878469 -0.01449298782195773
3340000000.0 0.028000163094374794 0.012183307260210123
3360000000.0 0.008257165367006259 0.010349049819949522
3380000000.0 -0.0016467454259970033 0.003921350049058198
3400000000.0 -0.0028676050070849625 -0.01874166049371935
3420000000.0 -0.010392492812457951 0.034135389421231094
3440000000.0 -0.026976013176181986 0.041388058207666105
3460000000.0 -0.058069366324256716 0.005067832863434579
3480000000.0 -0.05866096321986402 0.03365465788618744
3500000000.0 -0.031684406183567194 0.07163249296949868
3520000000.0 0.024367842869619127 0.08681236788861647
3540000000.0 0.08672741861018841 -0.0578912792536825
3560000000.0 -0.11795009147283321 0.0013780047952571936
3580000000.0 0.062497913150606335 0.11860390241048727
3600000000.0 -0.130638000820911 0.08286504400308596
3620000000.0 -0.1350554628896656 0.10305416323204168
3640000000.0 -0.17554693790355422 0.04403277394844077
3660000000.0 -0.138902250113441 0.13066282833475915
3680000000.0 -0.17125102736962713 0.08796730421932
3700000000.0 -0.18966014955779825 -0.024722983258816132
3720000000.0 -0.026556696515052394 -0.18644716227033126
3740000000.0 0.14870185863321936 -0.10673327838038627
3760000000.0 -0.1765447157728043 0.005417122097445138
3780000000.0 0.1643371949982821 0.04079724927703905
3800000000.0 -0.01761945475810806 -0.16017114152952974
3820000000.0 -0.13688126534473524 -0.07100439084576064
3840000000.0 -0.026499110294159606 -0.1454634374714809
3860000000.0 0.14703327299294816 0.01834971477641029
3880000000.0 0.1540125453341575 -0.0036048764127522156
3900000000.0 -0.027224470670604184 -0.15400092030169132
3920000000.0 -0.11069016557660068 0.11698857309321667
3940000000.0 0.06478725735949449 -0.1525906369102847
3960000000.0 0.17005439666174194 -0.01654311136574723
3980000000.0 0.11074486890950608 -0.13205056695116688
4000000000.0 0.13193039656649927 -0.10151353810033197
