!Created with skrf (http://scikit-rf.org).
# Hz S RI R 50.0 
!freq ReS11 ImS11
400000000.0 -0.41368484905817593 0.7744387494018091
420000000.0 0.7199493946632983 0.4995754930445451
440000000.0 0.28509942578851544 -0.7968199797447933
460000000.0 -0.7448347084983654 -0.28010830699786204
480000000.0 -0.4008417822798913 -0.5990411318698378
500000000.0 0.06001619091825157 0.5696999154830465
520000000.0 0.3922452378050198 -0.266431386420827
540000000.0 -0.04447920534950282 -0.3783937482343163
560000000.0 -0.2916077760929295 -0.17683865001645155
580000000.0 0.2993449626541474 -0.09788626877331102
600000000.0 -0.31839762673328587 0.005848986525705018
620000000.0 0.3182106379593022 -0.03892362885352033
640000000.0 -0.16114124781517797 0.2994836709148072
660000000.0 -0.28989471554753615 0.22146813104777807
680000000.0 0.2903213063354395 -0.2763708829623696
700000000.0 -0.31251949137656415 -0.27514581535453986
720000000.0 -0.42917249976967287 -0.04551750888644406
740000000.0 0.060983309924989966 -0.43470514416887296
760000000.0 -0.08580662251584048 0.42372569007236527
780000000.0 -0.33210688683090683 0.2368059635389719
800000000.0 -0.17389044952435187 -0.3366126732155657
820000000.0 -0.31656615838349456 -0.0816286921293893
840000000.0 -0.19907873796450745 -0.18725380918562945
860000000.0 -0.06751230038723255 0.20954901911158844
880000000.0 -0.11384738537929967 0.11568305282614688
900000000.0 -0.04456294834628199 -0.08352126389931058
920000000.0 0.0388035184210182 0.0444042256105786
940000000.0 0.002875745326287148 0.04962443036437808
960000000.0 -0.028015575999453896 -0.05609240596797609
980000000.0 0.062613266814128 -0.033001296336867623
1000000000.0 0.039535971690594696 0.06840830169733525
1020000000.0 -0.038886380752035904 -0.07864522878440547
1040000000.0 0.06769950944795614 0.06942866309156222
1060000000.0 0.12940096508654705 -0.02632143267809379
1080000000.0 -0.024600534980191758 0.14673362503083837
1100000000.0 -0.08806723659545164 0.144276966006322
1120000000.0 -0.07507713191059744 0.17267967400092518
1140000000.0 -0.212196375809135 0.07561950139379024
1160000000.0 -0.20043732596011188 0.16941503674505595
1180000000.0 -0.28023040129129084 -0.12541018380769875
1200000000.0 -0.0914033223044136 -0.3271475018577036
1220000000.0 0.367122503276473 0.0875467701467873
1240000000.0 -0.4009442058157685 0.06391439300807301
1260000000.0 0.35427563090056596 -0.2515453534862406
1280000000.0 -0.42347819878861354 0.15532578704779448
1300000000.0 0.3345823437998452 -0.3132851825460696
1320000000.0 -0.31020784485154274 -0.33014227335340474
1340000000.0 -0.44019651034548346 0.020032511355878885
1360000000.0 -0.308605232435963 -0.303302103034341
1380000000.0 -0.3384653716572998 -0.25892356307181036
1400000000.0 -0.2797891071067504 0.3070721805897632
1420000000.0 0.06433332044408295 0.38969944624401187
1440000000.0 0.3501812184673751 0.11798941532168687
1460000000.0 0.29582141278674595 -0.1659498828135586
1480000000.0 0.080184789661475 -0.2992815563835155
1500000000.0 0.011793740179935673 -0.2811872408801817
1520000000.0 -0.248633764759534 0.06588318290489188
1540000000.0 0.042181775233754694 0.2290469999343264
1560000000.0 -0.2047245153562571 0.020613556252392234
1580000000.0 -0.1116457184956889 -0.1463092193471131
1600000000.0 0.07273465112980457 0.1308974574859547
1620000000.0 0.0821708584117055 -0.08806423893883956
1640000000.0 0.0839369228884717 -0.04423174029456878
1660000000.0 -0.04010940362081072 -0.060755146521826335
1680000000.0 0.027265498286586812 0.042021555601205726
1700000000.0 -0.02879848725890122 0.014108065500542192
1720000000.0 -0.00011873541493560429 -0.015547099549725458
1740000000.0 -0.00011943310240391316 0.017918244918233663
1760000000.0 0.024787628952205598 0.029952068941889114
1780000000.0 -0.07177662690193523 -0.0005268602819114932
1800000000.0 0.015539117674775936 -0.10744556901363642
1820000000.0 0.02337618919106904 -0.14345381163671952
1840000000.0 -0.040137956419745296 -0.18122947003651566
1860000000.0 0.20036222547704285 -0.08833162130782103
1880000000.0 -0.05169322584159646 0.24661442307629872
1900000000.0 0.009340098293979752 -0.2879114670573207
1920000000.0 -0.10071905800870339 0.29864005082370165
1940000000.0 0.33179349689230603 0.07417637741359634
1960000000.0 0.23294459982124147 -0.2774651965608407
1980000000.0 -0.1693033759353011 -0.3395406920598471
2000000000.0 -0.12393883002343775 -0.37864819838319624
2020000000.0 -0.37369935246120906 -0.17614389943961695
2040000000.0 -0.41735508366150575 -0.08074567023874488
2060000000.0 -0.3331353703375273 0.2749014445192292
2080000000.0 -0.0009440681003090449 0.43711972366897994
2100000000.0 0.3768502194600805 0.22049568835578615
2120000000.0 0.29243580459434915 -0.31643787321196426
2140000000.0 -0.31151398228549726 -0.28304434339704154
2160000000.0 -0.3127279726785554 -0.25548388989492
2180000000.0 -0.3300592650499417 0.19493766714483057
2200000000.0 0.11949543203619638 0.34428403438389377
2220000000.0 0.24464486391298562 0.24098311879127607
2240000000.0 0.23924722376285498 0.23188427754801585
2260000000.0 0.08917758186843565 0.31541370880023356
2280000000.0 -0.1740144399300151 0.28553558279044555
2300000000.0 -0.024346145009748632 0.3505856995510642
2320000000.0 0.35246772671465737 0.14498036656935487
2340000000.0 -0.02044007869069915 -0.41763963535090626
2360000000.0 -0.13119646382917619 0.4441424468453835
2380000000.0 0.02317037576006292 -0.5115841849775179
2400000000.0 0.24866401954282605 0.5050668863406789
2420000000.0 -0.5383125847114681 -0.29199327053611046
2440000000.0 0.6465470125561751 -0.12649277403634474
2460000000.0 -0.4501819055745093 0.5335386815077466
2480000000.0 0.2788153620164489 -0.6739246634550466
2500000000.0 -0.2712032476096809 0.699553073000313
2520000000.0 0.3344284874680882 -0.6848935854387339
2540000000.0 -0.6277474845660627 0.43716370240940977
2560000000.0 0.7549650464763199 0.09441433457258853
2580000000.0 -0.41925332289887507 -0.6179255038365719
2600000000.0 -0.2232274643985618 0.6880465131701698
2620000000.0 0.6138471794122605 -0.3192295225401091
2640000000.0 0.24968371678018716 -0.60595760347592
2660000000.0 -0.5494483910200207 0.2606800346727993
2680000000.0 0.5343489380927505 0.16486503210081022
2700000000.0 -0.16487730458707425 -0.48215766274089994
2720000000.0 -0.29291067366567736 0.3561775849816006
2740000000.0 0.38635498210071084 0.15902761541373703
2760000000.0 -0.07890605898494034 -0.3738821689850103
2780000000.0 -0.010260024711642494 0.3563058945632721
2800000000.0 -0.15933409186106692 -0.2960310988628298
2820000000.0 0.28858314458765727 -0.14415108373336855
2840000000.0 0.20107768656002156 0.241152639125426
2860000000.0 -0.1331803140649906 0.28033093758055605
2880000000.0 -0.30520349025275273 0.037170328184844975
2900000000.0 0.06378139826766135 -0.2966821181741953
2920000000.0 -0.20341236273108101 0.22091699618558383
2940000000.0 0.1665576293556217 0.24714565466142152
2960000000.0 0.16981320604219727 0.24344232743838576
2980000000.0 -0.19761162218804376 0.2260678594364913
3000000000.0 -0.20556313890503 -0.22291548410686726
3020000000.0 0.3024626338580383 -0.061236908186710154
3040000000.0 -0.16665198388036775 0.2620093624447535
3060000000.0 0.024146055237603187 -0.3130817171704297
3080000000.0 0.22752666403176236 0.214614243473397
3100000000.0 -0.3106502163645657 0.0066085912005662585
3120000000.0 0.0787795132260828 -0.29463491976007133
3140000000.0 0.2732029586400088 0.10800873360417909
3160000000.0 -0.18838653186253082 -0.20100702463287312
3180000000.0 0.14939229748631075 -0.20795677149919561
3200000000.0 0.2212760358033947 0.048371772165746826
3220000000.0 -0.09393241897895159 0.16901496712651043
3240000000.0 0.10370700818365895 -0.12015016984659158
3260000000.0 0.00042211926131839123 -0.12457934298907346
3280000000.0 0.06649767045365726 0.07214962650190702
3300000000.0 -0.052724530480265715 0.05571317942723688
3320000000.0 -0.05091450191924966 -0.02765446982840352
3340000000.0 0.00033384032918931466 -0.0412156185999643
3360000000.0 -0.024463577412507896 -0.0016775764583239758
3380000000.0 0.012007378559965701 -9.883075559865117e-05
3400000000.0 0.0009443967439569614 -0.02246274342079467
3420000000.0 0.019334904561144662 0.03843977341647452
3440000000.0 0.030577525824566448 -0.04988504817060689
3460000000.0 -0.06248022225891532 -0.0297623503389315
3480000000.0 -0.042236196846886946 -0.06326177570912443
3500000000.0 0.06368342962858138 0.05228329057984189
3520000000.0 -0.040749429365845885 0.07632179762895776
3540000000.0 -0.09661613137161101 0.0047418756174531325
3560000000.0 -0.06106291119010968 -0.09171300467121624
3580000000.0 -0.12812915000291678 -0.011768762038090375
3600000000.0 0.03478131533087739 -0.14785668790161594
3620000000.0 0.025359022608391846 -0.1675573387570528
3640000000.0 0.0563976829876978 -0.17696511117686767
3660000000.0 -0.13026926961643442 -0.14904278430338505
3680000000.0 -0.18826458400360485 0.07279256330962626
3700000000.0 -0.0817568376613762 0.18276283648608416
3720000000.0 -0.05006794028467055 0.18642075512805456
3740000000.0 -0.15318556394107527 0.0975542848586373
3760000000.0 0.09775241084895674 0.1392220788378786
3780000000.0 0.1505681902050982 -0.048115952156167645
3800000000.0 0.11272533114649998 0.10291859150685122
3820000000.0 -0.038293465002520524 0.1469195075393726
3840000000.0 -0.09385312513163682 0.11997448636184922
3860000000.0 -0.14685975383018615 0.06238890453340402
3880000000.0 0.16081348216530122 -0.04092052862113256
3900000000.0 -0.13345813855221947 0.10143030359360956
3920000000.0 0.00854389959709054 -0.16478238581558724
3940000000.0 -0.04740873418136552 0.1547532149869964
3960000000.0 -0.01667305766702836 -0.16086810344791405
3980000000.0 0.15325765524327242 -0.05170555598530737
4000000000.0 -0.09070528305947308 0.1287400931627993
