!Created with skrf (http://scikit-rf.org).
# Hz S RI R 50.0 
!freq ReS11 ImS11
400000000.0 -0.42746663764794585 0.7658066755215208
420000000.0 0.7485436464168174 0.4549405904145991
440000000.0 0.3231933598065311 -0.7825811105142131
460000000.0 -0.7336969992546042 -0.308799813236398
480000000.0 -0.43328945077392145 -0.5763320782251212
500000000.0 0.21146117466169131 0.5338795110973518
520000000.0 0.39786113977754073 -0.2582966737211809
540000000.0 -0.08859988837886548 -0.3709821969756669
560000000.0 -0.2516579075567336 0.22996618426833831
580000000.0 0.31729715909354933 -0.010427944457603332
600000000.0 -0.3169678912527984 -0.01953234940683131
620000000.0 0.283096496585144 -0.147126444475531
640000000.0 -0.004118236727219737 0.34096592633879635
660000000.0 -0.2160518147933964 0.2956409908384824
680000000.0 0.31846084714091066 -0.240551134833577
700000000.0 -0.3269109445717194 -0.255162755351444
720000000.0 -0.4213723147442248 -0.09268641906944262
740000000.0 0.13358854996273922 -0.4182929212405441
760000000.0 -0.06804654356114667 0.4264110658108473
780000000.0 -0.23441711240921656 0.33112184190600097
800000000.0 -0.14778973755056188 -0.3489435928197224
820000000.0 -0.3085942054161382 -0.10975719402042139
840000000.0 -0.18990979966007301 -0.19707839397311488
860000000.0 -0.057328497433151 0.21282717725940126
880000000.0 -0.08326023127322398 0.1422195460948948
900000000.0 0.011458009030264244 -0.09408452549726085
920000000.0 0.02915345255718211 0.05179077548354682
940000000.0 -0.001188420767581049 0.04954309473720004
960000000.0 -0.01677714835712738 -0.060882929271955606
980000000.0 0.06496083467885472 -0.027486650613181073
1000000000.0 0.012018716578934014 0.07687936640916616
1020000000.0 -0.05358092569363949 -0.06963000439965294
1040000000.0 0.09025575908725916 0.03675965294528614
1060000000.0 0.13250086634277922 -0.011863671639127393
1080000000.0 -0.022595450224160877 0.147483350725543
1100000000.0 -0.12439712568276924 0.11522147583559549
1120000000.0 -0.09105043204060721 0.1642352226747431
1140000000.0 -0.17534539260971826 0.14056677046532398
1160000000.0 -0.2111267408440053 0.15555709404511217
1180000000.0 -0.27567011431359917 -0.13478522395325784
1200000000.0 -0.12243161610000916 -0.3175072772941928
1220000000.0 0.3596401912666517 0.11586160789439123
1240000000.0 -0.3937758161931698 0.09998701579418759
1260000000.0 0.34581133848464257 -0.26399041487610425
1280000000.0 -0.4220873148603185 0.16051299975319835
1300000000.0 0.35737820853536434 -0.2865137375537254
1320000000.0 -0.3336244736515139 -0.3065340285006667
1340000000.0 -0.4385641051974875 0.02885363720498283
1360000000.0 -0.3292256103972562 -0.2797920260443031
1380000000.0 -0.34503120862482906 -0.25049069399666696
1400000000.0 -0.30298249597042143 0.2836235184693503
1420000000.0 0.08190246609462144 0.3855796841678414
1440000000.0 0.3467756396915919 0.12775044077265707
1460000000.0 0.2906541038598413 -0.1736761727413081
1480000000.0 0.10815855519533057 -0.2899663554194357
1500000000.0 -0.005172020768970365 -0.28093078007932426
1520000000.0 -0.23731533395421436 0.09581440875367829
1540000000.0 0.031188540984569097 0.2308016068090318
1560000000.0 -0.20179295114692436 0.041246650262856496
1580000000.0 -0.14008824144154872 -0.1200453406904662
1600000000.0 0.09314644931875898 0.11653549487679588
1620000000.0 0.05996340618485466 -0.1044586259128089
1640000000.0 0.08442459992832148 -0.04455010256317579
1660000000.0 -0.00877295499272628 -0.07195683690314258
1680000000.0 0.03854573986777143 0.03185740477381102
1700000000.0 -0.025970770739051775 0.020427719250965697
1720000000.0 0.005618739193212681 0.013708565333122702
1740000000.0 -0.0028240891446559557 0.016929852808403444
1760000000.0 0.03653959173155836 0.014415725669783535
1780000000.0 -0.07124397206324216 0.010815847035722522
1800000000.0 0.0010292180037549479 -0.10908294697336045
1820000000.0 0.025710495436074208 -0.14304954568692574
1840000000.0 -0.03182365806760262 -0.1833911723462709
1860000000.0 0.20513757869384203 -0.07703508699207164
1880000000.0 -0.07230164300123333 0.24220732169598203
1900000000.0 0.03953016792527402 -0.2854659298617054
1920000000.0 -0.09760891334037625 0.3001456316487582
1940000000.0 0.32738111198726877 0.09339915980673133
1960000000.0 0.23734059776769117 -0.27349296466319817
1980000000.0 -0.15514516834914543 -0.3459594514790016
2000000000.0 -0.13268341273556314 -0.3753053097365041
2020000000.0 -0.3640992321295169 -0.1943933137245049
2040000000.0 -0.40927047123014454 -0.11282917040129707
2060000000.0 -0.3342451830370293 0.2731632424069471
2080000000.0 0.0077285878410147425 0.43653733266670547
2100000000.0 0.37325719642181193 0.2260183302245833
2120000000.0 0.24569137148201695 -0.3538565446281412
2140000000.0 -0.34114146915305116 -0.2461342678415294
2160000000.0 -0.33143436623072114 -0.23033217488960006
2180000000.0 -0.31858715112979896 0.21347562386879143
2200000000.0 0.13678230675328856 0.33765958757587794
2220000000.0 0.2607267124940196 0.2238009531041919
2240000000.0 0.2680733349627861 0.1981426081489033
2260000000.0 0.1155668051818996 0.306756108541578
2280000000.0 -0.1420355420681711 0.3032522306045769
2300000000.0 -0.03239137115401105 0.35001080770163556
2320000000.0 0.34852170045053055 0.15345112151440304
2340000000.0 0.008119897906858202 -0.41770176056741093
2360000000.0 -0.14250516119693332 0.4404624730961238
2380000000.0 0.0325694249642402 -0.5114091427503836
2400000000.0 0.21674841563479394 0.5194384500186272
2420000000.0 -0.5566327237102482 -0.2550947100903553
2440000000.0 0.6443652179540033 -0.13724555002227773
2460000000.0 -0.44405733586246177 0.5386397632029389
2480000000.0 0.24229515906529628 -0.687223197160995
2500000000.0 -0.2898941231037645 0.6916416014038718
2520000000.0 0.348926415395208 -0.6772038764048182
2540000000.0 -0.6081332343781481 0.463776253539341
2560000000.0 0.7588990002407792 0.051489690529841765
2580000000.0 -0.42429909073543964 -0.6143436110501541
2600000000.0 -0.15816087599453355 0.7055787879180073
2620000000.0 0.6058491870802638 -0.3340196331125359
2640000000.0 0.23652195697685563 -0.6111809262580226
2660000000.0 -0.5372236805386424 0.28560843548807624
2680000000.0 0.5484068768526309 0.1101179235334495
2700000000.0 -0.19621660069474806 -0.47009697459568045
2720000000.0 -0.2637085446104134 0.37820333541034595
2740000000.0 0.3928431850004501 0.14213163144413934
2760000000.0 -0.09520099578348469 -0.3695791290024366
2780000000.0 0.025036545699482667 0.35514332700814333
2800000000.0 -0.16246257305622422 -0.2941052808978003
2820000000.0 0.2913242724924238 -0.1375412103522057
2840000000.0 0.18382714560458135 0.2544881467647899
2860000000.0 -0.12449756787493464 0.2840902144768864
2880000000.0 -0.3021284279286505 0.054864532063367395
2900000000.0 0.05583175925958395 -0.29827143694652947
2920000000.0 -0.17683851858981173 0.24258830407619933
2940000000.0 0.188365022351962 0.23067019306932438
2960000000.0 0.16179966353983888 0.24878832204509843
2980000000.0 -0.16410654400852778 0.250538886900603
3000000000.0 -0.2246187997103247 -0.20254530902690343
3020000000.0 0.2908826545821859 -0.10087723896246276
3040000000.0 -0.13954396285243328 0.2769883160764746
3060000000.0 0.0032314904482185183 -0.3141468470919835
3080000000.0 0.22965174149670806 0.21237548894073952
3100000000.0 -0.310454949173068 0.02018251750092037
3120000000.0 0.08244084391623543 -0.29354382641402826
3140000000.0 0.2794685460953487 0.09282790765096785
3160000000.0 -0.1954139833678802 -0.19502817146936163
3180000000.0 0.16026152657436923 -0.20015373700592515
3200000000.0 0.21802357308003179 0.06238844920244046
3220000000.0 -0.09596492016597148 0.16824631246032612
3240000000.0 0.10621184847135133 -0.11784898192499779
3260000000.0 0.018261255660375918 -0.12331265555518126
3280000000.0 0.06026695921844113 0.07743773197606753
3300000000.0 -0.063716187540358 0.042329846523150645
3320000000.0 -0.02872042839301237 -0.04989916215423652
3340000000.0 0.03910019941499656 -0.009329214530124412
3360000000.0 -0.007442099054810729 -0.02258214512863929
3380000000.0 -0.003797154105878879 -0.010720269097017097
3400000000.0 -0.012207508979908821 -0.019278354700490136
3420000000.0 0.03549563672494468 0.025215838421196936
3440000000.0 0.010294314546296963 -0.058530784826973985
3460000000.0 -0.06985905746245932 -0.006338451175874392
3480000000.0 -0.05113642743204422 -0.057058648997764215
3500000000.0 0.07917529000082968 0.024119325078838214
3520000000.0 -0.006731355483574826 0.08683278671182755
3540000000.0 -0.09260946469273329 0.02988165134079743
3560000000.0 -0.09230895703926534 -0.06150721153292004
3580000000.0 -0.12880339663723486 0.0011833349984384602
3600000000.0 -0.0019757832941459334 -0.1518601086697208
3620000000.0 0.00605536444407624 -0.16921365526493085
3640000000.0 0.035169628955858026 -0.18319497250123915
3660000000.0 -0.12449855566827264 -0.15509789323873818
3680000000.0 -0.19986268944018115 0.03269396180064346
3700000000.0 -0.10376675081247967 0.17192810879023876
3720000000.0 -0.06070589509377092 0.18379412207496051
3740000000.0 -0.15986247398191258 0.08635757864860587
3760000000.0 0.08404751999359293 0.14870839172157987
3780000000.0 0.15460325696398922 -0.03375226284931439
3800000000.0 0.0968194853158365 0.11775473122652265
3820000000.0 -0.06924202732090472 0.13482536076947446
3840000000.0 -0.10977048944259132 0.10595846637371312
3860000000.0 -0.15773820261721685 0.026349498796630247
3880000000.0 0.16575732492415665 -0.009876558131746111
3900000000.0 -0.13214891165649467 0.10331401192508356
3920000000.0 0.017560413548426274 -0.16428545145088239
3940000000.0 -0.04748548150715445 0.15488861769082962
3960000000.0 0.03196040616588268 -0.1587833596211612
3980000000.0 0.16025979594086107 -0.019036979107470195
4000000000.0 -0.12527036684740153 0.09444212085361184
