!Created with skrf (http://scikit-rf.org).
# Hz S RI R 50.0 
!freq ReS11 ImS11
400000000.0 -0.40415448057765346 0.7796266924715306
420000000.0 0.7496030354382107 0.45356780453227663
440000000.0 0.30426412556243926 -0.7895247773378988
460000000.0 -0.7352211767295576 -0.3048060318496818
480000000.0 -0.39276789288308167 -0.6048006749562843
500000000.0 0.12217625098881685 0.5591139415075106
520000000.0 0.42442695155080684 -0.21016889447657214
540000000.0 -0.08765230762038528 -0.372226903426013
560000000.0 -0.2691046552639114 -0.2090934756741702
580000000.0 0.2684933246581637 -0.16389340062315075
600000000.0 -0.31149780258947446 -0.06375308333742906
620000000.0 0.30418682352447884 -0.09833909342672696
640000000.0 -0.08488875226618717 0.32995094275697046
660000000.0 -0.30389611107281056 0.20232308816692923
680000000.0 0.26113025019180547 -0.30364741530888606
700000000.0 -0.2999626366589869 -0.28851346680399736
720000000.0 -0.4307277574636338 -0.01354060670026701
740000000.0 0.057180101489871175 -0.43629217082225297
760000000.0 -0.08596981429124348 0.42409682370009816
780000000.0 -0.33997029939496176 0.22598871546656557
800000000.0 -0.13621755565284796 -0.35374367758807307
820000000.0 -0.31945419179807955 -0.06872501036724113
840000000.0 -0.20244535142275186 -0.18383630494965217
860000000.0 -0.07489208895550425 0.206738985087514
880000000.0 -0.09099308689532865 0.13488748274432918
900000000.0 -0.04727985679492696 -0.08194783672134615
920000000.0 0.04074922945588484 0.04301451620975263
940000000.0 0.007086782653036721 0.04906694427523038
960000000.0 -0.02301369254889457 -0.058736185445697656
980000000.0 0.059307157040453515 -0.03865610172094633
1000000000.0 0.029556114960554918 0.07287771654901312
1020000000.0 -0.04220697991072307 -0.07676170896836475
1040000000.0 0.07633863212960794 0.05964745436171178
1060000000.0 0.1289270518175124 -0.029896942354467736
1080000000.0 -0.012356665177079108 0.14832262798666754
1100000000.0 -0.0802568053997041 0.14888446428679863
1120000000.0 -0.10290307813209161 0.15718877826733973
1140000000.0 -0.21671824623666908 0.060734330916127656
1160000000.0 -0.19089322127383568 0.18011903553649852
1180000000.0 -0.2829520222942095 -0.11837078502594364
1200000000.0 -0.10485014068355115 -0.3233787222119948
1220000000.0 0.3683635803831453 0.08186327839827978
1240000000.0 -0.4003720940575668 0.06753132586791784
1260000000.0 0.35736547160236326 -0.24709718901863428
1280000000.0 -0.4197163452613744 0.16563579971294895
1300000000.0 0.3188972305128848 -0.3292125243514575
1320000000.0 -0.3168904405384434 -0.32362396233046103
1340000000.0 -0.4403562343320131 0.021292251152892416
1360000000.0 -0.3113086371292289 -0.3005010526714607
1380000000.0 -0.32908893421256113 -0.27076619397175306
1400000000.0 -0.2817855475922081 0.30531343595013194
1420000000.0 0.07806609416805906 0.38704881324296664
1440000000.0 0.34743970503351146 0.12555887109795713
1460000000.0 0.30013023245002607 -0.15793236095345306
1480000000.0 0.08654863294217024 -0.2976912470836636
1500000000.0 0.007873178437624077 -0.28140311490694553
1520000000.0 -0.2460700195291929 0.07193785031735175
1540000000.0 0.008591976536366432 0.2329260407452071
1560000000.0 -0.20217018528243444 0.037956346988978804
1580000000.0 -0.1367043418386732 -0.12282691284453104
1600000000.0 0.05340886336653122 0.14004222062524277
1620000000.0 0.07892970103379246 -0.09112813990821535
1640000000.0 0.07271666141135043 -0.061139858949146926
1660000000.0 -0.03217574508864846 -0.06570668574243461
1680000000.0 0.024848669622695697 0.04380645871817804
1700000000.0 -0.03154773359314767 0.006023147106446252
1720000000.0 0.01297026547832661 0.008276025749308885
1740000000.0 -0.006449380205070714 0.01653281240612808
1760000000.0 0.034927172811846034 0.01712461487242983
1780000000.0 -0.07168495092880507 0.0060979061799481616
1800000000.0 -0.010156963165778231 -0.10878299213325317
1820000000.0 0.02821276583524299 -0.14228248543584918
1840000000.0 -0.03292750754835788 -0.18274102927250782
1860000000.0 0.1967211400029682 -0.09680307626082806
1880000000.0 -0.048646316940117444 0.2474367188628187
1900000000.0 0.010478932341855597 -0.28770524410737586
1920000000.0 -0.09968482774694756 0.2989845598653002
1940000000.0 0.32762801149623066 0.09061321820836443
1960000000.0 0.2333706527880811 -0.2765988391853415
1980000000.0 -0.16485771547666775 -0.34152779366632396
2000000000.0 -0.14241562241764372 -0.37142042195261815
2020000000.0 -0.36854033741892334 -0.1859479022474048
2040000000.0 -0.4124948897357235 -0.10136514616953357
2060000000.0 -0.3379548736302977 0.26849621073047725
2080000000.0 -0.012463641553320682 0.436618906371748
2100000000.0 0.3778626176469484 0.21822890328475666
2120000000.0 0.2594940243764187 -0.34335428174245664
2140000000.0 -0.31491439090480167 -0.27904508358410446
2160000000.0 -0.32839183772938885 -0.23457906445778104
2180000000.0 -0.3184670044306204 0.2130841750445019
2200000000.0 0.130933874949912 0.3399523324906976
2220000000.0 0.2567283717019331 0.22761959419166963
2240000000.0 0.24323527806004427 0.2275072944473723
2260000000.0 0.09687274398013032 0.3129175667714556
2280000000.0 -0.1850950115108164 0.2777945856970493
2300000000.0 -0.03422747944792417 0.34928255851065326
2320000000.0 0.3404633128566352 0.16970167184423302
2340000000.0 0.024314206116754288 -0.4164961938257808
2360000000.0 -0.17682518073454687 0.42697670561146367
2380000000.0 0.08212343362751529 -0.504634126326982
2400000000.0 0.17914178327705724 0.5327423764963796
2420000000.0 -0.5345166204163054 -0.2966725341797813
2440000000.0 0.654698708362606 -0.06490393928702796
2460000000.0 -0.5196588366268333 0.4650427304410825
2480000000.0 0.3155951352827153 -0.6563546660575781
2500000000.0 -0.37091848800182825 0.6515922205279523
2520000000.0 0.4653670899786343 -0.6035306343906391
2540000000.0 -0.6885061113776408 0.33449327836305237
2560000000.0 0.746193288384371 0.14888820747517492
2580000000.0 -0.3413615283145002 -0.6646454033559677
2600000000.0 -0.22310150719370153 0.6882214235802068
2620000000.0 0.6048166798927707 -0.3380648183585999
2640000000.0 0.368860641234414 -0.5425979631391843
2660000000.0 -0.58331783165772 0.1753982610460501
2680000000.0 0.5239066403538547 0.19881365536068246
2700000000.0 -0.15159750379737563 -0.4875276516484824
2720000000.0 -0.30509555444147374 0.34748245556371143
2740000000.0 0.38070312470390794 0.17436574458672013
2760000000.0 -0.08405740662444786 -0.373825167374228
2780000000.0 -0.006989093783963611 0.3573792257985477
2800000000.0 -0.16870621963656182 -0.2916121232143989
2820000000.0 0.2947138342818432 -0.13255966514631912
2840000000.0 0.16998210634704947 0.26497418607271506
2860000000.0 -0.13447634451598142 0.28012101202487905
2880000000.0 -0.3063272799193845 0.027755996676385012
2900000000.0 0.0984201721051952 -0.28760962803691204
2920000000.0 -0.2033493474860722 0.22119198655751265
2940000000.0 0.176249913499383 0.24054729178264053
2960000000.0 0.17797694406754183 0.23746097518846368
2980000000.0 -0.19585186903479287 0.22760672289349657
3000000000.0 -0.22476035527504132 -0.2031779749465083
3020000000.0 0.28266042289541604 -0.12374432741328335
3040000000.0 -0.1675670814865518 0.26144340467303
3060000000.0 -0.007398351961329528 -0.31409804075035375
3080000000.0 0.24839962318538467 0.1905999850509723
3100000000.0 -0.3106925711872036 0.011919858241366642
3120000000.0 0.014588974326038971 -0.30505662644175435
3140000000.0 0.2869579277215035 0.06603180283911399
3160000000.0 -0.20977140344780373 -0.1797273586824488
3180000000.0 0.1297554298450342 -0.22119724290147205
3200000000.0 0.22369770084155818 0.040247023329490914
3220000000.0 -0.0771050609294433 0.17786456477588683
3240000000.0 0.10197940328530969 -0.12270138218905305
3260000000.0 0.007526034680030147 -0.12493154119886553
3280000000.0 0.08101176615882892 0.05590522560557994
3300000000.0 -0.062333103543839176 0.0457652016574139
3320000000.0 -0.05366046982272269 -0.023121822330862164
3340000000.0 -0.016697522734088387 -0.037795960002093044
3360000000.0 0.007902223394724127 0.023953470203023207
3380000000.0 0.001403507369921834 0.011713353080749906
3400000000.0 0.017536867366458084 -0.013641507793138746
3420000000.0 0.005441312629732315 0.04228601888860396
3440000000.0 0.05107938956013423 -0.028084086891706675
3460000000.0 -0.06361983424196112 -0.027346577040010055
3480000000.0 -0.054563525434079795 -0.05320233865863705
3500000000.0 0.07195452270543805 0.03972375435409894
3520000000.0 0.011193740997911645 0.08675902679128274
3540000000.0 -0.0964196975670012 0.008099436222930207
3560000000.0 -0.0807631536911386 -0.07533035180078396
3580000000.0 -0.1272241082969349 0.020483000643727496
3600000000.0 -0.017315745394729024 -0.1515390724105729
3620000000.0 0.023777016909778275 -0.16757243457061893
3640000000.0 0.02922068141562865 -0.1838311524255753
3660000000.0 -0.14784324579006702 -0.132734937131614
3680000000.0 -0.17657367760776815 0.0991038955726122
3700000000.0 -0.07059648378073967 0.18778063663629385
3720000000.0 -0.03572335619544024 0.1907166472820107
3740000000.0 -0.150960798191277 0.10135279685926582
3760000000.0 0.10405642395079855 0.13513317928116406
3780000000.0 0.14430892419566474 -0.0645274479384248
3800000000.0 0.12254287669928249 0.09133264981251055
3820000000.0 -0.023335503435763384 0.15045913669846409
3840000000.0 -0.08570430415883253 0.12656407819763268
3860000000.0 -0.14722110643476463 0.06201156315599138
3880000000.0 0.15864887853622575 -0.048216020653151365
3900000000.0 -0.10983052141970677 0.12633617701220895
3920000000.0 -0.0282930929594318 -0.16238558137994177
3940000000.0 -0.00829440608097169 0.1611766955835934
3960000000.0 -0.02001274384132252 -0.16068770806715452
3980000000.0 0.15016514072938902 -0.06005028212126
4000000000.0 -0.09613003458765063 0.12487876206966962
