!Created with skrf (http://scikit-rf.org).
# Hz S RI R 50.0 
!freq ReS11 ImS11
400000000.0 -0.43579776820017696 0.7606094779808582
420000000.0 0.7673580381850461 0.41869352170628865
440000000.0 0.2803327943520255 -0.7974677023419554
460000000.0 -0.7477133747467748 -0.2687019797346398
480000000.0 -0.425020611074904 -0.5820955673037314
500000000.0 0.3072015670696266 0.486260486212332
520000000.0 0.4026260248113356 -0.2489584498145993
540000000.0 -0.09309091648243888 -0.37037682364703495
560000000.0 -0.23916675681760347 -0.24113030726223394
580000000.0 0.2838389948608904 -0.13994171779815742
600000000.0 -0.31541892196238075 0.028554021057573268
620000000.0 0.31061524895256326 -0.07824058934676777
640000000.0 0.012576174270097369 0.34124809344721446
660000000.0 -0.2424941582753515 0.2761102769003945
680000000.0 0.3419167552692798 -0.20640741160157744
700000000.0 -0.2781096119784964 -0.3085004109877143
720000000.0 -0.406687497177325 -0.14757586353877003
740000000.0 0.17885456715227435 -0.40173816256318046
760000000.0 -0.09286236026220351 0.4214479760201912
780000000.0 -0.29073649540752156 0.2830755760299654
800000000.0 -0.17491624110738302 -0.3357185327686512
820000000.0 -0.32399733580013307 -0.04769018614614387
840000000.0 -0.23760658003422758 -0.1366308649859677
860000000.0 0.029392942604248636 0.21889181043095282
880000000.0 -0.0015705310381152276 0.1669014488210123
900000000.0 -0.018483743241469463 -0.09536546180844678
920000000.0 -0.017953601253269575 0.058317048584198374
940000000.0 -0.048912755205426484 -0.0036749248424678463
960000000.0 0.0020502214135145165 -0.06290110053037117
980000000.0 0.05385535203481245 -0.042512763788236874
1000000000.0 0.056079495278862385 0.052427031817984325
1020000000.0 -0.07177332388635065 0.04967107687725044
1040000000.0 0.08311456907686905 -0.050373386525186026
1060000000.0 0.05995910175657851 -0.119832117968706
1080000000.0 0.06708521166269366 0.1347237563691487
1100000000.0 -0.07602036002582149 0.1534203485901436
1120000000.0 -0.02914273749596306 0.18868542935103322
1140000000.0 -0.2008155888625346 0.10618317655125252
1160000000.0 -0.24152346545791842 0.10889348485971546
1180000000.0 -0.2432044669204119 -0.1908698801852226
1200000000.0 0.026186198113672576 -0.34094055379122506
1220000000.0 0.31598513495354513 0.20926554003141407
1240000000.0 -0.4050709791097367 -0.03815660936642509
1260000000.0 0.4072055002061709 -0.1526837032985102
1280000000.0 -0.44325955985540133 0.08380015744969903
1300000000.0 0.3857194254372475 -0.24654385368673146
1320000000.0 -0.2969626883348524 -0.3406804015364247
1340000000.0 -0.4375106401996245 0.029079958212295663
1360000000.0 -0.3407681190086463 -0.26436344496446496
1380000000.0 -0.3579829150788992 -0.22963708853199483
1400000000.0 -0.25868508234897303 0.3235532618973369
1420000000.0 0.15524902299093016 0.3621059797397024
1440000000.0 0.36424262647944594 0.06079630257062496
1460000000.0 0.2512670407491703 -0.22782034769238244
1480000000.0 0.008780284862062835 -0.31021278778010497
1500000000.0 -0.0696124889896528 -0.2735831436296006
1520000000.0 -0.22106709136196392 0.1323078411759094
1540000000.0 0.06763418437673177 0.22449890227066932
1560000000.0 -0.20760416344863244 -0.0018134203430218727
1580000000.0 -0.11172862806839899 -0.1481569279707123
1600000000.0 0.010261168767842107 0.15005407887727046
1620000000.0 0.07955981755187144 -0.09149550529687997
1640000000.0 0.0951519300085848 -0.006024412514146158
1660000000.0 0.041840638005967934 -0.05888146152133237
1680000000.0 0.00882177226572083 0.04842282274477446
1700000000.0 -0.017382079854037155 0.02677986811556486
1720000000.0 0.005989892920036122 -0.01340518710263444
1740000000.0 0.01613402292153991 -0.008000784924769412
1760000000.0 0.008146084350499062 0.039321187948633
1780000000.0 -0.059261162402506944 -0.04096327214464122
1800000000.0 0.06231288052578032 -0.08912209851793011
1820000000.0 0.07164487927383728 -0.12564403933208224
1840000000.0 -0.00867528105622512 -0.1852005165105106
1860000000.0 0.20722504511738324 -0.07009694696168249
1880000000.0 -0.06893465206895001 0.2425182924610094
1900000000.0 0.03167489256193978 -0.28579741728635
1920000000.0 -0.08148839122722563 0.30432349010473514
1940000000.0 0.3349476154933111 0.06122378342973649
1960000000.0 0.20381031138884576 -0.2995828805800856
1980000000.0 -0.1890360476619528 -0.3291911283395356
2000000000.0 -0.1640963366765641 -0.36330056999028815
2020000000.0 -0.38386600934074966 -0.1542043024255159
2040000000.0 -0.4128717659066218 -0.10151204239327086
2060000000.0 -0.32177719230688306 0.28820972569021713
2080000000.0 -0.007913667541125427 0.43727304563215796
2100000000.0 0.35927019464543825 0.248491300312304
2120000000.0 0.27910122951443805 -0.3283798871471182
2140000000.0 -0.30463980529719764 -0.2905248386506628
2160000000.0 -0.29637903020650586 -0.2742315846472814
2180000000.0 -0.34235458843276 0.17318795347550855
2200000000.0 0.11086616718509448 0.34720104117429684
2220000000.0 0.2554560823468234 0.2294146872630389
2240000000.0 0.2608677372726613 0.20704079417701843
2260000000.0 0.14149738187570432 0.2955779695711155
2280000000.0 -0.14218102010977107 0.3022224413952596
2300000000.0 -0.020301252988910293 0.3503855439113448
2320000000.0 0.35696791541625594 0.13222739588565022
2340000000.0 -0.03141174222490466 -0.41645638146857333
2360000000.0 -0.11113902618583994 0.4497193178729427
2380000000.0 0.03460991452591554 -0.5113662049725647
2400000000.0 0.22352224505808202 0.5171014572227922
2420000000.0 -0.555124654794622 -0.25974408755948264
2440000000.0 0.6444150615699443 -0.13994798013340534
2460000000.0 -0.43174958569109917 0.5489949828840656
2480000000.0 0.22513565329364363 -0.6934113191518441
2500000000.0 -0.30948903702681585 0.6837332963010218
2520000000.0 0.3927965760690204 -0.6530113474962309
2540000000.0 -0.617825826265996 0.4509103052769653
2560000000.0 0.7551985433073536 0.08881552306566874
2580000000.0 -0.4049021991361932 -0.6267244061386638
2600000000.0 -0.17902407138862897 0.6998521380067325
2620000000.0 0.6267587891998053 -0.2909135205669759
2640000000.0 0.2728743749703945 -0.5944853537361738
2660000000.0 -0.5351585413869 0.2870213670451225
2680000000.0 0.5491642054846942 0.10041671991292461
2700000000.0 -0.19048987052334848 -0.4710737008672012
2720000000.0 -0.2619697281434127 0.3779736924370019
2740000000.0 0.39714877722374226 0.12544792904749047
2760000000.0 -0.10962575412722265 -0.36469221620402265
2780000000.0 0.0403473713293201 0.35284838498516247
2800000000.0 -0.18947581346742481 -0.27696933264015233
2820000000.0 0.2709172656973765 -0.17457658876950313
2840000000.0 0.20829225435469859 0.23534716668511224
2860000000.0 -0.09582697419838886 0.295724366070379
2880000000.0 -0.30324657821974316 0.05310858740464523
2900000000.0 0.05351314813289357 -0.29942251051057
2920000000.0 -0.2060864920900607 0.2196134265529367
2940000000.0 0.1605350834742374 0.2519930006392857
2960000000.0 0.13682821185858957 0.26409764604716224
2980000000.0 -0.2155149632559022 0.20943725175980918
3000000000.0 -0.1653450488474877 -0.25348785518543004
3020000000.0 0.30293630682681566 -0.05480708702347599
3040000000.0 -0.22368820280691337 0.21450320082214822
3060000000.0 0.08924918300745675 -0.3005469136639094
3080000000.0 0.16160726743709664 0.2668670700776966
3100000000.0 -0.30442524031013546 -0.05852408114017769
3120000000.0 0.12117255409599215 -0.27891861893962283
3140000000.0 0.26736951349664667 0.12074909895988403
3160000000.0 -0.17124033000384487 -0.21477745490970024
3180000000.0 0.17211391580655747 -0.1881289947167578
3200000000.0 0.21997594898733625 0.0498769919999168
3220000000.0 -0.06738714403590271 0.1800088482782573
3240000000.0 0.08435072571401513 -0.1334088670010884
3260000000.0 -0.04162393457223638 -0.11637716987623829
3280000000.0 0.09652417671387381 0.00966605908822705
3300000000.0 -0.017116386637306868 0.07397645917160621
3320000000.0 -0.056066404024568355 -0.01123463440972943
3340000000.0 -0.021258235241570656 -0.03406187227960918
3360000000.0 0.014115123257075906 0.019706309251755025
3380000000.0 -9.185593691824074e-05 -0.012142861943895408
3400000000.0 0.014634936049711573 0.017698695885297357
3420000000.0 -0.04289074915457016 0.003343675749728923
3440000000.0 0.058602168287462765 -0.0006729676883204735
3460000000.0 -0.015298664548691015 -0.06750680912550715
3480000000.0 0.0050584169951359195 -0.07611416946895128
3500000000.0 0.05088973238912697 0.06445524520104923
3520000000.0 -0.009716513445539135 0.08695241628292735
3540000000.0 -0.09509265266934408 0.018389671866172207
3560000000.0 -0.07342555013154628 -0.08209836632894875
3580000000.0 -0.12662226518499628 -0.018839068194167564
3600000000.0 -0.0035125635496288873 -0.15121602961887864
3620000000.0 0.03193934375807492 -0.16506561170392833
3640000000.0 0.03984739919638731 -0.18078156820764157
3660000000.0 -0.11114373866397785 -0.16343731689292446
3680000000.0 -0.1946528563339885 0.05294058887267903
3700000000.0 -0.09095766451845375 0.1779604742085683
3720000000.0 -0.03313145698123399 0.19047598082039405
3740000000.0 -0.14490012959528661 0.10906902259406479
3760000000.0 0.1065371468354329 0.132732882912414
3780000000.0 0.13950152071128857 -0.07359015300589325
3800000000.0 0.11182655084036519 0.10292861524997166
3820000000.0 -0.05535946341378991 0.14098358306836986
3840000000.0 -0.09791641695907687 0.11674840144697081
3860000000.0 -0.1521662440068544 0.04767854141619367
3880000000.0 0.1581680537278039 -0.04948067762594069
3900000000.0 -0.10889503872151883 0.12745705981807526
3920000000.0 -0.02173913582984289 -0.16377504488715222
3940000000.0 -0.006872427570011404 0.1613032758457554
3960000000.0 -0.020249339039328764 -0.16050775948760018
3980000000.0 0.13476768304992565 -0.08816093527775888
4000000000.0 -0.05415148647649717 0.14712390469251707
