!Created with skrf (http://scikit-rf.org).
# Hz S RI R 50.0 
!freq ReS11 ImS11
400000000.0 -0.4073964135072997 0.776220940322712
420000000.0 0.7329099343492196 0.4800533446951115
440000000.0 0.35093370105805827 -0.7707142369340642
460000000.0 -0.7518841037472668 -0.26163104134291854
480000000.0 -0.43722947286312414 -0.5728551749458893
500000000.0 0.0228133041818918 0.5716226930208008
520000000.0 0.4206322661318818 -0.21991457725167005
540000000.0 -0.11861650979152051 -0.36291427729489456
560000000.0 -0.2391669394795761 -0.2407536927363635
580000000.0 0.2989057822065284 -0.1012430452145343
600000000.0 -0.31984163258049514 -0.0023988393034706833
620000000.0 0.30659697358443844 -0.08716084945799837
640000000.0 -0.11519539349846195 0.32108986939195583
660000000.0 -0.28422489133727297 0.22952118398535828
680000000.0 0.26671314039979 -0.29894778908315284
700000000.0 -0.2842868764412541 -0.30426457822325154
720000000.0 -0.4312071311735962 -0.00960190736366855
740000000.0 0.05618143477452768 -0.43593950968502904
760000000.0 -0.07710107557224323 0.42558166515735507
780000000.0 -0.33704194166455204 0.23107832922102184
800000000.0 -0.14758401545279728 -0.3485147390572901
820000000.0 -0.31936911419887015 -0.07097305686756508
840000000.0 -0.19462095737157833 -0.19194822660397698
860000000.0 -0.05674779328663276 0.2125190041368388
880000000.0 -0.09298248807187004 0.1330558820642312
900000000.0 -0.03403817267243087 -0.08834683048257423
920000000.0 0.04073227522834046 0.04337335763992433
940000000.0 -0.015012309791022138 0.046769444750652915
960000000.0 -0.02174198397751725 -0.059038125397370064
980000000.0 0.05321633122556619 -0.046583950372054594
1000000000.0 0.025012941100327975 0.07456502023268995
1020000000.0 -0.023778457567278578 -0.08435972231755047
1040000000.0 0.0693844269002765 0.0674752689924835
1060000000.0 0.13040764631629606 -0.02081669145657301
1080000000.0 -0.01696614516975361 0.1476666190815215
1100000000.0 -0.09524102161300183 0.13979584391916705
1120000000.0 -0.07607647650479063 0.17207291166793587
1140000000.0 -0.21375799863452122 0.07152859363074918
1160000000.0 -0.1949543016737517 0.1759587003227201
1180000000.0 -0.27875575591774193 -0.12875552656337955
1200000000.0 -0.10163346488192569 -0.324593151594433
1220000000.0 0.36709461707166546 0.08782857221106007
1240000000.0 -0.40094658139676875 0.06408609539348542
1260000000.0 0.3620756244545123 -0.24047298763672426
1280000000.0 -0.4221447332486292 0.15904074542406715
1300000000.0 0.32427643092559927 -0.3236106712329485
1320000000.0 -0.3143060168629607 -0.325855200556525
1340000000.0 -0.44000822099419684 0.02157263602215216
1360000000.0 -0.3049014847761142 -0.30690120638473856
1380000000.0 -0.33419811943093725 -0.26414708221112415
1400000000.0 -0.2773151346863353 0.3090272562163874
1420000000.0 0.06737570956580893 0.3891706742337847
1440000000.0 0.3532931697922972 0.10825062042349823
1460000000.0 0.2983443448073551 -0.16133842905893286
1480000000.0 0.0005584354256503084 -0.30993096786354435
1500000000.0 -0.0012364194560267401 -0.2816367914296837
1520000000.0 -0.24528037780264966 0.0754035184502271
1540000000.0 0.002866367866826303 0.2331873034917402
1560000000.0 -0.20236487734883707 0.03764048614941764
1580000000.0 -0.13647919170052977 -0.12314988465779554
1600000000.0 0.03597560709268219 0.14530990493928989
1620000000.0 0.07556139067912758 -0.09384439814411598
1640000000.0 0.0787640028651962 -0.05282878744168248
1660000000.0 -0.04204110977644157 -0.05977004939590289
1680000000.0 0.02883306896858167 0.04096849832452923
1700000000.0 -0.025696252251149725 0.01917592925739291
1720000000.0 0.005574890996424077 -0.014522364859716627
1740000000.0 0.016075970127738922 0.007289288940218325
1760000000.0 0.023177327799799884 0.03120080998305907
1780000000.0 -0.07191357017474793 0.0019465831295708358
1800000000.0 -0.012510503158483998 -0.10827101787008564
1820000000.0 0.01978355494624407 -0.14375487650276755
1840000000.0 -0.04232085795381105 -0.18090811715608804
1860000000.0 0.19327072793102829 -0.10310864466588782
1880000000.0 -0.03491918332691384 0.24969515224476524
1900000000.0 0.0011737230151490172 -0.2880295667560297
1920000000.0 -0.08332838757962469 0.3041298250050453
1940000000.0 0.33346112336649764 0.0672135227692641
1960000000.0 0.22359299640573121 -0.28508548455101373
1980000000.0 -0.16655071847362618 -0.3410758096952027
2000000000.0 -0.1397629277075814 -0.37276517623404537
2020000000.0 -0.36321082785318254 -0.1972270961784894
2040000000.0 -0.4144296534645065 -0.09467010062801813
2060000000.0 -0.3421710850614324 0.26370263983300524
2080000000.0 -0.03492729303264482 0.4358358710630173
2100000000.0 0.3711932039001633 0.230169556741184
2120000000.0 0.2591570623400668 -0.34396496754931416
2140000000.0 -0.3433701456387859 -0.24318892295631414
2160000000.0 -0.3151130891537538 -0.2525650251222883
2180000000.0 -0.3141936249990925 0.21941815571974027
2200000000.0 0.12566551367265144 0.34204961216963525
2220000000.0 0.2530486509388394 0.23228441811004508
2240000000.0 0.2477410080331298 0.22249482177609253
2260000000.0 0.08965397191095464 0.31554011604826393
2280000000.0 -0.17183765488062835 0.28731599014238207
2300000000.0 -0.013814084596273568 0.3516949579815841
2320000000.0 0.34815087956076773 0.15529177620729395
2340000000.0 -0.0028110786788571986 -0.4182043871312471
2360000000.0 -0.13983001898556144 0.4415207835952057
2380000000.0 0.019816201579870376 -0.5119357069919741
2400000000.0 0.23721853285071537 0.5106173907080368
2420000000.0 -0.562427215097847 -0.24257025053355535
2440000000.0 0.6431292473630248 -0.14323829548904318
2460000000.0 -0.42857208376747585 0.551053162488967
2480000000.0 0.23927960617187824 -0.688656732112051
2500000000.0 -0.26161840123551405 0.7029713921474366
2520000000.0 0.32664530010195947 -0.6883564733334898
2540000000.0 -0.6346807562091391 0.42729615556462364
2560000000.0 0.7602561344580302 0.029330255494794656
2580000000.0 -0.3684500577545944 -0.6497230664845131
2600000000.0 -0.1780520902491331 0.7007669746859493
2620000000.0 0.5852251764252879 -0.3694597941372863
2640000000.0 0.2564665586506265 -0.6030540821270332
2660000000.0 -0.5463931052164173 0.2671202785334902
2680000000.0 0.5321085027970959 0.17120572259611885
2700000000.0 -0.1573383957004799 -0.484402124780559
2720000000.0 -0.3139907425376926 0.3372435835942853
2740000000.0 0.38375734378727777 0.1644883620465842
2760000000.0 -0.08369883643687291 -0.3725227075582218
2780000000.0 -0.0076188572705522825 0.3559305824268227
2800000000.0 -0.16715021415776432 -0.2912373081773372
2820000000.0 0.28024183271589403 -0.159212954079731
2840000000.0 0.2077612350779914 0.23521685393584696
2860000000.0 -0.11028586947338344 0.2899245794789347
2880000000.0 -0.300380119828508 0.06470565761672598
2900000000.0 0.04368492241796732 -0.3004795614579996
2920000000.0 -0.19601409414806037 0.22753729388627691
2940000000.0 0.17100819832301803 0.24411524280489494
2960000000.0 0.15812926199568628 0.2514095246151295
2980000000.0 -0.18731860564317337 0.2343794279160419
3000000000.0 -0.2127521815534956 -0.21609785432735476
3020000000.0 0.2919181751334086 -0.09999085179033745
3040000000.0 -0.1819740924773392 0.25171553013289755
3060000000.0 0.03028494068417787 -0.3123606505504258
3080000000.0 0.21767884284729075 0.22454179235027094
3100000000.0 -0.30840513796240865 0.03893998171500343
3120000000.0 0.07352267438169413 -0.2957045838126069
3140000000.0 0.2723093446082176 0.10993606849176327
3160000000.0 -0.19502238072310918 -0.1947697529635771
3180000000.0 0.13749878541532565 -0.21595940281950077
3200000000.0 0.22227177805544107 0.04421179225198262
3220000000.0 -0.09382664436568991 0.168719781959252
3240000000.0 0.10982133379439744 -0.11467234086170461
3260000000.0 0.007312594774845232 -0.12426078314793312
3280000000.0 0.07547902004312952 0.062432892892584836
3300000000.0 -0.06630785747144156 0.03897495045230902
3320000000.0 -0.05468836721853263 -0.019695210687675154
3340000000.0 -0.015991578476610382 -0.037836309345484403
3360000000.0 -0.024597223239002243 0.000533954724804034
3380000000.0 0.0037678540254349087 0.011308744366788972
3400000000.0 -0.00421020562854904 -0.021921520797323502
3420000000.0 0.02208826062600036 0.03653719290368419
3440000000.0 0.03256912931332649 -0.04866742810453307
3460000000.0 -0.06940007591255667 -0.0005156145456706596
3480000000.0 -0.053252605386155095 -0.05419632693698641
3500000000.0 0.07648551039483319 0.030021162855992836
3520000000.0 -0.034524376100972275 0.07928716103224427
3540000000.0 -0.09466581356340793 0.0194432837879847
3560000000.0 -0.09287200231937269 -0.06010838076525481
3580000000.0 -0.12846783063174722 0.00980071325702977
3600000000.0 0.029358099790509656 -0.14901359978036655
3620000000.0 0.011700024569207825 -0.16884899583092486
3640000000.0 0.03366899128214916 -0.18294488657653243
3660000000.0 -0.13598980562585655 -0.14424518225065816
3680000000.0 -0.18033266777327855 0.09192291898204301
3700000000.0 -0.07732380254959954 0.18511923997379326
3720000000.0 -0.047395708908999135 0.1879309660061072
3740000000.0 -0.15559132321225574 0.09433287796018153
3760000000.0 0.0747132078334503 0.15338742459570517
3780000000.0 0.15337847968658933 -0.03804011421197845
3800000000.0 0.09880987975095869 0.11678007438077079
3820000000.0 -0.051343068504101794 0.14334520427448505
3840000000.0 -0.10800219726186537 0.10809529949973593
3860000000.0 -0.15571197399027997 0.035573389921687
3880000000.0 0.16440900484224127 -0.022009758821978757
3900000000.0 -0.14054712736650168 0.09108691756743907
3920000000.0 0.010724884511287515 -0.16443757086958197
3940000000.0 -0.04142535824894454 0.1557552471711667
3960000000.0 0.027332210459838933 -0.15938430430089337
3980000000.0 0.15927318955363928 -0.02717850256846536
4000000000.0 -0.11964539967105157 0.10213721686961569
