! Created with skrf (http://scikit-rf.org).
# Hz S RI R 50.0 
!freq ReS11 ImS11
400000000.0 -0.057225621626168725 0.8685189946246166
420000000.0 0.40963744159968113 0.7582740306176262
440000000.0 0.818568258691766 -0.1372318223793863
460000000.0 0.27645815011087654 -0.7429689689889849
480000000.0 0.6558787633942252 -0.2858194975996012
500000000.0 -0.10576805829423461 -0.5616096004272298
520000000.0 -0.11289132289265078 -0.47985734460821966
540000000.0 0.4082197655046989 -0.1482399291866856
560000000.0 -0.2633433576567964 0.2402961410975375
580000000.0 0.10438088361187257 0.3228139802571735
600000000.0 0.33627949270066193 -0.02514887776709286
620000000.0 -0.33338236541393 0.12191362732715988
640000000.0 0.15417894319154135 0.3560975019334724
660000000.0 0.3996179244829082 0.030860347552709402
680000000.0 -0.09277382680171906 0.40911448219550256
700000000.0 0.2702497076161834 -0.33811532371659286
720000000.0 -0.279068251765379 -0.32204969063130306
740000000.0 0.38928688321822363 0.15148828453681423
760000000.0 0.09439186306410444 -0.3912364749866023
780000000.0 0.10202911134722142 0.35920771003749513
800000000.0 0.1772835552509022 -0.2955512595112962
820000000.0 0.2937360600900158 -0.018837871216017002
840000000.0 -0.08669536969363603 -0.23346733624910404
860000000.0 0.1955930700105984 -0.08648312186619085
880000000.0 -0.06462849454781315 0.14565488749529526
900000000.0 -0.049015794822905495 0.08268452153811608
920000000.0 -0.0628650843623192 -0.0017000322649924628
940000000.0 -0.016368498707795307 0.045659683221110206
960000000.0 0.037895476584301244 -0.0375051215724349
980000000.0 0.051109817344968396 0.05026010561500647
1000000000.0 0.025574848646237595 -0.07600686241904266
1020000000.0 0.0590395239176345 0.07734416957444068
1040000000.0 0.07197095147885617 0.08528022611082829
1060000000.0 -0.10971601244386885 0.09575387963803382
1080000000.0 -0.15662199958493234 -0.02944876614241364
1100000000.0 -0.14900678956514654 0.10378646035211375
1120000000.0 0.14894566797787817 0.13534533326908846
1140000000.0 0.19097538345366227 -0.13490903637570023
1160000000.0 0.2666516281004128 0.041393082537496614
1180000000.0 0.2213369889151232 0.21401885512980845
1200000000.0 -0.039151506953315734 0.3376587604015915
1220000000.0 0.06457720203220639 -0.3602753263980246
1240000000.0 -0.1836073793546957 0.34860122309324404
1260000000.0 0.40848929656416666 -0.10861988126386461
1280000000.0 -0.4416645857465668 0.04687199602317299
1300000000.0 0.42985406186985997 0.15563089172403308
1320000000.0 -0.15865423048249053 -0.42460187869747723
1340000000.0 -0.39654091131427394 -0.2010749187856603
1360000000.0 -0.3456153548572537 -0.2618715217649227
1380000000.0 -0.36713475424862524 -0.22170796447050264
1400000000.0 -0.377503033691448 0.17181325661046382
1420000000.0 0.06612271826364527 0.391791718776611
1440000000.0 0.33240981126274094 0.16733381134073197
1460000000.0 0.2113182570606866 -0.27178505914868306
1480000000.0 -0.1490805804602492 -0.27634566915252834
1500000000.0 -0.2714384787280345 -0.08261086730692004
1520000000.0 -0.2552884101556382 -0.023487982150641427
1540000000.0 0.22847273684343816 -0.004984942051061331
1560000000.0 -0.07773757164976068 0.18092142102894046
1580000000.0 -0.11540408531613097 -0.1289739529132052
1600000000.0 -0.12088697847118852 0.08218527957136802
1620000000.0 0.08818631425063743 0.07820154677269392
1640000000.0 0.0898293085140843 -0.028822284693666655
1660000000.0 -0.06968765969549749 -0.00425523704804659
1680000000.0 0.006828138033275193 0.0457668917920723
1700000000.0 -0.0015731134501632009 0.027863431195116372
1720000000.0 0.008886255533149468 0.01016186493119386
1740000000.0 0.02074650807510906 -0.002230276793936897
1760000000.0 0.03764888065145336 0.01883806575597293
1780000000.0 -0.061031561769347806 0.04404131929853898
1800000000.0 0.07471658093057172 -0.08450845786227379
1820000000.0 0.1165604586913591 -0.08794328086246901
1840000000.0 0.10591404021732224 0.14400945315569144
1860000000.0 -0.2094623733881004 -0.006381263362327544
1880000000.0 0.11986744522121542 0.2082729104985159
1900000000.0 0.21025858528805835 -0.17518667186715597
1920000000.0 -0.22637722239639074 -0.20404343075854953
1940000000.0 -0.3238888254606265 0.09350053864467812
1960000000.0 -0.013578016658024746 0.3677481217833607
1980000000.0 0.39106944643547936 -0.036799610646196766
2000000000.0 0.08946306828621467 -0.4055328716291202
2020000000.0 -0.43104698271400954 0.013839107551471342
2040000000.0 -0.08765239904164729 0.42941453074562047
2060000000.0 0.4113499567177997 0.15290325895949833
2080000000.0 0.349317245022379 -0.25890886136487457
2100000000.0 0.14633628706979418 -0.40287926521138323
2120000000.0 -0.1414334119772359 -0.39404123396500224
2140000000.0 -0.3691305560576256 -0.1740378429335333
2160000000.0 -0.14725836749053184 -0.3645773119272623
2180000000.0 -0.34167095983723406 -0.15511114014486696
2200000000.0 -0.33703025172646306 0.12545133930952518
2220000000.0 -0.2167457813110635 0.2694814334921761
2240000000.0 -0.14467296776934926 0.30821084091244566
2260000000.0 -0.0417189190274117 0.3379205357772737
2280000000.0 0.040192412110930074 0.34353904864404505
2300000000.0 0.35210254128784074 0.08576817806550553
2320000000.0 0.06790030084599967 -0.3829461753429657
2340000000.0 -0.3979249241448136 0.14114469114771439
2360000000.0 0.4629268723056401 0.038581340390585694
2380000000.0 -0.5103463192678466 -0.022370247378211538
2400000000.0 0.560242932311583 -0.015478881420819875
2420000000.0 -0.5500088245498386 0.26559024200390285
2440000000.0 0.3339314154257008 -0.5679578138885503
2460000000.0 0.11448889529591548 0.6888962748033682
2480000000.0 -0.44356816802199883 -0.5772126520818948
2500000000.0 0.4157483625013025 0.622112421324994
2520000000.0 -0.2954101659007205 -0.6981634866552298
2540000000.0 -0.06380939925724669 0.7564531166734755
2560000000.0 0.5523667346363733 -0.5121320637037324
2580000000.0 -0.7200352410018991 -0.1634876949690948
2600000000.0 0.2851617716611268 0.6544646552792179
2620000000.0 0.3370271709562548 -0.5943351656602136
2640000000.0 -0.036618218102191145 -0.6447821174114271
2660000000.0 -0.4535801914605311 0.3938207606656979
2680000000.0 0.5328669204962262 0.1478790280270989
2700000000.0 -0.17674284835721754 -0.47375903710467754
2720000000.0 -0.271421733885609 0.36847336144529264
2740000000.0 0.41593136083600496 -0.008330557023677907
2760000000.0 -0.31554200626652285 -0.21192786650759377
2780000000.0 0.332640651203451 0.11661188875010971
2800000000.0 -0.3222173064525936 0.06849490425103094
2820000000.0 0.016595586906456128 -0.3126132565884352
2840000000.0 0.2965293099692213 0.05342268266106996
2860000000.0 -0.11440141082553051 0.2732408881061346
2880000000.0 -0.2055513653159856 -0.20952374399376106
2900000000.0 0.24894607800405985 0.15329366250230186
2920000000.0 -0.0015498997537597143 -0.29487380642968436
2940000000.0 -0.29918422534404304 0.0074462523475121185
2960000000.0 -0.1832378713590378 0.2376059853983765
2980000000.0 -0.29082757659584824 0.09264798990363358
3000000000.0 -0.2560573413371246 -0.1755796648829234
3020000000.0 0.04355379923852897 -0.3091318178965955
3040000000.0 0.2953043901399167 0.09622301711404475
3060000000.0 -0.2881423367492817 0.11258119029933436
3080000000.0 0.20889630903198406 -0.22363644068611255
3100000000.0 -0.014117851449389096 0.29966168789617426
3120000000.0 -0.031211651961842567 -0.2887228150842795
3140000000.0 0.1854805773045646 0.21231962178556865
3160000000.0 -0.2674221167139989 -0.01906170835402289
3180000000.0 0.18670617988361013 0.1681122615152046
3200000000.0 -0.12813805112864862 0.18856649540215964
3220000000.0 -0.19194614001491797 -0.059858460680663625
3240000000.0 0.039519145836078795 -0.16466016347578286
3260000000.0 -0.04997071780903163 0.1255021051692893
3280000000.0 0.10024143656810965 0.024449112231571108
3300000000.0 0.047309891586925695 -0.059768301137926416
3320000000.0 0.04933571422781182 -0.014870609464266273
3340000000.0 0.028493551091909118 0.011085053041115588
3360000000.0 0.0072696567936471855 0.011209607118005789
3380000000.0 -0.002485998605352242 0.004200558598046743
3400000000.0 -0.004521522870168185 -0.01800520618238149
3420000000.0 -0.025633972736961566 0.02391394242582374
3440000000.0 -0.04242758981524633 0.024104007292409153
3460000000.0 -0.04444085732925703 -0.036524744539351006
3480000000.0 -0.06734449247588457 -0.005781764579275074
3500000000.0 -0.05467495773994149 0.05552955822447608
3520000000.0 -0.03733030031474516 0.08285196071893648
3540000000.0 0.09891773205069701 -0.030619864257704705
3560000000.0 -0.10843073497646903 -0.04538284720575809
3580000000.0 0.04261968472814116 0.12631127706209339
3600000000.0 -0.1270573758278851 0.08897793555858786
3620000000.0 -0.14840537675131357 0.08174611265484935
3640000000.0 -0.17360946203622932 0.050732958276181454
3660000000.0 -0.16911299774367075 0.08569402615921008
3680000000.0 -0.1903038776209152 0.026196790157401843
3700000000.0 -0.17827853593121826 -0.06599991968183086
3720000000.0 -0.015859675511180678 -0.18683342379688472
3740000000.0 0.15904161323486385 -0.09115534929472467
3760000000.0 -0.17678309344321924 0.0023333709860943815
3780000000.0 0.15950392262373628 0.055990810536742416
3800000000.0 0.02245989011713961 -0.15954912254247428
3820000000.0 -0.12444495115868792 -0.0907908454028694
3840000000.0 -0.002288105927344659 -0.1475537813728937
3860000000.0 0.14115456139392266 0.04353645642041786
3880000000.0 0.1474344139169933 -0.042384069829265285
3900000000.0 -0.02018295649028031 -0.15469728498552338
3920000000.0 -0.1233104456089475 0.10434151981177
3940000000.0 0.08351384983460607 -0.143497473299424
3960000000.0 0.16587001369417712 0.04484309909881749
3980000000.0 0.13649657201396678 -0.10620055724712948
4000000000.0 0.1267025428839536 -0.10821642034317419
