! Created with skrf (http://scikit-rf.org).
# Hz S RI R 50.0 
!freq ReS11 ImS11
400000000.0 0.158838975743815 0.8584644600440052
420000000.0 0.6125601893898169 0.6042083450579364
440000000.0 0.7973240198334608 -0.2246776316643969
460000000.0 0.1785652358462502 -0.7685327556170435
480000000.0 0.4954391451577212 -0.5075644795126947
500000000.0 0.2018270557552522 -0.525564145271664
520000000.0 -0.0037385131444635238 -0.48695768070178663
540000000.0 0.41657069413182857 -0.07441000674006522
560000000.0 -0.3014479818959781 -0.17859267639417256
580000000.0 -0.2556943786152724 0.21112670452740415
600000000.0 0.26394133224816857 0.1904553026638493
620000000.0 0.03635259189338888 -0.3459268909566827
640000000.0 -0.21036188729862773 -0.3182040323698139
660000000.0 -0.4006354006560783 0.023264270993081305
680000000.0 -0.02473716817849311 -0.42970837002196344
700000000.0 0.3389324542696649 0.29622302309185355
720000000.0 -0.00024286842787413996 -0.448610151173531
740000000.0 0.3940984083414073 -0.1922359367934853
760000000.0 -0.3455235913491549 -0.2298155788731642
780000000.0 0.3118597457109789 -0.22183086267023017
800000000.0 -0.19665751869379403 0.28761184699708237
820000000.0 -0.18318326658382225 0.22670984825393567
840000000.0 0.0760314427763665 0.22513404478775992
860000000.0 -0.10386747751848892 0.1762549961561804
880000000.0 -0.14421002598608523 0.0114439732124241
900000000.0 0.07726339573467661 -0.0173352323572524
920000000.0 0.01991593553648839 -0.04357459398316602
940000000.0 -0.009426699941090397 -0.04053547489919467
960000000.0 -0.028251661433705166 0.04681144857396713
980000000.0 0.0576522092475292 -0.02516519146118629
1000000000.0 -0.05461904762132265 -0.04144507742085727
1020000000.0 0.0544854926788387 0.056421853958465974
1040000000.0 -0.0500406568142914 0.06340619665111118
1060000000.0 -0.11144970762980627 0.034332203962485534
1080000000.0 -0.0906580526442027 0.09692199246817161
1100000000.0 -0.11201408617978673 -0.11237736166934127
1120000000.0 -0.13440878525732705 -0.1336608508167573
1140000000.0 0.06965179897103062 0.22740742285792168
1160000000.0 0.283017423429711 -0.03337012154864606
1180000000.0 -0.04321074427576968 -0.3279012668899626
1200000000.0 -0.2621001638483051 -0.256582810846599
1220000000.0 0.16593734916062433 -0.3607370717800807
1240000000.0 0.31396523022609396 0.2771137922585389
1260000000.0 -0.413955670586335 -0.14998654582159732
1280000000.0 0.43907261407743226 0.10378393772332536
1300000000.0 -0.37785896081916626 -0.2479756736853759
1320000000.0 -0.10523316430587158 0.4267226070015161
1340000000.0 -0.24415843942653112 0.3453008787159954
1360000000.0 -0.30271141422578934 -0.2776557867812711
1380000000.0 -0.081720058989605 -0.4001142841454372
1400000000.0 -0.09140241348196755 -0.38460631476015833
1420000000.0 -0.061988163377055414 -0.37813633586731826
1440000000.0 -0.2325164906616504 -0.2849429230960037
1460000000.0 -0.3404939650964213 -0.07150052200827779
1480000000.0 -0.11883003275958727 0.30738488193112423
1500000000.0 0.21466539944098423 -0.2203764212427643
1520000000.0 -0.22544903633520325 -0.1722874324210073
1540000000.0 -0.1514950490331393 -0.2069768664068818
1560000000.0 -0.21963488936021994 0.017933381406851308
1580000000.0 -0.016794462079948582 0.1872997282702494
1600000000.0 -0.14984335288949494 -0.03518058081772251
1620000000.0 -0.11181590596502752 -0.0089041364158062
1640000000.0 0.0773537251275559 -0.031336783205187034
1660000000.0 0.030779806658685578 -0.04925734557990945
1680000000.0 -0.02876695895491922 0.008856097175848699
1700000000.0 0.019357109778617116 0.004129717310148619
1720000000.0 -0.0026000358724968006 0.034523618222692815
1740000000.0 0.054510967200618925 -0.010411982399260035
1760000000.0 -0.07226747431755916 -0.008631772132779832
1780000000.0 0.08507355920738432 -0.035448174815960284
1800000000.0 0.0740146054127878 0.09206929335041186
1820000000.0 0.03524726189932694 -0.12683508815207756
1840000000.0 0.14220459992233583 -0.06309800449212034
1860000000.0 0.17643925486904863 0.007982433699712067
1880000000.0 -0.16139004279798208 0.13068049503229717
1900000000.0 -0.21499126738103316 -0.11972040700455147
1920000000.0 -0.2639007865342845 0.12152783726100373
1940000000.0 0.033896285357494026 0.33448777834480453
1960000000.0 0.2436144290553009 -0.2878576614490562
1980000000.0 -0.2792402201106526 0.2984542018103494
2000000000.0 0.4345627657599386 -0.022627545594276058
2020000000.0 -0.4462832566277706 -0.08131388364442695
2040000000.0 0.2668108250794824 0.3735651438445499
2060000000.0 0.03085546692827629 -0.45631063821258244
2080000000.0 -0.4249360718618852 0.1288307743287108
2100000000.0 -0.15444128599972784 0.39804707631143516
2120000000.0 -0.03248710242065685 0.40354955468660825
2140000000.0 -0.2592639013534771 -0.2835863111930527
2160000000.0 0.027916058940839625 -0.3648589358693416
2180000000.0 0.352357519680198 -0.033587442077798485
2200000000.0 0.2500883743631658 0.23926681570936933
2220000000.0 0.18350218646766828 0.29740248921194673
2240000000.0 0.2573556189937921 -0.23860236295703233
2260000000.0 -0.18366606293364732 -0.3047682695301991
2280000000.0 -0.2364539794291582 0.27407030500235724
2300000000.0 0.3697443422108049 0.055627143148648285
2320000000.0 -0.22362738827102663 -0.32281005917250394
2340000000.0 -0.297129470698246 0.2938811673070191
2360000000.0 0.43780378706813217 0.11789239143156607
2380000000.0 -0.2870278372915305 -0.40767414605789765
2400000000.0 0.15198173153236258 0.5277716122218576
2420000000.0 -0.2385564360304243 -0.5533016840907152
2440000000.0 0.552165587605613 0.3505722819495047
2460000000.0 -0.6945511760863863 0.05570922632461999
2480000000.0 0.5840349893285011 -0.43888786305815686
2500000000.0 -0.5525133724289532 0.5116586190053464
2520000000.0 0.6114950939006948 -0.459657383855938
2540000000.0 -0.7571969123829186 0.13026138320936664
2560000000.0 0.6868987818920934 0.3334106801395494
2580000000.0 -0.07600336835462686 -0.74555825838579
2600000000.0 -0.48326107113494915 0.5406886369585223
2620000000.0 0.6812979450545658 0.13669137078687857
2640000000.0 0.6372677785974266 -0.16321566546157285
2660000000.0 -0.44830113686942885 -0.42105354533970607
2680000000.0 -0.1283808659332871 0.5564410298969873
2700000000.0 0.39365089512025897 -0.3525057311467608
2720000000.0 -0.39712536853312774 0.2753549667153308
2740000000.0 0.3415622058592786 -0.2772125878741972
2760000000.0 -0.12412278384637038 0.3784271087944494
2780000000.0 -0.22012275401286163 -0.2885035025979812
2800000000.0 0.33011617709324625 -0.00677324345251114
2820000000.0 -0.22002275617546113 0.21236516404896857
2840000000.0 0.20319914801297617 -0.2064239906464757
2860000000.0 -0.24094046057290833 0.14945254907439462
2880000000.0 0.2736299288265308 -0.07104855789201163
2900000000.0 -0.251601948424226 -0.1396998096031442
2920000000.0 -0.06650525134583841 0.2918093504599516
2940000000.0 0.2915486970808381 -0.10620466691722821
2960000000.0 -0.1275250732196522 -0.29176673748414245
2980000000.0 -0.31952838981453224 -0.06886159050978417
3000000000.0 -0.32937213312737385 0.015492983365535456
3020000000.0 -0.31584113643487377 -0.09042250113105976
3040000000.0 0.030744081269887428 -0.3212555061603044
3060000000.0 0.26929721950455743 0.16304867776722412
3080000000.0 -0.300784423115243 -0.0490142005521869
3100000000.0 0.2801097168329917 0.089937164748084
3120000000.0 -0.23781181750890384 -0.15279778409890574
3140000000.0 0.0935917945026944 0.2548063190212869
3160000000.0 0.156882304106337 -0.20410388609280167
3180000000.0 -0.10721140279874049 -0.21987006586497468
3200000000.0 0.19798437295571453 0.11478241739214454
3220000000.0 -0.12432585514148572 0.16634186368531848
3240000000.0 -0.18478882748715655 0.0029602436693670696
3260000000.0 -0.13448533709004598 -0.07830947759642636
3280000000.0 -0.05529627855610159 0.10932294065813883
3300000000.0 0.08758190787427315 -0.008593263982791295
3320000000.0 0.05036357986969273 -0.016807775680655317
3340000000.0 -0.002439584922918407 -0.02360511728931486
3360000000.0 -0.014104106484869438 -0.0020868539733400614
3380000000.0 -0.003493349869142328 -0.026176090528423412
3400000000.0 0.03505230906812112 0.00024225225895648103
3420000000.0 0.03890178756355407 0.005088810358302741
3440000000.0 0.029951517216212926 -0.021065988026456272
3460000000.0 0.03679771819879885 0.013122670852259008
3480000000.0 0.05304550696907149 -0.017307776790073188
3500000000.0 0.07999499376736113 -0.007032316318082105
3520000000.0 0.09698955613380272 -0.04585838949772113
3540000000.0 -0.1173371489694063 -0.047872237405789546
3560000000.0 -0.06771823259291455 0.12148367487969428
3580000000.0 -0.12713920644789525 0.07977002164139095
3600000000.0 -0.1399840442988446 0.07786158496020157
3620000000.0 -0.11283176354990733 -0.1212036555613238
3640000000.0 0.16514826670179836 0.036778333429154646
3660000000.0 -0.17705651978581952 0.008511815384973807
3680000000.0 0.17186765565461917 -0.0612749402572218
3700000000.0 0.032306872340053416 0.18406733130052136
3720000000.0 -0.18767373652106226 0.04511275472209813
3740000000.0 -0.16659132102005447 0.0995707162001977
3760000000.0 -0.1405398632492127 -0.12907331155734042
3780000000.0 0.07157839340559148 -0.16691620862387654
3800000000.0 0.07497963396977485 0.14992934390827367
3820000000.0 0.1515288273390381 0.017677333515754217
3840000000.0 -0.019604932740412296 0.13709249417823816
3860000000.0 0.10657428481176551 0.08195344055009529
3880000000.0 -0.08747086609411057 -0.11210940992341331
3900000000.0 -0.07965419761039 -0.13113101604829805
3920000000.0 0.02448315659313782 0.16466785419356378
3940000000.0 -0.11746736761780366 0.13298591460141895
3960000000.0 0.09879135577436685 0.15737500776102986
3980000000.0 -0.13012919493888886 -0.1304399913959648
4000000000.0 -0.12005211829361653 0.12412071905820839
