!Created with skrf (http://scikit-rf.org).
# Hz S RI R 50.0 
!freq ReS11 ImS11
400000000.0 0.7110266955756138 0.49676238851016014
420000000.0 0.8351500649488437 -0.1127103969144219
440000000.0 0.7889131627069296 -0.10694858384130962
460000000.0 0.7449345180853695 -0.07588292235143401
480000000.0 -0.34162842597720955 -0.5987710099895546
500000000.0 0.28278061308651203 0.5273471312852638
520000000.0 0.505600444991884 -0.004723717390827638
540000000.0 -0.40401423078480797 -0.16364035131658497
560000000.0 0.10145445191368159 0.38071954640009725
580000000.0 -0.29766059334699985 0.20452382472426628
600000000.0 0.15545904980322864 -0.31929951632988746
620000000.0 -0.3465794517607629 0.07896863050077334
640000000.0 -0.33358778119645877 -0.22477857468389226
660000000.0 -0.3272894624857793 0.2377394221094244
680000000.0 -0.05966250036841488 -0.4394157237803135
700000000.0 -0.07394458439271671 0.4562878886067612
720000000.0 -0.33424352679783137 -0.32831108459249503
740000000.0 -0.21426162532887144 0.38339045737634553
760000000.0 -0.12124124342758716 0.3929868107858164
780000000.0 -0.24818575999143172 0.2810259780384556
800000000.0 -0.05209481189691837 0.3273280784789516
820000000.0 0.10861608996460871 0.25915187065298584
840000000.0 -0.1992226181069804 0.06389992720534372
860000000.0 -0.1678022792952509 -0.012091102743303602
880000000.0 0.07699894815514988 0.11433420949431619
900000000.0 0.033609443833380784 0.08471750434089363
920000000.0 0.0520501591629959 -0.007930715086860248
940000000.0 -0.02001797053806052 0.03117129532023304
960000000.0 -0.033216411031604866 -0.015836437020338958
980000000.0 -0.025127310138809707 0.057450270229867664
1000000000.0 0.03244050820798132 0.09540207504849534
1020000000.0 0.12216776912883 -0.027544279894273556
1040000000.0 0.09154182183756993 0.09950619765820895
1060000000.0 0.15723618922941018 -0.00788090394535187
1080000000.0 -0.17385981477751106 -0.05466199890155095
1100000000.0 0.10394086062960084 -0.18374964682076228
1120000000.0 0.2328505753057278 0.04433390731426749
1140000000.0 -0.21182475589490948 0.150739299447715
1160000000.0 -0.017010652768912497 0.28651291496820247
1180000000.0 -0.2718102965773049 0.15342319227016427
1200000000.0 0.3158126682209469 -0.12853764367866
1220000000.0 -0.3366050186485237 0.15769800404619258
1240000000.0 0.3762840590339001 -0.11032789413557936
1260000000.0 -0.21399852451272336 -0.34289038385672965
1280000000.0 -0.36995984956862454 0.2014669263281852
1300000000.0 0.13328329092394606 0.40919590987838994
1320000000.0 0.3178898346980973 0.2983995743963214
1340000000.0 0.4011824601302378 0.1910931836487138
1360000000.0 0.41213158424050983 -0.17928728446233777
1380000000.0 -0.3220946388630795 -0.2993698600140421
1400000000.0 -0.28640607938366736 0.3145478503942146
1420000000.0 0.39619481409043095 0.05887929826346671
1440000000.0 0.2832936141072631 -0.2347535185883404
1460000000.0 0.24951304322783888 -0.22861835004264316
1480000000.0 -0.2118450336913747 -0.23067400388976475
1500000000.0 -0.19817996209565547 0.2038805667259548
1520000000.0 -0.22442658472382362 0.11630247414428165
1540000000.0 0.21936000346149864 -0.05434014381682005
1560000000.0 -0.08076293663164875 0.18163149996782788
1580000000.0 -0.03861926126342438 0.1702896049804158
1600000000.0 0.06253937720334483 -0.12396984276080474
1620000000.0 -0.029664636159185635 -0.09995311838708634
1640000000.0 0.04732044321478327 -0.06309191049737019
1660000000.0 0.00418159518963168 -0.06216267503248814
1680000000.0 -0.031140487812503035 -0.021063157686431803
1700000000.0 -0.004949775366766164 -0.01417965511497972
1720000000.0 -0.00588056675286149 -0.00039082274899928006
1740000000.0 0.0007261924454582012 0.02106297171619547
1760000000.0 -0.035869865518373546 0.005636350052824429
1780000000.0 0.04110438752997721 0.03747095072248727
1800000000.0 -0.05192852598416743 0.0709795652939681
1820000000.0 -0.11163734331661407 -0.03957583011492573
1840000000.0 -0.033386108380152935 0.15603821359713949
1860000000.0 -0.19653001326427277 0.02328613796317664
1880000000.0 0.11957713202957529 0.20831917747803527
1900000000.0 -0.1921238792375215 -0.21394500117571325
1920000000.0 0.3009042291550315 -0.1300165044530831
1940000000.0 -0.30662089006795773 0.17370499421907107
1960000000.0 0.27653971705753166 0.2537303994867408
1980000000.0 0.1992715221107768 -0.349251503664677
2000000000.0 -0.4177249711355337 0.019590438515230988
2020000000.0 -0.21498216611220186 0.36608689544614925
2040000000.0 0.011924281077246439 0.4316637802084282
2060000000.0 0.28400451373191293 0.3273491831008001
2080000000.0 0.4328667556259941 -0.0014621395039413673
2100000000.0 0.18848460925745403 -0.384643032614544
2120000000.0 -0.15931829305699924 -0.38447966331155453
2140000000.0 -0.2751742522944341 -0.2907393733329606
2160000000.0 0.3571821505002453 -0.15110132311479962
2180000000.0 0.055920689424773906 -0.37121156073679856
2200000000.0 -0.2426251286927967 -0.268019290874224
2220000000.0 -0.34786744855208734 -0.04595340152052831
2240000000.0 -0.30674307187861416 0.15376893310741302
2260000000.0 -0.15484173133603782 0.3044960763582373
2280000000.0 0.08574647902074302 0.3342539077870899
2300000000.0 0.301820008575894 0.18995408503210875
2320000000.0 0.2734458844660782 -0.2694053153987028
2340000000.0 -0.35483552019290016 -0.2163414928898532
2360000000.0 -0.03986196339811099 0.4545574841152736
2380000000.0 0.07830171841104805 -0.5030786966480817
2400000000.0 0.18461287692639253 0.5319515580786895
2420000000.0 -0.5197610256965653 -0.32860390540096984
2440000000.0 0.6443304236005821 -0.14934999911540195
2460000000.0 -0.5061220307060367 0.4866385553837899
2480000000.0 0.14964908646970282 -0.7179475390639504
2500000000.0 -0.10013031227718967 0.7466373171592052
2520000000.0 0.255161921159911 -0.7199674939594379
2540000000.0 -0.5454437379990266 0.537841671726569
2560000000.0 0.756032404858223 -0.08098479886101902
2580000000.0 -0.4373048566016617 -0.6043786801607933
2600000000.0 -0.21004689776811977 0.6907888897378615
2620000000.0 0.611040621703415 -0.3265519988590577
2640000000.0 0.2736046110520112 -0.597265990024231
2660000000.0 -0.5674458721381128 0.23475801216542394
2680000000.0 0.5658423984189357 0.0250108291354626
2700000000.0 -0.44836277863030977 -0.25838221471351164
2720000000.0 0.3478543992557267 0.31293542998821905
2740000000.0 -0.10005207621164935 -0.40475342303460266
2760000000.0 -0.2660848440771768 0.2677527262959856
2780000000.0 0.2992676840712353 -0.17484973773197146
2800000000.0 -0.23168324508924606 0.22626881779796798
2820000000.0 0.11276097655187167 -0.2858091911504265
2840000000.0 0.21344033803685786 0.2128319741006668
2860000000.0 -0.20810877081751644 0.20859425127699388
2880000000.0 -0.06734268430302358 -0.28296586810440444
2900000000.0 -0.08053542345955843 0.27852739960996525
2920000000.0 0.28901444921769226 0.0624002614720838
2940000000.0 0.05439458827855749 -0.30202647566391916
2960000000.0 -0.3097781173462061 -0.048013644907400586
2980000000.0 -0.24619889774738085 0.1965272354687178
3000000000.0 -0.30481047147040885 -0.0817377909330662
3020000000.0 -0.02305891298692107 -0.3196916996430069
3040000000.0 0.25331215243011557 -0.19440847775635936
3060000000.0 0.1058838509908745 0.2926923213569141
3080000000.0 -0.13354102431476267 -0.2679864284233748
3100000000.0 -0.119514762398862 0.26410990575662463
3120000000.0 0.19161092528058857 -0.21087732297298373
3140000000.0 -0.06805281511261106 0.2678742915120939
3160000000.0 -0.053302721983297524 -0.2580511613444012
3180000000.0 -0.15810442422695936 0.19120532954810385
3200000000.0 -0.17800902008189468 -0.14100561227170208
3220000000.0 -0.03758068533813761 -0.19724068547014326
3240000000.0 0.07944262840751336 -0.14951262223620776
3260000000.0 0.1267886895903613 -0.03857437025777241
3280000000.0 -0.04981493393539442 -0.08273774222192999
3300000000.0 -0.029232178392898836 0.063579795286354
3320000000.0 -0.03531481101945623 -0.020163183684778367
3340000000.0 0.0037666732756378883 -0.02119909702144853
3360000000.0 0.005035850039508037 0.0015487366014229466
3380000000.0 -0.004640041351071199 -0.005960557800534074
3400000000.0 -0.0173298336784212 0.009472993332774477
3420000000.0 -0.033590457150253994 0.014383919506739156
3440000000.0 -0.03604693662787681 -0.03413231688603161
3460000000.0 -0.05746466471851796 0.0197720517664468
3480000000.0 -0.04119915339717473 0.05845345847658803
3500000000.0 0.0648826085432102 0.06263211957924157
3520000000.0 0.05363999155377891 0.08902168142664442
3540000000.0 -0.10836887422124607 -0.040070176837301213
3560000000.0 0.10874464054330871 -0.06101174336539204
3580000000.0 -0.13186690497963302 -0.03424350862905016
3600000000.0 0.14766869579059025 -0.02218997352840331
3620000000.0 -0.10060814756504065 0.12902767325444695
3640000000.0 -0.17706422961646115 0.01865334255641578
3660000000.0 -0.07303255424299536 -0.17198037489723297
3680000000.0 0.006165626856580868 -0.19427504351450736
3700000000.0 -0.12250692742449067 -0.1532790032993785
3720000000.0 -0.09631768148026078 -0.16851191662317674
3740000000.0 0.09941880880012262 -0.15576428182838498
3760000000.0 -0.17295673803069958 0.043562540018415495
3780000000.0 0.17153553215479553 0.01335979090377991
3800000000.0 -0.13240065774190357 -0.09297187411213971
3820000000.0 -0.14756785086587887 -0.04557413107538379
3840000000.0 0.034270252924593 -0.1442629766017224
3860000000.0 -0.0011822478162868393 -0.14917319414908267
3880000000.0 -0.0181723777737281 -0.14692631423165467
3900000000.0 0.14805323398644016 -0.01252751788928517
3920000000.0 0.13007673080364152 -0.08744596292675919
3940000000.0 0.013635238728984742 0.16501346509573592
3960000000.0 0.02442639656819851 0.17049888016000597
3980000000.0 0.17032915485243352 0.024873709299698146
4000000000.0 0.01562918698391454 -0.1653622135136545
