!Created with skrf (http://scikit-rf.org).
# Hz S RI R 50.0 
!freq ReS11 ImS11
400000000.0 0.49425558193009883 0.7152254881621347
420000000.0 0.8420395505394365 -0.05436221686382885
440000000.0 0.7913248170036009 -0.10614429236466398
460000000.0 0.7021704279665538 0.24926704384431778
480000000.0 -0.061285296226821766 -0.6851627998817267
500000000.0 0.1663274605743847 0.5809116307726635
520000000.0 0.3235072967213807 0.3965596441553887
540000000.0 -0.41631389668230223 -0.12100666732761872
560000000.0 0.14878585020013702 0.36464283637124834
580000000.0 -0.3402765999203113 -0.11131119882381764
600000000.0 0.30814831502437623 -0.17062759088610496
620000000.0 -0.22473717593785267 -0.2722036765548057
640000000.0 0.40092658364423567 -0.05798579080816394
660000000.0 0.04963318458309765 0.40725090777327533
680000000.0 0.06888839836709416 -0.43980889877107776
700000000.0 0.005405170682021657 0.46467805659463096
720000000.0 -0.45680723351480856 0.08941409678008116
740000000.0 -0.28185434472886867 0.3225562755263898
760000000.0 -0.34333440296866063 -0.2241938536804006
780000000.0 -0.33718330743953184 0.17677136924526868
800000000.0 -0.23989753134870068 0.23988240008162173
820000000.0 0.2050400575933387 0.19159342758584258
840000000.0 -0.18258348053790538 0.09730130871174446
860000000.0 -0.16562620384141152 -0.01885088775300941
880000000.0 -0.07855848689739117 -0.11327868467374799
900000000.0 -0.0937262737849037 0.008333815749228745
920000000.0 0.03932098229390657 0.03914970784378391
940000000.0 -0.018967643606936844 -0.03258792002867697
960000000.0 0.02389360516573857 -0.032598989811337284
980000000.0 -0.0485436630990722 -0.04046173244105823
1000000000.0 0.008624856289855062 0.10017190939141546
1020000000.0 0.05555090660291861 0.1110495243969517
1040000000.0 -0.11596376478414779 -0.07303762960923783
1060000000.0 0.05656350284446518 0.15236593383905978
1080000000.0 -0.17277327471702966 0.07466123451766858
1100000000.0 0.02559857472569753 -0.211496846001935
1120000000.0 0.18526300288734257 -0.14512655828512155
1140000000.0 0.05649059088903418 0.2524484184364714
1160000000.0 -0.018854715673821267 0.2784072403584588
1180000000.0 -0.2933208144113333 -0.07678350594032138
1200000000.0 0.2610966366878838 0.21428504434220363
1220000000.0 -0.11439715465501733 -0.3533605923768451
1240000000.0 0.3006640707852654 0.2581288648272211
1260000000.0 -0.25075580556101623 -0.3256697729100314
1280000000.0 -0.4256107251501001 0.008217009464739498
1300000000.0 0.2657513430801916 0.34321072008047004
1320000000.0 0.4318465489050398 0.06804318237040607
1340000000.0 0.3229984486028245 0.30073463581545784
1360000000.0 0.43669486248439743 -0.0942546822652664
1380000000.0 -0.3214491321470898 -0.29462851350767605
1400000000.0 -0.41313929604119876 -0.0785930078546048
1420000000.0 0.07257900511565515 0.3917135583809356
1440000000.0 0.35329108964865324 0.10854833600326425
1460000000.0 0.3157380862002351 0.13511921448029257
1480000000.0 0.09085120243290669 -0.3053360536157853
1500000000.0 -0.17304287764285534 0.2316004094970828
1520000000.0 -0.1167104756667688 0.23083422664417075
1540000000.0 0.2235825523093165 -0.054598980249525496
1560000000.0 0.1962764899559496 0.013350989330162488
1580000000.0 0.05398392896153625 0.16311696410806042
1600000000.0 0.13349648026929553 0.020802471057024468
1620000000.0 0.0341075686330563 -0.09202943312716902
1640000000.0 -0.07257751509253073 0.013736172923540377
1660000000.0 -0.05301734752023009 0.028761190986646996
1680000000.0 -0.019528329713934946 -0.03341604283610048
1700000000.0 -0.006922618494463483 -0.017557161489956914
1720000000.0 -0.010422032390780097 -0.00574167506559934
1740000000.0 0.004992346585593532 -0.018007476718441443
1760000000.0 0.004880261966615533 -0.025460839001558308
1780000000.0 -0.03472219787921692 0.02317516041915454
1800000000.0 0.04617625839779961 -0.07127243638428653
1820000000.0 -0.09374877227216122 -0.07819072105172425
1840000000.0 0.11197194620203377 -0.12238218059566551
1860000000.0 -0.20418555338605263 0.04830806540241093
1880000000.0 0.2414215528702342 -0.051116889823262665
1900000000.0 -0.2796172583063483 -0.04928204997895792
1920000000.0 -0.11947660809348154 -0.2977373726334288
1940000000.0 -0.29362182654353364 0.1702877263570549
1960000000.0 -0.2792348611947405 0.2314132454539852
1980000000.0 0.383058720505443 0.09348450843783249
2000000000.0 0.20210352351820995 -0.36298150483641306
2020000000.0 -0.03426933605422611 -0.4266057363244926
2040000000.0 -0.2079340211529851 0.3858395811220663
2060000000.0 0.16380193311849542 0.409660182336469
2080000000.0 0.4224716020054421 0.11259181769290805
2100000000.0 -0.21964904638555463 -0.365585501493459
2120000000.0 -0.16792309292451352 -0.3759571039682986
2140000000.0 0.1577457588212552 -0.3622064091317947
2160000000.0 0.3661854280146077 -0.11086768279129465
2180000000.0 0.3724551589919143 -0.018364159806980074
2200000000.0 0.32744251661874413 -0.15623324182447498
2220000000.0 -0.3290922552420567 -0.12643917869117743
2240000000.0 -0.27779529412213916 -0.20598789496387063
2260000000.0 -0.32883202658888105 -0.10224024490945682
2280000000.0 0.13115235703559927 0.3223659465530632
2300000000.0 0.2250229430806735 0.2752550823345942
2320000000.0 0.2391658686089385 0.29167929438071205
2340000000.0 -0.06586893982863674 -0.40468765773653237
2360000000.0 -0.41894611301403906 -0.16027879284217783
2380000000.0 0.10377947131535768 0.4873970589796573
2400000000.0 -0.49403649130340616 0.2592478898338325
2420000000.0 0.5332731823259621 -0.2963383121166601
2440000000.0 -0.5060858911176033 0.41858807365350803
2460000000.0 -0.6844508230231121 -0.1483507141577682
2480000000.0 0.702009467121152 0.20662510983767338
2500000000.0 -0.41879228725040807 -0.6262199109940226
2520000000.0 0.6901849429464747 -0.3338531216542307
2540000000.0 -0.6298953702836233 -0.4444985586413296
2560000000.0 -0.3219022865004181 0.696650684193797
2580000000.0 -0.1336446488155284 -0.7412460452831413
2600000000.0 -0.7223152487660721 0.12070362745183603
2620000000.0 0.14597340474685389 0.6905477347891299
2640000000.0 0.43640621664299717 -0.5060313051956611
2660000000.0 -0.5289828138961145 -0.338967262356978
2680000000.0 -0.13439697208977933 0.5663875490601605
2700000000.0 -0.297594856463954 -0.4391389583216816
2720000000.0 -0.14995679440508744 0.4593051055997962
2740000000.0 0.42693386028208297 -0.07894265406929564
2760000000.0 -0.35757756934533974 0.15720129307856884
2780000000.0 0.3494546023577494 0.08623779861869856
2800000000.0 -0.2876952300641728 -0.17274162319153505
2820000000.0 0.032758525053577923 -0.31121771580499846
2840000000.0 0.042278959337369845 0.30089861888368713
2860000000.0 -0.14974886215554375 -0.25586066677174596
2880000000.0 0.13101618310068783 -0.2612804818411352
2900000000.0 -0.2883683277078444 -0.04494419456418532
2920000000.0 -0.18549525534128936 0.23445994706296025
2940000000.0 0.0833785237338526 -0.29910622018161065
2960000000.0 -0.26350890918875775 -0.1760003187323401
2980000000.0 -0.3151039966004222 -0.04300169024956871
3000000000.0 -0.30958172631865727 0.07197808843107237
3020000000.0 0.2902969545115164 0.13442037056696454
3040000000.0 0.2900480579730173 0.1345518162315026
3060000000.0 0.14640514914995 0.2770117872678869
3080000000.0 0.30070171603360085 -0.03404759012961854
3100000000.0 -0.2520227839873343 0.15285720118327092
3120000000.0 -0.10286821884648563 -0.2683170901261592
3140000000.0 -0.2641146830455422 0.08388797415495589
3160000000.0 0.13279959621475876 -0.2284269897090325
3180000000.0 -0.22563637109224383 0.1063245805464374
3200000000.0 0.22346610884644819 -0.0675722270219014
3220000000.0 0.0969264399496193 -0.18254462558132814
3240000000.0 -0.015451278158961872 -0.17309927228203967
3260000000.0 0.14214484420948012 0.020168090364323064
3280000000.0 -0.0061573271439322045 0.10093585145307747
3300000000.0 0.046656480604356884 -0.04858298968303138
3320000000.0 0.037670295666362937 0.01641418269261866
3340000000.0 -0.0021896933250014385 -0.021803870881035532
3360000000.0 -0.0069075101335965335 -0.0018528872961081045
3380000000.0 0.0017675298178683795 0.0028773982870148834
3400000000.0 0.016311913026355176 -0.0033649183789470297
3420000000.0 0.00241489213152599 0.033636132438004444
3440000000.0 0.02135625045020927 -0.042390273323608035
3460000000.0 0.05490711211552929 -0.028199003223190067
3480000000.0 -0.04881471094015973 0.05771612823891428
3500000000.0 0.046055312827582975 0.07437218414597162
3520000000.0 -0.002938778990073755 0.10182700953016909
3540000000.0 -0.0987452398282029 -0.05930659419348879
3560000000.0 0.0814660660490681 0.08874647847569105
3580000000.0 0.06529791193326052 -0.11796335272833172
3600000000.0 0.10919243926689068 0.10391658412902592
3620000000.0 -0.0007290366966468521 -0.16196260332357154
3640000000.0 -0.012973102905801006 -0.1790555491756497
3660000000.0 -0.01979689505578897 -0.18975376958748172
3680000000.0 0.16710556211492925 -0.10065408017906949
3700000000.0 -0.10658088315642847 -0.1628129869708804
3720000000.0 -0.06721861255325454 -0.17884091860507872
3740000000.0 0.17869638493326423 0.029277843753498962
3760000000.0 0.03477331486177891 -0.1725502827925421
3780000000.0 -0.12723769970374812 0.11650547343616541
3800000000.0 0.16062962962415278 -0.04682347969469428
3820000000.0 -0.11910234884065073 -0.10556118911507897
3840000000.0 -0.13553608141331847 -0.060939140722493235
3860000000.0 -0.01618390925861109 -0.14280212714344948
3880000000.0 0.1342429579296016 -0.05091403422495445
3900000000.0 -0.024581273246036976 0.14475792160507683
3920000000.0 0.0335370041190006 0.14883320973902006
3940000000.0 -0.12455269389592026 -0.11046690313160881
3960000000.0 -0.1606458822097024 0.06987648908876813
3980000000.0 -0.06261130645846961 0.16236419569538313
4000000000.0 0.14115150493484893 -0.0856986231842302
