!Created with skrf (http://scikit-rf.org).
# Hz S RI R 50.0 
!freq ReS11 ImS11
400000000.0 0.49548809840448843 0.7145429429000149
420000000.0 0.8421350463755095 -0.053954267481141883
440000000.0 0.7914866877772233 -0.10577386889716389
460000000.0 0.7026559753231092 0.24772228164010354
480000000.0 -0.0578003911119547 -0.6853448021468607
500000000.0 0.1822299641604946 0.5760171997001647
520000000.0 0.32302202024581533 0.3971194326026534
540000000.0 -0.41618531853903135 -0.12136028436054287
560000000.0 0.13238019178911478 0.3707948491464892
580000000.0 -0.3307610594372982 -0.13733884460915935
600000000.0 0.31196900064560773 -0.16385588462868203
620000000.0 -0.2287100245971505 -0.26925380986150693
640000000.0 0.3977944416420561 -0.07753024843504208
660000000.0 0.06536770669317761 0.40494499975988557
680000000.0 0.05491407408755739 -0.44120952048465933
700000000.0 -0.0008651784600699476 0.4646091495045468
720000000.0 -0.4577736476408254 0.08438588552701745
740000000.0 -0.28401072053694265 0.3211217443194579
760000000.0 -0.34497890012267535 -0.2223519704663761
780000000.0 -0.3355544616822284 0.18011036865103372
800000000.0 -0.23610559844272627 0.2435252908810402
820000000.0 0.21473065182115744 0.180053298270617
840000000.0 -0.17342516823474444 0.11204412988526898
860000000.0 -0.16568995119814076 -0.017257523468265434
880000000.0 -0.07959421769884158 -0.11300706972768455
900000000.0 -0.09421697465502808 0.007137109373058218
920000000.0 0.042863345470664276 0.03566858707619569
940000000.0 -0.019405344035373397 -0.032462161486143934
960000000.0 0.01718174668521213 -0.036583506175770525
980000000.0 -0.053986369333551505 -0.033386644978673656
1000000000.0 0.008674972579570818 0.1003897755222075
1020000000.0 0.0640031562281821 0.10653037263266546
1040000000.0 -0.12189419024689867 -0.06251425299228351
1060000000.0 0.06082562083380148 0.15063383536592626
1080000000.0 -0.16782800942381196 0.08498628334827978
1100000000.0 0.01413780387825138 -0.21257702933908082
1120000000.0 0.17758863590106008 -0.1544146646322206
1140000000.0 0.040502284437300105 0.25544274635529096
1160000000.0 -0.006580250578198913 0.2793029430844008
1180000000.0 -0.2929769130782886 -0.07859490384197083
1200000000.0 0.2579239770014985 0.2181112124827834
1220000000.0 -0.11628217032736807 -0.3525933209629167
1240000000.0 0.2947797346540766 0.2643552068397513
1260000000.0 -0.24845670913020412 -0.3271516539209965
1280000000.0 -0.42561481032030735 -0.002974021211489223
1300000000.0 0.2566801554835471 0.3500535003652214
1320000000.0 0.4326110420671391 0.062219203290969395
1340000000.0 0.3241309939806168 0.2994129131158037
1360000000.0 0.43467298907558793 -0.10251675870347704
1380000000.0 -0.3298280489591299 -0.2851080627385598
1400000000.0 -0.41316057244167265 -0.07824068389318449
1420000000.0 0.07517675043208392 0.3911970282000643
1440000000.0 0.3510608273352991 0.11646225881342818
1460000000.0 0.3197354871512255 0.12570237983028795
1480000000.0 0.06919493934017941 -0.31121128638289747
1500000000.0 -0.1740729996732459 0.23078321783461853
1520000000.0 -0.12120350025507924 0.2282877602365542
1540000000.0 0.22323822951828656 -0.05534029633254327
1560000000.0 0.18542335014723893 0.06620605136806836
1580000000.0 0.05465112897969457 0.16281621019795572
1600000000.0 0.13346372511057414 0.021150248317005436
1620000000.0 0.026733903267730275 -0.09454781220936997
1640000000.0 -0.06070805731092615 0.04221947108985811
1660000000.0 -0.04080771766242909 0.04410296662657154
1680000000.0 -0.030392976398126506 -0.0235475658221099
1700000000.0 -0.003983307387475412 -0.018368530739792912
1720000000.0 -0.008563849659361616 -0.00837620876892441
1740000000.0 -0.014108673706924427 -0.01253893954782619
1760000000.0 -0.016865551919932876 -0.019290643376769192
1780000000.0 -0.033511085519192255 0.024198403993934095
1800000000.0 0.0433736212903907 -0.07307380541629734
1820000000.0 -0.09153901715448973 -0.08079095522223091
1840000000.0 0.09420201046709786 -0.13699975076126414
1860000000.0 -0.1995094630541393 0.06612203775006639
1880000000.0 0.2371535239359272 -0.06947511448025787
1900000000.0 -0.28072948637089995 -0.04295572020523032
1920000000.0 -0.11155656139202454 -0.30080332987586195
1940000000.0 -0.3004164087804459 0.15810196695347453
1960000000.0 -0.2890385696524679 0.21889245033015756
1980000000.0 0.37672446062977405 0.11676629822519023
2000000000.0 0.22226748858141493 -0.35115500756308027
2020000000.0 -0.03953071234768108 -0.4261631077009095
2040000000.0 -0.2103253188304819 0.38441655308483147
2060000000.0 0.1581525076124579 0.41165721035775055
2080000000.0 0.42105123782969606 0.11691872935427865
2100000000.0 -0.2027543272023363 -0.3747553988044912
2120000000.0 -0.15525638360970268 -0.3809305432804438
2140000000.0 0.17484667411194407 -0.35396942005404464
2160000000.0 0.36580660282754446 -0.11120449960119057
2180000000.0 0.3718335188884684 -0.029078478403991963
2200000000.0 0.3212015881271385 -0.16856489550579049
2220000000.0 -0.34036186044653266 -0.09240796666103665
2240000000.0 -0.2669157133542924 -0.22038663303033942
2260000000.0 -0.331001391532205 -0.09512596275655703
2280000000.0 0.13993943993125593 0.31891637701448794
2300000000.0 0.22899452512882307 0.27219072135098465
2320000000.0 0.23580530467369154 0.29457214298112305
2340000000.0 -0.04932605099233619 -0.40714149409123324
2360000000.0 -0.42023008133838774 -0.15766494000535855
2380000000.0 0.11180028724028813 0.4860024766589371
2400000000.0 -0.4946528453779853 0.2584075761692624
2420000000.0 0.5296402078040446 -0.30251392363043167
2440000000.0 -0.5226600895648671 0.3975862128587159
2460000000.0 -0.6856192659447088 -0.1419182894552432
2480000000.0 0.6914745442648896 0.2400667697450741
2500000000.0 -0.43552497435340326 -0.6145733513249831
2520000000.0 0.6847304560372232 -0.34470633231543935
2540000000.0 -0.5955332216266002 -0.49008300526696286
2560000000.0 -0.3291733959522907 0.6932055429803484
2580000000.0 -0.11960033507235376 -0.7437219634948526
2600000000.0 -0.7236161425810129 0.11220647952821748
2620000000.0 0.1412697335895511 0.6914472016637773
2640000000.0 0.447632540669047 -0.4959821969201109
2660000000.0 -0.5101360293142755 -0.3661380569709188
2680000000.0 -0.17320960357161175 0.5556202083977927
2700000000.0 -0.2891378390949179 -0.4445638708784697
2720000000.0 -0.16204620950409654 0.4548860939469457
2740000000.0 0.4310598414274942 -0.04741271466634582
2760000000.0 -0.3507559707269961 0.17107744869014466
2780000000.0 0.3503071450305766 0.08123249141928215
2800000000.0 -0.29086193984721176 -0.16690198638137638
2820000000.0 0.03307383998893618 -0.31121365272987495
2840000000.0 0.03665203006705115 0.3016622116362383
2860000000.0 -0.16970662475705223 -0.24274811210152752
2880000000.0 0.12475276647178651 -0.26444323721171814
2900000000.0 -0.28543353322483284 -0.06282602985594914
2920000000.0 -0.18216559270010219 0.23729425651168878
2940000000.0 0.08833270830340817 -0.29776949834940125
2960000000.0 -0.2661975313880423 -0.1722523548363677
2980000000.0 -0.31375503459830145 -0.0509614727296332
3000000000.0 -0.30882465019264016 0.07576866866248887
3020000000.0 0.26620801049385984 0.17736212904248208
3040000000.0 0.28079832300936053 0.15283785291951718
3060000000.0 0.11025932905971433 0.293082673003283
3080000000.0 0.30226316398070496 -0.01694291276616377
3100000000.0 -0.20794672158387498 0.20931085421589807
3120000000.0 -0.08923565687242174 -0.2727847289400934
3140000000.0 -0.2686166635066949 0.06595286699157574
3160000000.0 0.14135570896216573 -0.22276684487782397
3180000000.0 -0.2263545135976636 0.10406029632434072
3200000000.0 0.22260369935143495 -0.06943198568954781
3220000000.0 0.08218480535858672 -0.189996101458242
3240000000.0 -0.03719806060768465 -0.1700168071257421
3260000000.0 0.14392241257944768 0.002727122900559762
3280000000.0 -0.011507796704560494 0.10090743447103241
3300000000.0 0.026224442010412286 -0.06238041421357511
3320000000.0 0.04070972216524957 0.00778266052485845
3340000000.0 0.008043684592511802 -0.02072380561624534
3360000000.0 -0.005163944245295444 -0.00532933188693667
3380000000.0 -0.0014451470421575744 0.0028772705704399873
3400000000.0 0.01489745418699739 -0.006277730858788392
3420000000.0 -0.0016981091308536297 0.03318923063878632
3440000000.0 0.03149428633339791 -0.03504175098187834
3460000000.0 0.058927448459935965 -0.01741628279047594
3480000000.0 -0.0363641610921683 0.06596982615671788
3500000000.0 0.054590679004893554 0.06796684236736979
3520000000.0 0.027496240471739052 0.09773240337176063
3540000000.0 -0.10698358298413792 -0.041567453246546274
3560000000.0 0.08749099236487899 0.08234254652492468
3580000000.0 0.07320703165361594 -0.1120799191765188
3600000000.0 0.12985855369707874 0.07749757038004629
3620000000.0 -0.005467105020151396 -0.1619910235297214
3640000000.0 -0.0066492308578507625 -0.1790465792331726
3660000000.0 -0.03708310174781486 -0.18734767924032955
3680000000.0 0.15480691190503326 -0.11870578242583905
3700000000.0 -0.12490844789307717 -0.14950787742785807
3720000000.0 -0.07996407147327925 -0.17354916812776172
3740000000.0 0.18044117471728077 0.018608955723593383
3760000000.0 0.04398415497229522 -0.17140862837008378
3780000000.0 -0.12287668500231534 0.12243536884152162
3800000000.0 0.15973115740370616 -0.053051998850998525
3820000000.0 -0.11696357962231421 -0.10838420033634215
3840000000.0 -0.1342447815473972 -0.06445959548757857
3860000000.0 0.002592042677675882 -0.14404350470513663
3880000000.0 0.1404974876846137 -0.03102375148896904
3900000000.0 -0.03823205088989139 0.14234512878664055
3920000000.0 0.014632848575226301 0.15220947560561923
3940000000.0 -0.11828464122884262 -0.11816908061970915
3960000000.0 -0.1600749259695347 0.07110311755897952
3980000000.0 -0.05849855673728763 0.16393021509954453
4000000000.0 0.1308502362110576 -0.10113552952570506
