!Created with skrf (http://scikit-rf.org).
# Hz S RI R 50.0 
!freq ReS11 ImS11
400000000.0 0.4828860182356852 0.7243131071875109
420000000.0 0.8445339839897643 -0.014283080925549758
440000000.0 0.7962994280359467 -0.07088301599519903
460000000.0 0.6991421544846089 0.2580354611854933
480000000.0 -0.07893285369659583 -0.6830683689614169
500000000.0 0.1767940150832552 0.5777235892492524
520000000.0 0.3350888201221079 0.3867176109546498
540000000.0 -0.4186950434011308 -0.11032041840453019
560000000.0 0.128235616913577 0.3720762595595259
580000000.0 -0.33755817340963684 -0.12224020328329095
600000000.0 0.3104329827769441 -0.16899038200967703
620000000.0 -0.2321878851961194 -0.2670977635564272
640000000.0 0.3977389113836516 -0.07899062198826451
660000000.0 0.047311034017105236 0.40751961582616464
680000000.0 0.09042127530169339 -0.4355745561184059
700000000.0 -0.049100766719523785 0.4620435516822241
720000000.0 -0.4649086608710478 0.025953834455573272
740000000.0 -0.28739930817867965 0.3170631362861198
760000000.0 -0.3510630961910443 -0.21273790077040358
780000000.0 -0.3187781383078716 0.20858480908783067
800000000.0 -0.2227443140234128 0.2556531624455936
820000000.0 0.20538089015375213 0.19024885612075387
840000000.0 -0.18739425665819626 0.0859074746173784
860000000.0 -0.16405536863286893 -0.03100381790212002
880000000.0 -0.06144067785064663 -0.12450547665749791
900000000.0 -0.09417009947179707 -0.01232942088704746
920000000.0 0.032420621869893335 0.04559139380669011
940000000.0 -0.008052719127441892 -0.03661173643401584
960000000.0 0.03411123460224504 -0.021700061215004254
980000000.0 -0.05766228014978494 -0.02702499703535947
1000000000.0 0.010765742338380955 0.10050930518334217
1020000000.0 0.07888262004647797 0.09655689554147687
1040000000.0 -0.13615302774923124 -0.02244801686984296
1060000000.0 0.10354254555635097 0.1264507411212773
1080000000.0 -0.17053518257406064 0.08036050686740588
1100000000.0 0.058484273907613744 -0.20483890588882436
1120000000.0 0.19780663247082175 -0.12666658489444582
1140000000.0 0.03596136189579862 0.25613955705288877
1160000000.0 -0.01906669141784585 0.2789166357423447
1180000000.0 -0.2799037566970585 -0.11725124361683101
1200000000.0 0.25065090634339354 0.2266776711190012
1220000000.0 -0.042150149785361135 -0.3678702383172021
1240000000.0 0.2806118983030652 0.27834048184471866
1260000000.0 -0.2398191662736495 -0.33278347041730905
1280000000.0 -0.4257656208029236 0.010685790085505494
1300000000.0 0.2534564780492313 0.3520243644857053
1320000000.0 0.43357108037120506 0.05324281535738178
1340000000.0 0.3398330204881756 0.28079406656996253
1360000000.0 0.4341618971265231 -0.10353366082725728
1380000000.0 -0.3289005984631048 -0.2860614753930662
1400000000.0 -0.40972290574358905 -0.09560236007802336
1420000000.0 0.05782694037179381 0.3940877972115202
1440000000.0 0.3473941400023321 0.1279225940882255
1460000000.0 0.32330082912597696 0.1181889951327586
1480000000.0 0.038492736349823836 -0.3167218172504122
1500000000.0 -0.1488428200475724 0.24826343878525026
1520000000.0 -0.1481550664760695 0.21248722064920292
1540000000.0 0.22884288126065452 -0.0156295230277955
1560000000.0 0.1846579716936861 0.06564351759008548
1580000000.0 0.03664357869569926 0.16658914470205743
1600000000.0 0.12850498294682833 0.039432483188033635
1620000000.0 0.04289192069896748 -0.08848022987067979
1640000000.0 -0.07207620452442111 0.01655311193077479
1660000000.0 -0.04091461751495348 0.04423987034634451
1680000000.0 -0.03849481926115506 -0.001715424275739784
1700000000.0 -0.004173194322360143 -0.017944717358788782
1720000000.0 -0.01037536463642121 -0.005830424462963858
1740000000.0 -0.019313653749689495 0.0015521471262648625
1760000000.0 -0.025604861753951432 0.0035774620685170818
1780000000.0 -0.02608816010863312 0.03206624784083105
1800000000.0 0.0520362327207492 -0.06701957113712068
1820000000.0 -0.06595941121031727 -0.1031997241947487
1840000000.0 0.12425229462256882 -0.11057480144660974
1860000000.0 -0.19871570857235601 0.0682006255783645
1880000000.0 0.23521920685948342 -0.07669402733547084
1900000000.0 -0.28221536222800186 -0.033595876642981616
1920000000.0 -0.12362999918944477 -0.2957093190718669
1940000000.0 -0.29102761871319527 0.17443408050455744
1960000000.0 -0.28486627433204487 0.2242944776811298
1980000000.0 0.376373471191841 0.11801123955623444
2000000000.0 0.20990178430157796 -0.35884264230623936
2020000000.0 -0.05446065753507449 -0.42529967375379907
2040000000.0 -0.25493173857933116 0.357970225440998
2060000000.0 0.19998313819866165 0.394149271303235
2080000000.0 0.42909697232746846 0.08205269461223332
2100000000.0 -0.25628024989823867 -0.34066031291323007
2120000000.0 -0.2016638290488426 -0.3583298341260824
2140000000.0 0.1868718748211213 -0.34772035357764614
2160000000.0 0.37968793407120227 -0.04808550238867307
2180000000.0 0.37300141497568085 0.002292674313511897
2200000000.0 0.33773740437485983 -0.1333769554015816
2220000000.0 -0.3109641119518634 -0.16697565675838463
2240000000.0 -0.2773087057516374 -0.20606130585535828
2260000000.0 -0.32302276810686376 -0.11869624037922522
2280000000.0 0.1136474409056755 0.3289767630673703
2300000000.0 0.18446854845974833 0.303571417022831
2320000000.0 0.22989001241386955 0.2985441195218878
2340000000.0 -0.07007003703212229 -0.40391229851082483
2360000000.0 -0.4240339306083554 -0.14659924438914373
2380000000.0 0.12174789267540938 0.48350296145454785
2400000000.0 -0.48389616186569634 0.27910217661168435
2420000000.0 0.5169536294545874 -0.32494143305244383
2440000000.0 -0.5042391072418363 0.42153276918945587
2460000000.0 -0.6888581870972322 -0.13000766105308662
2480000000.0 0.6961789516209198 0.2288165717007162
2500000000.0 -0.3967576442444001 -0.6413476971562975
2520000000.0 0.7169450267904967 -0.2710920542958719
2540000000.0 -0.6243086193576275 -0.45070018737397355
2560000000.0 -0.3790883154047459 0.6665532060422227
2580000000.0 -0.04626196663543511 -0.7510726926110732
2600000000.0 -0.7299598140515245 0.043159331381263814
2620000000.0 0.0623053037489846 0.7025296785803984
2640000000.0 0.48126574567670677 -0.46244956130508774
2660000000.0 -0.49248749209472337 -0.38804938178780113
2680000000.0 -0.192472726474692 0.5484348817136895
2700000000.0 -0.29236177290836046 -0.44189832690976855
2720000000.0 -0.14377781549431576 0.4611130158029318
2740000000.0 0.4289649591493034 -0.06528260276309981
2760000000.0 -0.34306925962795876 0.1868200787489295
2780000000.0 0.3484977986248822 0.09152245619775862
2800000000.0 -0.2873882980509121 -0.17327383175945163
2820000000.0 0.024504326889042305 -0.3119586410948356
2840000000.0 0.028457932533473607 0.3024466570234388
2860000000.0 -0.15549173848804945 -0.25196742900336755
2880000000.0 0.1350801936353582 -0.2594236357143252
2900000000.0 -0.28390389159486373 -0.06750010030420617
2920000000.0 -0.18872742139800194 0.23147094509077468
2940000000.0 0.034166806990467 -0.3082742022451065
2960000000.0 -0.26227706072762763 -0.17791863518802303
2980000000.0 -0.30172447112223066 -0.10157729592618348
3000000000.0 -0.3163825103446694 0.011559447196594618
3020000000.0 0.26368259882487094 0.18081604042846938
3040000000.0 0.24165525762424886 0.20926628782559648
3060000000.0 0.1005388456388521 0.29634527837854213
3080000000.0 0.29777518061493574 -0.05708997532621895
3100000000.0 -0.2229914045116773 0.19335128829157616
3120000000.0 -0.04133071211113979 -0.28397034543311744
3140000000.0 -0.2694216258636826 0.06089593057735792
3160000000.0 0.13098749641412688 -0.22788772273589455
3180000000.0 -0.2195619499239563 0.11640564223116041
3200000000.0 0.22897929497881583 -0.045125512042446775
3220000000.0 0.1432217017329793 -0.14997824386876352
3240000000.0 0.032224059370445056 -0.17121176337611543
3260000000.0 0.12225871723177807 0.07500146732528125
3280000000.0 -0.04685048789865815 0.08936869437143208
3300000000.0 0.011669456669865961 -0.06629257929104512
3320000000.0 0.041358014689312814 -0.0002388158515999306
3340000000.0 -0.020672589261051057 -0.007942151286946073
3360000000.0 0.007328765616086553 0.0023255504295045244
3380000000.0 0.0006583517041795947 -0.0033094099065337015
3400000000.0 -0.007232214602621211 0.015035932109520709
3420000000.0 0.01687200552010471 0.02984720549791456
3440000000.0 0.04243346841251501 -0.022450003488201
3460000000.0 0.05882310899816995 -0.022606380811571024
3480000000.0 -0.06518797964725698 0.03839275823472409
3500000000.0 0.08079825859238551 0.03413803743056226
3520000000.0 0.05903467705329421 0.08333094453972785
3540000000.0 -0.11453653448125506 0.016342618340344933
3560000000.0 0.09331747405947355 0.07643524964353096
3580000000.0 0.0456648391316899 -0.12633335466546947
3600000000.0 0.09504257698835059 0.11685505739953905
3620000000.0 0.011692403159994974 -0.1616683364559408
3640000000.0 0.003444689198785885 -0.17859852364288414
3660000000.0 -0.017572248186452716 -0.18924280803652027
3680000000.0 0.14024661009323103 -0.13487646270910247
3700000000.0 -0.13474564679030185 -0.14020940662806727
3720000000.0 -0.08985495315670278 -0.1686677634633743
3740000000.0 0.18200368571366665 0.006253928085388427
3760000000.0 0.05314215028015086 -0.168725089360688
3780000000.0 -0.11923066984580506 0.12567628307688714
3800000000.0 0.14415968915739047 -0.08600291344796267
3820000000.0 -0.14247292545001436 -0.07207747318758091
3840000000.0 -0.13705611537456677 -0.05805752606177093
3860000000.0 -0.03542707169994688 -0.14028468192274623
3880000000.0 0.13683040188265497 -0.04590235153851399
3900000000.0 -0.050069221024651625 0.13923680192255003
3920000000.0 -0.028293581160891108 0.1504649982007828
3940000000.0 -0.09623866619381526 -0.13752202658759455
3960000000.0 -0.17386454880729268 -0.030632207467511757
3980000000.0 -0.08989917223721318 0.14969106198899154
4000000000.0 0.16132281762498663 -0.0403066719375973
