!Created with skrf (http://scikit-rf.org).
# Hz S RI R 50.0 
!freq ReS11 ImS11
400000000.0 0.48056944329062584 0.7237429131100173
420000000.0 0.8424898128018361 -0.05198752494777969
440000000.0 0.7962380208163308 -0.06490242818007844
460000000.0 0.702092429681229 0.2504859309588097
480000000.0 -0.06903261558350254 -0.6843384570171548
500000000.0 0.13682534984851955 0.5885365460789367
520000000.0 0.3077970181509017 0.4091369892900586
540000000.0 -0.4165247431698726 -0.12058254353641035
560000000.0 0.1664565416038377 0.35698858640267334
580000000.0 -0.3495220574660177 -0.07816929673138703
600000000.0 0.29452639039207035 -0.19230045791421327
620000000.0 -0.20774730802994787 -0.28465200098289883
640000000.0 0.40520704532867824 0.01123765314792296
660000000.0 -0.008282113608862529 0.4110306046358334
680000000.0 0.08893938146285171 -0.43719589744743115
700000000.0 0.03488013141044032 0.4643968017679317
720000000.0 -0.4425485245749262 0.14609976978339098
740000000.0 -0.23041988864677618 0.35997248014028743
760000000.0 -0.3347043403614695 -0.23372305614118813
780000000.0 -0.36327572056247376 0.11000947747272609
800000000.0 -0.296461976005323 0.16487735689824604
820000000.0 0.1768496188979192 0.2197958769377372
840000000.0 -0.1665992222094991 0.1252051815980568
860000000.0 -0.15422426244046333 0.06323559211307518
880000000.0 -0.11561412542683992 -0.07377961494947864
900000000.0 -0.0908639334029614 0.021578961618634377
920000000.0 0.011589645543365775 0.053666724708378195
940000000.0 0.018531665723894444 -0.03267447924575649
960000000.0 0.0402242669532047 0.0031485780557075683
980000000.0 -0.02666258136645584 -0.05754801414145109
1000000000.0 -0.004213214482714667 0.10070501416466937
1020000000.0 0.06369895113013282 0.1063670439987609
1040000000.0 -0.12634128127598748 -0.05332658334391246
1060000000.0 0.07750279005373194 0.14314753420503173
1080000000.0 -0.1676135328840372 0.08563713109512094
1100000000.0 0.02974236408501293 -0.21142521950831486
1120000000.0 0.18458399793866534 -0.14694543000035387
1140000000.0 0.07893391181767839 0.24674917671553595
1160000000.0 -0.014195355241220686 0.27831702279767473
1180000000.0 -0.2822276152531564 -0.10968861543981132
1200000000.0 0.22137468923690137 0.25482758812907214
1220000000.0 -0.055518864423866075 -0.3674472593206226
1240000000.0 0.27513241281431533 0.2862251506860712
1260000000.0 -0.26612009307637774 -0.3138220640568031
1280000000.0 -0.4247254548027795 0.027693425661990047
1300000000.0 0.2904722596124075 0.3218613865064219
1320000000.0 0.4331055394999743 0.05339458690525045
1340000000.0 0.3225278022699161 0.3005362228705157
1360000000.0 0.43407793800050914 -0.10457704076902807
1380000000.0 -0.3380866002980849 -0.27563388029122876
1400000000.0 -0.4163288385794093 -0.05907440089201117
1420000000.0 0.07616767279638059 0.39096964275577445
1440000000.0 0.34298816076776684 0.1382307683098186
1460000000.0 0.30959572875672947 0.15084120624778374
1480000000.0 0.0779882481722384 -0.3099361568898718
1500000000.0 -0.13132561696481676 0.2587400018302518
1520000000.0 -0.0787176464961593 0.24685849034085972
1540000000.0 0.20831118029831033 -0.09682280189252662
1560000000.0 0.19559758556602122 0.009281434600742777
1580000000.0 0.027774941323816218 0.16838307449853174
1600000000.0 0.09616121644141146 0.09371353058531055
1620000000.0 0.09626298566614351 -0.019617808660205502
1640000000.0 -0.056906430808645866 -0.04893055198910236
1660000000.0 -0.058953267316411484 0.018289492614142866
1680000000.0 -0.030815558347488836 0.025229340725259376
1700000000.0 -0.0023765956325687895 -0.01899498892208894
1720000000.0 -0.007728225249101313 0.006974838865645456
1740000000.0 -0.0025062153357980448 -0.01791117596971519
1760000000.0 0.018065935607392673 0.01929360392034525
1780000000.0 -0.03943141351232897 0.01554610200621631
1800000000.0 0.030206719656654196 -0.07957371047572509
1820000000.0 -0.1080566925311423 -0.056628914956886996
1840000000.0 0.09819870077938649 -0.13328136943313906
1860000000.0 -0.20484137621618817 0.04376462892823901
1880000000.0 0.24164097455570996 -0.050495692834925124
1900000000.0 -0.28235478899763683 -0.0299527697539679
1920000000.0 -0.14378952678725063 -0.28648529404582757
1940000000.0 -0.28659183194207044 0.18109261440265645
1960000000.0 -0.28692540494213203 0.22113141678492307
1980000000.0 0.37494809721143585 0.12235368086884299
2000000000.0 0.2276684414330062 -0.3482676113520828
2020000000.0 -0.04513197984245022 -0.4264428173658688
2040000000.0 -0.18749934969794146 0.3969735797889707
2060000000.0 0.19010693932072398 0.3986272611546373
2080000000.0 0.42675573347004775 0.09612498580084641
2100000000.0 -0.23415414151475022 -0.356670932547186
2120000000.0 -0.15324072240655184 -0.3825608583787445
2140000000.0 0.19136567659636727 -0.3458651441973938
2160000000.0 0.371746114342905 -0.0911332196758831
2180000000.0 0.37312088667206195 -0.006444403414297952
2200000000.0 0.345910509591851 -0.1114620416654101
2220000000.0 -0.308549226162968 -0.17207286584846787
2240000000.0 -0.2728756109443581 -0.2136902194714156
2260000000.0 -0.3312646117770806 -0.09578675622738275
2280000000.0 0.16397425346240616 0.3069982483988513
2300000000.0 0.2324077513302633 0.2682517140069702
2320000000.0 0.22341005476072076 0.3030226432813087
2340000000.0 -0.023316884831924203 -0.4088560831418289
2360000000.0 -0.4132681006411199 -0.17461674677115932
2380000000.0 0.11524043880533034 0.48510127896559785
2400000000.0 -0.4773422971559587 0.2891694514284612
2420000000.0 0.509591467801596 -0.33537882648826095
2440000000.0 -0.4952831318345392 0.4314735355263036
2460000000.0 -0.692470530605906 -0.10581569383772521
2480000000.0 0.7057614787847596 0.19526341326318084
2500000000.0 -0.44435477437250737 -0.6090555310806726
2520000000.0 0.6977375330648694 -0.31904332059382684
2540000000.0 -0.6441263626208833 -0.42462781331541566
2560000000.0 -0.32938483459622636 0.6939252256168563
2580000000.0 -0.07145653728798597 -0.7507737298322964
2600000000.0 -0.7324227282305784 0.011789362802611995
2620000000.0 0.09216346887954577 0.7000096624459465
2640000000.0 0.4654883192043906 -0.4794612998582588
2660000000.0 -0.4946735725357019 -0.3866026229437283
2680000000.0 -0.20707066510730257 0.5433067969618426
2700000000.0 -0.2615951807596429 -0.4606116507118864
2720000000.0 -0.17680727644395014 0.4488001340261965
2740000000.0 0.4299286387061558 -0.05412495507512201
2760000000.0 -0.3477934485805441 0.17666911843542168
2780000000.0 0.35663249499328425 0.045220005452784484
2800000000.0 -0.30831234916478595 -0.1311531682841323
2820000000.0 -0.017673960241105117 -0.311944021463925
2840000000.0 0.07804304029750998 0.29340825191477204
2860000000.0 -0.18465978824650728 -0.23154617202801486
2880000000.0 0.08115602600022803 -0.2806510836149951
2900000000.0 -0.2871490084054536 -0.05583941922909301
2920000000.0 -0.18563322019692802 0.23537710255574035
2940000000.0 0.09957596484858076 -0.2951125819760044
2960000000.0 -0.24514048552859227 -0.20255365260366698
2980000000.0 -0.31690130132929184 -0.04135006410717851
3000000000.0 -0.31262679532601406 0.061809335025568526
3020000000.0 0.27473821667856485 0.16506013977930364
3040000000.0 0.26656353240361647 0.17653433317267805
3060000000.0 0.09070187429722575 0.2993692194381884
3080000000.0 0.3003297802223818 0.03474422551369662
3100000000.0 -0.26496249237083774 0.12931956115924403
3120000000.0 0.009829279429176888 -0.2869460357954899
3140000000.0 -0.2763966034639091 0.021504437268580184
3160000000.0 0.16442572091600058 -0.20704754812379497
3180000000.0 -0.23345078397741076 0.08639576037632406
3200000000.0 0.2173191735921739 -0.08400115182740116
3220000000.0 0.06266009805934425 -0.19634766661345016
3240000000.0 -0.04051236854980371 -0.16761403877669717
3260000000.0 0.14207415047602062 0.0026226339571727747
3280000000.0 -0.044928211371591455 0.0895360416030101
3300000000.0 0.06641178271258319 -0.009053016397284097
3320000000.0 0.03823216654590764 0.016328260256408024
3340000000.0 -0.022203993185055778 0.0028398675751280036
3360000000.0 -0.0011831410970758786 0.006738807061227258
3380000000.0 -0.003928336094563398 3.0752326680937265e-05
3400000000.0 0.017472486169695357 0.0046936113426819
3420000000.0 0.031553600109674534 0.014605005545322052
3440000000.0 0.008417281711721734 -0.046996421312740844
3460000000.0 0.0299740270337652 -0.05386555473221127
3480000000.0 -0.06750888704002794 0.03288548712057174
3500000000.0 -0.01237704056005193 0.08651690015781198
3520000000.0 -0.06794677563295921 0.07657345673945101
3540000000.0 -0.06894534493442873 -0.09346177239214956
3560000000.0 0.060041238583071525 0.10539782364297536
3580000000.0 0.083637753824248 -0.10627922863249895
3600000000.0 0.11140659862673168 0.10216300152063057
3620000000.0 0.01977738286717904 -0.16097286217685108
3640000000.0 0.029036865564899955 -0.1768487773473721
3660000000.0 0.04993039617213317 -0.18380845454785547
3680000000.0 0.19159280879742 -0.03545076074901892
3700000000.0 -0.03581293722641819 -0.19117365028820774
3720000000.0 -0.0035284602566966663 -0.19123293231253358
3740000000.0 0.16327265330608115 0.07901611425348104
3760000000.0 0.06362742828685067 -0.1641324721358087
3780000000.0 -0.13945626850945544 0.10005154217456336
3800000000.0 0.16617756039101117 -0.012284237589348585
3820000000.0 -0.09159514309780858 -0.12825616487062527
3840000000.0 -0.09922103950210745 -0.10935252183448999
3860000000.0 0.06553939735362176 -0.12771054652866096
3880000000.0 0.1437194807416571 0.005692751629695131
3900000000.0 -0.04178048234870594 0.14106225917544488
3920000000.0 0.029478875591635912 0.1492842635018032
3940000000.0 -0.12664867535099059 -0.107016958891407
3960000000.0 -0.17084329625047595 0.03238077535713794
3980000000.0 -0.10461554816996406 0.13685253635277317
4000000000.0 0.15622557813285348 -0.048626021472922144
