!Created with skrf (http://scikit-rf.org).
# Hz S RI R 50.0 
!freq ReS11 ImS11
400000000.0 0.48393026839821324 0.7218121945454853
420000000.0 0.843207505325207 -0.030143888754729672
440000000.0 0.7920852419143192 -0.1004622369144375
460000000.0 0.7130843283716105 0.21598389690946898
480000000.0 -0.07852988729077603 -0.6833511256903113
500000000.0 0.1806526515710206 0.5767295154255254
520000000.0 0.3193225954737062 0.4002261520467321
540000000.0 -0.41810597477894007 -0.1133326864721613
560000000.0 0.14131913696708215 0.3672448416444545
580000000.0 -0.3246935681661698 -0.15172166969293824
600000000.0 0.3182240172529119 -0.15188604443468182
620000000.0 -0.2616177218864099 -0.23793894270198523
640000000.0 0.3912974823614807 -0.10590807735340128
660000000.0 0.10492526341959045 0.39656935107265995
680000000.0 0.02621418241305124 -0.44342773341786207
700000000.0 -0.017717265869103084 0.46420652734596546
720000000.0 -0.45533063684267755 0.09657668931362066
740000000.0 -0.30358094781841793 0.3028157773434254
760000000.0 -0.34041179102759234 -0.2289716675240906
780000000.0 -0.32604990179324717 0.19635580474473202
800000000.0 -0.218692257127571 0.2589407564225291
820000000.0 0.2214719566639548 0.1714884984074172
840000000.0 -0.17757698534414154 0.10480589917531427
860000000.0 -0.16204993672182721 -0.0383548801485387
880000000.0 -0.06402314498985634 -0.12232029690957935
900000000.0 -0.09434116581518251 0.0047517506200091455
920000000.0 0.04580542441163372 0.03168055615342212
940000000.0 -0.0180834339295908 -0.03330622457437833
960000000.0 0.028471278849522406 -0.028981214891134307
980000000.0 -0.040123078482775146 -0.04894413821848525
1000000000.0 0.0044871812065031425 0.10032482933906936
1020000000.0 0.07013414871869972 0.10246726692183633
1040000000.0 -0.12828746156210105 -0.048199918638362614
1060000000.0 0.08288543932684019 0.13975642501246174
1080000000.0 -0.16095223360637248 0.09769025746203039
1100000000.0 0.009080504622919105 -0.2129151836645351
1120000000.0 0.1905990468097376 -0.1380570789405778
1140000000.0 0.04305722931586244 0.25528103174644434
1160000000.0 -0.012361705498562721 0.27912448058420625
1180000000.0 -0.288567157200083 -0.09266081454938681
1200000000.0 0.25057484433225174 0.22634124691850946
1220000000.0 -0.08048446746571591 -0.36197612623661346
1240000000.0 0.2871897163829398 0.27252352713858374
1260000000.0 -0.24902811978285644 -0.3267547129611475
1280000000.0 -0.42541515631438276 0.016769830802735756
1300000000.0 0.2648855293813238 0.343800336350406
1320000000.0 0.43327022415040906 0.05707868410341266
1340000000.0 0.335638978101492 0.28649558665993397
1360000000.0 0.43523452188929446 -0.10040692861712622
1380000000.0 -0.32502842497973244 -0.2906545109262974
1400000000.0 -0.41427323537629573 -0.07254521047871239
1420000000.0 0.07877832769826265 0.3905459313201192
1440000000.0 0.3525755497800533 0.11207926333373806
1460000000.0 0.3185973964296123 0.12902470311048045
1480000000.0 0.09183603667044307 -0.3052938467963041
1500000000.0 -0.18286164974561403 0.2241050362675952
1520000000.0 -0.12753361625636478 0.22479200856197235
1540000000.0 0.2266037738415053 -0.03742729023068823
1560000000.0 0.19253897814089255 0.039808103263427354
1580000000.0 0.06170817682923466 0.1602442380041855
1600000000.0 0.1301876302197149 0.0367174953322251
1620000000.0 0.026136736855483993 -0.09470512746228059
1640000000.0 -0.05977168960704702 0.0435791670122933
1660000000.0 -0.03486704899761738 0.048989358023664706
1680000000.0 -0.035366619252378086 -0.014851176734427792
1700000000.0 0.01236512247736184 -0.013770614969868334
1720000000.0 -0.00868819217585633 -0.008753586964475741
1740000000.0 -0.010393050990327692 -0.015420907070250081
1760000000.0 -0.01769256281212206 -0.01829579379052945
1780000000.0 -0.03065361418497012 0.02759671044465922
1800000000.0 0.042648779141288 -0.07335708348021533
1820000000.0 -0.09413558442320712 -0.07827467553744545
1840000000.0 0.10455630902841072 -0.12960263702315145
1860000000.0 -0.19894440955645443 0.06800375710223887
1880000000.0 0.2379216309719681 -0.0667627249104017
1900000000.0 -0.28081959828010544 -0.04268750806748116
1920000000.0 -0.11759976801868573 -0.29858128785902355
1940000000.0 -0.2978558941373272 0.16289663599608636
1960000000.0 -0.28987100668214066 0.2179043876410171
1980000000.0 0.37600249018064663 0.11925062289889579
2000000000.0 0.23078467402913022 -0.3455892193158733
2020000000.0 -0.020156246416220536 -0.42750564671550356
2040000000.0 -0.2137347783480561 0.3825482699957946
2060000000.0 0.1779039685866518 0.4032615778487423
2080000000.0 0.41982385560885627 0.12093741754906957
2100000000.0 -0.2151383601696159 -0.36774094282938746
2120000000.0 -0.1860583375683163 -0.3666453910783105
2140000000.0 0.15629076460937635 -0.3625391869332901
2160000000.0 0.36220938779209855 -0.12283870805289476
2180000000.0 0.37123303948619074 -0.03545167047411878
2200000000.0 0.3228197640146306 -0.16588334924433323
2220000000.0 -0.334026529729183 -0.11415339138847469
2240000000.0 -0.28582230032111994 -0.19508992224814645
2260000000.0 -0.3276741602464277 -0.1062748650894904
2280000000.0 0.12576750505659537 0.32471137714761666
2300000000.0 0.21098777659342588 0.28621916106324224
2320000000.0 0.22985615110027768 0.29917063339458067
2340000000.0 -0.04267187936997301 -0.40783324052033126
2360000000.0 -0.4158882291874936 -0.16780914333458033
2380000000.0 0.10924926003433161 0.48625570417389996
2400000000.0 -0.4917887881669056 0.26347364210433233
2420000000.0 0.5335466243810609 -0.29571045355496434
2440000000.0 -0.518168527955847 0.403248132730863
2460000000.0 -0.6838035512586522 -0.1505275623457134
2480000000.0 0.6992909467214624 0.21564664595781943
2500000000.0 -0.4329763181340798 -0.6163982417047196
2520000000.0 0.6936845978228621 -0.326681850079028
2540000000.0 -0.6288914722701799 -0.44609212565639017
2560000000.0 -0.3353267741952172 0.6904541529903034
2580000000.0 -0.13144351986157712 -0.7417883954815977
2600000000.0 -0.7245745451467916 0.10697682453275584
2620000000.0 0.06904660153096244 0.7025130861648847
2640000000.0 0.47556935621413043 -0.4690959186155857
2660000000.0 -0.5137411554684538 -0.36086578095851435
2680000000.0 -0.17524653252606526 0.5548671423394488
2700000000.0 -0.286373659602678 -0.44621083607137685
2720000000.0 -0.13893747001997708 0.46229512714196425
2740000000.0 0.4314994683003795 -0.0411589631727328
2760000000.0 -0.3511396437618334 0.16966302995257276
2780000000.0 0.3535039653875409 0.06619135871040681
2800000000.0 -0.29783921878890657 -0.15409974339703048
2820000000.0 0.01888925246277439 -0.3124906781393034
2840000000.0 0.04864159447262281 0.3000391805213937
2860000000.0 -0.16395664090431103 -0.24733985588818752
2880000000.0 0.11294833504235101 -0.2699990949111769
2900000000.0 -0.2835494957404693 -0.07272926592478308
2920000000.0 -0.19967402587964586 0.22351533770081183
2940000000.0 0.1151595216956717 -0.28872278549685115
2960000000.0 -0.25375950909053885 -0.18972188588589367
2980000000.0 -0.31041962418167385 -0.06591256107291579
3000000000.0 -0.316369699903684 0.026711218393097473
3020000000.0 0.25452469523313515 0.1929295290076503
3040000000.0 0.2737260899713175 0.16435737172657303
3060000000.0 0.11231201062219898 0.29214089216810013
3080000000.0 0.3017430837206636 -0.022280593979326135
3100000000.0 -0.20164868318232038 0.21527534755250297
3120000000.0 -0.10748539659574047 -0.26593876193950083
3140000000.0 -0.26070273553761775 0.0923337358093196
3160000000.0 0.13059025306762923 -0.2290095409029022
3180000000.0 -0.2233190959073222 0.10948782032393341
3200000000.0 0.21952172086384866 -0.07921852843736103
3220000000.0 0.07522924603158529 -0.19307588857061253
3240000000.0 -0.04095840290454405 -0.16955207432458763
3260000000.0 0.14422326928949553 -0.004284102580736069
3280000000.0 -0.0068505637819509455 0.10178488057760282
3300000000.0 0.030488750190946646 -0.060758815628506525
3320000000.0 0.039744384523069144 0.012295985597338448
3340000000.0 0.01539181749643525 -0.01605894132992858
3360000000.0 -0.005221161743563584 -0.005735540669787476
3380000000.0 -0.0027028918512164266 -0.0010885761833160442
3400000000.0 -0.008184892174355966 -0.013694981043173215
3420000000.0 0.021075523543742005 0.02545464890807639
3440000000.0 0.03285720293783979 -0.033602117697413884
3460000000.0 0.039941019939170194 -0.046776000177532
3480000000.0 -0.029964843598340434 0.0692600386865406
3500000000.0 0.06775576815727447 0.05504685283036683
3520000000.0 0.028089551733943615 0.09777809118531373
3540000000.0 -0.11227834144693967 -0.02581246520094311
3560000000.0 0.08650522920416553 0.0834046975656516
3580000000.0 0.05381058627835467 -0.1232594813289612
3600000000.0 0.11831213954709319 0.09402138426492014
3620000000.0 -0.028403024492357976 -0.16034947242973924
3640000000.0 -0.026789755471026057 -0.17784038347997835
3660000000.0 -0.03616695636942139 -0.18805071318622696
3680000000.0 0.15204853138587293 -0.12241781188488528
3700000000.0 -0.11998024777654119 -0.15356643094412736
3720000000.0 -0.05739726093934134 -0.18173021521986055
3740000000.0 0.17325412609296081 0.054009314376158774
3760000000.0 0.05789536950517088 -0.16656447810957103
3780000000.0 -0.13415200123625323 0.10971901640017351
3800000000.0 0.16426426928256047 -0.03498197863182427
3820000000.0 -0.11599348430006992 -0.10917955453646923
3840000000.0 -0.13180313442242106 -0.06866684688679182
3860000000.0 0.015669043549908508 -0.14282327980293302
3880000000.0 0.14254691313178058 -0.017363998405882004
3900000000.0 -0.047501461620033825 0.13889417230811738
3920000000.0 0.013294553358235638 0.15185096062932504
3940000000.0 -0.11404839123241896 -0.12161530660410098
3960000000.0 -0.16537019758705382 0.0570251017243877
3980000000.0 -0.07556301328710757 0.15634919558775093
4000000000.0 0.13893103020477376 -0.08857771135740661
