!Created with skrf (http://scikit-rf.org).
# Hz S RI R 50.0 
!freq ReS11 ImS11
400000000.0 0.7203494137041614 0.48016291526314636
420000000.0 0.8410269271230734 -0.05473636563840654
440000000.0 0.7909657521696263 -0.09242632492791213
460000000.0 0.734682572791255 -0.14519229390735744
480000000.0 -0.379256911956251 -0.5749634250647638
500000000.0 0.2794173715370623 0.5292845058337096
520000000.0 0.5057121567577773 0.008476396915647659
540000000.0 -0.3916138882228516 -0.19159045892670198
560000000.0 0.12607667316672644 0.37371118938694803
580000000.0 -0.2614290311590964 0.2503282747130629
600000000.0 0.10346963033027566 -0.34001505710090146
620000000.0 -0.32998405229289035 0.13227573585623564
640000000.0 -0.3602345293378347 -0.17721299636459795
660000000.0 -0.27634892370998565 0.2938182755204971
680000000.0 -0.029574404339667095 -0.44137167054135296
700000000.0 -0.07023657279851336 0.45765705492871467
720000000.0 -0.3703491828963064 -0.28877409701746126
740000000.0 -0.18930960019206997 0.39649985838169105
760000000.0 -0.08588358199003038 0.40231359255647314
780000000.0 -0.26045212273464835 0.26881229613180146
800000000.0 -0.0865823763872381 0.3191062858541607
820000000.0 0.04251376619059302 0.2781527859359454
840000000.0 -0.21007303741333647 0.007748254222285128
860000000.0 -0.1689580818901853 0.0013788328486801075
880000000.0 0.08997961273624204 0.10449009131223479
900000000.0 0.023623764450189592 0.08685989022630487
920000000.0 0.04469216514157687 -0.025651167223363407
940000000.0 -0.007215441527908653 0.035429260370758914
960000000.0 -0.0323416475607563 0.015894540124099944
980000000.0 -0.0098670481324251 0.06202906364292816
1000000000.0 0.033126239292503246 0.09490965849943991
1020000000.0 0.12250252183311884 0.02323384610663748
1040000000.0 0.05177499284834354 0.12477928441248627
1060000000.0 0.15263518670804316 0.03818210564768117
1080000000.0 -0.17097746247163748 -0.0635836770156467
1100000000.0 0.10399740632716453 -0.18397222481957742
1120000000.0 0.23587194796791044 0.023588878240060153
1140000000.0 -0.18796961597674428 0.17888772375128548
1160000000.0 0.006435969027389188 0.28604175642437896
1180000000.0 -0.27604952801972515 0.1445608883625939
1200000000.0 0.3195880315580326 -0.1197393791650713
1220000000.0 -0.3278916964140883 0.1763276885188358
1240000000.0 0.3515088604080809 -0.17483436177212905
1260000000.0 -0.25208865407901476 -0.31592122620179275
1280000000.0 -0.3641726871877081 0.2117735852599387
1300000000.0 0.12726538933573087 0.41127285647016437
1320000000.0 0.3138912364293727 0.3033093124809099
1340000000.0 0.39919308876552967 0.1959948360680695
1360000000.0 0.42389705712450015 -0.1511475414069254
1380000000.0 -0.31725445162171817 -0.3049596637938045
1400000000.0 -0.29270480863240517 0.3088356564306783
1420000000.0 0.3931780173105063 0.07600823378237435
1440000000.0 0.2838843570520956 -0.23329581622353515
1460000000.0 0.25864225585641676 -0.21685291346407004
1480000000.0 -0.1692303298721269 -0.26301168056463187
1500000000.0 -0.188910671598655 0.2115215591730111
1520000000.0 -0.2043581201228081 0.14723612540398054
1540000000.0 0.18141930338013654 -0.13267556940975653
1560000000.0 -0.05313239712411129 0.19031823467651826
1580000000.0 0.009175314278820991 0.17357993671066424
1600000000.0 0.03671950719176256 -0.13434571960199984
1620000000.0 -0.07934653260900973 -0.06906052547613278
1640000000.0 -0.0042955640797200205 -0.07997931725555532
1660000000.0 -0.03424101386706855 -0.05319205479419207
1680000000.0 -0.03262481380371011 -0.0202773202034605
1700000000.0 0.01208123173478534 0.009342607653289505
1720000000.0 -0.005902362306469283 -0.0020764030108918457
1740000000.0 0.02130593613909435 -0.0007770208894140282
1760000000.0 -0.017509424760453994 0.03256562430306032
1780000000.0 0.05500088597550731 0.010846344485682146
1800000000.0 -0.0428611348408057 0.07754725258746038
1820000000.0 -0.11262389229468589 -0.03942276886144736
1840000000.0 -0.024665946952745498 0.15889319142770217
1860000000.0 -0.19561958757788483 0.034373458887155414
1880000000.0 0.11009021948102908 0.2135486528358942
1900000000.0 -0.1592056382824847 -0.23931925703930007
1920000000.0 0.31693362882275367 -0.08197712716061988
1940000000.0 -0.3273371047229487 0.12997131564322809
1960000000.0 0.25950375175120177 0.2707163493545403
1980000000.0 0.2159102635473074 -0.33872630441933044
2000000000.0 -0.4169808010146381 0.022343864000811127
2020000000.0 -0.21427009076633904 0.3657216833552131
2040000000.0 0.03605121433950606 0.42941041664547436
2060000000.0 0.2963153662556479 0.31546323853698627
2080000000.0 0.43029330856269293 -0.040681497251138954
2100000000.0 0.1514799238196015 -0.4000507156393227
2120000000.0 -0.2136312020362323 -0.3566679325023147
2140000000.0 -0.2883128325412563 -0.27709676071333555
2160000000.0 0.3241600507679118 -0.21201662026546478
2180000000.0 0.018813270607353463 -0.37492848266560097
2200000000.0 -0.2828207063063192 -0.22517941589278526
2220000000.0 -0.3513800300088849 0.002613979492428731
2240000000.0 -0.25823244639588394 0.22648473351580894
2260000000.0 -0.06678284684148957 0.33584137941311554
2280000000.0 0.12705211114296572 0.321245820302461
2300000000.0 0.32147335668998245 0.1550560878376605
2320000000.0 0.2526777410654851 -0.28965353474828864
2340000000.0 -0.3404097098291138 -0.23844020934285987
2360000000.0 -0.057514957515588765 0.45297549168219864
2380000000.0 0.12652733014341253 -0.4932801085377458
2400000000.0 0.15545837965001996 0.540939380664752
2420000000.0 -0.5180490762394955 -0.3304142316406419
2440000000.0 0.6502823452692907 -0.11775010603131096
2460000000.0 -0.49296880466139165 0.4983039021224442
2480000000.0 0.18370318581676445 -0.7090705924881204
2500000000.0 -0.08787745460014212 0.7471958283661527
2520000000.0 0.24134515939274612 -0.7237894739386812
2540000000.0 -0.49155701870892327 0.5861207141752851
2560000000.0 0.7460064531350239 -0.143403967470832
2580000000.0 -0.47838204639649906 -0.5717524704383043
2600000000.0 -0.13959061923167185 0.7081459461206971
2620000000.0 0.5781559376016739 -0.38160472608462714
2640000000.0 0.18185063605306667 -0.6314505302925905
2660000000.0 -0.5372052793598818 0.2985927680789652
2680000000.0 0.565924753559336 -0.03830015540160036
2700000000.0 -0.4687450075440079 -0.22130678581539134
2720000000.0 0.3701439137319874 0.2881211874923871
2740000000.0 -0.13448148993270748 -0.39596082484034734
2760000000.0 -0.2564776627268177 0.2783254583527853
2780000000.0 0.2963488780045138 -0.18119129481283808
2800000000.0 -0.24165907303884332 0.21627211368388902
2820000000.0 0.14855058617292963 -0.2692979260759562
2840000000.0 0.18436739039063046 0.23758028951158452
2860000000.0 -0.22589021503287007 0.18762188720686082
2880000000.0 -0.009969831035506908 -0.29014995784310366
2900000000.0 -0.10878948927664424 0.2676857719241797
2920000000.0 0.27806243134388303 0.09841042069471133
2940000000.0 0.008672267503435459 -0.30583229580974114
2960000000.0 -0.3100673561139404 0.03951169088116152
2980000000.0 -0.17182090210902654 0.263662772666379
3000000000.0 -0.3145820397751628 -0.00731690220068299
3020000000.0 -0.09150451226780625 -0.306098810339298
3040000000.0 0.2165323695339112 -0.23379047788291069
3060000000.0 0.17472309299655037 0.2577697168265831
3080000000.0 -0.1882437414552747 -0.23351928368234426
3100000000.0 0.00760581881882761 0.2908068420051922
3120000000.0 0.09638984616544292 -0.26936786788496003
3140000000.0 0.0028966516716731555 0.2771121069819624
3160000000.0 -0.12765782269779088 -0.2317800933868721
3180000000.0 -0.10265869609213413 0.22724579892262284
3200000000.0 -0.19757221240914555 -0.11433878603981375
3220000000.0 -0.03812644695541022 -0.19892278854069115
3240000000.0 0.09031846903016709 -0.1448576770530394
3260000000.0 0.13211917712752244 -0.022770359588231984
3280000000.0 0.014272175989688524 -0.09672736400550758
3300000000.0 -0.06751447851997949 0.022426173228741585
3320000000.0 0.0013945611016163361 -0.04176370858138973
3340000000.0 0.005145363279459451 0.021999659617538202
3360000000.0 -0.004201357081996409 -0.005038333374029806
3380000000.0 0.0018363378094087156 0.006782757672573318
3400000000.0 0.016468441054665387 -0.010048146568110873
3420000000.0 -0.004550989287285959 0.036036629472778206
3440000000.0 -0.04856748179071243 0.008919905286868864
3460000000.0 0.01684645992958139 0.05823698052828687
3480000000.0 0.03523931652754005 0.06177710443777822
3500000000.0 0.08622935097334129 0.025393066071198924
3520000000.0 0.06145519986249542 0.08353664589320062
3540000000.0 -0.11144112505137649 -0.02918324094177511
3560000000.0 0.07039762706985903 -0.10307147754315855
3580000000.0 -0.135964029077399 -0.003227975199061156
3600000000.0 0.13370537064761248 -0.06657082405684624
3620000000.0 -0.08060730992651084 0.1420530462934328
3640000000.0 -0.16716322893560243 0.06228624983439925
3660000000.0 -0.10543196047632039 -0.15446757905355965
3680000000.0 -0.02568161491449496 -0.1927527095758528
3700000000.0 -0.1421963995440151 -0.13527160010336178
3720000000.0 -0.1297632555008191 -0.14558191998546743
3740000000.0 0.0759580162242639 -0.1690624156559095
3760000000.0 -0.1697900283735003 0.057548299406393374
3780000000.0 0.17278910596592603 0.004973210617147398
3800000000.0 -0.14639274434726962 -0.06998902308177797
3820000000.0 -0.15244110003184458 -0.027996936048221385
3840000000.0 -0.004358859085519464 -0.1480366379626869
3860000000.0 -0.014316413626179691 -0.14888779567814145
3880000000.0 -0.043704498778396265 -0.14211151082078677
3900000000.0 0.1447877953961212 -0.034528193486789115
3920000000.0 0.1218958902685787 -0.09989909620517089
3940000000.0 0.009744304866285613 0.166995782965943
3960000000.0 0.006351229608764778 0.17390453316361656
3980000000.0 0.167146393189789 0.046132603277186296
4000000000.0 0.06317007198393831 -0.1547960676615216
