!Created with skrf (http://scikit-rf.org).
# Hz S RI R 50.0 
!freq ReS11 ImS11
400000000.0 0.7051467430059216 0.502151573438523
420000000.0 0.836366956316686 -0.09994084061793561
440000000.0 0.7923699943306275 -0.07923228390975626
460000000.0 0.7405048884262108 -0.11095861066788774
480000000.0 -0.3545719867724912 -0.5910797057944427
500000000.0 0.287500323623212 0.5251367468147125
520000000.0 0.50493519283194 0.020650264494412044
540000000.0 -0.3780314032510189 -0.21751029557540916
560000000.0 0.09652438130168789 0.38210563602869857
580000000.0 -0.2967141707190062 0.20758929438586055
600000000.0 0.14355022874076862 -0.3250830015495802
620000000.0 -0.3308157305746485 0.12856401953927216
640000000.0 -0.3384411425175235 -0.2152271528136057
660000000.0 -0.28523299451647177 0.2857512539848682
680000000.0 -0.04717399965026368 -0.4396436199659732
700000000.0 -0.0394712543737813 0.4609935645931806
720000000.0 -0.3689490985550181 -0.29000046422838455
740000000.0 -0.18176849176186524 0.3999845001804477
760000000.0 -0.06939612655873384 0.40521516216854736
780000000.0 -0.24102356692766527 0.2864295765856559
800000000.0 -0.09725524335421405 0.3163495818322883
820000000.0 0.03760832484286402 0.2792635910526673
840000000.0 -0.20926837832916897 0.016359766620979224
860000000.0 -0.1677968071070599 -0.015967811096095314
880000000.0 0.0849013390452891 0.10831455589730225
900000000.0 0.019889979030065327 0.08768653620455338
920000000.0 0.051843614616009524 0.0031166828708582253
940000000.0 -0.011567502844921211 0.0347673010584173
960000000.0 -0.025016747764701506 -0.026882552688332503
980000000.0 -0.030340071430503726 0.05502650201258721
1000000000.0 0.03275825633498505 0.09536777868246409
1020000000.0 0.1249819394391821 -0.004809632186551772
1040000000.0 0.08106710903897149 0.10805890628711208
1060000000.0 0.15684152577938096 0.011073771754663805
1080000000.0 -0.17301718533245636 -0.05721024386334079
1100000000.0 0.10371733312230497 -0.18367065292393592
1120000000.0 0.23680686782922686 0.0028638091393035007
1140000000.0 -0.1957781832314765 0.16988149397486657
1160000000.0 0.0030063272455153646 0.2863294124712641
1180000000.0 -0.27314040197876654 0.15090843256386013
1200000000.0 0.30704957701022856 -0.1499755108749475
1220000000.0 -0.3133020333594286 0.20147090244711013
1240000000.0 0.3512314536209308 -0.17510958118286837
1260000000.0 -0.24391035192952681 -0.32200626371218344
1280000000.0 -0.3674715412880128 0.20580580698376097
1300000000.0 0.11785196293622462 0.4141225089724669
1320000000.0 0.32044639455505675 0.2964869623339566
1340000000.0 0.39400890818776657 0.20666478223871365
1360000000.0 0.41378798570368025 -0.1767203730046708
1380000000.0 -0.32267841063029795 -0.2990913888584576
1400000000.0 -0.2955163389918489 0.30589850476238756
1420000000.0 0.392585093100378 0.07806014571711285
1440000000.0 0.2899006332657993 -0.22593965506930058
1460000000.0 0.2570548617770553 -0.219235232877222
1480000000.0 -0.21357376524256683 -0.22855720035761937
1500000000.0 -0.18532910439712083 0.2144933891274797
1520000000.0 -0.2086760141984976 0.14113523531768726
1540000000.0 0.19247287655418935 -0.11656900679104365
1560000000.0 -0.06308402747063258 0.1876000490510515
1580000000.0 -0.02858837656007054 0.17177161966200485
1600000000.0 0.07060187838358246 -0.12026755146756667
1620000000.0 -0.05231400345042588 -0.09073511600074995
1640000000.0 0.010647218617759979 -0.07865615646637372
1660000000.0 -0.030319770624342567 -0.055167407900047906
1680000000.0 -0.012885240983611851 -0.035364381694241796
1700000000.0 0.015007694364127926 -0.003235506904664295
1720000000.0 -0.0036036919433916925 -0.004698046233298584
1740000000.0 0.016538355505186356 -0.013444351664988417
1760000000.0 -0.003217804913000244 0.03644336159484254
1780000000.0 0.05371317097337256 0.014900816479482316
1800000000.0 -0.06057759899300302 0.06331754559349771
1820000000.0 -0.11691538945927593 -0.02503377671308753
1840000000.0 -0.010823681500373366 0.16015626391023757
1860000000.0 -0.19253788029196714 0.04734418094941451
1880000000.0 0.12510828724377154 0.20523275470826763
1900000000.0 -0.18536870681892675 -0.2199483818821416
1920000000.0 0.30976194969402765 -0.10725299885918999
1940000000.0 -0.3251407051718984 0.13646643224071456
1960000000.0 0.2638087099242464 0.26719352457119583
1980000000.0 0.22232880240328118 -0.3351208675134768
2000000000.0 -0.41793199588631835 0.00276570762194176
2020000000.0 -0.21616654087378936 0.36452236326217463
2040000000.0 0.009796591840424985 0.43084615247769514
2060000000.0 0.2817599422334427 0.3283167896130625
2080000000.0 0.4311340347321085 -0.030826162929959315
2100000000.0 0.15527713916150143 -0.39867163912123604
2120000000.0 -0.20898290581633397 -0.3590451479440358
2140000000.0 -0.3395515777894415 -0.21027050857431254
2160000000.0 0.32579886397468144 -0.20903220429506614
2180000000.0 -0.010291952240734292 -0.3750235271189281
2200000000.0 -0.2929024879484035 -0.21165343412458984
2220000000.0 -0.3493907410170523 0.03442885749733854
2240000000.0 -0.24783379512528306 0.2375882530257489
2260000000.0 -0.06610010596082587 0.33594605323668353
2280000000.0 0.13636575103687718 0.3175737470505863
2300000000.0 0.3273302101405388 0.1428730239941871
2320000000.0 0.2505420516051581 -0.2916795085973823
2340000000.0 -0.3472259331245134 -0.2294365156892451
2360000000.0 -0.05817447241414478 0.45313606316037136
2380000000.0 0.11574787341892405 -0.49627869145509684
2400000000.0 0.16768929666423413 0.5374989133473229
2420000000.0 -0.5161338750014611 -0.3333860516889849
2440000000.0 0.6503975614461189 -0.11795964285524327
2460000000.0 -0.49263247099784385 0.4985760355356259
2480000000.0 0.15525017501471694 -0.7155077038670111
2500000000.0 -0.12956477676987704 0.7411719350703924
2520000000.0 0.2474868243510048 -0.7218189693535917
2540000000.0 -0.4950869982189746 0.5832043418576134
2560000000.0 0.7468984510307114 -0.1375971143095684
2580000000.0 -0.515955022714124 -0.5376759442617234
2600000000.0 -0.11714640091827418 0.7120715301012444
2620000000.0 0.567236660455226 -0.3975991622523501
2640000000.0 0.17780710652408377 -0.6325634883516693
2660000000.0 -0.5377369032054803 0.2973266903716849
2680000000.0 0.5656026165030159 -0.03901827860544443
2700000000.0 -0.46342065201409477 -0.23200109232778934
2720000000.0 0.36635431500233984 0.29230246212845706
2740000000.0 -0.12503542179624305 -0.398782669567715
2760000000.0 -0.26797881967591547 0.2667711225059482
2780000000.0 0.30108999379491463 -0.1730590226099292
2800000000.0 -0.25028177047575184 0.2057884113915011
2820000000.0 0.14826670394165836 -0.26893770313906373
2840000000.0 0.1840581876331155 0.23799542723070155
2860000000.0 -0.22043476164486447 0.19440169096636994
2880000000.0 -0.03883185296892248 -0.287714055140797
2900000000.0 -0.10790092253268956 0.26858723492279335
2920000000.0 0.28733629482789164 0.0662136421972339
2940000000.0 0.025694487892932896 -0.30510016088679187
2960000000.0 -0.31254941682252496 0.006573759258583062
2980000000.0 -0.20543625634111595 0.23779541289401887
3000000000.0 -0.3137556919940949 -0.018623052954055593
3020000000.0 -0.06362013503636425 -0.3131900589312859
3040000000.0 0.20720374574136394 -0.24210518044051646
3060000000.0 0.1606242936418919 0.266648404416165
3080000000.0 -0.18147474923273693 -0.23843661685458956
3100000000.0 -0.019262174790428604 0.28984613956426963
3120000000.0 0.16627644790808263 -0.23137230453231492
3140000000.0 -0.024412739039508375 0.27565635944652045
3160000000.0 -0.11148493913406025 -0.23932117079395815
3180000000.0 -0.12513970676740568 0.21487582827585597
3200000000.0 -0.19347364881518972 -0.12016516727860209
3220000000.0 -0.04276985728737574 -0.1974605348746351
3240000000.0 0.08421687950149516 -0.14844564095227183
3260000000.0 0.12826769788814302 -0.03728837493625621
3280000000.0 -0.034669931594749334 -0.09090149675978128
3300000000.0 -0.060269918601576336 0.03681309085750397
3320000000.0 -0.006125553236947564 -0.040967091635567214
3340000000.0 0.01706543864278737 0.014521449246345068
3360000000.0 0.0022583295021753524 0.005897432914127177
3380000000.0 -0.005184073571935366 -0.004757967881742677
3400000000.0 0.017546488865981 -0.007645698962650261
3420000000.0 -0.001644166874073427 0.03592760545498164
3440000000.0 -0.04860233569527551 0.007650765559999428
3460000000.0 -0.005009731236642254 0.0601388785528238
3480000000.0 0.010875271435814243 0.0700296555138161
3500000000.0 0.08136958092879829 0.03732166612038543
3520000000.0 0.09763029283373069 0.035995243100435004
3540000000.0 -0.1145793740693159 0.010504781333120317
3560000000.0 0.06155357565732085 -0.1082871176994329
3580000000.0 -0.13362687308674637 0.025552012991625392
3600000000.0 0.10382458490638136 -0.10780796339037438
3620000000.0 -0.05447970498192506 0.15406526190864475
3640000000.0 -0.1554216930956571 0.08796763771664676
3660000000.0 -0.12763472276737262 -0.13714901156743806
3680000000.0 -0.05322546145953398 -0.18748153197795464
3700000000.0 -0.1560932617809635 -0.11982327903036426
3720000000.0 -0.13360956670032165 -0.14274108656126813
3740000000.0 0.0712663010693119 -0.17156992075529454
3760000000.0 -0.1708642813020967 0.05659762919596106
3780000000.0 0.1733221651457314 -0.004143210516980941
3800000000.0 -0.14098579904297853 -0.08225258021068371
3820000000.0 -0.15376671273689646 -0.023989970870036417
3840000000.0 0.018503802255786087 -0.14819032212247185
3860000000.0 -0.011718181714774284 -0.14995132794002253
3880000000.0 -0.021192549828190622 -0.14758472459059208
3900000000.0 0.14779801490565508 -0.022986461961993776
3920000000.0 0.12663907932239638 -0.09398143332495394
3940000000.0 0.01334575824691936 0.16647352275071936
3960000000.0 0.010730066025111179 0.1732392030148878
3980000000.0 0.16995944608876104 0.03298185929184773
4000000000.0 0.05076538475143668 -0.1590687125636902
