!Created with skrf (http://scikit-rf.org).
# Hz S RI R 50.0 
!freq ReS11 ImS11
400000000.0 0.4846276517046259 0.7204257012137315
420000000.0 0.8445586124139794 0.023724795504354655
440000000.0 0.7970942011291233 -0.059500129347844516
460000000.0 0.7017252478359257 0.25186053234587596
480000000.0 -0.051879588243858174 -0.6861247430462273
500000000.0 0.14599424795714994 0.5864815034730414
520000000.0 0.32203407120029637 0.3974786755773841
540000000.0 -0.4194234556858293 -0.10780171864615357
560000000.0 0.143496347165759 0.3663328061061154
580000000.0 -0.34456921515128286 -0.0991158761826113
600000000.0 0.29224367082987457 -0.19866894333796872
620000000.0 -0.22959839008710456 -0.2698726545710219
640000000.0 0.401327534956176 -0.06268975548135666
660000000.0 0.059688884035391764 0.4060618818691101
680000000.0 0.07897493367730167 -0.43744587595318263
700000000.0 -0.047099542331564666 0.46192152234031203
720000000.0 -0.4625967345946854 0.050561913843726575
740000000.0 -0.3042972707333501 0.30242430098169604
760000000.0 -0.34910301933900095 -0.21523578797123372
780000000.0 -0.3148050277797947 0.21409234427943616
800000000.0 -0.20325456396564587 0.27150546661154734
820000000.0 0.22055663618620322 0.17328696486496561
840000000.0 -0.18467326789661015 0.0923855518475613
860000000.0 -0.16362053049570852 -0.03264754826799902
880000000.0 -0.06408976185711632 -0.12292905676289548
900000000.0 -0.09505468529873234 -0.008136730011100341
920000000.0 0.02386263798818204 0.05110226731190506
940000000.0 0.01343824409517133 -0.03558396294894548
960000000.0 0.03627114786965125 0.017714144872574746
980000000.0 -0.049992249983162054 -0.03840472224006642
1000000000.0 0.03772506805182534 0.09309696992524392
1020000000.0 0.09225420027173681 0.08371528687530244
1040000000.0 -0.13479482577137836 -0.027476311086872724
1060000000.0 0.09165680841893456 0.13510096846091038
1080000000.0 -0.17577014436025382 0.0695657026493565
1100000000.0 0.04441115748768554 -0.20891854239340557
1120000000.0 0.21397444711169877 -0.09834993528002757
1140000000.0 0.02666834425172711 0.2575921907884132
1160000000.0 -0.05173287634317364 0.274392679071017
1180000000.0 -0.28314189377760657 -0.10807746579730243
1200000000.0 0.2505828416027008 0.2262004373586095
1220000000.0 -0.09031301089489392 -0.3597383744858326
1240000000.0 0.2643093001043413 0.2945693712401622
1260000000.0 -0.23041495952543256 -0.3396002416752757
1280000000.0 -0.42466098454587564 0.029354152743573128
1300000000.0 0.26903629848638505 0.3405949333847521
1320000000.0 0.4335571651259539 0.05500073317223666
1340000000.0 0.3403874609821186 0.28052123701126547
1360000000.0 0.4347051383643192 -0.10264557800975758
1380000000.0 -0.3274772393660645 -0.2879811539710613
1400000000.0 -0.4150270643668753 -0.0682425643967858
1420000000.0 0.06321519812749146 0.39368000551023313
1440000000.0 0.3548428372591057 0.10558791492771008
1460000000.0 0.3137631837055293 0.14146489059142384
1480000000.0 0.06191551062358372 -0.3130780573063084
1500000000.0 -0.19036079853237395 0.2183652881354531
1520000000.0 -0.14765751069193586 0.21276046825939296
1540000000.0 0.22978644513402927 -0.009508445848785619
1560000000.0 0.19136124699950058 0.044035938604276424
1580000000.0 0.04991270773920055 0.16367481890126392
1600000000.0 0.1326017222538179 0.022596935707619246
1620000000.0 0.021506694200186003 -0.09580226746123663
1640000000.0 -0.07074829201973833 0.020052822903627726
1660000000.0 -0.018739103848075395 0.0568215755134853
1680000000.0 -0.03851700166128315 0.0012331766287034314
1700000000.0 -0.017443741512776313 0.005851811639303393
1720000000.0 -0.005914930522559622 -0.01025910379693341
1740000000.0 -0.008352872723646808 -0.01718068013389591
1760000000.0 -0.022343746803559664 -0.012750400976817443
1780000000.0 -0.028829207886253493 0.0296347467347126
1800000000.0 0.05548961256540137 -0.06394948932852544
1820000000.0 -0.08857471818343038 -0.08439908845173925
1840000000.0 0.11711460733112465 -0.11763580685865582
1860000000.0 -0.2006994218221661 0.061809320260966576
1880000000.0 0.23315702899701982 -0.08207809466948252
1900000000.0 -0.2805868467568635 -0.042730848616709616
1920000000.0 -0.13424493989231662 -0.29096353520117124
1940000000.0 -0.28989151110641936 0.17655447127016144
1960000000.0 -0.2880843764499599 0.2199324452500543
1980000000.0 0.37610718795624215 0.11808718595905447
2000000000.0 0.23053211425311548 -0.34574815885437266
2020000000.0 -0.03404846700860374 -0.4268942135137911
2040000000.0 -0.20264504702639966 0.38885636335315615
2060000000.0 0.2019961780900283 0.3921842667258159
2080000000.0 0.42304062105891366 0.11083765363908891
2100000000.0 -0.2292468916208421 -0.3593009263746625
2120000000.0 -0.20782018425902887 -0.3551570570090416
2140000000.0 0.124010033786016 -0.37500205962364913
2160000000.0 0.3663928038976508 -0.11187170300050367
2180000000.0 0.3689792161877091 -0.06020406851005667
2200000000.0 0.34001802395977115 -0.12849931710978377
2220000000.0 -0.3147293515334422 -0.15862099801078589
2240000000.0 -0.2689268816251433 -0.21699692202828208
2260000000.0 -0.31396475784962496 -0.1399367411677415
2280000000.0 0.10031201615221465 0.3327978205240421
2300000000.0 0.19573375280473349 0.29627879904030546
2320000000.0 0.23476056301231252 0.2945185088130192
2340000000.0 -0.08464350394017905 -0.400513368867746
2360000000.0 -0.4262824202849832 -0.13785280986196205
2380000000.0 0.14084244460783693 0.4777347787956188
2400000000.0 -0.46576860546484733 0.30763419728715136
2420000000.0 0.5007332298247175 -0.34873334464503697
2440000000.0 -0.5011463809447889 0.42535704402747204
2460000000.0 -0.6839398989153046 -0.15360091414853205
2480000000.0 0.6963827398363971 0.2266778619808172
2500000000.0 -0.40207940935866715 -0.6382594645750084
2520000000.0 0.7083720268850743 -0.29517151756460397
2540000000.0 -0.6090838462927846 -0.47247088350857097
2560000000.0 -0.35964069207366306 0.6779529748969196
2580000000.0 -0.05712149662633444 -0.7513612528251965
2600000000.0 -0.7313865453674099 -0.008963861501605698
2620000000.0 0.055132699934177944 0.7025988779379353
2640000000.0 0.4949399111375996 -0.44783105596441714
2660000000.0 -0.503530742694069 -0.37463051954513543
2680000000.0 -0.2139231039849432 0.540564558110269
2700000000.0 -0.30718641435111627 -0.43080955853750214
2720000000.0 -0.1491619156574409 0.45874760670140297
2740000000.0 0.42395965357855786 -0.08937044678137154
2760000000.0 -0.33581198313713445 0.19779753880822
2780000000.0 0.3555788018192581 0.052619205394874725
2800000000.0 -0.29688752388618317 -0.1560578784438601
2820000000.0 0.009507412758687479 -0.31256386373331596
2840000000.0 0.059777420053279094 0.2980772854938351
2860000000.0 -0.17334784881708348 -0.24062472954620243
2880000000.0 0.1046891519858536 -0.2734475775388347
2900000000.0 -0.28879209592584554 -0.04750547419677543
2920000000.0 -0.19606554838420118 0.22674184985467333
2940000000.0 0.07379669633580418 -0.30192630105801527
2960000000.0 -0.2512605263636266 -0.19342268759388354
2980000000.0 -0.30176029675297117 -0.09881786512568745
3000000000.0 -0.3160100242601189 0.02601756250132443
3020000000.0 0.25792395319075817 0.18824152511236578
3040000000.0 0.2626528678769874 0.18055965791008582
3060000000.0 0.139703162932548 0.280079772219841
3080000000.0 0.30146999168929145 -0.033631009936821
3100000000.0 -0.2292220607118683 0.18591098252217433
3120000000.0 -0.07663308776875413 -0.27722309040871046
3140000000.0 -0.27607293392964094 0.020545272030268874
3160000000.0 0.17595135349911806 -0.19646214234990073
3180000000.0 -0.23250463973953786 0.08960746990050246
3200000000.0 0.22659606133233717 -0.05588468594909826
3220000000.0 0.12567134950390452 -0.16463650298024307
3240000000.0 0.009977226511690538 -0.17414617489114842
3260000000.0 0.13696216365642264 0.044005540977288815
3280000000.0 -0.017620386924756936 0.09949694033440191
3300000000.0 0.05070625631824319 -0.04437076877742614
3320000000.0 0.030584217697818435 0.026902239922127272
3340000000.0 0.02018240732844319 0.008049336148776662
3360000000.0 -0.006278347638410747 0.003101735087550537
3380000000.0 -0.003143100482765432 -0.0018994929278227744
3400000000.0 0.014488309837858128 0.009346487232008592
3420000000.0 -0.00660054076255462 0.03324059251381985
3440000000.0 0.02743974437293209 -0.0393624346952258
3460000000.0 0.06270717950898291 -0.0066811889608270674
3480000000.0 -0.05222707710603182 0.055461481594957236
3500000000.0 -0.002231180089131173 0.08764929936976446
3520000000.0 -0.008741113085751312 0.10223206333425322
3540000000.0 -0.08370290231365828 -0.07948753970010748
3560000000.0 0.05166360009703346 0.10954134343741138
3580000000.0 0.0701078188045424 -0.11420865484891489
3600000000.0 0.09827125607804084 0.11558179400818107
3620000000.0 0.03854563783252192 -0.15714461980900246
3640000000.0 -0.014410355357115767 -0.17927191658385436
3660000000.0 0.0032985293033927308 -0.1909788223319007
3680000000.0 0.16758039511639825 -0.09889735578128585
3700000000.0 -0.07233068267736137 -0.18043764283308514
3720000000.0 -0.020925498690290277 -0.18937232569440718
3740000000.0 0.17067205113086292 0.06158877214105451
3760000000.0 0.06894332764584929 -0.16250110754457572
3780000000.0 -0.12277690560226917 0.1207137305543003
3800000000.0 0.15568007117161703 -0.060777369069710124
3820000000.0 -0.1415388228827635 -0.07046571336994696
3840000000.0 -0.13223673170560926 -0.06707751073188323
3860000000.0 -0.03841562993832649 -0.13836550338241294
3880000000.0 0.13797154709656279 -0.03967815451515348
3900000000.0 -0.06197517518219691 0.13347365187694335
3920000000.0 -0.022264577820306015 0.15053057347404283
3940000000.0 -0.09375448998214815 -0.1380024550325574
3960000000.0 -0.17357189633702402 0.02211643279027931
3980000000.0 -0.07630344852795908 0.15560952596973485
4000000000.0 0.13758816033139895 -0.08934375300059118
