!Created with skrf (http://scikit-rf.org).
# Hz S RI R 50.0 
!freq ReS11 ImS11
400000000.0 0.4733917554860008 0.7297824564355085
420000000.0 0.8440636943891214 -0.023900054387739966
440000000.0 0.7967380891354258 -0.06742649238816863
460000000.0 0.7022366968521908 0.2495190866394093
480000000.0 -0.05892789993187794 -0.6851930592888302
500000000.0 0.15519965318420878 0.5840531409681096
520000000.0 0.3304688775443619 0.3904209567741711
540000000.0 -0.41904218404694377 -0.10862180318894478
560000000.0 0.1279288016370865 0.3720764766091302
580000000.0 -0.33987523315134305 -0.11573315215545936
600000000.0 0.30592142430367253 -0.17747997879330654
620000000.0 -0.22763268141027324 -0.27107114400340143
640000000.0 0.40096405646902566 -0.061840198414739395
660000000.0 0.044894877237894495 0.4077360084948964
680000000.0 0.09801736169444818 -0.4339372582798814
700000000.0 -0.05676506056120339 0.4612540855547949
720000000.0 -0.46491152834409766 0.026701276768733878
740000000.0 -0.310751695842073 0.2954702270047069
760000000.0 -0.35085991674099737 -0.21281496896268057
780000000.0 -0.3178023616435351 0.20990327243692197
800000000.0 -0.22233586310065795 0.25601876855115985
820000000.0 0.2060727745167942 0.18973050125312754
840000000.0 -0.1870170551103086 0.08696405732831293
860000000.0 -0.16463469083555543 -0.027302790408765643
880000000.0 -0.06143479900661484 -0.12446925589867538
900000000.0 -0.09422406287623764 -0.01079609526518054
920000000.0 0.034788451327051835 0.043961558072692704
940000000.0 -0.0009464510036530493 -0.03754728972181417
960000000.0 0.035323207670053675 -0.01980391547124119
980000000.0 -0.056952683652085744 -0.028425707679781805
1000000000.0 0.013439076790376522 0.10002365919594035
1020000000.0 0.08680144698848877 0.08952298730818146
1040000000.0 -0.13796694629317655 -0.0027718018576660996
1060000000.0 0.11032929661809818 0.12093899548162972
1080000000.0 -0.17064503422887017 0.0811398330010698
1100000000.0 0.042142011169606364 -0.2089902125779759
1120000000.0 0.196754652303712 -0.12855436502774936
1140000000.0 0.02000801504370622 0.2579114700169297
1160000000.0 -0.04002467875148884 0.27681817790302354
1180000000.0 -0.2731954659081969 -0.13196702294055376
1200000000.0 0.2344868451413028 0.24320937689821287
1220000000.0 -0.06863932992146816 -0.3639845472421659
1240000000.0 0.2698008668956127 0.28879431260048255
1260000000.0 -0.23079426264373742 -0.3390606805737626
1280000000.0 -0.42569518732431055 0.003271711885205825
1300000000.0 0.2558433802410364 0.3501662067014107
1320000000.0 0.43098715668759563 0.06931733624019412
1340000000.0 0.3460664486776707 0.2728100493066473
1360000000.0 0.4309595312185643 -0.116197524087972
1380000000.0 -0.33211337416248027 -0.2824402834463788
1400000000.0 -0.4136924970252909 -0.07634226441579844
1420000000.0 0.06863555124443112 0.39266182148629253
1440000000.0 0.35059673917823453 0.11905452782731205
1460000000.0 0.32072118172062103 0.12584431797174814
1480000000.0 0.061821127802210454 -0.31337255175404294
1500000000.0 -0.15800055852853956 0.2427665125761473
1520000000.0 -0.1378742077085866 0.21882385186647257
1540000000.0 0.2288996559036488 -0.014521702933045291
1560000000.0 0.18429324340140302 0.06603573351977741
1580000000.0 0.05239049189255477 0.16223440591098118
1600000000.0 0.12313228110278328 0.05392423499923712
1620000000.0 0.054881785325138044 -0.0814258566858496
1640000000.0 -0.07328467875661965 0.008901813462926263
1660000000.0 -0.03970398620414557 0.04513696886225561
1680000000.0 -0.037754831003446024 -0.006973457745480369
1700000000.0 0.015950670285891505 -0.008406565672190513
1720000000.0 -0.006640295622519978 -0.009738737510721728
1740000000.0 -0.015495266454360694 -0.010462823267947178
1760000000.0 -0.025223543832745603 0.005405241366224614
1780000000.0 -0.029409606369708 0.029104428279613234
1800000000.0 0.052658091503689594 -0.06674335406117105
1820000000.0 -0.05668383773802068 -0.10837853386949868
1840000000.0 0.13121122680410952 -0.10224452081029005
1860000000.0 -0.19991975737264486 0.06467520898805779
1880000000.0 0.2369003594846343 -0.07125632205186776
1900000000.0 -0.2818733783911719 -0.0366027473948745
1920000000.0 -0.12494690758208536 -0.29515085465902036
1940000000.0 -0.28784440332434863 0.17966203382760787
1960000000.0 -0.28083678983133403 0.22934007330387385
1980000000.0 0.3790368214655719 0.10905130429247128
2000000000.0 0.2081416325486477 -0.36008908193982586
2020000000.0 -0.06123543314179253 -0.42427959188195635
2040000000.0 -0.23702643749692184 0.3700729990639144
2060000000.0 0.2035054583992408 0.3923584440345066
2080000000.0 0.42591610772692506 0.09938170123567303
2100000000.0 -0.2283182385156185 -0.36034652715901677
2120000000.0 -0.18952872725767722 -0.36537682230155744
2140000000.0 0.1722142663002289 -0.35545033007537896
2160000000.0 0.37528893156291593 -0.07641490874600586
2180000000.0 0.37314803213692344 0.002093156673195298
2200000000.0 0.3474388927685346 -0.10654834973056883
2220000000.0 -0.3027102586990626 -0.1815394104233767
2240000000.0 -0.2626865138819459 -0.2244507626228238
2260000000.0 -0.30571256447161027 -0.1575044617992895
2280000000.0 0.08418690199452725 0.3375696125850003
2300000000.0 0.1618324299151295 0.31591168237450273
2320000000.0 0.21609834931340924 0.3086656354255525
2340000000.0 -0.04820344702443671 -0.4067670916276432
2360000000.0 -0.42118074656151044 -0.15381164843524492
2380000000.0 0.12375338090051827 0.48286425294124874
2400000000.0 -0.48477584231338666 0.2772867462070704
2420000000.0 0.5168132152595754 -0.32506381395423484
2440000000.0 -0.5155918170588492 0.4075543758182813
2460000000.0 -0.6900910550597229 -0.12454538959700583
2480000000.0 0.701156765107098 0.2137030264741555
2500000000.0 -0.3827612301147369 -0.650309292393585
2520000000.0 0.7303066462186241 -0.2347397482414381
2540000000.0 -0.5915507701503724 -0.49378236993104974
2560000000.0 -0.3953582143408287 0.6574462319038554
2580000000.0 -0.00588934832521904 -0.7528156472408126
2600000000.0 -0.7315056786399154 0.008255194215536539
2620000000.0 0.00904650244394589 0.7052087098942409
2640000000.0 0.4983250486808461 -0.44415879911659883
2660000000.0 -0.4858602583461058 -0.396410504410687
2680000000.0 -0.1801106601400362 0.5525808570711478
2700000000.0 -0.2753843977841167 -0.45230663543754257
2720000000.0 -0.14647535794001937 0.4599242113802969
2740000000.0 0.4203853522833766 -0.10647875161459912
2760000000.0 -0.34250346792121783 0.18730183371710213
2780000000.0 0.3526189391779804 0.07256866212020657
2800000000.0 -0.29745454583397446 -0.15522618968444216
2820000000.0 0.014093195597123577 -0.31268341458877164
2840000000.0 0.0416577583441748 0.3010781029082917
2860000000.0 -0.15043684008424918 -0.2556171312650784
2880000000.0 0.1180090786982231 -0.26801528145975045
2900000000.0 -0.28507312056770434 -0.06432640515951785
2920000000.0 -0.19520149476892543 0.22684909018683821
2940000000.0 0.05714977744461475 -0.30536587698529305
2960000000.0 -0.2600510533879449 -0.18154008391476867
2980000000.0 -0.29641767255839413 -0.11617939799339669
3000000000.0 -0.3167248178936827 -0.003511387920690446
3020000000.0 0.2393009095720703 0.211809225861627
3040000000.0 0.2414588150314862 0.20986029316474603
3060000000.0 0.07573212301846814 0.3036820673460904
3080000000.0 0.30214070602585236 -0.025506370639717887
3100000000.0 -0.23979381616404943 0.1719854747676153
3120000000.0 -0.09085828789517239 -0.27267871889168305
3140000000.0 -0.27216335130829444 0.04596228208253891
3160000000.0 0.14437024940799045 -0.21945886821467883
3180000000.0 -0.22658678221943712 0.10066728199881203
3200000000.0 0.2302610514140958 -0.03700447707168925
3220000000.0 0.14820031686188131 -0.14453892071710114
3240000000.0 0.027202073041472884 -0.1720200405100886
3260000000.0 0.12569502440301336 0.0689198872117865
3280000000.0 -0.037671432204424316 0.09344583721812595
3300000000.0 0.0008397165920733106 -0.06703405023527974
3320000000.0 0.03559260694871866 -0.020805701968929793
3340000000.0 -0.02199017565615874 -0.00033341233701981716
3360000000.0 0.006760753068010814 -0.002912158560498021
3380000000.0 -0.00035563573823192636 0.0034277600489854847
3400000000.0 -0.013055855573284312 0.010762419500319842
3420000000.0 -0.003107471399707446 0.03422095103528635
3440000000.0 0.04411192513647407 0.018925725811607747
3460000000.0 0.06026154286571548 0.017934933097719798
3480000000.0 -0.06556478500287734 0.03825574043360046
3500000000.0 0.063012571029087 0.06071527777933836
3520000000.0 0.031556344472942637 0.0969845805080779
3540000000.0 -0.1123872956628859 -0.025410949053765536
3560000000.0 0.07803946268721741 0.0917093485394749
3580000000.0 0.06624358101057443 -0.11665895637045356
3600000000.0 0.09443394144224887 0.1174915614938716
3620000000.0 0.04507622806306625 -0.1553060520503667
3640000000.0 -0.005926657654905559 -0.17913965370914886
3660000000.0 -0.007480134283626793 -0.19020563862105117
3680000000.0 0.1538654521000249 -0.11867443842675644
3700000000.0 -0.11882000968171685 -0.15394601161229032
3720000000.0 -0.0621787192049685 -0.17990846221662124
3740000000.0 0.17750958392840147 0.039382364212737
3760000000.0 0.07019507208878266 -0.16206691662440187
3780000000.0 -0.13628719772747847 0.10654487620125569
3800000000.0 0.15058418165151233 -0.07355477482120468
3820000000.0 -0.1387013019333357 -0.07784490379045692
3840000000.0 -0.13478879341801894 -0.062163159274637884
3860000000.0 -0.03234535810772445 -0.14048544369921198
3880000000.0 0.13470403859483748 -0.05013065918655657
3900000000.0 -0.04823964011587575 0.13910008649341837
3920000000.0 -0.036434622729609165 0.14817816003916973
3940000000.0 -0.09537643446293814 -0.13755276261967506
3960000000.0 -0.1720446973749039 -0.03794107553355607
3980000000.0 -0.09692497745959856 0.1447866455946747
4000000000.0 0.16371459940111477 -0.02592629048368308
