!Created with skrf (http://scikit-rf.org).
# Hz S RI R 50.0 
!freq ReS11 ImS11
400000000.0 0.7035521389787556 0.5055439458094686
420000000.0 0.8371045301552488 -0.09558089534139425
440000000.0 0.7929275559870037 -0.0743108414191432
460000000.0 0.7457704530736586 -0.0709974993462324
480000000.0 -0.36758059154889106 -0.5827587533799202
500000000.0 0.2492487336666499 0.5448844335627765
520000000.0 0.5053052562814044 -0.01870189837806864
540000000.0 -0.40899444287594705 -0.14959784327062334
560000000.0 0.148318475415437 0.3644149630895142
580000000.0 -0.2960313672397368 0.20692573311336276
600000000.0 0.15413278816447834 -0.32006532858827524
620000000.0 -0.35189964481666874 0.05358543681384062
640000000.0 -0.29048685436673655 -0.2775886058309628
660000000.0 -0.33128934561575996 0.23159116785625058
680000000.0 -0.04448708261278982 -0.4402468484527036
700000000.0 -0.026746541538240225 0.4613547162918614
720000000.0 -0.349294329053666 -0.3120873332533587
740000000.0 -0.19433200536888873 0.3925332154579439
760000000.0 -0.10324453725267985 0.3977707535647821
780000000.0 -0.2398953952704877 0.28760024202607554
800000000.0 -0.051267245695794064 0.32658552846128486
820000000.0 0.054882509715893556 0.2760937595959738
840000000.0 -0.18697137327618338 0.09563349775429532
860000000.0 -0.1679308268888508 0.007686198412262082
880000000.0 0.05845287122637558 0.12502356372797702
900000000.0 0.0160615446192007 0.08933515577766786
920000000.0 0.04053332749231323 -0.03255000492727833
940000000.0 -0.019568548832610187 0.030422192637831334
960000000.0 -0.03558323284097732 0.0085907669185673
980000000.0 -0.03303761557571477 0.05379624284207702
1000000000.0 0.016365612212842766 0.09994470122832949
1020000000.0 0.1251356907223799 0.0037863485637878746
1040000000.0 0.06355574398875517 0.1190490907822166
1060000000.0 0.15734421047504962 -0.0017055450065930591
1080000000.0 -0.17795783829164388 -0.03858828530041396
1100000000.0 0.09941913381446574 -0.18586512000084815
1120000000.0 0.2358195258004638 0.018311920757290226
1140000000.0 -0.20540822063674033 0.15846789907802195
1160000000.0 -0.009910585381319758 0.2867141355394616
1180000000.0 -0.2752054084712322 0.14834276192409682
1200000000.0 0.30402847595735216 -0.15571772510026194
1220000000.0 -0.3228640683784497 0.18501784919163872
1240000000.0 0.37000882473189967 -0.13115745622065017
1260000000.0 -0.20352670784753965 -0.3491741028786572
1280000000.0 -0.37337759419002897 0.19548686672217933
1300000000.0 0.11241987036835024 0.41568499688360805
1320000000.0 0.29713223162253144 0.31949852834040826
1340000000.0 0.397431248811902 0.19928851405531922
1360000000.0 0.4151870390883032 -0.17273125120291588
1380000000.0 -0.32020706385123254 -0.3015298170080124
1400000000.0 -0.29277101645136505 0.308512982554086
1420000000.0 0.3939434576873109 0.07263558183394049
1440000000.0 0.28179358590650483 -0.23613314454163323
1460000000.0 0.252500136845091 -0.2250219207480433
1480000000.0 -0.20649189590410869 -0.2353176812067174
1500000000.0 -0.18365788977053918 0.21664675604576433
1520000000.0 -0.21557410830864443 0.13159335283179907
1540000000.0 0.2037950196718329 -0.09665608091055831
1560000000.0 -0.07108905124365174 0.18542363418151567
1580000000.0 -0.010038242192589164 0.17425860893101242
1600000000.0 0.07680720334547349 -0.11617301745963643
1620000000.0 -0.06309865709348114 -0.08376269197814723
1640000000.0 0.042340843297675956 -0.06671851100916747
1660000000.0 -0.00035181104283243557 -0.06244394221035599
1680000000.0 -0.004445985923535789 -0.03714391374401294
1700000000.0 0.01488533126002356 -0.0012430084276988734
1720000000.0 -0.0020067855481322354 -0.005133467354459626
1740000000.0 -0.0011664918246435832 0.021331791154860565
1760000000.0 -0.036380876651148766 0.0025803361488021875
1780000000.0 0.03942875208012873 0.03912184891003957
1800000000.0 -0.05858703601149152 0.06577441180667579
1820000000.0 -0.10808448374562732 -0.04959589956379239
1840000000.0 -0.0462267253567847 0.15316845269690957
1860000000.0 -0.19590791015995085 0.02856980003594
1880000000.0 0.09555163464483121 0.21994159531193597
1900000000.0 -0.18053186461131673 -0.2236741644347016
1920000000.0 0.30599686683650723 -0.1167042441640944
1940000000.0 -0.31138799246122295 0.1648271876290369
1960000000.0 0.28226763513256276 0.24708673380832596
1980000000.0 0.19625925651837534 -0.3507267154004255
2000000000.0 -0.41668713430771653 0.03379452861366975
2020000000.0 -0.20201057458369587 0.37293405373486027
2040000000.0 0.013881082370053876 0.431383596986018
2060000000.0 0.30664754985629566 0.30607384861376435
2080000000.0 0.432671387720566 -0.01837014017816371
2100000000.0 0.181040367172724 -0.38836220627715173
2120000000.0 -0.14548727990546786 -0.3903166839844904
2140000000.0 -0.30357543969970685 -0.26088247383707475
2160000000.0 0.34420464638227344 -0.17890051794116824
2180000000.0 0.04593292261812421 -0.37273053179230714
2200000000.0 -0.2524071421376554 -0.2592126401106764
2220000000.0 -0.350939732063074 -0.01721116159047255
2240000000.0 -0.2985003522012855 0.16993460459086457
2260000000.0 -0.12388816522610285 0.31875331832906945
2280000000.0 0.10005020671230602 0.33037740461874815
2300000000.0 0.3084126325471337 0.17953973340741147
2320000000.0 0.27212081653025066 -0.2709243461291858
2340000000.0 -0.3487492960110362 -0.22644860817129972
2360000000.0 -0.04454309812293582 0.45450637628983986
2380000000.0 0.10721080263319378 -0.4977364153064285
2400000000.0 0.20061576083520313 0.5263740649756391
2420000000.0 -0.5216989838771886 -0.3255675544345655
2440000000.0 0.6415960150742468 -0.16088978103878326
2460000000.0 -0.46728697995320423 0.5233597630689272
2480000000.0 0.13133147462700132 -0.7209085014847008
2500000000.0 -0.12959396494441147 0.7419215335927467
2520000000.0 0.2603876990651153 -0.7178514936566324
2540000000.0 -0.48759434198648677 0.589759920269349
2560000000.0 0.7521393604642637 -0.10853880444044417
2580000000.0 -0.5081663012815867 -0.5453095889439377
2600000000.0 -0.1492354421918799 0.7063280978566501
2620000000.0 0.6038957366626624 -0.33967396898434127
2640000000.0 0.26198001347770744 -0.6024256428543409
2660000000.0 -0.5536685772546887 0.266446504788354
2680000000.0 0.5668959095639601 -0.007533331281419122
2700000000.0 -0.45269380612768234 -0.2518989899221002
2720000000.0 0.36190400017183294 0.2972179259354212
2740000000.0 -0.13067500731333748 -0.3965687775822716
2760000000.0 -0.2802514868679621 0.25332039103158743
2780000000.0 0.3024428580134452 -0.16994584095973772
2800000000.0 -0.24534377303234486 0.21170440372619578
2820000000.0 0.14266742953740563 -0.2721368055793413
2840000000.0 0.1908279338690566 0.2327479094810198
2860000000.0 -0.22865572621046534 0.18521163664984658
2880000000.0 -0.048763765700922994 -0.2862494895754077
2900000000.0 -0.09740899065811764 0.272624019835051
2920000000.0 0.2865798329713868 0.07033295842713522
2940000000.0 0.036158801718377674 -0.3043170696274323
2960000000.0 -0.3129463319630372 0.011214598446917336
2980000000.0 -0.22450525487674552 0.22061569957662908
3000000000.0 -0.3114947337108602 -0.04454499119763877
3020000000.0 -0.009312658742814466 -0.3200117623711971
3040000000.0 0.2280288074929704 -0.22315736851462856
3060000000.0 0.14627627195888038 0.27491842163763297
3080000000.0 -0.1498082371585234 -0.25979479775475683
3100000000.0 -0.035130053957836034 0.28856827532090223
3120000000.0 0.2011341483124258 -0.20208132909208293
3140000000.0 -0.07468418720765872 0.2663525309976179
3160000000.0 -0.061481164944505465 -0.2565740553701555
3180000000.0 -0.16719144777115355 0.1835113039284812
3200000000.0 -0.17219342461239506 -0.14859922020752514
3220000000.0 -0.025655276765136178 -0.19962565311006783
3240000000.0 0.09157858455991609 -0.14279671276428912
3260000000.0 0.1311280934477136 -0.02127860310658199
3280000000.0 -0.030797556355810884 -0.09139187429520947
3300000000.0 -0.06089135193870072 0.03451494140873053
3320000000.0 -0.009391372820484419 -0.03950898006802193
3340000000.0 0.019899862068389357 -0.008456698684881981
3360000000.0 0.0006153521547885085 0.005402312737283921
3380000000.0 0.005540775696320394 -0.005556380933862841
3400000000.0 -0.015120224724615168 0.0127646495202728
3420000000.0 -0.03659451967526142 -0.0018247844272913764
3440000000.0 -0.03643347203959747 -0.033786393425165276
3460000000.0 -0.05930725640168592 0.013196281684886742
3480000000.0 -0.0035121491960053625 0.07171540124865593
3500000000.0 0.04150989663138039 0.07980562806585798
3520000000.0 0.056356545127705965 0.08733890593983105
3540000000.0 -0.11199879340701681 -0.02825865002798175
3560000000.0 0.11451572106278812 -0.04796803350144014
3580000000.0 -0.12940125692733595 -0.041115773448642534
3600000000.0 0.1352975657528062 -0.06397546343297968
3620000000.0 -0.10415176085966094 0.12535511992770096
3640000000.0 -0.17232270346165465 0.044039038969433834
3660000000.0 -0.0834236328347094 -0.16716775627240255
3680000000.0 0.0006350856028603031 -0.194246791699137
3700000000.0 -0.12259353985655268 -0.15306707848351575
3720000000.0 -0.10245532316966853 -0.16523460610078441
3740000000.0 0.09897897780565877 -0.15624265243985513
3760000000.0 -0.17512163286026616 0.03754833539614687
3780000000.0 0.1723594843900684 0.01294316282490348
3800000000.0 -0.13434176548604249 -0.091196488030915
3820000000.0 -0.150090929295329 -0.03794870098995273
3840000000.0 0.02687551744490745 -0.14635814434963418
3860000000.0 -0.006685030565947521 -0.14941756171247003
3880000000.0 -0.01904349925161258 -0.14722257889926474
3900000000.0 0.1459509416176957 -0.029917410639407484
3920000000.0 0.11674781034953169 -0.10506875409329426
3940000000.0 0.02871294754803913 0.16356228705803944
3960000000.0 0.03326521367423839 0.16950503116349133
3980000000.0 0.17224422198805955 -0.008997659269320077
4000000000.0 -0.013259317388099089 -0.1661303070463887
