! Created with skrf (http://scikit-rf.org).
# Hz S RI R 50.0 
!freq ReS11 ImS11
400000000.0 0.14541486092304096 0.8591446503663892
420000000.0 0.6119015771393822 0.6057635694068909
440000000.0 0.7981788438109565 -0.21565830897731283
460000000.0 0.1354430859646154 -0.7778219202327209
480000000.0 0.5271168980919605 -0.4725403945608691
500000000.0 0.2591822395389603 -0.5002418812401749
520000000.0 0.23726674257107971 -0.42417237001767105
540000000.0 0.42625370148195524 0.03408845724910417
560000000.0 -0.32262360353470854 -0.1423509751102235
580000000.0 -0.2836389657391967 0.17394143655150834
600000000.0 0.2674236513501352 0.1914591681402924
620000000.0 -0.14813528421110989 -0.3167953844773771
640000000.0 -0.3209328725346909 -0.20727294110620376
660000000.0 -0.3904683929379719 0.08183223576800759
680000000.0 0.09723228665116139 -0.41732842037561474
700000000.0 0.05971033265449044 0.44486823472643594
720000000.0 0.17619215159442608 -0.4179044313582533
740000000.0 0.3910793918073772 -0.21062649893359955
760000000.0 -0.4143937289033273 0.05721772058978572
780000000.0 0.1243336345535592 -0.3613031797992827
800000000.0 -0.0011034419629103107 0.3484971190292989
820000000.0 0.06167050030121173 0.2846660601304696
840000000.0 0.22628023723943155 -0.05754611285786912
860000000.0 0.00878926165594414 0.19717302335962605
880000000.0 -0.1257321040042338 -0.05518012711791343
900000000.0 -0.05585890375552771 0.046512899548659815
920000000.0 -0.039714532754863266 0.01234424289753882
940000000.0 0.004856607827048193 0.034619414859631166
960000000.0 -0.046805119699365086 0.007020460876647808
980000000.0 0.04358373670532391 -0.029410286591173077
1000000000.0 0.02875973909210044 0.0518266767351462
1020000000.0 0.0721055408258904 0.011134506955328086
1040000000.0 -0.02007356985830988 0.07914740414653108
1060000000.0 0.11855196933260712 -0.02283702798893333
1080000000.0 -0.08643810204458773 -0.10794051554394052
1100000000.0 -0.038260589990817724 -0.1604123410600976
1120000000.0 -0.19568853143372192 -0.005516166042617292
1140000000.0 0.20690577767835427 0.12395026629053027
1160000000.0 0.2197961010999605 -0.18388944585463865
1180000000.0 -0.14823167749443592 -0.2962309081915286
1200000000.0 -0.33430988706765347 -0.15529119711101783
1220000000.0 -0.012235761408918765 -0.3975223717980677
1240000000.0 0.40814997174310397 0.0948280516892848
1260000000.0 -0.4389814235825511 0.029813580359067147
1280000000.0 0.4413816428159318 -0.07929224869288232
1300000000.0 -0.41627853484956046 -0.16450020979268182
1320000000.0 -0.13723390643231437 0.41227040686767286
1340000000.0 -0.3572816159369447 0.21927743588143192
1360000000.0 -0.1399040247138135 -0.3831061248034204
1380000000.0 0.21697119067290482 -0.34532219049479573
1400000000.0 0.1456206898402353 -0.3691728602060361
1420000000.0 0.12216028443674122 -0.36742717178518564
1440000000.0 -0.15647240438865984 -0.3380102600757991
1460000000.0 -0.3538084484246195 0.003749634955641971
1480000000.0 0.11524788227327884 0.31384566927428276
1500000000.0 -0.11082926163087709 -0.28824564047059087
1520000000.0 -0.15686692923693596 0.23578494352050255
1540000000.0 -0.2060631981390957 0.14830374896670726
1560000000.0 0.09722714940460175 0.19252045506406543
1580000000.0 0.17788584611774752 0.031211767551063956
1600000000.0 -0.11667688195576174 0.08910156226157558
1620000000.0 -0.007102563399325728 -0.10511932070983133
1640000000.0 -0.0764443013383988 0.016203566109105227
1660000000.0 -0.033219508863668507 0.041589572980779345
1680000000.0 -0.02365096536002036 -0.0027293684921981445
1700000000.0 0.012838542890608875 0.003575932109958268
1720000000.0 -0.027608893119108475 -0.014497853011334418
1740000000.0 0.0448472431303886 -0.02849920414015624
1760000000.0 0.01053014036278867 -0.06815662151194878
1780000000.0 -0.03136739445000913 -0.08252212287997679
1800000000.0 0.11396382908399272 -0.004967576644274
1820000000.0 0.06513466867456318 -0.10873894718655736
1840000000.0 0.12966479234272396 0.07708156991427093
1860000000.0 -0.045405474554187614 0.16750889799598326
1880000000.0 -0.09099069661623274 -0.1874397058414921
1900000000.0 0.11180793379420163 -0.22451229113626586
1920000000.0 -0.2835633615365644 -0.08701145513887425
1940000000.0 0.010664814082660769 0.3429845545388953
1960000000.0 0.11415936906716243 -0.3663273480844119
1980000000.0 -0.061865667150560716 0.4078320048530894
2000000000.0 0.2986192233918799 -0.31829290555330475
2020000000.0 -0.3731076457377461 0.25524487169577337
2040000000.0 0.42953449096498225 0.15003518031393054
2060000000.0 -0.17662021178311532 -0.41534459885102093
2080000000.0 -0.3885193070084875 0.20038478777819213
2100000000.0 -0.1843507643526401 0.37753232154114136
2120000000.0 -0.25401807713682273 0.30917572032070756
2140000000.0 -0.36989869197704267 0.09718587179315531
2160000000.0 0.2646822623082208 -0.2536746915325245
2180000000.0 0.35063058425312327 0.058955811827337175
2200000000.0 0.20928185066652585 0.2795345864746235
2220000000.0 0.32840368490126537 0.12959287129922167
2240000000.0 0.055905546116699324 -0.3489547964316304
2260000000.0 -0.3556518587758983 -0.02446405794116692
2280000000.0 0.14327824510414106 0.33002083833976575
2300000000.0 0.26885402810680176 -0.2554591887922611
2320000000.0 -0.3730879834236359 -0.10790648038934117
2340000000.0 -0.15638744351577516 0.3836828845450449
2360000000.0 0.44960508379869 0.016992354175520696
2380000000.0 -0.33609178804736933 -0.36583619208391244
2400000000.0 0.15247911341359657 0.5267682902468789
2420000000.0 -0.2825507876629716 -0.5323520857402229
2440000000.0 0.5983179731267766 0.26565390195648436
2460000000.0 -0.6767479873738487 0.16809322055196885
2480000000.0 0.5093335062244805 -0.5233570765622106
2500000000.0 -0.4638999314598063 0.5926021582012099
2520000000.0 0.5659025760445227 -0.513309288303628
2540000000.0 -0.7306841810817893 0.23117191095606057
2560000000.0 0.7084252673676312 0.2790316702165871
2580000000.0 -0.13964138946171284 -0.7338406560278007
2600000000.0 -0.46276860389756985 0.5545607953814711
2620000000.0 0.6911035538560039 0.034107097107713175
2640000000.0 0.6105233702048458 -0.23666235539665958
2660000000.0 -0.48010431036756845 -0.37896294318655815
2680000000.0 0.020183994507016967 0.5673801446430056
2700000000.0 0.2599944152680189 -0.4547203547849147
2720000000.0 -0.29336092235935807 0.37597732722799027
2740000000.0 0.2158267129770687 -0.3752830627333016
2760000000.0 -0.05887360984974198 0.3863282818230926
2780000000.0 -0.21309287440330146 -0.2849224758359627
2800000000.0 0.3160155917110734 0.07359834532826884
2820000000.0 -0.28601063127403353 0.09638494082671716
2840000000.0 0.26537452202880707 -0.1120130531373254
2860000000.0 -0.2645418132680907 0.10398999688659977
2880000000.0 0.271716808496046 -0.08490109681234423
2900000000.0 -0.2691545648547319 -0.10926902612332064
2920000000.0 0.08034122634062608 0.2916793619172402
2940000000.0 0.09530694160114643 -0.2978692534862817
2960000000.0 -0.3008920859200854 -0.10716883021054169
2980000000.0 -0.30568446364162416 0.11260003223769617
3000000000.0 -0.2903974731468987 0.15275926965523573
3020000000.0 -0.32606993642694837 0.0065643198229492885
3040000000.0 0.06194815394563795 -0.313931429475099
3060000000.0 0.18374873559461105 0.2544693793633148
3080000000.0 -0.17261717690179498 -0.24985686333747148
3100000000.0 0.12157848788039546 0.26874054252768187
3120000000.0 0.08526334302716668 -0.27149973130114086
3140000000.0 -0.18012794350253608 0.2074538713207594
3160000000.0 0.2538171263348851 -0.06707115349345513
3180000000.0 -0.02897386839642192 -0.2479176833773777
3200000000.0 0.21237563891380462 0.09482125025475191
3220000000.0 -0.04998350511753472 0.2030000710466511
3240000000.0 -0.144970267476194 0.1122978445901491
3260000000.0 -0.15104055422286375 0.003489004888974394
3280000000.0 -0.10227177682138786 0.054438637212025444
3300000000.0 -0.07106164323926549 0.03994450021083484
3320000000.0 0.045216326266481546 0.011680129892957006
3340000000.0 -0.009436812037683904 -0.014266850144107168
3360000000.0 -0.006210779368569469 -0.006890154380881698
3380000000.0 0.021264566593231615 -0.008141996276121248
3400000000.0 -0.030320866927948123 0.007123097235911
3420000000.0 -0.032344130375825286 -0.014552333599262661
3440000000.0 0.015953783840462123 0.034406585054075026
3460000000.0 0.020592442086994 0.039355407251815515
3480000000.0 0.010763206836828515 0.0600136223671095
3500000000.0 -0.013106062637921046 0.081764050867643
3520000000.0 -0.027568862783186026 0.10336446031574602
3540000000.0 0.09180740549667976 0.08374740177052144
3560000000.0 0.11183790966429953 0.0759058436097861
3580000000.0 -0.04239400070996873 0.1386895602657532
3600000000.0 -0.11984187496622337 -0.10099261545063819
3620000000.0 0.09916834636777058 -0.1312035893597552
3640000000.0 0.04904450609801531 0.1641016172641224
3660000000.0 -0.16438428064249067 -0.07457765060195631
3680000000.0 0.16733496284007132 -0.08309996757260897
3700000000.0 0.1487911754950037 0.11895610660301079
3720000000.0 0.008744098739524782 0.19491692330512986
3740000000.0 0.037565932654048576 0.18971464497600446
3760000000.0 -0.17871614453341558 0.05938570359466184
3780000000.0 0.0025663036319682492 -0.1780490810082722
3800000000.0 0.04030745787057753 0.1594639482694423
3820000000.0 0.09201464038161314 0.12088173008101945
3840000000.0 -0.1236383992754596 0.06591772536714027
3860000000.0 0.11751741486208347 0.07263539120069792
3880000000.0 -0.14594618768497447 -0.013435715271076712
3900000000.0 -0.12430645369472665 0.09381490354869862
3920000000.0 0.16462402715558466 -0.027869935650843405
3940000000.0 0.0674211037187222 0.16325366149647821
3960000000.0 0.1825961250089178 0.015765043325691647
3980000000.0 -0.1691665350086387 -0.06616984614954677
4000000000.0 -0.1000670977815716 0.1386892055028215
