! Created with skrf (http://scikit-rf.org).
# Hz S RI R 50.0 
!freq ReS11 ImS11
400000000.0 -0.08255681465011223 0.8672759317650456
420000000.0 0.37763608195808035 0.7750698417152828
440000000.0 0.8222069236545343 -0.1182224268884538
460000000.0 0.3245192743101562 -0.7229547154301013
480000000.0 0.6720265994151206 -0.24499562386629567
500000000.0 -0.05846442996066166 -0.5697138065189765
520000000.0 -0.17139412210400407 -0.4613628710232568
540000000.0 0.3180370269860065 -0.29504248763840646
560000000.0 -0.3218335842784255 0.1588865040852133
580000000.0 0.02847168045148388 0.3380925767895226
600000000.0 0.26230190779051543 -0.2130033818680917
620000000.0 -0.3402525319144072 0.10877251951220465
640000000.0 0.09666294126119142 0.37692245036446836
660000000.0 0.39823624873162533 -0.04632173386958127
680000000.0 0.00812966092983469 0.4197501496622798
700000000.0 0.2108217201481715 -0.3779649841906938
720000000.0 -0.25798099009549064 -0.3399834169563722
740000000.0 0.3881697323875845 0.15916262724081462
760000000.0 0.09631393874738058 -0.3901244935997206
780000000.0 0.10806619201897492 0.35617930395458747
800000000.0 0.10297376164431882 -0.32847661070169987
820000000.0 0.28829686780038866 -0.0595629539898861
840000000.0 -0.01890628578324245 -0.2473020889809891
860000000.0 0.16765979944105963 -0.1331203461853042
880000000.0 -0.07122456122815131 0.14212883630404197
900000000.0 -0.03292659897862312 0.08839329569988093
920000000.0 -0.06285207302681653 0.003981164994865326
940000000.0 0.01218628776608339 0.0465686342221532
960000000.0 -0.002804655408764607 -0.053584254783562726
980000000.0 0.05389518353340666 0.04606417518928083
1000000000.0 0.0037027574546448865 -0.08040355979618559
1020000000.0 -0.009788649720714778 0.09828337644299479
1040000000.0 0.10098655091356862 0.04512906703146408
1060000000.0 -0.04705255275980824 0.13766114721818437
1080000000.0 -0.14874275552534832 -0.05749614948607561
1100000000.0 -0.12403625320338756 0.1314757513057285
1120000000.0 0.14061065911682916 0.1451374693204008
1140000000.0 0.20416534829951385 -0.11388567087949675
1160000000.0 0.2690334473720127 -0.023513319167715867
1180000000.0 0.251536447150686 0.17623611647244922
1200000000.0 -0.06040829752642943 0.3340949131525061
1220000000.0 0.0566680550990403 -0.3624939675885996
1240000000.0 -0.16793178737231007 0.3572450191737797
1260000000.0 0.413483636253452 -0.089605717419702
1280000000.0 -0.44090278562737467 0.054608347573080224
1300000000.0 0.42997579485082943 0.15409553557667202
1320000000.0 -0.18072460542583363 -0.4159662446117141
1340000000.0 -0.37686658525741756 -0.23482214269435328
1360000000.0 -0.3254339043092096 -0.28613942098355255
1380000000.0 -0.3667292509690383 -0.22058522650142467
1400000000.0 -0.4011607160961323 0.10206492521197039
1420000000.0 0.01203286873431234 0.397119607191833
1440000000.0 0.3176733451880616 0.19095888414290485
1460000000.0 0.21420759727263988 -0.2690272033159828
1480000000.0 -0.11294134348978856 -0.2916803708476297
1500000000.0 -0.2640590265458804 -0.10088209788362382
1520000000.0 -0.2536194213271816 -0.0324978945898859
1540000000.0 0.21672130381964583 -0.07220922642540123
1560000000.0 -0.0006587247789401919 0.19664753933600887
1580000000.0 -0.13184474769422846 -0.11224294953744768
1600000000.0 -0.012393969542813334 0.14566938149957173
1620000000.0 0.11858877230903293 0.0033216118547793098
1640000000.0 0.08330952727777324 -0.046838742165824135
1660000000.0 -0.05902008617434599 0.03926887153502572
1680000000.0 0.009870769557275918 0.04639276606846973
1700000000.0 -0.02205943554984039 0.017624089304249222
1720000000.0 -0.010682522202304392 0.00667416941034698
1740000000.0 -0.014349668809611162 -0.015268918716971884
1760000000.0 0.011599464334663604 -0.041346584752773925
1780000000.0 -0.0377745121092263 0.06623236802191451
1800000000.0 0.05465560552495396 -0.09994992208008388
1820000000.0 0.07827224901725617 -0.12332627013638409
1840000000.0 0.11001661756151596 0.14189081296224787
1860000000.0 -0.20912620921883016 -0.015624019771466728
1880000000.0 0.061160852909010875 0.23256256361313765
1900000000.0 0.21835156849525328 -0.16567482767496286
1920000000.0 -0.1844597825889092 -0.24233665303738655
1940000000.0 -0.3263574829821961 0.08375080566529533
1960000000.0 -0.029280731000149232 0.3660316846658106
1980000000.0 0.3887465961797879 -0.05460871021239372
2000000000.0 0.09453450568216133 -0.4036015885919092
2020000000.0 -0.4300785543159443 0.01643875588426632
2040000000.0 -0.04929044237477369 0.43500500252332003
2060000000.0 0.4280786115529715 0.0970357761606456
2080000000.0 0.31356201382630366 -0.301145193194163
2100000000.0 0.1006004939786094 -0.4160823232498338
2120000000.0 -0.14963495223585047 -0.39144102310641
2140000000.0 -0.3710424639050285 -0.16905178593274686
2160000000.0 -0.12654838085198053 -0.37219186890188843
2180000000.0 -0.3487615465421439 -0.14067442082780884
2200000000.0 -0.3325955168601304 0.14006503925209057
2220000000.0 -0.22615870079165548 0.2629019713602911
2240000000.0 -0.11164001683843396 0.32204342244192746
2260000000.0 -0.041827310419092316 0.3385816590121062
2280000000.0 0.014796160052731058 0.34567908241319534
2300000000.0 0.35059855978978793 0.09261335864800578
2320000000.0 0.032836230142646486 -0.3871621379382724
2340000000.0 -0.4010570173071015 0.1310539094861557
2360000000.0 0.4627430608487421 0.03471691061824443
2380000000.0 -0.5093273085425204 -0.03215975394424273
2400000000.0 0.5596243015159069 0.00224605006995287
2420000000.0 -0.5653922300154604 0.23052441532863163
2440000000.0 0.3255006772611622 -0.572598840508132
2460000000.0 0.09060077934390931 0.6924086133473732
2480000000.0 -0.42304055819257586 -0.5927712802179321
2500000000.0 0.4446205381766167 0.6015989547359124
2520000000.0 -0.28019521897244015 -0.7046426312844154
2540000000.0 -0.09500870801861372 0.7540573788657126
2560000000.0 0.5584582015026088 -0.5058416373523156
2580000000.0 -0.6989901652890627 -0.23925337952424058
2600000000.0 0.240564257384993 0.6728966598338028
2620000000.0 0.3947453238200778 -0.5577804847821923
2640000000.0 0.048324930552428036 -0.644006546482294
2660000000.0 -0.4887966386423595 0.3500429414343809
2680000000.0 0.5236107550443698 0.17597941368335648
2700000000.0 -0.14982460193978467 -0.4828496466649349
2720000000.0 -0.27134699063240203 0.36890271558125726
2740000000.0 0.4154503255781059 0.029163905915528306
2760000000.0 -0.31180750187287104 -0.21711358738306982
2780000000.0 0.3235900510883672 0.13962428055542084
2800000000.0 -0.31734569390379636 0.08701330109690826
2820000000.0 0.00448826975836936 -0.312630659104384
2840000000.0 0.2931149791243957 0.0694110650647809
2860000000.0 -0.1463546817540047 0.2579815649862236
2880000000.0 -0.2075849967124338 -0.20708604277401427
2900000000.0 0.25585145359948774 0.14088061447266573
2920000000.0 0.011926923666921472 -0.29388536312141766
2940000000.0 -0.29338283229241 0.057670615739528405
2960000000.0 -0.20443867700710985 0.22068320591442359
2980000000.0 -0.2820772768337408 0.11627065911470198
3000000000.0 -0.26024855940760055 -0.17002119035262583
3020000000.0 0.02645591408576158 -0.31200581431987523
3040000000.0 0.2769281858531438 0.14185064816107898
3060000000.0 -0.3030884347568655 0.06397874459994647
3080000000.0 0.23524343793087368 -0.19500147186990138
3100000000.0 -0.011276546935040677 0.2995083730601024
3120000000.0 -0.018430454707191245 -0.2897101489022489
3140000000.0 0.1498783016825466 0.23774028067840985
3160000000.0 -0.2638875165867534 -0.0459361392900476
3180000000.0 0.17156634976404747 0.1825517586963131
3200000000.0 -0.15479961163521286 0.16736822942837212
3220000000.0 -0.18243176694856839 -0.08150128624001213
3240000000.0 0.0962234929499638 -0.13947879932439267
3260000000.0 -0.0828380450872713 0.10548780065704186
3280000000.0 0.10295856291643687 -0.003536679683407734
3300000000.0 0.054752124493033905 -0.05251874562775232
3320000000.0 0.043654479629490525 -0.026780625516179483
3340000000.0 0.03014998725512984 -0.004295551716599311
3360000000.0 -0.002873361420294413 0.013163138910523188
3380000000.0 -0.004486611101363287 -0.0008973482723327764
3400000000.0 -0.010775433444565323 -0.016048357815491052
3420000000.0 -0.009289876681935469 0.03464645411562892
3440000000.0 -0.00345384807338912 0.04945337728907412
3460000000.0 -0.05212589414589802 -0.025516211413403694
3480000000.0 -0.06720298146298836 0.007728056051454469
3500000000.0 -0.021825963344604616 0.07491014243269382
3520000000.0 0.024384155378758134 0.08697146198973812
3540000000.0 0.07379788504907349 -0.07443712134136747
3560000000.0 -0.11777647576881738 0.011755835381915273
3580000000.0 0.06582860757749752 0.11658248710765821
3600000000.0 -0.13939261019806667 0.06759767402049412
3620000000.0 -0.13920025222457355 0.09728290165074034
3640000000.0 -0.17238391992993926 0.05657806586455381
3660000000.0 -0.14166053645487106 0.12761641136039886
3680000000.0 -0.17045419353929686 0.09041549284523424
3700000000.0 -0.18696444474547702 -0.04248558291797912
3720000000.0 -0.004905548095847714 -0.1890131198215438
3740000000.0 0.1603434599015738 -0.08865839278179466
3760000000.0 -0.17682843716577779 -0.007428131151817801
3780000000.0 0.16147538359802324 0.05106999401335736
3800000000.0 0.01730536037448622 -0.16040761261985656
3820000000.0 -0.11306336313315984 -0.10492791968820303
3840000000.0 0.009939893426072356 -0.1478086948846453
3860000000.0 0.1381709886960287 0.054556495149010995
3880000000.0 0.15325982896215093 0.015094488475750399
3900000000.0 0.02160417409889913 -0.1550900650602805
3920000000.0 -0.14177999847355854 0.0764837716864808
3940000000.0 0.1019393149283002 -0.13056375627432598
3960000000.0 0.17083367465759702 0.011400518915719287
3980000000.0 0.1410657668981605 -0.09832201319832579
4000000000.0 0.1328679572174076 -0.09883618234581765
