! Created with skrf (http://scikit-rf.org).
# Hz S RI R 50.0 
!freq ReS11 ImS11
400000000.0 0.21590943924777356 0.8448496540544462
420000000.0 0.650294320981625 0.5612363882472682
440000000.0 0.7633322587836543 -0.3118491847435914
460000000.0 0.003097555812592518 -0.7858995233876749
480000000.0 0.5092593735136771 -0.4733952810409557
500000000.0 0.48620142918503995 0.26898534391324014
520000000.0 0.3257762794140983 0.3701716121886689
540000000.0 -0.35727925134275723 0.26025262767646473
560000000.0 0.24615565828622263 -0.28874568303802184
580000000.0 -0.27222675136345004 0.2398485852457458
600000000.0 0.2761705829255954 -0.23247689322483106
620000000.0 0.14426422021230934 0.3467328925041005
640000000.0 0.16402018119737194 -0.36176562780358307
660000000.0 -0.2460672289309397 -0.3182407643250394
680000000.0 0.4096426795446265 -0.039190308779482354
700000000.0 0.22033541699017506 -0.3599482740060702
720000000.0 0.07734745660287619 -0.4157679071029262
740000000.0 0.17080323791683003 0.38868987531039717
760000000.0 0.12334654644529483 -0.3917037989848918
780000000.0 0.34868189804693184 0.14641600905404892
800000000.0 -0.3097431064358181 -0.15262917879697255
820000000.0 -0.1596999311333768 -0.2422483047326031
840000000.0 -0.23222394156862644 0.04397506028029919
860000000.0 0.1799304457931029 -0.08816585425058393
880000000.0 -0.12817653365882906 -0.05821108472427032
900000000.0 0.08151976763251532 0.00047835967688348045
920000000.0 -0.05816701388914086 0.002169754170409782
940000000.0 0.023363223722593626 -0.02954789920470933
960000000.0 -0.04100358513996307 0.012028224032487121
980000000.0 0.03637612700511096 0.052379347255243326
1000000000.0 0.0683348970835917 0.05060558282991853
1020000000.0 -0.10488072948160151 -0.03853367281763437
1040000000.0 -0.10914055590153429 0.06646579321706494
1060000000.0 0.09852512138416833 0.1258673343618059
1080000000.0 0.15092620417418917 0.07678745533966942
1100000000.0 -0.03032385552729301 -0.18118881637213974
1120000000.0 -0.03395341944516919 -0.19424433432444763
1140000000.0 0.08874994511807659 -0.20859096179922407
1160000000.0 0.15928531802145873 0.20847642208295464
1180000000.0 -0.19341401757244625 0.23742339963916223
1200000000.0 -0.3431616884946759 0.0037524648293001187
1220000000.0 0.22951560189127188 -0.29647740939117123
1240000000.0 -0.01472159848804783 0.4012922403358716
1260000000.0 0.1434885330551632 -0.40155176006113374
1280000000.0 -0.27089284920733625 0.34720647168259305
1300000000.0 0.4427373991448338 0.07359123471998123
1320000000.0 -0.01270883480755217 -0.4445797374590511
1340000000.0 0.01926430531005766 -0.4381994309942207
1360000000.0 0.15799597828256653 -0.4022622809290367
1380000000.0 -0.09033439422216077 -0.4225818378017632
1400000000.0 -0.41712438124846474 0.01765453798907541
1420000000.0 0.02305740678247822 0.39782941826156887
1440000000.0 0.3421626512135174 0.14859936365921023
1460000000.0 0.1688823891129725 -0.30030590430002024
1480000000.0 -0.216329147020326 -0.22712618851955693
1500000000.0 -0.2733143629253767 0.07504236507592772
1520000000.0 -0.19892994491606333 0.160852883604984
1540000000.0 0.019178502430499938 -0.22670899134170935
1560000000.0 0.18723315954477968 0.05236063289446486
1580000000.0 -0.07427610063546597 0.1511813590949423
1600000000.0 0.11662740435900666 0.07748125267404535
1620000000.0 0.08102240935769275 0.07580175090361957
1640000000.0 -0.07102117806430956 0.05310673888810797
1660000000.0 -0.05680680073063665 0.03493707641810251
1680000000.0 -0.03530282133205464 -0.0305303849268465
1700000000.0 -0.005996616778891823 -0.030180774562234617
1720000000.0 0.006087698225103387 0.008412320463608097
1740000000.0 0.011757908033185077 -0.0073180375619721315
1760000000.0 0.036682614749650046 -7.205665195009187e-06
1780000000.0 0.010858157572644944 -0.0717952644849022
1800000000.0 0.07920317911508098 0.07831625850741178
1820000000.0 0.12609248824609084 0.0742064193249084
1840000000.0 -0.009476286475783876 0.1819254331662375
1860000000.0 -0.20406157792115717 -0.0578112154266761
1880000000.0 0.10994458209995688 0.2145609070713131
1900000000.0 0.24879964547183317 -0.11341924226561334
1920000000.0 -0.10350963776682905 -0.28605521123706207
1940000000.0 -0.30672738564273316 -0.1386504995232739
1960000000.0 -0.15920138251389612 0.3315093347320764
1980000000.0 0.37737035889158665 0.10984601225929802
2000000000.0 0.2233045193842251 -0.35137265291699044
2020000000.0 -0.4279001548182559 -0.060971639545798664
2040000000.0 -0.07223643080368242 0.43357358783631866
2060000000.0 0.4398170243618077 -0.015574931368232903
2080000000.0 0.10332266061714249 -0.4206366970277009
2100000000.0 -0.17157006711826875 -0.38748546589794675
2120000000.0 -0.3538981228921315 -0.21094112828994457
2140000000.0 -0.39790488557809056 0.02919501513013261
2160000000.0 -0.1284984906315479 -0.36156806353149334
2180000000.0 -0.20990261112236816 -0.30113984216247874
2200000000.0 -0.2746645417922858 -0.22601740885615199
2220000000.0 -0.3259832952349756 -0.12020342312827137
2240000000.0 -0.2948643705887066 0.18212601400762274
2260000000.0 -0.02295143885245679 0.3465229326154507
2280000000.0 0.2386410702798187 0.2591540044340294
2300000000.0 0.1898496715334489 -0.31215773280534753
2320000000.0 -0.3495287416015904 -0.1641580869927708
2340000000.0 -0.19826681436362723 0.36359319870494133
2360000000.0 0.446836074913574 0.07588079988682842
2380000000.0 -0.36220272300766326 -0.346307647905026
2400000000.0 0.3114471975353086 0.45863788277519496
2420000000.0 -0.5117680672989113 -0.3297409955409837
2440000000.0 0.644303000643086 -0.13590729266544857
2460000000.0 -0.3738838945708556 0.5906780523326826
2480000000.0 0.0495758238183594 -0.7284465183765074
2500000000.0 -0.02233542980285606 0.7499487623716958
2520000000.0 0.15402967187390354 -0.7449050278548303
2540000000.0 -0.5020561216259549 0.573919291776225
2560000000.0 0.7447774263043413 -0.13254436027239783
2580000000.0 -0.5053270266779984 -0.5429509622758885
2600000000.0 -0.06237385932184326 0.7144433902266178
2620000000.0 0.5457245361326964 -0.4167351679195104
2640000000.0 0.2833720761845455 -0.583978476462107
2660000000.0 -0.5733506900298748 0.1883185740294883
2680000000.0 0.4986829074692495 0.2457863219067793
2700000000.0 -0.1324202415280006 -0.4906676436288789
2720000000.0 -0.19512919426292777 0.41697464917225646
2740000000.0 0.38022208103445015 -0.17281465662296402
2760000000.0 -0.3788439512256738 0.02786816728744905
2780000000.0 0.32193238900578486 -0.1393099453032185
2800000000.0 -0.17857114589075893 0.2729839317325282
2820000000.0 -0.145078189314385 -0.27242251145060187
2840000000.0 0.2952394348252983 -0.034111034683633565
2860000000.0 -0.13245653286253034 0.26197697723055946
2880000000.0 -0.10832397498535064 -0.27204123558438664
2900000000.0 0.14487354669095612 0.2561313983079274
2920000000.0 0.1133739918506398 -0.2764781350388861
2940000000.0 -0.30537217003275585 -0.013935165899314409
2960000000.0 -0.21531272911821436 0.22142300790732952
2980000000.0 -0.2136236856625502 0.22956416351247974
3000000000.0 -0.3138719427365809 0.02613975648211423
3020000000.0 -0.12715636108298267 -0.2884152726272182
3040000000.0 0.3064524546959763 -0.05953448081702711
3060000000.0 -0.2699224468787578 0.15279272341057232
3080000000.0 0.23975028121449637 -0.18953092497560137
3100000000.0 -0.18845018913929357 0.23304936951057897
3120000000.0 0.1597308029753414 -0.2439817692207554
3140000000.0 -0.0007804498070050225 0.28261204730173395
3160000000.0 -0.15279021793320305 -0.22059276976436248
3180000000.0 -0.09567880972694215 0.23263123802525637
3200000000.0 -0.1832766297489607 -0.1387980012252939
3220000000.0 0.09268632412323269 -0.18131629250831488
3240000000.0 0.12376602950841074 0.12098994666426469
3260000000.0 -0.12117717719980309 -0.06876869186163764
3280000000.0 0.0958959319573362 0.045917037440622276
3300000000.0 -0.016149758361858484 -0.07478493201105296
3320000000.0 8.943850561050047e-05 -0.04782474107468285
3340000000.0 -0.018021024650369366 0.014491891536479654
3360000000.0 -0.00036773465456698995 0.006474894998535706
3380000000.0 0.010629774565797011 0.0008878448393468346
3400000000.0 0.019007145384833557 0.011327202114006995
3420000000.0 0.033885254396492634 0.006167842486559357
3440000000.0 -0.042329216845952054 0.01842007387109198
3460000000.0 -0.02584324470222182 -0.04896244892583538
3480000000.0 0.062317581909715064 -0.027744569561105076
3500000000.0 -0.012192849163443362 -0.08277684042573676
3520000000.0 -0.032500927999219165 0.09357193232121268
3540000000.0 -0.09427437806261649 -0.06395989767087364
3560000000.0 0.11839960647114567 -0.04384546759823764
3580000000.0 -0.13766481100346367 -0.008685444260764289
3600000000.0 0.13922325504521427 -0.06850706149081696
3620000000.0 0.0751726345384068 0.148796883379603
3640000000.0 -0.16784966128653836 0.06064378105968563
3660000000.0 -0.16068858935927569 -0.09982074946213734
3680000000.0 -0.08199483016805056 -0.17729852783138383
3700000000.0 -0.039890185672216076 -0.19286254733353164
3720000000.0 0.12888212035465557 -0.14743301952053425
3740000000.0 0.13852527330614725 -0.1334986439596499
3760000000.0 -0.06133425433549535 0.17311064128751483
3780000000.0 0.016621288676270194 -0.17117025994618604
3800000000.0 -0.15062661770261423 -0.055633295422119686
3820000000.0 -0.13860697376214948 -0.06233164688548605
3840000000.0 0.08780075082081179 -0.11761540663740717
3860000000.0 0.009340984337898364 0.14867104773957185
3880000000.0 0.08507169312007618 0.13183578299570167
3900000000.0 0.10547646243640658 -0.12134371373923104
3920000000.0 -0.1614977157146241 0.03833678851526446
3940000000.0 0.10551925325521941 -0.13396405510744405
3960000000.0 0.166224713993504 0.05066161424839469
3980000000.0 0.13464514513298537 -0.1095764433317751
4000000000.0 0.12146559738461364 -0.11414866565959984
