!Created with skrf (http://scikit-rf.org).
# Hz S RI R 50.0 
!freq ReS11 ImS11
400000000.0 0.49572464409550726 0.7159981414464552
420000000.0 0.8440802002294356 -0.03962508081081255
440000000.0 0.7769168050519907 -0.18634157389008504
460000000.0 0.723513890017579 0.17069589171640634
480000000.0 -0.05064053993144305 -0.6824291004702664
500000000.0 0.02853206748354514 0.600053614664707
520000000.0 0.04238598117963885 0.5085490414353976
540000000.0 -0.33143233671844713 -0.28384258910089943
560000000.0 0.06434930511252888 0.391802411108299
580000000.0 -0.3518763330852358 -0.07821379514698383
600000000.0 0.34898044368893305 -0.06954019716828569
620000000.0 -0.14354878353416733 -0.3254598262316322
640000000.0 0.40339875344595105 -0.07684006474370952
660000000.0 0.23204248900193414 0.341906537770878
680000000.0 -0.11670785129818585 -0.42992163828430074
700000000.0 0.05496181171153279 0.4591829953259987
720000000.0 -0.40969409720186384 0.22174623770917487
740000000.0 -0.004707897839731137 0.4264241110723954
760000000.0 -0.3797290016667157 -0.1270638872772186
780000000.0 -0.3673004523309116 -0.07089894098688071
800000000.0 -0.3117523146823873 -0.12168075556892818
820000000.0 -0.16319544675469377 0.22948723270217003
840000000.0 -0.020821073980058193 -0.2117529759120701
860000000.0 -0.17665739116449536 0.030297579077776363
880000000.0 0.13816544026154295 0.056236290240956596
900000000.0 0.017097752244705767 0.09651142353365187
920000000.0 0.00433699885312712 0.05134632981610156
940000000.0 0.029049957406210376 0.007629349666827159
960000000.0 0.02642922768518203 -0.017784620086917065
980000000.0 0.051581690255654754 0.008965600191984693
1000000000.0 -0.08788662724481217 0.02358943247780979
1020000000.0 -0.11549363938444772 -0.029593610638292602
1040000000.0 0.06928576292584215 -0.11969692795011094
1060000000.0 0.07682552878330402 0.1496268798658153
1080000000.0 0.07072858918655447 0.1772676518991292
1100000000.0 -0.187569226709807 -0.09565471989259716
1120000000.0 0.17847629649771557 -0.14335302801120586
1140000000.0 -0.18705955007966157 0.17090505908031173
1160000000.0 -0.27418202393125307 -0.04265561671190206
1180000000.0 0.049078295461202744 -0.3040105989526162
1200000000.0 0.17817958348647414 0.295500941873559
1220000000.0 -0.19721690593767005 -0.3204796215612279
1240000000.0 0.39744955242644353 0.015926363588030713
1260000000.0 -0.371098552506676 -0.17301491225462318
1280000000.0 -0.39386890139189357 0.15776491622365665
1300000000.0 0.38412514807315923 0.19479327701208318
1320000000.0 0.4307001599677036 8.7241470782564e-05
1340000000.0 0.24798969837016785 0.3586710166956128
1360000000.0 0.42451235852713576 0.1268981096076351
1380000000.0 0.009997880571452662 -0.4358678725772415
1400000000.0 -0.2405932268867535 -0.3527991724081592
1420000000.0 0.08467895062104616 0.39848621430712994
1440000000.0 0.3041182169392318 -0.22284852642894545
1460000000.0 0.1752813473258783 -0.2983043239673999
1480000000.0 -0.3019055638370889 -0.0945466256965533
1500000000.0 -0.045756348466881196 0.27982721776522146
1520000000.0 -0.19350365978425274 0.16286258764996442
1540000000.0 0.09641488540168532 0.20457031174224707
1560000000.0 -0.12749675410055317 0.15000924126344015
1580000000.0 -0.16242442812851055 0.0651598617426227
1600000000.0 0.031410928281849736 0.13499781746792627
1620000000.0 0.07656670345427194 -0.06416929211940592
1640000000.0 -0.04023915065697051 -0.063943572785681
1660000000.0 -0.061237295767277086 -0.0020509827286493824
1680000000.0 -0.014100647410421852 -0.0376876494004066
1700000000.0 0.0043817484701536 -0.020732775231301966
1720000000.0 -0.008978192956959249 -0.004803324393146905
1740000000.0 0.004589080939801889 -0.008314427233284393
1760000000.0 -0.01658637043998721 -0.01986117073058912
1780000000.0 -0.03914992212418347 0.032823476306748985
1800000000.0 -0.08621781268516386 0.03545784303582418
1820000000.0 0.1195886371681379 0.036428669376268104
1840000000.0 -0.13947271739467393 0.08437235644504681
1860000000.0 0.0057884663827556925 0.2018456935704961
1880000000.0 0.22582473757811142 -0.07580683362806898
1900000000.0 -0.1808362955265498 -0.21097221510164577
1920000000.0 0.1922687129151149 -0.2528039176699772
1940000000.0 -0.29953112820727956 -0.16148853240121636
1960000000.0 -0.36638618667556183 0.024490615573837072
1980000000.0 0.3932234581906811 0.07884934591918968
2000000000.0 -0.045825329554815934 -0.41862821591052474
2020000000.0 -0.3659632488430977 -0.2262117953970047
2040000000.0 0.10232592297587352 0.4232924413089927
2060000000.0 0.2376230026575289 0.36558760725130535
2080000000.0 0.35434076216944277 0.24907171726791652
2100000000.0 0.04200102466416021 -0.42471307358781335
2120000000.0 0.00010859287612306459 -0.4152003618250625
2140000000.0 0.19865768360402278 -0.3458348682698639
2160000000.0 0.3699784788547162 -0.10788782728209415
2180000000.0 0.3702674938786568 -0.04990530032791334
2200000000.0 0.341482648876812 -0.12254709300980016
2220000000.0 -0.2937755863484473 -0.19394184255885538
2240000000.0 -0.1942642533930077 -0.2865266524092397
2260000000.0 -0.28826481614000643 -0.1877838051683595
2280000000.0 0.031322053281940106 0.34520119810844885
2300000000.0 0.08955560159212299 0.34201425491212967
2320000000.0 0.12542230087802575 0.3538692609244893
2340000000.0 -0.03795526513527507 -0.40693459356407635
2360000000.0 -0.4314878356632605 -0.11957040361048678
2380000000.0 0.16972830563944866 0.4684328308113228
2400000000.0 -0.4449170783094992 0.336058638582888
2420000000.0 0.47857644173630937 -0.3781398072381641
2440000000.0 -0.4614162077743215 0.467828881914984
2460000000.0 -0.6965142266457572 -0.08364265326755754
2480000000.0 0.6902020516025651 0.25074161185426047
2500000000.0 -0.41284359017294786 -0.6330892523732609
2520000000.0 0.7279410437966672 -0.2478193222998554
2540000000.0 -0.5272844053851643 -0.564719108041767
2560000000.0 -0.4261901958946509 0.6396322559828052
2580000000.0 0.1179785969742989 -0.7450064057147184
2600000000.0 -0.7289987086224259 -0.07362591027829361
2620000000.0 -0.10277311591735896 0.6986648387356718
2640000000.0 0.5742821300429238 -0.3415395013516557
2660000000.0 -0.41015716927445206 -0.4746149080531207
2680000000.0 -0.2792425648289114 0.5096807788273179
2700000000.0 -0.2569146470345975 -0.46219618452629463
2720000000.0 -0.14044697381614257 0.4607111105450449
2740000000.0 0.41925295888129394 -0.10483984429186434
2760000000.0 -0.3241429687677376 0.2162217288608665
2780000000.0 0.35581179018161135 0.04706602038398679
2800000000.0 -0.29561131148447634 -0.1581377592213834
2820000000.0 0.023482000799875072 -0.31413276712704824
2840000000.0 0.114409663690532 0.28524155479506325
2860000000.0 -0.2360369820620714 -0.1847395288734831
2880000000.0 0.03910661196787047 -0.2920030378474904
2900000000.0 -0.29226228410595306 0.029779174371831973
2920000000.0 -0.14817319120186084 0.2602719514380602
2940000000.0 0.10878651642547535 -0.29004666241999777
2960000000.0 -0.1386303888843531 -0.28483381335861435
2980000000.0 -0.2341565160264869 -0.2153731026203996
3000000000.0 -0.27137153552544524 -0.16614543452912348
3020000000.0 0.1967128833461639 0.2549147128054339
3040000000.0 0.25376590525573794 0.19787327422135384
3060000000.0 0.14085227675928239 0.28066405739481154
3080000000.0 0.2829589737363974 -0.10645596634125282
3100000000.0 -0.1950647215703555 0.2177478491237044
3120000000.0 -0.01701500526077539 -0.2838104441018033
3140000000.0 -0.2712087021188114 -0.04258607100697522
3160000000.0 0.22060717419993844 -0.14386775004529856
3180000000.0 -0.2423762518116316 0.059068750154381906
3200000000.0 0.23410583634075477 -0.020668219162043762
3220000000.0 0.06258062501685953 -0.19816256134219348
3240000000.0 -0.08018244412729959 -0.1534910211311166
3260000000.0 0.13983944271930296 -0.02797793043433489
3280000000.0 0.0030549765294854135 0.09952244941899627
3300000000.0 0.008258058031971096 -0.06660920149744319
3320000000.0 -0.012044323132841551 -0.038881623333097484
3340000000.0 -0.019558882637540943 0.0035767696032221797
3360000000.0 -0.006830326177878508 0.0008794708163496633
3380000000.0 -0.0032906658834316867 0.00148213614693042
3400000000.0 0.016505746074829693 -0.0024088403881125215
3420000000.0 0.02241787473711649 -0.02701279154076975
3440000000.0 -0.05023485070423748 -0.0007011386592434403
3460000000.0 -0.00223519643475693 0.06533465689828195
3480000000.0 -0.07555010117824693 0.02293423246414911
3500000000.0 0.06621268728640521 0.060175382189200904
3520000000.0 0.029695692304216835 0.09771728811089891
3540000000.0 -0.08123329372577541 -0.07994379942190842
3560000000.0 -0.06093427321266369 0.10126811865342547
3580000000.0 0.055701982237215696 0.1209301213568039
3600000000.0 -0.1528983747516819 0.0037851167792607937
3620000000.0 0.15999510697397576 -0.03919825596386802
3640000000.0 0.045242610370647814 -0.1762931766707423
3660000000.0 -0.07869536271458812 -0.1734136973298359
3680000000.0 0.13650035325414595 -0.13474090237275435
3700000000.0 -0.048111267330826435 -0.1843991117479986
3720000000.0 0.1408066813976811 -0.12379962399550243
3740000000.0 0.004762496098606981 0.17939047512302733
3760000000.0 0.17330842913195962 -0.0352965822795732
3780000000.0 -0.1529613043762965 0.08162449365735366
3800000000.0 0.10077186722792329 -0.1334217491918918
3820000000.0 -0.14038091879382925 0.0689717938752998
3840000000.0 -0.1426046942699914 -0.024999835104389426
3860000000.0 0.030991394400089887 -0.13643673413768787
3880000000.0 0.06819314443933477 0.12284547698632488
3900000000.0 -0.14566482225334693 0.011253191193339073
3920000000.0 -0.10529944756917314 0.11043065667594004
3940000000.0 -0.13642032748189636 -0.09649969162954934
3960000000.0 -0.05358114705955962 0.165779401250051
3980000000.0 0.15732612220219097 0.06654033610836348
4000000000.0 -0.05482927366516034 -0.15105481468964832
