!Created with skrf (http://scikit-rf.org).
# Hz S RI R 50.0 
!freq ReS11 ImS11
400000000.0 0.7841946246185847 0.36413730193107247
420000000.0 0.8324850217652036 -0.11224727840092115
440000000.0 0.794607448648021 0.032476073699836946
460000000.0 0.7506572192102231 0.03436509779038085
480000000.0 -0.43378191521151366 -0.542641097228208
500000000.0 0.5893873170055841 0.11497070130980781
520000000.0 0.3872069954987127 -0.3154426033013678
540000000.0 -0.39654465696095026 -0.15179137374068924
560000000.0 -0.35966282477482076 0.12856597135833286
580000000.0 0.26353719444627843 -0.23937279401870462
600000000.0 -0.03286527018399813 0.35768613463634547
620000000.0 0.10185935811903717 -0.356727645145343
640000000.0 -0.34995336576857977 -0.24099748943126617
660000000.0 0.4200262439075357 -0.03114567293819984
680000000.0 0.3082197332755765 0.3165063761219976
700000000.0 0.43690441374506983 0.04329675758059371
720000000.0 -0.005920440153317252 -0.44978047174135405
740000000.0 -0.018497947781130245 -0.4344836406375389
760000000.0 -0.4171258719838129 -0.07612110064791411
780000000.0 -0.010571310579731876 0.3867628823748132
800000000.0 0.33271665529815275 -0.018145266381461828
820000000.0 0.24951151239428718 0.10533069013756377
840000000.0 0.005857266984217398 -0.20160904879145186
860000000.0 0.053612781923917496 -0.16205556422781234
880000000.0 -0.1490849844434987 -0.008594445641078082
900000000.0 -0.10159267488472068 -0.02099825163040756
920000000.0 -0.04769983971545288 0.025960245372891502
940000000.0 0.02969531917895907 -0.005494490012890476
960000000.0 -0.03088616296195506 -0.001567925397099969
980000000.0 0.026207463995003687 0.04867438185551309
1000000000.0 -0.037912292455334624 0.08139078610273116
1020000000.0 -0.11050371710068464 -0.04541415668515962
1040000000.0 -0.10334498138571464 -0.0907181616974638
1060000000.0 0.12272445367945939 0.1087602888662226
1080000000.0 -0.08163925285519336 0.16661640760167853
1100000000.0 -0.17553917929137447 -0.11405224870957467
1120000000.0 0.184611168295314 -0.13905905026481905
1140000000.0 -0.23666185997227543 0.08902343999525474
1160000000.0 -0.2227525088476431 0.17372936504291564
1180000000.0 -0.3029171184600454 -0.08241810962194057
1200000000.0 0.34097118968415857 -0.06258406083690425
1220000000.0 -0.1976973616521444 0.3196756351251237
1240000000.0 0.18660920290183686 -0.34646157313719766
1260000000.0 -0.3809544241279189 -0.13120205703595816
1280000000.0 -0.33147580212491495 0.2564507599065683
1300000000.0 0.047445625640144075 0.42657276020560797
1320000000.0 0.2496806403725483 0.360370734907213
1340000000.0 0.44118477849128407 0.0718372508621371
1360000000.0 0.2752315718651254 -0.35509014323006505
1380000000.0 -0.3796574577844637 -0.21590549504305528
1400000000.0 -0.3748914426045173 0.19192311646538657
1420000000.0 0.22718092532577983 0.32725149442452456
1440000000.0 0.349897964127152 0.12017020166829177
1460000000.0 0.32878734104042523 -0.09950350150648736
1480000000.0 -0.21335637510608188 -0.23575686233456494
1500000000.0 0.002152621340317738 0.2864735846320106
1520000000.0 0.0731162102207926 0.24107551137568503
1540000000.0 -0.017292735151834233 -0.2203823308631683
1560000000.0 0.026402319847861146 0.19024935161999879
1580000000.0 -0.03735950751890724 0.16334488571350125
1600000000.0 0.1337716551016669 0.004520247387667186
1620000000.0 0.06554326724042045 0.07701938772628499
1640000000.0 -0.08078641438951066 0.0006500971284379609
1660000000.0 -0.04253413804266076 0.05054105785591957
1680000000.0 -0.01726264709009096 0.03913756993412686
1700000000.0 -0.02017561875455691 0.004063886319133468
1720000000.0 0.0018676017626707594 -0.004283244368716938
1740000000.0 -0.0012784606100331864 -0.014855283864643236
1760000000.0 -0.007731813153883693 -0.031547451895994234
1780000000.0 0.055117664943412005 -0.015617758083416935
1800000000.0 0.021220038739755524 -0.09062286035890628
1820000000.0 -0.11900358582051981 -0.041148221028928074
1840000000.0 0.15001858926635284 0.06956335919894552
1860000000.0 -0.02986491618745166 0.19837421504189928
1880000000.0 0.23751873214310978 -0.02592512005799444
1900000000.0 -0.27989998595618365 -0.052943912893092894
1920000000.0 0.27052130166796784 -0.17760059838247885
1940000000.0 -0.3354271444211955 0.09370367235150691
1960000000.0 0.10449582948870498 0.3577997545405126
1980000000.0 0.3821575011448008 -0.1230304175957636
2000000000.0 -0.3814506707572202 -0.17591273621217707
2020000000.0 -0.2667062295690141 0.3346221282828996
2040000000.0 0.1665859943569321 0.4005606325975396
2060000000.0 0.4115378048785463 0.1384814873322821
2080000000.0 0.3478813303012725 -0.25273383750662654
2100000000.0 0.07542057468291354 -0.4177932641905204
2120000000.0 -0.16332135576401002 -0.3817285635235454
2140000000.0 -0.3086578105581692 -0.25624591668626123
2160000000.0 0.2836059715914319 -0.26614302276703466
2180000000.0 -0.11003026567077961 -0.35992579388187423
2200000000.0 -0.3534607636989122 -0.07367325832049397
2220000000.0 -0.34972584699446996 0.0053885768184635755
2240000000.0 -0.33836106013528344 0.0655696425011324
2260000000.0 -0.23845697857649134 0.25274099283256196
2280000000.0 0.06885145016170754 0.3448831697415621
2300000000.0 0.35471841448121516 0.0755386276292397
2320000000.0 0.1531730056684108 -0.35586244707137105
2340000000.0 -0.3951826080179907 -0.1354661145009437
2360000000.0 -0.007459396710556311 0.4569630047117754
2380000000.0 0.15805753837013087 -0.483355435301246
2400000000.0 0.05598332950488092 0.5600501423751747
2420000000.0 -0.46274974346516257 -0.4050308270723336
2440000000.0 0.6538607824996863 -0.10479756396122537
2460000000.0 -0.4081700961374123 0.5709576728855459
2480000000.0 -0.03515914725809152 -0.7316416885845302
2500000000.0 0.07451287505094857 0.7484236601316684
2520000000.0 0.03091128820782273 -0.762469566486339
2540000000.0 -0.296858489695135 0.7048841407325901
2560000000.0 0.6928760282599831 -0.3100238985214815
2580000000.0 -0.6601708592452965 -0.3444705456332566
2600000000.0 0.1304210812027565 0.7098610542238057
2620000000.0 0.44260520201388465 -0.5337031000538206
2640000000.0 -0.04614059160313199 -0.6555530350656386
2660000000.0 -0.40448991461696104 0.46217489394302774
2680000000.0 0.5532732513004037 -0.12332537843328527
2700000000.0 -0.42513856921843185 -0.29700239795787303
2720000000.0 0.28186071804634494 0.37734288093563073
2740000000.0 -0.07472593137703025 -0.41601835163836537
2760000000.0 -0.2659914777544999 0.27622862035363355
2780000000.0 0.2739050209247259 -0.21858985284736013
2800000000.0 -0.22857734608783115 0.23171266941538082
2820000000.0 0.18339956785035944 -0.24648158949611895
2840000000.0 0.12825815455955722 0.27141124515595505
2860000000.0 -0.28365110659210824 0.07230681351297388
2880000000.0 0.08677041353910284 -0.2759712595766635
2900000000.0 -0.2096212378444072 0.1971202109684559
2920000000.0 0.23198546347857987 0.17889551674272416
2940000000.0 0.14210515476321312 -0.26838056246758724
2960000000.0 -0.30765904574467867 -0.05029834904321265
2980000000.0 -0.19668845006342758 0.24447723698545093
3000000000.0 -0.29338009431727574 0.11228800081256353
3020000000.0 -0.21149573867412197 -0.23511737715688422
3040000000.0 0.0987603685897286 -0.2992635819819917
3060000000.0 0.23590451312480643 0.19950953189834875
3080000000.0 -0.26972512457938136 -0.12907980881949896
3100000000.0 0.17915492436257321 0.22768634552334568
3120000000.0 -0.007075413783250049 -0.2835577353895584
3140000000.0 0.1160239432415226 0.24995536963026332
3160000000.0 -0.2207844099859608 -0.14358915890630053
3180000000.0 0.02293186691613019 0.24900184053364074
3200000000.0 -0.22039831847994226 0.06518886857883405
3220000000.0 -0.19556680730562948 -0.05800968784981817
3240000000.0 -0.028997123042025896 -0.16975473483921558
3260000000.0 0.10822403859154614 -0.08434569008697906
3280000000.0 -0.08820417306446666 -0.04940201758953237
3300000000.0 -0.02026658544577645 0.0700830180366368
3320000000.0 -0.04201543705280232 -0.01164839891987661
3340000000.0 -0.001038690175542837 -0.023677989569325188
3360000000.0 -0.007816860774594042 0.00412101396575703
3380000000.0 -0.0008363673558813942 -0.005058330262273585
3400000000.0 -0.014802587086768954 0.0004094666437332374
3420000000.0 -0.0199923715822213 -0.024627216373022592
3440000000.0 0.03844532125257282 0.02680578935167019
3460000000.0 0.01300216065281382 -0.05871114122316093
3480000000.0 -0.04062679385667079 0.05929188165750492
3500000000.0 0.08269175724115524 -0.03154822403516879
3520000000.0 0.1015049018611439 0.00945082996680999
3540000000.0 -0.08219854559268233 0.07794915505351027
3560000000.0 -0.020095093630495275 -0.11970423026262951
3580000000.0 -0.11998368853608662 -0.053645969567643115
3600000000.0 0.14658994086836188 -0.019576619849236317
3620000000.0 -0.1552935342640479 0.04824969156249915
3640000000.0 -0.17884025548504467 -0.006047630569566332
3660000000.0 -0.16506309270012 -0.09161080144623944
3680000000.0 -0.17310127083089466 -0.08950825760359969
3700000000.0 -0.16610494677637505 0.10276267392024002
3720000000.0 -0.19075385325197947 -0.017395821787838873
3740000000.0 0.030559950835764252 -0.1786355327868592
3760000000.0 -0.1508570460880417 -0.09061750147930263
3780000000.0 0.0029831362173181504 0.171770575120903
3800000000.0 0.033698453103041294 -0.16409340568476927
3820000000.0 -0.1452357034739951 0.07042526771516434
3840000000.0 -0.08404464122990388 0.12617416930186373
3860000000.0 -0.13412023791635874 0.059638573310067694
3880000000.0 -0.027458910420228768 -0.14227040336383734
3900000000.0 0.09876516436058287 0.1107228573572379
3920000000.0 0.15004214886623352 0.053466160179282025
3940000000.0 -0.12394783669732433 0.11789021325949027
3960000000.0 0.0014616050717262035 0.18077024709646008
3980000000.0 0.1382987854597297 -0.11299402387718521
4000000000.0 -0.14386212438620885 -0.08789310923355817
