!Created with skrf (http://scikit-rf.org).
# Hz S RI R 50.0 
!freq ReS11 ImS11
400000000.0 0.7669949186992102 0.4038635503089538
420000000.0 0.8371221472687151 -0.07537738626088422
440000000.0 0.7912557732217227 0.09159582826504249
460000000.0 0.7498950051895656 0.060236429180464277
480000000.0 -0.4358907614755191 -0.5403669385833699
500000000.0 0.5851400853154327 0.12997077495601964
520000000.0 0.40615630962065574 -0.28867121226798326
540000000.0 -0.37841360004694363 -0.19353505525299247
560000000.0 -0.353193131516922 0.1460285777337959
580000000.0 0.2891292447423282 -0.20889257687890772
600000000.0 -0.13342462754290904 0.33509289158308375
620000000.0 0.13606879215695358 -0.34707980163454766
640000000.0 -0.34838204042738385 -0.24518638036430443
660000000.0 0.4155519590729104 -0.0733569747825758
680000000.0 0.35674333166578515 0.2586389007798781
700000000.0 0.43091466229322894 0.07028856619084671
720000000.0 0.1280165604719566 -0.43054363307300586
740000000.0 0.11252458975662784 -0.4225826461340722
760000000.0 -0.4256938306562621 0.014852431837599333
780000000.0 0.17642095745766778 0.3437633878834944
800000000.0 0.2914793447247451 -0.1560557503830868
820000000.0 0.21221361365044158 0.16426220266660943
840000000.0 0.13449627405592907 -0.1508086917194888
860000000.0 0.10449655583932693 -0.13790028352093436
880000000.0 -0.1400539155404205 0.055773744877928515
900000000.0 -0.09777812078815767 0.03640341515920052
920000000.0 -0.04669339690766398 0.027644467914719677
940000000.0 0.02679386289914872 0.013513503664365607
960000000.0 -0.017335261230160035 -0.02471180421400349
980000000.0 0.03052395950877642 0.046218742792803406
1000000000.0 0.011457028555636368 0.09016861635269892
1020000000.0 -0.1090707306586845 0.04886949710568592
1040000000.0 -0.12902004961728566 -0.045231093575575546
1060000000.0 0.14723016676889158 0.06915842921152503
1080000000.0 -0.14695117296265758 0.1113362231161225
1100000000.0 -0.06725247404035054 -0.19902609540851576
1120000000.0 0.22903938919602584 -0.04534561017508472
1140000000.0 -0.2311154866456069 0.10786224075887103
1160000000.0 -0.18062682933859384 0.21871705335706865
1180000000.0 -0.31286116822840565 -0.0035420538611591595
1200000000.0 0.3283371281125949 -0.10498054579989265
1220000000.0 -0.24355326186227316 0.28378651822814527
1240000000.0 0.29098982727364053 -0.2641663491736368
1260000000.0 -0.31396707818114733 -0.25468802655214184
1280000000.0 -0.3517396072960329 0.23167132207408955
1300000000.0 0.1811295458578637 0.3913540082425311
1320000000.0 0.3596152508387154 0.2511135414726711
1340000000.0 0.4442604757162992 -0.026749375920521314
1360000000.0 0.29673262601070033 -0.3336966837496506
1380000000.0 -0.3064485911439371 -0.30948138072572634
1400000000.0 -0.41485422627768315 0.07635312976163612
1420000000.0 0.20238744278666645 0.3450593701762336
1440000000.0 0.3690757812769849 0.04549764152300515
1460000000.0 0.28732536463769903 -0.18948699277707295
1480000000.0 -0.2855098322796649 -0.13736665840841655
1500000000.0 -0.00398679529332627 0.2854116899026085
1520000000.0 0.0027149360769035836 0.25141217860971166
1540000000.0 0.031584842053540084 -0.22005502674424396
1560000000.0 -0.015487568259410977 0.19296096407348215
1580000000.0 -0.050085060760964556 0.16122228286751997
1600000000.0 0.13060666054116052 -0.032677075163473394
1620000000.0 0.09972135705944969 -0.017325081277285097
1640000000.0 -0.05359829670721471 0.057618018593683644
1660000000.0 -0.0008899122279563833 0.06413769898263053
1680000000.0 -0.023700308345959403 -0.03327107449069785
1700000000.0 0.013024693493217391 0.01566447638012118
1720000000.0 0.002374872648896185 -0.005848218063065527
1740000000.0 0.006315675234012961 -0.012013837150119545
1760000000.0 0.028021039350425193 -0.01028086050742949
1780000000.0 -0.055622153745128945 0.007479191237418384
1800000000.0 0.09453640796049305 0.005174384837094198
1820000000.0 -0.08886895985380233 -0.0920153677350956
1840000000.0 0.1671288505483878 0.011951072689741254
1860000000.0 0.09483788132366956 0.17725408692947472
1880000000.0 0.21068293233632773 -0.10916242268825914
1900000000.0 -0.2816877571421854 -0.020201522425950837
1920000000.0 0.29189871719335686 -0.13532616901391897
1940000000.0 -0.3478315125404734 0.0021638075216883685
1960000000.0 0.04815872246242433 0.3703157269581583
1980000000.0 0.3815872700959533 -0.12911731741264237
2000000000.0 -0.3994439312299593 -0.13305727810047013
2020000000.0 -0.166412164557175 0.39431006457760254
2040000000.0 0.20405966955323818 0.3826722183425567
2060000000.0 0.41991019665410706 0.1095148301420107
2080000000.0 0.38800094675294866 -0.18637717695610864
2100000000.0 0.1832287653544541 -0.3840354499868449
2120000000.0 -0.0726993990526098 -0.41027922387622906
2140000000.0 -0.2907164189711937 -0.2783094567736828
2160000000.0 0.2747432635103993 -0.27679541178389644
2180000000.0 -0.11537679298510242 -0.3583339137811989
2200000000.0 -0.32282019163664794 -0.16103072102700028
2220000000.0 -0.3376419606441768 -0.09139502854148483
2240000000.0 -0.34415699645200265 -0.021659792402986718
2260000000.0 -0.27492888406855576 0.21187129787214298
2280000000.0 0.054546739040789514 0.34659000458361633
2300000000.0 0.35034321163736654 0.08966166859184119
2320000000.0 0.2032446670223038 -0.3279342927951733
2340000000.0 -0.3627868109758276 -0.2039163029182667
2360000000.0 -0.0743475436816033 0.44968642534323855
2380000000.0 0.1919618217319821 -0.4700147303832376
2400000000.0 0.006609555794397943 0.5622985622100412
2420000000.0 -0.4311054880436271 -0.43852560570103927
2440000000.0 0.6603543900995563 -0.053280766806947384
2460000000.0 -0.4797283101473538 0.5136352840355679
2480000000.0 0.07097404320141895 -0.7303621567504786
2500000000.0 0.019960665011757264 0.7534957270112659
2520000000.0 0.11677278092170805 -0.7557145284781216
2540000000.0 -0.402701525004856 0.6533794679545931
2560000000.0 0.7405192351535452 -0.1770073209464522
2580000000.0 -0.580335860853413 -0.4704151891723247
2600000000.0 -0.04360998029217552 0.7218392416983156
2620000000.0 0.5494422839171094 -0.42450392720532487
2640000000.0 0.14734209610264515 -0.6407964809113423
2660000000.0 -0.5110009774919112 0.34086142861638047
2680000000.0 0.566626138684958 0.026038362894308047
2700000000.0 -0.3780420659927479 -0.35576018435427503
2720000000.0 0.2706157795677006 0.3855038983758595
2740000000.0 -0.05711281755733294 -0.41795115512013964
2760000000.0 -0.2504472082317146 0.28884032000957854
2780000000.0 0.2528149766981162 -0.24151817186626004
2800000000.0 -0.2025162978249279 0.2543610733740247
2820000000.0 0.13498992468177343 -0.2767632261166905
2840000000.0 0.17523151482385302 0.24462279690252994
2860000000.0 -0.26586598775436254 0.12525649280950713
2880000000.0 0.02122923417941964 -0.28909033546657026
2900000000.0 -0.17838605761187942 0.22673683804857786
2920000000.0 0.21428191001766578 0.20231894153238986
2940000000.0 0.17827617241015736 -0.24834009779947488
2960000000.0 -0.30468282910011246 -0.07276531287497974
2980000000.0 -0.19909000280043956 0.24457863650905562
3000000000.0 -0.31100605597510456 0.04864710077174056
3020000000.0 -0.1722758396302811 -0.2656588373656825
3040000000.0 0.12153499991321702 -0.2906237825365323
3060000000.0 0.17985870790502395 0.25023882145204934
3080000000.0 -0.228876158692077 -0.1920347402968584
3100000000.0 0.04066728203433951 0.2867838855010806
3120000000.0 -0.020203922666448833 -0.2835505691944482
3140000000.0 0.08949540054355751 0.2602544100070604
3160000000.0 -0.18828621305819435 -0.18373353096146275
3180000000.0 -0.013351421990303555 0.24920539484117746
3200000000.0 -0.22449480568975103 0.04550546409457413
3220000000.0 -0.18124687872547904 -0.09063839418811377
3240000000.0 -0.020398634347416008 -0.1702212435855939
3260000000.0 0.08295702932887204 -0.1083973182567233
3280000000.0 -0.09824412711421883 0.017297101951773777
3300000000.0 -0.0011827411794235706 0.07166960102424924
3320000000.0 -0.03739716033659066 0.020127083984280404
3340000000.0 -0.007272492408556458 -0.021842426436498884
3360000000.0 0.008026371682283267 -0.0007844674026556625
3380000000.0 -0.002152975783833915 0.004966891564135318
3400000000.0 -0.016267325963663235 -0.0008600006123918048
3420000000.0 -0.03203971967319934 0.0031556364606530403
3440000000.0 0.044787333233725635 0.01527501969312695
3460000000.0 -0.04519196965021672 -0.04133713040969447
3480000000.0 -0.038412667388287976 0.06149174238652175
3500000000.0 0.08887225155709812 -0.015316653955066309
3520000000.0 0.10268396294915735 0.01662240987093392
3540000000.0 -0.09922169136943802 0.05814679137357226
3560000000.0 -0.011440421143641043 -0.12176169049684912
3580000000.0 -0.11957541907419149 -0.05794932843767129
3600000000.0 0.14071286940468178 0.04774708465836718
3620000000.0 -0.16384112774416656 -0.0093074513341405
3640000000.0 -0.17488587836795577 -0.044881304483648375
3660000000.0 -0.10401986737375124 -0.15896669466580093
3680000000.0 -0.1487575504679879 -0.12699154202195478
3700000000.0 -0.19492045878118455 0.016967435517953634
3720000000.0 -0.18401430052377235 -0.04910506823984742
3740000000.0 0.09404181461104826 -0.15369065068549825
3760000000.0 -0.08162266415159214 -0.15492664004744444
3780000000.0 -0.07325504605442722 0.15494797451548073
3800000000.0 0.09040060126680667 -0.14043558147392876
3820000000.0 -0.15252918676378532 0.049971235340560805
3840000000.0 -0.1129449164667336 0.0995362559848518
3860000000.0 -0.13722438897940215 0.048190509337086164
3880000000.0 0.01258109342602116 -0.14249699487103434
3900000000.0 0.0059076211872282165 0.14717470254199538
3920000000.0 0.12509943933228804 0.09651303883180562
3940000000.0 -0.13551481585157457 0.1023794870080283
3960000000.0 0.03221795966911076 0.17616230657480708
3980000000.0 0.11039553602835654 -0.13878325980996198
4000000000.0 -0.16206145644913736 -0.04118590217937883
