!Created with skrf (http://scikit-rf.org).
# Hz S RI R 50.0 
!freq ReS11 ImS11
400000000.0 0.4996802823334516 0.7127337831399672
420000000.0 0.8439447198563772 -0.039727245368721104
440000000.0 0.77600768531301 -0.18852801960309584
460000000.0 0.722978686876854 0.17185899812943778
480000000.0 -0.060335562550348776 -0.6814291710698234
500000000.0 0.031507881801118846 0.5998601890146011
520000000.0 0.037286886009004 0.5090197397856193
540000000.0 -0.3282471637357078 -0.287760976801081
560000000.0 0.057278564488327056 0.3929901105032691
580000000.0 -0.3515925076072912 -0.07824439968228832
600000000.0 0.34938691579516895 -0.06618216717796706
620000000.0 -0.13058953015904554 -0.33070447132932457
640000000.0 0.4045148935026234 -0.0700452878995376
660000000.0 0.23602998695641184 0.3390608223776274
680000000.0 -0.14079084978210715 -0.42231101749245264
700000000.0 0.05559782903642256 0.45902706093819795
720000000.0 -0.406943916630957 0.22704437198049446
740000000.0 0.019597541349094826 0.42587926807713594
760000000.0 -0.3834468127724818 -0.11646487375555556
780000000.0 -0.36936724333813986 -0.06139866735436681
800000000.0 -0.31096490101477386 -0.12401670867656804
820000000.0 -0.16736195115535396 0.22629606165296462
840000000.0 -0.025567139487079397 -0.21131833531726832
860000000.0 -0.1755407024615955 0.0362230431526636
880000000.0 0.13565004348778267 0.06208449828869879
900000000.0 0.012211327859568745 0.09667385140175051
920000000.0 -0.0008360372614167102 0.05134815376284924
940000000.0 0.02642151458689634 0.014154334813952849
960000000.0 0.02011952234592715 -0.024851095954330035
980000000.0 0.05256893608615706 -0.0038404156470084553
1000000000.0 -0.08833872764648039 0.02285145163856684
1020000000.0 -0.11284146776467756 -0.03956924131615738
1040000000.0 0.0770457519202264 -0.11506256919346941
1060000000.0 0.07266756663116185 0.15160832898704418
1080000000.0 0.07693579998340865 0.17432910240686875
1100000000.0 -0.19139014396728832 -0.08694462516179913
1120000000.0 0.1657086869703337 -0.15757919429580355
1140000000.0 -0.20066892899461528 0.15398522801028564
1160000000.0 -0.27605577346794324 -0.025762878017422698
1180000000.0 0.030228079427713692 -0.3063409603985225
1200000000.0 0.1974965182991504 0.2830356991325344
1220000000.0 -0.20560625700432675 -0.31519905436792217
1240000000.0 0.3978401078080792 0.0015882716566047747
1260000000.0 -0.37750617749715576 -0.1591211279152698
1280000000.0 -0.3913173243169727 0.16387742803289712
1300000000.0 0.37996835695563014 0.2027342092391713
1320000000.0 0.43093904572933583 0.01074558830109112
1340000000.0 0.22960654592628157 0.37136900099445985
1360000000.0 0.4217310665946214 0.1371391922591159
1380000000.0 0.008424063743379222 -0.4361351829078819
1400000000.0 -0.24491737532837274 -0.34955853906829015
1420000000.0 0.07066313574203613 0.4006497419881506
1440000000.0 0.3196003903725927 -0.19917885096152724
1460000000.0 0.2043015160628224 -0.27908404375438584
1480000000.0 -0.28360481276141075 -0.14018412896130814
1500000000.0 -0.044857739939015734 0.27997937648104804
1520000000.0 -0.1807305329199728 0.17686929224057113
1540000000.0 0.1239537601520784 0.18873794908210623
1560000000.0 -0.10192631158254864 0.1679938539875124
1580000000.0 -0.14584084739857126 0.09594688552907941
1600000000.0 0.04704889691623307 0.13013275208189815
1620000000.0 0.07310477031718836 -0.0683616144666521
1640000000.0 -0.04648581489953406 -0.060076291313751085
1660000000.0 -0.059304802017402763 0.018001739516012593
1680000000.0 -0.030718381413810295 -0.02687485979210342
1700000000.0 0.00027197574431651753 -0.021691603349379
1720000000.0 -0.009233547813713102 0.005002454493019639
1740000000.0 -0.009325365588579564 -0.0036615002124556037
1760000000.0 -0.02576834471203812 0.005780614731223981
1780000000.0 -0.007207618948868117 0.050814590592187625
1800000000.0 -0.06813661933734252 0.06361462681460933
1820000000.0 0.1247622999644649 0.010048613354596444
1840000000.0 -0.1370887024972412 0.08821733676069995
1860000000.0 -0.005208977557380734 0.20231953725842908
1880000000.0 0.22991976739162606 -0.06427155018975267
1900000000.0 -0.17563233221677524 -0.21594932242952744
1920000000.0 0.1881956137633762 -0.25636717792356817
1940000000.0 -0.2976476867006139 -0.16510032025333124
1960000000.0 -0.36630639340579807 0.023315237524622192
1980000000.0 0.39124665071968734 0.08649105345072292
2000000000.0 -0.03429997608741312 -0.4192799727275439
2020000000.0 -0.3585038566732229 -0.23716831479452957
2040000000.0 0.06701714951285422 0.430202533664586
2060000000.0 0.23708846532577027 0.365509036253334
2080000000.0 0.3409359757644194 0.26705166307681255
2100000000.0 0.04053868253958705 -0.4243717031930167
2120000000.0 -0.028357880970629377 -0.4136246020490472
2140000000.0 0.18921537862327029 -0.3504555537867964
2160000000.0 0.3607720597677827 -0.13393762343512292
2180000000.0 0.3704210096207047 -0.04596850109755876
2200000000.0 0.3345753665347306 -0.13959994994218208
2220000000.0 -0.28045834608899867 -0.2131810364812529
2240000000.0 -0.22864415316770703 -0.2599406741598531
2260000000.0 -0.3067999708401981 -0.15594696915130915
2280000000.0 0.06382829759756103 0.34065526333896967
2300000000.0 0.12748390810293891 0.32994643573893007
2320000000.0 0.1557278541455797 0.3417551292906764
2340000000.0 -0.06041945672109217 -0.40472256674429946
2360000000.0 -0.43779206748466837 -0.09654807809216975
2380000000.0 0.19158266673567456 0.4604200942580463
2400000000.0 -0.416270835877835 0.371808716957844
2420000000.0 0.4535791857891279 -0.4079480289853407
2440000000.0 -0.44325614247614104 0.48513647315581665
2460000000.0 -0.6983981609030114 -0.06401057890911621
2480000000.0 0.7093005722649973 0.1871709578199755
2500000000.0 -0.4282084046195842 -0.6221931547063807
2520000000.0 0.7100085911915314 -0.29335224086085027
2540000000.0 -0.5802447972948447 -0.5088709359762706
2560000000.0 -0.4237175982204512 0.6404041076767669
2580000000.0 0.07110590322085118 -0.7501073243088237
2600000000.0 -0.7278122895581808 -0.07529361646016994
2620000000.0 0.0391654479047483 0.703944096194456
2640000000.0 0.5596825442464838 -0.363000331920191
2660000000.0 -0.45529922709850973 -0.4300278658010253
2680000000.0 -0.2097224942348885 0.5412110815282093
2700000000.0 -0.32550670028889844 -0.41627697192317675
2720000000.0 -0.10579171814377478 0.4693489063640678
2740000000.0 0.41909902654832 -0.10389330517524341
2760000000.0 -0.3205430974293996 0.22108225334867798
2780000000.0 0.3565795361552377 0.040490368863516216
2800000000.0 -0.29330707434847586 -0.16223658423074527
2820000000.0 0.037081110218010395 -0.3127520859500241
2840000000.0 0.10175048543185104 0.28967273744155864
2860000000.0 -0.22235417653899303 -0.20047757490530876
2880000000.0 0.05871335862849348 -0.2881766829010507
2900000000.0 -0.29273051869948624 0.0125437141089426
2920000000.0 -0.17893288873376428 0.2396196090906464
2940000000.0 0.1448548226702247 -0.27317287989493994
2960000000.0 -0.15587369321135047 -0.2749266714894136
2980000000.0 -0.22507208943729398 -0.2232454345494883
3000000000.0 -0.2767917373942587 -0.15457836469661168
3020000000.0 0.19021885041032405 0.25881283380002984
3040000000.0 0.28938823167551736 0.13914259467059856
3060000000.0 0.1704541371657181 0.26327968611319474
3080000000.0 0.2640998730229572 -0.14697167224730365
3100000000.0 -0.17884233874256675 0.231005831764561
3120000000.0 -0.0847890111378276 -0.2715357348058005
3140000000.0 -0.27293221966162223 -0.026311670211942334
3160000000.0 0.21699198001913403 -0.14950325337520734
3180000000.0 -0.23714459456181364 0.0786647070699519
3200000000.0 0.23397935138608963 -0.022856419705688587
3220000000.0 0.05728151964037531 -0.19988497280346387
3240000000.0 -0.08794337850075112 -0.14996381651418658
3260000000.0 0.13883557482120143 -0.03444184577408575
3280000000.0 0.025120191952023065 0.09632785144526448
3300000000.0 0.03528515838644711 -0.056853111902641945
3320000000.0 0.027875719098885615 -0.029523498817680828
3340000000.0 0.0013816946933667674 -0.020400839157751868
3360000000.0 -0.003830194773478128 -0.00672293201670941
3380000000.0 0.003148378126370059 0.0009088203790050304
3400000000.0 0.01577900351420534 0.004188777054171217
3420000000.0 0.006334493739030783 -0.034573444747943584
3440000000.0 -0.04382025834061663 0.02429158413458397
3460000000.0 0.04617642302728741 0.0457434039496992
3480000000.0 -0.059576665653363704 0.05070955297540033
3500000000.0 0.0856009876901978 0.02430343716152503
3520000000.0 0.057999493140251664 0.08350013145977898
3540000000.0 -0.09507134459810017 -0.06229480193018016
3560000000.0 -0.0467201617753825 0.1083292598340865
3580000000.0 0.06690814308348716 0.11463452917694192
3600000000.0 -0.14126827376188514 0.0596273566613845
3620000000.0 0.14766947535695138 -0.07216175714430631
3640000000.0 0.01853186326697753 -0.18029743071725188
3660000000.0 -0.11015680232517763 -0.15513688076937987
3680000000.0 0.11167951574188702 -0.1556729784993399
3700000000.0 -0.07897748369895448 -0.17336193844349318
3720000000.0 0.11366312797963746 -0.14886186034989413
3740000000.0 0.034192422570342884 0.1767825075515804
3760000000.0 0.16067420150542852 -0.07578055830984312
3780000000.0 -0.11641993687084073 0.12949152896367333
3800000000.0 0.05064824050692599 -0.1603648715452331
3820000000.0 -0.10242197788143417 0.11864400449650177
3840000000.0 -0.1446579330818862 0.012729708889764473
3860000000.0 -0.0022416454501135745 -0.140617784123321
3880000000.0 0.0827106031562274 0.11481382965134493
3900000000.0 -0.1428737790888687 0.03543511307998323
3920000000.0 -0.06654057853723074 0.13862612356035955
3940000000.0 -0.1636812772374438 -0.038084072557226435
3960000000.0 -0.016383042630379912 0.1744157011680875
3980000000.0 0.1665607863988629 0.04253769916633192
4000000000.0 -0.06281126736126466 -0.1491964892817804
