!Created with skrf (http://scikit-rf.org).
# Hz S RI R 50.0 
!freq ReS11 ImS11
400000000.0 0.5149499250685682 0.7005788915126577
420000000.0 0.8417762792195895 -0.07307559819661312
440000000.0 0.7742296528269837 -0.19666628338014785
460000000.0 0.7279632934289675 0.1505369076786156
480000000.0 -0.0929754563813404 -0.6774536436410279
500000000.0 0.015796601738965098 0.6012042478332523
520000000.0 0.0497821152877194 0.508090887526277
540000000.0 -0.31764868357468856 -0.2994505729075172
560000000.0 0.04422128949954786 0.3950167804732825
580000000.0 -0.3505974871040148 -0.08338977983711315
600000000.0 0.34451087586450324 -0.08739771200075579
620000000.0 -0.18377810931205818 -0.3039943870560699
640000000.0 0.39353095836694996 -0.11514025348699011
660000000.0 0.240626872710501 0.3353916200350938
680000000.0 -0.13172168205575036 -0.4253218707072727
700000000.0 0.10364810396877826 0.45063952378176836
720000000.0 -0.417743551989538 0.20663853781631755
740000000.0 0.04749899513749371 0.42335830963499893
760000000.0 -0.37905152416318116 -0.12884405982057676
780000000.0 -0.36195363564961974 -0.0958673518936315
800000000.0 -0.30390951285698353 -0.1415150139101265
820000000.0 -0.16242378973246308 0.2300194958051607
840000000.0 -0.014877386137675268 -0.21206846589358166
860000000.0 -0.17734862133569015 0.02370241780267333
880000000.0 0.13849310819129657 0.05508026008997529
900000000.0 0.03715176077019516 0.08979796283667045
920000000.0 0.024659989677836697 0.044488690749915676
940000000.0 0.011914027997129277 -0.02694002559114328
960000000.0 -0.023194762937857164 -0.02155666774371819
980000000.0 0.03477945476652211 -0.039484270562803445
1000000000.0 -0.0883769604082202 0.021712274622396822
1020000000.0 -0.10573156929246326 -0.05541501621128529
1040000000.0 0.09067940540021777 -0.10399931026728593
1060000000.0 0.04631325377339371 0.16101045603879202
1080000000.0 0.049483635104763245 0.1840289552452667
1100000000.0 -0.18458395336333597 -0.10098114675780642
1120000000.0 0.16223754215199876 -0.16185211886812012
1140000000.0 -0.15448875129359593 0.20086207203531076
1160000000.0 -0.2772213330040109 -0.0032155019773698486
1180000000.0 -0.005992723756430286 -0.30783888155014866
1200000000.0 0.2201745210286087 0.2655477096106041
1220000000.0 -0.2211494375343586 -0.30421072652100667
1240000000.0 0.3977731895082161 -0.0037108860354072492
1260000000.0 -0.3661302022542936 -0.18378057633669162
1280000000.0 -0.39575878038531026 0.1549553276179467
1300000000.0 0.4005033167252513 0.16062324109056605
1320000000.0 0.43075973255755173 -0.019126435959331434
1340000000.0 0.2607005569790442 0.34940962054809094
1360000000.0 0.41823338499213203 0.1453422235850559
1380000000.0 0.07305544034675736 -0.4296357241674882
1400000000.0 -0.18277795768041077 -0.38619885157853007
1420000000.0 0.04256455152023855 0.4058466683596007
1440000000.0 0.30661669929339724 -0.2198729881989464
1460000000.0 0.15459735104007796 -0.3092653713808894
1480000000.0 -0.29591766017329485 -0.10881667865154243
1500000000.0 -0.05508606942534343 0.2765423077943281
1520000000.0 -0.21316444247878358 0.13438842782096763
1540000000.0 0.06410400071677458 0.2161190186649674
1560000000.0 -0.13957266327688936 0.13858512607759182
1580000000.0 -0.17143506603818648 0.03711740765859244
1600000000.0 0.09579855271774185 0.1006888020026461
1620000000.0 0.016990488630716293 -0.0985870397107247
1640000000.0 -0.07497515906973189 -0.0060313062738216435
1660000000.0 -0.042404191625917624 0.04379171993320552
1680000000.0 -0.0251107497261816 -0.03129268385152382
1700000000.0 0.019428963797447817 0.009074175942711682
1720000000.0 0.005091871607877711 -0.010250729298947969
1740000000.0 -0.001883536887945624 0.00945779901190788
1760000000.0 -0.013837616898802056 0.020838457188141115
1780000000.0 -0.03983654074939437 0.03141983722333506
1800000000.0 -0.08814239139804363 0.03158282433634269
1820000000.0 0.12339293053888425 0.026027890920225144
1840000000.0 -0.12453229026483673 0.10715318553091878
1860000000.0 0.05354982161977242 0.19571009545194878
1880000000.0 0.2153493950419373 -0.10228985897710563
1900000000.0 -0.175534846012107 -0.21533338305981217
1920000000.0 0.22468893474351245 -0.22470758862542659
1940000000.0 -0.268056303897008 -0.21001168487844407
1960000000.0 -0.3665972632104687 -0.024609774404533512
1980000000.0 0.38003319557873766 0.1287115895751392
2000000000.0 -0.0266900959185847 -0.4200396959634823
2020000000.0 -0.3543603244669332 -0.24295581122493057
2040000000.0 0.10005868725275502 0.4227954281989958
2060000000.0 0.2433105977522612 0.36010186087780643
2080000000.0 0.3322248556380026 0.27597715073687784
2100000000.0 0.04710590962937581 -0.422802519747775
2120000000.0 -0.03523486357744589 -0.41262349949392657
2140000000.0 0.1681245850753685 -0.36076497858969164
2160000000.0 0.3504166109311006 -0.15910659551309078
2180000000.0 0.35989272153965624 -0.09905312635845423
2200000000.0 0.30605806518779255 -0.1941582051033012
2220000000.0 -0.3071310004613169 -0.17125806981794628
2240000000.0 -0.24816009273693865 -0.24132818684612392
2260000000.0 -0.3016031395446283 -0.16587585705582883
2280000000.0 0.035267453737351025 0.3454477424989246
2300000000.0 0.09248859799667898 0.3420992376746645
2320000000.0 0.13392388532131913 0.35191760485024
2340000000.0 -0.007695605060126089 -0.40928736065640814
2360000000.0 -0.41455218319328213 -0.16967768022635227
2380000000.0 0.09633599613217457 0.4890271778505489
2400000000.0 -0.4877958064538483 0.2699744648160624
2420000000.0 0.5387760298792982 -0.28539673589356035
2440000000.0 -0.5174634831599646 0.40381538394917055
2460000000.0 -0.6772430462382789 -0.1797041936170172
2480000000.0 0.6826703299250655 0.26670352980085715
2500000000.0 -0.40877761135324187 -0.634214672230661
2520000000.0 0.7269625254203365 -0.2465909424852663
2540000000.0 -0.5537794232779398 -0.5372323374442873
2560000000.0 -0.4122422262491694 0.6478732755377465
2580000000.0 0.05652827874957718 -0.7517795547568863
2600000000.0 -0.7328476869317444 -0.0010758229505929884
2620000000.0 -0.0083396758347815 0.706417861652149
2640000000.0 0.5297871673784662 -0.4081072639558035
2660000000.0 -0.4638429433138345 -0.4238101463965788
2680000000.0 -0.21423256778614647 0.5418019599425108
2700000000.0 -0.29514105018526077 -0.44089637738332543
2720000000.0 -0.13950843248773326 0.4626806228782771
2740000000.0 0.42029955278693154 -0.10728759653318193
2760000000.0 -0.3317749982579437 0.20691225578092423
2780000000.0 0.35104756892872585 0.07954540281428953
2800000000.0 -0.2758160139999062 -0.19197735415961453
2820000000.0 0.07943497322232093 -0.30524793098280967
2840000000.0 0.06542957360755353 0.300492339729145
2860000000.0 -0.20994446235329925 -0.21336886671073996
2880000000.0 0.07520915476702116 -0.28417145236268365
2900000000.0 -0.29286183904149715 0.00511433185202916
2920000000.0 -0.15136283642375126 0.2572473108090156
2940000000.0 0.12414549571790175 -0.2827381401228384
2960000000.0 -0.1705830548572816 -0.26578468393367893
2980000000.0 -0.23745195386358245 -0.20978594490304467
3000000000.0 -0.2989068825772917 -0.1066929040050815
3020000000.0 0.2228766886939181 0.23126287143051902
3040000000.0 0.2983371477288885 0.11899692389705346
3060000000.0 0.21605403213293073 0.22706113290669075
3080000000.0 0.2458641454942162 -0.17533601199005758
3100000000.0 -0.1301360950881904 0.2617202310018382
3120000000.0 -0.12517327743293558 -0.25558265983689415
3140000000.0 -0.272336835893277 0.03667007880941432
3160000000.0 0.1708418371710585 -0.20105581378527648
3180000000.0 -0.20964530240233206 0.13621396325171709
3200000000.0 0.21462720207765296 -0.09727798898548307
3220000000.0 -0.0059246033670508555 -0.2085366726905392
3240000000.0 -0.11408490830723177 -0.13179277336000855
3260000000.0 0.1370179157461558 -0.04418545094105209
3280000000.0 0.009784574719132286 0.10072408851783922
3300000000.0 0.030154779402706448 -0.06196722242172637
3320000000.0 0.008899412276846002 -0.04143226757872023
3340000000.0 -0.017041723085047072 0.013066816583190498
3360000000.0 0.007355520493183222 -0.003235648176433519
3380000000.0 0.002310087611479015 0.0018813035798982223
3400000000.0 -0.010433594978524367 -0.011115669934018219
3420000000.0 -0.0067798407609081564 -0.03274913401528369
3440000000.0 -0.030720650312899885 0.03761679309519922
3460000000.0 0.039064735743291334 0.050587356553296665
3480000000.0 -0.051925513516266196 0.05797287116276366
3500000000.0 0.08848206930541398 0.0067986551094108665
3520000000.0 0.09743963261673656 0.029494999232326128
3540000000.0 -0.11324780395091588 0.0008124824698928935
3560000000.0 0.03825990499064333 0.11150289949308986
3580000000.0 0.11165501694286145 0.07104216964262325
3600000000.0 -0.10409981863279798 0.11189176074799771
3620000000.0 0.11817808835767418 -0.11438233555716225
3640000000.0 -0.045751216406324825 -0.17596029068064667
3660000000.0 -0.15479014855748022 -0.11145073423839433
3680000000.0 0.04363923456273666 -0.18708474506512981
3700000000.0 -0.12955155525440776 -0.1406639054968556
3720000000.0 0.08191512169498386 -0.16922244133431744
3740000000.0 0.06574116890427859 0.1685277314476656
3760000000.0 0.15595747373732247 -0.0861231774254858
3780000000.0 -0.12749058528504084 0.1196385645471719
3800000000.0 0.07081002407139532 -0.15310854676229646
3820000000.0 -0.12391547955039932 0.09696263931300873
3840000000.0 -0.14605408731234207 0.0017401152003098232
3860000000.0 0.013594155228380736 -0.14087580029711913
3880000000.0 0.0988852507569173 0.1022208181787377
3900000000.0 -0.14417943437284272 0.032210230995353716
3920000000.0 -0.08358225534967498 0.12920001589241506
3940000000.0 -0.14898376139654937 -0.07815187317652249
3960000000.0 -0.06977105122389415 0.16127007053264025
3980000000.0 0.1391837987867346 0.10178684594741436
4000000000.0 0.015439444749732118 -0.16146741150467547
