!Created with skrf (http://scikit-rf.org).
# Hz S RI R 50.0 
!freq ReS11 ImS11
400000000.0 0.7688204677329848 0.4011344267052767
420000000.0 0.837204336120817 -0.07638000436210733
440000000.0 0.7948327128931083 0.05124297778913973
460000000.0 0.7481935047892123 0.07917806220646266
480000000.0 -0.43157768186762546 -0.5437085035886309
500000000.0 0.5873157999135561 0.11984384175391609
520000000.0 0.3975270810357184 -0.300250253201349
540000000.0 -0.38762398703034767 -0.17356669526962032
560000000.0 -0.35279849781187544 0.14673384501814032
580000000.0 0.26308367526801557 -0.24086895116182205
600000000.0 -0.0863740561950675 0.3502291371131311
620000000.0 0.16336776384982876 -0.33521969418407616
640000000.0 -0.3448911470016097 -0.2506730640667768
660000000.0 0.4216956259718424 -0.02120278969498376
680000000.0 0.35197287188962073 0.2652384990968184
700000000.0 0.4325937553828148 0.06026476440830007
720000000.0 0.13908446657614715 -0.4269475776669351
740000000.0 0.09202506736038334 -0.42632867862292395
760000000.0 -0.4256223697239418 -0.0014063368241802596
780000000.0 0.15639384799997944 0.35333186077260553
800000000.0 0.28903435351884904 -0.1607625136629847
820000000.0 0.22073490406545673 0.15291244144955599
840000000.0 0.10306409218750968 -0.1736927587169528
860000000.0 0.08294752273475503 -0.15148905739601676
880000000.0 -0.1391601450831742 0.05752047623149305
900000000.0 -0.10284132930727446 0.019216771166054
920000000.0 -0.048168464744367936 0.02536676470697553
940000000.0 0.025179760847760416 0.01643775993894552
960000000.0 -0.019703902031291617 -0.022899680695862817
980000000.0 0.02521195501191393 0.04911625901300224
1000000000.0 0.008061102232452218 0.09023903502952389
1020000000.0 -0.10878035167472917 0.04933259002745125
1040000000.0 -0.13001469049488276 -0.04267503093471835
1060000000.0 0.14915118047693104 0.06579965724207863
1080000000.0 -0.13851792342312305 0.12227884339756884
1100000000.0 -0.08739118118017435 -0.1913088303180808
1120000000.0 0.2238498509602078 -0.06651459761193675
1140000000.0 -0.22892166493107977 0.11212135151769223
1160000000.0 -0.20763649232056358 0.19284013130314737
1180000000.0 -0.310926262119828 -0.03513256937454434
1200000000.0 0.3368570510272256 -0.07418648473071467
1220000000.0 -0.2541758613449638 0.2748590115049717
1240000000.0 0.2820704562383877 -0.274012950838629
1260000000.0 -0.3232590746839907 -0.2425841876627907
1280000000.0 -0.3442344290722629 0.24174744156771297
1300000000.0 0.14902613783462754 0.4040024101717821
1320000000.0 0.3419543199500192 0.27406985239431764
1340000000.0 0.4449241888283029 -0.015703308969614724
1360000000.0 0.29145178913797143 -0.33883819762201983
1380000000.0 -0.32410875496563607 -0.2911305153307647
1400000000.0 -0.4089837334194895 0.1030809099006367
1420000000.0 0.20595263678771594 0.34293890912603414
1440000000.0 0.36934755556883425 0.040823892851611046
1460000000.0 0.29293675096851846 -0.18054765037348852
1480000000.0 -0.2656096484590484 -0.17277361722143134
1500000000.0 -0.014446754174400249 0.28554033725581685
1520000000.0 -0.00822327696487094 0.2517989738227494
1540000000.0 0.02663041149753701 -0.22082924178975968
1560000000.0 0.0027253102837457733 0.19325904806019595
1580000000.0 -0.0592593106542947 0.15771700077522938
1600000000.0 0.13389339461790886 -0.011736987469947032
1620000000.0 0.1011549916083921 0.0010235881818632501
1640000000.0 -0.06359260585596918 0.04662614274603524
1660000000.0 0.007163767244473653 0.06393360134058708
1680000000.0 -0.039513975151481216 -0.010385949439617228
1700000000.0 0.004736176423281788 0.019150824389345317
1720000000.0 0.005715993444384537 -0.001666260754539588
1740000000.0 0.01236903521407372 0.006209111790648685
1760000000.0 0.027716830379255757 -0.01167237236716875
1780000000.0 -0.05044683147725133 0.02468915707191447
1800000000.0 0.0920016452207373 0.019700096145704556
1820000000.0 -0.09274939657237974 -0.08841842525788081
1840000000.0 0.16518719011912267 0.02576464564855743
1860000000.0 0.08657119094902217 0.1818136653938664
1880000000.0 0.20867658052982488 -0.1129985806989073
1900000000.0 -0.2813293623634796 -0.02762177951488798
1920000000.0 0.2903994797765865 -0.1385591528317152
1940000000.0 -0.3477462930852996 0.009510455936355185
1960000000.0 0.05264127006612485 0.3696355080060568
1980000000.0 0.38530338283151877 -0.1180388347810291
2000000000.0 -0.390496684945265 -0.15834849980444105
2020000000.0 -0.17098921970344408 0.3923392797375699
2040000000.0 0.19686478502847027 0.38683529702234914
2060000000.0 0.4158968566878799 0.1252729912954348
2080000000.0 0.3942683114892431 -0.17357361170152566
2100000000.0 0.16609341639043185 -0.3917222007568602
2120000000.0 -0.12661628608075667 -0.39684168985176616
2140000000.0 -0.27227014176095815 -0.2965550750326177
2160000000.0 0.2780188522415873 -0.2735508159606237
2180000000.0 -0.10821196370620782 -0.36060134780424036
2200000000.0 -0.3145535386986382 -0.17688480511549898
2220000000.0 -0.3438732539231761 -0.060952809398132475
2240000000.0 -0.34014656531035564 -0.05723803430631373
2260000000.0 -0.2822089364053951 0.20202002898806784
2280000000.0 0.04633179408570679 0.3476730749713873
2300000000.0 0.34841377617382474 0.0960106782757283
2320000000.0 0.2013676326712898 -0.32890301292533863
2340000000.0 -0.371781179291605 -0.18724003760930996
2360000000.0 -0.06256122625776667 0.451500534150466
2380000000.0 0.1814458286039453 -0.4745230635073603
2400000000.0 0.05011952306950813 0.5604313832623494
2420000000.0 -0.44757267925619454 -0.4221192510751591
2440000000.0 0.657868757818414 -0.08067929125833842
2460000000.0 -0.45590815744257357 0.535211577710883
2480000000.0 0.0357125308251437 -0.7328249671710834
2500000000.0 -0.014059921425860485 0.753947564054132
2520000000.0 0.118170561147219 -0.7555640572340461
2540000000.0 -0.4213427307572673 0.6413127792902371
2560000000.0 0.7355174640843637 -0.1966301685618292
2580000000.0 -0.5453114954920224 -0.5106894496879695
2600000000.0 -0.04672624030358682 0.7212313878635264
2620000000.0 0.5663116696583553 -0.4011870945063979
2640000000.0 0.1108102835782448 -0.6478194035402617
2660000000.0 -0.5191758451646034 0.3271152333612559
2680000000.0 0.5656687471695592 0.03203059092672896
2700000000.0 -0.3647524703989174 -0.36852878879085366
2720000000.0 0.2590019075926613 0.39278751926159194
2740000000.0 -0.06853821531714728 -0.4156419942161496
2760000000.0 -0.24201861585922288 0.2954036094092629
2780000000.0 0.24606218473405803 -0.24790212241124426
2800000000.0 -0.19285709758095132 0.2613295036977371
2820000000.0 0.12453873068150935 -0.2814355007316558
2840000000.0 0.19135281457254152 0.23152465378708253
2860000000.0 -0.26779999397470844 0.12158190422262653
2880000000.0 0.01569622791189777 -0.28956533508465027
2900000000.0 -0.18124833083467257 0.22488921885269464
2920000000.0 0.21944356986131383 0.19691045608513266
2940000000.0 0.1728567387853992 -0.25217320973945706
2960000000.0 -0.30234432332568345 -0.08205845243465917
2980000000.0 -0.21028249042167285 0.23555120496401438
3000000000.0 -0.31406131414859567 0.025856612876515372
3020000000.0 -0.15071652886452697 -0.2786217692340231
3040000000.0 0.23564170560900988 -0.2090231853294725
3060000000.0 0.20611628272506785 0.22933060950982548
3080000000.0 -0.2176346954926477 -0.204383455801672
3100000000.0 0.08066244987148838 0.27831822011694224
3120000000.0 0.06569045149729485 -0.27578393034115445
3140000000.0 0.08219719328432677 0.26252370538206743
3160000000.0 -0.16910767718253192 -0.2013552208455344
3180000000.0 -0.04286719524075777 0.24513911684289097
3200000000.0 -0.22370729942812134 0.04839363370725735
3220000000.0 -0.178668641630158 -0.09503319789700439
3240000000.0 -0.008184361686754646 -0.17123546173013587
3260000000.0 0.09119463739417434 -0.10136547943861189
3280000000.0 -0.0946557182999321 0.03129057982562518
3300000000.0 0.024231909121878812 0.06746942183963194
3320000000.0 -0.0370415668954629 0.02084103002558946
3340000000.0 -0.0026240131649124363 -0.02302772631017513
3360000000.0 -0.006557862727878248 0.00464514180632233
3380000000.0 -0.00256476443851755 0.004213583321959062
3400000000.0 0.0018571511910429276 -0.015744293903928487
3420000000.0 -0.030623820899408568 0.009398604394842755
3440000000.0 0.04579300762190362 -0.01310104216767571
3460000000.0 -0.015809028441328317 -0.05871290933469232
3480000000.0 -0.03357445541530209 0.0642447632168056
3500000000.0 0.08305550471364526 -0.035283071731907326
3520000000.0 0.09483531992087343 0.041716585321357864
3540000000.0 -0.09265631174306402 0.06797961110515853
3560000000.0 -0.024307246942056628 -0.12014547523586502
3580000000.0 -0.12512064194788755 -0.0455837484143262
3600000000.0 0.1310119649029454 0.06927053053555826
3620000000.0 -0.1640895438081417 -0.005402936600301168
3640000000.0 -0.17688597021592722 -0.037580547332000905
3660000000.0 -0.09404846954301642 -0.16451317700926035
3680000000.0 -0.13783462151228112 -0.13819274526318942
3700000000.0 -0.19546755992587356 0.0005356336497570617
3720000000.0 -0.17725026211423414 -0.070167789597005
3740000000.0 0.10239355848773991 -0.14784210375868273
3760000000.0 -0.08636353770370718 -0.15128691151542722
3780000000.0 -0.0730846193949649 0.1544002531041846
3800000000.0 0.0982914885378931 -0.13471139045284297
3820000000.0 -0.15754714877895568 0.02983467606180789
3840000000.0 -0.10610168630027285 0.10582214725966067
3860000000.0 -0.13857654080322365 0.0427376009747527
3880000000.0 0.01289011420555567 -0.14248758301924852
3900000000.0 0.026190102170141484 0.14429434151355724
3920000000.0 0.12828007906239655 0.09197748540795275
3940000000.0 -0.14397174307898888 0.09130627856237443
3960000000.0 0.02434084687607622 0.17715582754492534
3980000000.0 0.143405679198032 -0.10479651350275579
4000000000.0 -0.1324185743628969 -0.101750630576939
