!Created with skrf (http://scikit-rf.org).
# Hz S RI R 50.0 
!freq ReS11 ImS11
400000000.0 0.5121265993151071 0.7049894843377155
420000000.0 0.8435048690628795 -0.05240942159322063
440000000.0 0.7761696092198941 -0.1891949236862366
460000000.0 0.7219481153746974 0.17724992896419
480000000.0 -0.046594407845221786 -0.682650288098045
500000000.0 0.01802512771192255 0.6006266796154324
520000000.0 0.03725127810677855 0.5089739378976353
540000000.0 -0.3306323541240748 -0.2848067107685009
560000000.0 0.06077033971092283 0.39248175779790084
580000000.0 -0.3530529338474308 -0.07241440326739425
600000000.0 0.3486492436245562 -0.07127548339987434
620000000.0 -0.1904738238234228 -0.3006909308874487
640000000.0 0.40301424604045405 -0.07966734435585762
660000000.0 0.2279893747137114 0.3445041449213225
680000000.0 -0.11579083150092283 -0.4303133351070793
700000000.0 0.04862461478106356 0.45988054499977904
720000000.0 -0.4127586284236558 0.21602832689135643
740000000.0 0.005420023839406368 0.4263622764328273
760000000.0 -0.3785258961632138 -0.13028468278194433
780000000.0 -0.367254739059153 -0.07217151030969049
800000000.0 -0.31314934402457323 -0.11820285563647365
820000000.0 -0.15589904045916372 0.2345893456901289
840000000.0 -0.040556056786375284 -0.20888625979637748
860000000.0 -0.1763329126151078 0.032874958531662925
880000000.0 0.1423061722913428 0.04569734338947828
900000000.0 0.020637659813799294 0.09579562663672891
920000000.0 0.014145179967826422 0.04938938641026359
940000000.0 0.02444658652739092 0.01724140697170551
960000000.0 0.01825752200287956 -0.025917323992252137
980000000.0 0.05135101648905186 -0.009685195116974417
1000000000.0 -0.08807508304556906 0.022898893574227946
1020000000.0 -0.11487157688686257 -0.03281124066075921
1040000000.0 0.07133671775977722 -0.1185557852265796
1060000000.0 0.07878480292274556 0.14868012500219133
1080000000.0 0.0709535992440163 0.17739937471843908
1100000000.0 -0.19284237342222066 -0.08473046463731179
1120000000.0 0.17247287866846428 -0.15053089990108293
1140000000.0 -0.18431596883082302 0.1737963400130732
1160000000.0 -0.27322702602819393 -0.047320140993347214
1180000000.0 0.05015078998721759 -0.3037015739840981
1200000000.0 0.17950087787075628 0.2944804619708035
1220000000.0 -0.20333152146228267 -0.31660257258360497
1240000000.0 0.397579363838217 0.006618447292777836
1260000000.0 -0.3738567377205413 -0.16671785570639627
1280000000.0 -0.3906788083546026 0.16541649858733834
1300000000.0 0.3865852236332511 0.19010647975755374
1320000000.0 0.43076325328483683 -0.011098367526279716
1340000000.0 0.24991815082935318 0.35755580694000794
1360000000.0 0.42313958721033584 0.13129901794666862
1380000000.0 0.010361362901428651 -0.43590512736423054
1400000000.0 -0.2340194763004927 -0.35739758056202103
1420000000.0 0.08088583246591753 0.39943366877965475
1440000000.0 0.30701611378762794 -0.21898050483706036
1460000000.0 0.17253965624520443 -0.2998032376916843
1480000000.0 -0.3074897201115292 -0.0731137659207069
1500000000.0 -0.04599688314901519 0.279481209153712
1520000000.0 -0.1990121374781948 0.15610883290825064
1540000000.0 0.09554806879012327 0.20524668280852673
1560000000.0 -0.15042138170473673 0.12733672023826628
1580000000.0 -0.15977192578991947 0.07136184969636165
1600000000.0 0.051343528786766256 0.12862331762836576
1620000000.0 0.0602896561178395 -0.07971969943539862
1640000000.0 -0.05423135857488077 -0.05260585853984397
1660000000.0 -0.06010331760112693 0.012349804667101732
1680000000.0 -0.029497091379194366 -0.027689925619258295
1700000000.0 -0.005586589592401031 -0.020740941818402036
1720000000.0 -0.004491959661038983 -0.009505760821742974
1740000000.0 -0.009281758596815562 0.003198018329080044
1760000000.0 -0.02208919480113841 -0.013484330101178502
1780000000.0 -0.035103337079788494 0.03724596018210079
1800000000.0 -0.0854661736360389 0.037397196927958024
1820000000.0 0.12390543705379645 0.019274529250664457
1840000000.0 -0.13749942491962708 0.087918431547872
1860000000.0 0.008632918532139797 0.2020146124079571
1880000000.0 0.22630321427625505 -0.07454751973234347
1900000000.0 -0.17363300421352557 -0.2169967607217072
1920000000.0 0.1953079666356219 -0.25050778902194903
1940000000.0 -0.2940868947834193 -0.17135924642169945
1960000000.0 -0.3668268216254724 0.015898958863882734
1980000000.0 0.3934221517190036 0.07720944979721323
2000000000.0 -0.04908425493106087 -0.4181247021964743
2020000000.0 -0.3685313614300944 -0.2214641813373318
2040000000.0 0.07920372952783879 0.4281851099986423
2060000000.0 0.2501361274706856 0.35676238268288535
2080000000.0 0.34800302582019044 0.25763639741986666
2100000000.0 0.03519976271271935 -0.42506306595595383
2120000000.0 -0.024721569660388118 -0.4142700977017454
2140000000.0 0.19462908119370342 -0.3480664542219145
2160000000.0 0.3687149451759761 -0.11189704157609268
2180000000.0 0.37291702981365593 -0.026596394916395618
2200000000.0 0.33946127031291773 -0.1279850882252612
2220000000.0 -0.2685294142648976 -0.22753601688426692
2240000000.0 -0.21184666754946282 -0.27349497533845407
2260000000.0 -0.28974296634206215 -0.18553199881824992
2280000000.0 0.03509368066864454 0.3447696352943141
2300000000.0 0.09372197726394733 0.3407691524698656
2320000000.0 0.13418261091815115 0.3506828472579655
2340000000.0 -0.026920958121575366 -0.40782993751308083
2360000000.0 -0.4274738350871276 -0.13294562362883997
2380000000.0 0.15351908888408206 0.47391434395036647
2400000000.0 -0.4484659027389605 0.33140933813022627
2420000000.0 0.4968541973466406 -0.3538087385595513
2440000000.0 -0.468639318162278 0.46052416484038355
2460000000.0 -0.6936918272053786 -0.10429788123712502
2480000000.0 0.6975641735547232 0.22824485575534664
2500000000.0 -0.4288672426737273 -0.6220764654671467
2520000000.0 0.7234987453618278 -0.2594283024875896
2540000000.0 -0.5166850393946044 -0.5742534698227785
2560000000.0 -0.44291138295591176 0.6282114618681498
2580000000.0 0.10022904634808326 -0.7475229608993991
2600000000.0 -0.7302485177841328 -0.05872442729803304
2620000000.0 -0.04109716634045368 0.7047845573866596
2640000000.0 0.5541849260010344 -0.3732439603869336
2660000000.0 -0.4304384470975103 -0.4559589405279009
2680000000.0 -0.2556573651275373 0.522042333808763
2700000000.0 -0.2815347815039017 -0.4478748088064996
2720000000.0 -0.13466411513274182 0.4624582131461426
2740000000.0 0.4238456810428637 -0.08495505171868506
2760000000.0 -0.3207563953989196 0.22137205286813688
2780000000.0 0.3568652553863845 0.04008857137664516
2800000000.0 -0.29810758481842337 -0.15380472161409903
2820000000.0 0.02890546811890337 -0.31379887363157993
2840000000.0 0.10870115841394902 0.2876397985406475
2860000000.0 -0.23614743533604218 -0.18471322671926207
2880000000.0 0.050640259776360434 -0.2903539559738767
2900000000.0 -0.29310720558637143 0.018377081220523717
2920000000.0 -0.17241308069365566 0.24511585528022012
2940000000.0 0.1427777389957371 -0.27489245733894885
2960000000.0 -0.1384717249888903 -0.2847310517547323
2980000000.0 -0.20848832862521408 -0.2396333074481852
3000000000.0 -0.26853207048653605 -0.1708582477710817
3020000000.0 0.17918870490646818 0.2672735180728414
3040000000.0 0.27621446150232487 0.16460349792053
3060000000.0 0.14712183883105284 0.27708949294496366
3080000000.0 0.2743353678712249 -0.1269240291436016
3100000000.0 -0.19447067397123557 0.21822274148120083
3120000000.0 -0.0550046961847384 -0.27905803544321683
3140000000.0 -0.27100044342131213 -0.042327674864890724
3160000000.0 0.2149580701390282 -0.15255848361174804
3180000000.0 -0.2365996315750186 0.0794514724378616
3200000000.0 0.23258873855131934 -0.033026797644369825
3220000000.0 0.0449347311917757 -0.20321687551252948
3240000000.0 -0.08859478728855548 -0.14945339457316106
3260000000.0 0.137682773575916 -0.03800291722557019
3280000000.0 0.0027929270456960938 0.09978076205256425
3300000000.0 0.014141789325141579 -0.06588010464485898
3320000000.0 -0.015793638310573517 -0.037856075310227354
3340000000.0 -0.02005056837417675 0.0007904692147348854
3360000000.0 0.002671545524213458 -0.006610849126357245
3380000000.0 0.0009192492870178344 -0.003614328422525694
3400000000.0 0.008890588255386096 -0.014171010586342871
3420000000.0 0.010626399500762712 -0.03349915317815661
3440000000.0 -0.04575123560882081 -0.020493644794673038
3460000000.0 0.026837913156357727 0.05961718355714244
3480000000.0 -0.07744591522767076 0.015024259694386234
3500000000.0 0.07137197314491782 0.054058759633457874
3520000000.0 0.06281073606196536 0.08109066450478193
3540000000.0 -0.09628048860890284 -0.06121192629575309
3560000000.0 -0.048772709534383084 0.10765135773185731
3580000000.0 0.026108644615065388 0.13000222714433596
3600000000.0 -0.14999849070139334 0.03186342970729379
3620000000.0 0.15943828092152484 -0.041064101512529726
3640000000.0 0.04506215104003169 -0.17606850254514392
3660000000.0 -0.08095050642941412 -0.17237331947568157
3680000000.0 0.12358511541391236 -0.14664977899116483
3700000000.0 -0.0537146983934219 -0.18268897894109615
3720000000.0 0.1341580141520387 -0.1309977178977286
3740000000.0 0.007977790252969016 0.1795391765505927
3760000000.0 0.17192743644436914 -0.042319876100723894
3780000000.0 -0.15340213186110677 0.0815263856116448
3800000000.0 0.10622583763688184 -0.12977050828827077
3820000000.0 -0.13830953200652046 0.07339011087287298
3840000000.0 -0.14354905864102033 -0.019704034349087313
3860000000.0 0.046815269912917803 -0.13246475918655948
3880000000.0 0.07193884765358244 0.12138252366567655
3900000000.0 -0.1464560099482352 0.00291097133884362
3920000000.0 -0.10151139145817198 0.1142109583378126
3940000000.0 -0.14995967863305223 -0.07370520714858621
3960000000.0 -0.04135103727822282 0.16959388753314822
3980000000.0 0.16781566451618488 0.03157434327891182
4000000000.0 -0.08777583135096567 -0.134943512340576
