!Created with skrf (http://scikit-rf.org).
# Hz S RI R 50.0 
!freq ReS11 ImS11
400000000.0 0.4979729900990305 0.7134016231839732
420000000.0 0.8449078209232342 0.01655790556217321
440000000.0 0.7775229008690121 -0.18316774178338538
460000000.0 0.7297380933063005 0.14335155049313433
480000000.0 -0.07236870629358835 -0.6802755181040981
500000000.0 0.018658552398789535 0.6009031071731453
520000000.0 0.03133759469136402 0.5094037434495241
540000000.0 -0.3177921917815768 -0.29956906274551326
560000000.0 0.05752264584308943 0.39346996818938573
580000000.0 -0.3544315975074997 -0.0667777920959346
600000000.0 0.3405149337410607 -0.10272103403587526
620000000.0 -0.166592038227549 -0.313640862243908
640000000.0 0.3973764919740731 -0.10240314446342623
660000000.0 0.2387896568624467 0.3371263221882027
680000000.0 -0.13619424058372065 -0.42355430353816076
700000000.0 0.08131640604685914 0.4552012291598483
720000000.0 -0.4261497290958214 0.18812772626024168
740000000.0 0.02433367447971092 0.4250806417879938
760000000.0 -0.37847573370446097 -0.13017968107166458
780000000.0 -0.36168126057313815 -0.09557897207271145
800000000.0 -0.3041673942965681 -0.1399449218209573
820000000.0 -0.15914232074783477 0.2321676149949181
840000000.0 -0.005297797954811192 -0.21242115817538065
860000000.0 -0.17829695896241265 0.014633003560658444
880000000.0 0.13382842649628635 0.06556865762167485
900000000.0 0.02415020468432243 0.09433426609471561
920000000.0 0.01337145728987492 0.049394059324367905
940000000.0 0.029381224130302343 -0.006251726649262013
960000000.0 0.01393891445733561 -0.028285986647115333
980000000.0 0.05234289686554229 -0.0015843356884300934
1000000000.0 -0.0907950300380159 0.005524179423427736
1020000000.0 -0.10777478010838766 -0.05106177993264095
1040000000.0 0.07913591089384173 -0.1133239896555922
1060000000.0 0.057851852997709924 0.15754764923503503
1080000000.0 0.05867505579237342 0.1813626459461921
1100000000.0 -0.18876576947475202 -0.0926700619389882
1120000000.0 0.17145661735862572 -0.1516012527397494
1140000000.0 -0.17488473797573303 0.18302046259091934
1160000000.0 -0.2774831045253506 0.00044218406956275907
1180000000.0 0.014288513598322429 -0.30755537705750885
1200000000.0 0.20045105646402003 0.2809613470837511
1220000000.0 -0.20618914932776886 -0.31470286785558343
1240000000.0 0.3978607450177589 -0.0018217802842008485
1260000000.0 -0.3716807100665975 -0.1723331958157191
1280000000.0 -0.39507309830223164 0.15579718570940798
1300000000.0 0.389380990552936 0.18523914879072778
1320000000.0 0.43079342998268466 -0.014940063972431852
1340000000.0 0.256167601141746 0.3529550838901827
1360000000.0 0.4212948603730484 0.13685008501493348
1380000000.0 0.05264527461381216 -0.43271942884656345
1400000000.0 -0.21479076835443126 -0.36919658923519283
1420000000.0 0.057977351002721306 0.40360829970396894
1440000000.0 0.30569145899943867 -0.22069333909534683
1460000000.0 0.1676711751955418 -0.30221027986437343
1480000000.0 -0.28550661865878285 -0.13454210454803156
1500000000.0 -0.05905445908105448 0.27641980486378687
1520000000.0 -0.19939928024430026 0.15420342443809915
1540000000.0 0.0858083405549042 0.20857478748726802
1560000000.0 -0.12637943805404878 0.15059326607818296
1580000000.0 -0.15770712950993537 0.07568065211465287
1600000000.0 0.0655616541254134 0.12210738806085882
1620000000.0 0.04505991294277685 -0.08908926034472317
1640000000.0 -0.07199775597215359 -0.022214794207089373
1660000000.0 -0.05576122989760947 0.024678138061971965
1680000000.0 -0.03412205826957243 -0.021547730573311205
1700000000.0 0.019483496569254934 -0.009123947871950004
1720000000.0 -0.010978785299119219 -0.002098518593172454
1740000000.0 -0.006036160534269628 -0.0075124291631979406
1760000000.0 -0.021113548388241317 0.013959192256146936
1780000000.0 -0.025605757886456727 0.044125596458613275
1800000000.0 -0.08246722296392907 0.04404438058425441
1820000000.0 0.12550332429619837 0.011089919785556629
1840000000.0 -0.1256922413121837 0.10526677551620216
1860000000.0 0.03463587156934577 0.19992319204611872
1880000000.0 0.22166186880567135 -0.08798945293814878
1900000000.0 -0.17740981733520664 -0.21421270281015153
1920000000.0 0.2127566476342096 -0.23620039531069817
1940000000.0 -0.27864980961757096 -0.1959091995045899
1960000000.0 -0.3671992462547352 -0.014205172019500091
1980000000.0 0.3857962967032286 0.10963694131920876
2000000000.0 -0.02631197192780801 -0.42003745196124914
2020000000.0 -0.3596425193437517 -0.23492009648187334
2040000000.0 0.04936972980558124 0.4320551055966804
2060000000.0 0.23817116711600117 0.3639326095403314
2080000000.0 0.3389312432787492 0.26827414912791214
2100000000.0 0.042362331031650734 -0.4235896280681686
2120000000.0 -0.04582484357711774 -0.41153449480443444
2140000000.0 0.1736466037912372 -0.3582237512416707
2160000000.0 0.3494084167636478 -0.16094826197592618
2180000000.0 0.3595637359096361 -0.09939116899138631
2200000000.0 0.310969089917806 -0.18599336394750382
2220000000.0 -0.3039447604753362 -0.17686241489652285
2240000000.0 -0.24905414491414457 -0.24039432723660098
2260000000.0 -0.3078084155775274 -0.15413252288076193
2280000000.0 0.04053610385643727 0.34439788585352066
2300000000.0 0.10617625306845346 0.33759565248962087
2320000000.0 0.14213460304613024 0.34817147494250494
2340000000.0 -0.03073772700065663 -0.4080706050600996
2360000000.0 -0.42289074243066654 -0.14786288160650526
2380000000.0 0.11618242844594416 0.48442392320667327
2400000000.0 -0.4713938744539747 0.29798495273543074
2420000000.0 0.5030903525607047 -0.3442954290581678
2440000000.0 -0.5005621587433968 0.4249109446959687
2460000000.0 -0.6903192971090524 -0.12058680017527872
2480000000.0 0.6906963404560981 0.24585112700545225
2500000000.0 -0.3865071784201519 -0.6485109794317722
2520000000.0 0.7252089589037791 -0.252082460962163
2540000000.0 -0.5693494579416725 -0.5209528935174309
2560000000.0 -0.43546218403020964 0.6327177303745835
2580000000.0 0.001135236186956582 -0.7535125780583387
2600000000.0 -0.7315775284026058 -0.03910065568190551
2620000000.0 -0.042544044195938865 0.7046957751146757
2640000000.0 0.5448206281272162 -0.3869358765345277
2660000000.0 -0.46628718710309486 -0.4200178015479001
2680000000.0 -0.18789693428954574 0.5506847824332856
2700000000.0 -0.29263484183704797 -0.44137045304061406
2720000000.0 -0.11862797231592169 0.46750158626260885
2740000000.0 0.4239116661441425 -0.08677326913752798
2760000000.0 -0.3289452499965203 0.20973104026737638
2780000000.0 0.3552489741113553 0.05427392617965624
2800000000.0 -0.2853362486719033 -0.1765872868076826
2820000000.0 0.04499421545717315 -0.31177024300378686
2840000000.0 0.09313532796823984 0.2927956579109196
2860000000.0 -0.2321443402951868 -0.18886459126639335
2880000000.0 0.05780312679026197 -0.2884415016714191
2900000000.0 -0.29312618267991886 0.008967633200026305
2920000000.0 -0.14682127888305477 0.26032830601198254
2940000000.0 0.11491210618315155 -0.2868708421458031
2960000000.0 -0.174295762837481 -0.26355670457908553
2980000000.0 -0.2108587749556476 -0.23693110434070402
3000000000.0 -0.28328850834460334 -0.14396014646066932
3020000000.0 0.20746280394742114 0.24526805645088653
3040000000.0 0.30058763520187715 0.11292599961673935
3060000000.0 0.21264280826764295 0.23069695926969994
3080000000.0 0.25157546908327266 -0.16694348304446407
3100000000.0 -0.15811990754017782 0.2455394843449339
3120000000.0 -0.08745378369900476 -0.2705985229457591
3140000000.0 -0.2742822483570133 0.013592446381401951
3160000000.0 0.20122715330968458 -0.16989478415710363
3180000000.0 -0.2129053060636019 0.13149677130458193
3200000000.0 0.22327752965472203 -0.07445533024637326
3220000000.0 0.016304233465473654 -0.20760187973149274
3240000000.0 -0.09927944103654034 -0.142973901761129
3260000000.0 0.13984297269443827 -0.03210710631191072
3280000000.0 0.01886332438199122 0.09878411143566017
3300000000.0 0.04313219724800466 -0.05285938111794603
3320000000.0 0.012493607516339038 -0.040036992263974336
3340000000.0 -0.015097326565973741 0.014680899670037925
3360000000.0 0.005056443459229085 0.006057588033584123
3380000000.0 0.001959615949017506 0.0024849988525854167
3400000000.0 -0.00443631528612217 -0.014935925494254623
3420000000.0 0.001278051875182285 -0.03390879840647414
3440000000.0 -0.04808460161176827 0.009543672509460976
3460000000.0 0.06006713122375799 0.023916060085480566
3480000000.0 -0.07379673361586149 0.02445699530492744
3500000000.0 0.0875340941567798 0.015458670223904385
3520000000.0 0.09148059759518429 0.044651430846381554
3540000000.0 -0.11355510333661938 -0.005487077787499194
3560000000.0 0.005388352845395931 0.11757154389256766
3580000000.0 0.10514022176666347 0.08086719406648003
3600000000.0 -0.12286758026848088 0.09143978561091426
3620000000.0 0.11867163962565974 -0.11470259898047473
3640000000.0 -0.02852818611191192 -0.179451640193686
3660000000.0 -0.1437752809462448 -0.12542662628736215
3680000000.0 0.07202451617394001 -0.17815027627970226
3700000000.0 -0.10357724621381346 -0.1607487309727338
3720000000.0 0.09383919726446913 -0.16295722623147804
3740000000.0 0.05500720783725363 0.17222582121159752
3760000000.0 0.16000780386952454 -0.07811447517831929
3780000000.0 -0.13874829801418528 0.10617834023275083
3800000000.0 0.07754024042062922 -0.14978662475086732
3820000000.0 -0.12280069032516396 0.09822684860351805
3840000000.0 -0.14428177151083454 0.01984381665131877
3860000000.0 0.012295780445340847 -0.14073119302469272
3880000000.0 0.09023562410528384 0.10974223491948433
3900000000.0 -0.14465741205656163 0.0269605582438845
3920000000.0 -0.08660695738442926 0.12673571739981432
3940000000.0 -0.14765823748572873 -0.0801447504043772
3960000000.0 -0.06530939400477417 0.16292805235353208
3980000000.0 0.1436919365292438 0.09454905707315878
4000000000.0 -0.012398361812019273 -0.16113960278482678
