!Created with skrf (http://scikit-rf.org).
# Hz S RI R 50.0 
!freq ReS11 ImS11
400000000.0 0.4824486769656867 0.7236948131296168
420000000.0 0.8440730636932168 0.04938654040594621
440000000.0 0.7839440807117269 -0.1538722244843934
460000000.0 0.7260502205521456 0.15997334655805823
480000000.0 -0.056208323681817156 -0.681906321777482
500000000.0 0.002132166048505551 0.6009881273613508
520000000.0 0.024962653020442243 0.5098253057503559
540000000.0 -0.32172469484643434 -0.2947628546975949
560000000.0 0.061295094221111165 0.39231801945544437
580000000.0 -0.3546854916904187 -0.06386352953807048
600000000.0 0.351157885979975 -0.05772745397076319
620000000.0 -0.15183061531313274 -0.32197784301430055
640000000.0 0.40580385821475534 -0.06294292502286684
660000000.0 0.2059545708676992 0.35826624537261503
680000000.0 -0.11127565407421988 -0.43150017882095937
700000000.0 0.0718769284496339 0.4568701583096209
720000000.0 -0.4250799327071043 0.19089931394718324
740000000.0 0.007940146503070747 0.4262737098894116
760000000.0 -0.3792758332585054 -0.12861449016798257
780000000.0 -0.3664261033670832 -0.07503947438316896
800000000.0 -0.31342798885847806 -0.11690516078411714
820000000.0 -0.15768932367898408 0.23332234976954772
840000000.0 -0.042585885981128176 -0.208517253865272
860000000.0 -0.17537230008094795 0.03655837394272373
880000000.0 0.13526689048300705 0.06273258009817764
900000000.0 0.010016093174178781 0.09712756667714728
920000000.0 0.008615459219979058 0.05050909857321197
940000000.0 0.02919010073430749 0.006709442049928505
960000000.0 0.024322997813979137 -0.02054685249045102
980000000.0 0.05184851129932572 0.009121838666711016
1000000000.0 -0.08909159742325518 0.01844447270101921
1020000000.0 -0.11447400180139652 -0.03329339507791884
1040000000.0 0.06594215042679004 -0.12151121265497357
1060000000.0 0.08386864419306704 0.14582406443531976
1080000000.0 0.07813352047059466 0.17407206963102403
1100000000.0 -0.18169306108431002 -0.10633475273300064
1120000000.0 0.18118598148511852 -0.13985104981133675
1140000000.0 -0.19720806313822925 0.15870974596930243
1160000000.0 -0.2768000675378786 -0.019832706599096455
1180000000.0 0.04505365927554634 -0.3045389943251957
1200000000.0 0.17544336700399957 0.2970245581721928
1220000000.0 -0.18716060415103464 -0.32642171501536016
1240000000.0 0.39733937594739577 0.019083054368000844
1260000000.0 -0.3667077761705923 -0.18208371878861512
1280000000.0 -0.39511771924130556 0.1543158095996988
1300000000.0 0.3910011604060251 0.18078196051729042
1320000000.0 0.43090750713548176 0.008473260895268252
1340000000.0 0.25021697654914776 0.35751464675577677
1360000000.0 0.4223053425626141 0.13468908241044017
1380000000.0 0.01906494796936691 -0.4356631154306047
1400000000.0 -0.24847727005252584 -0.3471465928263368
1420000000.0 0.0677430706422857 0.4018377678472566
1440000000.0 0.30983205522915364 -0.21483283710510256
1460000000.0 0.18344151760419236 -0.29346240669327056
1480000000.0 -0.2761173286834464 -0.15487892774092754
1500000000.0 -0.04073456041742948 0.2808284351232721
1520000000.0 -0.19406620225530052 0.16262741464157457
1540000000.0 0.08968375907253426 0.2078708445820904
1560000000.0 -0.15325953327342473 0.12397393947451434
1580000000.0 -0.16463143573536113 0.059122719367291646
1600000000.0 0.03749670838516763 0.13337338099234158
1620000000.0 0.08480075814090555 -0.05317244418448686
1640000000.0 -0.015250481831729962 -0.07388044369952858
1660000000.0 -0.0608716366344471 -0.006691304412747875
1680000000.0 -0.028949083208362845 -0.02816330876480347
1700000000.0 0.010473743182143648 -0.018271414019059663
1720000000.0 -0.006287737294466816 0.00772320255617579
1740000000.0 0.008711333005956274 0.003651239262072427
1760000000.0 -0.01476658404371358 -0.021227078281055693
1780000000.0 -0.03316225693599152 0.03888347316767079
1800000000.0 -0.0845739611712783 0.03837780846117137
1820000000.0 0.12123218795000748 0.02964607813685154
1840000000.0 -0.1433311353462978 0.07720147329886877
1860000000.0 -0.008066809675909926 0.2018180330950851
1880000000.0 0.2287551114134706 -0.06669993134598028
1900000000.0 -0.17632084924230296 -0.21494752949647486
1920000000.0 0.18680454704782096 -0.25701274788498435
1940000000.0 -0.2995992594518699 -0.16143887505319954
1960000000.0 -0.36618265208057804 0.026393470200516873
1980000000.0 0.3931731498025629 0.07842097436454555
2000000000.0 -0.04799946807124312 -0.4183424364819202
2020000000.0 -0.36237417029465635 -0.2318148411895392
2040000000.0 0.06530550316732898 0.43084617623219357
2060000000.0 0.23326025609743165 0.3685516648267495
2080000000.0 0.31640896347560454 0.2962961596116497
2100000000.0 0.053273359917331654 -0.42348984317961774
2120000000.0 -0.008944544678319405 -0.41505459112881643
2140000000.0 0.17013037530016717 -0.360587359416506
2160000000.0 0.3731096329777285 -0.09700525898415906
2180000000.0 0.3737050291928084 -0.011452275608411394
2200000000.0 0.3443647419463244 -0.11461299286759442
2220000000.0 -0.27623531507102506 -0.21908173188792995
2240000000.0 -0.17814919051996442 -0.2969842425212185
2260000000.0 -0.2843851349198152 -0.19353089666630469
2280000000.0 0.03529409811584467 0.3448833106903025
2300000000.0 0.08640600045061082 0.34288788621589894
2320000000.0 0.11691068134288961 0.3567829766886165
2340000000.0 -0.02999562642142154 -0.40795444256452196
2360000000.0 -0.43036882985895697 -0.12410668035575498
2380000000.0 0.17865058785156032 0.46519871623808107
2400000000.0 -0.44997247350551617 0.3294992514221447
2420000000.0 0.47152319885259564 -0.3870031280656613
2440000000.0 -0.44806090395341264 0.4806146606372264
2460000000.0 -0.6985521357860496 -0.06535445525230366
2480000000.0 0.7060790186942081 0.2005314778732321
2500000000.0 -0.45618739549139226 -0.6023494382781392
2520000000.0 0.7153383357422173 -0.28144976717918313
2540000000.0 -0.5646008571081461 -0.5270422671422575
2560000000.0 -0.43454100084274455 0.6340501714984259
2580000000.0 0.07187036820131046 -0.7506277918468345
2600000000.0 -0.7316812752066628 -0.03709628795910638
2620000000.0 -0.07949216390217957 0.701511921024436
2640000000.0 0.571399575208437 -0.34583774165340225
2660000000.0 -0.42607236278280786 -0.4602440294405214
2680000000.0 -0.2576950789519886 0.5208142865104918
2700000000.0 -0.2455861597236398 -0.46827984012248686
2720000000.0 -0.18202299252259285 0.4455550134863103
2740000000.0 0.42254866867402674 -0.08999955972227927
2760000000.0 -0.3304365315574 0.20593127731713953
2780000000.0 0.35473634825461714 0.05374141598679943
2800000000.0 -0.28732659623726897 -0.17243394993739497
2820000000.0 0.033869957012995035 -0.3130535226504729
2840000000.0 0.10030864008393413 0.2902836187165487
2860000000.0 -0.22666494209476973 -0.19581795473977195
2880000000.0 0.04391271130400942 -0.29107671559157816
2900000000.0 -0.29249892538371847 0.024886728599952217
2920000000.0 -0.16660028754744227 0.2489481551303368
2940000000.0 0.14918534406175768 -0.2714406091982829
2960000000.0 -0.1502246582526911 -0.27881839914099865
2980000000.0 -0.20178284573208605 -0.24550118537221532
3000000000.0 -0.27953654787228127 -0.15177750260283657
3020000000.0 0.1753764412066864 0.26937964204961123
3040000000.0 0.26937464918177 0.17542897629500326
3060000000.0 0.1740135239525651 0.2614731588865254
3080000000.0 0.2790516994527882 -0.11635745104465085
3100000000.0 -0.19305981266470462 0.21948815852790984
3120000000.0 -0.026326271857780355 -0.28305965759777385
3140000000.0 -0.26687214928645725 -0.0628547332347316
3160000000.0 0.22369428682795062 -0.13872445650862195
3180000000.0 -0.233972465570943 0.08720293339007254
3200000000.0 0.23393689130256434 -0.02118840098110638
3220000000.0 0.05532879790431079 -0.200155584635256
3240000000.0 -0.09360612012849269 -0.1461372607003185
3260000000.0 0.13917638194572626 -0.031884124314253096
3280000000.0 0.02795614182337503 0.09562725721680633
3300000000.0 0.014514091799292049 -0.0657136746110796
3320000000.0 -0.005072812443062029 -0.04052238120530485
3340000000.0 -0.018466449411453447 0.008117726920462752
3360000000.0 0.006381929035538621 0.003158033624020209
3380000000.0 0.0033427101387966582 -0.0008760339051204342
3400000000.0 0.014220765717898678 0.008224306582825063
3420000000.0 0.03461500533669956 0.0021829780758466206
3440000000.0 -0.049334618574908166 -0.006846232476736732
3460000000.0 -0.006513310755819242 0.06453153426417169
3480000000.0 -0.0774931155445386 -0.010390025481738546
3500000000.0 0.05920249350377086 0.0666405947644334
3520000000.0 0.041684839127801986 0.09300175046868296
3540000000.0 -0.07810243548053283 -0.08233967178002835
3560000000.0 -0.04965175636684362 0.10696137153974086
3580000000.0 0.04379177129725731 0.12501541900835525
3600000000.0 -0.15248593189728304 -0.0053682097861620474
3620000000.0 0.1619957944129513 -0.026165453420284087
3640000000.0 0.03503845284780478 -0.1782177959419415
3660000000.0 -0.08261262759633088 -0.17098179559482948
3680000000.0 0.11415379603834433 -0.15418227229013734
3700000000.0 -0.06816131663374014 -0.17786552243037995
3720000000.0 0.12221644859509986 -0.14249186256426488
3740000000.0 0.014660555766528886 0.17931389277070064
3760000000.0 0.1709338456429458 -0.04603021810381282
3780000000.0 -0.15174902901264045 0.0848949801007619
3800000000.0 0.09442161811165357 -0.13865494303279227
3820000000.0 -0.1313080719137746 0.08512248653245971
3840000000.0 -0.14444410815192463 0.00591442935145139
3860000000.0 0.006449855249043465 -0.13981884609621517
3880000000.0 0.0834658506544059 0.11336188549128416
3900000000.0 -0.14526968235910903 0.018011589493914616
3920000000.0 -0.07601803962365634 0.13224162537599687
3940000000.0 -0.1587301733855731 -0.05215987530383696
3960000000.0 -0.022469632993771728 0.1730365933105767
3980000000.0 0.16876658530403213 0.027009542070481302
4000000000.0 -0.08274642072311506 -0.13827099410482363
