!Created with skrf (http://scikit-rf.org).
# Hz S RI R 50.0 
!freq ReS11 ImS11
400000000.0 0.7730090480889176 0.39001779356384064
420000000.0 0.8333380239956275 -0.10552140780986288
440000000.0 0.7945396478992908 0.02739677758890796
460000000.0 0.7503040806822031 0.03800563400036769
480000000.0 -0.44476125242449965 -0.5335431411450753
500000000.0 0.5895585001029576 0.11458976881317773
520000000.0 0.3875886989517015 -0.3147225935698961
540000000.0 -0.39279600677151816 -0.16153607858816216
560000000.0 -0.36022557463644445 0.12711248095254696
580000000.0 0.2734711239697676 -0.22792868373221087
600000000.0 -0.050524663710105104 0.35570644584642663
620000000.0 0.10489906552977704 -0.3558117869179038
640000000.0 -0.3570792872005324 -0.2304488793025576
660000000.0 0.4187257208352425 -0.04566228810146969
680000000.0 0.3370102200255739 0.2850754501961896
700000000.0 0.43750135944727486 0.029051054553928125
720000000.0 0.01385324836534663 -0.44939116277471414
740000000.0 0.005886231168976892 -0.43541422987543343
760000000.0 -0.41863434355166956 -0.07173546205712004
780000000.0 0.025013839519746187 0.3862955541489302
800000000.0 0.3293615343672444 -0.048042988529851234
820000000.0 0.24435455984168478 0.11565465549822847
840000000.0 0.025824159648695055 -0.19994795193153775
860000000.0 0.07186230923730878 -0.15500995193010852
880000000.0 -0.14932442616183123 -0.003576095533675232
900000000.0 -0.10083931704627706 -0.023713115295056156
920000000.0 -0.04599018708366977 0.02811131003048722
940000000.0 0.01519307991507182 -0.026078501221056878
960000000.0 -0.027759097298222138 0.013879453342365554
980000000.0 0.02576578996811987 0.04921375596456538
1000000000.0 -0.03957499935012306 0.08076097311396237
1020000000.0 -0.11268353136301063 -0.03896058296243234
1040000000.0 -0.10863283571550646 -0.08380612141529187
1060000000.0 0.13309704696696745 0.09514849413358609
1080000000.0 -0.09203358559168404 0.16092155530947827
1100000000.0 -0.16725111910269164 -0.12598348900577397
1120000000.0 0.19776311433638882 -0.11984160886766701
1140000000.0 -0.224925063778695 0.11630568452975536
1160000000.0 -0.2175686006156714 0.1798282140827244
1180000000.0 -0.30743339746813786 -0.0621761704957542
1200000000.0 0.33752107748448723 -0.07783848659483136
1220000000.0 -0.19860705906783435 0.3186126244065648
1240000000.0 0.19480535772720234 -0.3416694991260891
1260000000.0 -0.3761651824607933 -0.1449508833207168
1280000000.0 -0.3345230085921496 0.2532589832068193
1300000000.0 0.07814422068544814 0.4224904999575824
1320000000.0 0.2592807125670197 0.35354637201379563
1340000000.0 0.44280599956823025 0.05938754587224711
1360000000.0 0.285085053852892 -0.34686458764426803
1380000000.0 -0.364145669146843 -0.24098778828655926
1400000000.0 -0.38541210429802486 0.17013793819289733
1420000000.0 0.21716863166144523 0.33430231526917487
1440000000.0 0.35186542682098115 0.11521237860191631
1460000000.0 0.32337354135991453 -0.11568213324991897
1480000000.0 -0.23061670502322976 -0.218728249889814
1500000000.0 -0.00035832585696507843 0.286315507099552
1520000000.0 0.06575902807361049 0.2431345715475875
1540000000.0 -0.016711450516927736 -0.2203542581865656
1560000000.0 0.031486302309935904 0.18936885432179343
1580000000.0 -0.05290362741513861 0.15908396142513315
1600000000.0 0.13387547747289896 -0.002711599676607315
1620000000.0 0.08070430850505277 0.061104146212882536
1640000000.0 -0.08012198115378467 0.008542263863173838
1660000000.0 -0.026902094779584648 0.06020677036750759
1680000000.0 -0.012268644208378027 0.040752811107012885
1700000000.0 0.00438242210790045 0.02033046711479244
1720000000.0 -0.000814810798951656 -0.004758785187153952
1740000000.0 -0.013685153018075592 0.00551503991103344
1760000000.0 -0.02030578137936186 -0.024502713670643148
1780000000.0 0.054974896558001814 -0.014836582322783702
1800000000.0 0.01966351210867992 -0.09112534061514167
1820000000.0 -0.11967379187076102 -0.03907162066536236
1840000000.0 0.15803737452896455 0.05027368531417342
1860000000.0 0.0006014679392872521 0.20103067580642262
1880000000.0 0.23323388963899472 -0.05250439636203495
1900000000.0 -0.28220010043551463 -0.03865873430780809
1920000000.0 0.2710555045156679 -0.176656006829249
1940000000.0 -0.340694692739452 0.07255812579792245
1960000000.0 0.07629571475519478 0.3651593052617746
1980000000.0 0.38664917449278413 -0.10936797250743568
2000000000.0 -0.3591043252002013 -0.21917332547955315
2020000000.0 -0.2741448198456189 0.32875332724246503
2040000000.0 0.1665343916139579 0.40026446045807546
2060000000.0 0.41440295542753125 0.1269517387458356
2080000000.0 0.37158557187789343 -0.2154009965251788
2100000000.0 0.11869236774969695 -0.4071271023957413
2120000000.0 -0.14269787471492726 -0.38969096907776
2140000000.0 -0.29786285104659493 -0.2684957802004925
2160000000.0 0.2764570750209781 -0.2732942450790733
2180000000.0 -0.1284251929263669 -0.3533470429860324
2200000000.0 -0.3587143608014549 -0.037790940696673936
2220000000.0 -0.34612475645914265 0.04885415841121148
2240000000.0 -0.3343710663465413 0.08305267235345652
2260000000.0 -0.2241021429085544 0.2657608527694246
2280000000.0 0.08960496935377162 0.3402636078780741
2300000000.0 0.3577006429022357 0.060034673032454515
2320000000.0 0.14498386262228447 -0.3594331659983318
2340000000.0 -0.39518091687819645 -0.1360945312297741
2360000000.0 -0.028179010948589593 0.4562814530296439
2380000000.0 0.17959993795530313 -0.47603929226157876
2400000000.0 0.04796024808869678 0.560754968903023
2420000000.0 -0.44284674508561805 -0.42674217913677315
2440000000.0 0.6565818011330471 -0.08408530657152796
2460000000.0 -0.4292650968622445 0.5548999784037038
2480000000.0 -0.023445410256258598 -0.7318287199511353
2500000000.0 0.15191830274655493 0.7360614920612468
2520000000.0 -0.012601143300054 -0.7624223564537315
2540000000.0 -0.33601609052816866 0.6869622908760183
2560000000.0 0.679715179477795 -0.3375596292487242
2580000000.0 -0.6358100178087548 -0.38774835053824536
2600000000.0 0.16766111649693466 0.7016412326669182
2620000000.0 0.4049510689994282 -0.5627957215047211
2640000000.0 -0.0432365232417603 -0.6556014161325282
2660000000.0 -0.42064319129418837 0.44756054112443316
2680000000.0 0.5641226280998847 -0.053520474856451394
2700000000.0 -0.4083524339270235 -0.31966661292746845
2720000000.0 0.2799442118809235 0.3785980138800739
2740000000.0 -0.08159358808056033 -0.41480136090422853
2760000000.0 -0.26691059075945106 0.27526881847938145
2780000000.0 0.2742402016874105 -0.2181857277837091
2800000000.0 -0.2189627349022741 0.24062444501521288
2820000000.0 0.18497286933540014 -0.2455240874479943
2840000000.0 0.1327753738212995 0.26901986889825596
2860000000.0 -0.2866031906092751 0.06075278895125278
2880000000.0 0.08467785547870388 -0.27634925116088005
2900000000.0 -0.1938800783538162 0.21211945571431196
2920000000.0 0.20943355040758016 0.2053388913686923
2940000000.0 0.16435172620393262 -0.2554516173738416
2960000000.0 -0.30369711988922093 -0.07089801314163557
2980000000.0 -0.1981883697340328 0.24333649192941306
3000000000.0 -0.28394083250694757 0.13329728203870866
3020000000.0 -0.20984980971162068 -0.23586646666080988
3040000000.0 0.05928896440062747 -0.3090669072746357
3060000000.0 0.24017557685883079 0.19383778952479241
3080000000.0 -0.26939873694143623 -0.1290746275026906
3100000000.0 0.17653739498994325 0.22924573917050547
3120000000.0 -0.09121653979244938 -0.2689606670870706
3140000000.0 0.13825284357088047 0.238197060406068
3160000000.0 -0.2227790524495642 -0.13974443483263027
3180000000.0 0.013844472955027486 0.24905702578162522
3200000000.0 -0.21707796269184884 0.07519743750363299
3220000000.0 -0.19974321836236322 -0.040406444158664914
3240000000.0 -0.04132647026613489 -0.16715272375126525
3260000000.0 0.10303436766909652 -0.09072935033372014
3280000000.0 -0.0922367511733539 -0.04172710714331299
3300000000.0 -0.006614721503637 0.07285348989774176
3320000000.0 -0.04249014627417957 0.0099476421084661
3340000000.0 0.012004687618171559 -0.020746359247394066
3360000000.0 -0.008699884895773818 0.0031935021237901326
3380000000.0 0.002017502706590004 0.004282546986547752
3400000000.0 -0.0008017806828202372 0.014476856004998912
3420000000.0 -0.01943539071728493 -0.024756237430709618
3440000000.0 0.021935709123512413 0.04083494351130684
3460000000.0 -0.02158886931319632 -0.056009703465887725
3480000000.0 -0.03519629015059635 0.062374326621623566
3500000000.0 0.08599282798692949 -0.018952724574484162
3520000000.0 0.10161937732201544 -0.006191968422363635
3540000000.0 -0.08612817413833124 0.07280023596254048
3560000000.0 -0.053295211133382404 -0.10935592701886378
3580000000.0 -0.12782815759377858 -0.030703378028622767
3600000000.0 0.14021961119841436 -0.04683184918125507
3620000000.0 -0.14812813303182842 0.0670748601525924
3640000000.0 -0.177437493146661 0.02671546916237363
3660000000.0 -0.17433229495414046 -0.0734298083998389
3680000000.0 -0.17986597584686537 -0.07647355366649769
3700000000.0 -0.16567597344060425 0.10449473216525541
3720000000.0 -0.19146095325076595 -0.009218683645986808
3740000000.0 0.03452071524578894 -0.178475359052649
3760000000.0 -0.14524744874074813 -0.1004480478087255
3780000000.0 -0.020128346919944924 0.1713437687382303
3800000000.0 0.057559774652952374 -0.15801042615547653
3820000000.0 -0.15220990469196286 0.054850076936957995
3840000000.0 -0.09173774563251684 0.12063881242005668
3860000000.0 -0.13712349384902342 0.052192012369490705
3880000000.0 -0.016004740690691934 -0.14416078051120146
3900000000.0 0.09306401196962169 0.11574923658060932
3920000000.0 0.15013006237303508 0.053502893724363336
3940000000.0 -0.1255459910566479 0.11688262505245113
3960000000.0 0.030338119195236612 0.177926485028514
3980000000.0 0.12427678557933047 -0.12804315788173615
4000000000.0 -0.14994484542846262 -0.07751088622609087
