!Created with skrf (http://scikit-rf.org).
# Hz S RI R 50.0 
!freq ReS11 ImS11
400000000.0 0.520030832444165 0.6995461307071045
420000000.0 0.8435465507759393 -0.04831519683717265
440000000.0 0.7745756198135348 -0.19427493814759142
460000000.0 0.7251331506334605 0.16279034731283729
480000000.0 -0.056426469788947976 -0.6819876256120702
500000000.0 0.029209388685425 0.600275851849745
520000000.0 0.0306465793799744 0.5094543251275987
540000000.0 -0.3258212402470395 -0.2905689755491136
560000000.0 0.05026909140001388 0.39391663776123115
580000000.0 -0.35189592221643534 -0.07684752015869213
600000000.0 0.34731153899455125 -0.07639543292184665
620000000.0 -0.1531169077435226 -0.32088953524991937
640000000.0 0.4012870084509988 -0.08614805738079669
660000000.0 0.22397212746226083 0.3469519678076716
680000000.0 -0.11328527663613967 -0.4308672167679108
700000000.0 0.08171215531431082 0.4551741915376958
720000000.0 -0.42047727389986933 0.20073225421335503
740000000.0 0.047626164715933623 0.4226518696045977
760000000.0 -0.372791504192336 -0.14613897950073013
780000000.0 -0.3671071286685554 -0.07283780779395761
800000000.0 -0.3103387088528732 -0.12540757548529255
820000000.0 -0.16117070939032038 0.23073340215320712
840000000.0 -0.03392077373915119 -0.21013638203213947
860000000.0 -0.17694427592303796 0.02831138396458422
880000000.0 0.13621289563647 0.06061847881185081
900000000.0 0.016879917928094137 0.09580310532037456
920000000.0 0.012314688885877516 0.049395368071854115
940000000.0 0.028115938185664987 -0.009273530148176275
960000000.0 0.0006817813475249842 -0.031782694270046756
980000000.0 0.052091046227120553 -0.006142920427110699
1000000000.0 -0.08996807613512448 0.01328850333185856
1020000000.0 -0.1120386546232632 -0.040562777718792214
1040000000.0 0.07438772432905541 -0.11633446950679562
1060000000.0 0.06895471840086945 0.1532764178237013
1080000000.0 0.07199607995851341 0.17674853666303292
1100000000.0 -0.18979538425624415 -0.09086248927527706
1120000000.0 0.1659926329760316 -0.15754611276948968
1140000000.0 -0.1768775536567369 0.18117531878992618
1160000000.0 -0.2759163256181458 -0.026762186812261203
1180000000.0 0.03266126310477286 -0.3059676024449792
1200000000.0 0.19188960816044268 0.2866334311661194
1220000000.0 -0.2088046622072595 -0.31275460993167375
1240000000.0 0.3976816258380849 0.0003986896558753102
1260000000.0 -0.3693305427694937 -0.17700689020271484
1280000000.0 -0.39102163020047304 0.16549440643798435
1300000000.0 0.387026402435702 0.1898293146928601
1320000000.0 0.4304772044495187 -0.022597143605531278
1340000000.0 0.25872334223314475 0.3511696809126406
1360000000.0 0.42047250329694746 0.1396458291041586
1380000000.0 0.03776882237045309 -0.43440533528747327
1400000000.0 -0.22215892958373462 -0.36481503214507993
1420000000.0 0.07570428646490682 0.40046063359707473
1440000000.0 0.30208725548169485 -0.22569743161390174
1460000000.0 0.17775982066573096 -0.29676390477607806
1480000000.0 -0.292065356409668 -0.1202508915858975
1500000000.0 -0.052100274987283715 0.27802415994798013
1520000000.0 -0.19589447530094223 0.15917842540588512
1540000000.0 0.09005969924803005 0.2069418721074183
1560000000.0 -0.11937245792269631 0.15625532663506295
1580000000.0 -0.1521559471215566 0.08602874002556708
1600000000.0 0.05665243473469474 0.12655559367900293
1620000000.0 0.05859118565535675 -0.08091460354098419
1640000000.0 -0.06738875161456064 -0.03372207255018192
1660000000.0 -0.05001015843116052 0.03541688522328019
1680000000.0 -0.027050292532695853 -0.030068850711515393
1700000000.0 0.012839885543306027 -0.017233034628992137
1720000000.0 -0.010768094256130203 0.0017473800527664334
1740000000.0 0.009069133354995528 0.0013824307897301437
1760000000.0 -0.020704629812764937 0.014838735843078104
1780000000.0 -0.02142919818681298 0.04627608809674579
1800000000.0 -0.07743867472935848 0.052152851278868234
1820000000.0 0.1254087235598665 0.008049062607586277
1840000000.0 -0.1259061225683174 0.10467070770783138
1860000000.0 0.02498730313280105 0.2009877456324663
1880000000.0 0.22531834069328316 -0.07848654303759951
1900000000.0 -0.17512230405108814 -0.21615401993662758
1920000000.0 0.21447010301376546 -0.234619034148843
1940000000.0 -0.2808844573698146 -0.19264957487108966
1960000000.0 -0.3672519153745367 -0.012454364397139464
1980000000.0 0.38727728413499973 0.10431663499634375
2000000000.0 -0.026259324586349848 -0.42010973505310273
2020000000.0 -0.3569286460345535 -0.23922001811634785
2040000000.0 0.06819232026930068 0.42945245649136465
2060000000.0 0.22955351153318038 0.369471620227189
2080000000.0 0.32779242492106153 0.2817249231188228
2100000000.0 0.052183889182096946 -0.4225693772285428
2120000000.0 -0.02723447762459034 -0.4134866381973562
2140000000.0 0.17442559080532463 -0.3579168567654298
2160000000.0 0.3516752423569094 -0.15635878484258087
2180000000.0 0.36609939190827434 -0.07376137242121251
2200000000.0 0.3154960060763998 -0.17852967898108224
2220000000.0 -0.29850362605082414 -0.18698615254259157
2240000000.0 -0.2399230739307672 -0.24929993398609543
2260000000.0 -0.3021299643344578 -0.16492493648492323
2280000000.0 0.0467007606432146 0.34366906713383616
2300000000.0 0.12090771036857259 0.3328871994964298
2320000000.0 0.1404259983322864 0.34875135630520404
2340000000.0 -0.03005120864748238 -0.4081366401642751
2360000000.0 -0.42242554791018744 -0.14894588939428183
2380000000.0 0.1202324759034791 0.4834900643621742
2400000000.0 -0.466750266136125 0.3049926538764025
2420000000.0 0.49839617337158215 -0.3513295693179845
2440000000.0 -0.48939397603422935 0.43793738319869774
2460000000.0 -0.6899859743817603 -0.12421511607186508
2480000000.0 0.6928736994544671 0.24015800890588893
2500000000.0 -0.38141547014632377 -0.6517616007401384
2520000000.0 0.7293175752794857 -0.24097756911267007
2540000000.0 -0.5518709666649909 -0.5396738611850411
2560000000.0 -0.4246544037092005 0.639895870460186
2580000000.0 0.03434736305205276 -0.7531880908239995
2600000000.0 -0.7280290148693765 -0.08019916385304895
2620000000.0 -0.014251395312946709 0.7059437975357897
2640000000.0 0.552046192473789 -0.37648488482459774
2660000000.0 -0.44945278800185906 -0.4378534442021296
2680000000.0 -0.22390370698972115 0.5367587910975428
2700000000.0 -0.29146698790382103 -0.44200452180403377
2720000000.0 -0.11157132336600782 0.4690297123709619
2740000000.0 0.4148388446982909 -0.12312901625513618
2760000000.0 -0.3192179768256907 0.22417596321264865
2780000000.0 0.35638235228682036 0.04572188138729622
2800000000.0 -0.2929618362047446 -0.1639360338586558
2820000000.0 0.03800620117451987 -0.3129285005085989
2840000000.0 0.09559113645031052 0.29210574450008786
2860000000.0 -0.23688037717509908 -0.18276970641182655
2880000000.0 0.07526247924260913 -0.2847951379556262
2900000000.0 -0.2934943319615569 0.0046515246423862655
2920000000.0 -0.16185392577642513 0.2514169992810436
2940000000.0 0.10836810959542009 -0.28944816097276016
2960000000.0 -0.1500155219403233 -0.27820776488206755
2980000000.0 -0.21807664618847247 -0.22998478764777114
3000000000.0 -0.2865118369140826 -0.13740145710659585
3020000000.0 0.22393020419098753 0.22983016501198084
3040000000.0 0.30471979932669463 0.10111257751716854
3060000000.0 0.1930974694772809 0.2471284110448989
3080000000.0 0.25153476469543384 -0.16680475741103026
3100000000.0 -0.15464778763359516 0.24774626216210852
3120000000.0 -0.08187651694117719 -0.2722380045144284
3140000000.0 -0.2743708163127786 0.0036300228192696527
3160000000.0 0.18057463183812336 -0.19226178642039932
3180000000.0 -0.21845893415126438 0.12076771782030736
3200000000.0 0.22161513734180432 -0.07899821673765584
3220000000.0 0.009494502308908914 -0.20828750764285162
3240000000.0 -0.10896371686789287 -0.13600484956780853
3260000000.0 0.13871721120496022 -0.03699986824260737
3280000000.0 -0.008247607260626705 0.10035106754280095
3300000000.0 0.010187182709665975 -0.06767611259533372
3320000000.0 0.003436920461858409 -0.04177395797050221
3340000000.0 -0.02083667242997841 -0.004155270895557753
3360000000.0 -0.007890634030443008 0.0016158970927124259
3380000000.0 0.0012607929177505344 0.0027416775984204686
3400000000.0 -0.012476600204734605 -0.009317092734942072
3420000000.0 -0.004916817295508899 -0.03356201851817905
3440000000.0 -0.047550173513162444 0.011996131429456464
3460000000.0 0.041159320290597906 0.04936596731977448
3480000000.0 -0.0629971043243975 0.0458811172455443
3500000000.0 0.08765668009074064 0.014344264103762326
3520000000.0 0.09414831352152228 0.0395519689487811
3540000000.0 -0.11007486010787189 -0.026446095581539476
3560000000.0 0.013533495945762487 0.11706436117909914
3580000000.0 0.09992572851223325 0.08700598479787762
3600000000.0 -0.12103641635446798 0.09396180679571703
3620000000.0 0.1375459231045472 -0.09014970952101245
3640000000.0 -0.0257072619808599 -0.18005294408582628
3660000000.0 -0.13944495349116168 -0.1302820738806062
3680000000.0 0.07202542158735468 -0.1784260338612387
3700000000.0 -0.10075661533313598 -0.16249947699226294
3720000000.0 0.1073024327430224 -0.15495537455370925
3740000000.0 0.047489346368173646 0.17422937429856752
3760000000.0 0.16393531439889442 -0.06957665299058681
3780000000.0 -0.14024391247735857 0.10377217986871426
3800000000.0 0.08730798680217726 -0.14417721705258188
3820000000.0 -0.13676966919488245 0.07820619833968226
3840000000.0 -0.1458252703016628 0.0046748260409534064
3860000000.0 0.01542906229159584 -0.14044161120985646
3880000000.0 0.0880787899320133 0.11124789859935623
3900000000.0 -0.14430819683770527 0.029400077259293382
3920000000.0 -0.08015106340202288 0.13127757148737487
3940000000.0 -0.1495275298478355 -0.07704736791343564
3960000000.0 -0.06811214766524248 0.1621278139587276
3980000000.0 0.13543660970542842 0.1065231979815384
4000000000.0 0.014975603940142093 -0.16120916915251426
