!Created with skrf (http://scikit-rf.org).
# Hz S RI R 50.0 
!freq ReS11 ImS11
400000000.0 0.5463325151889254 0.6790750150173585
420000000.0 0.8453577278075819 -0.005965258508203231
440000000.0 0.7785786910711601 -0.1795334604952541
460000000.0 0.7294796030982325 0.14166270983649942
480000000.0 -0.045994896170055574 -0.6824454318307084
500000000.0 -0.004652531811933655 0.6011207803845844
520000000.0 0.010950369286014163 0.5104620083180209
540000000.0 -0.28937106694181586 -0.3269929541246893
560000000.0 0.013060734009832861 0.3977290698562179
580000000.0 -0.35352811466694906 -0.07291845977963955
600000000.0 0.33557252186292436 -0.11823725855612509
620000000.0 -0.21556388729099865 -0.28253690504382234
640000000.0 0.38590759586597595 -0.13754741932447465
660000000.0 0.26099660685311454 0.31912691326576453
680000000.0 -0.12014131841799856 -0.42901801117188004
700000000.0 0.06208360698987168 0.45839345487221456
720000000.0 -0.4025071173285973 0.23533912734242537
740000000.0 0.03170278683011975 0.42525966352689215
760000000.0 -0.3660837099871376 -0.16068931416466686
780000000.0 -0.35174079142901266 -0.12871327064246285
800000000.0 -0.2953786494836875 -0.159830101043363
820000000.0 -0.15088516023038748 0.23850339479206048
840000000.0 -0.04032869127998638 -0.20886268484427195
860000000.0 -0.17765881644164264 0.017756508895305754
880000000.0 0.11974990947287968 0.08839666475982176
900000000.0 0.0215352852629479 0.0951407910708958
920000000.0 0.039381299344220765 0.032332215613776506
940000000.0 -0.013831855586766587 -0.02597699099193879
960000000.0 -0.03106988689460794 0.0071777733251217465
980000000.0 0.02494671205434415 -0.046183525279791866
1000000000.0 -0.0836308458660221 0.035219464801406086
1020000000.0 -0.11466391640387107 -0.031001121859588174
1040000000.0 0.08549039385618878 -0.10686369721289352
1060000000.0 0.013939543560551115 0.16590445919250793
1080000000.0 -0.016467689455283152 0.18935255086673006
1100000000.0 -0.14545301135745217 -0.15231445709273986
1120000000.0 0.1763674559590786 -0.14759326389798483
1140000000.0 -0.1701443859238779 0.18878501446536636
1160000000.0 -0.27498620097104454 0.036413627162796426
1180000000.0 -0.04076541457693097 -0.30477534097148384
1200000000.0 0.21336598797219689 0.2700253852937237
1220000000.0 -0.1944941354645331 -0.321093858589988
1240000000.0 0.39502799229949614 0.04612832161640917
1260000000.0 -0.35901684281297064 -0.1979575596112548
1280000000.0 -0.4019659016542487 0.13963275106111683
1300000000.0 0.39603846920216657 0.17204074568533645
1320000000.0 0.42878592091841916 -0.04813930302758476
1340000000.0 0.26881404049826374 0.34334370885894955
1360000000.0 0.41766247913259597 0.14522524466456482
1380000000.0 0.07289662594493006 -0.4289720707729092
1400000000.0 -0.1383027742793152 -0.4040737195821609
1420000000.0 0.011447187500009027 0.4082782761483202
1440000000.0 0.3076682912634634 -0.21992368540650953
1460000000.0 0.12027951399351991 -0.32501091467711635
1480000000.0 -0.3137607930282632 -0.03107365226024541
1500000000.0 -0.019818298985192773 0.2804678788940837
1520000000.0 -0.2137200157921354 0.13094725993565842
1540000000.0 0.023470078138258545 0.2235505990339562
1560000000.0 -0.17042682481101093 0.0987304350563201
1580000000.0 -0.17101232806970934 0.042036077939803636
1600000000.0 0.08665167441361248 0.11030650399620821
1620000000.0 -0.0457615675021329 -0.08985772768588227
1640000000.0 -0.06174875758768304 0.04271386455859621
1660000000.0 -0.006638111323505993 0.06035006980209018
1680000000.0 -0.03847513020410876 -0.00992532708775669
1700000000.0 -0.01880038715037599 0.00912528876067849
1720000000.0 0.001581270876045921 0.011499314544945538
1740000000.0 -0.00834381171664062 -0.004601636775524784
1760000000.0 -0.0005277191000280952 0.02408975702838405
1780000000.0 -0.048281906941199236 0.013902360298904064
1800000000.0 -0.09343103225489761 0.008104524780311467
1820000000.0 0.11916265467959516 0.042560126328156436
1840000000.0 -0.12211850503638358 0.11071633674880249
1860000000.0 0.06479891411610965 0.19243998931494846
1880000000.0 0.2134671563124107 -0.1059564070068069
1900000000.0 -0.1705634916695171 -0.2188745308682828
1920000000.0 0.2331170608060077 -0.21543558741610327
1940000000.0 -0.26420809658592415 -0.2148086343664051
1960000000.0 -0.3657542633905058 -0.03128944627606814
1980000000.0 0.37877896748979967 0.1314926327635431
2000000000.0 -0.01718509156664009 -0.4204789461515415
2020000000.0 -0.3516132221624433 -0.24699655918033078
2040000000.0 0.09987238370166154 0.42304568985003976
2060000000.0 0.24176791197438727 0.36141003634610785
2080000000.0 0.34073275529200764 0.2651960359689128
2100000000.0 0.02319422072724245 -0.42437540724405787
2120000000.0 -0.03606463229316845 -0.4119789891833873
2140000000.0 0.19348618736064607 -0.3477377342762999
2160000000.0 0.3557297139320979 -0.14785436403236163
2180000000.0 0.3602527313815462 -0.10076597062576015
2200000000.0 0.2843341870739795 -0.22561847233242677
2220000000.0 -0.32524076663581086 -0.13493560419525438
2240000000.0 -0.26280531209688796 -0.22452532339759407
2260000000.0 -0.30385703573245537 -0.1609978936517825
2280000000.0 0.0034375184690872283 0.3468489710068776
2300000000.0 0.07343410362680496 0.34680833206617045
2320000000.0 0.12492956679119016 0.35533399805296956
2340000000.0 -0.023657325821624754 -0.40896375334753843
2360000000.0 -0.41400225754767217 -0.16999185940648745
2380000000.0 0.06332255224570817 0.49361800027707065
2400000000.0 -0.5064952878060015 0.23195470833734133
2420000000.0 0.5480023061755962 -0.26598342947992043
2440000000.0 -0.5509269289639633 0.3564925207426612
2460000000.0 -0.6689646170296404 -0.20759596393690033
2480000000.0 0.6681536140817075 0.30095402318365566
2500000000.0 -0.31719301234280817 -0.684982720300148
2520000000.0 0.7501465722070463 -0.16382534694581055
2540000000.0 -0.5353482558447142 -0.5559071606278179
2560000000.0 -0.4384204699890752 0.6308465944715189
2580000000.0 0.05709081667904682 -0.7521182264531496
2600000000.0 -0.7326934646207409 -0.03453719708411392
2620000000.0 -0.09097700738919601 0.7011146125871065
2640000000.0 0.5588138882453503 -0.36891610592658347
2660000000.0 -0.45649049842268363 -0.4330282746475454
2680000000.0 -0.24145085009897438 0.5313750953892804
2700000000.0 -0.28277795736034506 -0.45019556690605317
2720000000.0 -0.12310493535695756 0.46840764770485055
2740000000.0 0.4256572543673983 -0.0868223533628507
2760000000.0 -0.3377979778189462 0.19756786262994325
2780000000.0 0.3515883421438484 0.07851104877391607
2800000000.0 -0.2683600520441967 -0.20266561543489764
2820000000.0 0.09942876419225226 -0.2997164127598071
2840000000.0 0.042252306336174536 0.3047650415062294
2860000000.0 -0.20797798657268868 -0.21573575641919795
2880000000.0 0.07414783395528503 -0.28481527742294394
2900000000.0 -0.29303749031576587 0.00961662264196847
2920000000.0 -0.14469432351729977 0.2611237573057263
2940000000.0 0.10735146837457292 -0.2893836364912059
2960000000.0 -0.16896980882257312 -0.2667488592833236
2980000000.0 -0.2597839846739867 -0.18143762014724651
3000000000.0 -0.2979692834096883 -0.11110475028981676
3020000000.0 0.2387401064386826 0.21510273264036248
3040000000.0 0.2950068138807819 0.12712691742941365
3060000000.0 0.2546228284890697 0.18384135807848428
3080000000.0 0.2332391325648411 -0.19218281466222809
3100000000.0 -0.16350221057344194 0.24226288373903868
3120000000.0 -0.1342992382319735 -0.2516524430854656
3140000000.0 -0.27135531128326135 0.04649384836518755
3160000000.0 0.14268291898722915 -0.22273784641117816
3180000000.0 -0.18979520884932344 0.16351491689030648
3200000000.0 0.21324624340421203 -0.10119485040608808
3220000000.0 -0.001409465470875743 -0.20879947624555514
3240000000.0 -0.10319704585609384 -0.1409345308987726
3260000000.0 0.14245627130682523 -0.021717213179380496
3280000000.0 -0.007859389227993339 0.10101322208659404
3300000000.0 0.04961031615321328 -0.04833042049855538
3320000000.0 0.025382130740788014 -0.034378374220302266
3340000000.0 0.0006599282964641897 0.021671073069203576
3360000000.0 0.007835851608572798 -0.0006572671247165653
3380000000.0 -0.00306565589051066 -8.498936731368498e-05
3400000000.0 -0.014573532279508614 0.005161636526226521
3420000000.0 -0.023033724685618744 -0.0243383376670985
3440000000.0 -0.020898425459043166 0.04390955731328058
3460000000.0 0.033444002353751064 0.054267310026479554
3480000000.0 -0.05816716556404983 0.051910030316761155
3500000000.0 0.084869367198819 0.02691928273434809
3520000000.0 0.09000050468311231 0.04801355118094177
3540000000.0 -0.10961758498140539 0.031214553476976072
3560000000.0 0.0469060686407214 0.10801577910854893
3580000000.0 0.11063151785302758 0.07215180650211994
3600000000.0 -0.11778267008335166 0.09698168309856577
3620000000.0 0.1335638609840621 -0.09568462076345093
3640000000.0 -0.043733928151660065 -0.1767970104462709
3660000000.0 -0.15416271645580704 -0.11294128469502178
3680000000.0 0.0465206155404783 -0.18667161462378867
3700000000.0 -0.13070887190078695 -0.1395901710958531
3720000000.0 0.08252647774894858 -0.168870353197988
3740000000.0 0.05913327367739041 0.17079823396838784
3760000000.0 0.15457268731556129 -0.08839529909475022
3780000000.0 -0.13212786580002642 0.11512517251603162
3800000000.0 0.06621877496049343 -0.15527218667262957
3820000000.0 -0.12473381304959634 0.09614434724943689
3840000000.0 -0.14569268035949415 -0.0038410359482709466
3860000000.0 0.003970098537014361 -0.14119864726248013
3880000000.0 0.09830881606454493 0.10272650336228005
3900000000.0 -0.1398976201666615 0.04600154737179691
3920000000.0 -0.07461514133196796 0.1346380413536375
3940000000.0 -0.15201454846026047 -0.07163931931428327
3960000000.0 -0.048463417078917076 0.1687711147649098
3980000000.0 0.16080333506382086 0.061680408062975256
4000000000.0 -0.03909363276737989 -0.15736609766479936
