!Created with skrf (http://scikit-rf.org).
# Hz S RI R 50.0 
!freq ReS11 ImS11
400000000.0 0.7683305074834126 0.3976710168577779
420000000.0 0.8316819002992539 -0.11718274001431166
440000000.0 0.7931269663428085 0.05750776208845275
460000000.0 0.7509059526774133 0.02200042887279063
480000000.0 -0.44410972987392316 -0.5345118190952575
500000000.0 0.5838572048869687 0.14171473633422882
520000000.0 0.3987269394404802 -0.300144618428111
540000000.0 -0.3931802389284093 -0.15986647251117006
560000000.0 -0.3698882591634504 0.09732342445136626
580000000.0 0.31605321456995467 -0.16521657224497036
600000000.0 -0.10164857744360514 0.34451932640547467
620000000.0 0.12068592116929003 -0.350804647092296
640000000.0 -0.35068277946942694 -0.2401188470551993
660000000.0 0.41991381663655086 -0.03389987262747714
680000000.0 0.32268685634131405 0.3006041937777084
700000000.0 0.43423052118953837 0.05504435779637063
720000000.0 0.0450608742612597 -0.44687422924672615
740000000.0 0.03221337290785409 -0.43434430747072095
760000000.0 -0.41725324644098627 -0.0816462305274965
780000000.0 0.039018435431479315 0.38469255435110145
800000000.0 0.3174527163750569 -0.09733204168819286
820000000.0 0.24267251007413457 0.11881355076893363
840000000.0 0.09732969818704179 -0.17690194269193926
860000000.0 0.08809909472486008 -0.14627525800048308
880000000.0 -0.1465916193685775 0.030643600769468798
900000000.0 -0.10205165568200916 -0.02495086607361459
920000000.0 -0.047437846326143174 -0.026309599099162927
940000000.0 0.02782390353241977 -0.010114292129432446
960000000.0 -0.031624942940773476 0.0015863032403616282
980000000.0 -0.01721581339278616 0.052791863785482354
1000000000.0 -0.07215201158733191 0.053457569621495546
1020000000.0 -0.11169226747056389 -0.04186895998429938
1040000000.0 -0.09298928285798566 -0.10105510584446124
1060000000.0 0.11372336698428617 0.11706078692397219
1080000000.0 -0.11832568815577756 0.14237295480081247
1100000000.0 -0.14547801403034075 -0.1503981895306056
1120000000.0 0.2008520851758191 -0.11568108734987781
1140000000.0 -0.2310838389221497 0.10497408803769491
1160000000.0 -0.22814146202205343 0.16655712656100882
1180000000.0 -0.30214589124957864 -0.08167102059840974
1200000000.0 0.33811900953039814 -0.07293613637588085
1220000000.0 -0.20829567284370779 0.31254369106873403
1240000000.0 0.22386829856951698 -0.32333513128928265
1260000000.0 -0.3690437057589416 -0.16178820934677288
1280000000.0 -0.3326077802305725 0.25579690764639607
1300000000.0 0.08791701097353337 0.4210815057243605
1320000000.0 0.268535374660248 0.34707046990630885
1340000000.0 0.44174446424732977 0.06759861771914095
1360000000.0 0.2858419407281414 -0.3457835503656518
1380000000.0 -0.36368987517215445 -0.2413977586469777
1400000000.0 -0.38988143378188117 0.1598430102980552
1420000000.0 0.21348002622727957 0.33673935813239925
1440000000.0 0.35115390514916156 0.11820366729141704
1460000000.0 0.32176799856459715 -0.11963967052866135
1480000000.0 -0.2419294899686439 -0.2056168313265986
1500000000.0 -0.0030070946097486857 0.28665322722299397
1520000000.0 0.0773468553748191 0.23940641903214646
1540000000.0 -0.0009021211766689266 -0.22107279094936416
1560000000.0 0.022665061868890574 0.1906015464129476
1580000000.0 -0.006539705350663202 0.16732921108751017
1600000000.0 0.1325217412390905 0.02064058556866796
1620000000.0 0.07868000452800525 0.06359427212432626
1640000000.0 -0.07981596543129048 0.010062643322102953
1660000000.0 -0.030426681407309607 0.058194579943012456
1680000000.0 -0.015276043826012872 0.03905585831079298
1700000000.0 -0.015481433993186959 -0.013057455541783558
1720000000.0 -0.004008714138800373 0.0036376109164185117
1740000000.0 0.004979677834339399 0.013724661381968296
1760000000.0 -0.028880559035524805 -0.01295438869165344
1780000000.0 0.056209974461747955 0.004491704767799294
1800000000.0 0.03452212669456403 -0.08667433483513098
1820000000.0 -0.11642489436095237 -0.04837690963354795
1840000000.0 0.160646188539329 0.04157475182148327
1860000000.0 0.023366327073622354 0.19985537219795926
1880000000.0 0.22734924765647568 -0.07339105590104257
1900000000.0 -0.28355167848489266 -0.021825807837639495
1920000000.0 0.2694646985800395 -0.1784593596037292
1940000000.0 -0.3423846905248807 0.0627573445120924
1960000000.0 0.06189307659502199 0.36791129067653644
1980000000.0 0.38782998309597294 -0.10583644052011651
2000000000.0 -0.3815228314626745 -0.17694634443323487
2020000000.0 -0.2580460687085271 0.34175397713466427
2040000000.0 0.173337923447586 0.39736403611366705
2060000000.0 0.41108564042180645 0.1373046239592542
2080000000.0 0.367085401667957 -0.2226454696837382
2100000000.0 0.12118563245115722 -0.40658879359845734
2120000000.0 -0.1460274433425955 -0.38861505966407656
2140000000.0 -0.310127020920731 -0.2541217337487569
2160000000.0 0.2589703891533653 -0.28961042465506115
2180000000.0 -0.13152156094746062 -0.35199333999011173
2200000000.0 -0.3538935910896948 -0.06825455741350406
2220000000.0 -0.3490161191424597 0.01133422716243323
2240000000.0 -0.34296129243643364 0.035148456193038746
2260000000.0 -0.24042575470793354 0.2507257545574452
2280000000.0 0.08585880489248618 0.34104091377629286
2300000000.0 0.3606772767143776 0.03920212717029758
2320000000.0 0.1525324873230607 -0.355302906807761
2340000000.0 -0.3988571988128158 -0.12360938989179827
2360000000.0 -0.026852796981337912 0.45605852798636953
2380000000.0 0.1789923256301916 -0.4761204309609042
2400000000.0 0.04528675609649982 0.5611038685114805
2420000000.0 -0.4585800112903463 -0.409629645108486
2440000000.0 0.6533002952655278 -0.1069566737698257
2460000000.0 -0.43592065673016017 0.5498962986820319
2480000000.0 -0.007201005773181051 -0.7322355005600075
2500000000.0 0.15401023590665944 0.7356039621202801
2520000000.0 0.0721195276491259 -0.7594009839202182
2540000000.0 -0.33725763882023657 0.6861223296786533
2560000000.0 0.6811213141789111 -0.33405599576385026
2580000000.0 -0.6152574481110314 -0.4193990210055517
2600000000.0 0.15263322305365043 0.7048718746248582
2620000000.0 0.44442859330998263 -0.5319464044806268
2640000000.0 -0.02995277251297088 -0.6561561977796772
2660000000.0 -0.42451938698027836 0.4433923764584648
2680000000.0 0.5622566052149409 -0.06806185950997831
2700000000.0 -0.4189938554999882 -0.30522100574977756
2720000000.0 0.2981206972925395 0.3645626488873362
2740000000.0 -0.09024265198833105 -0.4130568214565882
2760000000.0 -0.2588556961232792 0.2832454925674915
2780000000.0 0.26617274158577287 -0.22815005975326857
2800000000.0 -0.22329729233589737 0.2366403437320853
2820000000.0 0.18375704766056541 -0.24637470768441055
2840000000.0 0.12858285606694594 0.27101532191222216
2860000000.0 -0.2877201529625038 0.0551700617351055
2880000000.0 0.08014650917684417 -0.27779453170922896
2900000000.0 -0.20100761346792662 0.20549224205333147
2920000000.0 0.2024392501020633 0.21229524012624304
2940000000.0 0.16305327667947378 -0.25626721077710474
2960000000.0 -0.3068046863007699 -0.05460489723117406
2980000000.0 -0.2039076016540118 0.2384214351040364
3000000000.0 -0.29015072487621085 0.11793617119600992
3020000000.0 -0.23840473132507933 -0.20670217778055627
3040000000.0 0.0911568553397068 -0.30113519191335725
3060000000.0 0.24465408467274857 0.18792079457755761
3080000000.0 -0.2710762035257504 -0.12470220239894741
3100000000.0 0.18128496284527137 0.22522978448084308
3120000000.0 -0.09537262093150295 -0.2673583951355871
3140000000.0 0.1434229953398841 0.23508800628502136
3160000000.0 -0.23269942359395526 -0.12251444488078873
3180000000.0 0.02547906168450934 0.24811292803121535
3200000000.0 -0.21320572017740813 0.08551533715647668
3220000000.0 -0.199339660168238 -0.043264499746447534
3240000000.0 -0.0455239454251634 -0.16620952896611657
3260000000.0 0.09656539086451897 -0.09779478854310071
3280000000.0 -0.09432092548412038 -0.03671150989031223
3300000000.0 -0.036593611075833 0.06347472703258301
3320000000.0 -0.041676022225639354 0.013497204449948478
3340000000.0 0.016853573646696013 -0.016877949434063445
3360000000.0 -0.00812937064588478 0.004189331025972362
3380000000.0 0.003989040046636536 0.0026948330037502937
3400000000.0 -0.006168359760375081 0.013145023691234463
3420000000.0 -0.029861525853488835 -0.010298655720050337
3440000000.0 0.010114711207817536 0.04516251046864742
3460000000.0 0.0019407096758016378 -0.05989038568232066
3480000000.0 -0.045544863903426776 0.05527844484384332
3500000000.0 0.08456219578491152 -0.025135513455538425
3520000000.0 0.10184389088464962 -0.0009386271769991078
3540000000.0 -0.09813816603257629 0.055404059586686843
3560000000.0 -0.06540378030243443 -0.10291332412892132
3580000000.0 -0.12881775338698137 -0.02674071838893906
3600000000.0 0.14634589554824426 0.011203912395150159
3620000000.0 -0.15025659562001484 0.06119774060900017
3640000000.0 -0.17687042315845508 0.028253901114778424
3660000000.0 -0.1717354682610845 -0.07815162378100464
3680000000.0 -0.1826534570227202 -0.06854300772767692
3700000000.0 -0.15939989490441647 0.11333479309543185
3720000000.0 -0.19135075349218997 -0.0028991410664691176
3740000000.0 0.01598537855319193 -0.18076185351098017
3760000000.0 -0.15671817994871642 -0.08077722996500074
3780000000.0 0.015520237970595452 0.17156036867164454
3800000000.0 0.017416692606240482 -0.16715931132157788
3820000000.0 -0.14194486518693533 0.07804359542534026
3840000000.0 -0.07146822762246739 0.13380142559263852
3860000000.0 -0.12027758275107235 0.08361529627223535
3880000000.0 -0.04522299854137424 -0.13763044968258142
3900000000.0 0.10262627846387297 0.1077104301943727
3920000000.0 0.15346448298731075 0.04361814941837837
3940000000.0 -0.11532347186174882 0.12758717464640004
3960000000.0 0.030112679432575257 0.17827203173033482
3980000000.0 0.13275343232196177 -0.12004635455807636
4000000000.0 -0.1376727366494627 -0.09812581318230428
