!Created with skrf (http://scikit-rf.org).
# Hz S RI R 50.0 
!freq ReS11 ImS11
400000000.0 0.7634402499931173 0.40991868805684145
420000000.0 0.8366013999799282 -0.08107590467088031
440000000.0 0.7951472813852103 0.04654950962828159
460000000.0 0.7502994004969932 0.057027159099675234
480000000.0 -0.4346432041578132 -0.541423187126827
500000000.0 0.5893983994029987 0.10844240124415197
520000000.0 0.39338766421146015 -0.30562398892417764
540000000.0 -0.38485841868540027 -0.17968371803048874
560000000.0 -0.36210494767213836 0.12308998390955767
580000000.0 0.2908029190425374 -0.20661368764640714
600000000.0 -0.09195661008089485 0.3485755948007214
620000000.0 0.1447916380091362 -0.34334222060892855
640000000.0 -0.359162023931869 -0.2292852960587954
660000000.0 0.4215117004207362 -0.027576164293041192
680000000.0 0.36304603713001743 0.24946960029292375
700000000.0 0.43136549113953593 0.0681017013403365
720000000.0 0.13987369345851886 -0.4268343280475627
740000000.0 0.10075574671896591 -0.4246860115820157
760000000.0 -0.4258022173619237 0.004029506221587134
780000000.0 0.16902078304693346 0.347512064975521
800000000.0 0.2956815746823338 -0.14834234649716613
820000000.0 0.21330000815978778 0.16312810640210684
840000000.0 0.13641532636729162 -0.14885362601976243
860000000.0 0.10046407158266712 -0.14060311353964988
880000000.0 -0.13942026282554004 0.056625190952876964
900000000.0 -0.10214803877793964 0.02380102507813683
920000000.0 -0.04587924993948008 0.02948827257589423
940000000.0 0.028099188310415916 0.011442412174469202
960000000.0 -0.004575764037852889 -0.029900676418817915
980000000.0 0.019409772790695765 0.051701629708579805
1000000000.0 -0.0002769752223891355 0.09072932368402888
1020000000.0 -0.11210166785976002 0.04103428540384187
1040000000.0 -0.12919345735624788 -0.044763771117281956
1060000000.0 0.1453435950276619 0.0731734687709427
1080000000.0 -0.14166231508131874 0.11824415361237844
1100000000.0 -0.08289340337472889 -0.19315527856984568
1120000000.0 0.2279537294111625 -0.05068553173361033
1140000000.0 -0.2293818586734055 0.11141590642725686
1160000000.0 -0.18601656713668355 0.21426731842431357
1180000000.0 -0.3128620569812422 -0.013180376604557571
1200000000.0 0.3320624811025561 -0.09358945609429144
1220000000.0 -0.26907263239382034 0.26031540254262864
1240000000.0 0.2907805172856906 -0.26478487181699406
1260000000.0 -0.3201590395593404 -0.24713639898260895
1280000000.0 -0.3511406111932554 0.23216971739710507
1300000000.0 0.16660738205437833 0.39734963045339594
1320000000.0 0.3489315287774983 0.26520977849663574
1340000000.0 0.44488309446406665 -0.010088918145234946
1360000000.0 0.2984463379857338 -0.33213230584107806
1380000000.0 -0.32147950927772806 -0.29373150083779814
1400000000.0 -0.4111953183141376 0.09318517057550442
1420000000.0 0.2151391834743014 0.336982374876634
1440000000.0 0.36900772237214013 0.044415731413272
1460000000.0 0.2856383450644467 -0.19179057626680948
1480000000.0 -0.2948363671969495 -0.11587688066946171
1500000000.0 0.0008167871203207548 0.2859668941727884
1520000000.0 0.004142386350980635 0.25158936915581115
1540000000.0 0.03234786332766702 -0.21990860933211098
1560000000.0 -0.012235389115799982 0.19309003541310862
1580000000.0 -0.030590713654222595 0.16596443316688164
1600000000.0 0.13406161120682847 -0.012256519413646305
1620000000.0 0.10106840544913502 0.006954581015304567
1640000000.0 -0.0601989236223315 0.05100203061431519
1660000000.0 -0.003932697656037185 0.06397590609531623
1680000000.0 -0.03075984375752739 -0.026652078733310935
1700000000.0 0.018512466235834392 0.00752944644326517
1720000000.0 0.005920419656340086 0.0004891107169823492
1740000000.0 0.013654623080730285 -0.0030525465589902475
1760000000.0 0.02953938274878872 -0.005454693442025106
1780000000.0 -0.05484829557971972 0.011853991007020675
1800000000.0 0.08970952658694954 0.0281513520573276
1820000000.0 -0.08756888515215992 -0.09330388968886526
1840000000.0 0.16582489127299643 0.02224515587459689
1860000000.0 0.09524342872820228 0.17708337228689972
1880000000.0 0.20589113100217563 -0.11817607906019904
1900000000.0 -0.2821915296258765 -0.014406254227709924
1920000000.0 0.29105286758094734 -0.13739035590103446
1940000000.0 -0.347720833450856 0.01097516766569693
1960000000.0 0.052178060899542904 0.36986130472375617
1980000000.0 0.3801351477464473 -0.13364766122294244
2000000000.0 -0.3985924229267453 -0.1363672927302014
2020000000.0 -0.18704827250326542 0.3851839517647768
2040000000.0 0.20623999155362208 0.3818259898102227
2060000000.0 0.4132495485718295 0.13321279508617442
2080000000.0 0.3872820782922737 -0.1885392372741548
2100000000.0 0.2351346191884265 -0.3553309492592774
2120000000.0 -0.12167587108407696 -0.39839945732005855
2140000000.0 -0.28847694825959186 -0.28110702456989756
2160000000.0 0.29701369788215914 -0.25311921460978754
2180000000.0 -0.10293011393664661 -0.3622313266714626
2200000000.0 -0.32446302230017915 -0.15737563972763172
2220000000.0 -0.3445760603234413 -0.0575837942243564
2240000000.0 -0.3443391194105902 -0.01649000084916889
2260000000.0 -0.28956598191006294 0.19117340740987349
2280000000.0 0.04524312966197562 0.3477114140841526
2300000000.0 0.3476619532791898 0.09891521308085942
2320000000.0 0.20453372293356126 -0.3268538771705163
2340000000.0 -0.37007438828954103 -0.19058908942912506
2360000000.0 -0.07303049420397029 0.4499488208359951
2380000000.0 0.2032696069732562 -0.46526719730311383
2400000000.0 0.012713040685215853 0.5623012544296848
2420000000.0 -0.45978252643682205 -0.4086110338196277
2440000000.0 0.6609227712376944 -0.04861037227006967
2460000000.0 -0.4696517412150732 0.523114917440044
2480000000.0 0.04218701120416203 -0.7324852850382695
2500000000.0 -0.0067962576394434695 0.7538501828038461
2520000000.0 0.1130533658528083 -0.7563558341990864
2540000000.0 -0.4333531289668279 0.6334256755540015
2560000000.0 0.729429275326265 -0.21773615519304856
2580000000.0 -0.5386106125954406 -0.5179622899341781
2600000000.0 -0.0339891717903781 0.7221380754115759
2620000000.0 0.5820318314886064 -0.3784870038952619
2640000000.0 0.15729702232274884 -0.6383907778924244
2660000000.0 -0.5182984683878483 0.32931602598610704
2680000000.0 0.5632150514095259 0.06450308244100578
2700000000.0 -0.3563311405133476 -0.3770848723086787
2720000000.0 0.2702721179262355 0.38554355124658196
2740000000.0 -0.04898776974341494 -0.4186302742576101
2760000000.0 -0.2519396820725906 0.28751119313483253
2780000000.0 0.259636884824247 -0.23394944057322822
2800000000.0 -0.2025951327660764 0.25402439780509906
2820000000.0 0.13033485592203758 -0.2786261785214199
2840000000.0 0.1742284340852245 0.24511263483658471
2860000000.0 -0.2625837777691757 0.1316881783857055
2880000000.0 0.015907124063355083 -0.28952040975866883
2900000000.0 -0.1541717411475276 0.2436574616784667
2920000000.0 0.23066060498470672 0.18354736735931246
2940000000.0 0.1357233281490463 -0.2738765229011035
2960000000.0 -0.3068037654555487 -0.06365767079567837
2980000000.0 -0.2022501210623591 0.24229297882885673
3000000000.0 -0.3148375087397501 0.026822248183750876
3020000000.0 -0.15447498671526955 -0.276812514841703
3040000000.0 0.200486373850869 -0.24349670662226622
3060000000.0 0.1651962383232014 0.2603989506753778
3080000000.0 -0.21007211135721046 -0.2124105041085114
3100000000.0 0.02160249741572417 0.288848167565711
3120000000.0 0.026017377430490374 -0.28279969895481044
3140000000.0 0.10938509300868662 0.2528807419285458
3160000000.0 -0.18349623290492284 -0.18866190285801926
3180000000.0 -0.04258111489568094 0.2454200922378671
3200000000.0 -0.22567849974498705 0.03944233865867565
3220000000.0 -0.1723324662346357 -0.10587659998772136
3240000000.0 -0.017586535039497107 -0.1703142130047403
3260000000.0 0.08691717494120262 -0.10497932325744264
3280000000.0 -0.09213568718537941 0.037399437874709
3300000000.0 0.0186422320830329 0.06915275744852858
3320000000.0 -0.025525959802553396 0.03379387729598238
3340000000.0 -0.006750883241766858 -0.02188955245329622
3360000000.0 -0.007761021790872295 -0.0011979632155283417
3380000000.0 0.004779167189419644 -0.0012315840828021243
3400000000.0 0.005521426887525502 -0.015152067905769458
3420000000.0 -0.021627491503875662 -0.023684092278730088
3440000000.0 0.04589620258908712 0.011957905192450727
3460000000.0 -0.009581671594508673 -0.06011124074221668
3480000000.0 -0.05560117629216536 0.0461594005466603
3500000000.0 0.089309034288234 0.010059387862741612
3520000000.0 0.08863002303734567 0.05353786513636583
3540000000.0 -0.10474187481520353 0.04639343719358725
3560000000.0 -0.015821445255706106 -0.12142315267840682
3580000000.0 -0.12214726752265642 -0.052481273278596384
3600000000.0 0.11590706899831808 0.0918626355457225
3620000000.0 -0.16440510673720754 0.0037962952583909582
3640000000.0 -0.17446141582071778 -0.04629500138055663
3660000000.0 -0.08852987169837605 -0.1671982179405242
3680000000.0 -0.1421542948438967 -0.13414600216930941
3700000000.0 -0.19514080032812758 0.01361547910950504
3720000000.0 -0.184996543378462 -0.04737497429694891
3740000000.0 0.0902520896828446 -0.15599865958182116
3760000000.0 -0.08572335115931333 -0.15211398876280996
3780000000.0 -0.07831345612967526 0.1524030644472744
3800000000.0 0.0905495190680812 -0.1400976603550375
3820000000.0 -0.15651450106544987 0.034960098774644836
3840000000.0 -0.09541113075193558 0.11569496002610574
3860000000.0 -0.1437014640175284 0.02212351299042876
3880000000.0 0.017789221103603 -0.142427345488024
3900000000.0 0.03429687172714379 0.14267539555731007
3920000000.0 0.12691047820929574 0.09385276074829361
3940000000.0 -0.1381510041892389 0.09878037229634101
3960000000.0 0.017594480668048498 0.1779028186552162
3980000000.0 0.12133144904777132 -0.12910575115169906
4000000000.0 -0.1557538473037491 -0.06006192063761105
