!Created with skrf (http://scikit-rf.org).
# Hz S RI R 50.0 
!freq ReS11 ImS11
400000000.0 0.5156600093392252 0.7017366608829825
420000000.0 0.8418835044490404 -0.06806356486372638
440000000.0 0.7696004059429638 -0.21314816585056923
460000000.0 0.7279564686236957 0.14887137015926521
480000000.0 -0.06931407451815695 -0.6805703443845039
500000000.0 0.028398433261381133 0.6003666347596652
520000000.0 0.02651654199226972 0.5098917798150859
540000000.0 -0.31062552628867957 -0.3069306302190036
560000000.0 0.021180555088144325 0.3971537773893746
580000000.0 -0.34974697129293725 -0.0878700181888596
600000000.0 0.34459967978986944 -0.087649878825371
620000000.0 -0.1915105712778654 -0.29928682027159237
640000000.0 0.39253927267560607 -0.11801438955633986
660000000.0 0.26114888271114606 0.319186897858688
680000000.0 -0.14602725901487612 -0.4205653682479251
700000000.0 0.07498092810212469 0.45635450102726144
720000000.0 -0.40283347562762145 0.23485421804042697
740000000.0 0.02971619669618167 0.42572872806419604
760000000.0 -0.37134299096303136 -0.1492126890492829
780000000.0 -0.35572968608492356 -0.11724438217552374
800000000.0 -0.30245875977827297 -0.14522271600007144
820000000.0 -0.1648298686388363 0.22899151048126412
840000000.0 -0.03813489209219905 -0.20925110294808127
860000000.0 -0.17771162038814836 0.020149631636652163
880000000.0 0.1265847269245527 0.07839802991149705
900000000.0 0.01670828193761718 0.09617946781642796
920000000.0 0.031229437258319687 0.04006169082280155
940000000.0 -0.009937652399815982 -0.02753839292205171
960000000.0 -0.027269081769451396 -0.01629309381118863
980000000.0 0.029824149772324064 -0.04341136289449003
1000000000.0 -0.08678288877697694 0.027683429710022318
1020000000.0 -0.10961343049093271 -0.046091311791871474
1040000000.0 0.09110906216539068 -0.10283502155886085
1060000000.0 0.02266963596954754 0.165495468389822
1080000000.0 0.014816367378126036 0.18970535717652662
1100000000.0 -0.16473451759182708 -0.13079441387360574
1120000000.0 0.17251573630020528 -0.15110728265605208
1140000000.0 -0.14278839952289712 0.2095133059661891
1160000000.0 -0.27617180434041855 0.02391647728789383
1180000000.0 -0.021031268914710147 -0.30679792078047735
1200000000.0 0.2256920081380888 0.2602757052311119
1220000000.0 -0.22739347435889332 -0.29917293757697017
1240000000.0 0.397729516750956 0.006310297628231919
1260000000.0 -0.36271496527911484 -0.19097036992129715
1280000000.0 -0.3955326237618068 0.1567392070118245
1300000000.0 0.39616333074922205 0.17205478888678233
1320000000.0 0.4296432874154288 -0.040762119018840554
1340000000.0 0.27091066710992423 0.3417512983065137
1360000000.0 0.41682355657397735 0.14874662515728793
1380000000.0 0.08295267446319711 -0.4275103755439902
1400000000.0 -0.14818397108257936 -0.40061966811728417
1420000000.0 0.009866109947439394 0.4082856731212454
1440000000.0 0.3065562846184507 -0.22068509875495504
1460000000.0 0.13416578714219793 -0.3190480519273396
1480000000.0 -0.30946173790307535 -0.05781583818150661
1500000000.0 -0.029663741368981426 0.27979439579355336
1520000000.0 -0.20710038222293506 0.14212942759356137
1540000000.0 0.04911094482581801 0.21951245186411525
1560000000.0 -0.15179451137447042 0.12524289576591638
1580000000.0 -0.16220396697989478 0.06755397082911396
1600000000.0 0.09546968388883614 0.1020584801158321
1620000000.0 -0.0365084721799214 -0.09366193649765071
1640000000.0 -0.06215018955670509 0.04254298651610368
1660000000.0 -0.011594552943907443 0.059797948281540746
1680000000.0 -0.023624119582155753 -0.03226861220519221
1700000000.0 0.0033851221628292236 0.021019587328184496
1720000000.0 0.009627211339800686 0.006990608996267815
1740000000.0 -0.0046884120968865035 -0.008203988200136323
1760000000.0 0.006492703670030429 0.023636693268987655
1780000000.0 -0.03840561955925754 0.03270177729590473
1800000000.0 -0.08794248569229378 0.032520381098810974
1820000000.0 0.12314912684112453 0.027983113423335218
1840000000.0 -0.11962840908456499 0.11318537782607267
1860000000.0 0.0588855725407674 0.19435024259979802
1880000000.0 0.2136085318660281 -0.10602058480658164
1900000000.0 -0.1733491574505471 -0.2169009260058921
1920000000.0 0.2305026169298263 -0.2183313060472958
1940000000.0 -0.2615794728756518 -0.21771872254519
1960000000.0 -0.36522623153539285 -0.03792681758037945
1980000000.0 0.3794993853747363 0.12968135306202766
2000000000.0 -0.019888006867801067 -0.4204076682382939
2020000000.0 -0.3639149155663776 -0.22802699982025032
2040000000.0 0.0989997750345445 0.422960158276091
2060000000.0 0.2542145923065693 0.3521314813016438
2080000000.0 0.32114918968432477 0.28830426028741335
2100000000.0 0.054813804891436446 -0.42138957792996923
2120000000.0 -0.01853079339735214 -0.4131532530926227
2140000000.0 0.17652616449322361 -0.35643033908988375
2160000000.0 0.3413177100007522 -0.17751499360279552
2180000000.0 0.35310676181179274 -0.12179016314716565
2200000000.0 0.2812627016964343 -0.22868231829353974
2220000000.0 -0.33691967216385293 -0.10089354829800377
2240000000.0 -0.251875658064682 -0.23705864867760984
2260000000.0 -0.30848350569737276 -0.15250235042810825
2280000000.0 0.04521152164203012 0.34435345881822177
2300000000.0 0.10831460585509928 0.337927173595457
2320000000.0 0.13497285171532075 0.3515489321812176
2340000000.0 -0.016302432793639975 -0.4091336617460375
2360000000.0 -0.4137292615661687 -0.1711391825052705
2380000000.0 0.0761313525756519 0.49218616321821296
2400000000.0 -0.5033948870250856 0.23909834699931495
2420000000.0 0.5456803169389297 -0.27129680293277003
2440000000.0 -0.5360910816409787 0.37828120086417766
2460000000.0 -0.6767957271371813 -0.1809468184345246
2480000000.0 0.6702502771187425 0.2960270554567869
2500000000.0 -0.34460602453377354 -0.6711660075901913
2520000000.0 0.7354517297375059 -0.21964892211461357
2540000000.0 -0.546793000330777 -0.544303847358042
2560000000.0 -0.44396604196562006 0.6267176062660803
2580000000.0 -0.007335792990902466 -0.7538628975383752
2600000000.0 -0.7328329880660289 -0.02276004658719321
2620000000.0 -0.050132784416342634 0.7048787837218607
2640000000.0 0.525088168510325 -0.41515550373935356
2660000000.0 -0.48388498541331176 -0.40183314900713607
2680000000.0 -0.18418663575048763 0.5535520904778295
2700000000.0 -0.30169415867723204 -0.4372611909188576
2720000000.0 -0.11700265828487184 0.46961003572809673
2740000000.0 0.4229540853340484 -0.09817902617095996
2760000000.0 -0.3366961802687233 0.19939204678396982
2780000000.0 0.351514411471213 0.07911937053610955
2800000000.0 -0.2730908730413617 -0.19607175048358333
2820000000.0 0.08535642962830325 -0.3039543798208749
2840000000.0 0.04707117795073561 0.3039838588887413
2860000000.0 -0.19288198993183364 -0.22945684548210793
2880000000.0 0.07740360073441387 -0.283784713840993
2900000000.0 -0.2929457164887846 0.007000653019633596
2920000000.0 -0.16722568054299383 0.24743504902362976
2940000000.0 0.15055403242269094 -0.2694581428390464
2960000000.0 -0.14344318775006354 -0.2812105743298292
2980000000.0 -0.23219122902817635 -0.21547359996863746
3000000000.0 -0.29468551141053984 -0.11862124497880461
3020000000.0 0.23417119637505557 0.21930805018897045
3040000000.0 0.3170154553144233 0.04943630510259239
3060000000.0 0.21957490389603365 0.2235451636877422
3080000000.0 0.22787040346232745 -0.19823112770999335
3100000000.0 -0.11895119219841119 0.2668926617914624
3120000000.0 -0.11670169967413174 -0.25962434818812963
3140000000.0 -0.27351705373441965 0.025369881244436756
3160000000.0 0.15221845509535314 -0.21591836498961245
3180000000.0 -0.17509543088300936 0.17960525114252401
3200000000.0 0.20887427094984043 -0.10973093936255875
3220000000.0 -0.023337113847871616 -0.2077924257718043
3240000000.0 -0.12418571926159996 -0.12288207480490751
3260000000.0 0.13850146343081332 -0.0406489448041934
3280000000.0 -0.02223568016633107 0.09911346943713065
3300000000.0 0.04165798435475343 -0.05541427716089599
3320000000.0 0.023308040087767563 -0.03579474784538127
3340000000.0 -0.02125692916871074 0.004916829738004589
3360000000.0 -0.0025017363454649215 -0.00816967506626496
3380000000.0 -0.0008978787638709787 0.0029562116960718
3400000000.0 0.014928450672409875 0.003162530749420127
3420000000.0 -0.03126619787092178 -0.0119727274357612
3440000000.0 -0.03722229327030881 0.03092319646378448
3460000000.0 0.05580631115526175 0.030674272611974092
3480000000.0 -0.043049939443687374 0.0647095804972785
3500000000.0 0.08859592620203445 -0.005974513485271268
3520000000.0 0.09770015907955032 0.028662002568226767
3540000000.0 -0.10281705594421946 0.049280125406429606
3560000000.0 0.0524388432560377 0.10543430236014605
3580000000.0 0.12585544359558187 0.041629519439793074
3600000000.0 -0.10636302514499721 0.1094939130529442
3620000000.0 0.10901393137671697 -0.12315639788078153
3640000000.0 -0.0644173602070243 -0.17075375957903016
3660000000.0 -0.15924837852372467 -0.10550781163078296
3680000000.0 0.03418717172534205 -0.18949016065872085
3700000000.0 -0.14032496419746268 -0.1304894249995252
3720000000.0 0.06916133562155262 -0.17574705095795076
3740000000.0 0.0674985148466624 0.16806718713510244
3760000000.0 0.15100000560437418 -0.0949037483423948
3780000000.0 -0.12087132474260705 0.12635505282758475
3800000000.0 0.06543189167560338 -0.15584673303563812
3820000000.0 -0.123093406931696 0.09856468986075277
3840000000.0 -0.14609047521874388 -0.0022569594475400578
3860000000.0 0.011709574441140956 -0.14142637565479652
3880000000.0 0.1083977821354613 0.09201379351225093
3900000000.0 -0.14026171473918753 0.045439312519954284
3920000000.0 -0.07319452172083389 0.13533878477353914
3940000000.0 -0.15657532193764434 -0.06157628016540766
3960000000.0 -0.047245591910724194 0.1694938017136247
3980000000.0 0.16276100316662392 0.05683545594216746
4000000000.0 -0.04494534462274031 -0.15600073012239937
