!Created with skrf (http://scikit-rf.org).
# Hz S RI R 50.0 
!freq ReS11 ImS11
400000000.0 0.7552464730393355 0.4232719032773488
420000000.0 0.8402908638498517 -0.029621940911898556
440000000.0 0.7913674890942949 0.09022442095662277
460000000.0 0.7508024593204514 0.046575545375345515
480000000.0 -0.45247310253663864 -0.5261329743261
500000000.0 0.5858595098633934 0.12642274131137932
520000000.0 0.3980235496680223 -0.29925995233628966
540000000.0 -0.3786010984108371 -0.1928233990719842
560000000.0 -0.3548942424490716 0.1421842763999424
580000000.0 0.27716554493614515 -0.22465999991834734
600000000.0 -0.11107694438222283 0.3431505931991689
620000000.0 0.18527196225559883 -0.3236232840989571
640000000.0 -0.32385372719241556 -0.2765782665828983
660000000.0 0.4221502893040431 -0.011495214404182693
680000000.0 0.34881923106111784 0.2693626356342902
700000000.0 0.4296447197815638 0.07714640046486483
720000000.0 0.1618136970575647 -0.41911077749306697
740000000.0 0.0912748632362496 -0.42751069416833826
760000000.0 -0.42454034513969013 0.036267436732083214
780000000.0 0.1928275434698188 0.3345806013364485
800000000.0 0.2839515708394954 -0.16819906833370377
820000000.0 0.19584647742045605 0.1829670734179987
840000000.0 0.13618680384951276 -0.14959815003653323
860000000.0 0.08363812110204229 -0.15207718945716767
880000000.0 -0.12041418935948596 0.09146042334898749
900000000.0 -0.09447914192445044 0.04544672987879855
920000000.0 -0.04772103384142041 0.02642881408389664
940000000.0 0.018882885989595102 0.02377954804525555
960000000.0 0.009958168229607604 -0.02855832336519374
980000000.0 0.02034011531838481 0.05140738107386549
1000000000.0 0.011804257838248278 0.090175627108621
1020000000.0 -0.09915344484985192 0.06670789054297195
1040000000.0 -0.1349635272621897 -0.020189376890755617
1060000000.0 0.15145997269892236 0.05837562728863
1080000000.0 -0.14851991231504122 0.1087495094393259
1100000000.0 -0.0294666394293281 -0.20826005718025165
1120000000.0 0.2304352656794215 -0.04197584870152126
1140000000.0 -0.23547858036152677 0.09947559222594561
1160000000.0 -0.17882835414720014 0.22085359965843337
1180000000.0 -0.31279600015833775 -5.1787906772297606e-05
1200000000.0 0.3332957781497875 -0.08596466782679556
1220000000.0 -0.263374737401043 0.2648181545002008
1240000000.0 0.3167828661540644 -0.2318808622356159
1260000000.0 -0.2905636133841684 -0.2811917795228631
1280000000.0 -0.36045314406353307 0.21833172078894175
1300000000.0 0.1722460450265994 0.39544279660968584
1320000000.0 0.3805887703790108 0.2173451497741676
1340000000.0 0.44116323054291595 -0.05190470467311988
1360000000.0 0.3052167789300479 -0.32496668584013083
1380000000.0 -0.278773489720048 -0.33429768033626134
1400000000.0 -0.4172192378681065 0.06483781808690517
1420000000.0 0.2041769387727943 0.34512954914151905
1440000000.0 0.37246134603796177 0.014688252399052807
1460000000.0 0.26472004876419797 -0.22034092442502778
1480000000.0 -0.29884836705683127 -0.10432348218694704
1500000000.0 -0.02921456519647378 0.2840249733927338
1520000000.0 -0.03974620638919212 0.24868960799280804
1540000000.0 0.06546802377050573 -0.21330898241370286
1560000000.0 -0.04139942983897931 0.1899654193798106
1580000000.0 -0.06355708037537167 0.15717547184800879
1600000000.0 0.13361134734194421 -0.01698847012747502
1620000000.0 0.09947729073137411 -0.015600610385106998
1640000000.0 -0.050410024303389506 0.05922946803658299
1660000000.0 -0.0301864436973258 0.05540464177019062
1680000000.0 0.0023980244505549756 -0.0402906249621963
1700000000.0 -0.019925497790493216 -0.003699803317071152
1720000000.0 0.005663826933482649 0.003559396230241126
1740000000.0 0.012503218089856546 -0.000213771388040294
1760000000.0 0.009162274521776106 0.027539785927037142
1780000000.0 -0.03900762049574553 -0.03991798150887682
1800000000.0 0.0912829694403876 0.025058306531495378
1820000000.0 -0.10101504400551159 -0.07852381038965976
1840000000.0 0.16518874220692606 -0.026126606764629644
1860000000.0 0.1204103671315377 0.16042673297580165
1880000000.0 0.19749037100611838 -0.13085953542689993
1900000000.0 -0.2819378326561962 -0.011328576249186883
1920000000.0 0.2932903149235528 -0.1323050470652746
1940000000.0 -0.3479785516111045 -0.005645568038782041
1960000000.0 0.040566704614280365 0.3715806795714952
1980000000.0 0.3832249100294826 -0.12543125497339289
2000000000.0 -0.39871883521548546 -0.13623531804638955
2020000000.0 -0.19662661127483114 0.3802836385501006
2040000000.0 0.15224523406402923 0.40661202308933686
2060000000.0 0.4076727225425779 0.1493770112496315
2080000000.0 0.40010646529339977 -0.15879997954727942
2100000000.0 0.21907048920592662 -0.3648239203532885
2120000000.0 -0.08920523546027849 -0.4067263119990496
2140000000.0 -0.26785989695782164 -0.30023759792778176
2160000000.0 0.29258559678918367 -0.2574373868370671
2180000000.0 -0.08275217837137555 -0.36711062869470273
2200000000.0 -0.3086880534576372 -0.18611438410880202
2220000000.0 -0.3345262788146509 -0.10065726725057353
2240000000.0 -0.3434056063985115 -0.026394847999535138
2260000000.0 -0.2810560110101182 0.202680014025865
2280000000.0 0.043470888894299634 0.3476062473997248
2300000000.0 0.3420833055300445 0.1148065052956543
2320000000.0 0.20667338840542082 -0.3255576027713815
2340000000.0 -0.36045439016941433 -0.20732374247113053
2360000000.0 -0.07510804366462913 0.4488834474118009
2380000000.0 0.20267240792235783 -0.4652505964549768
2400000000.0 0.015063735158688961 0.5620041474442783
2420000000.0 -0.40317435101346877 -0.46449273206986486
2440000000.0 0.6626189061834021 -0.01664139133916136
2460000000.0 -0.5000924587552337 0.4944418447821908
2480000000.0 0.1278581585837223 -0.722914252592691
2500000000.0 -0.024331005595279842 0.7536868340804586
2520000000.0 0.16361055495052357 -0.7472318155783026
2540000000.0 -0.4792865754068808 0.5997266206905014
2560000000.0 0.7495645282265196 -0.1351477718628061
2580000000.0 -0.5126293238975691 -0.5437883023317905
2600000000.0 -0.09282479116512289 0.7170815468505661
2620000000.0 0.5881844538109512 -0.3686769013127664
2640000000.0 0.1874880903022117 -0.630116913992602
2660000000.0 -0.5316857807727047 0.30715638176993965
2680000000.0 0.5613100575270703 0.07967713311084383
2700000000.0 -0.3412340507858983 -0.39085491545128265
2720000000.0 0.25011129829727136 0.39884688457506084
2740000000.0 -0.06641801058036409 -0.4163243100431456
2760000000.0 -0.25101084991128375 0.2884098985961678
2780000000.0 0.2534712563556697 -0.24105402137229534
2800000000.0 -0.1880367273045822 0.2656522483167617
2820000000.0 0.1125700889236972 -0.2871967802380276
2840000000.0 0.200301052908636 0.22455899108362104
2860000000.0 -0.2562300036039146 0.14459801906568476
2880000000.0 0.01453218632309851 -0.2897338978238238
2900000000.0 -0.18267469421984286 0.22402194832909697
2920000000.0 0.21937447844966643 0.19756729623107877
2940000000.0 0.1840261540915808 -0.2447822880336958
2960000000.0 -0.2930918520312071 -0.11261882847648633
2980000000.0 -0.22874698945472544 0.21786180510916195
3000000000.0 -0.31513154306667057 0.011196389893160583
3020000000.0 -0.10528422666787167 -0.2985965542792111
3040000000.0 0.17783769213599637 -0.2597800004678334
3060000000.0 0.16099040470476284 0.26262983223026864
3080000000.0 -0.19947105808037982 -0.2218266281850185
3100000000.0 0.06367890811584659 0.2823273616520721
3120000000.0 0.05073291198726719 -0.27844489763515856
3140000000.0 0.10758343651612808 0.25259415983960176
3160000000.0 -0.19396028490750472 -0.1767014385019924
3180000000.0 -0.0122300905254854 0.24829983951113893
3200000000.0 -0.21968055740730572 0.06279909171910233
3220000000.0 -0.186870732639916 -0.07750446324797346
3240000000.0 -0.0527176345950104 -0.1631256399409287
3260000000.0 0.05039478494767272 -0.1266291665903603
3280000000.0 -0.09012816938062548 0.04250539209265672
3300000000.0 0.06376753982464718 0.032703683312181424
3320000000.0 -0.010817111138537575 0.04110952122281707
3340000000.0 -0.0154341264142143 -0.01719199394631485
3360000000.0 0.007119104264637204 0.0035478725389821975
3380000000.0 0.00248547103990808 0.003932944832205117
3400000000.0 0.015290656056970636 0.004501605159283878
3420000000.0 -0.024834299301620615 -0.02028860083091641
3440000000.0 0.04724429869030793 0.003016478663529631
3460000000.0 -0.03091405908802004 -0.05253043794748254
3480000000.0 -0.04015323158597639 0.06022618815903006
3500000000.0 0.08826758471032506 -0.017319724504661675
3520000000.0 0.0997844293787281 0.028275926948386147
3540000000.0 -0.09071008393216691 0.07053481395934694
3560000000.0 -0.017931363813815864 -0.12094906820620736
3580000000.0 -0.1205530191237533 -0.055769416288711925
3600000000.0 0.13467473483207223 0.06261409903893256
3620000000.0 -0.16403272133624053 0.009762806336833631
3640000000.0 -0.17956645037373403 -0.02383288674294747
3660000000.0 -0.10730789993421437 -0.15643673353511134
3680000000.0 -0.15184323167683106 -0.12344615404638302
3700000000.0 -0.19451241961601695 0.021499558078886205
3720000000.0 -0.18531049727668036 -0.0472746471597511
3740000000.0 0.07652296764491127 -0.16298271766048764
3760000000.0 -0.09124080228301495 -0.1493732627066184
3780000000.0 -0.08226909304693106 0.15079587173356343
3800000000.0 0.08981334526279475 -0.14109423217929093
3820000000.0 -0.15828917212569552 0.029000947915997173
3840000000.0 -0.10025548078243732 0.11176779650239847
3860000000.0 -0.1432097220533478 0.025339453960236853
3880000000.0 0.028545529508715684 -0.14068078176621077
3900000000.0 0.019778381035836963 0.1454506773890541
3920000000.0 0.12914050251380102 0.09095168290596643
3940000000.0 -0.14122555323725827 0.09513309179718209
3960000000.0 0.043850161130203624 0.17328823872292495
3980000000.0 0.0964789849778693 -0.14855817736596047
4000000000.0 -0.16389049030988187 -0.032124681615594154
