!Created with skrf (http://scikit-rf.org).
# Hz S RI R 50.0 
!freq ReS11 ImS11
400000000.0 0.5274859912344453 0.6923879035833188
420000000.0 0.8432650341619824 -0.048798939197201664
440000000.0 0.7697071025290092 -0.21318085189948505
460000000.0 0.7261496153598601 0.15823846846285677
480000000.0 -0.058559595245504345 -0.6815917310069005
500000000.0 0.03152585730898343 0.6002299069679011
520000000.0 0.04394579393877552 0.5084630155769917
540000000.0 -0.32560190615597995 -0.2907032791440684
560000000.0 0.05119857153700453 0.3941745572892463
580000000.0 -0.3529506741331922 -0.07362074354068801
600000000.0 0.3440532122242641 -0.08925963320010356
620000000.0 -0.1643523128711471 -0.314971745075474
640000000.0 0.40030047384622175 -0.08952153523110166
660000000.0 0.2585230688267947 0.3220945141074408
680000000.0 -0.15913377503489 -0.41561128225032756
700000000.0 0.0737236291001159 0.4564315886393706
720000000.0 -0.4082791790525864 0.22465122555118242
740000000.0 0.010090704494089437 0.42636310152057155
760000000.0 -0.3780657984848231 -0.13129841373004122
780000000.0 -0.36049333649129867 -0.09987934784451892
800000000.0 -0.30842627121694643 -0.1303813679174666
820000000.0 -0.16102871990078327 0.23109667108688203
840000000.0 0.000987328212710373 -0.21255630808163828
860000000.0 -0.17845410057087527 0.010713884127127732
880000000.0 0.1329295428765957 0.06700497172879062
900000000.0 0.034310289503159196 0.09078141677104752
920000000.0 0.020449976712262036 0.04687418622623006
940000000.0 0.01561582209388594 -0.025189176064609485
960000000.0 -0.00786723545205775 -0.030720982109832335
980000000.0 0.042546800918222445 -0.030844369376958548
1000000000.0 -0.08906531292806918 0.01783163477763588
1020000000.0 -0.11028533086467061 -0.045419537806628676
1040000000.0 0.08161628322890321 -0.1115009090607801
1060000000.0 0.05595415095398496 0.1582494476435706
1080000000.0 0.05994667130958507 0.18108345147466606
1100000000.0 -0.18287154935096303 -0.1042805869972007
1120000000.0 0.18969771728109283 -0.12808717306746664
1140000000.0 -0.17923908704555902 0.17880447352934056
1160000000.0 -0.2774291781927757 -0.005501526643949973
1180000000.0 0.02188473885374564 -0.307267797099433
1200000000.0 0.20366591500758222 0.2787501584159578
1220000000.0 -0.21146332876497206 -0.3112906280246588
1240000000.0 0.39763228626681085 0.010796663021316441
1260000000.0 -0.3720001627635369 -0.17169271629209465
1280000000.0 -0.39494835816453616 0.1563768917653166
1300000000.0 0.39786841029017106 0.16651848679634298
1320000000.0 0.43052768405640046 -0.020731048667782647
1340000000.0 0.2611158276646561 0.3490941671519202
1360000000.0 0.41925003827256585 0.14215936847906374
1380000000.0 0.04430494269962361 -0.4335569713564901
1400000000.0 -0.2035999350286429 -0.37557373647185044
1420000000.0 0.0570731992478952 0.4039073830629244
1440000000.0 0.3003738580189568 -0.22796489198924608
1460000000.0 0.16194804866699639 -0.30543253957600597
1480000000.0 -0.2932971838013292 -0.11625063959919874
1500000000.0 -0.051073115201000475 0.2776166238521766
1520000000.0 -0.2117310455904661 0.13749693745703354
1540000000.0 0.08412696760864603 0.20945311603131347
1560000000.0 -0.1404964443370327 0.13781768682060977
1580000000.0 -0.16744922537055523 0.05152250743452299
1600000000.0 0.07372358744715125 0.11767231682742477
1620000000.0 0.05672974470597141 -0.0821746637671605
1640000000.0 -0.06630271377383809 -0.03526743215983942
1660000000.0 -0.05224694076616125 0.031190176981416746
1680000000.0 -0.03816097453913751 -0.012354209974186835
1700000000.0 0.015833388560325228 -0.014362655024543827
1720000000.0 -0.004351146513922726 -0.00995864530809008
1740000000.0 0.004329724851136596 -0.008536918631974052
1760000000.0 -0.025116694129613905 -0.002403118468512988
1780000000.0 -0.04037752008724595 0.03121740007022868
1800000000.0 -0.08966251719706753 0.02638543627799378
1820000000.0 0.11885385751494987 0.041045812352458216
1840000000.0 -0.13522493815088496 0.09257968650627034
1860000000.0 0.032086961161246805 0.20013376589805673
1880000000.0 0.22108316700196312 -0.08921719966814183
1900000000.0 -0.17345156333028866 -0.2170930957754417
1920000000.0 0.20939560522055636 -0.23890043174226946
1940000000.0 -0.27632759531626305 -0.19890107712945868
1960000000.0 -0.36728489675970677 -0.008518998169384073
1980000000.0 0.3888057578783236 0.09905811621066286
2000000000.0 -0.03847525632238542 -0.4192531573634956
2020000000.0 -0.36766180826563255 -0.22265453908819166
2040000000.0 0.09855548660930219 0.42362159038689523
2060000000.0 0.24256878943102467 0.361323269392247
2080000000.0 0.3471928119822391 0.2577801995061188
2100000000.0 0.05497348576496912 -0.4224980019226067
2120000000.0 0.0004382832822596645 -0.4146021436845189
2140000000.0 0.18364762638475837 -0.3535848396146493
2160000000.0 0.35643488977417187 -0.14566270622785552
2180000000.0 0.3680178803567427 -0.06396377042819465
2200000000.0 0.32023498371536 -0.1701318953716647
2220000000.0 -0.3108424121568447 -0.16466112625237347
2240000000.0 -0.2136699796564439 -0.2726311036620891
2260000000.0 -0.30063449379943796 -0.16785928359440808
2280000000.0 0.02713370896986171 0.3459382637457034
2300000000.0 0.1009379587088881 0.3396333111993238
2320000000.0 0.12852664025408853 0.35344005343724044
2340000000.0 -0.030650919009062166 -0.4083231078005626
2360000000.0 -0.41498310362119656 -0.1681651118249433
2380000000.0 0.12215158501040353 0.48297695211174724
2400000000.0 -0.47121454777834393 0.298270796932618
2420000000.0 0.5278610440719772 -0.30511268797146035
2440000000.0 -0.5125979687636338 0.4102982512918943
2460000000.0 -0.6818111964994402 -0.16334653240914324
2480000000.0 0.6688524096671813 0.3011768186895229
2500000000.0 -0.39994844051697476 -0.6402739892175309
2520000000.0 0.7279020079305545 -0.24492340546356442
2540000000.0 -0.5371175221149962 -0.5546308303576463
2560000000.0 -0.45552504255776166 0.6188510302476553
2580000000.0 0.0425125920628988 -0.7528090528857695
2600000000.0 -0.7309818621164831 -0.055759162550320214
2620000000.0 -0.07671090340264408 0.7023339245267571
2640000000.0 0.5498601544331245 -0.38103297079415216
2660000000.0 -0.4411557874985613 -0.44738288860652037
2680000000.0 -0.2356117418977534 0.532820885293591
2700000000.0 -0.28180620019617214 -0.4493324250946552
2720000000.0 -0.1455483647606948 0.46059708540053357
2740000000.0 0.42193836978622384 -0.09928160010331265
2760000000.0 -0.3385143039948393 0.19498690299742527
2780000000.0 0.35111395433598286 0.07899706381038517
2800000000.0 -0.27292413465920035 -0.19600282214093623
2820000000.0 0.0682515853073111 -0.30794816553420296
2840000000.0 0.06794210217508262 0.3000493788591693
2860000000.0 -0.22442475741767703 -0.19804734943729585
2880000000.0 0.07164839468086341 -0.2854373331833818
2900000000.0 -0.29329331668275826 0.0011896082756403463
2920000000.0 -0.14803300904967515 0.25950397467259667
2940000000.0 0.10788630364468588 -0.28963894074161445
2960000000.0 -0.15607469587505352 -0.2746555680900354
2980000000.0 -0.23167648700598722 -0.21545980872796772
3000000000.0 -0.2991741197896137 -0.10750977639099345
3020000000.0 0.2080998062444026 0.24471627983659625
3040000000.0 0.2910852655554658 0.13592100490123202
3060000000.0 0.2028357250571161 0.23948776714094364
3080000000.0 0.25638094614333673 -0.15992111036263443
3100000000.0 -0.134181353785977 0.2600260247590445
3120000000.0 -0.07388079161896015 -0.2749521728085927
3140000000.0 -0.2741696242496661 -0.01346974434795541
3160000000.0 0.1860023679947539 -0.1874411957616788
3180000000.0 -0.20834069392115204 0.13907055237863902
3200000000.0 0.22428797828707447 -0.07187946036319509
3220000000.0 0.016666177823946502 -0.20805716872198668
3240000000.0 -0.09996850251389655 -0.14250689932301006
3260000000.0 0.14062830258848116 -0.028567134321247287
3280000000.0 0.016551689650851794 0.09920923558185701
3300000000.0 0.027915658215862026 -0.06232680206165833
3320000000.0 0.009509739239825477 -0.04075446863745653
3340000000.0 -0.015664262278771615 0.013929475978884519
3360000000.0 0.006609148451628975 -0.003774070139835286
3380000000.0 0.002329805945295883 -0.0018880583798229617
3400000000.0 0.0029812770527671254 -0.01558298892441784
3420000000.0 0.004332898555375864 -0.03371079130886798
3440000000.0 -0.04872475881509774 -0.006092473586498044
3460000000.0 0.050559348108644674 0.04022647676050216
3480000000.0 -0.06815145963645036 0.03787925079147514
3500000000.0 0.08206391334037856 0.034547554676080214
3520000000.0 0.08024741276137348 0.06259786524273198
3540000000.0 -0.11105234918574168 -0.024495454856133168
3560000000.0 0.01386309538969367 0.11712188963380174
3580000000.0 0.0834802154151767 0.10243715011569107
3600000000.0 -0.131352265339436 0.07819570841018399
3620000000.0 0.13854198928769312 -0.08825432438633884
3640000000.0 -0.005932175621883407 -0.18135039435970948
3660000000.0 -0.13746974449284524 -0.13150055984805656
3680000000.0 0.07899020619746448 -0.17473783923369002
3700000000.0 -0.10976742127078516 -0.15617998950489803
3720000000.0 0.09713974488662759 -0.16055411662507776
3740000000.0 0.04774090078745153 0.1739001831956727
3760000000.0 0.15412843969438925 -0.08802732372426
3780000000.0 -0.11852955134269252 0.12736888107828448
3800000000.0 0.06085627104768018 -0.1566152991648713
3820000000.0 -0.12019136184747299 0.10127410315009522
3840000000.0 -0.14314356186450433 0.02456325180766021
3860000000.0 -0.013501750331939451 -0.1401594841069005
3880000000.0 0.10386582508167205 0.09631884819330777
3900000000.0 -0.13665431826441632 0.05365242844973502
3920000000.0 -0.0765504178171705 0.13256851175730075
3940000000.0 -0.14998926412119273 -0.07633266199163018
3960000000.0 -0.06422781581313725 0.1634852400213049
3980000000.0 0.15312583431017898 0.07803677967751545
4000000000.0 -0.024243660405930158 -0.15980900827739533
