!Created with skrf (http://scikit-rf.org).
# Hz S RI R 50.0 
!freq ReS11 ImS11
400000000.0 0.49682328859323954 0.7148714000017106
420000000.0 0.8438291199722562 -0.04348594640797149
440000000.0 0.773989778262962 -0.19685596548289747
460000000.0 0.7249075284763925 0.1641218024366238
480000000.0 -0.05881166448273476 -0.6817091948632098
500000000.0 0.033055138828186434 0.5999459948360301
520000000.0 0.04563040476701805 0.5082912254583055
540000000.0 -0.3243073355887113 -0.2922930999656666
560000000.0 0.053878750527762996 0.3935726413321272
580000000.0 -0.3505194558684354 -0.08407217646137635
600000000.0 0.3495284991854669 -0.06587126034534933
620000000.0 -0.14415068913473741 -0.3250287166770045
640000000.0 0.40151509217916037 -0.08530230052880629
660000000.0 0.24451045583866218 0.33286726870751293
680000000.0 -0.12253056540903352 -0.42831667851038324
700000000.0 0.06324333766508033 0.45816057623389905
720000000.0 -0.41350848569708504 0.21471331992071715
740000000.0 0.002635625715230201 0.42656059602058644
760000000.0 -0.3785612072338906 -0.13053385981436233
780000000.0 -0.36601477180476405 -0.07820599538617369
800000000.0 -0.31056541636084173 -0.1253301883047484
820000000.0 -0.16364251733312127 0.22924346962531908
840000000.0 -0.006324980891563195 -0.21269789098601322
860000000.0 -0.17815379289783234 0.01946482917646407
880000000.0 0.13826310134772551 0.056041819004061445
900000000.0 0.026316290587377947 0.09387999128469363
920000000.0 0.014302332863832009 0.049291002838502115
940000000.0 0.028775970936165195 0.0084173869382238
960000000.0 0.023694307898318983 -0.021271648445384286
980000000.0 0.05234575481033511 0.0022666026592567654
1000000000.0 -0.08963728244755954 0.014931922876503925
1020000000.0 -0.11246973411264306 -0.03934043405268127
1040000000.0 0.07465911130374818 -0.11638962425233343
1060000000.0 0.0749824543888453 0.15047829104531027
1080000000.0 0.07255188264465813 0.17651536003791335
1100000000.0 -0.1800482109554017 -0.10902844954152884
1120000000.0 0.1700631345724991 -0.15317062835127696
1140000000.0 -0.18188402455614616 0.1762031254120054
1160000000.0 -0.27519797537770946 -0.034369445682604964
1180000000.0 0.036713515879891315 -0.3056139557318575
1200000000.0 0.18426419282135528 0.2917623496207078
1220000000.0 -0.2016142068690676 -0.31784971047773936
1240000000.0 0.3977243570739566 0.010733954856118184
1260000000.0 -0.371732980578438 -0.1720126097693793
1280000000.0 -0.3921156931627851 0.16252542093085776
1300000000.0 0.38751092998204795 0.1884350856900281
1320000000.0 0.4308356927714639 -0.00047025169631032963
1340000000.0 0.25150880301789297 0.35618415688848476
1360000000.0 0.42394178455034837 0.12840398368838313
1380000000.0 0.018217404297354613 -0.4356048555008772
1400000000.0 -0.23249299497057355 -0.3582627904135676
1420000000.0 0.08754971423481869 0.39785809346628004
1440000000.0 0.303527115668642 -0.22371208156476002
1460000000.0 0.1618202659690754 -0.3056324809745231
1480000000.0 -0.28793346037906437 -0.13013598186178005
1500000000.0 -0.038206321600061544 0.28038662268217157
1520000000.0 -0.19767236807695723 0.15730275275765435
1540000000.0 0.09851835934200168 0.20369573170312455
1560000000.0 -0.12711593180624592 0.15046903108461188
1580000000.0 -0.1612837759535976 0.06774715157410569
1600000000.0 0.05883902516797343 0.12541410422592061
1620000000.0 0.05823589270547906 -0.08119299159485006
1640000000.0 -0.06027267843546517 -0.04523670692047306
1660000000.0 -0.06024129693525674 0.010773532153388238
1680000000.0 -0.030112485897419147 -0.02666889066245064
1700000000.0 0.015071875535166212 -0.014949301437057791
1720000000.0 -0.010460925977349265 -0.001365030660359675
1740000000.0 -0.008622467834070216 -0.003318561160675622
1760000000.0 -0.023641015890484077 -0.009725543033916586
1780000000.0 -0.03654467890429199 0.03568531357441215
1800000000.0 -0.08528577033921476 0.037967684720686276
1820000000.0 0.12412918923986387 0.018689351935797387
1840000000.0 -0.13364679078964628 0.09397448471528591
1860000000.0 0.01954597167998898 0.20140652865660397
1880000000.0 0.22406274050468114 -0.08120358474317485
1900000000.0 -0.1827315941279586 -0.20948313893188103
1920000000.0 0.201209035529169 -0.24608298013965435
1940000000.0 -0.2883802641716779 -0.1811353172051933
1960000000.0 -0.3672939042135879 0.0046532659975873185
1980000000.0 0.38689861197074427 0.10632210772920324
2000000000.0 -0.029716564878956412 -0.42006418061921297
2020000000.0 -0.36830826879882583 -0.22151921653718898
2040000000.0 0.08562749177735184 0.42662733873378617
2060000000.0 0.24971645880572976 0.3567708327831301
2080000000.0 0.33242790571704145 0.2771823933654036
2100000000.0 0.05120974753560002 -0.42316192075924886
2120000000.0 0.0072805218454848825 -0.41475899966921426
2140000000.0 0.18150006320599152 -0.35460497396527907
2160000000.0 0.3626204688467731 -0.12938485578170578
2180000000.0 0.37070688539154484 -0.04585387445498267
2200000000.0 0.3334455645708128 -0.1423828568502529
2220000000.0 -0.30366756081673746 -0.17751332981845477
2240000000.0 -0.21737195130060877 -0.26927066167755326
2260000000.0 -0.3046112248869044 -0.1601657233516095
2280000000.0 0.04639524222623904 0.34374730599127623
2300000000.0 0.11531611709030982 0.3346785827758675
2320000000.0 0.137999524279211 0.3493703140390899
2340000000.0 -0.036098056237165624 -0.4073208873696588
2360000000.0 -0.42903467874168977 -0.12833090586492193
2380000000.0 0.14997883735910916 0.4751497668203175
2400000000.0 -0.4585417614771128 0.31746261147974986
2420000000.0 0.5004767708933276 -0.3490583547807728
2440000000.0 -0.49157232182938077 0.43577745529362516
2460000000.0 -0.6924599995777098 -0.11085132771062199
2480000000.0 0.6935777044635472 0.2392067156870358
2500000000.0 -0.416213319540698 -0.6304469459546037
2520000000.0 0.7163328095210141 -0.27802989580265697
2540000000.0 -0.5438304928498625 -0.5481483403480428
2560000000.0 -0.41488262538401716 0.6465970603619886
2580000000.0 0.10309045923373891 -0.7468682522746978
2600000000.0 -0.7311842580612973 -0.04409617358419728
2620000000.0 -0.075540815805869 0.7021023837164081
2640000000.0 0.5562100884541931 -0.3701887829207815
2660000000.0 -0.419285506167109 -0.466720166456157
2680000000.0 -0.2837313007976744 0.5073225483253264
2700000000.0 -0.26035217953965484 -0.4604902090322206
2720000000.0 -0.1267913327066781 0.46486456513464647
2740000000.0 0.42220160447221544 -0.09258334062009904
2760000000.0 -0.322925915543709 0.21844977119298675
2780000000.0 0.35570521250880144 0.04953349333886746
2800000000.0 -0.2954067761801597 -0.15881234495410126
2820000000.0 0.031432695688325824 -0.31346476257101624
2840000000.0 0.09480719309487497 0.2928369532476905
2860000000.0 -0.2330653518958268 -0.1882166638172983
2880000000.0 0.05116496975715974 -0.2903227134252163
2900000000.0 -0.2930791623021993 0.019947908970061788
2920000000.0 -0.1565686989733057 0.2552081622487185
2940000000.0 0.12127796706004298 -0.28500053293590616
2960000000.0 -0.13786298052630047 -0.2849957970881491
2980000000.0 -0.23561581701905684 -0.2134062088014215
3000000000.0 -0.27383472832218025 -0.16106739808734913
3020000000.0 0.19061171291515355 0.2591363198997869
3040000000.0 0.25667077032731617 0.19386055575619912
3060000000.0 0.1563428460055054 0.2720250586152859
3080000000.0 0.2741287331601874 -0.12693524275737555
3100000000.0 -0.17551373674583318 0.2335360025271331
3120000000.0 -0.04644655410008996 -0.2803592903197787
3140000000.0 -0.2711737170987318 -0.03971142406564029
3160000000.0 0.21017567304775245 -0.15857316393959833
3180000000.0 -0.22878225475087247 0.10013582031393793
3200000000.0 0.2285536099305137 -0.05413080281723971
3220000000.0 0.023444352732331985 -0.206803888447802
3240000000.0 -0.10574426682166903 -0.13754076695678139
3260000000.0 0.135963271655334 -0.04449037085001234
3280000000.0 0.005796730185137709 0.09997213207052698
3300000000.0 0.016020449741290972 -0.06584015682846722
3320000000.0 -0.020256757954704406 -0.03610345700096917
3340000000.0 -0.014280257359450018 0.014740241171219706
3360000000.0 0.004021285303178037 -0.006417781118853289
3380000000.0 0.0015126687132044764 0.0029989387133821034
3400000000.0 0.01436513166150971 -0.007612334193274375
3420000000.0 0.011990732178651724 -0.032301363366808965
3440000000.0 -0.04490594235312189 -0.021035265843807705
3460000000.0 0.013329232557624674 0.06343042627964286
3480000000.0 -0.07174694886697316 0.031777648984929054
3500000000.0 0.07639759304548091 0.04605567657688966
3520000000.0 0.06820647386623722 0.07620997042337069
3540000000.0 -0.09669973588006726 -0.059493113468869485
3560000000.0 -0.023133349802828225 0.11582634662875652
3580000000.0 0.06584923331612455 0.1148613861185326
3600000000.0 -0.14122393459892055 0.05875132639087449
3620000000.0 0.150631493722467 -0.06574053530692285
3640000000.0 0.01061825506688196 -0.18128474403194597
3660000000.0 -0.11464252494220861 -0.15221916362647708
3680000000.0 0.09586964259615006 -0.16621058672739433
3700000000.0 -0.08555385564750853 -0.17083042730891204
3720000000.0 0.11726878744074186 -0.14620131122562702
3740000000.0 0.030684406099027475 0.1774637347121073
3760000000.0 0.16289333800832284 -0.07002063201788554
3780000000.0 -0.1414955311833126 0.10130051132236698
3800000000.0 0.0824129167242815 -0.1463382679702129
3820000000.0 -0.12521427624969486 0.09489984672839673
3840000000.0 -0.1447361998357311 0.012897256760310732
3860000000.0 0.021194842174477112 -0.13929025906402887
3880000000.0 0.08089262657115591 0.11618251708619186
3900000000.0 -0.14534320718027505 0.021857419796653912
3920000000.0 -0.08165576616882382 0.12980071456662165
3940000000.0 -0.14897672597250752 -0.07760161389640578
3960000000.0 -0.03487169707417777 0.1714552508345274
3980000000.0 0.15891466792364412 0.06497880514420014
4000000000.0 -0.0291613018176943 -0.1586938747817343
