!Created with skrf (http://scikit-rf.org).
# Hz S RI R 50.0 
!freq ReS11 ImS11
400000000.0 0.5006606824698113 0.7130077347305055
420000000.0 0.8443446581749945 -0.03223954605741372
440000000.0 0.7787164421283366 -0.17730369807062737
460000000.0 0.7197095332053501 0.18586995294304748
480000000.0 -0.05493714014580167 -0.6819623108283673
500000000.0 0.01404176822305549 0.6007614703406411
520000000.0 0.036532312447532404 0.5090244514237217
540000000.0 -0.3342414416891798 -0.2805148217275249
560000000.0 0.06683772756945797 0.39138522143161725
580000000.0 -0.3527272670574324 -0.0729477782041906
600000000.0 0.3492875815230662 -0.06767573941689817
620000000.0 -0.14241493065613625 -0.325943610438058
640000000.0 0.40549005397028764 -0.0646920830006422
660000000.0 0.20932693986999873 0.35607913007943975
680000000.0 -0.11325453785703493 -0.430906564122335
700000000.0 0.08525736304685237 0.45468013567333543
720000000.0 -0.421395323483737 0.19876812638623895
740000000.0 0.02496832096241422 0.4247373271998954
760000000.0 -0.3775006773404551 -0.1336354031745585
780000000.0 -0.36992523758326096 -0.05586648153779746
800000000.0 -0.3121072441511553 -0.12049166049510007
820000000.0 -0.15995984031455382 0.23172590810425592
840000000.0 -0.02627018460942694 -0.21132461343439154
860000000.0 -0.17681926488739985 0.028643439821775717
880000000.0 0.13483911121204106 0.06367487226003547
900000000.0 0.015573458354829114 0.0960717828279767
920000000.0 0.002367659263162513 0.051024671708702944
940000000.0 0.02981252516448561 0.0007049253426026047
960000000.0 0.02639106513563513 -0.017892960090792064
980000000.0 0.05237752217810697 0.005249994966492201
1000000000.0 -0.09012656411661495 0.01244625321395968
1020000000.0 -0.11461430442156967 -0.032854763044020636
1040000000.0 0.06891607318399967 -0.12009372568877215
1060000000.0 0.07873211340951788 0.14877455085163066
1080000000.0 0.07501891736065423 0.17534461773006585
1100000000.0 -0.1779414969844124 -0.11251129247467796
1120000000.0 0.17269185261766618 -0.15013711149158532
1140000000.0 -0.19602187590569198 0.16015674866498625
1160000000.0 -0.2770748594659173 -0.015847456927198755
1180000000.0 0.04335553062769895 -0.30469350098194936
1200000000.0 0.17540326401477385 0.2970613908039343
1220000000.0 -0.19223047305386923 -0.323611716760959
1240000000.0 0.39759403888188855 0.01563166399788985
1260000000.0 -0.3725627326675221 -0.1702053397576914
1280000000.0 -0.39371914560848 0.15817297919377252
1300000000.0 0.38120947071552463 0.20053017826928846
1320000000.0 0.4309841026088289 0.008042171263208171
1340000000.0 0.2340583677065029 0.36835948427761944
1360000000.0 0.423783782879667 0.13010682217409322
1380000000.0 -0.004413291079749589 -0.4361117350550627
1400000000.0 -0.2510248068177158 -0.3451816387161548
1420000000.0 0.08687099896549338 0.3975798353105214
1440000000.0 0.3133450655728573 -0.20926937456568656
1460000000.0 0.18276115102008011 -0.29374786852421764
1480000000.0 -0.29331898941422796 -0.11880490841244357
1500000000.0 -0.049773650324632525 0.27931043629047764
1520000000.0 -0.18946586326031478 0.167718570307663
1540000000.0 0.11446016703181755 0.19485954883875717
1560000000.0 -0.11577996937508984 0.15907333943872343
1580000000.0 -0.16321268979922038 0.06280598909253479
1600000000.0 0.05130836694904667 0.1285993384215699
1620000000.0 0.07270832307343784 -0.06880777810997853
1640000000.0 -0.041466732413912126 -0.06349512238162158
1660000000.0 -0.0602051822565754 0.014045711936066718
1680000000.0 -0.03545783658372278 -0.019843419242329727
1700000000.0 -0.002327767615016423 -0.021333103847393068
1720000000.0 -0.008770979507276202 0.005412249004258393
1740000000.0 0.00940404905268494 -0.0003503717578284924
1760000000.0 -0.026094845047888934 -0.0022714431762986854
1780000000.0 -0.01129662083888888 0.04990288016763724
1800000000.0 -0.07164355593944662 0.05992645744319006
1820000000.0 0.12398856586100847 0.01632815734731911
1840000000.0 -0.14153374237692928 0.08074583672619504
1860000000.0 -0.008927140330155174 0.20205994491133755
1880000000.0 0.23242920493990152 -0.05280276841061697
1900000000.0 -0.1696469940026273 -0.22022308077196248
1920000000.0 0.1915057987509444 -0.25384982762949904
1940000000.0 -0.2939612413510732 -0.17159040158580624
1960000000.0 -0.36707766812940895 0.009951384206035616
1980000000.0 0.3891712746388569 0.0966837783678418
2000000000.0 -0.026675930172199148 -0.4201268713497939
2020000000.0 -0.3673696423059485 -0.22335533842629574
2040000000.0 0.08514348192098904 0.4269491664980666
2060000000.0 0.24970742696694642 0.35717034821167915
2080000000.0 0.3425160781781993 0.26507387042190095
2100000000.0 0.04613255197705118 -0.42404003017312725
2120000000.0 -0.029915724403065044 -0.41397818642066797
2140000000.0 0.18592474376949325 -0.3526718548662466
2160000000.0 0.36704106140540727 -0.11752622362300102
2180000000.0 0.3713513452060352 -0.04119154990429801
2200000000.0 0.34029367031328117 -0.125923346505826
2220000000.0 -0.27216150406960926 -0.22390390116027967
2240000000.0 -0.2192035026520794 -0.2679689363525485
2260000000.0 -0.300984743717934 -0.16719742356752396
2280000000.0 0.03776804621474776 0.34435151672549696
2300000000.0 0.1088539890653884 0.33630774522003853
2320000000.0 0.14190341172519766 0.34762092496117664
2340000000.0 -0.0446808343985321 -0.40650765324779414
2360000000.0 -0.4360629223111441 -0.1025034725977428
2380000000.0 0.18670365224848454 0.4620535668212739
2400000000.0 -0.42044167393044546 0.3666340213482529
2420000000.0 0.451042099915074 -0.4106394859352116
2440000000.0 -0.4513231716321228 0.4776872030990602
2460000000.0 -0.6973568527714337 -0.07648591206696063
2480000000.0 0.7135432544401721 0.17133376701873823
2500000000.0 -0.40485756306247106 -0.6382327312032505
2520000000.0 0.7207716812258139 -0.2667498488914976
2540000000.0 -0.5754375832309645 -0.514982007315109
2560000000.0 -0.43299250988549987 0.6347043899609082
2580000000.0 0.04439547982745968 -0.7524152565602956
2600000000.0 -0.7322141262578201 -0.012855248292335001
2620000000.0 -0.035898219430525825 0.7048463090144269
2640000000.0 0.5630447628708606 -0.3588694600969996
2660000000.0 -0.4229700395931029 -0.4623861122119755
2680000000.0 -0.25435718008137354 0.5220018724035391
2700000000.0 -0.28725777644643785 -0.44343713265165685
2720000000.0 -0.12736111252145288 0.46387782017124696
2740000000.0 0.4220230686495023 -0.08992747487830492
2760000000.0 -0.3283567507746006 0.20888910013608875
2780000000.0 0.3573475663990246 0.03035541904889465
2800000000.0 -0.29966430881487294 -0.14968108736208569
2820000000.0 0.019557283128045284 -0.31419872273704724
2840000000.0 0.11449391667999775 0.28492585750404176
2860000000.0 -0.24836191835745774 -0.16670125913299766
2880000000.0 0.05204965870441457 -0.2898681536332409
2900000000.0 -0.29124982848363246 0.03522249560158461
2920000000.0 -0.14098158152747509 0.2638866960783608
2940000000.0 0.10910966354118581 -0.28981312720811075
2960000000.0 -0.1423326618522841 -0.28263884389985494
2980000000.0 -0.22409173719251546 -0.22493777630567105
3000000000.0 -0.26257421370825146 -0.17963535675723535
3020000000.0 0.18019955249525804 0.2660357440183619
3040000000.0 0.29063146835408854 0.13709956136356968
3060000000.0 0.15901837174768557 0.27078913063420873
3080000000.0 0.2723208740201019 -0.13140658046912337
3100000000.0 -0.1924543180261789 0.21985507987131928
3120000000.0 -0.09488464977433003 -0.2685918392125785
3140000000.0 -0.26614313216818736 -0.06549506732121463
3160000000.0 0.21853216128194777 -0.14721769366646695
3180000000.0 -0.241188184647025 0.06334241885647883
3200000000.0 0.23416984471102462 -0.019708732349239876
3220000000.0 0.05764924563639815 -0.19988735665539129
3240000000.0 -0.08376781851956977 -0.15200229032976534
3260000000.0 0.14038687211990514 -0.02658929881487204
3280000000.0 -0.008453241644699306 0.0994076432697871
3300000000.0 0.006205952074554904 -0.06688707721313891
3320000000.0 0.0022183020099224775 -0.04063702751512868
3340000000.0 -0.009585001380954779 -0.017662960135555354
3360000000.0 0.004612118048536079 -0.005558618553944964
3380000000.0 -0.0033537814262275937 -0.0007621306383454381
3400000000.0 -0.01452092318461548 -0.007712146895803915
3420000000.0 0.010739112554648647 -0.03335067534926048
3440000000.0 -0.048624343874897745 0.011660414351286404
3460000000.0 0.02434626052705033 0.060373634030606964
3480000000.0 -0.07353044340265476 0.027968982568355307
3500000000.0 0.06764403431890231 0.058249785876406376
3520000000.0 0.051213881023022066 0.08841413221357115
3540000000.0 -0.09743866401925369 -0.059552997041775906
3560000000.0 -0.03885352100147692 0.11180749755920133
3580000000.0 0.05962184825351935 0.11897572736537845
3600000000.0 -0.15029993518983584 0.030162314256086183
3620000000.0 0.15617869708616183 -0.05200639958332128
3640000000.0 0.04345671119570514 -0.17640768011011568
3660000000.0 -0.09218885187659515 -0.1666859885457172
3680000000.0 0.12331509223469858 -0.14693998707640887
3700000000.0 -0.07028738599343148 -0.177647015122528
3720000000.0 0.12530301811946593 -0.1389791867905852
3740000000.0 0.008322901032888668 0.17971706398390608
3760000000.0 0.16742408834473868 -0.057722159341511654
3780000000.0 -0.14800133142948307 0.0916258750352581
3800000000.0 0.09081609882016992 -0.14120219132175965
3820000000.0 -0.12566717654508464 0.0935494472085902
3840000000.0 -0.144309626456814 0.010865576370264205
3860000000.0 -0.004420418558354584 -0.14003421369077323
3880000000.0 0.09144365268062937 0.10737645917081183
3900000000.0 -0.14328610076852666 0.028843701996149964
3920000000.0 -0.08187169116722194 0.1290018736188099
3940000000.0 -0.15765184098319035 -0.056819951809380966
3960000000.0 -0.016365041385913583 0.17370012593543233
3980000000.0 0.16511742203461735 0.045197261785944146
4000000000.0 -0.05229506141338303 -0.1524863574281079
