!Created with skrf (http://scikit-rf.org).
# Hz S RI R 50.0 
!freq ReS11 ImS11
400000000.0 0.4973259676144964 0.7129925534726488
420000000.0 0.8420906072064454 -0.06598837948811292
440000000.0 0.7739412011861099 -0.19847620673644825
460000000.0 0.7330431512323553 0.1216997265321167
480000000.0 -0.07571741097181377 -0.6790613336721156
500000000.0 -0.007431336658971585 0.6007833644127882
520000000.0 -0.019641115757613258 0.510429743855786
540000000.0 -0.2790145633825618 -0.33638163783495184
560000000.0 0.008597329385282565 0.3984049471425757
580000000.0 -0.3573303663792332 -0.05513589284303491
600000000.0 0.33038058150679017 -0.13248352366695892
620000000.0 -0.23929379984115814 -0.2623384623483093
640000000.0 0.3801345517380691 -0.15082224769415634
660000000.0 0.2657423664362214 0.31433757445157745
680000000.0 -0.11354431880557954 -0.43044296520028186
700000000.0 0.08326155113079411 0.4557483109640429
720000000.0 -0.3902649411364752 0.2561688390024812
740000000.0 0.04423533099889346 0.4243937700158643
760000000.0 -0.36372926043579495 -0.165485015852725
780000000.0 -0.34086585430212163 -0.15555353471815775
800000000.0 -0.2919553841885852 -0.16688050574948307
820000000.0 -0.13720085744235008 0.2469388151976784
840000000.0 -0.030124441191075813 -0.21043617776742593
860000000.0 -0.17783149405352477 0.0078060075624357406
880000000.0 0.09462780638966883 0.1144019496203814
900000000.0 -0.00233695154128618 0.09777146578253533
920000000.0 0.04536057005987431 0.023834737008793874
940000000.0 -0.029417851678225474 0.004222358511574277
960000000.0 -0.02806999513303326 0.015804528395629687
980000000.0 0.003576381269832645 -0.05270316439659113
1000000000.0 -0.06798904157768688 0.059908287676062634
1020000000.0 -0.11804309569425445 0.005962125607841914
1040000000.0 0.06175960130927552 -0.12117864760517719
1060000000.0 -0.007224598251791431 0.16507600326589714
1080000000.0 -0.06650605388838121 0.17721729731155358
1100000000.0 -0.09375639012567441 -0.1885986043397128
1120000000.0 0.18773645915059586 -0.13441874624774658
1140000000.0 -0.1408947801895328 0.21243990249134326
1160000000.0 -0.2516084904665981 0.11805290210242736
1180000000.0 -0.09433461658717796 -0.29237946370283624
1200000000.0 0.23954676639263034 0.24624292306154025
1220000000.0 -0.16771630786614625 -0.33537977053145707
1240000000.0 0.3953317271600009 0.0465405439559906
1260000000.0 -0.362507966692127 -0.1924140813101418
1280000000.0 -0.39438753686591893 0.1608332304170165
1300000000.0 0.3975164122357694 0.16950882157104624
1320000000.0 0.42902208753403964 -0.047712303598852125
1340000000.0 0.2908666502914549 0.32509434859598263
1360000000.0 0.42528070242635074 0.12100987320024997
1380000000.0 0.08053522941715927 -0.4273086590500205
1400000000.0 -0.12336788537940273 -0.40849624711050553
1420000000.0 -0.03555794801464611 0.4071342534720756
1440000000.0 0.3186902595542764 -0.20448260005550267
1460000000.0 0.10864552951168979 -0.32926522734997987
1480000000.0 -0.3148079292245212 -0.013913254395090833
1500000000.0 0.00024075314818741448 0.2807903686543545
1520000000.0 -0.20489817579209477 0.1433612010673901
1540000000.0 0.030820401909354 0.22219003858097566
1560000000.0 -0.17787218154937454 0.0840507991918173
1580000000.0 -0.17255624315940848 0.03437877410784833
1600000000.0 0.09197642741526732 0.10632423054353453
1620000000.0 -0.05474786617086859 -0.08500378844087991
1640000000.0 -0.02687742703430278 0.07053478543535006
1660000000.0 0.026631234526856028 0.054784619981983675
1680000000.0 -0.03827953393737284 -0.010284174823562073
1700000000.0 -0.018336722009729273 0.009856830562490801
1720000000.0 -0.011841339902793051 -0.000710173578991264
1740000000.0 0.005294563326681348 0.009077818104437283
1760000000.0 0.017825246957697362 -0.01664124138938653
1780000000.0 -0.03213803393965052 0.03881006773558778
1800000000.0 -0.09344739109343524 -0.0016506905278587402
1820000000.0 0.11962394910114153 0.042159129701137936
1840000000.0 -0.1192148425140448 0.11454303542838451
1860000000.0 0.06193487104364639 0.1937315817057686
1880000000.0 0.21314401246062933 -0.10668620642949107
1900000000.0 -0.1558404384044712 -0.22971201992284307
1920000000.0 0.24820952559413198 -0.1981084604566351
1940000000.0 -0.24980193189306582 -0.2314676752868814
1960000000.0 -0.3645703301598995 -0.041299815900164925
1980000000.0 0.3691625857956838 0.15573769921810648
2000000000.0 0.002114435108810329 -0.4205349510512452
2020000000.0 -0.3467820952806366 -0.25296700968759417
2040000000.0 0.09722227604732665 0.4232952223954467
2060000000.0 0.264412185292302 0.3447135461609788
2080000000.0 0.3640031803540389 0.23151158310372916
2100000000.0 -0.00384635779298882 -0.42453833968919824
2120000000.0 -0.04962331047317274 -0.41026257367550195
2140000000.0 0.1659778598361117 -0.361174662756645
2160000000.0 0.3538878277515906 -0.15243078706831775
2180000000.0 0.35092146008166586 -0.1300626124964693
2200000000.0 0.2678502588127639 -0.24526393860873327
2220000000.0 -0.33376747601041057 -0.1112158347033761
2240000000.0 -0.259482771752743 -0.22869909377546715
2260000000.0 -0.3006644141236786 -0.16573411445020864
2280000000.0 0.010024008108037441 0.34691481946717534
2300000000.0 0.057219503213798636 0.35035102634131954
2320000000.0 0.09158963788696074 0.36522217947246666
2340000000.0 -0.028690935677617657 -0.4088015186935065
2360000000.0 -0.4097382044647947 -0.18031217386926576
2380000000.0 0.046637645762546386 0.4949602401670244
2400000000.0 -0.5128076747544729 0.2165304334717382
2420000000.0 0.5581900074818726 -0.24335445025920868
2440000000.0 -0.5617719549580066 0.3385820609042961
2460000000.0 -0.6560535446854499 -0.24550603838944796
2480000000.0 0.6452693423221293 0.3466070110450882
2500000000.0 -0.3690229803419457 -0.6577614638083209
2520000000.0 0.7379959629790167 -0.21001501971900288
2540000000.0 -0.5397248320297265 -0.5511585407072501
2560000000.0 -0.41932209386013863 0.6435551605255148
2580000000.0 0.0602663580449449 -0.7518421902670832
2600000000.0 -0.7333801232278054 0.003930270865665721
2620000000.0 0.005082836976834018 0.7072410679178219
2640000000.0 0.523777910276666 -0.41754339142662716
2660000000.0 -0.4669899842704496 -0.42217742330667396
2680000000.0 -0.20972083028180794 0.5451465880074408
2700000000.0 -0.2988734944579271 -0.440482249377701
2720000000.0 -0.13418636956792127 0.46582764740484706
2740000000.0 0.4182843291666475 -0.11975576193043087
2760000000.0 -0.3253790333469812 0.21843622321825742
2780000000.0 0.35276580534397267 0.07505549889603695
2800000000.0 -0.2567802368371615 -0.21752418026819112
2820000000.0 0.118844302697896 -0.2926469399915089
2840000000.0 0.016590298817425932 0.30743093682992384
2860000000.0 -0.19081464429261977 -0.23106073649521738
2880000000.0 0.08976093420840343 -0.28047376221160497
2900000000.0 -0.2929145523847464 0.01216658404338122
2920000000.0 -0.13893896556975704 0.26395040972281536
2940000000.0 0.09125293288354656 -0.2943768229251625
2960000000.0 -0.16091254096097524 -0.2709660428651859
2980000000.0 -0.26277207781594714 -0.17688764026741113
3000000000.0 -0.3043052816621414 -0.08883490172348224
3020000000.0 0.24585546857238946 0.2065190645574301
3040000000.0 0.3098192252869896 0.08470989406364925
3060000000.0 0.25942911917498385 0.1767246822936142
3080000000.0 0.2081784659444914 -0.2194357331005185
3100000000.0 -0.0968323481574256 0.2761449782276396
3120000000.0 -0.1797761105215597 -0.22193635602439632
3140000000.0 -0.2664198627462702 0.06988221416524455
3160000000.0 0.1276942105599258 -0.231843483861119
3180000000.0 -0.18536492865179402 0.16879083231031028
3200000000.0 0.20828450373520357 -0.1116358221406387
3220000000.0 -0.0036490924052832332 -0.20958157068662708
3240000000.0 -0.10321389829927448 -0.1415511324721718
3260000000.0 0.1429354049080191 -0.0222096101289184
3280000000.0 -0.04467815396157347 0.09160357625425891
3300000000.0 0.04623589304701947 -0.052115860244402526
3320000000.0 0.025481741264253763 -0.03479718883758338
3340000000.0 -0.021141994609439545 0.005349538403512078
3360000000.0 -0.005253549229563058 0.006155211161787971
3380000000.0 0.0030831727094979672 -0.000897553828613814
3400000000.0 0.014175305822269422 0.005392279461136244
3420000000.0 -0.0286889884348211 0.016967634521722345
3440000000.0 -0.03319943524609206 0.03500393532959729
3460000000.0 0.06363689474967843 0.007619665629286606
3480000000.0 -0.04646995257976872 0.06264108772046735
3500000000.0 0.0884570343540293 -0.011958114091622915
3520000000.0 0.10229317871933277 -0.007583833988859182
3540000000.0 -0.08998541214205383 0.07039704647197119
3560000000.0 0.08026294356133461 0.08625825148263323
3580000000.0 0.12949730870747153 0.028154114615947506
3600000000.0 -0.10714516035192838 0.10878179537794189
3620000000.0 0.10992489242884494 -0.12283785561174605
3640000000.0 -0.07342446337393198 -0.16763933812979223
3660000000.0 -0.1692581480833099 -0.08985922049841037
3680000000.0 0.030697250539262866 -0.19073464477210286
3700000000.0 -0.13925884076185951 -0.13232363607335532
3720000000.0 0.08058179872073332 -0.17105593584641085
3740000000.0 0.06537814666597928 0.1691277162614032
3760000000.0 0.16327212929183782 -0.07254454146785247
3780000000.0 -0.13707968446150445 0.10948412728857221
3800000000.0 0.07954295650892314 -0.14943856135609918
3820000000.0 -0.1339400467280985 0.08352378613298148
3840000000.0 -0.14597277723608656 -0.00017853638865148515
3860000000.0 0.008789039055201694 -0.14126930898666168
3880000000.0 0.10240636765541779 0.09939366083632553
3900000000.0 -0.13581027405953613 0.0585391893002733
3920000000.0 -0.061667218600975834 0.14116718065490558
3940000000.0 -0.1514718287024983 -0.07356146920097778
3960000000.0 -0.06813315831940717 0.1621276750267988
3980000000.0 0.14352235887566767 0.09590295943103477
4000000000.0 -0.010555499353014941 -0.16191778638514645
