! Created with skrf (http://scikit-rf.org).
# Hz S RI R 50.0 
!freq ReS11 ImS11
400000000.0 0.00925318508720581 0.8718834729635956
420000000.0 0.49167743198892017 0.7074132699413582
440000000.0 0.8086606953412623 -0.1799722757152067
460000000.0 0.07347581206324263 -0.7878897217795632
480000000.0 0.46532927374907734 -0.5272576591631688
500000000.0 0.5008777107805541 -0.23716694818717568
520000000.0 0.4782205285231721 0.09889126875188008
540000000.0 0.004351231342662908 0.4334439390943381
560000000.0 0.2293744568009283 -0.2888475065677536
580000000.0 -0.30785819489515065 -0.17528648314397813
600000000.0 0.18597611820745974 0.30618478278531736
620000000.0 -0.3785465845597136 0.0015150643698553748
640000000.0 0.3939554406094824 0.11697744429428256
660000000.0 -0.16009881844640858 -0.3857452925097261
680000000.0 -0.16941635320919854 -0.38910476789170956
700000000.0 -0.36667020220113944 0.1948184434021571
720000000.0 -0.2619153954408516 -0.30717120325376696
740000000.0 -0.32559344525663486 0.24009998915852407
760000000.0 0.24490635135025757 0.3157102422893622
780000000.0 -0.3625618852267605 -0.11545441186310651
800000000.0 0.3502775960010597 -0.0845998958633601
820000000.0 -0.057132135042537724 -0.30637750357402177
840000000.0 0.24569790992252383 0.06513263396981271
860000000.0 -0.028138481778402783 0.20784770725631832
880000000.0 -0.14912029577474992 0.013216871349185814
900000000.0 -0.07392473374453273 0.02974849150852964
920000000.0 -0.0309176462786521 0.03375333171650204
940000000.0 0.014509525646385291 0.025440113956757333
960000000.0 0.025261615003365843 0.0251397903721765
980000000.0 0.027206556861089356 0.03796726721165581
1000000000.0 -0.053541706253866006 -0.017508859203972257
1020000000.0 0.06781531667010234 0.04488900749349384
1040000000.0 0.07323377238614985 0.07804777183511459
1060000000.0 0.08331141331357703 -0.12949111394016843
1080000000.0 -0.07397127505267577 -0.16061653601255865
1100000000.0 -0.011965621143371385 -0.20698800350612268
1120000000.0 0.222283996657512 0.046129238201260234
1140000000.0 -0.21259339785432996 0.14248624454612438
1160000000.0 0.027913973202890473 0.27605345726662367
1180000000.0 -0.27353191176318215 -0.1269183109686563
1200000000.0 0.32268931577315074 0.02632877671359972
1220000000.0 0.09169806942782367 -0.33670121563924266
1240000000.0 -0.35124369696862867 -0.14720427875005312
1260000000.0 0.0489432278635172 0.4147158212744937
1280000000.0 -0.015391139533783797 -0.44290868501754965
1300000000.0 -0.06692989192724726 0.45756671367094615
1320000000.0 0.04852298314066608 -0.4596953563130488
1340000000.0 -0.43210833991096886 -0.13718970960404706
1360000000.0 -0.4204254729113256 0.12565290579556393
1380000000.0 -0.2891871447947366 0.31664030022198725
1400000000.0 -0.06688703892378198 0.4031564426516366
1420000000.0 0.18016074930988632 0.34311520172286203
1440000000.0 0.11635343717594843 0.3453815021256527
1460000000.0 0.28637579338176633 0.1884548673472722
1480000000.0 0.26625949402194204 -0.17781964303408157
1500000000.0 -0.19651355452341782 -0.21912644267177359
1520000000.0 -0.21324897318968944 0.16045383994606005
1540000000.0 -0.11375842792427059 -0.2058004034140353
1560000000.0 0.1915567214052979 -0.04812054894162782
1580000000.0 -0.051872084322107784 0.16012112335043996
1600000000.0 -0.029997276076009265 0.13455829141217746
1620000000.0 -0.08634826321915871 0.0660854756800467
1640000000.0 0.069051937543431 -0.05324422815287949
1660000000.0 -0.003707325924325471 -0.06477074365557965
1680000000.0 0.038517767156976954 -0.021648100264812994
1700000000.0 -0.00805861985613406 0.027583024309046775
1720000000.0 0.0029754047333747187 -0.012573217930120633
1740000000.0 0.0035091187281187284 -0.017309768337544974
1760000000.0 -0.03876172668324625 -0.011089923147596057
1780000000.0 0.007579709487203467 0.07452170964021605
1800000000.0 -0.01590128637924243 0.11182966369399962
1820000000.0 0.14613490587955194 -0.008154973473383524
1840000000.0 0.16368085679363806 0.07075252693124931
1860000000.0 -0.18134213027730506 0.09809162940098652
1880000000.0 0.11593935267523289 0.2043765482163993
1900000000.0 0.2690338180839106 -0.011756480740626865
1920000000.0 0.004344970072689011 -0.30377690820097303
1940000000.0 -0.31032333915281957 -0.13657733653801055
1960000000.0 -0.048344342271692674 0.36840959779604937
1980000000.0 0.36545380904165276 -0.15409947688369158
2000000000.0 -0.09863076310983192 -0.4054933677044223
2020000000.0 -0.40658746828204506 0.14357594991270783
2040000000.0 -0.01924960066696708 0.4368421598560071
2060000000.0 0.40684688276260367 0.16499643544077103
2080000000.0 0.38805464929252254 -0.19789594798024296
2100000000.0 0.2692152016070275 -0.33443809384290873
2120000000.0 0.003823732754250432 -0.420307795631
2140000000.0 -0.32634611539923386 -0.24617204268753115
2160000000.0 0.0254030230158453 -0.39171523268562347
2180000000.0 -0.17546717720191649 -0.3297851046697511
2200000000.0 -0.29126509213884766 -0.20830213177575777
2220000000.0 -0.3131287083103584 -0.1468154763368274
2240000000.0 -0.33631368335349027 0.05894630344072744
2260000000.0 -0.286461319784498 0.18675237240418432
2280000000.0 -0.17701737245432256 0.2988989695500081
2300000000.0 0.33567849402625416 0.13792594874577818
2320000000.0 0.0699591069944317 -0.3793933847123637
2340000000.0 -0.3960824227082635 0.12823102437765577
2360000000.0 0.4147592927819055 0.19130408727408932
2380000000.0 -0.3676807273734035 -0.3445884542187888
2400000000.0 0.3584301508950641 0.42587715313762914
2420000000.0 -0.5724591835496979 -0.21194008374857107
2440000000.0 0.6200194099120767 -0.22637237115604106
2460000000.0 -0.32331591162197937 0.6216506374957925
2480000000.0 0.05919954379438725 -0.7299187884305216
2500000000.0 -0.05646097878546615 0.7506393593269565
2520000000.0 0.2602305242272816 -0.7179564015390447
2540000000.0 -0.5693527075490583 0.5115212447357952
2560000000.0 0.7592043844256472 0.02339202778110855
2580000000.0 -0.38456169972925364 -0.6380003285292385
2600000000.0 -0.2625662241826879 0.6711608942644616
2620000000.0 0.6703852312000729 -0.1635855862903588
2640000000.0 0.3902948067943655 -0.5228736569865285
2660000000.0 -0.6061787135317799 -0.03715350674270255
2680000000.0 0.2955395724093956 0.4743176998825111
2700000000.0 0.08066727424559499 -0.5055261963524988
2720000000.0 -0.37220309338200197 0.2784159441946976
2740000000.0 0.4218129834240925 -0.025417570194435735
2760000000.0 -0.36624761772522346 -0.11871333599910548
2780000000.0 0.35572979618135475 -0.016825140146243374
2800000000.0 -0.2590314323815358 0.20787279241291726
2820000000.0 -0.1361831663478635 -0.28356408632024294
2840000000.0 0.29529401294349045 -0.06646161493308539
2860000000.0 -0.09438958860444811 0.2825742925859981
2880000000.0 -0.11688743607481906 -0.27119092122093547
2900000000.0 0.08977834355124975 0.282208508765801
2920000000.0 0.2245496944670125 -0.19789021751199887
2940000000.0 -0.27224996913069255 -0.13725337907432333
2960000000.0 -0.28567323317336984 0.11521875206946564
2980000000.0 -0.3107771996127682 0.030001965645169902
3000000000.0 -0.2508707771342514 -0.18942935113650733
3020000000.0 0.05365389530295855 -0.3098395332244392
3040000000.0 0.27197084556652906 0.1516786522183347
3060000000.0 -0.3086547735489495 -0.018590319279205604
3080000000.0 0.28033892164080115 -0.12246256083171159
3100000000.0 -0.2087395426516358 0.2158452614193482
3120000000.0 0.0727373366705639 -0.28287872869548436
3140000000.0 0.08314425255629822 0.2700375957646762
3160000000.0 -0.24668442525200868 -0.1031399528726982
3180000000.0 0.09939630782488736 0.22975996182887107
3200000000.0 -0.20525619207264018 0.0977649006282377
3220000000.0 -0.15696327101410834 -0.12448057064367353
3240000000.0 0.10998436706052966 -0.1282124259244016
3260000000.0 -0.03112294262469052 0.12992986932022424
3280000000.0 0.0631924977334295 -0.07870611593183183
3300000000.0 -0.04459916980739841 -0.057072088719495574
3320000000.0 -0.04064836214637722 -0.024425074150093755
3340000000.0 0.0063388037341640365 -0.025232948586997647
3360000000.0 0.002583491155280599 -0.009891934831704143
3380000000.0 -0.0037462363570013885 -0.004822444529484062
3400000000.0 0.0024249245453583815 0.020631725817030225
3420000000.0 0.03212682161815848 -0.019197063432311808
3440000000.0 0.012536475182532304 -0.049861112533344
3460000000.0 0.058805587099061106 0.015966111711665638
3480000000.0 0.05337908357095153 -0.046848137559549016
3500000000.0 -0.07287749163469538 -0.03515806611016146
3520000000.0 -0.06389268925919142 0.0672323576837911
3540000000.0 0.09556472790392506 0.04442487703000904
3560000000.0 -0.050001898700571604 -0.10719761300403871
3580000000.0 -0.06792105828299298 0.11518760381375676
3600000000.0 -0.13848980730870464 -0.07067204631848291
3620000000.0 -0.1549034558099089 -0.06918158872421032
3640000000.0 -0.11848337245069604 -0.13728330966550892
3660000000.0 -0.18418238345114893 -0.050106302028250706
3680000000.0 -0.18563855852235359 -0.052958524951355654
3700000000.0 -0.18350311319713233 -0.049235282270931095
3720000000.0 -0.0005761349320208813 -0.18678524148959982
3740000000.0 0.17471968302163388 -0.04799168634490912
3760000000.0 -0.1718232528771129 -0.02476259023616651
3780000000.0 0.11493098423959752 0.11929090567219233
3800000000.0 0.14734834491230997 -0.057088092215515196
3820000000.0 0.01687899399098102 -0.1517661159230843
3840000000.0 0.0327630722392264 -0.14423325655230124
3860000000.0 0.14741548265493518 0.0031121940763520154
3880000000.0 0.13410283793441446 -0.07101250503663957
3900000000.0 -0.06599859092697305 -0.13832085046246914
3920000000.0 -0.1413966507510202 0.06943488474435995
3940000000.0 0.15970188249956155 -0.030618042379367053
3960000000.0 0.017436076698097835 0.168177192837113
3980000000.0 0.16880293742211222 0.03150469303271132
4000000000.0 0.1534658024409709 -0.06609343107709363
