! Created with skrf (http://scikit-rf.org).
# Hz S RI R 50.0 
!freq ReS11 ImS11
400000000.0 0.16084484266019927 0.8597501367545234
420000000.0 0.6233292549890891 0.5929412456285212
440000000.0 0.7906835347141734 -0.24531812748644305
460000000.0 0.17676699986219535 -0.7688986318589753
480000000.0 0.5119029984349937 -0.491610723657485
500000000.0 0.15299035147415366 -0.5419510339250072
520000000.0 -0.003105607410360259 -0.48642812842342714
540000000.0 0.41508664982313903 -0.08558847134878546
560000000.0 -0.31848135614308687 -0.1475330887376902
580000000.0 -0.24846433676985794 0.2178081205788765
600000000.0 0.25770576788740357 0.19958012491621202
620000000.0 0.07602303321646743 -0.3390369136424799
640000000.0 -0.239089199915386 -0.29754868481033164
660000000.0 -0.40086644738201693 0.002189353415234455
680000000.0 -0.012889092177964006 -0.43031140162532044
700000000.0 0.3145371752572256 0.3223544692950324
720000000.0 0.005880675985582722 -0.4485287327614393
740000000.0 0.4077321085809421 -0.16394554782577309
760000000.0 -0.37765527918066494 -0.17062254538190094
780000000.0 0.3213466600241439 -0.208613471992066
800000000.0 -0.1978391141541275 0.2869378609749347
820000000.0 -0.18343856683229431 0.22689687343104017
840000000.0 0.07690251862406067 0.22461925211988282
860000000.0 -0.12042182516557194 0.16576034539650644
880000000.0 -0.1447920795136746 0.0005765582586750818
900000000.0 0.06856492872998392 -0.040201207094720116
920000000.0 0.034591976578288615 -0.03289172804676604
940000000.0 0.010517821621852814 -0.04051372972495653
960000000.0 -0.026087974875599603 0.047817833381353925
980000000.0 0.06044058644453264 -0.016695889008010622
1000000000.0 -0.056329475044408495 -0.0393093264143333
1020000000.0 0.05913748039648791 0.05131680073492182
1040000000.0 -0.05159404119053136 0.0621333812202412
1060000000.0 -0.11044178698428281 0.03750112605830153
1080000000.0 -0.09371623970253107 0.09412794285856027
1100000000.0 -0.11973852851646685 -0.10389791826662967
1120000000.0 -0.1388616913519384 -0.12904872530517345
1140000000.0 0.07075706591529028 0.22708636693033712
1160000000.0 0.28434479190114237 -0.016682310360516133
1180000000.0 -0.048980060852428835 -0.3269304725027177
1200000000.0 -0.27157906439656376 -0.24635915013267934
1220000000.0 0.1767861814525171 -0.35557910385076613
1240000000.0 0.3201877264883544 0.27017168329739527
1260000000.0 -0.41540026034754185 -0.14579846196947505
1280000000.0 0.4411644110557447 0.09535899814606637
1300000000.0 -0.3806475525686694 -0.24396683073324665
1320000000.0 -0.11013709309504563 0.42560781783086604
1340000000.0 -0.23822003898086774 0.3495532621302729
1360000000.0 -0.3050246722081106 -0.275092205837552
1380000000.0 -0.0910021395764221 -0.3980798520852389
1400000000.0 -0.10101752351412023 -0.3821606588313225
1420000000.0 -0.0791417670350366 -0.37458608205187566
1440000000.0 -0.22702894048345884 -0.28951801322702353
1460000000.0 -0.34164342594534175 -0.06452422142920858
1480000000.0 -0.12235943584871187 0.3058214297043683
1500000000.0 0.22864913974449735 -0.20530989910812125
1520000000.0 -0.2312878958773645 -0.16311211870601955
1540000000.0 -0.1562989907577268 -0.2033376670038826
1560000000.0 -0.2176934897075342 0.03213742189367245
1580000000.0 0.01262398772587885 0.18728154603003574
1600000000.0 -0.1535686180292504 -0.014579077825318502
1620000000.0 -0.11080533850186673 -0.018080062759585364
1640000000.0 0.08085056516710991 -0.02149644404190933
1660000000.0 0.03366572420704021 -0.04784280534774346
1680000000.0 -0.029428714897863684 -0.005364362501079196
1700000000.0 0.0036408745496386364 0.019289381510666077
1720000000.0 -0.007832725832352118 0.0335224381033924
1740000000.0 0.05229314775366618 0.01799956718213168
1760000000.0 -0.07181998365049105 -0.0104168100572249
1780000000.0 0.08693993473349133 -0.03129800912744386
1800000000.0 0.07645088555918367 0.09049207103733235
1820000000.0 0.03456804703598477 -0.12736565428488408
1840000000.0 0.1359014886878352 -0.07603952968982125
1860000000.0 0.17648331454324573 0.006792937922206393
1880000000.0 -0.1584047991084806 0.13430188416450928
1900000000.0 -0.21553155377725755 -0.11895840182817868
1920000000.0 -0.2629098206960315 0.1231656564535947
1940000000.0 0.023780712775869305 0.3352099216591602
1960000000.0 0.2559320931823322 -0.2768452650651189
1980000000.0 -0.27974316626129453 0.29767995874336606
2000000000.0 0.4344701996023089 -0.018270851300387032
2020000000.0 -0.4418348145229724 -0.10228720565401322
2040000000.0 0.25345981975894455 0.3823618789893029
2060000000.0 0.010686943938570226 -0.45685889782397976
2080000000.0 -0.4264764034690542 0.12370901418462919
2100000000.0 -0.12894315538147588 0.4068276221119349
2120000000.0 -0.06789545798048563 0.3990613638495102
2140000000.0 -0.26864588549892027 -0.27421281160225003
2160000000.0 0.013216601329290636 -0.36543450717805454
2180000000.0 0.35083439909690495 -0.04433383233826007
2200000000.0 0.26260817029437417 0.2246169831787143
2220000000.0 0.20260524055411802 0.28374161087811894
2240000000.0 0.2553045122058591 -0.24021789305645852
2260000000.0 -0.18955106549630557 -0.3005748953799541
2280000000.0 -0.23293055529869283 0.27641576695411535
2300000000.0 0.36747210472990993 0.06559729724293373
2320000000.0 -0.22799254088816803 -0.3193498741096372
2340000000.0 -0.2922773349499923 0.2982249872210445
2360000000.0 0.4352786493259563 0.124247515546339
2380000000.0 -0.2802508919064958 -0.41183762405800084
2400000000.0 0.13267176919126672 0.532580448391984
2420000000.0 -0.22604113383287058 -0.5581315111543204
2440000000.0 0.5193367886295039 0.3970176236304272
2460000000.0 -0.6965822686083348 0.010294097985924565
2480000000.0 0.6343577855233241 -0.36249766504113184
2500000000.0 -0.5951248732897152 0.4613886843537353
2520000000.0 0.6478734662162577 -0.4070295821870234
2540000000.0 -0.76331905922359 0.08703555604770218
2560000000.0 0.6603601915602219 0.383627301743827
2580000000.0 -0.04812150795937749 -0.7480054911279909
2600000000.0 -0.5041136064347016 0.5212817772657129
2620000000.0 0.6869430480636476 0.10501454269862445
2640000000.0 0.6412369966871554 -0.147351149186589
2660000000.0 -0.4366558010370042 -0.433551783663647
2680000000.0 -0.08070582188720682 0.5656806339292226
2700000000.0 0.37676350281443727 -0.37093291949395973
2720000000.0 -0.3979288149031028 0.27461918303902144
2740000000.0 0.3415132391949609 -0.2776931712389155
2760000000.0 -0.1213397080789374 0.3796705100822063
2780000000.0 -0.22072375981639902 -0.28833788591997156
2800000000.0 0.3307335666321895 0.002581650231725332
2820000000.0 -0.21944550794595666 0.2135658017452413
2840000000.0 0.19021276640679022 -0.21783275745506145
2860000000.0 -0.23280307816225207 0.1622074699756847
2880000000.0 0.27566665047269007 -0.06376821775048189
2900000000.0 -0.24762365080881857 -0.14753544474753932
2920000000.0 -0.08367506884529312 0.28767932503216753
2940000000.0 0.29788161782748396 -0.088207058916781
2960000000.0 -0.1257118146856031 -0.2926799892925114
2980000000.0 -0.31441894384622804 -0.08805816583071523
3000000000.0 -0.329382805780985 0.01686263629959404
3020000000.0 -0.3207585541615001 -0.0709679331367086
3040000000.0 0.04854336421921735 -0.3189944031364283
3060000000.0 0.27893013302262254 0.14670604859458963
3080000000.0 -0.29881086091010006 -0.06067639700370741
3100000000.0 0.2851570923782337 0.0735078777709009
3120000000.0 -0.1939448911747091 -0.20512256911121032
3140000000.0 0.06878993151537661 0.2625136486540001
3160000000.0 0.16499014079223662 -0.19776356457564712
3180000000.0 -0.10404560908345736 -0.2219939883224324
3200000000.0 0.18742085659706043 0.13150844103416728
3220000000.0 -0.12448167542190189 0.1668837738498556
3240000000.0 -0.1840109682430167 -0.01365025616465941
3260000000.0 -0.12853259223208247 -0.08792745419728028
3280000000.0 -0.09103113641604864 0.0821156744138844
3300000000.0 0.08783903558337426 0.006565367728165973
3320000000.0 0.051025205215201666 -0.014382722448061325
3340000000.0 0.01984753221912642 -0.012382289630290148
3360000000.0 -0.0011217844158846687 -0.01426825987534989
3380000000.0 -0.026218726152196448 -0.004688234593012796
3400000000.0 0.03258851334147309 -0.013578879526524744
3420000000.0 0.03852651430745907 -0.007855577104120739
3440000000.0 0.026058018428058202 -0.02603153998335425
3460000000.0 0.03698490159755197 -0.012712965224992613
3480000000.0 0.025625633442899726 -0.04942071406903507
3500000000.0 0.07993014850014112 -0.0018578045522861762
3520000000.0 0.09084817751567403 -0.05701868261885495
3540000000.0 -0.12297753936245658 -0.03110935081681476
3560000000.0 -0.051077147114577455 0.12954183568301625
3580000000.0 -0.10329565143506048 0.10907567999745495
3600000000.0 -0.13439790170638846 0.0866932028063259
3620000000.0 -0.1306169116479378 -0.10212897415861917
3640000000.0 0.16950383198449145 0.008824605001853404
3660000000.0 -0.1728030101968199 0.04062862355533176
3680000000.0 0.16355691647762027 -0.08064541460662951
3700000000.0 0.050995144175837004 0.17989373664340594
3720000000.0 -0.18264945297371757 0.06306271547819225
3740000000.0 -0.15822938656335028 0.11242075987003142
3760000000.0 -0.14423443465732125 -0.12534368947676022
3780000000.0 0.059269597205983605 -0.17222338702102735
3800000000.0 0.09043414171125858 0.14201229068913748
3820000000.0 0.15244161898513886 -0.011665417937734499
3840000000.0 0.006509395989010885 0.13858595191687234
3860000000.0 0.11346390561043707 0.0733168811704741
3880000000.0 -0.10434870035976299 -0.09746675976770586
3900000000.0 -0.0991149739409175 -0.11739003882700666
3920000000.0 0.021831240126955222 0.16582350566476664
3940000000.0 -0.11695765938638317 0.1338736968027589
3960000000.0 0.07224939634228156 0.17160588667315602
3980000000.0 -0.0997029654930501 -0.15516849291626636
4000000000.0 -0.1307143407007984 0.11333755740754388
