! Created with skrf (http://scikit-rf.org).
# Hz S RI R 50.0 
!freq ReS11 ImS11
400000000.0 0.18339126842181233 0.855075201268908
420000000.0 0.6195206528818984 0.5970809116677807
440000000.0 0.7853026609057824 -0.26326453195334987
460000000.0 0.19008221637191253 -0.7655558032815787
480000000.0 0.496915251964679 -0.5061842871898427
500000000.0 0.22021604103555803 -0.5183934777561454
520000000.0 0.004517446231606475 -0.48706777920168826
540000000.0 0.4081269847221199 -0.1122525763730612
560000000.0 -0.30185264524071326 -0.17817688534833284
580000000.0 -0.25158634829500626 0.2158036926401759
600000000.0 0.2657622116911141 0.18786318475760433
620000000.0 0.034242254922592835 -0.34601249740348816
640000000.0 -0.20781555690532982 -0.31993901760225363
660000000.0 -0.40134243684070714 -0.0022823420857540845
680000000.0 0.00026720489982559576 -0.4305999411602442
700000000.0 0.3284847673555903 0.30784606955444505
720000000.0 0.032917629674267805 -0.44743816525468877
740000000.0 0.3942146787090336 -0.19153872165030478
760000000.0 -0.34123580534807874 -0.23601549234125851
780000000.0 0.3099795022113078 -0.2241150387871651
800000000.0 -0.19827681617152446 0.28622644979406525
820000000.0 -0.18851200083934588 0.22241077549144145
840000000.0 0.06305839335248259 0.229333694177012
860000000.0 -0.10103522494732767 0.17790850722194254
880000000.0 -0.14384493848707283 0.01701484447057634
900000000.0 0.07636605018633301 -0.021533422123207774
920000000.0 0.03137582171408755 -0.03650350134631203
940000000.0 0.00918700131959866 -0.040358446912381454
960000000.0 -0.029715378078122422 0.04534063047405436
980000000.0 0.05394045054810223 -0.03159448705619028
1000000000.0 -0.05951089017759841 -0.03377785470466032
1020000000.0 0.058689257121262044 0.05185538839531029
1040000000.0 -0.04790896360172571 0.06516144143026775
1060000000.0 -0.1127143613172457 0.03037369230616875
1080000000.0 -0.08872110970488141 0.09886203694487763
1100000000.0 -0.12034834447830671 -0.10351099481016521
1120000000.0 -0.14104680710743486 -0.1269481337409951
1140000000.0 0.06620698974389884 0.22861728852155894
1160000000.0 0.28377826577593895 -0.026609202463482556
1180000000.0 -0.03284158466079141 -0.329133714854453
1200000000.0 -0.26028088398495264 -0.25850034129393884
1220000000.0 0.16260545003470664 -0.3624493833299309
1240000000.0 0.3130159363226201 0.27811366644827706
1260000000.0 -0.4150673864252847 -0.14674655690959978
1280000000.0 0.4391730069038047 0.10292214740222971
1300000000.0 -0.377405797008085 -0.24843093022851812
1320000000.0 -0.10372517837762779 0.4269423527776503
1340000000.0 -0.24219794998854063 0.34661062633129475
1360000000.0 -0.3121927410482785 -0.2665559650522435
1380000000.0 -0.08586524481477116 -0.3992250760145164
1400000000.0 -0.09760943019268921 -0.38311263972862614
1420000000.0 -0.07024146554132628 -0.3766863092326006
1440000000.0 -0.2321295234432694 -0.28543614403731965
1460000000.0 -0.3394452996685166 -0.07644947067900096
1480000000.0 -0.14941824715496718 0.29389890049230133
1500000000.0 0.2292276396335468 -0.2048672884883509
1520000000.0 -0.22476297650033084 -0.17268413126927867
1540000000.0 -0.1499740131678914 -0.20823671024832474
1560000000.0 -0.21992294868933984 0.01274529328839359
1580000000.0 -0.02174320234639513 0.18670480554200455
1600000000.0 -0.15074250329889116 -0.030762986541210974
1620000000.0 -0.10909995130537625 -0.025397133773171064
1640000000.0 0.07507653264950263 -0.03650202720636456
1660000000.0 0.03155478012514198 -0.04877857756667554
1680000000.0 -0.025942049701151562 0.014507936024625086
1700000000.0 0.019266167017526727 -0.004549589755730602
1720000000.0 -0.0023939136347805186 0.03454655196480217
1740000000.0 0.05524652360036643 -0.005067045578864216
1760000000.0 -0.07270837643592498 -0.004179936898932162
1780000000.0 0.08599969380114544 -0.03349011595345717
1800000000.0 0.07490784405284116 0.0914072826885622
1820000000.0 0.040280405189923395 -0.1252295780392208
1840000000.0 0.1389176670612381 -0.06998078528330066
1860000000.0 0.17640345658742768 0.00578989719280804
1880000000.0 -0.1571544123138331 0.13565996146070416
1900000000.0 -0.216901167315943 -0.11621269097867859
1920000000.0 -0.2651776038978122 0.11853074047413285
1940000000.0 0.029747786156576698 0.33492036929805624
1960000000.0 0.24678072416056326 -0.2851506065448723
1980000000.0 -0.275877103502018 0.30149440746442985
2000000000.0 0.4345328028516109 -0.022433790791339444
2020000000.0 -0.4450493738317504 -0.08685150991495232
2040000000.0 0.24760795260577048 0.386670603046272
2060000000.0 0.032460629431175225 -0.45620637454265917
2080000000.0 -0.42696412214265417 0.12260988452271596
2100000000.0 -0.1561545349790775 0.3974580486890927
2120000000.0 -0.03449598355844535 0.4035776414698753
2140000000.0 -0.2520196475853535 -0.29025241429534415
2160000000.0 0.021996570826675322 -0.36535098578283653
2180000000.0 0.3521898166536861 -0.03581260522681699
2200000000.0 0.23975607659045478 0.24960747804320443
2220000000.0 0.18072266137401888 0.2989815297766658
2240000000.0 0.26384286511870814 -0.23140623213867173
2260000000.0 -0.17572352784946763 -0.30940391931880196
2280000000.0 -0.24792896643358636 0.26350165930168634
2300000000.0 0.36601944509589385 0.0754529425749539
2320000000.0 -0.2252823902339537 -0.32139465103182385
2340000000.0 -0.3127759820067217 0.2764968176260734
2360000000.0 0.43535025659828636 0.1247098175484324
2380000000.0 -0.28490910218294563 -0.40867277994245516
2400000000.0 0.15513810443132198 0.5265458609936311
2420000000.0 -0.24943699932969302 -0.5480920597555253
2440000000.0 0.5458775863311763 0.359845988497405
2460000000.0 -0.6950478930390073 0.04715228689908148
2480000000.0 0.6067814703944322 -0.40703334106299077
2500000000.0 -0.560292631432435 0.5028122708832394
2520000000.0 0.6220964551625748 -0.4450819198196191
2540000000.0 -0.7626224489580243 0.09422266378608683
2560000000.0 0.6832756923957989 0.3405936105812237
2580000000.0 -0.04119387698580481 -0.7483539306207504
2600000000.0 -0.5137715642953365 0.5119079923811445
2620000000.0 0.6835534471624725 0.12602701267126218
2640000000.0 0.6374491538635743 -0.16342479394469422
2660000000.0 -0.43138616479284686 -0.4386327138777469
2680000000.0 -0.13434102031697903 0.5550277256119943
2700000000.0 0.389915037114063 -0.3570074213795554
2720000000.0 -0.40477130698528496 0.2640814518781293
2740000000.0 0.3334909720723681 -0.2873472518130726
2760000000.0 -0.11953935354812026 0.38003576139348316
2780000000.0 -0.22869049783877746 -0.2818026409734756
2800000000.0 0.3305037586584029 0.002603432638051311
2820000000.0 -0.22366504485154445 0.20882086069594347
2840000000.0 0.19533252829854672 -0.21333510628213043
2860000000.0 -0.22647634836374705 0.1700961448770414
2880000000.0 0.2763405471055504 -0.06090309925403783
2900000000.0 -0.24751654891629707 -0.14728658959486846
2920000000.0 -0.07397795182496261 0.2903288295382944
2940000000.0 0.2904455463987289 -0.10987860397201371
2960000000.0 -0.11357883027350775 -0.29744356498724006
2980000000.0 -0.312189557304612 -0.09712003714934397
3000000000.0 -0.32910026403860615 0.018248990385691537
3020000000.0 -0.31852177638399254 -0.0791557387876267
3040000000.0 0.020061567056654326 -0.3216450040152581
3060000000.0 0.2711082020226414 0.15992746399428448
3080000000.0 -0.2992579100693599 -0.05682403284713006
3100000000.0 0.27259599010183905 0.10992931756225045
3120000000.0 -0.22073961896052965 -0.17600108753672566
3140000000.0 0.10142923223132774 0.2518360010024414
3160000000.0 0.16299756822076658 -0.19906262549137133
3180000000.0 -0.11226633179675755 -0.21741233779921462
3200000000.0 0.19798510252759952 0.11513876253636897
3220000000.0 -0.12180918083143867 0.1680569368339392
3240000000.0 -0.18484782285501963 0.0029411036130338316
3260000000.0 -0.13980417750249527 -0.06848557085999663
3280000000.0 -0.05247469127366276 0.11074994073860583
3300000000.0 0.08788134453625802 -0.007677365785254603
3320000000.0 0.05199820640809245 -0.01035211838737921
3340000000.0 -0.006944862206525424 -0.02293577641255772
3360000000.0 0.006022864558949229 0.013252626766456421
3380000000.0 -0.025573339380653655 -0.007023342470237985
3400000000.0 0.033923330492136465 0.007632497466511794
3420000000.0 0.03731833196330204 0.010951897883364998
3440000000.0 0.02980811446378872 -0.021174132542965362
3460000000.0 0.03278184636397817 0.0209303927332348
3480000000.0 0.044861474357241346 -0.03339055424230442
3500000000.0 0.07779128434458278 -0.020485804622169153
3520000000.0 0.09348809126289871 -0.05297130289655948
3540000000.0 -0.11866563524491534 -0.04519069440880802
3560000000.0 -0.06495367754520125 0.12305964241085265
3580000000.0 -0.1356027574745544 0.06369166489403098
3600000000.0 -0.14326381551595968 0.07146964440048176
3620000000.0 -0.11318273002736651 -0.12079044894008574
3640000000.0 0.1673814460237135 0.02727077515737581
3660000000.0 -0.17664984500233 0.015662761816077734
3680000000.0 0.17506348040697722 -0.051466024087213506
3700000000.0 0.022296484622755696 0.18559009686987393
3720000000.0 -0.19112183801593693 0.02429988019656473
3740000000.0 -0.17396669872818593 0.08581212285228274
3760000000.0 -0.13166338170169645 -0.1378830954709678
3780000000.0 0.07667472306512593 -0.16480630823571668
3800000000.0 0.06881129032628967 0.15305439026050807
3820000000.0 0.1515666462344012 -0.011282248233971903
3840000000.0 -0.028710660444240418 0.13557404346288338
3860000000.0 0.11279514187614273 0.07301611709366203
3880000000.0 -0.08890730531246141 -0.11115581127139555
3900000000.0 -0.08174351919768426 -0.1299623237763496
3920000000.0 0.029133730699146952 0.16369872152671502
3940000000.0 -0.10684877985454254 0.14128845600781853
3960000000.0 0.11338980477948163 0.14682783042278424
3980000000.0 -0.1554528167077435 -0.09814631230266554
4000000000.0 -0.05578311503905648 0.16324841719394073
