! Created with skrf (http://scikit-rf.org).
# Hz S RI R 50.0 
!freq ReS11 ImS11
400000000.0 0.2536018937487746 0.8346041903742988
420000000.0 0.6547451049559624 0.5556829141149271
440000000.0 0.7785719666347545 -0.26981627891878374
460000000.0 0.22013392408435778 -0.7535674804755114
480000000.0 0.698599681906934 0.007290066481464027
500000000.0 0.5324034501814651 0.20500379834536223
520000000.0 0.40745258025512143 -0.28899836838383625
540000000.0 0.4012926854803708 0.18019002762059338
560000000.0 -0.34591619178560684 -0.12034038209857759
580000000.0 -0.04460596007289622 0.34313097333245424
600000000.0 0.2696204495399655 -0.214216860609009
620000000.0 -0.29493397187103254 0.2027345252817988
640000000.0 0.0011921586410430516 0.3841336640232264
660000000.0 0.0926260317797816 0.38840387158628825
680000000.0 -0.42331507544542224 -0.04794559538254781
700000000.0 0.4294859779831552 0.11119932064413202
720000000.0 -0.299504304670428 -0.32896270802493166
740000000.0 0.1794696894417107 -0.394270070529276
760000000.0 -0.35493378606029463 0.20599277344328168
780000000.0 0.0032933860793227586 -0.37031970825466576
800000000.0 -0.18062535165015994 0.2787618614245079
820000000.0 0.008643858284823764 -0.27521396713566315
840000000.0 0.18734286808337813 -0.13595603905981646
860000000.0 0.07140742473973571 0.18902315200032305
880000000.0 0.13281946909583298 0.06250866585207587
900000000.0 -0.044416033516033376 -0.08118177142085638
920000000.0 0.059834439760980886 0.021329493665988224
940000000.0 -0.033002499657659806 -0.027653628202993125
960000000.0 -0.04796391041692874 0.014088044243442295
980000000.0 -0.0064650153400460965 0.07127102603822114
1000000000.0 0.08370383863591993 -0.01448857049217714
1020000000.0 0.06101443125038525 -0.08426679645762725
1040000000.0 -0.01572413993840311 0.1092663458873563
1060000000.0 0.03678710367734555 -0.13204939699694604
1080000000.0 -0.07151305157786508 0.12624226613707526
1100000000.0 -0.011929606964512488 -0.16432473384466953
1120000000.0 0.19049757767154019 -0.020527856433300812
1140000000.0 0.06866543080547709 -0.22610011567756322
1160000000.0 -0.1580563148809389 -0.23507122643567407
1180000000.0 -0.29203356315254453 0.14818441873650737
1200000000.0 -0.12814445185517753 0.3355968751207701
1220000000.0 -0.3150706284281142 -0.21695360832598712
1240000000.0 0.39114502752040525 0.0950506716791822
1260000000.0 -0.2529154219650599 -0.33961344705055774
1280000000.0 -0.00990571413241271 0.43720103510027886
1300000000.0 0.4138495883383558 -0.16360825086242514
1320000000.0 -0.20941505981886535 -0.38733125491767956
1340000000.0 -0.134375631618247 -0.41223463657915604
1360000000.0 0.06843986089078972 -0.42161777240714987
1380000000.0 -0.0960305249122507 -0.4147743502209831
1400000000.0 -0.368479259842043 -0.1824891543268788
1420000000.0 -0.3054697812088321 0.2485163667905542
1440000000.0 -0.09095885643006164 0.3601721729192239
1460000000.0 0.25528100471497533 0.23632891296243205
1480000000.0 0.2733307938074234 -0.17181634099659868
1500000000.0 -0.2755520576948252 -0.10725608517201686
1520000000.0 -0.08188491320780167 0.2559662531785027
1540000000.0 -0.23460920081125028 0.03585134823959065
1560000000.0 -0.17211869455558104 -0.10092901380354459
1580000000.0 -0.010902064983822152 -0.16782315026529515
1600000000.0 -0.13517357101443334 -0.0016573372291204854
1620000000.0 -0.05919634362548805 -0.08415297830536297
1640000000.0 0.06171113434864698 0.05326487610810545
1660000000.0 0.05581959125529592 -0.021927445987552436
1680000000.0 -0.013794013506514151 0.03588495286115485
1700000000.0 0.015340469479645898 0.01402124259304287
1720000000.0 0.003779553487916442 -0.003002706727541697
1740000000.0 -0.008744623127622708 -0.01957298212346122
1760000000.0 0.013136399598172982 0.04116851689553937
1780000000.0 -0.07540121074894765 -0.005959603713582259
1800000000.0 0.034406399318317175 0.1052940732808897
1820000000.0 -0.13679231182097748 0.026720162659618088
1840000000.0 0.14245393031371958 -0.09548094771408422
1860000000.0 -0.1969243391184802 0.031222256875349817
1880000000.0 -0.1430110149814008 0.1804889321496987
1900000000.0 0.010421571380176204 0.26709169976593217
1920000000.0 0.30196129739441946 -0.035475165025655425
1940000000.0 0.030589292661774303 -0.34103794562145506
1960000000.0 -0.3256867053775849 0.18825571433949603
1980000000.0 0.3903074381309107 0.096140323370707
2000000000.0 -0.01440752971031532 -0.42267457851905693
2020000000.0 -0.36457938324621564 0.23746246649199257
2040000000.0 0.24553335857800307 0.3641712221445302
2060000000.0 0.39024451760751866 -0.19723415119765528
2080000000.0 0.05188050215174144 -0.42671656943544234
2100000000.0 -0.04239439762808336 -0.4195533911753902
2120000000.0 -0.17768294901651185 -0.37105757999547107
2140000000.0 -0.3505790449457005 -0.19374899391870604
2160000000.0 -0.017149374294264472 -0.38554231470993944
2180000000.0 -0.1842968498051376 -0.32149414542635735
2200000000.0 -0.28529137709695734 -0.21398747054129238
2220000000.0 -0.3468814027650353 -0.017104817103146437
2240000000.0 -0.27174218638017106 0.20942778361026787
2260000000.0 -0.13103824081825208 0.31713780689441745
2280000000.0 0.040015275749782406 0.34621769527773694
2300000000.0 0.36380293332000857 -0.005906083058747289
2320000000.0 -0.056990302938843454 -0.384626610428842
2340000000.0 -0.3601749731941116 0.21491376378204977
2360000000.0 0.4490982869546628 0.09180270685940517
2380000000.0 -0.4510882710153177 -0.22590539824050687
2400000000.0 0.44505083382809846 0.3315126169880406
2420000000.0 -0.5654619043986774 -0.22116145771493867
2440000000.0 0.6311908004029465 -0.18068642610964003
2460000000.0 -0.4062207026848797 0.5675354603188468
2480000000.0 0.09282440509911424 -0.7233068921219817
2500000000.0 -0.033966888254439706 0.7493397779450683
2520000000.0 0.2138158117042959 -0.7304715055323557
2540000000.0 -0.5117008204297091 0.5659526532273338
2560000000.0 0.7493680306684216 -0.11141705462637976
2580000000.0 -0.46300386503501667 -0.5804721023519226
2600000000.0 -0.1074497445443253 0.7104473898794514
2620000000.0 0.5997424394592619 -0.33723331266616413
2640000000.0 0.3927991360655063 -0.5175641993844632
2660000000.0 -0.6056553108092605 0.001539569595400431
2680000000.0 0.39132603513602715 0.39903002268653187
2700000000.0 -0.0048542290665481765 -0.5123551874581294
2720000000.0 -0.2545737956879649 0.3888198404295743
2740000000.0 0.3633066146958691 -0.21280823959444004
2760000000.0 -0.36372768813283984 0.11627370386568671
2780000000.0 0.25107816847122216 -0.24540603882341225
2800000000.0 -0.07497428560775048 0.3165762352562589
2820000000.0 -0.23664398654138052 -0.1965832047227915
2840000000.0 0.28384626011725195 -0.08332973931310571
2860000000.0 -0.14881243837189143 0.25148133157843355
2880000000.0 -0.07559261264155705 -0.28195255646151335
2900000000.0 0.0969391351390109 0.27845912103126486
2920000000.0 0.17260628917092768 -0.24517336459561645
2940000000.0 -0.28753083553649256 -0.10852765997145276
2960000000.0 -0.23851290756389115 0.19763200746888257
2980000000.0 -0.28647257067352855 0.12875830891665088
3000000000.0 -0.3106040923228686 -0.06828094802455657
3020000000.0 -0.06650842826403357 -0.3111583085358271
3040000000.0 0.31333687659371784 0.04232923317957771
3060000000.0 -0.28470415609775623 0.12914203725242898
3080000000.0 0.20658812585615383 -0.22551213259512556
3100000000.0 -0.1481729789106324 0.2595476549518864
3120000000.0 0.1313557259679784 -0.25907362603021433
3140000000.0 -0.06265341534069216 0.27349998252327135
3160000000.0 -0.033716615272248396 -0.26344731278799793
3180000000.0 -0.22684074144761776 0.10467199233250084
3200000000.0 -0.05144150975574077 -0.22342706014560076
3220000000.0 0.15512429896812444 -0.1304788756288118
3240000000.0 0.12662784332430257 0.11626311817290226
3260000000.0 -0.13680009685615627 -0.01611067195379696
3280000000.0 0.09707196145309144 -0.04009323626752665
3300000000.0 -0.0747467192205803 0.005712103738187484
3320000000.0 -0.014301104458512454 0.044405735959990054
3340000000.0 -0.0194115495497709 -0.011642706941932488
3360000000.0 0.003933778414611517 -0.002462196628171725
3380000000.0 -0.007276694776116136 0.006914920191868034
3400000000.0 -0.00842914396509398 0.02083108804857421
3420000000.0 0.00925989311596615 -0.03415368975162296
3440000000.0 0.025882109573266972 -0.03917496056921125
3460000000.0 -0.009839519274511979 -0.05529768365790102
3480000000.0 0.06720344185148679 -0.012652632967318824
3500000000.0 -0.009900833483166687 -0.08195246016521524
3520000000.0 -0.07324478000713283 0.06309491500310094
3540000000.0 0.03321337383675025 -0.10606773400695116
3560000000.0 -0.04143985564629612 0.11700288585209573
3580000000.0 0.035903376476882375 -0.13350858142888203
3600000000.0 0.11569044048502994 0.10564039525847482
3620000000.0 0.06645069434689518 0.15475493671885718
3640000000.0 -0.12323289888818907 0.13042757517239534
3660000000.0 -0.1860110636601022 0.029209898680111153
3680000000.0 -0.15725889071888655 -0.11160593401834284
3700000000.0 -0.04195035762094156 -0.18887142624085104
3720000000.0 0.15741869522076662 -0.11308021784649973
3740000000.0 0.18634599021813525 -0.03567137179924105
3760000000.0 -0.16704525555287986 0.07392988574931572
3780000000.0 0.12979753471036917 -0.11372655362913026
3800000000.0 -0.11123208576472379 -0.11727079855172746
3820000000.0 -0.14491305842197236 -0.049743658479467254
3840000000.0 0.03354167599499542 -0.14192700488683188
3860000000.0 0.006572445177079939 0.1473571683431314
3880000000.0 -0.02509805526773519 0.152041367183346
3900000000.0 0.15977360539805635 0.013086649426680754
3920000000.0 -0.1660636802992526 -0.018132012421578934
3940000000.0 0.0865747913953268 -0.14789378107986714
3960000000.0 0.1675948939044464 -0.0481932101404703
3980000000.0 0.04056344873882501 -0.16857902503235
4000000000.0 -0.004067880150870581 -0.16539129762181445
