!Created with skrf (http://scikit-rf.org).
# Hz S RI R 50.0 
!freq ReS11 ImS11
400000000.0 -0.8020909600814145 0.3467189332364578
420000000.0 0.2967827344406006 0.820554174562796
440000000.0 0.781907056148693 -0.31210946034329806
460000000.0 0.05623332703143276 -0.7926444303104451
480000000.0 0.694990039296766 0.21409094938976583
500000000.0 -0.5666788136176036 -0.19810016328340335
520000000.0 0.38864707604953047 0.31006052514157867
540000000.0 0.04972625370163837 -0.41349703791498443
560000000.0 -0.1498628420368279 0.3394372070362679
580000000.0 -0.2486864274524887 0.2274714804485855
600000000.0 -0.07228075015223134 0.32423758735628433
620000000.0 0.017872832484370837 -0.3446437420666264
640000000.0 -0.20434271149822297 -0.3029479502140826
660000000.0 -0.18597517399281238 -0.3259842998876605
680000000.0 -0.040917412862773235 0.39485707898307404
700000000.0 0.08325725757780504 0.40099566918725515
720000000.0 0.186218477613811 0.3779595729634265
740000000.0 -0.4090130893654017 -0.11531643582540105
760000000.0 0.24548074413553697 0.33079209859863834
780000000.0 -0.3585281587975094 -0.14422560941628335
800000000.0 0.3400291835329494 0.11505569071941234
820000000.0 0.1006154411862705 0.29495588694985636
840000000.0 -0.24151911385081765 -0.10544617427194906
860000000.0 0.03973685580418026 -0.21376218677950345
880000000.0 0.01314712954726672 0.16930400637407583
900000000.0 0.08265004445144294 0.07218322754110489
920000000.0 0.015679660759861068 -0.06590502066850387
940000000.0 -0.025436944645961676 -0.040398678604793604
960000000.0 -0.026429192529556066 -0.05364377108753338
980000000.0 -0.05959588053590704 0.044758039070920005
1000000000.0 0.08081990441611975 -0.030550750258787018
1020000000.0 0.05002901467906428 -0.08468731349707334
1040000000.0 0.0727533920436836 -0.0808950434717864
1060000000.0 -0.10017462272993784 -0.10513940276955487
1080000000.0 0.10423838568630175 -0.12360738716992077
1100000000.0 -0.007383242813499076 -0.18586053651615927
1120000000.0 -0.11066640294234596 0.17645881745243294
1140000000.0 0.15144361770815792 0.19039504316548092
1160000000.0 0.2579397180405354 -0.09543432039043567
1180000000.0 0.2802465186741012 0.13950996892425355
1200000000.0 0.14348252246202522 0.3086775315931698
1220000000.0 -0.2714155122415562 -0.25148504434182084
1240000000.0 0.1555399483281864 0.3578627015809391
1260000000.0 0.05730824243654668 -0.41203813997496574
1280000000.0 -0.4234895041072831 -0.07335912953076347
1300000000.0 0.2450783921055298 0.36600244882308514
1320000000.0 0.41269416437073686 0.15704354991366842
1340000000.0 0.4404263558409017 0.01818244455372241
1360000000.0 0.42394780164850204 0.13659574775547845
1380000000.0 0.27520212997584187 -0.34664137496264136
1400000000.0 -0.43127318640978096 0.05134414209740703
1420000000.0 0.3154824210421376 0.2700004369439448
1440000000.0 -0.04355724145201985 -0.3815097601147989
1460000000.0 -0.3439720446484274 0.04252240311593119
1480000000.0 -0.025286449997406712 0.3093885828616881
1500000000.0 0.06444379220998318 0.2648335314627719
1520000000.0 -0.16847326233998638 0.17405173180494102
1540000000.0 0.16973142357928153 0.13360310511704948
1560000000.0 -0.12154888674465436 -0.14244604475261718
1580000000.0 0.08079398413980435 0.14768120205777135
1600000000.0 0.14117807975361027 0.013508503513567634
1620000000.0 0.11445311751821248 -0.022833803438093787
1640000000.0 0.09368114320166968 0.0002986950899886927
1660000000.0 0.05144985794407584 -0.048439720799295996
1680000000.0 0.03502467007331425 0.03698538706050464
1700000000.0 -0.022786572388491456 -0.02704377734564676
1720000000.0 0.016378041952447533 -0.0031079857688843496
1740000000.0 0.012420315287511103 -0.001077956838296659
1760000000.0 0.03004766287144485 0.012746385706204656
1780000000.0 -0.0358877063310303 -0.05502229610562143
1800000000.0 0.08712268597682646 -0.05562215451957776
1820000000.0 0.11266502349156016 0.08077753508129644
1840000000.0 0.16251447530488972 0.07173299044145849
1860000000.0 -0.10352740901404874 0.18552642548146403
1880000000.0 -0.11657898228314423 -0.22038689952525947
1900000000.0 0.2540416377523296 0.13752733246602997
1920000000.0 -0.31677175388717127 0.009923819478022159
1940000000.0 0.1785810460768119 0.2946844209103622
1960000000.0 0.29287540171135146 -0.22167879810845179
1980000000.0 -0.13671492141527636 -0.35865785165751657
2000000000.0 -0.19608344619038934 -0.35127873105364743
2020000000.0 -0.419258591746859 -0.013895281418398162
2040000000.0 -0.3277277370899201 0.28103151548706856
2060000000.0 0.22100772003241623 0.37789141927574255
2080000000.0 0.43354150268202696 -0.05703817611362099
2100000000.0 0.21004422072155815 -0.37550326769991
2120000000.0 -0.05652064311744696 -0.418395199740969
2140000000.0 -0.25218662778332057 -0.32522989480313824
2160000000.0 0.1366766159512533 -0.37340323012869714
2180000000.0 -0.10061024187928107 -0.3697891790929019
2200000000.0 -0.32783171347796075 -0.16853099427856455
2220000000.0 -0.3314161533098889 -0.1303651562624213
2240000000.0 -0.33668341435365556 0.1017411633430118
2260000000.0 -0.2889613029890542 0.19942664521417047
2280000000.0 -0.12448433614744916 0.33043190639337733
2300000000.0 0.20506480881434525 0.2994603793664212
2320000000.0 0.3775670361955416 0.06789754115424353
2340000000.0 0.23406010156314283 -0.3433549345536961
2360000000.0 -0.4551031415547421 0.030794473246645044
2380000000.0 0.480655186766264 0.15242232186591123
2400000000.0 -0.5410838685638585 -0.12637619099877528
2420000000.0 0.5656942584235594 -0.22585059967729074
2440000000.0 -0.23675876240867325 0.61463071848392
2460000000.0 -0.38146708014862657 -0.5867661369219705
2480000000.0 0.6976929444162178 0.22099926088718197
2500000000.0 -0.7441885226744839 -0.12222981819816904
2520000000.0 0.7566866851158524 0.12550315889852284
2540000000.0 -0.7039829431503569 -0.3147690238503223
2560000000.0 0.3778650948784889 0.6698659725318835
2580000000.0 0.2257695294710591 -0.7228105044456565
2600000000.0 -0.6640999591417718 0.3210797117392334
2620000000.0 0.6857357410576277 0.18863553884480408
2640000000.0 0.6009891897701547 -0.3137399298709471
2660000000.0 -0.6292127634558679 -0.09568357269267475
2680000000.0 0.4552428743054934 0.37558335622829714
2700000000.0 -0.2258527618420547 -0.4928788677006067
2720000000.0 -0.007870770916604984 0.4914488609328078
2740000000.0 0.34498202831436076 -0.2787864338024713
2760000000.0 -0.40103079336762304 0.015214724026097767
2780000000.0 0.30575920518120414 0.20559532299050942
2800000000.0 -0.2027483006043515 -0.27485592183555635
2820000000.0 0.25906461630519 0.19567074236887713
2840000000.0 -0.3118548755423173 -0.036944096972751396
2860000000.0 0.17421330510889924 -0.2584183168986544
2880000000.0 0.2837318588881648 0.1253665441818532
2900000000.0 -0.23786722080550307 0.1993208172255797
2920000000.0 0.2178109904470763 -0.2210292415814594
2940000000.0 -0.30127671594748 0.07881395443360749
2960000000.0 0.06959564906052786 0.30230217517183144
2980000000.0 0.1439625142720409 0.2764484246810157
3000000000.0 -0.019423058619643677 0.3112792936015186
3020000000.0 -0.28540000009167193 0.12000801971190829
3040000000.0 0.02885840508148915 -0.30425914749167143
3060000000.0 0.02744697537002589 0.30198565743691475
3080000000.0 0.03394597594754709 -0.2994323269372534
3100000000.0 -0.05109825501077051 0.29454340437552906
3120000000.0 -0.04457991758656577 -0.29266135439402396
3140000000.0 0.24054221981008117 0.16498155815436402
3160000000.0 -0.18542611489963373 -0.20956541942843104
3180000000.0 0.15139188459737002 -0.22023079425723688
3200000000.0 0.2321036208663527 -0.07727410977191251
3220000000.0 0.21268148964423686 -0.04589766540030644
3240000000.0 0.18214972761138357 0.02812464102331411
3260000000.0 0.05419399581566019 0.13669931347323747
3280000000.0 -0.055315189460814394 -0.09512189554840289
3300000000.0 -0.06267384337522311 0.04500918356423168
3320000000.0 -0.01635429770334763 -0.04766767590913795
3340000000.0 0.013631907612586217 -0.02690798917529364
3360000000.0 0.01352885270780514 0.011687810443159589
3380000000.0 -0.007256691414871552 -0.0009307997660854604
3400000000.0 0.0023749690917085537 0.005837397360364034
3420000000.0 0.011462213675387727 0.01844316215408368
3440000000.0 -0.039017149634528375 -0.000637060248729272
3460000000.0 -0.054904788713201036 -0.005094534029734506
3480000000.0 -0.06238201484120804 0.034439043724953156
3500000000.0 0.0007388852828602391 0.08636388240188168
3520000000.0 -0.09618514374783635 -0.015475732048461416
3540000000.0 0.006575027611066942 -0.1088408549451735
3560000000.0 -0.024655847964441525 0.11579988120053626
3580000000.0 0.11310178197194055 -0.06242006020216129
3600000000.0 -0.016067865478424224 0.14548066519343567
3620000000.0 -0.1567687273170055 -0.02662499354954751
3640000000.0 0.027567956595588607 -0.16974554643404852
3660000000.0 0.11946361669340427 -0.14249013245566622
3680000000.0 0.11191512908172813 -0.1578494005315235
3700000000.0 -0.00636404249568868 -0.1953914778739507
3720000000.0 0.04654454909465375 -0.18917957140625907
3740000000.0 0.08645220120878978 -0.1668398155483359
3760000000.0 -0.05642524172494683 0.17057288502975795
3780000000.0 0.03168781590439726 -0.16566072357933917
3800000000.0 -0.15187569509519266 -0.04394354220669919
3820000000.0 -0.1426349154738277 -0.04175491818935558
3840000000.0 0.06318019146383862 -0.12602826372736264
3860000000.0 -0.13440911368741812 0.050023106781729956
3880000000.0 -0.15280509730717823 0.001795513005841057
3900000000.0 0.01404806668044486 0.16222187097016993
3920000000.0 -0.11218375297565135 -0.12531034654115397
3940000000.0 0.07735012702077584 -0.15393270910477377
3960000000.0 0.13230021737054776 -0.11509085216354746
3980000000.0 -0.09924665404616839 -0.1410197109341253
4000000000.0 -0.027490209381409357 -0.16042511933781894
