!Created with skrf (http://scikit-rf.org).
# Hz S RI R 50.0 
!freq ReS11 ImS11
400000000.0 -0.8150206593165755 0.3085846705327165
420000000.0 0.3012627881257613 0.8174431873806732
440000000.0 0.7600255678885415 -0.36002700380567293
460000000.0 0.020252432723153715 -0.7927045461243123
480000000.0 0.6864950706361062 0.23978811603063066
500000000.0 -0.5594068601519415 -0.21993098972778197
520000000.0 0.38781242619801143 0.31040799306867256
540000000.0 -0.014204288613756864 -0.41543569581613526
560000000.0 -0.11790867312545927 0.350857738123722
580000000.0 -0.2216095497238333 0.25621694162508396
600000000.0 0.04258145182823 0.3312635071581016
620000000.0 0.003749908098091077 -0.34650588845478614
640000000.0 -0.12739733250217097 -0.34490180540369486
660000000.0 -0.08174744494047165 -0.3682845787693901
680000000.0 -0.15351328610572548 0.36728398714357047
700000000.0 -0.02844527903069855 0.40837053491640485
720000000.0 0.10645495620861795 0.40731798529737656
740000000.0 -0.36517898643411606 -0.21746119271797065
760000000.0 0.19222409183061964 0.363704456634764
780000000.0 -0.34594070542378963 -0.16885054974043381
800000000.0 0.3498941108155752 0.07520852591364793
820000000.0 0.17205759948346958 0.2588203439550671
840000000.0 -0.26339196778785223 -0.0015420688281432512
860000000.0 -0.08837987494047711 -0.1995485076768612
880000000.0 0.09874180791332784 0.1403303574690819
900000000.0 0.10531243884103338 0.03769014772421052
920000000.0 0.053294220764877914 -0.044697871935394165
940000000.0 0.04621990425821655 0.012949525712677061
960000000.0 0.019206840402786928 -0.055275049771418866
980000000.0 -0.0626148943912644 0.03771759215237546
1000000000.0 0.044217210843904675 -0.07237372929456704
1020000000.0 -0.009133419397655775 -0.09712218876294361
1040000000.0 -0.009179727040115614 -0.10808334532584456
1060000000.0 -0.14452557098764193 -0.018455206118695867
1080000000.0 0.01778919523214434 -0.16190748153542261
1100000000.0 -0.0708668456040468 -0.17390117454588608
1120000000.0 -0.10585398372400484 0.18157549484795288
1140000000.0 0.13278195789641073 0.20599915168667357
1160000000.0 0.2722864366178219 -0.05058613084284377
1180000000.0 0.2419114094258144 0.20102818104501882
1200000000.0 0.04882425712867496 0.3377483858443292
1220000000.0 -0.19946913370000874 -0.3120603408169562
1240000000.0 0.08363748699325026 0.3811052769944717
1260000000.0 0.11281021068268159 -0.400092917414305
1280000000.0 -0.4093543457907635 -0.1289670660192668
1300000000.0 0.20884988654634204 0.38708488717347606
1320000000.0 0.410377766973644 0.16169187415605996
1340000000.0 0.44004514770570974 0.02067103837591733
1360000000.0 0.4270349449677704 0.12530520483444085
1380000000.0 0.25636754254632016 -0.36071101029044506
1400000000.0 -0.4275601903096981 0.07683064913310572
1420000000.0 0.3311478100905014 0.2513037396009746
1440000000.0 -0.08726651147586084 -0.3744938765774203
1460000000.0 -0.3418311298378761 0.06148196220230698
1480000000.0 0.030133711857904432 0.3097718725233812
1500000000.0 0.09719173956466572 0.2554332789621575
1520000000.0 -0.16079560322091896 0.18243144852418958
1540000000.0 0.16416829870327623 0.14237801263837704
1560000000.0 -0.08059570705912482 -0.1701535228647755
1580000000.0 0.05204891836577152 0.16074069793131715
1600000000.0 0.12612224913744077 0.06595763818153481
1620000000.0 0.11573984728843913 0.01718663686541791
1640000000.0 0.06686164666960741 0.06556772482091415
1660000000.0 0.06996742602984943 -0.00588987437271692
1680000000.0 0.009646693725678066 0.049501838217015336
1700000000.0 -0.026290387809926714 -0.022954596250321306
1720000000.0 -0.005430505084020307 -0.015497275010507778
1740000000.0 0.002406732234508337 -0.012602908620768552
1760000000.0 -0.025061503612289926 0.021221563854856993
1780000000.0 0.004649332182828112 -0.0652362694711657
1800000000.0 0.1020446188528587 -0.011352668811231039
1820000000.0 0.09747974257603864 0.09743815381257327
1840000000.0 0.15308969312465548 0.08851616182452257
1860000000.0 -0.10675304936721469 0.18306848866520195
1880000000.0 -0.12077518806426434 -0.21749237528607634
1900000000.0 0.2603868087606573 0.12467188592290829
1920000000.0 -0.31418805668651084 0.040796632770952176
1940000000.0 0.19832697366116428 0.28186723864295826
1960000000.0 0.27319121349090303 -0.24565304715051636
1980000000.0 -0.16104901066350535 -0.34875785887086785
2000000000.0 -0.18093731010589706 -0.36026408838132606
2020000000.0 -0.41962713410339547 -0.016882562482920097
2040000000.0 -0.32893364796217145 0.2806570177758134
2060000000.0 0.23975169156567552 0.3666606155121431
2080000000.0 0.42821784098191257 -0.09129913876429507
2100000000.0 0.2757191372035811 -0.3311991904932712
2120000000.0 -0.052735057918553395 -0.4191065195282849
2140000000.0 -0.21592447097790332 -0.35072521993066325
2160000000.0 0.18995412899328792 -0.3494447174185221
2180000000.0 -0.05028389164456927 -0.37981264762109435
2200000000.0 -0.29005237206028694 -0.22693087720298694
2220000000.0 -0.30168606075016646 -0.18877725750644803
2240000000.0 -0.342544844627144 0.07655578881646145
2260000000.0 -0.2976574080362807 0.18457383015370613
2280000000.0 -0.13583672168738012 0.32490172085233177
2300000000.0 0.21058536342615414 0.2945230690047587
2320000000.0 0.38031675065132076 0.044578773634882565
2340000000.0 0.2060220057942629 -0.36003353479553
2360000000.0 -0.45260380945103373 0.05412586042891248
2380000000.0 0.48881931997295097 0.1240921217095993
2400000000.0 -0.5427560721391008 -0.11932921026005126
2420000000.0 0.5616719534097413 -0.23587737697109354
2440000000.0 -0.2589208051853026 0.606272063112548
2460000000.0 -0.3532982135710272 -0.6049108944558833
2480000000.0 0.6839963604712461 0.2627366215335789
2500000000.0 -0.7416336207293537 -0.14007719143895678
2520000000.0 0.7579180347463474 0.12273457536773329
2540000000.0 -0.615352699043759 -0.4667482196697396
2560000000.0 0.2928973641427808 0.7116887711329747
2580000000.0 0.34002784192976526 -0.6770536634900647
2600000000.0 -0.6968962237954375 0.24094111602639723
2620000000.0 0.6723080383054916 0.23135378257015324
2640000000.0 0.6267954086771254 -0.2573270220935602
2660000000.0 -0.60633798426995 -0.19163328887081466
2680000000.0 0.42084782797636994 0.4125976926669105
2700000000.0 -0.1804674937362057 -0.5103901982561599
2720000000.0 -0.05134476910957912 0.48825786634579227
2740000000.0 0.32796865411160414 -0.2981790574122783
2760000000.0 -0.39889884432189154 0.03997726417280581
2780000000.0 0.3159710893801183 0.18886795635688766
2800000000.0 -0.23090572832291953 -0.2516808870317461
2820000000.0 0.27977709813796703 0.1652815429711638
2840000000.0 -0.3144336847249176 0.00773588812058559
2860000000.0 0.13374041234067757 -0.2820210546868985
2880000000.0 0.27879366165219405 0.13919360581849316
2900000000.0 -0.23227607427920727 0.20727398790696622
2920000000.0 0.22126305713460953 -0.2188981341174597
2940000000.0 -0.3093161302133522 0.0446289165572577
2960000000.0 -0.013331655675329923 0.3116943918845226
2980000000.0 0.08436361525666015 0.30105366682427587
3000000000.0 -0.10428431932205574 0.2950086961635855
3020000000.0 -0.3085096260762725 0.03498874639417523
3040000000.0 0.18001345834739974 -0.24754064846263768
3060000000.0 -0.08878577577414144 0.28953826521928866
3080000000.0 0.11182618745028175 -0.2792563860165526
3100000000.0 -0.12137101952760126 0.2726585417832366
3120000000.0 0.05985632023776585 -0.28886427338613924
3140000000.0 0.20712524110389402 0.20386450097625378
3160000000.0 -0.17484165738441823 0.2172359138979535
3180000000.0 0.19677510290263675 -0.17878446666321243
3200000000.0 0.2364479603184995 -0.05817122931739393
3220000000.0 0.2103276897103722 -0.049852695959738805
3240000000.0 0.18302895483804166 -0.008912414088627097
3260000000.0 0.1097864502405878 0.09640054439610128
3280000000.0 -0.10212034122178477 -0.03895569398544675
3300000000.0 0.03438688499455207 0.06825834313312637
3320000000.0 -0.017291811660772743 0.04662971875084183
3340000000.0 -0.013608018520105363 0.025996702582399684
3360000000.0 -0.01344686122420607 0.010361385905908224
3380000000.0 0.005577530702737001 0.004363367395429612
3400000000.0 0.0059065665636455844 -0.004791461061096773
3420000000.0 -0.010339100656638246 -0.020215649957423764
3440000000.0 0.03447970186849792 -0.01969058752860959
3460000000.0 0.010680537057604701 -0.05463471062584647
3480000000.0 -0.04064757340237891 -0.0590406006348191
3500000000.0 -0.08089374449040801 0.030798254872414613
3520000000.0 -0.027553051968102146 -0.09314310674218443
3540000000.0 0.09239311167110208 -0.057547948096310045
3560000000.0 -0.08499189945963811 0.08218763792996303
3580000000.0 0.12755163849372214 -0.022575405708978147
3600000000.0 -0.07707417198592627 0.12388315447478394
3620000000.0 -0.13126655842402768 -0.08800817410620314
3640000000.0 0.08443793693962165 -0.14882665919499205
3660000000.0 0.1644394799405223 -0.08422281278062999
3680000000.0 0.153131061731698 -0.11627700763460122
3700000000.0 0.047650324179241324 -0.18791901813412665
3720000000.0 0.0885957065965912 -0.17170437929320195
3740000000.0 0.11199865733515496 -0.14897943535906638
3760000000.0 -0.07351587147209929 0.1622700449906016
3780000000.0 0.05406344028321928 -0.15819749955366624
3800000000.0 -0.15137312031160471 -0.03950794495830151
3820000000.0 -0.14441613667458525 -0.026293169229277165
3840000000.0 0.062025720838463846 -0.12438600567918365
3860000000.0 -0.13405859489813043 0.04618865392513939
3880000000.0 -0.15076807579537183 -0.0015009656342185038
3900000000.0 0.01899908774988984 0.15950391074326245
3920000000.0 -0.11487918631272669 -0.12024295861916352
3940000000.0 0.058396901080581085 -0.1601240915439744
3960000000.0 0.09450795405300766 -0.146032919165096
3980000000.0 -0.1606404718704231 -0.05763664375147856
4000000000.0 -0.14235828469395514 -0.07621099123578472
