!Created with skrf (http://scikit-rf.org).
# Hz S RI R 50.0 
!freq ReS11 ImS11
400000000.0 -0.7962420466432713 0.3607579350175797
420000000.0 0.304600220161943 0.8173988020396391
440000000.0 0.7816461389547142 -0.31321395883417963
460000000.0 0.019885982342599955 -0.7936446861483865
480000000.0 0.6921837424870775 0.22334015732297893
500000000.0 -0.5609898751070469 -0.2116757914718139
520000000.0 0.364522904930247 0.33738389131385493
540000000.0 -0.004162181405652912 -0.41734367777663683
560000000.0 -0.10171896434562533 0.3553304445474392
580000000.0 -0.29367787196050893 0.16658069050745483
600000000.0 -0.08918301139152188 0.32047992848546364
620000000.0 -0.03221157633992792 -0.34408023705714513
640000000.0 -0.1793948984366573 -0.31893844971086693
660000000.0 -0.1617549598435861 -0.3388452812863171
680000000.0 -0.10366869781390403 0.38392269899874315
700000000.0 0.08715153717489811 0.3998271714831811
720000000.0 0.20580774243359573 0.3674939090830355
740000000.0 -0.40251123722246407 -0.13684158787820386
760000000.0 0.25385038472745847 0.3251000537985336
780000000.0 -0.36469826280204054 -0.1271022027109357
800000000.0 0.3467994020531888 0.0923231378014699
820000000.0 0.12003551745405609 0.2880361250139542
840000000.0 -0.255675045125882 -0.06264919830331384
860000000.0 -0.0002463774070303898 -0.2181667434848259
880000000.0 0.010520084867071103 0.1700048151126619
900000000.0 0.0648558812885974 0.08898479555149728
920000000.0 0.034067730774915116 -0.0582515659398829
940000000.0 -0.04037414042847029 -0.02619737731577852
960000000.0 -0.04453774028012701 -0.0407233266148648
980000000.0 -0.055426654452127765 0.05009786301819226
1000000000.0 0.07637409460881123 -0.04005065887496197
1020000000.0 0.06235731476543054 -0.07606485295334549
1040000000.0 0.07444656859366165 -0.07882443291204064
1060000000.0 -0.08811699881275713 -0.11570601525786067
1080000000.0 0.09588639553851971 -0.13010851211098973
1100000000.0 -0.03080035485630874 -0.18361880956402654
1120000000.0 -0.0881733544218222 0.18865055828721697
1140000000.0 0.16281942011194597 0.18091504212911286
1160000000.0 0.2526587718837543 -0.10911351091719695
1180000000.0 0.2818603055889337 0.13686280289364072
1200000000.0 0.13927260650913506 0.31062903954999943
1220000000.0 -0.2605527749325435 -0.26296597753392476
1240000000.0 0.14077176433925945 0.3637317017734685
1260000000.0 0.09109626569036537 -0.4055407917481315
1280000000.0 -0.4206885288524392 -0.08530836846116163
1300000000.0 0.2295459082219899 0.3758862195565219
1320000000.0 0.4139724878377512 0.1539405973573928
1340000000.0 0.4389392395808919 0.04089871176474243
1360000000.0 0.41953377667791375 0.14866830034017842
1380000000.0 0.27164320316544116 -0.3492195226591588
1400000000.0 -0.4305927674748325 0.05540740315599731
1420000000.0 0.3207492674638978 0.2631296794622197
1440000000.0 -0.07435215394605517 -0.37661633573346753
1460000000.0 -0.3415949934923459 0.05969290102741307
1480000000.0 -0.0013871658469573505 0.3101089668496438
1500000000.0 0.07185659350803908 0.26283951308288755
1520000000.0 -0.1654174212878315 0.17701074176940923
1540000000.0 0.17922235534571418 0.12121510697075791
1560000000.0 -0.12731029350889322 -0.13734720509874382
1580000000.0 0.0854968959106643 0.14523881809638045
1600000000.0 0.13628909503896497 0.04103841231320419
1620000000.0 0.11697762228173025 -0.011686118023050427
1640000000.0 0.09162892733672849 0.02066905993883771
1660000000.0 0.0695689124871906 -0.01182706644985863
1680000000.0 -0.013733383992329944 0.048364288658704346
1700000000.0 -0.007048440343713376 -0.03376737007532109
1720000000.0 -0.00857023757653658 -0.01359460375435511
1740000000.0 -0.011928180443406438 -0.004643436859091706
1760000000.0 0.0020457390545427266 0.03353271799509674
1780000000.0 -0.007085761141341078 -0.0654465442699343
1800000000.0 0.10321620120752699 0.008891987315462124
1820000000.0 0.07605619498247156 0.11524726530058907
1840000000.0 0.13363207108408615 0.11611168290698148
1860000000.0 -0.1255070362610239 0.16983146025687865
1880000000.0 -0.09947003280548711 -0.227451877217365
1900000000.0 0.24496646278097228 0.15189117262377277
1920000000.0 -0.3158077199743657 0.016279141344330894
1940000000.0 0.19902490101225948 0.28031275159838953
1960000000.0 0.26709046002981485 -0.25192406993331057
1980000000.0 -0.16285878990382255 -0.3479190755313426
2000000000.0 -0.22204491292730796 -0.33563000619123085
2020000000.0 -0.42005156169253066 -0.008126862261762556
2040000000.0 -0.3200402767093045 0.29080699811081445
2060000000.0 0.25215737263080795 0.3586836035078502
2080000000.0 0.4266397209540236 -0.09995814064810923
2100000000.0 0.2094892602185379 -0.37723860834461576
2120000000.0 -0.04192427612944738 -0.420898326916839
2140000000.0 -0.21733605993950245 -0.3511182691443403
2160000000.0 0.18177807369326704 -0.35505690485063574
2180000000.0 -0.06180303053073396 -0.3792436486559039
2200000000.0 -0.28785036237284617 -0.23234574040037614
2220000000.0 -0.31680629811427363 -0.16432616894485916
2240000000.0 -0.3497935009056415 0.042085927577532274
2260000000.0 -0.30584750845990477 0.1730410026070699
2280000000.0 -0.17308748497055265 0.3078195233159409
2300000000.0 0.15191654553071315 0.3292485475117008
2320000000.0 0.3667646128592066 0.11081229714223295
2340000000.0 0.2415578006508257 -0.3375168058436715
2360000000.0 -0.4548006555995008 0.02592559902268697
2380000000.0 0.48699277119308954 0.12871844210707536
2400000000.0 -0.5464233390640584 -0.10033193224164508
2420000000.0 0.5488967764736582 -0.2641428541420714
2440000000.0 -0.19900196786258006 0.6281593031313294
2460000000.0 -0.4096315111985396 -0.5686127022423189
2480000000.0 0.7063420546923913 0.19505555310556844
2500000000.0 -0.7547553614842092 0.00805212118861867
2520000000.0 0.7559248520103992 0.13601208114227617
2540000000.0 -0.6919876584898565 -0.3433267863644063
2560000000.0 0.3613171892228862 0.6794245860758161
2580000000.0 0.3379240957327024 -0.6781592069409325
2600000000.0 -0.6696973417652524 0.3078717660163411
2620000000.0 0.666194367510433 0.2478749311524847
2640000000.0 0.6296526335874272 -0.251135959097256
2660000000.0 -0.6144291209324081 -0.16433701498700873
2680000000.0 0.39274019629843815 0.4404237054167173
2700000000.0 -0.1768057289186798 -0.5120927243469717
2720000000.0 -0.01720005993306959 0.4911918628415353
2740000000.0 0.3411091188581174 -0.28273389973143376
2760000000.0 -0.40045383485354225 0.016826441318186575
2780000000.0 0.3094855534057428 0.1999622438542866
2800000000.0 -0.1954375200473918 -0.2800747369893728
2820000000.0 0.2754995471399607 0.17165947853002153
2840000000.0 -0.31317102425222687 -0.025925647816484095
2860000000.0 0.17688065869299843 -0.25695480395517256
2880000000.0 0.2723496794523346 0.14963319432499417
2900000000.0 -0.2521717608317025 0.1813531580199522
2920000000.0 0.2457625639761327 -0.19045409431933225
2940000000.0 -0.30317062613024437 0.07234315141629473
2960000000.0 0.038612280122952314 0.30887204389738826
2980000000.0 0.0974597007030672 0.29624797147975407
3000000000.0 -0.06716206890099634 0.3043674277269639
3020000000.0 -0.30129013165098867 0.07071284371214814
3040000000.0 0.019283924340439487 -0.3048892544817393
3060000000.0 -0.030924808555437368 0.3015730435092841
3080000000.0 0.03167241500770737 -0.2993370386292802
3100000000.0 -0.08627004928591155 0.2861551047591689
3120000000.0 -0.04322213167881979 -0.29330646595708165
3140000000.0 0.24477841614281828 0.15911942971191378
3160000000.0 -0.1756761457876109 -0.21840352735685012
3180000000.0 0.19625682950522938 -0.18050415087029517
3200000000.0 0.23592739693978113 -0.06572492509028344
3220000000.0 0.21002120963388968 -0.055164030821795544
3240000000.0 0.1755627501184996 0.05374123098486127
3260000000.0 0.0476488867841231 0.1385881284857558
3280000000.0 -0.040514872477830026 -0.10203707350450841
3300000000.0 -0.05036743920609802 0.05862720072654481
3320000000.0 -0.04056227539807606 -0.029702925484427583
3340000000.0 0.007146486608283699 -0.02959199657968158
3360000000.0 0.01475706074954737 0.009069833826355345
3380000000.0 0.005267155843357365 0.003718659719009894
3400000000.0 -0.0030122910536552095 -0.005997856619471759
3420000000.0 0.015030899307179971 0.017221655920291856
3440000000.0 -0.015142955551735187 -0.03726028283473102
3460000000.0 -0.0338000379393222 -0.04471262927815217
3480000000.0 -0.070944433808524 -0.010864437811294224
3500000000.0 -0.07334411171748868 0.04527157861453293
3520000000.0 -0.09245068484648436 -0.03087478718306488
3540000000.0 0.04674077356021132 -0.09831540493691335
3560000000.0 -0.03933223808315792 0.11173394393891131
3580000000.0 0.11968956702064888 -0.049580626121035705
3600000000.0 -0.07592014289460444 0.12600083400941092
3620000000.0 -0.149876765252798 -0.05394701831586
3640000000.0 0.06002124109981614 -0.16159564699448783
3660000000.0 0.1208299790288777 -0.14176545217380626
3680000000.0 0.14808880680597306 -0.12401711466541392
3700000000.0 0.05206587462176775 -0.18874822652764903
3720000000.0 0.10148005985465183 -0.16589991927810518
3740000000.0 0.10910232767601039 -0.15187195797793995
3760000000.0 -0.08328921698836998 0.15863178193303779
3780000000.0 0.02105539036583053 -0.1661118828629498
3800000000.0 -0.15782129207750292 -0.001050594824494319
3820000000.0 -0.14622006669187468 0.017478696428929723
3840000000.0 0.06184866854237411 -0.12577087944429022
3860000000.0 -0.13456007309681872 0.048683101273315196
3880000000.0 -0.15158764747877404 0.01333450727591157
3900000000.0 0.05914753099704662 0.1497720318465512
3920000000.0 -0.13692878547922194 -0.09599874639057095
3940000000.0 0.04027721010980332 -0.16596908789790688
3960000000.0 0.0670820991279221 -0.16030030051844038
3980000000.0 -0.16220149038729356 -0.05310170707967215
4000000000.0 -0.1461023665842167 -0.06672631070242635
