!Created with skrf (http://scikit-rf.org).
# Hz S RI R 50.0 
!freq ReS11 ImS11
400000000.0 -0.7885858594000701 0.3757977879147571
420000000.0 0.29482577415386946 0.8208426284657158
440000000.0 0.784381385977108 -0.3051021834118605
460000000.0 0.030634368309399748 -0.79390320248895
480000000.0 0.6972113330816738 0.20673183035597542
500000000.0 -0.5614871523035101 -0.2077743001897571
520000000.0 0.36694148991996395 0.3366783035202169
540000000.0 -0.02423310685364226 -0.4167271538381352
560000000.0 -0.11682576395402981 0.35079901761728677
580000000.0 -0.29668993603454874 0.15974749802930766
600000000.0 -0.09135884518353252 0.3207049594424446
620000000.0 -0.06442416304766013 -0.3386589369109563
640000000.0 -0.19453354588362512 -0.3091167469337164
660000000.0 -0.169779872591252 -0.33459626011494104
680000000.0 -0.03998271030817853 0.3950217325625062
700000000.0 0.11018401126501501 0.3944980458804889
720000000.0 0.20989769323836086 0.3654310160573255
740000000.0 -0.4065537576218914 -0.12397292605135936
760000000.0 0.24452840749072838 0.3318144275487851
780000000.0 -0.3519738028481613 -0.15908835256428186
800000000.0 0.3397980940468818 0.1154906083035352
820000000.0 0.10179465449179027 0.2945604059427945
840000000.0 -0.23929559515662124 -0.10979789720754675
860000000.0 0.02346008379074678 -0.21636385276658518
880000000.0 0.012778638910996655 0.16937088586595603
900000000.0 0.08655598580483163 0.06749082868968562
920000000.0 0.017045579962805292 -0.06550413167269237
940000000.0 -0.024256015481010453 -0.0414109641488142
960000000.0 -0.019978652572137545 -0.05632468485206234
980000000.0 -0.06480386377658251 0.03731596915789845
1000000000.0 0.07973055259052479 -0.03393422466766111
1020000000.0 0.05813348639848547 -0.079482909767939
1040000000.0 0.08766951080200738 -0.06409208427859736
1060000000.0 -0.08981989058161922 -0.1142123606826062
1080000000.0 0.09811282977056711 -0.12845725260510138
1100000000.0 -0.0244758333671453 -0.18419663978784412
1120000000.0 -0.11319891052229464 0.17467407672758178
1140000000.0 0.15450870249739682 0.1876938769392624
1160000000.0 0.2519267209012676 -0.11064947053312787
1180000000.0 0.28563807978690786 0.12778527022493805
1200000000.0 0.1450882695297927 0.3078415709914717
1220000000.0 -0.27830952462571107 -0.24377981364633297
1240000000.0 0.15887962621165258 0.3564776740863517
1260000000.0 0.05168764021986843 -0.4127551740261449
1280000000.0 -0.4245921134156586 -0.06657168671177208
1300000000.0 0.23636154385956845 0.37170619843348307
1320000000.0 0.4116729529615504 0.1599124909998965
1340000000.0 0.4403732142671194 0.022854851060740814
1360000000.0 0.4202779112541011 0.14678643964053825
1380000000.0 0.2675176505005232 -0.3525055963750312
1400000000.0 -0.4306722858905509 0.055363059427187236
1420000000.0 0.3138020058190643 0.27182967722740287
1440000000.0 -0.05080793026691725 -0.3805572340253758
1460000000.0 -0.3442209920978194 0.0390840430378508
1480000000.0 -0.03427998713496822 0.30820651153531153
1500000000.0 0.06499662496110835 0.2643981764045287
1520000000.0 -0.17109287341721455 0.17140228977478025
1540000000.0 0.17229638069433534 0.13029399990505192
1560000000.0 -0.11919205048001798 -0.14409949312996445
1580000000.0 0.0809226825803538 0.14752120355332674
1600000000.0 0.13855718674395168 0.03070449244759831
1620000000.0 0.10934444930436857 -0.040764188157914265
1640000000.0 0.09288955388874412 -0.013074878879248398
1660000000.0 0.048393637093493154 -0.05173791989033666
1680000000.0 0.03499894694892213 0.036774832202840356
1700000000.0 -0.028941582451821525 -0.020608118469166214
1720000000.0 0.016628140909301457 0.002416142151865745
1740000000.0 -0.0035538001911837266 -0.011505256878880637
1760000000.0 0.030175517563028022 0.012109562432926354
1780000000.0 -0.04243930777245546 -0.05004792641838608
1800000000.0 0.0827695535641865 -0.062001942284521216
1820000000.0 0.11930469809795667 0.07013286632342526
1840000000.0 0.1666709338308012 0.06131479579125305
1860000000.0 -0.09501350035469792 0.1900998901770616
1880000000.0 -0.11710304580001651 -0.2202170483918592
1900000000.0 0.2538095222466112 0.1382991650771453
1920000000.0 -0.31705253213681633 0.004876801647885996
1940000000.0 0.16766304010975322 0.3009674864888215
1960000000.0 0.29287243858700024 -0.22158840272729485
1980000000.0 -0.13691531123617273 -0.3584927934365371
2000000000.0 -0.1904942620649515 -0.3543259103189332
2020000000.0 -0.418524922240492 -0.026688054719590716
2040000000.0 -0.33111543651927755 0.2767809304650018
2060000000.0 0.23160858661862999 0.3711652296310645
2080000000.0 0.43233881739813124 -0.06470495126759147
2100000000.0 0.21994766034116667 -0.3696611925564035
2120000000.0 -0.07866883612946309 -0.41424554797821866
2140000000.0 -0.2488771718460922 -0.3276680894143615
2160000000.0 0.13032439116006234 -0.3753845789661213
2180000000.0 -0.10406830733530925 -0.36871825749278364
2200000000.0 -0.33104772348993383 -0.16224470680992298
2220000000.0 -0.33951928049362906 -0.10817113207689417
2240000000.0 -0.3351739567204155 0.10686441317971769
2260000000.0 -0.2922347746446612 0.19463975274254738
2280000000.0 -0.13372461890494183 0.3266661000833105
2300000000.0 0.20542779102048808 0.29940042809518475
2320000000.0 0.37708045898954995 0.07087523029105228
2340000000.0 0.22870347056716506 -0.3468090724700159
2360000000.0 -0.45507252535083237 0.030437359624737436
2380000000.0 0.4829350256367163 0.14548262262832934
2400000000.0 -0.5396696268398871 -0.1321556054979092
2420000000.0 0.5659794376463728 -0.22443792543620752
2440000000.0 -0.24760859344547206 0.610312704162853
2460000000.0 -0.37772151183160535 -0.589033106816563
2480000000.0 0.6981303883674573 0.2185301638588779
2500000000.0 -0.7416606091450495 -0.13603649409261395
2520000000.0 0.7551617904919835 0.13462239591707195
2540000000.0 -0.6885241016341318 -0.3473411774504999
2560000000.0 0.3860800159547504 0.665082555662615
2580000000.0 0.24035375206482928 -0.7179639289392346
2600000000.0 -0.6517112682747042 0.3447822799030271
2620000000.0 0.6970385924180876 0.14170485391428783
2640000000.0 0.6084060408625701 -0.2991474347814908
2660000000.0 -0.6338733073717622 -0.058228958912113486
2680000000.0 0.4653342233178015 0.36268070463002644
2700000000.0 -0.2312145742332953 -0.4903345064902827
2720000000.0 0.0004477162409643196 0.4915298882183861
2740000000.0 0.3539501632017486 -0.267240014205809
2760000000.0 -0.4012177211614996 0.0017432457538559072
2780000000.0 0.29782244876445796 0.21694560537735566
2800000000.0 -0.19854830912718988 -0.2779437990225671
2820000000.0 0.25028844962966207 0.2065959453482261
2840000000.0 -0.3105369857140526 -0.0467631576237984
2860000000.0 0.15159548065991263 -0.2718358647243934
2880000000.0 0.28143453257100254 0.13055793975396654
2900000000.0 -0.23586982538994278 0.2010404241201414
2920000000.0 0.20464130209229026 -0.23263239795210272
2940000000.0 -0.2955438095250288 0.09698196135756022
2960000000.0 0.03375140520874356 0.30846602722266864
2980000000.0 0.15573066044407968 0.2699955193306773
3000000000.0 -0.042571080465786844 0.30869289544646666
3020000000.0 -0.2913263243662521 0.10517529175721035
3040000000.0 0.12228340813037462 -0.280124543915756
3060000000.0 0.005553226423403887 0.302672134936553
3080000000.0 0.015696980844849804 -0.3007089128911106
3100000000.0 -0.05226112270384729 0.29432937432305345
3120000000.0 -0.12906806224537698 -0.2670858164182275
3140000000.0 0.23319798153353788 0.17469726892417778
3160000000.0 -0.1961908718027457 -0.19972021271984577
3180000000.0 0.1539434621276085 -0.2182890451520728
3200000000.0 0.22542581796192987 -0.09524446937087207
3220000000.0 0.2081524109406841 -0.062487116507975886
3240000000.0 0.1828614116231199 0.02568033054699174
3260000000.0 0.06286881608653096 0.1333976440019406
3280000000.0 -0.06186324828260861 -0.09111261934279569
3300000000.0 -0.06167531004045422 0.04679059164145856
3320000000.0 -0.022690022129224923 -0.04546615590766678
3340000000.0 0.023625784093592093 -0.019243515323348764
3360000000.0 -0.010287898172200756 0.014964058096906777
3380000000.0 -0.0004728736274272409 -0.0077119232610616435
3400000000.0 -0.0014351160573051521 -0.005740769892469875
3420000000.0 0.02015480737609348 0.007420648618617521
3440000000.0 -0.025099067740784624 -0.02937714722294059
3460000000.0 -0.053808696182750436 -0.009991503263586426
3480000000.0 -0.062229820481276656 0.03420966503166543
3500000000.0 0.009819914186926758 0.0854751701294465
3520000000.0 -0.09655455760634317 0.008058495644757087
3540000000.0 -0.017110095245067704 -0.10734527925007546
3560000000.0 -0.012916197320327281 0.11731657476968553
3580000000.0 0.07853468708971945 -0.10293681200215021
3600000000.0 -0.011359198465667134 0.14525894950377902
3620000000.0 -0.15892213040078076 -0.0021413608117962528
3640000000.0 -0.013725299397376337 -0.17200344904890105
3660000000.0 0.10554185671106255 -0.15278102650242356
3680000000.0 0.08886806203311037 -0.17211236379956965
3700000000.0 -0.026315299162050696 -0.19360922709350759
3720000000.0 0.02885135606886295 -0.1929377528186902
3740000000.0 0.06631219318576144 -0.17607097209179046
3760000000.0 -0.05122712087609166 0.17262476888015768
3780000000.0 0.046554951468158516 -0.16297415029768902
3800000000.0 -0.1554178147051177 -0.029842411819967406
3820000000.0 -0.1414552090299627 -0.04669958077300592
3840000000.0 0.04551357518725848 -0.1333269165198149
3860000000.0 -0.13237130506771944 0.056237482024756535
3880000000.0 -0.15292644788741486 0.00370014623089046
3900000000.0 0.027752124043094774 0.1605382001686168
3920000000.0 -0.11150401850871411 -0.12625711539960527
3940000000.0 0.09063108418186737 -0.1470164944033517
3960000000.0 0.13318818318626763 -0.11429946487351342
3980000000.0 -0.10658277815863627 -0.13573901330660734
4000000000.0 -0.04226301319117039 -0.15726608498194536
