!Created with skrf (http://scikit-rf.org).
# Hz S RI R 50.0 
!freq ReS11 ImS11
400000000.0 -0.79356520526787 0.36851092194383384
420000000.0 0.2880448967521325 0.8231521249865367
440000000.0 0.78034029440723 -0.31671227573876737
460000000.0 0.01903681788008087 -0.7937631179142719
480000000.0 0.6937269775880928 0.21816711061168034
500000000.0 -0.5558485653669861 -0.22343236573806702
520000000.0 0.35657916630296954 0.34655128074241986
540000000.0 -0.05476256402166076 -0.41388150761278814
560000000.0 -0.11753799947724053 0.35008568922231714
580000000.0 -0.3070901889171255 0.1403579502858149
600000000.0 -0.08671709638160083 0.32184113557257077
620000000.0 -0.03119770480169083 -0.34353788765158544
640000000.0 -0.18482686261013287 -0.3154640795279047
660000000.0 -0.15128108003812515 -0.3439756728535778
680000000.0 -0.09711272766985656 0.38530951480667885
700000000.0 0.0804863731978579 0.40120054950644934
720000000.0 0.1929517027414854 0.3743617847158165
740000000.0 -0.4052968492957538 -0.1292404123884651
760000000.0 0.23288691661141148 0.3398686823236345
780000000.0 -0.36395455914205915 -0.12974282659765377
800000000.0 0.3466896253390498 0.09328187949855228
820000000.0 0.12167449105240365 0.28716060512843666
840000000.0 -0.24974441279155107 -0.08304911759505473
860000000.0 0.013056307048681513 -0.21763446929865515
880000000.0 0.01656455581496994 0.1693494109649237
900000000.0 0.07518491250288713 0.0798488424947975
920000000.0 0.021037860774042898 -0.06419104136208881
940000000.0 -0.03550584171021042 -0.03261842297882361
960000000.0 -0.030646326316120825 -0.051940665538211445
980000000.0 -0.05925718433606629 0.04533298901187006
1000000000.0 0.07871581462329906 -0.035073531448610924
1020000000.0 0.06582371291318195 -0.0729549836858198
1040000000.0 0.08481036100827796 -0.0676987341625102
1060000000.0 -0.09016597481358027 -0.114108901899086
1080000000.0 0.08419596652506693 -0.13786269641534743
1100000000.0 -0.023660551842163213 -0.184304565029418
1120000000.0 -0.07463016412043845 0.1943121671330888
1140000000.0 0.16939327357777467 0.17465638976886225
1160000000.0 0.24805720946978135 -0.11918582346054646
1180000000.0 0.283905579077475 0.13257518728030945
1200000000.0 0.15570808953141957 0.3029720757215656
1220000000.0 -0.26756431909963296 -0.2558389793937058
1240000000.0 0.14254172293179643 0.36305246513428424
1260000000.0 0.07925727970799382 -0.40824503634015097
1280000000.0 -0.4225124807664616 -0.07675255411552437
1300000000.0 0.23863347835781085 0.37013211425940223
1320000000.0 0.41344079759972935 0.15520266912771202
1340000000.0 0.4392348299231549 0.03631135027582464
1360000000.0 0.4196961654043185 0.14776448934841513
1380000000.0 0.2656143581333399 -0.35377129282783687
1400000000.0 -0.4291110163761615 0.0650104454805547
1420000000.0 0.32504027477424374 0.2577692966730311
1440000000.0 -0.08316264500186232 -0.37488645028048023
1460000000.0 -0.34062979208338007 0.06531975524793168
1480000000.0 0.0014566893917447948 0.309962573478273
1500000000.0 0.06960750673806436 0.26334701518445675
1520000000.0 -0.15912801315613884 0.1826695335880288
1540000000.0 0.1813702056368238 0.11771584414787174
1560000000.0 -0.11948163930940567 -0.14433805985984427
1580000000.0 0.07735862794607253 0.14989004194494407
1600000000.0 0.13586501028402762 0.04212868562168601
1620000000.0 0.11722161415511266 -0.005589137499708406
1640000000.0 0.08961318523197252 0.027623473946335977
1660000000.0 0.06895786680088496 -0.01506471226780238
1680000000.0 -0.0054617779219381804 0.04995487678375606
1700000000.0 -0.030835739518429658 -0.016282394870166906
1720000000.0 0.0041489891115419125 -0.015416721486293465
1740000000.0 -0.011955310997984227 -0.004165052739489131
1760000000.0 0.009150127570649591 0.03224688958851701
1780000000.0 -0.012718056096487811 -0.06452584787839949
1800000000.0 0.1036504304648798 0.0016880842620133362
1820000000.0 0.0751443599100908 0.11554006177609719
1840000000.0 0.13720502900276707 0.11185231834613568
1860000000.0 -0.12005205197838605 0.1737486110856038
1880000000.0 -0.11236620586701243 -0.221592487356904
1900000000.0 0.2462021524854853 0.15017733977955824
1920000000.0 -0.31574141334180333 0.01887196481621859
1940000000.0 0.19421285770085672 0.2838323018892855
1960000000.0 0.27023979421405847 -0.24869976462618001
1980000000.0 -0.15607296207885876 -0.3510597558178898
2000000000.0 -0.21529637474761382 -0.3399026399325702
2020000000.0 -0.42003499812230805 -0.0062065460419626454
2040000000.0 -0.31971250791354494 0.29104507930640294
2060000000.0 0.24417560800446642 0.3641167155282254
2080000000.0 0.4332735683744133 -0.06508641111329602
2100000000.0 0.2153423538091035 -0.37368452854712175
2120000000.0 -0.05748162996753817 -0.4188716958920394
2140000000.0 -0.2442183118629434 -0.3326920503562458
2160000000.0 0.16012527204443455 -0.36496719892607693
2180000000.0 -0.0802136311705927 -0.37583035477181076
2200000000.0 -0.29191505527857414 -0.2273408174693094
2220000000.0 -0.29981601817739495 -0.19422412309170994
2240000000.0 -0.349896488638025 0.04198967387025718
2260000000.0 -0.2964058639740373 0.1890723821667054
2280000000.0 -0.16743336207965812 0.31106399236253657
2300000000.0 0.15387957049684975 0.3284738096275978
2320000000.0 0.3700670836888945 0.10022447284354409
2340000000.0 0.24954008413108958 -0.33133009744047615
2360000000.0 -0.45448567328761635 0.034546636449394146
2380000000.0 0.4867222210094254 0.13017483154779017
2400000000.0 -0.544258492843795 -0.11124097957298976
2420000000.0 0.5644165956256819 -0.22918939723867732
2440000000.0 -0.21136182343696105 0.6238746166812955
2460000000.0 -0.41245464183507097 -0.5662625125740608
2480000000.0 0.700466940432867 0.21551653616610372
2500000000.0 -0.7548362083575229 -0.011417901818361888
2520000000.0 0.7621918962796014 0.09304810064193562
2540000000.0 -0.6887861395502035 -0.3494209887166433
2560000000.0 0.36262075982281045 0.6788157846590739
2580000000.0 0.3259182515858031 -0.6840880047287908
2600000000.0 -0.667715598563271 0.31238222451187514
2620000000.0 0.6685307964039241 0.24176109949567054
2640000000.0 0.634516995348627 -0.2388326340535813
2660000000.0 -0.6082057785658518 -0.18640565309226237
2680000000.0 0.38482848643402834 0.44734705390286017
2700000000.0 -0.1753365824952635 -0.5126658941124562
2720000000.0 -0.024276977465187994 0.4909829350564699
2740000000.0 0.34266253648451866 -0.281045355058527
2760000000.0 -0.4006378617624242 0.01290740918693343
2780000000.0 0.30160974342430363 0.21157399199373572
2800000000.0 -0.19825707885188004 -0.27822191881491476
2820000000.0 0.274183331817435 0.17369256757961893
2840000000.0 -0.31313641517195645 -0.02580443907855303
2860000000.0 0.14452558627780673 -0.27606300930951017
2880000000.0 0.27346770109239893 0.14795244697491594
2900000000.0 -0.239584516376295 0.1975356937918093
2920000000.0 0.23312671562115309 -0.20526514987776798
2940000000.0 -0.29880892320805125 0.08847013665010746
2960000000.0 0.04216749324209133 0.30851497073437206
2980000000.0 0.08564001154780343 0.29928603530257925
3000000000.0 -0.08350059990397046 0.2997564349294954
3020000000.0 -0.3002137374433049 0.07507660592991611
3040000000.0 0.06175711972526789 -0.29902411292678327
3060000000.0 -0.0268614863362728 0.30170641255561936
3080000000.0 0.04637424791232624 -0.29720758624243765
3100000000.0 -0.043448346290333555 0.29585949906510295
3120000000.0 -0.06284573979752965 -0.2893913940275886
3140000000.0 0.24969855187478754 0.15069929310044916
3160000000.0 -0.18050800271305575 -0.21469149359031198
3180000000.0 0.1750890129057087 -0.20130300204723833
3200000000.0 0.2252404424167187 -0.09602665302208804
3220000000.0 0.20741577239519612 -0.06411662374816297
3240000000.0 0.17534699554165076 0.05656664073101966
3260000000.0 0.0612217975868091 0.13358333189448013
3280000000.0 -0.07147170209195192 -0.08364863612854402
3300000000.0 -0.06557742313371528 0.041442331313540214
3320000000.0 -0.027586598284921982 -0.042332716889923704
3340000000.0 0.004295889629303132 -0.03066375186636633
3360000000.0 0.01678803340021125 -0.005201139045337919
3380000000.0 -0.005830990275483677 0.003540031346578157
3400000000.0 -0.003373967476038999 -0.005637130296863326
3420000000.0 0.0020032259867813905 0.022551781182806728
3440000000.0 -0.015686705682705564 -0.03658812262084371
3460000000.0 -0.03594768697986841 -0.0426450531298899
3480000000.0 -0.059441957493018414 -0.03910855448349838
3500000000.0 -0.049807465823117306 0.07025231189020945
3520000000.0 -0.09522328670325009 -0.01881672786025063
3540000000.0 0.045050490387764264 -0.09868496184856916
3560000000.0 -0.02046332923163711 0.1166646108192953
3580000000.0 0.11392462644136271 -0.06141941117341124
3600000000.0 -0.07464841712469061 0.12619554982580253
3620000000.0 -0.15245121938099254 -0.0451940813992088
3640000000.0 0.03561013554978708 -0.1686791086686629
3660000000.0 0.10881563894563281 -0.1507942231263633
3680000000.0 0.131143472482554 -0.1421642948682467
3700000000.0 0.03092251126812025 -0.19367237815190097
3720000000.0 0.0752533216426773 -0.18054593806432204
3740000000.0 0.09728796938482143 -0.16036221368481554
3760000000.0 -0.07937572555393883 0.161267288550174
3780000000.0 0.026590125894543147 -0.1658701058131512
3800000000.0 -0.15839691103319506 0.0005525587605075561
3820000000.0 -0.14784036902963962 0.00421248924363154
3840000000.0 0.07328304004122485 -0.12013623529720448
3860000000.0 -0.13723706078349787 0.04283126352428372
3880000000.0 -0.15201818318258037 0.011500131836992864
3900000000.0 0.058869745213025036 0.15032942454670342
3920000000.0 -0.1381578556096168 -0.09508825708796065
3940000000.0 0.034534322237423073 -0.16749151339491947
3960000000.0 0.08091132052965956 -0.1543795501318222
3980000000.0 -0.15861902468625524 -0.0639508184446748
4000000000.0 -0.12750540160723314 -0.09787159622447393
