!Created with skrf (http://scikit-rf.org).
# Hz S RI R 50.0 
!freq ReS11 ImS11
400000000.0 -0.8138907334358746 0.3142035944296801
420000000.0 0.26585345122326665 0.8314708577123205
440000000.0 0.7783117093445739 -0.3223031970048539
460000000.0 0.04370850965683298 -0.7922557795032861
480000000.0 0.6896614750976336 0.23061930254583726
500000000.0 -0.5584684481978179 -0.22239064107849973
520000000.0 0.3922624848945602 0.304908055510127
540000000.0 -0.000394829482229117 -0.41528337363179113
560000000.0 -0.189231020118547 0.31764742017490605
580000000.0 -0.2495031155680139 0.22968888907553328
600000000.0 -0.008091519352267443 0.3318193868886542
620000000.0 0.00020113398809814921 -0.34444641107860036
640000000.0 -0.16497966289846097 -0.32654859702276046
660000000.0 -0.16985629634054844 -0.33512233628812726
680000000.0 -0.04716474039738206 0.39399173526074277
700000000.0 0.1042231978712553 0.39576598599844937
720000000.0 0.17560455260334493 0.38310084128907096
740000000.0 -0.401719510410121 -0.13999635572715016
760000000.0 0.2293510301448362 0.3429737006031699
780000000.0 -0.35590499545075416 -0.14968921364835094
800000000.0 0.3434448336667894 0.10401116551238762
820000000.0 0.10303206625821064 0.29430496338872825
840000000.0 -0.24183382505060946 -0.10502870707696041
860000000.0 0.0355982014516906 -0.2145509647916841
880000000.0 0.014004063894383894 0.1690283052727106
900000000.0 0.07550936670072024 0.08012841668624657
920000000.0 0.006847894074324661 -0.06730786937480043
940000000.0 -0.022130337947463163 -0.04257626802253658
960000000.0 -0.03452099186035915 -0.04890521871363676
980000000.0 -0.05934665278053329 0.045365300407861776
1000000000.0 0.06915187604518577 -0.051291746862642866
1020000000.0 0.061125877283960954 -0.07700429407860941
1040000000.0 0.07353374481209772 -0.0803847571905185
1060000000.0 -0.1098982819153119 -0.09512296085968121
1080000000.0 0.10316875653946692 -0.12435577275804709
1100000000.0 -0.006313792511069696 -0.18608766386552383
1120000000.0 -0.11004787495606638 0.17684145868535397
1140000000.0 0.14908037747617184 0.19213061734448705
1160000000.0 0.2481628620312394 -0.11934087205241081
1180000000.0 0.27452423005937393 0.1505562620322947
1200000000.0 0.1359784083944209 0.31187641697789403
1220000000.0 -0.24575479103305511 -0.2762554130005449
1240000000.0 0.1500941301646681 0.360019875782868
1260000000.0 0.06024904078596715 -0.41169920011762134
1280000000.0 -0.4225011727495494 -0.07818856355218835
1300000000.0 0.23439574828158852 0.3729239026671427
1320000000.0 0.4126449591912128 0.15706333753110338
1340000000.0 0.44038499870909986 0.01947471251985417
1360000000.0 0.4242398702251951 0.1351820376663541
1380000000.0 0.2720133975780649 -0.34921044028142695
1400000000.0 -0.43177619487037433 0.04757840135907334
1420000000.0 0.31082973402242803 0.2756824826051983
1440000000.0 -0.06641333580387199 -0.3782326736276423
1460000000.0 -0.34417693883343675 0.04062589051954191
1480000000.0 -0.010979710802971047 0.31035603146019514
1500000000.0 0.06471487898725001 0.2644953944516606
1520000000.0 -0.17322543808277424 0.16965418501955787
1540000000.0 0.18021847381050177 0.11918921277754908
1560000000.0 -0.12056884067412602 -0.1434143607605914
1580000000.0 0.050321924623178936 0.16091169899643604
1600000000.0 0.13997306808810211 0.02386794579378134
1620000000.0 0.11373131626775829 -0.02624696546027644
1640000000.0 0.09365966164125412 0.005608805649069641
1660000000.0 0.057353356694391566 -0.04164572484557096
1680000000.0 0.03828317220484269 0.03392727241499697
1700000000.0 -0.02967238973440603 -0.01944652481600107
1720000000.0 0.007256590197454676 -0.014743590878178085
1740000000.0 -0.00569090879115373 -0.010871630961080896
1760000000.0 0.008593323076359861 0.031501100866740635
1780000000.0 -0.0258932203354244 -0.060559487307538656
1800000000.0 0.09524364534792884 -0.04017447055552368
1820000000.0 0.10823980902496477 0.08648862977370092
1840000000.0 0.15560604315639334 0.08528770652000264
1860000000.0 -0.11494561660927845 0.17852927011971245
1880000000.0 -0.1007027931724359 -0.2276099446529628
1900000000.0 0.2549884572305737 0.1354294844668732
1920000000.0 -0.3157040030340672 0.024093336769086725
1940000000.0 0.1784141066813286 0.29451508996610876
1960000000.0 0.27802260392837946 -0.2398619871639271
1980000000.0 -0.15227848285384432 -0.35235888373666446
2000000000.0 -0.2036870728042347 -0.3471136788959548
2020000000.0 -0.41946213964386886 -0.004735817696633409
2040000000.0 -0.3268144968778943 0.2823896267420426
2060000000.0 0.25350264907297126 0.3568788369997117
2080000000.0 0.4318026020025265 -0.07131219711944008
2100000000.0 0.20663152022327302 -0.377683277004229
2120000000.0 -0.04860007774553324 -0.41950782447851437
2140000000.0 -0.2436627771065182 -0.3323141792423849
2160000000.0 0.14459417281523576 -0.3707679845720315
2180000000.0 -0.09342563444272112 -0.3718024235146797
2200000000.0 -0.3115149862268234 -0.19709810727593485
2220000000.0 -0.33139969532708485 -0.1314448503737045
2240000000.0 -0.34814423943592276 0.05106687020286781
2260000000.0 -0.30317712267568614 0.1765029369192938
2280000000.0 -0.13786783910101696 0.3247363063844557
2300000000.0 0.19903367202074115 0.3034919091850654
2320000000.0 0.3757894851327072 0.07540714914517134
2340000000.0 0.22244054250806833 -0.35059256964850777
2360000000.0 -0.45472388870660574 0.029716033937583514
2380000000.0 0.48479186444604705 0.1384317129726739
2400000000.0 -0.5425959061773941 -0.119215102809869
2420000000.0 0.5613783393862843 -0.2358946470880943
2440000000.0 -0.2442263008888624 0.6117153827485002
2460000000.0 -0.39468393698130083 -0.5782561884366815
2480000000.0 0.6858637515460947 0.2563988731176963
2500000000.0 -0.7523321109139636 -0.05396287028284632
2520000000.0 0.7598154987495023 0.11093050326652105
2540000000.0 -0.675599402577614 -0.3728882603366844
2560000000.0 0.35859932943921247 0.6807894598960901
2580000000.0 0.233498446306849 -0.7206770275316323
2600000000.0 -0.662845042617359 0.3236171862871606
2620000000.0 0.6952746804348015 0.15049935911751197
2640000000.0 0.609900876971662 -0.296182063135138
2660000000.0 -0.6276725332696811 -0.10695713149807966
2680000000.0 0.46570574608271015 0.362786853570003
2700000000.0 -0.21609817225976372 -0.49722723926189377
2720000000.0 -0.015603803767934776 0.4915155773966685
2740000000.0 0.34911731195066364 -0.27389524969864215
2760000000.0 -0.40136007018389086 0.0030571070939907972
2780000000.0 0.30575106139681074 0.20569057986661657
2800000000.0 -0.20517775175872102 -0.2730694903860201
2820000000.0 0.24999554158601844 0.20729749832075106
2840000000.0 -0.3125825690376031 -0.032584454913499046
2860000000.0 0.15078394182921676 -0.27248074782506193
2880000000.0 0.27570499554199374 0.14278200686769435
2900000000.0 -0.22557946125716696 0.2127308071960007
2920000000.0 0.20023221316325351 -0.23701633549584925
2940000000.0 -0.2962247665941014 0.09574811122110967
2960000000.0 0.06047621861337182 0.304769263196814
2980000000.0 0.14264893352551244 0.27768206906499593
3000000000.0 -0.017391170681182726 0.3114339608296906
3020000000.0 -0.28603812731616457 0.11881898950413404
3040000000.0 0.0905842883015791 -0.2919945862450363
3060000000.0 0.01879924756007329 0.3029091060568922
3080000000.0 0.03343168175869575 -0.29968508670885086
3100000000.0 -0.0809924126133811 0.28768914589452943
3120000000.0 -0.030596901490136427 -0.2946899517592808
3140000000.0 0.2332604132778472 0.17560761401437225
3160000000.0 -0.17109339510473157 -0.22144640686635622
3180000000.0 0.1805807019416448 -0.1966897743378728
3200000000.0 0.24051114987821057 -0.04390995372727619
3220000000.0 0.21449767581185775 -0.03466271019734691
3240000000.0 0.18139765453808207 0.030675563311063424
3260000000.0 0.0628746904020997 0.13221699940506076
3280000000.0 -0.055701162999038045 -0.09436546094665613
3300000000.0 -0.03958758624735606 0.06565436511621793
3320000000.0 -0.04067892990569134 -0.02862106849045147
3340000000.0 -0.016661867000425785 -0.02432262934449236
3360000000.0 0.017230195687825405 0.0002652096567440697
3380000000.0 -0.0010506634982176818 -0.006733986134202428
3400000000.0 -0.004055405531186202 -0.005855042140969074
3420000000.0 -0.02044488261579167 0.009231749470014941
3440000000.0 -0.032518248866693196 -0.022504226589123707
3460000000.0 -0.04738319177626475 -0.02884954992881805
3480000000.0 -0.06951156722327514 -0.017679964035783723
3500000000.0 -0.04402339866549104 0.07470907735837173
3520000000.0 -0.08914425418196013 -0.03992996543208549
3540000000.0 0.07226767446236063 -0.08160364445537435
3560000000.0 -0.05207297869723201 0.10679163178020319
3580000000.0 0.12494729978051577 -0.035423500318984606
3600000000.0 -0.08285630862543218 0.11980855785800992
3620000000.0 -0.14523037636897895 -0.06448429738188613
3640000000.0 0.06452362237513268 -0.1595077456109572
3660000000.0 0.14734722071460638 -0.11313789700650145
3680000000.0 0.1382018283380221 -0.13500184797264528
3700000000.0 0.029762424491637657 -0.19254919056975162
3720000000.0 0.07782556578771663 -0.17820865647361828
3740000000.0 0.10932134779966986 -0.1524595577631164
3760000000.0 -0.0793706611321174 0.16061755259132843
3780000000.0 0.046159406402997566 -0.16158657215503774
3800000000.0 -0.1487994686424004 -0.05156617023978771
3820000000.0 -0.13857850367712735 -0.05203964862205179
3840000000.0 0.07101134885086229 -0.12085037542878657
3860000000.0 -0.13356193272053105 0.04993325167204119
3880000000.0 -0.15190979374909236 -0.0025203579235241226
3900000000.0 0.034821521952168304 0.15821286459472486
3920000000.0 -0.11571546578474014 -0.12084821072958987
3940000000.0 0.049664877764767135 -0.1638093052799142
3960000000.0 0.10483833512536472 -0.13941118279245077
3980000000.0 -0.13297318994193993 -0.10827118549503138
4000000000.0 -0.10429697348604555 -0.12419044585090942
