!Created with skrf (http://scikit-rf.org).
# Hz S RI R 50.0 
!freq ReS11 ImS11
400000000.0 -0.8132429899743159 0.31613814055403583
420000000.0 0.30434138040877445 0.8182726069850772
440000000.0 0.7879517348482319 -0.29772221658300446
460000000.0 0.07998535768121383 -0.7901066452768231
480000000.0 0.6966882528033567 0.20935717691356973
500000000.0 -0.5561586872125638 -0.2277737023146703
520000000.0 0.3787296724329176 0.32171324617470987
540000000.0 0.018328101566854313 -0.41635356228762027
560000000.0 -0.1290409321372437 0.34592590853312966
580000000.0 -0.2990462722403746 0.15817982796155852
600000000.0 0.044095830845333056 0.3297979971800812
620000000.0 -0.037958226201001956 -0.34318048863783035
640000000.0 -0.13859267142547285 -0.33782606087190165
660000000.0 -0.1407211489999132 -0.34903271022535026
680000000.0 -0.03530461830667369 0.39557477451751516
700000000.0 0.099843941133292 0.3966072434650529
720000000.0 0.15796059450218683 0.39070938404638056
740000000.0 -0.40877385688281836 -0.11660849529918299
760000000.0 0.2295240296086813 0.34251961840724626
780000000.0 -0.35315743630736895 -0.1559390563521281
800000000.0 0.3423157218993724 0.1081369039761143
820000000.0 0.11577747549031363 0.28916391627045873
840000000.0 -0.24968127635200807 -0.08451751487858389
860000000.0 0.01556392517594389 -0.217076815761058
880000000.0 0.024620672219477262 0.1680493369030305
900000000.0 0.0853017341787253 0.06929876416939555
920000000.0 -0.0030136555746624427 -0.06755673843352442
940000000.0 -0.0226077254456158 -0.04222456823372496
960000000.0 -0.032039909565074985 -0.05065916735907439
980000000.0 -0.058341711617452774 0.04692893903906725
1000000000.0 0.0754927238377787 -0.04150168809762693
1020000000.0 0.058355668934143734 -0.07920806772068102
1040000000.0 0.07271489325653487 -0.08096273309167022
1060000000.0 -0.09379693562863613 -0.11111443238428434
1080000000.0 0.08336984962553139 -0.13865483808785845
1100000000.0 -0.021239270233957382 -0.1849212183047056
1120000000.0 -0.10340691474849042 0.1811923924016657
1140000000.0 0.15217906384324276 0.18997488112905306
1160000000.0 0.2571024528948311 -0.09906129919654336
1180000000.0 0.2701777569435983 0.15830449764918395
1200000000.0 0.10983491986573864 0.32200295555920927
1220000000.0 -0.23442184311488193 -0.2859606485843346
1240000000.0 0.12890539231531803 0.368028868160138
1260000000.0 0.07673350966546325 -0.40862800421419737
1280000000.0 -0.41819460963130994 -0.0978493145722835
1300000000.0 0.21957494486103254 0.38169228473839567
1320000000.0 0.41265119468399863 0.15661905894127034
1340000000.0 0.44019106412492165 0.020254466787130075
1360000000.0 0.4224526341940982 0.14052740047917633
1380000000.0 0.27277963635064223 -0.34857866827016415
1400000000.0 -0.4300326917799263 0.06040624700553936
1420000000.0 0.31735457356546143 0.26808476885381005
1440000000.0 -0.0644885113749142 -0.3787435932833127
1460000000.0 -0.3426662639951384 0.0555382713369565
1480000000.0 -0.019934623691244227 0.3102141113679095
1500000000.0 0.07141888074792264 0.26334961421658015
1520000000.0 -0.16397149342469589 0.17887827934370013
1540000000.0 0.17565120507478996 0.12661647312789326
1560000000.0 -0.11377878621602337 -0.14903205015103624
1580000000.0 0.057036396488300084 0.1586926078162226
1600000000.0 0.1292552317019572 0.05955994853869104
1620000000.0 0.1168994909960371 0.0007619082961533174
1640000000.0 0.09339824282881931 0.009430640138563616
1660000000.0 0.059943496416270545 -0.03764414840840527
1680000000.0 0.0026398103542453945 0.0506024921459878
1700000000.0 0.00296826554398063 -0.03463605968501662
1720000000.0 0.004023749559291577 -0.01592689408142469
1740000000.0 0.0054512690807288575 -0.011683860836672557
1760000000.0 -0.0033699172416416824 0.03269820458260106
1780000000.0 -0.009577704008546559 -0.0651367249676321
1800000000.0 0.10075772910968094 -0.021373379458770828
1820000000.0 0.0981361103862962 0.09742873606200732
1840000000.0 0.15203166975421534 0.0909880785892891
1860000000.0 -0.1081274045703364 0.1824112682710868
1880000000.0 -0.11093601504994773 -0.22275116772121561
1900000000.0 0.2549473527043904 0.1353575280961365
1920000000.0 -0.3158033094170118 0.02295477569090216
1940000000.0 0.18491287669768758 0.29041502781771544
1960000000.0 0.27305916496098404 -0.24552328242798344
1980000000.0 -0.1624155879370318 -0.3479545745371639
2000000000.0 -0.21007291611716367 -0.3435675224533079
2020000000.0 -0.41990849673083586 0.0007307925231907947
2040000000.0 -0.3102650388875634 0.300722949786864
2060000000.0 0.23882511686318672 0.3672547719605302
2080000000.0 0.4308788053881182 -0.07771595658794485
2100000000.0 0.21539384567973346 -0.373015329909313
2120000000.0 -0.032034144287834396 -0.4214516781374163
2140000000.0 -0.22707005047697745 -0.343836630882434
2160000000.0 0.16282574139469838 -0.36320729952672637
2180000000.0 -0.08191551123822387 -0.3746740896157478
2200000000.0 -0.30416606581475575 -0.20851513954320192
2220000000.0 -0.3103137697095308 -0.17482382625924808
2240000000.0 -0.3434329877317225 0.07534694075948306
2260000000.0 -0.30608728148547504 0.17159158064062877
2280000000.0 -0.14271401975933012 0.3226818551928222
2300000000.0 0.19761678778108724 0.3042062692444458
2320000000.0 0.3759684166989111 0.0749760413640496
2340000000.0 0.2363576551683141 -0.3412424543189937
2360000000.0 -0.45510317598337896 0.024018471269829623
2380000000.0 0.4865901260688845 0.13263695124396618
2400000000.0 -0.5405712175411895 -0.12823768068075733
2420000000.0 0.569186324309517 -0.2164771558668739
2440000000.0 -0.23483099839565696 0.6155277850380542
2460000000.0 -0.36474948861363127 -0.5975955112503009
2480000000.0 0.6770305736227948 0.2792748419236928
2500000000.0 -0.752682625328746 -0.049226906925739694
2520000000.0 0.7611774640262536 0.1005848040690382
2540000000.0 -0.6898821657160189 -0.3463715459114733
2560000000.0 0.33446134148019835 0.6934088446875085
2580000000.0 0.25382575479478364 -0.7143017104869848
2600000000.0 -0.6733178343832982 0.3024824265654927
2620000000.0 0.6871041598457323 0.18619027135625676
2640000000.0 0.6209385794942966 -0.27307392498766175
2660000000.0 -0.6183984726888504 -0.15199080772423434
2680000000.0 0.40023817281674917 0.43373742025855244
2700000000.0 -0.17676998416693768 -0.5125638182275889
2720000000.0 -0.04889642222195281 0.48929106809820844
2740000000.0 0.35047691713650214 -0.27195708482681147
2760000000.0 -0.4012408313926141 0.008436477809922181
2780000000.0 0.30064072476771414 0.21282463679903751
2800000000.0 -0.2072593536930525 -0.27128805081388013
2820000000.0 0.2592607240638754 0.19500971089415806
2840000000.0 -0.3131525302415742 -0.02414038152661084
2860000000.0 0.15880400324322735 -0.26832434334933214
2880000000.0 0.2848661745974003 0.12349879685837764
2900000000.0 -0.2446718451184281 0.191845242111248
2920000000.0 0.21076534109784725 -0.22843435856167352
2940000000.0 -0.30266009374364033 0.07500064491394197
2960000000.0 0.036011210328163866 0.309284439417592
2980000000.0 0.115773820154332 0.2909643716736953
3000000000.0 -0.013694921270117124 0.31156331692856076
3020000000.0 -0.29954817238062525 0.08091891672838479
3040000000.0 0.12648739238717813 -0.2788555345870337
3060000000.0 -0.04051978005790198 0.300872827834195
3080000000.0 0.05722848820904833 -0.2959039504493385
3100000000.0 -0.10481187174655422 0.27994591057080953
3120000000.0 0.030224776222310522 -0.2943985737153575
3140000000.0 0.1990830312106957 0.21286249078360694
3160000000.0 -0.17898230035770404 0.21458271770868775
3180000000.0 0.205166304789152 -0.16941339663081104
3200000000.0 0.24165845089223112 -0.03265574369871698
3220000000.0 0.21401602815461762 -0.032750864803037454
3240000000.0 0.18314402603407542 0.012043213023845927
3260000000.0 0.08072253481365126 0.12160959342701927
3280000000.0 -0.09147659687722906 -0.05972922995074359
3300000000.0 -0.02710481102625768 0.07149797246298291
3320000000.0 -0.04774490325339768 0.012561144441588873
3340000000.0 -0.02870387044906644 -0.0052988765797077385
3360000000.0 -0.0016982402595213152 -0.01697601579473682
3380000000.0 0.0019371914056089423 0.006482659357935206
3400000000.0 -0.006654432190826802 -0.0034674291665335324
3420000000.0 -0.01464724918858236 0.01728477111973163
3440000000.0 -0.012839732344027192 -0.03774406827292526
3460000000.0 -0.0027407622263046646 -0.055553712352533015
3480000000.0 -0.06949033991971489 -0.018254761342658868
3500000000.0 -0.06377515198579968 0.0585674807408437
3520000000.0 -0.0845206352223149 -0.048955051043145154
3540000000.0 0.08770398336092389 -0.06429223032712268
3560000000.0 -0.05012372277884543 0.10786226057836212
3580000000.0 0.11992056155329676 -0.049689324773577535
3600000000.0 -0.08005949098284187 0.12169035149004243
3620000000.0 -0.14869202643395288 -0.056817308446125814
3640000000.0 0.06286870024039087 -0.1597196163975338
3660000000.0 0.143158662097365 -0.11813554969244326
3680000000.0 0.13901734918293104 -0.1338979946159237
3700000000.0 0.026219626032950895 -0.1930709163536639
3720000000.0 0.07671890078224525 -0.17857822547379829
3740000000.0 0.10337111334926427 -0.15647021791067195
3760000000.0 -0.07482026937000129 0.16297592136035005
3780000000.0 0.05801193994623357 -0.15757985916849596
3800000000.0 -0.1472028567830969 -0.055962552496582225
3820000000.0 -0.13782120847179838 -0.053460650440512285
3840000000.0 0.08248727437175735 -0.11369804223877757
3860000000.0 -0.14083542685307562 0.024074836460842197
3880000000.0 -0.14854533145277315 -0.031940800916306786
3900000000.0 -0.018747735332919926 0.16088003865525358
3920000000.0 -0.08321524941514706 -0.14510176821743787
3940000000.0 0.10279476679030104 -0.13696908904871644
3960000000.0 0.14272743199595653 -0.10029710837369184
3980000000.0 -0.09227410111688138 -0.14464826746447224
4000000000.0 -0.03525846034701565 -0.15803701294655842
