! Created with skrf (http://scikit-rf.org).
# Hz S RI R 50.0 
!freq ReS11 ImS11
400000000.0 -0.08884825402363061 0.8653576564783132
420000000.0 0.3834108941576013 0.7718161628407699
440000000.0 0.8229473567012019 -0.11057927494934151
460000000.0 0.32096422981277944 -0.7248562526687583
480000000.0 0.660205995342339 -0.27543752583100395
500000000.0 -0.05233276522980763 -0.569611829237637
520000000.0 -0.16419493309755298 -0.46440343865503997
540000000.0 0.28862770860627135 -0.32490669817912754
560000000.0 -0.31877456906800217 0.1625469787180705
580000000.0 -0.016084301896190305 0.3387469656360792
600000000.0 0.27824658490733845 -0.19146409474842035
620000000.0 -0.33820464242384285 0.11525379904230426
640000000.0 0.12026073154825341 0.3699405806168858
660000000.0 0.3880504738319341 -0.09835344007262349
680000000.0 -0.01050561681619466 0.4199798610856413
700000000.0 0.20878728287969817 -0.3788573970340886
720000000.0 -0.25282693899574415 -0.3439158493265093
740000000.0 0.39653965608495867 0.13418450670402673
760000000.0 0.06860470251547461 -0.39590352450390304
780000000.0 0.10504472243173647 0.35691527067807816
800000000.0 0.1046977951137173 -0.3276443516954819
820000000.0 0.29173763283737586 -0.042104882850729115
840000000.0 -0.031186121757637363 -0.24530803570071752
860000000.0 0.17930072274679196 -0.11752343821238508
880000000.0 -0.06077886462480136 0.14606989268533052
900000000.0 -0.0653404267656604 0.06775385537321094
920000000.0 -0.061052875783914405 0.014958208326752561
940000000.0 0.0012843046420564974 0.04811266305027106
960000000.0 0.03526093219437045 -0.04021793321216218
980000000.0 0.0508642599494189 0.050392907672691
1000000000.0 0.0003877995870568232 -0.0798648795626901
1020000000.0 0.028719790511814346 0.0946503501017273
1040000000.0 0.09022758162846899 0.06264765321619266
1060000000.0 -0.01883078134088326 0.14408827156835785
1080000000.0 -0.1228655222308839 -0.10200190987370822
1100000000.0 -0.13343892128080206 0.12101583281321912
1120000000.0 0.16022261797248483 0.12396914096500777
1140000000.0 0.20463039088484208 -0.11296492459767125
1160000000.0 0.26847197511067306 -0.0283199374666672
1180000000.0 0.26026689690287763 0.16359256827347063
1200000000.0 -0.053687064812268905 0.33548601255531174
1220000000.0 0.03011675637130633 -0.36581255319681827
1240000000.0 -0.14756003733111753 0.36625074420136333
1260000000.0 0.41000709306784694 -0.10674802945024428
1280000000.0 -0.4391715067142693 0.06639026821508702
1300000000.0 0.42849468512631306 0.159950219922701
1320000000.0 -0.1887896631791385 -0.4120595634211692
1340000000.0 -0.3718926210046037 -0.24229465513734486
1360000000.0 -0.32741734760594254 -0.2841510433863342
1380000000.0 -0.3571297512301952 -0.23537326654963645
1400000000.0 -0.39724879577297273 0.11873084304396678
1420000000.0 0.006864976702221165 0.3961096485959094
1440000000.0 0.3342269353823969 0.16187736449533663
1460000000.0 0.2260688026458768 -0.2583294480230241
1480000000.0 -0.1378072749778901 -0.2808152054278008
1500000000.0 -0.26851854325186 -0.08835558235640063
1520000000.0 -0.25492735368109815 -0.013212841475938163
1540000000.0 0.19336940980175035 -0.12057663575078507
1560000000.0 -0.05573852344079516 0.18830381516106268
1580000000.0 -0.16881659019605788 -0.03789984673292999
1600000000.0 -0.05930447903472537 0.13372511568772452
1620000000.0 0.11770933445823546 -0.012233423866993423
1640000000.0 0.08272201372254061 -0.04708017011314188
1660000000.0 -0.062402512339178845 0.03451910112115965
1680000000.0 0.031978443512846705 0.034931170856709
1700000000.0 -0.028522849892224426 0.003869536604773616
1720000000.0 -0.006084346484170341 0.011293733595378084
1740000000.0 -0.010536230611787807 0.01771117891498665
1760000000.0 0.019919332171699625 -0.03741794647089045
1780000000.0 -0.024011753597219125 0.07252446548192783
1800000000.0 0.022006725135877626 -0.1116281809445382
1820000000.0 0.07341012020938943 -0.12725058038186246
1840000000.0 0.1413902555012367 0.11039256462066369
1860000000.0 -0.20773044701436802 -0.03163730898208041
1880000000.0 0.08442527471873744 0.2253979327600961
1900000000.0 0.234788692746499 -0.14204198621874103
1920000000.0 -0.20261036381239408 -0.2280693423864959
1940000000.0 -0.33218619396585647 0.056180610409981124
1960000000.0 -0.03264988088852955 0.36610223951150267
1980000000.0 0.3908788010247668 -0.03322807609682303
2000000000.0 0.09475057008207231 -0.4036498698693446
2020000000.0 -0.430010339290904 -0.013224856514777627
2040000000.0 -0.07146814851343981 0.43157446900204893
2060000000.0 0.42827516685113776 0.09375154998082806
2080000000.0 0.2970586625517392 -0.31639813383580934
2100000000.0 0.06870253082630273 -0.42190008783616073
2120000000.0 -0.14030226422146955 -0.39400707863015255
2140000000.0 -0.3825336893149883 -0.13878690267842883
2160000000.0 -0.13325392549869816 -0.3689790176533702
2180000000.0 -0.3624368266845894 -0.0968186638494758
2200000000.0 -0.30432598298622254 0.19312557208860162
2220000000.0 -0.20793857765514706 0.276631041807289
2240000000.0 -0.06901936727610546 0.33382035126832627
2260000000.0 0.0019372093354124498 0.3407601815669811
2280000000.0 0.08272304342889567 0.33606802768938926
2300000000.0 0.3572771919648184 0.062355352770402175
2320000000.0 -0.017011189811031738 -0.38822103002750946
2340000000.0 -0.3905284258178721 0.15985013331570258
2360000000.0 0.4640373344894255 -0.0017753875468172265
2380000000.0 -0.5103799338410879 -0.006182077261700376
2400000000.0 0.559736029134356 -0.007005936110260538
2420000000.0 -0.560390077847819 0.24173293905831467
2440000000.0 0.3295752765617627 -0.5700987606032851
2460000000.0 0.1072517845417625 0.6894976705610699
2480000000.0 -0.38491427913078236 -0.6184271484406122
2500000000.0 0.42423874469543027 0.6158671528926055
2520000000.0 -0.2876161863087092 -0.7013221045509179
2540000000.0 -0.06594779157100061 0.7565214664780552
2560000000.0 0.5595851362004824 -0.5039261895649243
2580000000.0 -0.7079784899480541 -0.20874257049753037
2600000000.0 0.267928740651793 0.6615538351549227
2620000000.0 0.3693835041966882 -0.5743141691871355
2640000000.0 0.03326799395196462 -0.6442092707867209
2660000000.0 -0.4923077925661993 0.34327020847472617
2680000000.0 0.5234944450827573 0.17443357133350235
2700000000.0 -0.1445078838254191 -0.4832911290048005
2720000000.0 -0.2717223091869524 0.36774641783052314
2740000000.0 0.4155073867526357 0.0030906648836538145
2760000000.0 -0.3197664753322939 -0.20413224634816832
2780000000.0 0.32735743874519246 0.1274204481619259
2800000000.0 -0.31229817894955897 0.10142588487297671
2820000000.0 -0.01016115714390644 -0.31185295583626216
2840000000.0 0.29832810843207946 0.0385434721564203
2860000000.0 -0.12023364133206708 0.27018427637811565
2880000000.0 -0.2157180603664409 -0.19780198269877391
2900000000.0 0.26650536148436826 0.11954703506153272
2920000000.0 -0.025609586765236163 -0.2930186890105857
2940000000.0 -0.2911104257087843 0.06745148391861458
2960000000.0 -0.21872326743470336 0.20679004163397788
2980000000.0 -0.27245711844874176 0.13807971710116487
3000000000.0 -0.2686202040309222 -0.1557268333998523
3020000000.0 0.0733591650038559 -0.3036389312144454
3040000000.0 0.27644210512204676 0.14245787329097248
3060000000.0 -0.3023066578908859 0.06741986923694832
3080000000.0 0.223088008116474 -0.2083716289517884
3100000000.0 -0.0669551559736275 0.29174702473497965
3120000000.0 -0.02454394915815276 -0.2895690911702689
3140000000.0 0.15474452562229848 0.23444851313017553
3160000000.0 -0.2623084566133638 -0.051470670640750386
3180000000.0 0.1612284986161085 0.19180615444750748
3200000000.0 -0.17180809240615857 0.14975185521529777
3220000000.0 -0.1801109686008017 -0.08728794940356426
3240000000.0 0.11736223737836216 -0.12143161361396795
3260000000.0 -0.08579107923170637 0.10290779088243168
3280000000.0 0.08630819019387712 0.05646302575032651
3300000000.0 0.07017895044230486 -0.028562523631581085
3320000000.0 0.050528918813755756 0.00979178489217489
3340000000.0 0.009921633283059943 0.028918401204421573
3360000000.0 -0.012575672344622339 0.005019222555533546
3380000000.0 0.0017730723035821766 -0.0037052913115749103
3400000000.0 -0.015104891193659535 0.011495149496358999
3420000000.0 -0.0004711652365272882 0.035602930195867286
3440000000.0 0.023503377872810184 0.043835973840850806
3460000000.0 -0.049590046623311665 0.030118739491321322
3480000000.0 -0.01947032869670286 0.06518651795084857
3500000000.0 0.0042445308485672285 0.07801788733891002
3520000000.0 0.07060866159267147 0.05657695576109148
3540000000.0 0.0758987950155823 -0.07078783671264906
3560000000.0 -0.10891403229186622 0.046099423397209884
3580000000.0 0.11843493487332912 0.06363791719467372
3600000000.0 -0.10526341537340345 0.11408487008278285
3620000000.0 -0.10845683320884265 0.13115520657338875
3640000000.0 -0.149959527899025 0.10336623416654121
3660000000.0 -0.11565242926041426 0.15208344041588234
3680000000.0 -0.15332331640779553 0.11794461056186696
3700000000.0 -0.1917682343345656 -0.013266925232054062
3720000000.0 -0.034769652878537 -0.18665482794581892
3740000000.0 0.1512589340438089 -0.10483281335303513
3760000000.0 -0.1777950425467158 0.005884929329222272
3780000000.0 0.1628012331423082 0.04977241688914278
3800000000.0 0.01806105504437214 -0.16145248677036494
3820000000.0 -0.12192288782819106 -0.0958579538143541
3840000000.0 -0.00719891134608766 -0.14858380938661855
3860000000.0 0.14139675464712825 0.0471265562069598
3880000000.0 0.15368370710317955 0.015644661628643235
3900000000.0 0.01258756540752254 -0.15663620802807524
3920000000.0 -0.14298402752385994 0.07569229192200846
3940000000.0 0.08961603850039973 -0.1402343895501991
3960000000.0 0.16979972415171632 0.026524157873070872
3980000000.0 0.16085270591591103 -0.06341278177768345
4000000000.0 0.16444244320251208 -0.026087645304734904
