!Created with skrf (http://scikit-rf.org).
# Hz S RI R 50.0 
!freq ReS11 ImS11
400000000.0 0.8525038111512998 0.14527111256890363
420000000.0 0.6920183757666646 -0.47187621587431317
440000000.0 0.7219372486859176 -0.3079128280282934
460000000.0 0.6671103958382637 0.3193384640658362
480000000.0 0.1715891106651952 -0.6692746823788904
500000000.0 0.1512547889147095 0.5866153428455435
520000000.0 0.5013377783682139 0.09318345996858496
540000000.0 -0.4189457539121875 0.13055848511008528
560000000.0 0.2214734092221369 0.32405464748963553
580000000.0 -0.3504361104126732 0.07175379139144208
600000000.0 0.22030496989161563 -0.2785249762655982
620000000.0 -0.34687028829946454 0.07283504083091714
640000000.0 0.06770295960592883 -0.39770192621571104
660000000.0 -0.41209874019234205 0.02663152919267191
680000000.0 -0.12009035717666279 -0.4384734103483174
700000000.0 0.35203216322475495 0.3084780469024021
720000000.0 -0.3852499571780937 0.27417008143178956
740000000.0 0.4144487561662467 0.12739154170506387
760000000.0 0.24639977998450183 0.3047468252532282
780000000.0 -0.07491297682411502 -0.3508911812072039
800000000.0 -0.0348096442405506 -0.32817785316362275
820000000.0 -0.2784113736299353 -0.06404116879940386
840000000.0 0.006765039669735579 -0.2214084664278171
860000000.0 -0.019275152560347397 0.18159082024721862
880000000.0 -0.08488489289809255 0.12058973300662362
900000000.0 0.05526048691880312 -0.07583192965719664
920000000.0 0.03954879132706257 0.030254321107842985
940000000.0 0.024634327323202563 0.026359395228841672
960000000.0 0.030793045633619356 0.018100184502054688
980000000.0 -0.024659294175563666 0.04922276587940949
1000000000.0 -0.058020306566306704 -0.06547762818919799
1020000000.0 0.11278220513301085 0.0011320799173067326
1040000000.0 -0.12280250976953865 0.037149668837407765
1060000000.0 -0.030431984505940993 0.15457820587687082
1080000000.0 -0.1389251882184186 -0.12082844686691079
1100000000.0 0.06342885121009513 -0.2039851258556505
1120000000.0 0.14663039781909584 -0.1865131971152792
1140000000.0 -0.018323688751107067 0.2538733756012048
1160000000.0 -0.11451478822355263 0.2534939853113919
1180000000.0 -0.20754980966029898 -0.2275426183330666
1200000000.0 0.2108645330515187 0.2717667785610984
1220000000.0 -0.37910844668344335 -0.03362376944991501
1240000000.0 0.26303273715028697 -0.30529154254317603
1260000000.0 -0.3774813307601924 0.1623324735415387
1280000000.0 0.14394392731317315 0.396981330893349
1300000000.0 0.42327155880297535 0.033470282825187284
1320000000.0 0.36854259451793675 0.21681696342879683
1340000000.0 0.2631483145154579 0.3491156861500282
1360000000.0 0.39964976535100866 0.20032485429646582
1380000000.0 0.05162635308104195 -0.4392472967399201
1400000000.0 -0.4304746172978549 0.022420597620476213
1420000000.0 0.3648369782978476 0.1806416215208792
1440000000.0 0.2191287794920841 -0.30196987859111546
1460000000.0 0.11813761135054968 -0.31980711696481456
1480000000.0 -0.3014139659152714 -0.088618572889475
1500000000.0 0.043933152935709735 0.2800421195394326
1520000000.0 0.055105492451935294 0.24391030269246056
1540000000.0 0.07007735323945055 -0.20761873643500728
1560000000.0 -0.08552211614929604 0.17062448671993674
1580000000.0 -0.1607647742376829 0.0410437224045548
1600000000.0 -0.12848064627624964 0.037102026979949666
1620000000.0 -0.1047972348633098 -0.019505221049148765
1640000000.0 -0.08212210742786906 0.029975168603735707
1660000000.0 0.028198455017812343 -0.06654949762056128
1680000000.0 0.038095405783266575 0.026483735566242783
1700000000.0 -0.017751457753354426 -0.010740258005896524
1720000000.0 -0.00041632399707237444 -0.0011003272549600035
1740000000.0 0.016249750475879305 -0.008919078183479978
1760000000.0 -0.037167851839700346 0.003055748718097773
1780000000.0 -0.05109669590426823 -0.0309298792773109
1800000000.0 -0.06448453665761592 0.06943986974212903
1820000000.0 0.07227817142325006 0.10125874132473707
1840000000.0 0.1517091010995703 -0.0546271016415324
1860000000.0 -0.09739599394588294 0.17213417763512634
1880000000.0 0.21040390931517255 0.1126816403967336
1900000000.0 -0.24844323299479984 -0.1433614959479192
1920000000.0 0.2851255485550611 -0.1584204349638395
1940000000.0 -0.3145760848482296 0.15488270038408516
1960000000.0 0.21881361256627468 0.30289296770855123
1980000000.0 0.32332127200844 -0.237100560662004
2000000000.0 -0.38091565326315685 -0.1715914551232426
2020000000.0 -0.3409193703257212 0.2563357954041873
2040000000.0 0.014394849988877358 0.4342103775731235
2060000000.0 0.38551251457390046 0.20560084754646626
2080000000.0 0.3330074343123248 -0.277352655739004
2100000000.0 -0.07584193298147104 -0.41995894540602824
2120000000.0 -0.3351814753512532 -0.24361194362904667
2140000000.0 -0.37735839444723646 -0.12767041482268687
2160000000.0 0.2569812927692546 -0.28814798210745174
2180000000.0 0.02025271872969194 -0.3745972887207273
2200000000.0 -0.28045617638706427 -0.22915542292485433
2220000000.0 -0.3529315552870249 -0.000722636220202157
2240000000.0 -0.2867278948522592 0.1989064004560686
2260000000.0 -0.002224016868834817 0.35001116048275466
2280000000.0 0.3166777420177959 0.15315417373344928
2300000000.0 0.32999013025079843 -0.14669061573917533
2320000000.0 0.0748136499380867 -0.3795511194175371
2340000000.0 -0.4120826705135001 -0.07605103909925345
2360000000.0 0.1314205458885846 0.44025655906799344
2380000000.0 -0.08445821626028695 -0.5043188757752527
2400000000.0 0.33037080243445965 0.45771563261525805
2420000000.0 -0.6007979708256862 -0.13444289218381855
2440000000.0 0.543483365569698 -0.37807711352942686
2460000000.0 -0.15300463097239891 0.6843498144131801
2480000000.0 -0.30094929468784265 -0.6668145509259583
2500000000.0 0.3773136542959297 0.6489673406714562
2520000000.0 -0.31964389014275246 -0.6900216324574915
2540000000.0 -0.014359163668404824 0.7618459600691498
2560000000.0 0.5476034147310375 -0.5216396611339631
2580000000.0 -0.7399015606238258 -0.04577316820809767
2600000000.0 0.3837868833653421 0.6067972784007689
2620000000.0 0.25157312499354667 -0.6413705256609809
2640000000.0 -0.22009828985645932 -0.6137228882644347
2660000000.0 -0.2559049901780376 0.5517501078675296
2680000000.0 0.5268100181743873 -0.192667622164176
2700000000.0 -0.43666131163971755 -0.27170204979929047
2720000000.0 0.27304144098852107 0.3798176153711841
2740000000.0 -0.031989806110669886 -0.419555288894275
2760000000.0 -0.22408326737568204 0.3100493387613582
2780000000.0 0.16902610983899657 -0.3057474034049812
2800000000.0 -0.09623790062340574 0.30736827778684056
2820000000.0 0.1498013385470088 -0.26341136586262176
2840000000.0 0.0822122130885103 0.28442393117459724
2860000000.0 -0.28365428276757726 -0.06089001813745834
2880000000.0 0.18104884251530284 -0.2235108792956587
2900000000.0 -0.2493945164003805 0.14266997617052102
2920000000.0 0.2201931844205581 0.19300808496142718
2940000000.0 0.09891672110679353 -0.28686126144290436
2960000000.0 -0.30988159381006497 -0.020178622078174186
2980000000.0 -0.09206018256058114 0.29791282407892916
3000000000.0 -0.3068905586109205 0.057107668635213236
3020000000.0 -0.1553419388766658 -0.27422038724624687
3040000000.0 0.22902780780153806 -0.21418960396173195
3060000000.0 0.2463638606396908 0.183934859195018
3080000000.0 -0.2508020097356518 -0.15967543929949216
3100000000.0 0.1595949201068177 0.24163253127852072
3120000000.0 -0.06287859300547093 -0.2758090813247158
3140000000.0 0.1529287476146197 0.22709296688063405
3160000000.0 -0.2285003206774039 -0.12940325080240495
3180000000.0 0.008548202374975328 0.24820455922397086
3200000000.0 -0.22546888048643238 0.03960665810079042
3220000000.0 -0.18204479565545686 -0.08825937779301911
3240000000.0 0.014118915949584525 -0.17150825957173502
3260000000.0 0.11465700569177965 -0.07627629204033773
3280000000.0 -0.10144474020804008 -0.001780267007455707
3300000000.0 0.02971696808864652 0.06704836057559134
3320000000.0 -0.025721460717023758 0.03455084035455729
3340000000.0 0.01859122681358766 -0.014035067583041886
3360000000.0 -0.00760860676086611 -0.004810630919138276
3380000000.0 0.005606308741569714 -0.0005190754947245591
3400000000.0 0.013694651058033856 0.001836527375820405
3420000000.0 -0.02693440617200418 0.012039282637812131
3440000000.0 -0.010005557972459111 0.043617619728103615
3460000000.0 0.050991000471347935 -0.029990309958239165
3480000000.0 -0.06053082575928573 0.03803348962847184
3500000000.0 0.042781797279930874 -0.07791321760611462
3520000000.0 0.06023901254443141 -0.08068608109044892
3540000000.0 -0.044526280670886854 0.10140995952968708
3560000000.0 0.013028397968903788 -0.11821155882993574
3580000000.0 -0.10621017935370361 -0.07580954768671887
3600000000.0 0.12237380354613332 0.08187260734939576
3620000000.0 -0.15793870393868162 0.039273355073271336
3640000000.0 -0.1723873308449331 0.05143851631206811
3660000000.0 -0.18126723337227585 -0.050751280057968945
3680000000.0 -0.19433180534271427 0.017056118550747453
3700000000.0 -0.12252662669484587 0.15062097185813483
3720000000.0 -0.18803068436521592 0.023114012526551157
3740000000.0 0.04651515843884635 -0.17374157097449758
3760000000.0 -0.13471133356405326 -0.11393770193396582
3780000000.0 0.02185169746000556 0.17188447714899013
3800000000.0 -0.05667880200567426 -0.15908028974011582
3820000000.0 -0.0628334568945993 0.14909059975908695
3840000000.0 0.04351523349939262 0.14486704578837087
3860000000.0 -0.06840220646199029 0.12871896654587953
3880000000.0 -0.05591026244876999 -0.1325534798724238
3900000000.0 0.09597121724167658 0.11232778700843622
3920000000.0 0.15045763502197437 0.05546060568203359
3940000000.0 -0.05095793609961445 0.16425587871408695
3960000000.0 0.15866769763301997 0.08648106281238059
3980000000.0 -0.031236434780120816 -0.17552345359196658
4000000000.0 -0.16674039667201263 0.01842820852828528
