!Created with skrf (http://scikit-rf.org).
# Hz S RI R 50.0 
!freq ReS11 ImS11
400000000.0 0.8518600843198014 0.16089947385859663
420000000.0 0.7179725719672513 -0.43631011934476704
440000000.0 0.7507505708026986 -0.23356691115214262
460000000.0 0.6391172429517098 0.37297154496096285
480000000.0 0.15890498846283982 -0.6719852739143335
500000000.0 0.14748759457154065 0.587272576316855
520000000.0 0.4995073835827298 0.10302150140677285
540000000.0 -0.4203313637373217 0.12757696622880285
560000000.0 0.21659868297532348 0.3276750011889461
580000000.0 -0.34995636841413313 0.07285786151003998
600000000.0 0.2285834717690003 -0.2705358906475882
620000000.0 -0.34344739631318544 0.07644865932589734
640000000.0 0.11961115662425882 -0.38224204474789514
660000000.0 -0.39961680969871255 0.09589870053161498
680000000.0 -0.1636084652992052 -0.42352663795752754
700000000.0 0.4156819815025589 0.21633568559666236
720000000.0 -0.2992742685272947 0.36764741627258296
740000000.0 0.43419905365569045 -0.01817140567960702
760000000.0 0.3162664833567795 0.23078035587661228
780000000.0 -0.03605072302616967 -0.35664589720235657
800000000.0 0.07206071247542384 -0.3229610008694115
820000000.0 -0.2356078500436629 -0.1641625009582647
840000000.0 0.04284049898599148 -0.21882697940650955
860000000.0 -0.03524770976034655 0.17899680449500066
880000000.0 -0.124888375977086 0.07473415841063391
900000000.0 0.08654761591523451 0.031134660860644786
920000000.0 0.008312801554015677 0.0472814816341325
940000000.0 -0.017456450422086454 -0.029654484695210002
960000000.0 -0.03277403524522941 0.014760346982006399
980000000.0 0.05457619428268406 0.012041798224130503
1000000000.0 -0.0659640821932513 -0.058986470406335284
1020000000.0 0.09641819106880738 0.05978736175169391
1040000000.0 -0.1200082808809704 -0.04663283994438949
1060000000.0 -0.10368739648667227 0.11805808757082405
1080000000.0 -0.10413525121173742 -0.15079436120276055
1100000000.0 0.09678015371839517 -0.18860714727167982
1120000000.0 0.13299664419364227 -0.19472034848761488
1140000000.0 0.0027399196652511675 0.2536483796643663
1160000000.0 -0.0368555760960858 0.27521246045926107
1180000000.0 -0.2947433757288458 -0.08610739253850036
1200000000.0 0.28153362386880826 0.19513251857056466
1220000000.0 -0.3792143231208629 0.0029343102198314003
1240000000.0 0.24719899107310664 -0.3180499757209855
1260000000.0 -0.37815801459683474 0.16292830694001945
1280000000.0 0.156023034460232 0.3934822330627427
1300000000.0 0.42524869703410545 0.007123463178225306
1320000000.0 0.381676935875485 0.19323768691115153
1340000000.0 0.23945249392905257 0.3656255242361677
1360000000.0 0.3796889902027055 0.23676358299207015
1380000000.0 0.08613063870035557 -0.43402907537952407
1400000000.0 -0.4303377798064346 0.024066240040158112
1420000000.0 0.36219619827817984 0.18537734946000786
1440000000.0 0.22579082620092888 -0.29623614779982027
1460000000.0 0.13226803338339002 -0.31389410301858683
1480000000.0 -0.2734867319823345 -0.15501107840039588
1500000000.0 0.06005910518551981 0.2776501956752897
1520000000.0 0.11784517184580683 0.21938261837737855
1540000000.0 0.010934653847391347 -0.21756290402339304
1560000000.0 -0.04752872658905179 0.18378023644654373
1580000000.0 -0.16017087618768583 0.041777402723237426
1600000000.0 -0.12675662312891142 0.0438987053987495
1620000000.0 -0.10234479628355661 -0.03324308386092436
1640000000.0 -0.07558868230065392 0.04555833790931429
1660000000.0 -0.009584355118934126 -0.07256491836737143
1680000000.0 0.025107412068471665 0.03915346392607582
1700000000.0 -0.007523281219296417 -0.01937614553827953
1720000000.0 0.0009569182269983495 -2.5057677551291044e-05
1740000000.0 -0.016351267110630514 -0.010647761318994958
1760000000.0 -0.02242030856466925 0.031159229886131172
1780000000.0 -0.06020605761792563 -0.007670001557999947
1800000000.0 -0.03480375879307454 0.08969363127253772
1820000000.0 0.049750718939385215 0.11383296891583182
1840000000.0 0.15609086721109558 -0.03980471675322393
1860000000.0 -0.13096496492111576 0.14787315478636173
1880000000.0 0.1724281907832338 0.16514152943047958
1900000000.0 -0.23145620614615275 -0.16952288361422493
1920000000.0 0.2852921575031255 -0.157580713584261
1940000000.0 -0.3177951032994899 0.1475626525700692
1960000000.0 0.2377099388119476 0.28777476690771114
1980000000.0 0.3069470597453568 -0.2566883336673134
2000000000.0 -0.39088427311680035 -0.14522289082286813
2020000000.0 -0.3280284760856404 0.2717903424274374
2040000000.0 -0.008219692091948649 0.4342516396713446
2060000000.0 0.3834371517376909 0.21010888157648155
2080000000.0 0.31246772307043763 -0.3007128614849575
2100000000.0 -0.11075871202572211 -0.41268797899654136
2120000000.0 -0.347778079094221 -0.22636215734625645
2140000000.0 -0.3849616161709917 -0.10416628040882454
2160000000.0 0.25850289360844686 -0.2873451950603309
2180000000.0 0.035595299977286395 -0.3735289542407278
2200000000.0 -0.2748967449560676 -0.23658146931370605
2220000000.0 -0.34971052295899563 -0.05171853038078606
2240000000.0 -0.3060400739558295 0.1682927444369893
2260000000.0 -0.02359557229022779 0.3488367546168601
2280000000.0 0.30625452053665075 0.17271367833892498
2300000000.0 0.3328570174076202 -0.13921646300661078
2320000000.0 0.08814951667798884 -0.3762947047010058
2340000000.0 -0.4077319161146431 -0.09416895184799311
2360000000.0 0.11837597468674238 0.4434580207680351
2380000000.0 -0.0647723212504161 -0.5071266057994049
2400000000.0 0.32463052724460995 0.461512987252971
2420000000.0 -0.602632212086391 -0.12472075385135604
2440000000.0 0.5363109271503044 -0.38818699959291036
2460000000.0 -0.13260012572449273 0.6888603040980553
2480000000.0 -0.32194461784159356 -0.656747986063875
2500000000.0 0.4496067287995744 0.601342740933492
2520000000.0 -0.29886002485280005 -0.6999777717023855
2540000000.0 -0.053730287343862 0.7609226620700432
2560000000.0 0.5254964952320972 -0.5439048417833469
2580000000.0 -0.7209414914792422 -0.17558367964513014
2600000000.0 0.3456551148627295 0.6290487710576949
2620000000.0 0.16346939323399098 -0.6694836233356791
2640000000.0 -0.2734554988941887 -0.5922369022209587
2660000000.0 -0.2430329067176308 0.5584178901187089
2680000000.0 0.5338505595002552 -0.1727488122174864
2700000000.0 -0.4164552686757319 -0.30053150593691996
2720000000.0 0.2611290895308871 0.3888266223510293
2740000000.0 -0.042035688043328384 -0.419368515736973
2760000000.0 -0.22727747764346587 0.30829640199299585
2780000000.0 0.17399770186617308 -0.30316776597589135
2800000000.0 -0.1130590630241713 0.3020310811672279
2820000000.0 0.16253718745795523 -0.2561718289013539
2840000000.0 0.05418790021466548 0.2906021362521285
2860000000.0 -0.28206893665615457 -0.0665704827292128
2880000000.0 0.176577870112997 -0.22675498563746974
2900000000.0 -0.23307705917756574 0.1664235613902122
2920000000.0 0.24117930653781297 0.16470488099695327
2940000000.0 0.08107900621339696 -0.29114397726234315
2960000000.0 -0.3093351022085279 0.005213563696214349
2980000000.0 -0.09901151255209614 0.2955382495019454
3000000000.0 -0.2895872262321766 0.11475570957474557
3020000000.0 -0.23002828228584102 -0.2139404331637658
3040000000.0 0.08318831409348712 -0.30194667432898925
3060000000.0 0.2587093418476328 0.16754453027500885
3080000000.0 -0.2822925182835292 -0.09648247583860838
3100000000.0 0.14423218604859342 0.25133938272414824
3120000000.0 -0.14753951577633814 -0.24313733255385234
3140000000.0 0.17409397852905753 0.21349281765853104
3160000000.0 -0.22655401756362512 -0.13431368280144781
3180000000.0 -0.008648306721495852 0.24908131016035337
3200000000.0 -0.2269011248893303 0.03567777277002118
3220000000.0 -0.16336569037018447 -0.12055757608268117
3240000000.0 0.06374034023131808 -0.16020409659325988
3260000000.0 0.1338034930922898 -0.03527838247129768
3280000000.0 -0.0908992855516325 -0.04573104416116363
3300000000.0 -0.0170938248100157 0.07140704011278169
3320000000.0 -0.03639181483985452 -0.0223996079111912
3340000000.0 -0.00922415491614479 -0.021504173041393383
3360000000.0 -0.009084908364367105 -0.003581842566576074
3380000000.0 -0.006448204400654694 -0.0021210476578978035
3400000000.0 0.005421815913149817 0.012907969856328402
3420000000.0 0.0209862367107317 0.021389522264138802
3440000000.0 0.045217371187330026 0.0012739348840401046
3460000000.0 -0.05112740026220891 -0.03313114931383521
3480000000.0 0.044039403949959706 0.05795206896763359
3500000000.0 -0.04344917782736821 -0.07879707578732284
3520000000.0 -0.00692045819853391 -0.10137670032560314
3540000000.0 0.0140951016108074 0.11111865469802767
3560000000.0 -0.026434754738765293 -0.11672459455188598
3580000000.0 -0.11095207234821745 -0.06936060211330625
3600000000.0 0.13739352986450915 0.05620178689986775
3620000000.0 -0.15875262857302497 0.04029265349344279
3640000000.0 -0.1672508617467217 0.06930735163870157
3660000000.0 -0.18372862951706112 -0.04512807481225487
3680000000.0 -0.19158070090856505 -0.03905908188000033
3700000000.0 -0.138480468164992 0.13712942751154028
3720000000.0 -0.18969620626455078 -0.01115496082870958
3740000000.0 0.10571542556039801 -0.14672443430001708
3760000000.0 -0.0658655524923609 -0.16473953961742943
3780000000.0 -0.06677086945903438 0.1611231537684309
3800000000.0 0.03572612237704363 -0.16569269174511445
3820000000.0 -0.12565679181927009 0.10172195678732394
3840000000.0 -0.052427324404462086 0.1419921504372704
3860000000.0 -0.12842702963114908 0.06943116350733528
3880000000.0 0.038813711361801013 -0.13875256954658347
3900000000.0 0.03978447166393905 0.1425379178158419
3920000000.0 0.13356385698958917 0.08948842157863257
3940000000.0 -0.05394002189794309 0.1638565808436454
3960000000.0 0.10034693039062563 0.15112079022472868
3980000000.0 0.08195889463941762 -0.15982031480345904
4000000000.0 -0.08320944307152552 -0.14886588714690463
