!Created with skrf (http://scikit-rf.org).
# Hz S RI R 50.0 
!freq ReS11 ImS11
400000000.0 0.85455553909859 0.146990828092552
420000000.0 0.7105098418949668 -0.44670121782256367
440000000.0 0.7297567315452643 -0.291243181857388
460000000.0 0.6577052224360245 0.3392203547323079
480000000.0 0.17865543586022153 -0.6675455374324849
500000000.0 0.14822477783618251 0.5875090374183785
520000000.0 0.5015513292458198 0.09362778756902725
540000000.0 -0.42109985688255624 0.12505890818414286
560000000.0 0.20736016984087174 0.3336067254642658
580000000.0 -0.35578330057546054 0.03396832957266808
600000000.0 0.24300316057865592 -0.2566964500208206
620000000.0 -0.3408119248766781 0.08812829988535577
640000000.0 0.0708725665733229 -0.39437989815795227
660000000.0 -0.39282889367160284 0.11933875033592502
680000000.0 -0.19695524577145918 -0.408755370221323
700000000.0 0.4165336747124041 0.21433631587334262
720000000.0 -0.3006850561300414 0.3666002444046318
740000000.0 0.4337870473254346 -0.016880164506001105
760000000.0 0.30483215654192675 0.24613309751362256
780000000.0 -0.05160131670267806 -0.3550873930249116
800000000.0 0.0542438155714375 -0.3265234380800653
820000000.0 -0.23186524730684213 -0.1691457027179189
840000000.0 0.08555161759122407 -0.20577989582856446
860000000.0 -0.0853182416807617 0.16110937641400513
880000000.0 -0.13707634253786063 0.049225932419399536
900000000.0 0.0916453538560418 0.00015477376431460523
920000000.0 0.01328617618875803 0.0464824160905193
940000000.0 0.015751611934385207 -0.03098936212453198
960000000.0 -0.031806745940528666 -0.016678250362429353
980000000.0 0.04665415723580291 0.03045559016269579
1000000000.0 -0.07178004803235773 -0.05174247475188806
1020000000.0 0.10206201380281783 0.04995173543509233
1040000000.0 -0.11984424279537599 -0.04701794370060385
1060000000.0 -0.1089624162969756 0.11360838207490286
1080000000.0 -0.08836108105654893 -0.1605196219487508
1100000000.0 0.10076602735459864 -0.18656086697793595
1120000000.0 0.16778448790617848 -0.1652811396405023
1140000000.0 -0.003287256681496859 0.253060954186919
1160000000.0 -0.05288473995140891 0.27207227402254197
1180000000.0 -0.27447395045031797 -0.13694899262514396
1200000000.0 0.269667106883948 0.2109004991316464
1220000000.0 -0.3781092061932587 0.0337943715558695
1240000000.0 0.22767303678256695 -0.3322671010050227
1260000000.0 -0.36671114127488674 0.18645337925888036
1280000000.0 0.19324719111496855 0.37635488823969954
1300000000.0 0.424927979031477 0.007353949886515809
1320000000.0 0.38384957216997756 0.18867083742681637
1340000000.0 0.2695686343558706 0.34410247103267083
1360000000.0 0.3914124828922928 0.21663788084906294
1380000000.0 0.06260025372964834 -0.4380472586158207
1400000000.0 -0.4309966358652807 0.011633253452833456
1420000000.0 0.36306786130940244 0.18356538367469677
1440000000.0 0.24151322480856738 -0.28356693499798874
1460000000.0 0.15645819344271852 -0.30241747729824814
1480000000.0 -0.27656356887752553 -0.14880165675436505
1500000000.0 0.02648738157995439 0.28227918946384467
1520000000.0 0.08283737576342058 0.23514634102268822
1540000000.0 0.04007904894703717 -0.21407951913731696
1560000000.0 -0.06636690828128661 0.17755623569785917
1580000000.0 -0.15426270221425592 0.05892967357925308
1600000000.0 -0.12885437586882997 0.035052893082550954
1620000000.0 -0.10678494819118536 -0.002138217600842401
1640000000.0 -0.05701108672853112 0.06677590961288393
1660000000.0 -0.03364363566948184 -0.0648676272551575
1680000000.0 0.04152254666141885 0.02107925415169611
1700000000.0 -0.021110813770983398 0.0039421746477216225
1720000000.0 -0.0005483511113180842 0.0008890550857521965
1740000000.0 -0.018675696655136437 -1.4291593609968683e-05
1760000000.0 -0.0030780105431108843 0.0377149964607792
1780000000.0 -0.05576527082922051 0.023099425103232492
1800000000.0 -0.004314211291258857 0.09547571984525037
1820000000.0 0.09408747230266165 0.08155957291543275
1840000000.0 0.14988221355724574 -0.060452040300239526
1860000000.0 -0.11428477213224592 0.16170476293724187
1880000000.0 0.20529500180470042 0.12329680844349376
1900000000.0 -0.24380443240352168 -0.15262772982061676
1920000000.0 0.28994274480383336 -0.15044736974074857
1940000000.0 -0.3211551741935511 0.1419051946367996
1960000000.0 0.2090251521746724 0.3098343707320791
1980000000.0 0.33262150253473477 -0.22330835498538315
2000000000.0 -0.3546437966461659 -0.22033800219511196
2020000000.0 -0.35697428140509596 0.23197566667712835
2040000000.0 -0.022074707876995076 0.433331344038429
2060000000.0 0.385763662938193 0.2039855488302611
2080000000.0 0.32291345805420946 -0.28850785408028373
2100000000.0 -0.09277470517223306 -0.4162682815380855
2120000000.0 -0.32863301538472867 -0.2517224031467198
2140000000.0 -0.38734920874487844 -0.0908341177073304
2160000000.0 0.22877632967708014 -0.3108615850529344
2180000000.0 -0.044037331043152626 -0.37239498959765893
2200000000.0 -0.31307850301114226 -0.18218926926059192
2220000000.0 -0.34521990110582035 0.07393034589298289
2240000000.0 -0.2710571799814898 0.2211168188879856
2260000000.0 0.020039863673528807 0.34992692189092084
2280000000.0 0.32027387998850554 0.1467495558155068
2300000000.0 0.3330708753301519 -0.14085381079425488
2320000000.0 0.08084671369360683 -0.37887819850488536
2340000000.0 -0.41356266268630604 -0.0709361763915285
2360000000.0 0.13346506890447551 0.43997354000131933
2380000000.0 -0.05301702230024739 -0.508689964153298
2400000000.0 0.3257910377030218 0.4608689554052249
2420000000.0 -0.6013481765013495 -0.12975798540657543
2440000000.0 0.5562641447035082 -0.3584157954172284
2460000000.0 -0.15237413099114797 0.6839092740437493
2480000000.0 -0.32888454469873885 -0.6525075950959313
2500000000.0 0.3713972168941267 0.6513475839163928
2520000000.0 -0.31784325292951293 -0.6901964249360176
2540000000.0 0.042113240247617284 0.7601412099329667
2560000000.0 0.49234075024461277 -0.5734466866057271
2580000000.0 -0.7409914331800099 -0.01179159542102538
2600000000.0 0.4135726600752137 0.5872147731673503
2620000000.0 0.17624132628007894 -0.6663155957460137
2640000000.0 -0.2896208496894733 -0.5847017196632549
2660000000.0 -0.1765830818616138 0.5826928980746064
2680000000.0 0.5119081494064233 -0.23111618303363207
2700000000.0 -0.45102749094477096 -0.24867311880735576
2720000000.0 0.2867861940136498 0.3704565969900397
2740000000.0 -0.0406462140914506 -0.419388203460263
2760000000.0 -0.22634105207702748 0.3089262279477177
2780000000.0 0.18578589902484327 -0.2960500444868752
2800000000.0 -0.11979702395649595 0.29902615619894685
2820000000.0 0.17926594924973555 -0.24417307031208882
2840000000.0 0.06177698052434968 0.2890788296436749
2860000000.0 -0.27948864760811376 -0.0755501653568261
2880000000.0 0.18403458732042804 -0.22026657184468554
2900000000.0 -0.22270687732465463 0.1794999668355023
2920000000.0 0.237865450532565 0.168796265820512
2940000000.0 0.07861300709237815 -0.2922792290085025
2960000000.0 -0.30902084494199 0.022006093953070544
2980000000.0 -0.07425417758717043 0.3026459890818906
3000000000.0 -0.2889356192494564 0.11704235576969581
3020000000.0 -0.22744467817061648 -0.2170643460046447
3040000000.0 0.07683086336690362 -0.3035246135430145
3060000000.0 0.25556848398332743 0.1705164663142675
3080000000.0 -0.2805423137270373 -0.09883020646210791
3100000000.0 0.19839429607468553 0.21121959060395612
3120000000.0 -0.14583176714819998 -0.24295202813101427
3140000000.0 0.1962727875072199 0.19170591038942716
3160000000.0 -0.24299557211953302 -0.1009191592382108
3180000000.0 0.05186643098161495 0.2435853315532356
3200000000.0 -0.2219535803666479 0.05876010494848364
3220000000.0 -0.1866499252433929 -0.08101637781537464
3240000000.0 0.009142611920925319 -0.1725231261944558
3260000000.0 0.12253823077060459 -0.06450997692411839
3280000000.0 -0.10116526809686752 -0.013634266285932799
3300000000.0 0.008735551997673596 0.0734098279777992
3320000000.0 -0.042645823410214063 0.0076062102837626076
3340000000.0 0.013591830739208471 0.019258638450816077
3360000000.0 -0.0003368938144823418 0.0097593698185086
3380000000.0 0.0012363532730431828 -0.0063551351271373055
3400000000.0 -0.011962315736745702 0.00619831702691787
3420000000.0 0.0167544963046933 0.02406016989284474
3440000000.0 0.029485469353808556 0.03340835053883381
3460000000.0 -0.030767642564213785 -0.05118988682364557
3480000000.0 0.058197649338930436 0.04290098244204572
3500000000.0 -0.012185763672443499 -0.0882690258237052
3520000000.0 -0.022432155140230687 -0.09879563418788884
3540000000.0 0.022031052960184105 0.1090133162405489
3560000000.0 -0.06841803190400725 -0.09889758067780613
3580000000.0 -0.13036913400028122 -0.016183544253219592
3600000000.0 0.13738114339617774 0.053825415792680215
3620000000.0 -0.12724182502259734 0.10363156005805728
3640000000.0 -0.14432039247410383 0.10900165481629813
3660000000.0 -0.1892449594166061 0.010953336539877068
3680000000.0 -0.18204793465610145 0.07422437398642402
3700000000.0 -0.09690033768837625 0.17037010470115674
3720000000.0 -0.18770780358617972 0.03580264125408208
3740000000.0 0.04652945778005058 -0.1753989311316449
3760000000.0 -0.12414142479190267 -0.128254139588372
3780000000.0 -0.008085717037374617 0.17546436650672162
3800000000.0 -0.02069509865678442 -0.16935508432891452
3820000000.0 -0.10589168758864465 0.12510640319720015
3840000000.0 0.0064736781385643215 0.1526093464184235
3860000000.0 -0.10056756960526723 0.10772656453604965
3880000000.0 -0.015497536432967668 -0.14438627215842778
3900000000.0 0.0472892713652825 0.14225169133636273
3920000000.0 0.13806617810854177 0.084634816547939
3940000000.0 -0.09191938580379022 0.14806852421480846
3960000000.0 0.13738992577335027 0.11928172489937208
3980000000.0 0.026339942048408886 -0.17717806949952497
4000000000.0 -0.1631008216008428 -0.042817408924805275
