!Created with skrf (http://scikit-rf.org).
# Hz S RI R 50.0 
!freq ReS11 ImS11
400000000.0 0.8546770192493572 0.14010321208399756
420000000.0 0.7028373569953277 -0.45972288069564604
440000000.0 0.7384858683389591 -0.26950844185067463
460000000.0 0.6593594106552029 0.3356581795409755
480000000.0 0.1433116108760131 -0.6756880204082715
500000000.0 0.13821432994221008 0.5897554805409544
520000000.0 0.4970027684794271 0.11476937456654612
540000000.0 -0.42015101432228624 0.12833392544260722
560000000.0 0.21624686329045303 0.3279596980812673
580000000.0 -0.3455547740224676 0.09148662823868288
600000000.0 0.22970929631315812 -0.26859825361909584
620000000.0 -0.3499867506187665 0.023658772866660387
640000000.0 0.1106002999073998 -0.3845620264094252
660000000.0 -0.40602489945701087 0.06290289068245729
680000000.0 -0.19008557729311662 -0.41237777462505565
700000000.0 0.4295678390135141 0.18810971036459578
720000000.0 -0.28568123856172484 0.3790795266768023
740000000.0 0.42504441382885366 -0.08760414298959765
760000000.0 0.32846557884465566 0.21078834427825816
780000000.0 0.010811862633004758 -0.3574619061363043
800000000.0 0.13957918817353382 -0.3001463240184065
820000000.0 -0.22569131739240275 -0.17906513930366708
840000000.0 0.04243430720664078 -0.2197673717816067
860000000.0 -0.00801022301957406 0.181835560474863
880000000.0 -0.10947164146504701 0.0945146289478025
900000000.0 0.06290523739173709 0.06611362752587736
920000000.0 0.0013186409043168198 0.04852120762557849
940000000.0 -0.016501144372313686 -0.030410167444319215
960000000.0 -0.03530988889488377 0.0077340047511645455
980000000.0 0.05335512311495334 0.01545798950971071
1000000000.0 -0.0731773554632679 -0.04943527682062969
1020000000.0 0.07945951552607768 0.08088402374979452
1040000000.0 -0.10777312711231668 -0.07162400803062258
1060000000.0 -0.09943139916161912 0.12212098359252525
1080000000.0 -0.11314641774592195 -0.14431518800664628
1100000000.0 0.09711837905860536 -0.18821742940312802
1120000000.0 0.15034750263673022 -0.18073710337366397
1140000000.0 -0.03664430264735276 0.25117560663622673
1160000000.0 -0.0524693577592088 0.27354402298334357
1180000000.0 -0.2947097025079507 -0.08530387103396418
1200000000.0 0.28241953970253597 0.19202387918197455
1220000000.0 -0.3763218054148051 -0.03457684096520478
1240000000.0 0.2729381475105712 -0.2953786711009032
1260000000.0 -0.38558997238298626 0.14470175010473893
1280000000.0 0.17755118093545214 0.3845185984973816
1300000000.0 0.4248187147278031 -0.016330128925075644
1320000000.0 0.3919179734624656 0.17072225355081905
1340000000.0 0.25842960161981304 0.3520498018247273
1360000000.0 0.388354716813983 0.22161160874754868
1380000000.0 0.056425957029618494 -0.4389075422301809
1400000000.0 -0.4288306163098867 0.043666783754295654
1420000000.0 0.37565670144048113 0.15457588989710994
1440000000.0 0.22810023590972836 -0.2935151298105864
1460000000.0 0.16840588381273663 -0.2955020938289559
1480000000.0 -0.2622304500093813 -0.17383977668878842
1500000000.0 0.026214521156419084 0.2832692141872779
1520000000.0 0.11995210070122059 0.21855699777959794
1540000000.0 0.00034580857680057705 -0.21746375294705114
1560000000.0 -0.06909904082610438 0.17609991067373917
1580000000.0 -0.16484248513214483 0.010499632578354257
1600000000.0 -0.13303680680917482 0.015277413980367534
1620000000.0 -0.08865822108932322 -0.060132420053954555
1640000000.0 -0.0754217254565636 0.045979673350699614
1660000000.0 0.005769794932130764 -0.07287527602689917
1680000000.0 0.018602415507376117 0.042305361496497614
1700000000.0 -0.02016981197441242 -0.0028243258900897375
1720000000.0 0.0014249014304200409 -0.0010706228432716838
1740000000.0 -0.0029137118831693612 -0.019383716512124217
1760000000.0 -0.03621208996106261 0.012850859558555592
1780000000.0 -0.06112776137836524 -9.867389440878553e-05
1800000000.0 -0.006447662678249149 0.09538653589877401
1820000000.0 0.08446589809006295 0.09128081691864362
1840000000.0 0.15235207924684216 -0.05044982646880031
1860000000.0 -0.12428214015348307 0.15349674046293876
1880000000.0 0.18049694111115788 0.15651010380199823
1900000000.0 -0.24420749974760664 -0.1520595449592153
1920000000.0 0.27363511156586 -0.1789666120353585
1940000000.0 -0.3160814894215753 0.15376512717861324
1960000000.0 0.23922452482368822 0.28724932180064644
1980000000.0 0.31930313910324737 -0.24163303558960983
2000000000.0 -0.3755177475863557 -0.18126441532334622
2020000000.0 -0.363452013337185 0.2220682380990589
2040000000.0 -0.05404627184066208 0.4310301901678462
2060000000.0 0.3839174814107078 0.20855209956820275
2080000000.0 0.3220482074873545 -0.29007860063363505
2100000000.0 -0.13474676358179852 -0.4047958397563594
2120000000.0 -0.3291197864484014 -0.2510832563277517
2140000000.0 -0.3868748933606111 -0.09283776458489053
2160000000.0 0.23355658924000486 -0.30728717911267744
2180000000.0 -0.005878788294185595 -0.3748137165401919
2200000000.0 -0.29738535700995294 -0.2072317973477099
2220000000.0 -0.35316283178618957 0.018476774149815207
2240000000.0 -0.29572591146987054 0.1859634979195406
2260000000.0 -0.00023915876384121847 0.35009196535149406
2280000000.0 0.2971680912854087 0.18898610661670823
2300000000.0 0.3490507733716137 -0.09391189881895384
2320000000.0 0.09135044353588927 -0.3759419376695516
2340000000.0 -0.405488082269333 -0.1042292873039662
2360000000.0 0.08879466784394434 0.45024439388901655
2380000000.0 -0.017645795043888426 -0.5111038312413295
2400000000.0 0.29485194437888984 0.48126694760804895
2420000000.0 -0.5928271331048237 -0.16539362455808046
2440000000.0 0.5566069209139813 -0.35835644126765337
2460000000.0 -0.17258386399666586 0.6795953240466615
2480000000.0 -0.24607078312230374 -0.6884350616477249
2500000000.0 0.3738825711189694 0.6501214272694039
2520000000.0 -0.293882597777741 -0.7011344979440632
2540000000.0 -0.050720661549622084 0.7605882982230954
2560000000.0 0.5049467484595908 -0.5618323523910612
2580000000.0 -0.7291238886532606 -0.1344164209597432
2600000000.0 0.4367911179049938 0.5699068400206967
2620000000.0 0.1667864848292128 -0.6686928397763838
2640000000.0 -0.2737856619571039 -0.59279096006038
2660000000.0 -0.21670054875609523 0.5696864032871525
2680000000.0 0.4974146136054187 -0.2629093355140817
2700000000.0 -0.4191440858809899 -0.29913585768509676
2720000000.0 0.2620800432464017 0.38911248250821434
2740000000.0 -0.06497417193222563 -0.41693596034095415
2760000000.0 -0.23341465743376139 0.3041191714721005
2780000000.0 0.186834499076986 -0.2951261227852762
2800000000.0 -0.1455500165470903 0.28740175560964604
2820000000.0 0.181079734566646 -0.2432695032266144
2840000000.0 0.04188992351697601 0.2927312247737594
2860000000.0 -0.2844286490964927 -0.05587859168428547
2880000000.0 0.1548119808823207 -0.24152036561951729
2900000000.0 -0.2340673103894003 0.16479803604592833
2920000000.0 0.23858954058723847 0.16785380128777636
2940000000.0 0.08039839876508328 -0.29177794427466003
2960000000.0 -0.30954692139919243 0.009784592465272218
2980000000.0 -0.10139964292950598 0.29421511650147425
3000000000.0 -0.2599774534795246 0.17228117563144732
3020000000.0 -0.24976583795229712 -0.19095288871112434
3040000000.0 0.10525057189531672 -0.2951362410795344
3060000000.0 0.24717197529483667 0.18322105188124876
3080000000.0 -0.28190008801002814 -0.09523347533480686
3100000000.0 0.1605827877343548 0.2410040469358529
3120000000.0 -0.14033931534665628 -0.24744644061448062
3140000000.0 0.195000379498186 0.19474673550067542
3160000000.0 -0.22888632792562236 -0.13084519041011028
3180000000.0 -0.009683780658338935 0.24912880538952006
3200000000.0 -0.22399150919441704 0.049880375817004406
3220000000.0 -0.17924294646170344 -0.09543654616382681
3240000000.0 0.06686984809941829 -0.15938473011131132
3260000000.0 0.13801883043585822 -0.011918297371402958
3280000000.0 -0.07550496079477712 -0.06869371523763103
3300000000.0 -0.01993061118883303 0.07049976887636233
3320000000.0 -0.030247078526489606 -0.030007419533057696
3340000000.0 0.003031383730165351 -0.023226521958541864
3360000000.0 -0.010064116542359598 -2.3495416966856365e-05
3380000000.0 -0.00706765724455952 0.0001451133317122022
3400000000.0 0.006876992606667809 -0.01176845159416644
3420000000.0 0.023647200140480475 0.0180944111696221
3440000000.0 0.04215196413858642 -0.015708763314118218
3460000000.0 -0.045731275084254924 -0.039977789147790266
3480000000.0 0.06908942304220515 0.02383774481899993
3500000000.0 -0.05812607507445723 -0.06931890258364234
3520000000.0 -0.036242909667509766 -0.0964369266854713
3540000000.0 0.05611094679791104 0.09764578674071411
3560000000.0 -0.04499595623677492 -0.111548082894888
3580000000.0 -0.12726831354344248 -0.03502062285587593
3600000000.0 0.14858232746630112 0.009746551876989602
3620000000.0 -0.13151690056035878 0.1002748082611243
3640000000.0 -0.1724336341714708 0.05589903740760287
3660000000.0 -0.1892309900083141 -0.01363862035599526
3680000000.0 -0.19494234894527054 0.021809795668046025
3700000000.0 -0.13727131887658478 0.13956358006361413
3720000000.0 -0.1905165545199471 0.016657099418714502
3740000000.0 0.06431680654593243 -0.169712678140842
3760000000.0 -0.08990043803795894 -0.15377162267688113
3780000000.0 -0.005407403839673142 0.17427067582515512
3800000000.0 -0.020243710114741867 -0.1688236678674193
3820000000.0 -0.0939906667176557 0.13310468976165765
3840000000.0 0.026254338701405706 0.1492419234609121
3860000000.0 -0.0965985583232014 0.1097281942238828
3880000000.0 -0.02819087054598507 -0.14118406591742536
3900000000.0 0.054971057462457174 0.13765795551572793
3920000000.0 0.14777932762487161 0.06392503794449063
3940000000.0 -0.0674430358953129 0.15938924681934427
3960000000.0 0.13513279077970575 0.12154975471534703
3980000000.0 0.0337970321765648 -0.17620981198260033
4000000000.0 -0.1398796927819131 -0.09687221729305333
