!Created with skrf (http://scikit-rf.org).
# Hz S RI R 50.0 
!freq ReS11 ImS11
400000000.0 0.8572257748251595 0.13160751176420574
420000000.0 0.703158733665258 -0.4583240600459093
440000000.0 0.7327124408066112 -0.28441845537522253
460000000.0 0.6581496630332003 0.33854498844942565
480000000.0 0.18006544880308553 -0.6672113983998125
500000000.0 0.15226735449578788 0.5863844237548866
520000000.0 0.5023709946562175 0.08892187278172085
540000000.0 -0.42035381750588824 0.12755853837408587
560000000.0 0.20159978788601252 0.33698059594179613
580000000.0 -0.3563743244668789 0.026759977634082673
600000000.0 0.24240521260455009 -0.2573707145468894
620000000.0 -0.35006252047835357 0.03636261304112351
640000000.0 0.07121896259121603 -0.39442515561456554
660000000.0 -0.39249727748228713 0.12161190077746784
680000000.0 -0.20763956748110046 -0.4032147793435598
700000000.0 0.41728849346637753 0.21258186836724585
720000000.0 -0.29945157875982686 0.3672610646287882
740000000.0 0.43414341584045707 0.01379429845230762
760000000.0 0.2961748098761486 0.25736921365720067
780000000.0 -0.06097037363800645 -0.353935695060144
800000000.0 0.04344906635225207 -0.3281537853153333
820000000.0 -0.23239313608252044 -0.16834749712467978
840000000.0 0.09926152269148862 -0.19929839208350497
860000000.0 -0.09416206564261194 0.15610364847519173
880000000.0 -0.13700037618107472 0.049626411678197695
900000000.0 0.0918130594691471 0.00015175240126813212
920000000.0 0.019885495087734413 0.043961366811193815
940000000.0 0.01929082119095587 -0.028779791924833764
960000000.0 -0.027572936306933315 -0.022977914540607765
980000000.0 0.042547734701374906 0.03611178714439932
1000000000.0 -0.06867394653665108 -0.05602005349273005
1020000000.0 0.1019924818564041 0.050523731069912245
1040000000.0 -0.1198925718025075 -0.04686304197020335
1060000000.0 -0.10821656191174914 0.11429270349116954
1080000000.0 -0.08157195969982525 -0.16393720588107236
1100000000.0 0.10675585384061294 -0.18324832525149234
1120000000.0 0.14965874114685618 -0.18204682439051895
1140000000.0 0.004066038006785449 0.2531558913864162
1160000000.0 -0.05819544448929882 0.27096330507192323
1180000000.0 -0.27111051212847137 -0.14382819995067403
1200000000.0 0.2713460728842197 0.20931533017965784
1220000000.0 -0.3784251159366415 0.0316973945626165
1240000000.0 0.23112463596385374 -0.3297697782231994
1260000000.0 -0.364559691071816 0.19056437295529544
1280000000.0 0.18681927231630374 0.37942878747828906
1300000000.0 0.4246883848348752 0.013476832706967923
1320000000.0 0.3825879292655951 0.19136253795519095
1340000000.0 0.2690786645126567 0.344526830838266
1360000000.0 0.39533199349894704 0.2094165260148928
1380000000.0 0.056090822123650394 -0.43897572428593307
1400000000.0 -0.4308136748534099 0.015621087141733854
1420000000.0 0.36446240849585354 0.18034252120372812
1440000000.0 0.23586598533675082 -0.28848898908986237
1460000000.0 0.14760879292719267 -0.3068965187363077
1480000000.0 -0.29210298189377754 -0.11491667086145124
1500000000.0 0.0392298613779214 0.28062805888411574
1520000000.0 0.0814431795671727 0.2356898059010608
1540000000.0 0.0390239806536562 -0.2145230354305655
1560000000.0 -0.06456279171771945 0.17853336308405696
1580000000.0 -0.15522193081003086 0.057380880502020115
1600000000.0 -0.1273464075474182 0.040481490205286866
1620000000.0 -0.10666463085746997 -0.004981787855835792
1640000000.0 -0.06671602978880053 0.05713569953969879
1660000000.0 -0.016698169161027267 -0.07102219149274519
1680000000.0 0.03157872560513139 0.03403904347287002
1700000000.0 -0.014156251825143134 0.016357783222917248
1720000000.0 0.0006097696391999301 -0.0008185992410348372
1740000000.0 -0.00643927119897548 -0.01754049256062968
1760000000.0 -0.02049967980463121 0.03166350715977862
1780000000.0 -0.06043750103818171 -0.0012199951209048252
1800000000.0 -0.02921892157544692 0.09092119851980375
1820000000.0 0.08175854351584894 0.09409835195089193
1840000000.0 0.15322747098388326 -0.051160928863948144
1860000000.0 -0.11636151098044929 0.16009611006029875
1880000000.0 0.20188452735198234 0.12831406962978364
1900000000.0 -0.24204270578611461 -0.1548724638934766
1920000000.0 0.29290391463894866 -0.14410503948529615
1940000000.0 -0.3220316244329172 0.13934648867710944
1960000000.0 0.21171260339508172 0.3077634092712078
1980000000.0 0.32869896594769227 -0.22898071813373183
2000000000.0 -0.3792306385881247 -0.17383049582402668
2020000000.0 -0.3494993634576015 0.24343088629956408
2040000000.0 0.013846155985219589 0.4336849955877137
2060000000.0 0.3898305470729046 0.19664557321787665
2080000000.0 0.3093573718598435 -0.30323534109400796
2100000000.0 -0.11638851552086457 -0.4104415181531079
2120000000.0 -0.35343320515768617 -0.21593497033372658
2140000000.0 -0.38657405015478064 -0.0955084144147607
2160000000.0 0.22890565209301986 -0.3110701618645071
2180000000.0 -0.04589962414710419 -0.3723346099754834
2200000000.0 -0.3090892908800367 -0.18946420385561796
2220000000.0 -0.34812904713323684 0.06065185054004686
2240000000.0 -0.278726097054466 0.2111820549740617
2260000000.0 0.0035769146986962103 0.35062571439624385
2280000000.0 0.31372485140192796 0.16057132859003084
2300000000.0 0.33740268319116534 -0.13023724133263162
2320000000.0 0.09727775228604137 -0.3749421978511541
2340000000.0 -0.4099697356755788 -0.0881479262161802
2360000000.0 0.11469125500706694 0.44506302140913756
2380000000.0 -0.050456373612613445 -0.5087086403535254
2400000000.0 0.3247484757374011 0.4614472965234672
2420000000.0 -0.5949790636630045 -0.1568683495740492
2440000000.0 0.5405433791051945 -0.38167471389596025
2460000000.0 -0.13934406284637743 0.6867921247937939
2480000000.0 -0.33554223581126014 -0.6493339003421964
2500000000.0 0.42193807555147245 0.6199872626834457
2520000000.0 -0.3076397809913924 -0.6951086585507666
2540000000.0 0.04683569719666364 0.7600224152328536
2560000000.0 0.4599828346232486 -0.5998954921978498
2580000000.0 -0.7357905231732309 -0.09191179558136787
2600000000.0 0.4099204645719195 0.5897893611119458
2620000000.0 0.1740156416055951 -0.6672920737044992
2640000000.0 -0.30024680015682137 -0.5798171314198507
2660000000.0 -0.21703127084430693 0.5691503481673573
2680000000.0 0.5221639254827695 -0.2074719326314287
2700000000.0 -0.4435891154138104 -0.2621123424680484
2720000000.0 0.28052070660600376 0.3753978646761075
2740000000.0 -0.059150218434507844 -0.4173888130098385
2760000000.0 -0.22996608592956294 0.30634851004732905
2780000000.0 0.18934328522664637 -0.29405647752953457
2800000000.0 -0.11665234311638362 0.3002353228919543
2820000000.0 0.1714543822635681 -0.2496968873415101
2840000000.0 0.061025670190133774 0.28929172138924114
2860000000.0 -0.27822329438881954 -0.07977053772735694
2880000000.0 0.18219944566298601 -0.22169901564047315
2900000000.0 -0.23005148261606206 0.17023800574284442
2920000000.0 0.23839609299975517 0.1683020876395776
2940000000.0 0.07007353321070486 -0.29446601899842906
2960000000.0 -0.3097947187308318 0.011999689219444875
2980000000.0 -0.07310969077170412 0.30278294863039146
3000000000.0 -0.283626756116417 0.12941270598728866
3020000000.0 -0.21841399272746137 -0.2265510897715235
3040000000.0 0.09036355809771009 -0.30002040850782385
3060000000.0 0.25927295647712384 0.1649579530854217
3080000000.0 -0.2749204905178086 -0.11401447542495942
3100000000.0 0.18173688178957756 0.22597155445028858
3120000000.0 -0.11558815115989503 -0.25878185673263304
3140000000.0 0.20572254546144295 0.18206623032483926
3160000000.0 -0.2430468920653002 -0.10091856171256515
3180000000.0 0.015493056061505342 0.24818707954095107
3200000000.0 -0.22192174932196626 0.059074226285097974
3220000000.0 -0.1831156958042201 -0.08826975258134385
3240000000.0 0.021827597000541623 -0.17166638226383024
3260000000.0 0.12373823641822632 -0.06191859704668726
3280000000.0 -0.08944341140716201 -0.04914938371888027
3300000000.0 0.020506516554785 0.07086891488902802
3320000000.0 -0.04179726687410172 0.011411681147257368
3340000000.0 -0.005686310735398669 0.02277342414572799
3360000000.0 -0.004568682487555253 -0.008582907525980248
3380000000.0 -0.0009880235913627036 0.00605849377290508
3400000000.0 -0.007144437967731829 0.01187883102351487
3420000000.0 0.01678482751917774 0.024506540316479582
3440000000.0 0.01977424281325138 0.04025331339457767
3460000000.0 -0.03657593949613531 -0.047702722463168826
3480000000.0 0.031261245539902956 0.06516209507883143
3500000000.0 -0.007911017520382996 -0.08897425677571628
3520000000.0 -0.012854342407430129 -0.10088033928432293
3540000000.0 0.04264238479664809 0.10376131176331622
3560000000.0 -0.026312543175859075 -0.11681620209435739
3580000000.0 -0.12612971768795947 -0.03674409664271509
3600000000.0 0.14524899613052583 0.03074520363897465
3620000000.0 -0.141690063151732 0.08177929178460479
3640000000.0 -0.15671941042882867 0.09013601188358557
3660000000.0 -0.18848023587026777 -0.01577382387336238
3680000000.0 -0.18683174348202894 0.06042523763102977
3700000000.0 -0.11324557112367065 0.15932055878900747
3720000000.0 -0.18919908291987844 0.01840236668432006
3740000000.0 0.06282994689231339 -0.16979519795914494
3760000000.0 -0.1206275471788561 -0.13066207413059314
3780000000.0 -0.008846526486553522 0.17446576530688584
3800000000.0 -0.015588694435395893 -0.16929381942098895
3820000000.0 -0.10436841473631626 0.12535308075803447
3840000000.0 -0.015904365037920306 0.15184042812206047
3860000000.0 -0.10409858922902931 0.10366312123314744
3880000000.0 -0.008265907861629916 -0.144817875420109
3900000000.0 0.04399238388342288 0.14278342546500752
3920000000.0 0.125013897484498 0.10260721251628611
3940000000.0 -0.1123808278278915 0.13305148800519845
3960000000.0 0.1098249146882721 0.1449001483890786
3980000000.0 0.05547034424361415 -0.1700255039744394
4000000000.0 -0.15370782309702172 -0.06787398962039852
