!Created with skrf (http://scikit-rf.org).
# Hz S RI R 50.0 
!freq ReS11 ImS11
400000000.0 0.8478590664253712 0.17462901159586663
420000000.0 0.7414490668373819 -0.3950947453875409
440000000.0 0.7422005100043091 -0.2581283226521971
460000000.0 0.6596199244316452 0.3336993581805476
480000000.0 0.16923441924752805 -0.6692082926283871
500000000.0 0.13681533876148394 0.5898986056924819
520000000.0 0.5006223888002681 0.09809111581218126
540000000.0 -0.42137961449278183 0.12439247757201381
560000000.0 0.21157314053583617 0.3312626702398953
580000000.0 -0.3470543896521172 0.08671948363038975
600000000.0 0.2266891313642265 -0.2718563006167859
620000000.0 -0.3483200517467112 0.046817636750956355
640000000.0 0.1153523658663499 -0.3832692211385716
660000000.0 -0.400514159011617 0.0904850836156169
680000000.0 -0.15571639331348866 -0.42623979487438823
700000000.0 0.4130453153445505 0.2220444186693993
720000000.0 -0.3126601699863898 0.3564031497886997
740000000.0 0.4314300170525174 -0.04966494313138709
760000000.0 0.33032848544368915 0.20874152148578692
780000000.0 -0.008115443579290256 -0.3575377175559031
800000000.0 0.10531986513684197 -0.3136325109421442
820000000.0 -0.23337217862949128 -0.16827322693619923
840000000.0 0.032674428891280645 -0.22112029970999608
860000000.0 -0.004482230716772148 0.18222964910252262
880000000.0 -0.12018091290184865 0.08125253534200967
900000000.0 0.07154980623618343 0.05742427868607302
920000000.0 0.0004753093023392921 0.04826930798787637
940000000.0 -0.025810571898820574 -0.023055741658454615
960000000.0 -0.03572613288832786 0.002750454851718997
980000000.0 0.050463575429451575 0.02312329706618188
1000000000.0 -0.05738727673686763 -0.0666247410036068
1020000000.0 0.097944350120657 0.05651924069569952
1040000000.0 -0.12228901008829418 -0.04044010724809892
1060000000.0 -0.09081765795362379 0.12851596024832979
1080000000.0 -0.10751979275674406 -0.1486453960889436
1100000000.0 0.08195652793525406 -0.19566336114728186
1120000000.0 0.15781085084331814 -0.17496318394607
1140000000.0 -0.031159814957640267 0.25180848015222207
1160000000.0 -0.050222069586256454 0.2735448638214167
1180000000.0 -0.29524944929931907 -0.08439359078865347
1200000000.0 0.26681000387072445 0.21376371112886103
1220000000.0 -0.3780391567482915 -0.021262767120354284
1240000000.0 0.27797957946782154 -0.290916174613747
1260000000.0 -0.38476741886619487 0.14638689779380767
1280000000.0 0.15565297608373974 0.39364844592937737
1300000000.0 0.4251083095419764 -0.000775310124728275
1320000000.0 0.38499475725161 0.18559833233131445
1340000000.0 0.24602425332738276 0.3608809629747457
1360000000.0 0.38342765408633883 0.23033570795643424
1380000000.0 0.05079434052548032 -0.439522267947693
1400000000.0 -0.42772081581456795 0.05448487643985475
1420000000.0 0.38243659569866617 0.13781434829367126
1440000000.0 0.21692825083243222 -0.3024277111410539
1460000000.0 0.1425113520457178 -0.3094051285110932
1480000000.0 -0.2726733142015541 -0.15679752562098911
1500000000.0 0.060775039395643625 0.2780401595073121
1520000000.0 0.1216772945653586 0.21771862319653357
1540000000.0 0.008873992461540678 -0.21742216135366912
1560000000.0 -0.08010889536420282 0.17211836541373868
1580000000.0 -0.16200250596179358 0.03327558641882759
1600000000.0 -0.1277264404965436 0.04001796274501464
1620000000.0 -0.09718594190289494 -0.04573843434500367
1640000000.0 -0.07294823836179185 0.04960409385497223
1660000000.0 -0.01523652249906197 -0.07133401492381569
1680000000.0 0.046640554723815 0.0011231990918555933
1700000000.0 -0.01795024099023395 -0.010391988016946628
1720000000.0 0.0012185568494275305 0.00042390615414014313
1740000000.0 -0.014413696059470321 -0.013144538933319462
1760000000.0 -0.022822558507955497 0.030847697203470966
1780000000.0 -0.06022726727036993 0.007426547464985885
1800000000.0 -0.02058386424827511 0.09340341957946546
1820000000.0 0.07438367264165484 0.0993183434669676
1840000000.0 0.1486560695665404 -0.06109715763324591
1860000000.0 -0.12709453550588512 0.15090586026939554
1880000000.0 0.17916929636270293 0.1581669584569571
1900000000.0 -0.23542558173228575 -0.16439780225196352
1920000000.0 0.2818649557664292 -0.1644419435104291
1940000000.0 -0.31521027906692917 0.1541351059045927
1960000000.0 0.24701169463927677 0.28048147491696335
1980000000.0 0.310598054559058 -0.25255769033971825
2000000000.0 -0.3862169762269092 -0.15712978402345623
2020000000.0 -0.3435902925370971 0.25181557683377515
2040000000.0 -0.011266321442593681 0.4339716816952728
2060000000.0 0.37164063381826795 0.23050144485812135
2080000000.0 0.3178274358262687 -0.29513884087862347
2100000000.0 -0.12889400622608496 -0.40714850877705844
2120000000.0 -0.3549584960683333 -0.2144121747749104
2140000000.0 -0.38174187354340156 -0.11372117160655874
2160000000.0 0.2748129655451069 -0.27135936905056135
2180000000.0 0.04073050753662608 -0.37253775351528945
2200000000.0 -0.2610570666657834 -0.2513118625828875
2220000000.0 -0.35235415611505694 -0.02419265252173526
2240000000.0 -0.31571602805725646 0.14870341099192236
2260000000.0 -0.029156709583279577 0.3482114260200227
2280000000.0 0.3060087151474419 0.1732692980381904
2300000000.0 0.3375792944547551 -0.12687369810404725
2320000000.0 0.09891863872592951 -0.37322857960790856
2340000000.0 -0.4087656164773624 -0.08861952995841184
2360000000.0 0.12127121627834613 0.4426683071577671
2380000000.0 -0.052538281718577266 -0.5082374458388242
2400000000.0 0.30882946799814287 0.47213900252463736
2420000000.0 -0.6003219376692549 -0.13516487275276526
2440000000.0 0.5412981155186558 -0.38117788867384056
2460000000.0 -0.17170588802038853 0.6804968072575907
2480000000.0 -0.2253816708440877 -0.6966875091491966
2500000000.0 0.36639547564909486 0.6561060213113823
2520000000.0 -0.2869754509708621 -0.7054464675324628
2540000000.0 -0.031964053003184834 0.7622121678941773
2560000000.0 0.5574247425000287 -0.5115525641324002
2580000000.0 -0.713088760294941 -0.2055274092969787
2600000000.0 0.32938585340178256 0.6381664984074548
2620000000.0 0.2279484854493273 -0.6506011518207829
2640000000.0 -0.17797304066717778 -0.6274696312970557
2660000000.0 -0.25420882131723566 0.5532690872673703
2680000000.0 0.5372473026281425 -0.1617875227320149
2700000000.0 -0.4124907315761103 -0.30596997870120557
2720000000.0 0.25434186799448805 0.3928019238724204
2740000000.0 -0.013767570375328452 -0.4207164592825794
2760000000.0 -0.2255123544358251 0.30919928747100234
2780000000.0 0.1583497943636353 -0.3111826284793415
2800000000.0 -0.1004844780097989 0.30630253974848803
2820000000.0 0.14513235301932215 -0.2665562379175906
2840000000.0 0.07633600888747923 0.2859216945730707
2860000000.0 -0.2880328262459951 -0.03575505338563378
2880000000.0 0.1594490896243537 -0.23980116338316085
2900000000.0 -0.23623163054163065 0.16332405519443122
2920000000.0 0.22841134602424654 0.18338313326239314
2940000000.0 0.10746691086224715 -0.283206537008376
2960000000.0 -0.30765774739663804 -0.0398486897377348
2980000000.0 -0.10473162652802992 0.293295277221034
3000000000.0 -0.300725415205055 0.08286626153413097
3020000000.0 -0.2048491771107909 -0.23789934566671742
3040000000.0 0.12135441467633876 -0.2883933971460423
3060000000.0 0.22108350147818331 0.21415752146290443
3080000000.0 -0.2578084429641335 -0.14924349645615853
3100000000.0 0.16802750362409954 0.23583124352331084
3120000000.0 -0.08974959838328869 -0.26866772154881186
3140000000.0 0.1596314397881277 0.22334417930003223
3160000000.0 -0.22487955588660702 -0.1354472650429026
3180000000.0 0.012604434349976953 0.24832154303471396
3200000000.0 -0.22205444715538256 0.05656961279096967
3220000000.0 -0.18291072339064182 -0.08864688831086062
3240000000.0 0.03190739082651458 -0.16914082972148817
3260000000.0 0.1216106077286583 -0.06565425056869569
3280000000.0 -0.09336918088623405 -0.04089779690940037
3300000000.0 0.04032080327156167 0.0616223833288566
3320000000.0 -0.04125495671157817 0.011056081026430428
3340000000.0 -0.017500145033274513 -0.015623184571846761
3360000000.0 0.009989012609462649 0.0021888938445149978
3380000000.0 0.0008519863462946893 0.006580191321413379
3400000000.0 0.006374397731295735 0.012150487203190445
3420000000.0 0.02231236313436146 0.019693184617600973
3440000000.0 0.04236667345790977 0.015029561044644124
3460000000.0 -0.055523801866734744 -0.024857626418178423
3480000000.0 0.049741565876265374 0.05297903574901457
3500000000.0 -0.05488834886950363 -0.07127105692184996
3520000000.0 -0.0413888690092459 -0.09302857806959303
3540000000.0 0.04429904839351862 0.10320108753930823
3560000000.0 -0.040882574155764066 -0.11258282602636864
3580000000.0 -0.1216640556220382 -0.048980155662139445
3600000000.0 0.14883575024414014 0.008619967980805731
3620000000.0 -0.15059754963153454 0.06525905864523744
3640000000.0 -0.1587557408045466 0.08733435605096988
3660000000.0 -0.1887211352886675 -0.01927267691748873
3680000000.0 -0.1947173022438283 -0.021631193130893237
3700000000.0 -0.1330408473641482 0.14316500865834528
3720000000.0 -0.18928428519624307 -0.02176753216998565
3740000000.0 0.110690629972791 -0.14358239217660484
3760000000.0 -0.06827687009762953 -0.1639709472602328
3780000000.0 -0.06405013607588697 0.1627250473322553
3800000000.0 0.03821778122215244 -0.1655692674417757
3820000000.0 -0.13123134321207547 0.09474268833167303
3840000000.0 -0.08138901648133351 0.12792219894311757
3860000000.0 -0.13276886163844676 0.06034677149629724
3880000000.0 0.05600966386714771 -0.13259781455663391
3900000000.0 0.003126893994926153 0.14810828025224393
3920000000.0 0.1233790086075486 0.10257442405839033
3940000000.0 -0.06508219070769057 0.1592380153453664
3960000000.0 0.1123964524507583 0.14133639181713034
3980000000.0 0.05265243180485453 -0.17099048527151323
4000000000.0 -0.12911073193923342 -0.11025742293535554
