!Created with skrf (http://scikit-rf.org).
# Hz S RI R 50.0 
!freq ReS11 ImS11
400000000.0 0.8494021586836216 0.1595010544400655
420000000.0 0.6939113620641412 -0.470456554789099
440000000.0 0.6990824564321909 -0.35553567530459657
460000000.0 0.6746805830385627 0.3003608401006203
480000000.0 0.16236910026827425 -0.6707706228317053
500000000.0 0.12691346073085616 0.5925299346424712
520000000.0 0.4989061002353418 0.10519062792368626
540000000.0 -0.4206305914458261 0.12598235320284384
560000000.0 0.2586674528023379 0.29514877178284343
580000000.0 -0.3241016779872555 0.15180190187074133
600000000.0 0.18597350990812736 -0.30211545396094547
620000000.0 -0.35322287440585326 0.0019035335910941584
640000000.0 0.1530516616514623 -0.3723645279647575
660000000.0 -0.41260175524262094 -0.020045382629005272
680000000.0 -0.06586699848897236 -0.450633792397309
700000000.0 0.36623994114163727 0.29420547154460086
720000000.0 -0.34866524300170254 0.3215926393773266
740000000.0 0.43344461548117036 -0.0015571882234967443
760000000.0 0.30990211333936507 0.23561423953920158
780000000.0 0.02377175044499199 -0.3556275051644798
800000000.0 0.10095958628350624 -0.31404126201422855
820000000.0 -0.2625022021842345 -0.1167026995207191
840000000.0 -0.06256362802963313 -0.2145822465879465
860000000.0 0.10284819906830182 0.15062201706479159
880000000.0 -0.037917645706649454 0.14077841549510361
900000000.0 0.09264750635847584 0.004185108239512666
920000000.0 0.023315006057648326 0.04482550491167543
940000000.0 0.03133894919830368 -0.018039669333186594
960000000.0 0.014939974372893678 -0.032466235255751395
980000000.0 0.0015127525228349275 0.054627785567467536
1000000000.0 -0.05982671719905733 -0.06278186248216913
1020000000.0 0.10596944921236395 0.036757525907389545
1040000000.0 -0.12857321204797317 -0.0016974992844165824
1060000000.0 -0.019318755781459144 0.15624365837572662
1080000000.0 -0.15170822903527198 -0.10462539714222924
1100000000.0 0.021098794599000766 -0.2121324375695183
1120000000.0 0.14881267447977584 -0.18446638330333218
1140000000.0 -0.049743108701044404 0.2506515574713474
1160000000.0 -0.09242327050411674 0.26438970988501764
1180000000.0 -0.279624557585593 -0.13052002400652526
1200000000.0 0.24250199897802083 0.2417527227453198
1220000000.0 -0.37110966919315874 -0.07555025247943392
1240000000.0 0.32016815073414695 -0.24333386403313567
1260000000.0 -0.40236324016069785 0.08517376339093993
1280000000.0 0.11973734378957536 0.4056284314368846
1300000000.0 0.4247939031824937 0.00517660832819829
1320000000.0 0.3841180299415559 0.18628138933433072
1340000000.0 0.253993077285159 0.3545362423574906
1360000000.0 0.38088821491751323 0.23402996198341214
1380000000.0 0.06925374440740265 -0.43698397761330027
1400000000.0 -0.4298342959080109 0.03313924628912311
1420000000.0 0.374886566226967 0.15776026282761973
1440000000.0 0.22497023219564793 -0.29596527030705155
1460000000.0 0.16500993277548376 -0.2976310211441369
1480000000.0 -0.25564283974586166 -0.18274453054472073
1500000000.0 0.061311148135682614 0.2781167447829589
1520000000.0 0.1296641800546693 0.21384086851776773
1540000000.0 -0.01173465445340292 -0.21799212048122202
1560000000.0 -0.07549821572681498 0.1736419403641748
1580000000.0 -0.16238556983300398 -0.030950508321758777
1600000000.0 -0.13299612247595372 0.016490581620683745
1620000000.0 -0.07505449660043222 -0.07691648825139596
1640000000.0 -0.08815648590738044 -0.0006208847344002943
1660000000.0 0.03982496293260237 -0.06092235420664984
1680000000.0 0.041992090035029975 0.019232066573998043
1700000000.0 -0.006995184633388269 0.01957820635443037
1720000000.0 0.0016633033294391672 -0.0015370693535173585
1740000000.0 0.01946081824808232 0.002154333816574893
1760000000.0 -0.03843186648642487 -0.0016900707151232457
1780000000.0 -0.05890834993577769 -0.014982696395247647
1800000000.0 -0.02302680090014166 0.092571769681372
1820000000.0 0.08040727184231782 0.09387218140896789
1840000000.0 0.15527745193996792 -0.04039522488616772
1860000000.0 -0.13511037137290205 0.14350697760967124
1880000000.0 0.17349932522940711 0.16417893289464483
1900000000.0 -0.23364880267992455 -0.16732825885663075
1920000000.0 0.2866826464273844 -0.15631304257969844
1940000000.0 -0.3149265198453331 0.15551524519236015
1960000000.0 0.24829287339437506 0.2791253829107083
1980000000.0 0.3025640191721834 -0.26198512032779075
2000000000.0 -0.38835410464485237 -0.1523484969725771
2020000000.0 -0.3493045807145181 0.2439985931695114
2040000000.0 -0.03479956025509917 0.43350503739732843
2060000000.0 0.38269967582680975 0.21199858369069816
2080000000.0 0.2965879781327585 -0.31680389044929064
2100000000.0 -0.13219914257184437 -0.406381239748866
2120000000.0 -0.337277587386895 -0.24161320702943131
2140000000.0 -0.3649398916446932 -0.15984940130070577
2160000000.0 0.2786030007108289 -0.2676019877018503
2180000000.0 0.026805701144163353 -0.37409885202827287
2200000000.0 -0.26924421661888615 -0.2425478569449497
2220000000.0 -0.34752000043045594 -0.0637141681582752
2240000000.0 -0.30131263572451716 0.17505509700832375
2260000000.0 -0.020848547037449917 0.34860963586312027
2280000000.0 0.29135074767583713 0.19555842055531425
2300000000.0 0.33879845210131687 -0.12380891825403625
2320000000.0 0.0694796886540055 -0.37986765035904496
2340000000.0 -0.4126936971419705 -0.06983562112230535
2360000000.0 0.11518344462862717 0.44413450565542617
2380000000.0 -0.00972527419753207 -0.5109524652349587
2400000000.0 0.30837443278403504 0.4729048318174741
2420000000.0 -0.5992434067789858 -0.14175569876820895
2440000000.0 0.5630817558197111 -0.3494919951180421
2460000000.0 -0.1671799649164554 0.681579982668317
2480000000.0 -0.2734152959656098 -0.678945884748708
2500000000.0 0.33585780150474204 0.6717139526399569
2520000000.0 -0.2227639043437319 -0.7281603736319244
2540000000.0 -0.12483652948947138 0.7526684745114014
2560000000.0 0.5552558902032232 -0.5135040038209833
2580000000.0 -0.7273574130765215 -0.1457016237396601
2600000000.0 0.3219969303139886 0.6418134867009531
2620000000.0 0.22072136343543278 -0.6538045971510551
2640000000.0 -0.18976484587816084 -0.6245608468376836
2660000000.0 -0.27719450863617906 0.5420564205776923
2680000000.0 0.5414102870674944 -0.1478601757214578
2700000000.0 -0.41183580511681017 -0.30780457652353643
2720000000.0 0.2427345152995603 0.40070711804067044
2740000000.0 -0.025358615245292048 -0.42031673370974393
2760000000.0 -0.2328689635366015 0.30349232552843464
2780000000.0 0.16706684985716927 -0.3064510973809751
2800000000.0 -0.10253043192021263 0.305268946907829
2820000000.0 0.14564989132491746 -0.26625305614793937
2840000000.0 0.09582638202780215 0.27991801287618345
2860000000.0 -0.28937911215655715 -0.030042201798213153
2880000000.0 0.15212262800614293 -0.24495994120268727
2900000000.0 -0.2331445998433359 0.16807610615890342
2920000000.0 0.229933235291295 0.18201976958944446
2940000000.0 0.11423848650964467 -0.28154899879207923
2960000000.0 -0.3081697234662916 -0.04382240833475691
2980000000.0 -0.1913732351241581 0.24841260209793803
3000000000.0 -0.3063209269419348 0.05847072695587155
3020000000.0 -0.16216135599750223 -0.26963091194548205
3040000000.0 0.18516726227819916 -0.2529921079624067
3060000000.0 0.19412545262050737 0.23816657257389443
3080000000.0 -0.24137951856465278 -0.17362828693599666
3100000000.0 0.12662135864601531 0.2602462924144223
3120000000.0 -0.05545308776719602 -0.2777447267683117
3140000000.0 0.14657029367141605 0.23152606395362185
3160000000.0 -0.22069098149172914 -0.1410924587871244
3180000000.0 -0.014626025732037633 0.2474513653602586
3200000000.0 -0.22512891742594268 0.040144239889668955
3220000000.0 -0.17624650447679496 -0.09965290931985156
3240000000.0 0.030773182066649286 -0.16860226770786538
3260000000.0 0.12584767383611797 -0.054245452102577404
3280000000.0 -0.09650778604477075 -0.030353632554472553
3300000000.0 0.06321671155707904 0.03611973098657796
3320000000.0 -0.011934078553248996 0.04065513985375948
3340000000.0 0.0001200892572078187 0.022918872213528015
3360000000.0 -0.007204735963337957 -0.005301569393328835
3380000000.0 -0.0022870275409666704 -0.005294281354699854
3400000000.0 0.0033236811751142666 0.013312593512045051
3420000000.0 -0.022839527422318408 -0.019295968881688007
3440000000.0 -0.0363966672859291 0.02654422805212013
3460000000.0 0.026294429227209242 -0.054827904686912135
3480000000.0 -0.03496781025198925 0.06376232146468687
3500000000.0 0.01715448217727449 -0.08803673009001566
3520000000.0 0.028202541820381913 -0.09742856277033364
3540000000.0 0.012960320179758454 0.1111447479160748
3560000000.0 -0.005537912721204279 -0.11971988070189667
3580000000.0 -0.09931751272442599 -0.08565263635852066
3600000000.0 0.13534236975127512 0.059533319068796484
3620000000.0 -0.1600349378891903 0.033765197054554184
3640000000.0 -0.17981628558983007 0.013466066741837292
3660000000.0 -0.17342464915795433 -0.07418456135973857
3680000000.0 -0.1893234307697864 -0.045909719927101904
3700000000.0 -0.14602464267898949 0.12849402964057968
3720000000.0 -0.19003207622735266 -0.00933228810704447
3740000000.0 0.12236625932235036 -0.13222921466182894
3760000000.0 -0.08257918548822824 -0.15658545604146648
3780000000.0 -0.014018635976895854 0.17273628500959742
3800000000.0 -0.02229944463427749 -0.167420510016263
3820000000.0 -0.0803602312218916 0.1398822876866785
3840000000.0 0.004577179764425951 0.1506066357481001
3860000000.0 -0.0811319244501351 0.12025816651427128
3880000000.0 -0.03960885393669189 -0.13757821823876082
3900000000.0 0.04646842097748788 0.14020512299236124
3920000000.0 0.13855276355685953 0.07971000801571848
3940000000.0 -0.07332598549397734 0.15522196219774095
3960000000.0 0.12589627301537196 0.12871936040532145
3980000000.0 -0.027059517931094488 -0.17506525496812012
4000000000.0 -0.16551178947187195 -0.015352397755633285
