!Created with skrf (http://scikit-rf.org).
# Hz S RI R 50.0 
!freq ReS11 ImS11
400000000.0 0.8494787358438368 0.17278177529785652
420000000.0 0.7211876323193681 -0.4304024329908124
440000000.0 0.7504048963960052 -0.23486802299573678
460000000.0 0.6515478261990291 0.3498813187488003
480000000.0 0.17234724687148828 -0.6687450481747939
500000000.0 0.12304519944757136 0.5930830136656524
520000000.0 0.503028851894097 0.08380142663630316
540000000.0 -0.4203293202676545 0.1274103829516109
560000000.0 0.22240737415476824 0.3240217571441214
580000000.0 -0.3502528450531741 0.07272188007429468
600000000.0 0.23580746951304443 -0.2640494026510049
620000000.0 -0.3510183371176065 0.01959126796729015
640000000.0 0.10952686852871373 -0.3852382615372803
660000000.0 -0.4012706535334256 0.08992028087289027
680000000.0 -0.11193213181538754 -0.4405081569404225
700000000.0 0.4074606258492142 0.23198028857643074
720000000.0 -0.32694015534255216 0.3431184096743516
740000000.0 0.4325613382768812 -0.03926127735895705
760000000.0 0.32341188769903384 0.21985334117755517
780000000.0 -0.024924934161956777 -0.3572044516719533
800000000.0 0.08983392448028076 -0.3186122917107612
820000000.0 -0.23373798801590212 -0.16748525826275154
840000000.0 0.04396841394066754 -0.21897569675806
860000000.0 -0.01898583632047751 0.18140894235873717
880000000.0 -0.1178920470937491 0.08527075893351503
900000000.0 0.08613786984342679 0.032019139910690574
920000000.0 0.014947567060861778 0.046192245968724885
940000000.0 -0.009654649295393496 -0.0335836663374942
960000000.0 -0.033791360014321 -0.01216132121829282
980000000.0 0.050549253592053256 0.02316992207115412
1000000000.0 -0.06400707789730438 -0.06060278161338198
1020000000.0 0.09900704931899039 0.05501597398762057
1040000000.0 -0.121586279729007 -0.04202036346918327
1060000000.0 -0.09489953474607848 0.12535229805260298
1080000000.0 -0.10055772807159531 -0.1532391563304354
1100000000.0 0.09756537856153272 -0.1884499357909892
1120000000.0 0.13239415826705847 -0.19524528996980012
1140000000.0 -0.029036108627626147 0.25207788244255536
1160000000.0 -0.016835340701584052 0.2778434419634618
1180000000.0 -0.29481660392568343 -0.08679640955833173
1200000000.0 0.27943336403208713 0.19802811992973068
1220000000.0 -0.37916064488487694 -0.0030937527681992485
1240000000.0 0.2671351933666375 -0.30133157997906196
1260000000.0 -0.38214278712540534 0.1531393605324062
1280000000.0 0.15527238319497444 0.3937132772689626
1300000000.0 0.42509969236479744 0.0028349826562001274
1320000000.0 0.38042137554680977 0.19483931207303654
1340000000.0 0.2374679249639882 0.36638891149786595
1360000000.0 0.3833775262055004 0.2302309930351735
1380000000.0 0.0605812006032451 -0.4381742625018748
1400000000.0 -0.4284586475909812 0.04740195553845095
1420000000.0 0.3786783812253131 0.14731246851253568
1440000000.0 0.21412050279868428 -0.3045022821968795
1460000000.0 0.1212428874767447 -0.31810212500903184
1480000000.0 -0.2848839480645506 -0.13283510826131403
1500000000.0 0.07111180084277148 0.2752496921092186
1520000000.0 0.13283294270555107 0.21095836316028915
1540000000.0 -0.020824375117613373 -0.21696860129194634
1560000000.0 -0.07441004651464761 0.175043457876584
1580000000.0 -0.16099327434855998 0.03926889316781533
1600000000.0 -0.12817085796101926 0.03933799494516012
1620000000.0 -0.09616271979657619 -0.04830969562151274
1640000000.0 -0.07889532388727305 0.03983831221239656
1660000000.0 0.0077690988821793195 -0.07235549008230102
1680000000.0 0.04367878426489846 0.016343920572148774
1700000000.0 -0.002824279790327548 -0.020118451468299724
1720000000.0 0.0010618199469788832 0.00020835022956395373
1740000000.0 -0.008509558678682371 -0.017671382744592394
1760000000.0 -0.03292010808121642 0.019703557216187127
1780000000.0 -0.060082748061465345 -0.008924742345902896
1800000000.0 -0.05413557772564196 0.0785207762582287
1820000000.0 0.055340697016032496 0.1110955301555023
1840000000.0 0.15538407458246256 -0.041036699117025704
1860000000.0 -0.127574203542826 0.15087929306332543
1880000000.0 0.17829828572461218 0.1587422886124537
1900000000.0 -0.23720884685895977 -0.16157334117824163
1920000000.0 0.28205906394921726 -0.16335322593905882
1940000000.0 -0.31150584586806884 0.16096795610881787
1960000000.0 0.2499504878861383 0.27739160176614824
1980000000.0 0.31607174633488405 -0.2459889677704159
2000000000.0 -0.3817943370823005 -0.16864937110838582
2020000000.0 -0.31830560813851383 0.2830688246521709
2040000000.0 -0.008916553381159584 0.43425797290087664
2060000000.0 0.388173040952151 0.20191018110388176
2080000000.0 0.33025794796043095 -0.2816531493546252
2100000000.0 -0.11071043058633902 -0.4128399185505759
2120000000.0 -0.35258851420337095 -0.2187401866726999
2140000000.0 -0.3765142563013062 -0.13102006692321
2160000000.0 0.2709899507988758 -0.2754151566089891
2180000000.0 0.034662252879279154 -0.37314849258394045
2200000000.0 -0.2649129670767774 -0.2473562407833728
2220000000.0 -0.3494934014358443 -0.05361498927769992
2240000000.0 -0.3202583586422325 0.1394439370884036
2260000000.0 -0.02731061421452358 0.3483899638837386
2280000000.0 0.30794950438190266 0.1692958821161045
2300000000.0 0.3341476310321911 -0.13560527071354997
2320000000.0 0.09465063686768253 -0.37425888754452696
2340000000.0 -0.41121048195855425 -0.07561562385229809
2360000000.0 0.1402545320947514 0.4371884712107167
2380000000.0 -0.06771599373132071 -0.5066269780397483
2400000000.0 0.3429096405461002 0.4482442394807663
2420000000.0 -0.6028121513402809 -0.12448626257032994
2440000000.0 0.530740701533409 -0.396059515757422
2460000000.0 -0.14325405053354098 0.6868807895909022
2480000000.0 -0.2886182493961673 -0.6727582970797406
2500000000.0 0.4018197954957065 0.6344598871779514
2520000000.0 -0.2478605203197862 -0.7200667385839413
2540000000.0 -0.011798167726447659 0.7624895080994608
2560000000.0 0.5433027954873123 -0.5264096419470451
2580000000.0 -0.7167579386851886 -0.19206363906422183
2600000000.0 0.3223450753656042 0.641393468280391
2620000000.0 0.21694336451740814 -0.6538531870187906
2640000000.0 -0.26673577856207636 -0.5953675784012802
2660000000.0 -0.24031724499899693 0.5594886869624087
2680000000.0 0.5330426999644982 -0.1749339884964363
2700000000.0 -0.4197039141492903 -0.29580127049008387
2720000000.0 0.2560851397231741 0.391821621861729
2740000000.0 -0.04958784652247931 -0.41823470652095934
2760000000.0 -0.21977467538983966 0.31349359282773087
2780000000.0 0.1629419760241528 -0.3088370142216787
2800000000.0 -0.10961530031497521 0.3030684730121269
2820000000.0 0.15413956483986654 -0.2613796298202956
2840000000.0 0.07464156601147795 0.2861286325101794
2860000000.0 -0.2826700706440551 -0.06547109079537214
2880000000.0 0.15798717038263546 -0.24036758824106202
2900000000.0 -0.23248183094791783 0.16858073421610079
2920000000.0 0.22919284681533575 0.1820296088897157
2940000000.0 0.09070847152746284 -0.28878332458127653
2960000000.0 -0.3086444478781843 -0.02848933624030224
2980000000.0 -0.10473086224092275 0.29438349165943506
3000000000.0 -0.29460739800262514 0.10220478101384686
3020000000.0 -0.20573990053437852 -0.23789694316021615
3040000000.0 0.12446162098457529 -0.2875226144170002
3060000000.0 0.21833109094853226 0.2173836518338521
3080000000.0 -0.2642824762950721 -0.1379618404799214
3100000000.0 0.15964011973923642 0.24184787089253532
3120000000.0 -0.08482682438220869 -0.2706173885476117
3140000000.0 0.17036048436277715 0.21600336482670118
3160000000.0 -0.22655477551187853 -0.13373650103311363
3180000000.0 -0.007139089180589936 0.24887379353319977
3200000000.0 -0.22607801333264918 0.0393206026312039
3220000000.0 -0.1669093606083802 -0.1159730844311468
3240000000.0 0.05344152274598717 -0.1634433605122288
3260000000.0 0.13054785717821246 -0.04521034390544384
3280000000.0 -0.08737810329866548 -0.051956639421619155
3300000000.0 0.028055285471175577 0.06762774327031104
3320000000.0 -0.04203452954032917 0.00627860596736554
3340000000.0 -0.012001805589848159 -0.019761374380888503
3360000000.0 0.009463983033575742 -0.0019687648900089593
3380000000.0 0.005324256797320863 -0.0038932863877252266
3400000000.0 0.010813865290301908 0.009163319175098177
3420000000.0 0.006665143000801763 0.02926590630278109
3440000000.0 0.04516514884388161 0.003668241468129078
3460000000.0 -0.05630213067652351 -0.024270148949351027
3480000000.0 0.03632830860295467 0.06315430744512164
3500000000.0 -0.04458143259675825 -0.07831268449672828
3520000000.0 -0.0025110073171422816 -0.10159955985096251
3540000000.0 0.004501588434228692 0.1119798510219763
3560000000.0 -0.006216152164730778 -0.1194092042013522
3580000000.0 -0.10897831019411676 -0.07261086517679177
3600000000.0 0.14359755674752653 0.039376788697429645
3620000000.0 -0.15453270310017067 0.055755737230916015
3640000000.0 -0.16788755972582753 0.06800690461633757
3660000000.0 -0.18241239764849562 -0.0502452399717188
3680000000.0 -0.1902361861916183 -0.04570072461980892
3700000000.0 -0.1427903657609524 0.13300195297020653
3720000000.0 -0.18809385164476516 -0.029946215623654994
3740000000.0 0.10829444844509167 -0.1446897822410497
3760000000.0 -0.06642156242623592 -0.16455968641315563
3780000000.0 -0.08176927101160693 0.15446330268559355
3800000000.0 0.031206493739242256 -0.16632153612451026
3820000000.0 -0.13611762388732032 0.08794826809233104
3840000000.0 -0.04799312477171786 0.14304848022303884
3860000000.0 -0.1223774749250757 0.07874298027940536
3880000000.0 0.03296224396974283 -0.13956680039645167
3900000000.0 0.028569852848116375 0.14476067432022524
3920000000.0 0.1329492843239045 0.0891816726852861
3940000000.0 -0.067682302182998 0.15846182688620825
3960000000.0 0.11521278839003256 0.1388951201691804
3980000000.0 0.0648752023227657 -0.16677085907069245
4000000000.0 -0.10536885600952182 -0.1332693825727448
