!Created with skrf (http://scikit-rf.org).
# Hz S RI R 50.0 
!freq ReS11 ImS11
400000000.0 0.8512764261171711 0.15850046458378567
420000000.0 0.7221136040526919 -0.4292648794683251
440000000.0 0.7459285595944325 -0.24885903273329582
460000000.0 0.6575917885779929 0.339174372540756
480000000.0 0.1623057283717764 -0.6715276670956654
500000000.0 0.13965682804392757 0.5896684091411573
520000000.0 0.4980927473288029 0.11016784748694831
540000000.0 -0.42254467390311107 0.11998603677932163
560000000.0 0.20722625498635183 0.33380149260492953
580000000.0 -0.35293144543180394 0.05558187644140218
600000000.0 0.2289657233190104 -0.26913463668006776
620000000.0 -0.34667337565639617 0.057028157733474506
640000000.0 0.050200951784785994 -0.39748366461214046
660000000.0 -0.40685297423377265 0.059910912083009936
680000000.0 -0.18280407996902584 -0.41583836953326514
700000000.0 0.4103858437969722 0.22761609533562477
720000000.0 -0.3057980943498934 0.36301961499199104
740000000.0 0.43171256988242346 -0.050845464211594436
760000000.0 0.3229618625586528 0.21946451142121948
780000000.0 0.021635571247525038 -0.35722662225668367
800000000.0 0.14027405014175356 -0.2997134777713124
820000000.0 -0.22418667081214366 -0.18072273514575465
840000000.0 0.058907377621682334 -0.21575803380077963
860000000.0 -0.017016784477092706 0.18126044203187236
880000000.0 -0.11935990196348557 0.08175520026719763
900000000.0 0.07132214776619283 0.056606501622502275
920000000.0 0.0076646107574708435 0.047683344516271
940000000.0 -0.013420929731984268 -0.031820855821439266
960000000.0 -0.035006074682520066 0.009426847086943052
980000000.0 0.052366258561123674 0.018756138837069128
1000000000.0 -0.07349459120549838 -0.04922397094279176
1020000000.0 0.08029219606499492 0.07987709191557793
1040000000.0 -0.11046870009887716 -0.06675324215828869
1060000000.0 -0.09990193488708647 0.12143721751443826
1080000000.0 -0.09963571486708961 -0.1536787962336534
1100000000.0 0.08184319159787588 -0.19536943204370757
1120000000.0 0.1689463077869434 -0.16346123420241593
1140000000.0 -0.007209019161711312 0.2538393425291141
1160000000.0 -0.031880626332867895 0.27676109894245216
1180000000.0 -0.2942021833202931 -0.08810744108752076
1200000000.0 0.2863136415074927 0.18715803705337591
1220000000.0 -0.3756490306984608 -0.04540743365730784
1240000000.0 0.27600260953502337 -0.2927160090155728
1260000000.0 -0.38849300255289476 0.13622802067377518
1280000000.0 0.1655525941771804 0.3897100964883449
1300000000.0 0.4249988840738165 -0.006762934559233687
1320000000.0 0.3859925325616594 0.18361888656405342
1340000000.0 0.24012111556235685 0.3648255077241925
1360000000.0 0.38562417761034296 0.22685496802848995
1380000000.0 0.06286446604127759 -0.43807099194085514
1400000000.0 -0.42962494450286026 0.034002397445773665
1420000000.0 0.3741189993993365 0.1579442626416159
1440000000.0 0.22904567886022495 -0.29265132299286595
1460000000.0 0.15428689615851757 -0.302988184799245
1480000000.0 -0.28639913588901705 -0.1294698207272463
1500000000.0 0.04694094363741583 0.2804738491659622
1520000000.0 0.1337583865728664 0.21039094811225117
1540000000.0 0.008753577790478754 -0.21762762951229978
1560000000.0 -0.07184527611305752 0.1753802593164521
1580000000.0 -0.16546761790839698 0.002328058320363975
1600000000.0 -0.12377409846248011 0.051326395446305295
1620000000.0 -0.09665339461375111 -0.04688059460275449
1640000000.0 -0.0716543161851586 0.052323518338618744
1660000000.0 0.0034850783537721175 -0.07322937868875853
1680000000.0 0.041213086389375944 0.02164396805533704
1700000000.0 -0.01094888400599141 0.01786569270878982
1720000000.0 0.00045382615771124614 0.0014448464558939555
1740000000.0 0.012149564598360566 -0.015370883670409136
1760000000.0 -0.035605994608434006 0.014986637151652129
1780000000.0 -0.059843757539732444 -0.01158119125018486
1800000000.0 -0.02017047423434623 0.09357864960551596
1820000000.0 0.07098096768660235 0.10183479775033133
1840000000.0 0.15900133403119485 -0.021319497622105645
1860000000.0 -0.1395170236027653 0.13946263405083364
1880000000.0 0.17675611048211862 0.16062814046128826
1900000000.0 -0.24041287038251763 -0.15719274950002618
1920000000.0 0.2769982364556406 -0.17269874687099374
1940000000.0 -0.3142136255776255 0.15663033575465182
1960000000.0 0.24638933845072464 0.28074468375071776
1980000000.0 0.3074885230676532 -0.25629270992219066
2000000000.0 -0.38403585255921047 -0.16267227024149303
2020000000.0 -0.3298297574539018 0.26932803394942345
2040000000.0 -0.05462065947806758 0.4313352294356336
2060000000.0 0.3776801493601088 0.22059798772291564
2080000000.0 0.31284195859248276 -0.30079131920643687
2100000000.0 -0.07619481815697149 -0.4206952647315286
2120000000.0 -0.3662877905291907 -0.19387943141569025
2140000000.0 -0.3860598758244202 -0.09897973485639462
2160000000.0 0.2418091085778253 -0.30144284136136196
2180000000.0 -0.008230490235465062 -0.3753158046618841
2200000000.0 -0.3008923042857013 -0.2027978506377918
2220000000.0 -0.3526414052068935 0.02767760040612091
2240000000.0 -0.2924501106454711 0.19141926026153902
2260000000.0 -0.01309186817438251 0.34995744344735685
2280000000.0 0.29615409285415567 0.19064417991625723
2300000000.0 0.34916652924704766 -0.09381563732527937
2320000000.0 0.09403395676676383 -0.37499103834951397
2340000000.0 -0.4107322403344006 -0.08195657158889119
2360000000.0 0.11038859413593365 0.44563193660432115
2380000000.0 -0.03548502505493572 -0.510130111922411
2400000000.0 0.31570447797475093 0.46782824328602285
2420000000.0 -0.5980083376077884 -0.1445816640668732
2440000000.0 0.5526512091055344 -0.3640250682739134
2460000000.0 -0.13564481405310408 0.6877026546610524
2480000000.0 -0.3108882936767309 -0.6612825962231677
2500000000.0 0.3603943695480462 0.6577074401239057
2520000000.0 -0.2943275891379174 -0.701023785742705
2540000000.0 -0.061525093168093 0.7601055139499071
2560000000.0 0.5069097867696511 -0.5603914500370134
2580000000.0 -0.7351530039364285 -0.09924274392138728
2600000000.0 0.42556908365318386 0.5785088776523541
2620000000.0 0.2038701534343909 -0.6586723638871052
2640000000.0 -0.2690906514918657 -0.5954930615424158
2660000000.0 -0.1715183455675616 0.5851997015864142
2680000000.0 0.5188752250680929 -0.21756703301918204
2700000000.0 -0.4146563485507333 -0.3056748176314812
2720000000.0 0.2482734682605662 0.39810111640007584
2740000000.0 -0.048666502700996504 -0.41919903466207475
2760000000.0 -0.2536550776621523 0.2871889748635882
2780000000.0 0.2028137775047749 -0.2842285286689644
2800000000.0 -0.14814856208743163 0.28579467835112154
2820000000.0 0.18576101735733724 -0.23952166047699563
2840000000.0 0.03513490107287547 0.29366923444488696
2860000000.0 -0.28388786772558217 -0.05637158575250853
2880000000.0 0.16224779853386032 -0.2365113304621881
2900000000.0 -0.22277340912291127 0.17952028146532722
2920000000.0 0.24395648536915776 0.1601104910922711
2940000000.0 0.057684966101613167 -0.29716504580412273
2960000000.0 -0.3067443821749365 0.0436372942603912
2980000000.0 -0.07051982940634516 0.3040588899013931
3000000000.0 -0.2644289792362235 0.16530958256482747
3020000000.0 -0.21841387244823085 -0.22681940462959566
3040000000.0 0.11572346315561079 -0.29171721870039186
3060000000.0 0.23846110203689674 0.1951446672653209
3080000000.0 -0.2704762344176643 -0.12545740871897354
3100000000.0 0.14188772968887398 0.25308639752434114
3120000000.0 -0.11275202291668135 -0.26165229025371434
3140000000.0 0.1706308134360201 0.21652269367353041
3160000000.0 -0.21508041568028274 -0.15249601239901828
3180000000.0 -0.019255680324671252 0.24872458320712076
3200000000.0 -0.2284194477740354 0.02301652627345433
3220000000.0 -0.16446882589801431 -0.11916639133934989
3240000000.0 0.0923460597750081 -0.14594833887227038
3260000000.0 0.13823858578643694 0.004762831916895187
3280000000.0 -0.0631031774990928 -0.0796302939060504
3300000000.0 -0.02184358610828011 0.06935812720533248
3320000000.0 -0.027256618590432817 -0.031970038528152195
3340000000.0 0.006076920160323285 -0.02210376486247318
3360000000.0 0.0011718166481912507 -0.009690980698375031
3380000000.0 0.003969352696409882 0.005783725226528725
3400000000.0 0.009615682195601032 -0.0106549783427247
3420000000.0 0.024718379382288425 0.017596918005114235
3440000000.0 0.044361772364140635 0.009846832980404136
3460000000.0 -0.04858575075158988 -0.03723413885786149
3480000000.0 0.05700938650273721 0.046053126206093906
3500000000.0 -0.05825925447491059 -0.06965891328356619
3520000000.0 0.014297063647942483 -0.1016401841038935
3540000000.0 0.011838293916723752 0.1115704586584442
3560000000.0 -0.04445135444329251 -0.11213988875518256
3580000000.0 -0.12777570849342204 -0.03446259062113417
3600000000.0 0.1435195874720905 0.038576606787899814
3620000000.0 -0.14796803327745922 0.07393664607477396
3640000000.0 -0.17398952941554172 0.05375895047637801
3660000000.0 -0.18432162938853472 -0.04575124765566838
3680000000.0 -0.19588523355571993 -0.006566184758185522
3700000000.0 -0.15092338311870462 0.1240839927439138
3720000000.0 -0.19011313033152208 0.004738370454852508
3740000000.0 0.0862792512710101 -0.15903218634199442
3760000000.0 -0.07764122083571016 -0.15943663006500053
3780000000.0 -0.020992814570223964 0.17258457753839185
3800000000.0 0.003684613444763102 -0.1694898149383491
3820000000.0 -0.1019391434939549 0.1260048376461598
3840000000.0 -0.0018692480020877417 0.15113085889974526
3860000000.0 -0.10999027154047551 0.09527344419153003
3880000000.0 0.008328111008027356 -0.14346412160385402
3900000000.0 0.02792718385341343 0.14495356248538235
3920000000.0 0.11924847060255188 0.10778200981186511
3940000000.0 -0.1185271963639783 0.12566472425425043
3960000000.0 0.0811139202171943 0.16213113318735517
3980000000.0 0.10499708926727576 -0.1446845118696186
4000000000.0 -0.08990336696465295 -0.14343321012017005
