!Created with skrf (http://scikit-rf.org).
# Hz S RI R 50.0 
!freq ReS11 ImS11
400000000.0 0.8499335192789685 0.17121670452838422
420000000.0 0.7227516167432967 -0.42782399022697776
440000000.0 0.752608259040369 -0.22743601886022394
460000000.0 0.6398095094857542 0.37157808607579146
480000000.0 0.1979113062948785 -0.6616509939660218
500000000.0 0.14982577507087833 0.586634750097744
520000000.0 0.5028993757777475 0.08471572555390143
540000000.0 -0.42613813486809177 0.10627682737964111
560000000.0 0.221522793059504 0.32445718199768864
580000000.0 -0.3496551325400434 0.0749079149591992
600000000.0 0.23007848718363952 -0.26929423353209686
620000000.0 -0.3508808622764721 0.025384179234507295
640000000.0 0.10366549082464979 -0.38692366635432207
660000000.0 -0.4004459534570043 0.0919617009261273
680000000.0 -0.1554175658804021 -0.42660018687066353
700000000.0 0.4052344434061659 0.2351841466303547
720000000.0 -0.2941402823301526 0.37167751354410733
740000000.0 0.4333761513863255 -0.030168115313099004
760000000.0 0.32078031455194306 0.22418795058380853
780000000.0 -0.03286561458517592 -0.3568404516099978
800000000.0 0.07204332641635054 -0.32289145554892273
820000000.0 -0.2364798911427803 -0.163059314848257
840000000.0 0.037725186398927135 -0.2197880436161437
860000000.0 -0.023403658744736835 0.1808924859463222
880000000.0 -0.12175925525309819 0.07972951407019864
900000000.0 0.08500358034111552 0.03464206025105616
920000000.0 0.00887048784185344 0.0472798958795158
940000000.0 -0.022737700636124677 -0.02596701331889886
960000000.0 -0.034300229415762946 0.010880507193662577
980000000.0 0.05425628965849527 0.012937354332038287
1000000000.0 -0.06473959966291427 -0.06011998800304251
1020000000.0 0.09994926450122912 0.053420004800615956
1040000000.0 -0.12155452456105813 -0.04217935192078715
1060000000.0 -0.09579097565826657 0.12455500793705632
1080000000.0 -0.09819566067274417 -0.15467628118902607
1100000000.0 0.10239736330337598 -0.1858753698175225
1120000000.0 0.14154145592549658 -0.1886649321405035
1140000000.0 -0.0058431363052800925 0.2534867510849516
1160000000.0 -0.036278049435353704 0.2754248326422387
1180000000.0 -0.29480283359734183 -0.08595099608765981
1200000000.0 0.2755417797345862 0.2029547072453963
1220000000.0 -0.3788088670097071 -0.009383362142470658
1240000000.0 0.25522884338152985 -0.31144689390512564
1260000000.0 -0.3802908450522035 0.15783177563417494
1280000000.0 0.16519739300519562 0.3898043607219116
1300000000.0 0.425257068156811 0.005403986399722639
1320000000.0 0.3834879159567808 0.18961211584480486
1340000000.0 0.24195797174486872 0.3639074476054739
1360000000.0 0.3848351625973325 0.2281613181044395
1380000000.0 0.07446758396990799 -0.436185115106577
1400000000.0 -0.43000780106050973 0.03092226432205544
1420000000.0 0.37213381911363685 0.16382972990047212
1440000000.0 0.22054919239770177 -0.29991478498745083
1460000000.0 0.13055479525643163 -0.31448830417639667
1480000000.0 -0.2749583472173778 -0.1523055906020966
1500000000.0 0.062396955039069064 0.27717293861326564
1520000000.0 0.11552267847319012 0.22072797541264952
1540000000.0 0.008833034087078835 -0.2180091430567343
1560000000.0 -0.028597262651279258 0.18758553522161703
1580000000.0 -0.1550915086871397 0.05766590883584892
1600000000.0 -0.11835335681273625 0.06257668060556718
1620000000.0 -0.10552881481427896 -0.02063024197438104
1640000000.0 -0.07964995241797056 0.037693990059547454
1660000000.0 -0.008051085827228376 -0.07272292450269992
1680000000.0 0.034271890046770254 0.031709674955183696
1700000000.0 -0.016929226189470816 -0.012516024077114576
1720000000.0 -0.0003929929113028639 -0.0006529799010583954
1740000000.0 -0.018227723698435644 0.007397028082644029
1760000000.0 -0.01967788199558508 0.032968844660599995
1780000000.0 -0.060199681259323255 0.007370514761270313
1800000000.0 -0.029922733654060323 0.09129072034262117
1820000000.0 0.05586176363922261 0.1108845906213524
1840000000.0 0.15401121633769063 -0.04729283373116674
1860000000.0 -0.13468129293001088 0.14450845070333249
1880000000.0 0.1756429929486334 0.16204895951475828
1900000000.0 -0.22985819857535034 -0.1717169660399767
1920000000.0 0.28985516884390633 -0.14894258521688555
1940000000.0 -0.3182324557855154 0.14690350162519591
1960000000.0 0.2397174484289136 0.2860611174731479
1980000000.0 0.30805358660708504 -0.2553750473263435
2000000000.0 -0.38926968585052435 -0.14937669207094018
2020000000.0 -0.33107789890913847 0.26807606431533315
2040000000.0 0.008322000280350798 0.4340346430957635
2060000000.0 0.38499433388553617 0.20719558264847937
2080000000.0 0.31235404213039797 -0.300880296601336
2100000000.0 -0.10923129175958471 -0.4131198323867073
2120000000.0 -0.3508023733181719 -0.2214608978370394
2140000000.0 -0.3830863277663124 -0.1106083906888321
2160000000.0 0.26307959331245373 -0.28317919946246833
2180000000.0 0.04438165828689172 -0.3725396746337812
2200000000.0 -0.2685531935144708 -0.24373265362571447
2220000000.0 -0.34854990603656544 -0.06092536903113563
2240000000.0 -0.3085878128850743 0.16340461698239583
2260000000.0 -0.022234890025274213 0.34894332054115645
2280000000.0 0.3065019533813205 0.17211000166679807
2300000000.0 0.33430369876065885 -0.1352948774818747
2320000000.0 0.08655015065929679 -0.37627679428122224
2340000000.0 -0.41038219373408463 -0.0809184489860507
2360000000.0 0.1329593738462547 0.43932881351183806
2380000000.0 -0.06725711983999277 -0.5066826277823466
2400000000.0 0.3365904464638339 0.4528359782857094
2420000000.0 -0.6065220966773626 -0.10354193985465594
2440000000.0 0.5342982214766333 -0.3909623613277196
2460000000.0 -0.1239817822996275 0.6904019590653325
2480000000.0 -0.316242319254856 -0.6596223831322771
2500000000.0 0.4388361599356377 0.6092785850555751
2520000000.0 -0.27290867412516606 -0.7107399555593819
2540000000.0 -0.046654993252689576 0.7612599533845449
2560000000.0 0.5441856706573395 -0.5254575137470636
2580000000.0 -0.7189493811634561 -0.18330647856440593
2600000000.0 0.32716341132944127 0.6387647710473942
2620000000.0 0.21667076553320105 -0.6538505304458172
2640000000.0 -0.24665532776533916 -0.6035980191959996
2660000000.0 -0.23182839431300134 0.5629760452519893
2680000000.0 0.5158011368149422 -0.22090082661092444
2700000000.0 -0.435153336929766 -0.2728188657224171
2720000000.0 0.26722730919332943 0.3844925727428347
2740000000.0 -0.025953192011598798 -0.4204944959111673
2760000000.0 -0.2236390686587173 0.31083778446079113
2780000000.0 0.1577037364558808 -0.31187633099299145
2800000000.0 -0.10767871840732218 0.3039562024908209
2820000000.0 0.15881153316846686 -0.25868808856842335
2840000000.0 0.06435604889957729 0.288600748650199
2860000000.0 -0.27798907397975625 -0.08386348680273945
2880000000.0 0.17259894233163497 -0.22997259954524038
2900000000.0 -0.23886213107072696 0.1587189299222612
2920000000.0 0.2241446545384647 0.18784235812030198
2940000000.0 0.09408957873221123 -0.28739643996679165
2960000000.0 -0.3090881652405583 -0.019750849616953996
2980000000.0 -0.0934860708326041 0.2980047970931036
3000000000.0 -0.28224932719566587 0.13192627805355717
3020000000.0 -0.21312112517890963 -0.23075668207465427
3040000000.0 0.10094813920529473 -0.2963510035175921
3060000000.0 0.24249228184845248 0.18977825507934262
3080000000.0 -0.2781272007254106 -0.10790307559230977
3100000000.0 0.18915049543618087 0.2198175153239866
3120000000.0 -0.12042680236552712 -0.25727935380892675
3140000000.0 0.16255180300265518 0.22197399331739678
3160000000.0 -0.2245884327427029 -0.13759899182702467
3180000000.0 0.0035386807895342134 0.2492781742883815
3200000000.0 -0.22425731989781753 0.04939517401015652
3220000000.0 -0.17444391139846027 -0.10498196246737836
3240000000.0 0.05953398468942747 -0.16185291490144318
3260000000.0 0.13082739744981955 -0.04498597776080542
3280000000.0 -0.08266193815334927 -0.059774753968651284
3300000000.0 0.004210077418441689 0.0734425689890828
3320000000.0 -0.038314021869343004 -0.019064481013336326
3340000000.0 0.011616735895634238 -0.02052579234756416
3360000000.0 -0.0038306647446189096 0.009487934222565511
3380000000.0 -0.006582284881037684 -0.0006058022872218698
3400000000.0 0.008453048212240447 -0.0112978113722804
3420000000.0 0.014272873942097222 0.026216338610688023
3440000000.0 0.044916871306878235 -0.00528211440292635
3460000000.0 -0.05177899014443912 -0.03185590829087057
3480000000.0 0.04199305653572803 0.05937056297975651
3500000000.0 -0.05060362857711471 -0.07440734619676442
3520000000.0 -0.011355935405974888 -0.10106266967996
3540000000.0 0.023877342957405134 0.10965626906109441
3560000000.0 -0.0181397033368285 -0.11830339637529669
3580000000.0 -0.1206400520333889 -0.05194668228827221
3600000000.0 0.14162397699569035 0.04483134594538378
3620000000.0 -0.15721514205950013 0.046752441485207054
3640000000.0 -0.1710709318956865 0.05880308115602876
3660000000.0 -0.18049214549063086 -0.055975298094843966
3680000000.0 -0.19077727247465043 -0.04280863152483627
3700000000.0 -0.137939490843828 0.1376670221236171
3720000000.0 -0.18913631526021057 -0.01885203866232622
3740000000.0 0.10613064521209803 -0.1463688844789095
3760000000.0 -0.07186435371021636 -0.16211606755231267
3780000000.0 -0.08356322041275818 0.15339067502844775
3800000000.0 0.03976348315864906 -0.1649449866103809
3820000000.0 -0.12975381090411378 0.09677533900510349
3840000000.0 -0.056591143789028256 0.14024635369463145
3860000000.0 -0.1323244900904386 0.06178327476145881
3880000000.0 0.04238749530165419 -0.13772476750825013
3900000000.0 0.035405348974356536 0.14368405472663676
3920000000.0 0.12692405947045515 0.09856616575735429
3940000000.0 -0.061905876155979284 0.16084954295707418
3960000000.0 0.10153693732802589 0.1498104692760645
3980000000.0 0.08770605646725842 -0.15647229952091168
4000000000.0 -0.07497286773893988 -0.1528754092725259
