! Created with skrf (http://scikit-rf.org).
# Hz S RI R 50.0 
!freq ReS11 ImS11
400000000.0 0.17105765180918361 0.8558875129821512
420000000.0 0.5816360862585083 0.6345880400946281
440000000.0 0.7930001933986022 -0.23644826222649756
460000000.0 0.09702810204696936 -0.7848389629990505
480000000.0 0.4950367187766048 -0.5069294152577417
500000000.0 0.18850716278727617 -0.530851233999337
520000000.0 0.001506846272169058 -0.48799985142519564
540000000.0 0.4029490449798797 -0.1273979936098414
560000000.0 -0.3031924943684283 -0.17494463910939204
580000000.0 -0.300639617646978 0.13893823546276923
600000000.0 0.29304427467023886 0.14361780786776257
620000000.0 0.04591925589050814 -0.3438953049647057
640000000.0 -0.23489309749407847 -0.3013178179515757
660000000.0 -0.3991381632510743 0.036123673874341754
680000000.0 0.05202482525203356 -0.4283588220454251
700000000.0 0.31627071076651264 0.32065888869229947
720000000.0 -0.02867949061054381 -0.44773847291325597
740000000.0 0.4234158981464601 -0.11739327317602481
760000000.0 -0.3796148030538217 -0.1685239469465051
780000000.0 0.32444575479592613 -0.20338496667370995
800000000.0 -0.2112917990850478 0.2778928907189132
820000000.0 -0.17290124369149323 0.2357571117856924
840000000.0 0.1008616919812753 0.21523658376057844
860000000.0 -0.11223549621619842 0.17166602053898292
880000000.0 -0.14250714920454682 -0.028477194712058812
900000000.0 0.05240216944543093 -0.05952917626091624
920000000.0 0.02520155002486584 -0.040600006362413704
940000000.0 -0.04030643497631734 -0.014579846525071842
960000000.0 -0.05136730395441697 0.02265012003129424
980000000.0 0.0630463265804532 -0.00303454652420136
1000000000.0 -0.05132928133352712 -0.04714840260739386
1020000000.0 0.07780579511951774 0.014899138822981939
1040000000.0 -0.01857839004209185 0.07862501460295876
1060000000.0 -0.11065495545895544 0.037353951227857625
1080000000.0 -0.0929379786007728 0.0938135544828565
1100000000.0 -0.12012401616081056 -0.10241012159081062
1120000000.0 -0.12176291368680561 -0.14532161543618763
1140000000.0 0.08517410397102577 0.22194418996248205
1160000000.0 0.2836707733056069 -0.00578965186422281
1180000000.0 -0.04096344256936424 -0.32738958034749416
1200000000.0 -0.24229851873525587 -0.2749632598103176
1220000000.0 0.17064855086027386 -0.3576726315757896
1240000000.0 0.3177676204564208 0.27285416309300947
1260000000.0 -0.4059585153173452 -0.17176786503239205
1280000000.0 0.43697082629658995 0.1118032672754554
1300000000.0 -0.3759781860642417 -0.251616625561529
1320000000.0 -0.09095297477370537 0.4298941554933072
1340000000.0 -0.24998918139351528 0.34184133038228237
1360000000.0 -0.3162573717535477 -0.26209090437610416
1380000000.0 -0.05879212402725353 -0.404539330768137
1400000000.0 -0.1297187697558166 -0.3734226355325834
1420000000.0 -0.03731101179075702 -0.3810673293051497
1440000000.0 -0.2155503195042434 -0.29777295797157705
1460000000.0 -0.34173538127292624 -0.05997071729161699
1480000000.0 -0.1572517580896198 0.28824476218263495
1500000000.0 0.24550508813773983 -0.18361929568482094
1520000000.0 -0.2076397689031091 -0.1924633751963409
1540000000.0 -0.1549372949898717 -0.20259484391655497
1560000000.0 -0.21856072934224646 0.024759236898601787
1580000000.0 -0.011277161629763163 0.1878299166952787
1600000000.0 -0.15375708271391517 -0.017178232540101902
1620000000.0 -0.11292214429280087 0.00014064263699325655
1640000000.0 0.08282144360272091 -0.014965043830742451
1660000000.0 0.04145768649962052 -0.042310938955901566
1680000000.0 0.003812989819330061 -0.03066257387688452
1700000000.0 -0.018082855970985495 -0.006114758863098713
1720000000.0 0.019878186030741818 0.026819362566174468
1740000000.0 0.050396574398627374 -0.022746166231389295
1760000000.0 -0.0731917139373266 0.0027753269439814167
1780000000.0 0.09063249331143301 -0.02106307870462368
1800000000.0 0.07775395176137065 0.08994934713648546
1820000000.0 0.03830364354491103 -0.12714949239579873
1840000000.0 0.12106785895212256 -0.09956557408015891
1860000000.0 0.16979624406370764 -0.05178119982721796
1880000000.0 -0.1353308560548719 0.1590936380150905
1900000000.0 -0.2191121340899855 -0.11280090927700077
1920000000.0 -0.25829482006591903 0.13276504183709129
1940000000.0 0.01915064799085792 0.33518344066999917
1960000000.0 0.25613780748353665 -0.2761226043112275
1980000000.0 -0.28529944308140953 0.2917842387459043
2000000000.0 0.43415306198676445 0.016323564889069542
2020000000.0 -0.438148796457825 -0.11523112220229259
2040000000.0 0.24037402013031264 0.3901119774671793
2060000000.0 0.014800479906172465 -0.45585469667635664
2080000000.0 -0.40971372264982536 0.16997715744396427
2100000000.0 -0.09742533612721138 0.41524296385565024
2120000000.0 0.014047265740678369 0.4045901595317653
2140000000.0 -0.316181674124149 -0.21762264674200077
2160000000.0 -0.019767448957982915 -0.36459070729140974
2180000000.0 0.33488532003906296 -0.11212042275303243
2200000000.0 0.2895280444321854 0.1872580716397449
2220000000.0 0.23825687216355265 0.2543545984983622
2240000000.0 0.1899916988426089 -0.29488503399970467
2260000000.0 -0.2249901731503414 -0.275176459604098
2280000000.0 -0.17985983913826725 0.3144149401449191
2300000000.0 0.3733544284571073 0.02336417602990745
2320000000.0 -0.27265684293168013 -0.28321598848430596
2340000000.0 -0.25151892416921257 0.33440761122887175
2360000000.0 0.4517947688777223 0.04348325564330496
2380000000.0 -0.33940003527226836 -0.3659365625614308
2400000000.0 0.21501375132666775 0.5055471072583031
2420000000.0 -0.329969756444284 -0.5036736817791153
2440000000.0 0.5928005682809029 0.27562848333235135
2460000000.0 -0.6753830085577179 0.16850101904479636
2480000000.0 0.5266318962291067 -0.5053261309035328
2500000000.0 -0.5438120918282909 0.5202456180004676
2520000000.0 0.6054780522018566 -0.4662277721290156
2540000000.0 -0.7251503041851588 0.24977106828393583
2560000000.0 0.7019352171442279 0.29562158773003355
2580000000.0 -0.21837260222969224 -0.7145875330218187
2600000000.0 -0.43143186685414586 0.5810941415634102
2620000000.0 0.6913639711379279 0.0432389645225349
2640000000.0 0.6248318082750592 -0.199551442912773
2660000000.0 -0.4665352938830215 -0.3972181614803972
2680000000.0 -0.04330407908593998 0.5666715084528022
2700000000.0 0.3718900201347621 -0.37178721515446417
2720000000.0 -0.39778390109647943 0.2704701572611936
2740000000.0 0.3359166979611523 -0.2804589060834516
2760000000.0 -0.1268037697481157 0.3757057884111391
2780000000.0 -0.23126485909052522 -0.27735024503102934
2800000000.0 0.3285135119484815 -0.018207688540963975
2820000000.0 -0.1969182575032049 0.23227645824224735
2840000000.0 0.18249762663963065 -0.22355179057800525
2860000000.0 -0.21986089292010796 0.1771056784061528
2880000000.0 0.267863155925918 -0.0854724566191374
2900000000.0 -0.25474559098729627 -0.13082399613617046
2920000000.0 -0.04630042123936377 0.29457917014512514
2940000000.0 0.2570349855612583 -0.17184128070332041
2960000000.0 -0.20068469209617548 -0.2465931382626362
2980000000.0 -0.3196426686495332 -0.059502653648210516
3000000000.0 -0.32845048528340604 0.01725576751157559
3020000000.0 -0.31647804901910914 -0.0867511931217721
3040000000.0 -0.02350904308495136 -0.3218558526815149
3060000000.0 0.3092797502484224 0.06528258895864882
3080000000.0 -0.30498956922071657 -0.0028441029848370507
3100000000.0 0.2927829415026155 0.03597042182490703
3120000000.0 -0.22666481160527394 -0.16828405121272108
3140000000.0 0.08889494130895188 0.25661735689369897
3160000000.0 0.14563430733067945 -0.21275672725444053
3180000000.0 -0.11097208269870681 -0.21907039860561045
3200000000.0 0.18379230524705972 0.13749555363355348
3220000000.0 -0.1703665738923282 0.12039858093600057
3240000000.0 -0.16337841316522148 -0.08846243469519391
3260000000.0 -0.050981885497524894 -0.14787720045742989
3280000000.0 -0.12228862150764754 -0.015607091223489588
3300000000.0 -0.016768626358631047 0.08704005740573724
3320000000.0 -0.03262863852901134 0.04259639161714068
3340000000.0 -0.021988143718268786 0.0064862700337087855
3360000000.0 -0.011782379008870513 -0.005809519982311737
3380000000.0 0.011673720399672391 -0.023163412627678244
3400000000.0 -0.03053889398720632 0.01785050096228908
3420000000.0 -0.013637482509323375 -0.03760460999616683
3440000000.0 -0.014577516670216959 0.03445338599371469
3460000000.0 -0.00888790718724803 0.03723367111777696
3480000000.0 -0.03358093801438355 -0.043075466749184166
3500000000.0 -0.017178331913993403 -0.07670369246644841
3520000000.0 0.027899611172928464 -0.10202061365785435
3540000000.0 -0.11830768333179775 0.04213374548373293
3560000000.0 0.00029080783575658294 0.1391421372659053
3580000000.0 -0.06019798172581502 0.1374659459161219
3600000000.0 -0.12624326095984253 0.09841531018801106
3620000000.0 -0.13511507048548674 -0.0945413160923213
3640000000.0 0.1696959242952071 0.002497042749345435
3660000000.0 -0.1733714710191136 0.03489918732712257
3680000000.0 0.15809207936722425 -0.09017633786424903
3700000000.0 0.07493484539588442 0.17109316385709197
3720000000.0 -0.16711115262690077 0.09628645229835105
3740000000.0 -0.16930188617137196 0.09612216382702203
3760000000.0 -0.16159293013192438 -0.10247137928519198
3780000000.0 0.06204202335796046 -0.17109904884908886
3800000000.0 0.06689047370490431 0.15511739432214067
3820000000.0 0.1532036398674809 -0.006258925291965816
3840000000.0 0.01300868512609703 0.1386582461124102
3860000000.0 0.13308645595724145 0.025424416516892177
3880000000.0 -0.1136426129567098 -0.08711768734984558
3900000000.0 -0.0893846934228237 -0.1249694530881188
3920000000.0 0.05687968037176316 0.1567556642601296
3940000000.0 -0.09972733584798862 0.1475779166417383
3960000000.0 0.14381552807507475 0.11808679139394837
3980000000.0 -0.18380314198365696 -0.01462630069810417
4000000000.0 0.04532291844692438 0.16637191032311152
