! Created with skrf (http://scikit-rf.org).
# Hz S RI R 50.0 
!freq ReS11 ImS11
400000000.0 0.1935100344777137 0.8514026981277213
420000000.0 0.6144784697881049 0.602378889599278
440000000.0 0.7772273063679777 -0.2856189675964526
460000000.0 0.16571478825260455 -0.7715916780707446
480000000.0 0.46291923597451734 -0.5377103572860904
500000000.0 0.1883624334821585 -0.5309531232318921
520000000.0 -0.0243628932725516 -0.48643598966492263
540000000.0 0.4088067191460978 -0.11228143567329972
560000000.0 -0.3127378636839386 -0.15773192542915732
580000000.0 -0.2695571074129143 0.1922834229195142
600000000.0 0.26659518134747884 0.1858469956504931
620000000.0 0.01562074070640249 -0.3468198874567069
640000000.0 -0.2405980324304156 -0.295463091350733
660000000.0 -0.40041603583087504 0.01134347867889585
680000000.0 -0.021347843312300052 -0.42990160790039067
700000000.0 0.3472840769272406 0.2867146612046836
720000000.0 -0.0294321389266714 -0.4478954394762645
740000000.0 0.38683436827704876 -0.20821320072728322
760000000.0 -0.3533343030090557 -0.2185310337551749
780000000.0 0.2961665508863222 -0.24291587039327012
800000000.0 -0.20338686596729652 0.28290605391414936
820000000.0 -0.19767898157204325 0.2150490921838694
840000000.0 0.06253753013447488 0.22934538218625616
860000000.0 -0.10519877956744832 0.17522555445024807
880000000.0 -0.14309198359262099 0.022299168313749746
900000000.0 0.06126909323771987 -0.05035660179907593
920000000.0 0.015435878496790019 -0.04581386232608692
940000000.0 -0.02251366044142802 -0.036024206088182326
960000000.0 -0.04687882193483117 0.02852423420655007
980000000.0 0.05737463734188399 -0.026154329392335418
1000000000.0 -0.06328371537311768 -0.027651390884299045
1020000000.0 0.06940114096917709 0.037226529336623876
1040000000.0 -0.035873175784052976 0.07269037365698963
1060000000.0 -0.11234641958085365 0.031779637846281676
1080000000.0 -0.09528122005095428 0.09200049662960433
1100000000.0 -0.12170030150819028 -0.1004685407823474
1120000000.0 -0.14754717750094237 -0.11828882846531837
1140000000.0 0.10901807548525613 0.2114559392826179
1160000000.0 0.27742381362805035 -0.06273866321898952
1180000000.0 -0.08765897713063993 -0.31847062692989453
1200000000.0 -0.29131189504778643 -0.22241860110137182
1220000000.0 0.14793175021606594 -0.3685874515222491
1240000000.0 0.3410394812863496 0.24336758512754114
1260000000.0 -0.42514915737455583 -0.11638395047100139
1280000000.0 0.44549868133361226 0.07535244311446958
1300000000.0 -0.390328459415439 -0.228780837757065
1320000000.0 -0.09544603789249252 0.42923688659714954
1340000000.0 -0.2468664492803577 0.34351489375460686
1360000000.0 -0.2971797365352751 -0.2837090795542317
1380000000.0 -0.06902965315796579 -0.4025662637063995
1400000000.0 -0.08045709725042945 -0.38678379745467123
1420000000.0 -0.04296590342472281 -0.3799241137868865
1440000000.0 -0.22668489522383237 -0.28858900123083997
1460000000.0 -0.34187335412193715 -0.05609084805943854
1480000000.0 -0.15124216153756867 0.29115808511792135
1500000000.0 0.22393952526406535 -0.2079878879922121
1520000000.0 -0.24540625132906482 -0.1386573039545194
1540000000.0 -0.19100942820541666 -0.16878794189920104
1560000000.0 -0.20531073683253134 0.07642043332885888
1580000000.0 0.05423772547987012 0.17961871125888218
1600000000.0 -0.14351264055080531 0.0565205022657401
1620000000.0 -0.10548434853393077 0.040132391466306656
1640000000.0 0.05907169936736709 -0.06072102525718901
1660000000.0 0.042163898612586605 -0.04212322809896393
1680000000.0 0.01651432587628793 -0.025679348928410083
1700000000.0 -0.016189808021439277 -0.008707864028743195
1720000000.0 0.03043936461041637 0.01335814244517405
1740000000.0 0.019905463474667075 -0.05168713515172556
1760000000.0 -0.04409521301720223 0.05886330464514002
1780000000.0 0.06239983795294506 -0.06955370395161223
1800000000.0 0.10403721947482415 0.05989749977624612
1820000000.0 -0.005689569501792184 -0.13325669174306
1840000000.0 0.12441709817168534 -0.09670775169551324
1860000000.0 0.1774415034350491 -0.017340109053590354
1880000000.0 -0.15156454562546218 0.1448134345900937
1900000000.0 -0.21163030164154484 -0.12714202034083288
1920000000.0 -0.26913105433606455 0.11010135635806438
1940000000.0 -0.0009447450820840031 0.3366895032936811
1960000000.0 0.28476871900184125 -0.24676300218836095
1980000000.0 -0.31563320039867143 0.25889273994307754
2000000000.0 0.4325301090679162 0.04001193384861625
2020000000.0 -0.4346833057609879 -0.12495922372943262
2040000000.0 0.23674823795979655 0.3915440256842391
2060000000.0 0.005201025232181821 -0.45537342418543036
2080000000.0 -0.4098975481677651 0.16474408485670092
2100000000.0 -0.1010209781190303 0.4126916921612714
2120000000.0 0.058943771659610227 0.3986196268985129
2140000000.0 -0.3217990937836575 -0.20633207621420263
2160000000.0 -0.08739873242141596 -0.35297653451714517
2180000000.0 0.31088361941765535 -0.1656859229786257
2200000000.0 0.3275280941286505 0.10578700539569626
2220000000.0 0.30498972545562175 0.16550548647814647
2240000000.0 0.15922765648031942 -0.3119805250817417
2260000000.0 -0.28351641441716935 -0.21353886232277855
2280000000.0 -0.07125213981189067 0.3550438329935563
2300000000.0 0.3682679164544697 -0.06668855235880827
2320000000.0 -0.3150943158185449 -0.23559991623297352
2340000000.0 -0.19080002275298608 0.3728059395307957
2360000000.0 0.4539490959646894 0.002639693366544415
2380000000.0 -0.37662489412990224 -0.3275078088471677
2400000000.0 0.22186649973738914 0.5025546917181376
2420000000.0 -0.3186053485313292 -0.5111670853305227
2440000000.0 0.5721546270825383 0.3155867460215821
2460000000.0 -0.6895461703692074 0.092878476829113
2480000000.0 0.5925645752220664 -0.4245813049777439
2500000000.0 -0.5651186669934295 0.49541423859405725
2520000000.0 0.5987762798669566 -0.472689250908972
2540000000.0 -0.7243143825643586 0.24827121169431166
2560000000.0 0.7132435327156292 0.2631891539072055
2580000000.0 -0.21809992254612914 -0.7130436000409133
2600000000.0 -0.397423517780548 0.6027775002353347
2620000000.0 0.6863117763324882 -0.07964931880445451
2640000000.0 0.5892458554126738 -0.28347676145693046
2660000000.0 -0.5256485868015716 -0.31116007354877606
2680000000.0 0.0019132642497240878 0.5675229462923702
2700000000.0 0.2840705106451848 -0.44082045648979246
2720000000.0 -0.3520126247052549 0.32638786028789
2740000000.0 0.29332126970940847 -0.3238089378000634
2760000000.0 -0.06839019348452192 0.3898871944029952
2780000000.0 -0.2572760863144634 -0.25262355808561887
2800000000.0 0.32478521462628374 -0.0495602232311124
2820000000.0 -0.18782665668549853 0.23884954927117244
2840000000.0 0.15779492277914683 -0.240405163632687
2860000000.0 -0.21583876880679148 0.18093934192003236
2880000000.0 0.2606565143295466 -0.10516465141359396
2900000000.0 -0.2695694865764668 -0.0957677980409978
2920000000.0 -0.038498313095844235 0.2957301229675955
2940000000.0 0.2627141615822125 -0.16349400184566729
2960000000.0 -0.16278168335449456 -0.27238739109865057
2980000000.0 -0.3254118326944976 -0.008438612602266828
3000000000.0 -0.3241610826731541 0.053531043931561204
3020000000.0 -0.32168954450387144 -0.06392667456139464
3040000000.0 -0.023715399173337582 -0.32055893894039333
3060000000.0 0.2883450991553003 0.126091801320712
3080000000.0 -0.3032702947277764 -0.028286064148559383
3100000000.0 0.2908329892287433 0.04561494875080706
3120000000.0 -0.2018679830285711 -0.19804575275028094
3140000000.0 0.08437693443836433 0.2584019672346336
3160000000.0 0.16683401652951121 -0.19671244509139402
3180000000.0 -0.06925667866021169 -0.23562564212428044
3200000000.0 0.14447749025362897 0.17842966028807972
3220000000.0 -0.17799020872644455 0.10931453459309105
3240000000.0 -0.14558728229798568 -0.11491747098615024
3260000000.0 -0.03671291205119238 -0.15225409743143722
3280000000.0 -0.107271315311428 -0.06050638337155135
3300000000.0 -0.05162033649227262 0.07134113244093512
3320000000.0 -0.05014553673527779 0.01600803461026884
3340000000.0 0.01222028272413417 -0.017813453491412688
3360000000.0 -0.008725282452894258 0.009616049464383087
3380000000.0 -0.027297341575098017 0.0015594947791381718
3400000000.0 0.01013670556112348 0.03504024598387044
3420000000.0 -0.016717526946083385 0.03750399751425459
3440000000.0 0.03674408306207756 0.009725803631199495
3460000000.0 0.026822823795357418 0.0278358435410205
3480000000.0 -0.035813183138409255 0.04073191492400093
3500000000.0 -0.06061058934596728 -0.05099502366993644
3520000000.0 -0.04391362378646167 -0.09674780122455241
3540000000.0 -0.06226960174471292 0.11008627799920857
3560000000.0 0.09070973605690968 0.10662214821430022
3580000000.0 0.02040560821753688 0.14927887956662858
3600000000.0 -0.08533026103903862 0.13649123752348455
3620000000.0 -0.1631527097087058 -0.027920912479357594
3640000000.0 0.15445083683323177 -0.07192155592609124
3660000000.0 -0.1126164831351107 0.13711653067034718
3680000000.0 0.08506742768671989 -0.16185814810413016
3700000000.0 0.1312442020446305 0.13447609331237667
3720000000.0 -0.12633118644635902 0.14792929390975015
3740000000.0 -0.11804169500143812 0.15605451664927386
3760000000.0 -0.18101339913343473 -0.06602560427308901
3780000000.0 0.034935713999223975 -0.18033732341286574
3800000000.0 0.1051217582731628 0.13463910875935806
3820000000.0 0.14607500490088324 -0.052557823514198194
3840000000.0 0.047612984467549954 0.13346595593047106
3860000000.0 0.13289324229425656 -0.03627670783137507
3880000000.0 -0.14513140769382882 -0.012381601727738783
3900000000.0 -0.15474112054632522 -0.024146741177701304
3920000000.0 0.12439701322913099 0.1151447284226879
3940000000.0 -0.04810709253205173 0.17365321885447196
3960000000.0 0.14209174728205867 0.12362304681821751
3980000000.0 -0.1779139223305871 -0.05391094355421424
4000000000.0 -0.001814293078410326 0.17292752312841794
