! Created with skrf (http://scikit-rf.org).
# Hz S RI R 50.0 
!freq ReS11 ImS11
400000000.0 0.2116784563375716 0.8451934059576771
420000000.0 0.6220943339440218 0.5945825027641466
440000000.0 0.801016178358801 -0.21275282974398302
460000000.0 0.08630088105516637 -0.786484773908163
480000000.0 0.4493529653076854 -0.5483627154277184
500000000.0 0.24814906957922214 -0.5047425019868833
520000000.0 -0.02524865735179489 -0.4869343105787947
540000000.0 0.38502331123540845 -0.17657515426471967
560000000.0 -0.3049947424278674 -0.1716886522106695
580000000.0 -0.2998049109579523 0.1383433464395754
600000000.0 0.26572210438268395 0.1902454439006766
620000000.0 -0.02186107087861814 -0.3462269809562746
640000000.0 -0.25796446292289593 -0.2796275186913856
660000000.0 -0.4008843117085547 -0.011751809654773477
680000000.0 -0.014698700616668642 -0.43067758992041083
700000000.0 0.3400587479701757 0.29450466850207013
720000000.0 0.032048984557839076 -0.4478031324149571
740000000.0 0.3923336942538772 -0.19884202101472107
760000000.0 -0.3747936303368426 -0.17910945218544586
780000000.0 0.3218041303448511 -0.20740234627912374
800000000.0 -0.1977359180226556 0.2875472471828586
820000000.0 -0.1779023873391538 0.23161874757826556
840000000.0 0.07423054499033978 0.2255382194718896
860000000.0 -0.1250848026338725 0.1617874946931808
880000000.0 -0.13786355515925444 0.044556048207527565
900000000.0 0.05556331985367486 -0.05695107980573471
920000000.0 -0.014126209100150538 -0.04609307913050977
940000000.0 0.005459528449960248 -0.04187302752281778
960000000.0 -0.054993250710502026 -0.00014613899166175182
980000000.0 0.05263209642477695 -0.03456853171018451
1000000000.0 -0.06438016188837649 -0.02489626378836519
1020000000.0 0.06868105890297474 0.03813385240835559
1040000000.0 -0.029534034316852843 0.07515629973376647
1060000000.0 -0.11119445007675156 0.03569168400509986
1080000000.0 -0.08394269124909853 0.10197719844327087
1100000000.0 -0.12194206181018427 -0.10032687700029742
1120000000.0 -0.16184274223986314 -0.09809988529263261
1140000000.0 0.08324779380178594 0.22265756053534871
1160000000.0 0.27408825142897886 -0.07659427579121506
1180000000.0 -0.07789972857350318 -0.32124372684227903
1200000000.0 -0.29190680680946024 -0.22228935352085466
1220000000.0 0.1386583341034902 -0.3723969440395887
1240000000.0 0.3254568570246952 0.26393325394377837
1260000000.0 -0.42259199105344236 -0.12552558249732665
1280000000.0 0.44231018012407 0.0917927758236881
1300000000.0 -0.3931413919835921 -0.22410227350530887
1320000000.0 -0.11031431385564076 0.4254628000805181
1340000000.0 -0.24242705471384002 0.3466386185199188
1360000000.0 -0.3023055705080398 -0.27817199892211797
1380000000.0 -0.07972091531681584 -0.40045526478671883
1400000000.0 -0.08181397832202711 -0.3864591837589808
1420000000.0 -0.072496228089038 -0.3752396744312216
1440000000.0 -0.23102333367280542 -0.28526463434230986
1460000000.0 -0.3427764557245349 -0.05100156859807226
1480000000.0 -0.1324939728012489 0.3004562938340875
1500000000.0 0.22705239950641107 -0.2049743581076759
1520000000.0 -0.25190281670298553 -0.12657102186716246
1540000000.0 -0.19369607654599114 -0.16572997315397156
1560000000.0 -0.20672453349542835 0.07363695302090378
1580000000.0 0.07742624656750563 0.17111324566610506
1600000000.0 -0.14754665576013457 0.04537213795546921
1620000000.0 -0.10805037034160309 0.03347282745698085
1640000000.0 0.06991256769844381 -0.04790252793208845
1660000000.0 0.049278829172711855 -0.03370959459273823
1680000000.0 0.01343328286139716 -0.02721606525579926
1700000000.0 -0.01715698940050436 0.006572334047125056
1720000000.0 0.03256467430006018 0.008001380538664572
1740000000.0 0.03909282191301844 -0.03953172354873276
1760000000.0 -0.06385438653256939 0.03641255547753146
1780000000.0 0.07242463075649423 -0.058928125955991034
1800000000.0 0.0935822496915061 0.0747510474515926
1820000000.0 0.010491572855500186 -0.13296547326579294
1840000000.0 0.12054723474879678 -0.10125593509607021
1860000000.0 0.17778225727561675 -0.009625197077016666
1880000000.0 -0.15306315300138945 0.14279111404848915
1900000000.0 -0.22156312774489956 -0.10885916378715571
1920000000.0 -0.2609471249112646 0.1285553087159723
1940000000.0 0.005023026247132121 0.33642332592418944
1960000000.0 0.271520893136327 -0.2612244104008102
1980000000.0 -0.30712881718244966 0.26902370258707625
2000000000.0 0.43393872748147666 0.023201949076130785
2020000000.0 -0.43180647653122634 -0.13585441468376055
2040000000.0 0.23303425868058683 0.39404638947707227
2060000000.0 0.009757185662694323 -0.4557236801473849
2080000000.0 -0.4027200476509629 0.18248426478092045
2100000000.0 -0.08833846869314028 0.41595514928810223
2120000000.0 0.04405257947983526 0.40086374662464846
2140000000.0 -0.321977756648932 -0.20719087262415756
2160000000.0 -0.07491968160712335 -0.3561331797976826
2180000000.0 0.316426350797454 -0.15495505115141794
2200000000.0 0.32446760707354055 0.11493364371600552
2220000000.0 0.28265539969951003 0.20239137550919187
2240000000.0 0.18095081951755618 -0.2999908266309268
2260000000.0 -0.26591700046366307 -0.2345402841539662
2280000000.0 -0.08711474284392186 0.35115935600308995
2300000000.0 0.36775996168730823 -0.0683970912240764
2320000000.0 -0.32053337713576463 -0.22777230857771272
2340000000.0 -0.16731450575101134 0.38382071232641046
2360000000.0 0.45376903478294245 -0.010485556821067197
2380000000.0 -0.39129170323410756 -0.3098531518878712
2400000000.0 0.2594982259423047 0.4843461046754989
2420000000.0 -0.34744788763788365 -0.4923026142601987
2440000000.0 0.5936434945245145 0.27351313910608993
2460000000.0 -0.6871922069899186 0.11167006988082843
2480000000.0 0.5426656457023453 -0.4871923365910449
2500000000.0 -0.5110606894682657 0.5506523265451454
2520000000.0 0.5634548396087347 -0.5148707611260173
2540000000.0 -0.7293792022904169 0.23323580023784332
2560000000.0 0.7203298388331429 0.24417689100917592
2580000000.0 -0.18954939091671402 -0.7211777089683201
2600000000.0 -0.36983319327590713 0.6195911583758879
2620000000.0 0.6821600495076681 -0.1076635674478332
2640000000.0 0.5550088613073504 -0.34513723620414055
2660000000.0 -0.5257300432064781 -0.3096182263153128
2680000000.0 -0.008889456425950465 0.5666841742524579
2700000000.0 0.30881154140098915 -0.42253499013458556
2720000000.0 -0.3654749994862495 0.3098513752626869
2740000000.0 0.2880591892998253 -0.3271108434493546
2760000000.0 -0.06678695338365886 0.3891787110496077
2780000000.0 -0.2647443806163848 -0.24372969305676395
2800000000.0 0.32190444668631 -0.06159483249737896
2820000000.0 -0.1581549623390241 0.25882828747374687
2840000000.0 0.13252291441339176 -0.2546722524957226
2860000000.0 -0.17630423018912544 0.21928066660296866
2880000000.0 0.25088231742766876 -0.12652419415302804
2900000000.0 -0.2817471793594603 -0.04871657485224058
2920000000.0 3.1711388057165464e-05 0.2981211445952877
2940000000.0 0.25890863348713783 -0.1698654308772071
2960000000.0 -0.17145917047118525 -0.267326108792621
2980000000.0 -0.3249318076282388 -0.01933937238760878
3000000000.0 -0.326320004960538 0.037013730887628264
3020000000.0 -0.3178763708004631 -0.08296014915065536
3040000000.0 -0.041569993577903926 -0.31908263571587264
3060000000.0 0.2722354594133383 0.1583788586840152
3080000000.0 -0.29851456747945493 -0.06126997618674139
3100000000.0 0.28719840850608147 0.06502187984918431
3120000000.0 -0.16634566042957352 -0.22864340273494463
3140000000.0 0.02670284570798708 0.2697980415907634
3160000000.0 0.19499792930815932 -0.16846732272146972
3180000000.0 -0.05511596470556365 -0.23946442020008873
3200000000.0 0.1212142146424086 0.1944797386735229
3220000000.0 -0.18947246020152422 0.0872781864790852
3240000000.0 -0.12529898846684595 -0.13623366579964938
3260000000.0 -0.0073350003912283366 -0.15614688764123236
3280000000.0 -0.0911842140583307 -0.08235638213882525
3300000000.0 -0.06012712487776162 0.06366620219811753
3320000000.0 -0.05119439090017481 0.00993305897647592
3340000000.0 0.0007721178094645899 -0.02111814494188434
3360000000.0 0.00904018777492695 -0.009644159079355457
3380000000.0 -0.010766060758359751 -0.025302613586319894
3400000000.0 -0.0051902215079161805 0.03641997238897853
3420000000.0 -0.03123747069937647 0.026499513378542217
3440000000.0 0.030842167313650064 0.0227270287925648
3460000000.0 0.021060125170583997 0.03279676855206769
3480000000.0 -0.009388958319274549 0.05407712991846985
3500000000.0 -0.038095479796371075 -0.06919987020138206
3520000000.0 -0.026693661733425487 -0.10329959212501079
3540000000.0 -0.08861219944663654 0.09053780488832187
3560000000.0 0.08280335235879777 0.11340238046856306
3580000000.0 -0.017650619362340646 0.1497818041470988
3600000000.0 -0.09379359534839579 0.13156986052612268
3620000000.0 -0.157234287619106 -0.05184599709938793
3640000000.0 0.16426655341672575 -0.044336714269191634
3660000000.0 -0.13483127130651093 0.11523389761901509
3680000000.0 0.1098866176508609 -0.14602318025747024
3700000000.0 0.1112066027792528 0.15137099192988396
3720000000.0 -0.14707235688134737 0.12694418010102787
3740000000.0 -0.1413625875670562 0.13489327950798993
3760000000.0 -0.16612686059177387 -0.09687338806672749
3780000000.0 0.0623817627386464 -0.1725125217484987
3800000000.0 0.08556288585851078 0.14734493049329517
3820000000.0 0.15383629829785464 -0.020433480639323716
3840000000.0 0.016899925126572363 0.14025844372877672
3860000000.0 0.1378025594822971 -0.003391865239951587
3880000000.0 -0.14332406938274997 -0.019753659549654738
3900000000.0 -0.15241923886917974 -0.03117702241610452
3920000000.0 0.11189902780383593 0.12674658848389725
3940000000.0 -0.06606254350547922 0.1671547037817388
3960000000.0 0.1347928433426312 0.13082019713252419
3980000000.0 -0.1761354016793457 -0.0584412080408042
4000000000.0 -0.005898642513878125 0.17252471273192227
