! Created with skrf (http://scikit-rf.org).
# Hz S RI R 50.0 
!freq ReS11 ImS11
400000000.0 0.24593672115434134 0.839804591361019
420000000.0 0.6387922756845059 0.5766249702310976
440000000.0 0.7834751019380657 -0.2682231651059785
460000000.0 0.1855033765606797 -0.7672385821928146
480000000.0 0.45917334191075415 -0.540780319034425
500000000.0 0.1733998549461615 -0.5365138467592961
520000000.0 0.016994592639325328 -0.48611503623705427
540000000.0 0.4121389166156053 -0.10019895646380507
560000000.0 -0.31720292837447805 -0.14835760817162308
580000000.0 -0.23148868681026552 0.23679722302523426
600000000.0 0.2735896402834872 0.17585631738428265
620000000.0 -0.005054185112515976 -0.3474563444778614
640000000.0 -0.23901541550019714 -0.2975988169993678
660000000.0 -0.4005803384473966 0.019958830458328667
680000000.0 0.0031154799619417216 -0.4308116888492771
700000000.0 0.3200145567169032 0.3169987518629082
720000000.0 -0.0075201660739853335 -0.4490379508463296
740000000.0 0.3910447969207169 -0.19821216485159465
760000000.0 -0.3500175591786656 -0.2237112628314521
780000000.0 0.319693442895802 -0.21048850390702578
800000000.0 -0.21048263631920439 0.2776830536594312
820000000.0 -0.20799920851533799 0.2044942534088885
840000000.0 0.0773154577283307 0.2249116398295244
860000000.0 -0.0727580934400121 0.19135352959693688
880000000.0 -0.14184043775825347 0.031869687113613376
900000000.0 0.07699290686250293 -0.02257738840287271
920000000.0 0.03489229569785789 -0.033543351713783455
940000000.0 -0.004785280971164766 -0.04188278910057171
960000000.0 -0.03724301191425652 0.04038988242744811
980000000.0 0.0625341246393586 -0.01061492823481417
1000000000.0 -0.0538318538724177 -0.043173989596949076
1020000000.0 0.0660217138719784 0.04223281548443366
1040000000.0 -0.03091773929272194 0.0746350216877581
1060000000.0 -0.10964023424718157 0.04044777013500929
1080000000.0 -0.07913263772629328 0.10635616348345603
1100000000.0 -0.1257550762384955 -0.09642558564678287
1120000000.0 -0.14556858839522244 -0.12161481916165758
1140000000.0 0.11216170765205702 0.21055026124618414
1160000000.0 0.28083252896364946 -0.047083323707991814
1180000000.0 -0.0733419306368139 -0.3221310935472645
1200000000.0 -0.27152700028341326 -0.24681570301129832
1220000000.0 0.15183321010536113 -0.36753116166836636
1240000000.0 0.33840076668945374 0.24639971188534865
1260000000.0 -0.41037899926315846 -0.15983976571953534
1280000000.0 0.439620990781549 0.10394369558613324
1300000000.0 -0.3829075497546197 -0.24044404216931275
1320000000.0 -0.11216507180755049 0.4248195067791882
1340000000.0 -0.2569400147079917 0.335796589139543
1360000000.0 -0.3062693427571278 -0.27372103283735544
1380000000.0 -0.08251539196592216 -0.3998331686180626
1400000000.0 -0.08887360798218535 -0.38498446199146724
1420000000.0 -0.06718901540254447 -0.3762566492866143
1440000000.0 -0.2291149621298317 -0.2870718322738414
1460000000.0 -0.34339588554572265 -0.047544507266649924
1480000000.0 -0.12967208206889494 0.30198377655822306
1500000000.0 0.20819059181223984 -0.22496957609252202
1520000000.0 -0.247914535774959 -0.134534479232784
1540000000.0 -0.17417348352722226 -0.1872355050724321
1560000000.0 -0.2122588298842144 0.05620312835613943
1580000000.0 0.037720379135588386 0.18394518337544566
1600000000.0 -0.15059863403077903 0.033432858717672105
1620000000.0 -0.1125430174256416 -0.0029508776601612184
1640000000.0 0.07733905060267225 -0.033377269757817865
1660000000.0 0.05055889760896111 -0.03031889308996634
1680000000.0 0.0025772493648331166 -0.03021448212930962
1700000000.0 -0.012018679579180565 0.014401606985383557
1720000000.0 0.018867842304131202 0.028267749652733508
1740000000.0 0.018906555978703325 -0.052758627920598475
1760000000.0 -0.06835360985914006 0.026598190600651446
1780000000.0 0.08564445578251038 -0.0372361859860024
1800000000.0 0.07265977093313968 0.09455800532657695
1820000000.0 0.01964755381368738 -0.1314451343142812
1840000000.0 0.13399134154701603 -0.08116762773841196
1860000000.0 0.17732275377350343 -0.006410090569718516
1880000000.0 -0.15940159193658196 0.13477447512620205
1900000000.0 -0.21579279655006522 -0.11859719276651808
1920000000.0 -0.2616331960677942 0.12603407417887572
1940000000.0 0.0002457636164026863 0.33612062011093835
1960000000.0 0.2721726957651789 -0.26057356209009674
1980000000.0 -0.29586018500421285 0.28111090777764164
2000000000.0 0.4343560995665854 0.0007762656779952269
2020000000.0 -0.4487982732847282 -0.05831119534800482
2040000000.0 0.23944052529253917 0.39073877622519504
2060000000.0 -0.013550039861716958 -0.45625605691568677
2080000000.0 -0.40765175347024324 0.17273791035880254
2100000000.0 -0.0827789599787701 0.4176459660984797
2120000000.0 -0.0005452551295914849 0.40388140552572077
2140000000.0 -0.3122908073907186 -0.22213207571161933
2160000000.0 -0.04258692465326006 -0.3621784787396388
2180000000.0 0.33741285878018223 -0.10346919817914538
2200000000.0 0.3060319359102265 0.1586396860156962
2220000000.0 0.26384799497150213 0.2258583533511272
2240000000.0 0.17170785842896533 -0.30579615672910215
2260000000.0 -0.2666098678094363 -0.2352635607046019
2280000000.0 -0.12669697756540096 0.3387785141197184
2300000000.0 0.373718755715255 -0.01928838537480414
2320000000.0 -0.2847280383390636 -0.27084116863211277
2340000000.0 -0.2256648504019447 0.3522174675122024
2360000000.0 0.45237801257780974 0.03460982454579996
2380000000.0 -0.34885454671312305 -0.35689103240641046
2400000000.0 0.20797924974137308 0.5084562296155895
2420000000.0 -0.30366968118096466 -0.5203021568759324
2440000000.0 0.5666647170867686 0.325976954891908
2460000000.0 -0.6914669895127895 0.08107404152571367
2480000000.0 0.5682715655383868 -0.45703541742906684
2500000000.0 -0.5014326182307474 0.5599719820015563
2520000000.0 0.5988100514953764 -0.4734569698012454
2540000000.0 -0.7302824701920342 0.23142714591278418
2560000000.0 0.6918536831496213 0.3167318902428514
2580000000.0 -0.16154728197838703 -0.7288593393933682
2600000000.0 -0.41426138518473626 0.5923341656468587
2620000000.0 0.6919752183088675 -0.024319529813223047
2640000000.0 0.5929186208403311 -0.27947958833425357
2660000000.0 -0.4964466743161699 -0.35860008328821963
2680000000.0 -0.05798413003492286 0.5651583546131355
2700000000.0 0.31076591639569273 -0.4236400398292787
2720000000.0 -0.3665927914175596 0.3112142316992156
2740000000.0 0.31623783092075813 -0.3030299751096637
2760000000.0 -0.1042636406145271 0.3827607336073952
2780000000.0 -0.24314873370621784 -0.2674261206226713
2800000000.0 0.32773369787580614 -0.02812053625061604
2820000000.0 -0.1896542024834365 0.23825776790011427
2840000000.0 0.1637919635546371 -0.23632329158454438
2860000000.0 -0.18344074005059635 0.21397684411723492
2880000000.0 0.26682796338916615 -0.09040505060481659
2900000000.0 -0.2727172647051795 -0.08813192368898543
2920000000.0 -0.03226368111905089 0.296542145370906
2940000000.0 0.26908118041509677 -0.1537498951104869
2960000000.0 -0.1891212449829763 -0.255075953105398
2980000000.0 -0.3256144815619463 -0.008171143498372592
3000000000.0 -0.3227120722470008 0.06358025052985886
3020000000.0 -0.32107077417039265 -0.06978663230323541
3040000000.0 -0.015432776650597212 -0.32227236167788564
3060000000.0 0.2995766230003278 0.1002618015606748
3080000000.0 -0.30042624579040994 -0.05411919033393853
3100000000.0 0.27000555483402744 0.11795088673721404
3120000000.0 -0.20898185814532325 -0.19081093584223555
3140000000.0 0.09750585379738726 0.2539535742228617
3160000000.0 0.1550211412743712 -0.2066110226896449
3180000000.0 -0.05193190621788014 -0.24003243539299723
3200000000.0 0.135615686486621 0.18540681227125438
3220000000.0 -0.19348695063166169 0.07805632811605712
3240000000.0 -0.11932062869536225 -0.14181609245010804
3260000000.0 0.0006774035403449013 -0.155594785709773
3280000000.0 -0.11925751763767949 -0.026773481008366587
3300000000.0 -0.02606646179335755 0.0834092978067542
3320000000.0 -0.023646300724752246 0.04593067288773332
3340000000.0 -0.0043957997707142 0.020890144645564955
3360000000.0 0.004228623096041152 -0.01321778672656562
3380000000.0 -0.0018819231117047218 -0.027508679311487698
3400000000.0 -0.030214693039983375 -0.022058313647590477
3420000000.0 0.010349181618964703 -0.039662091767793034
3440000000.0 -0.038161193090685025 0.005265639404791337
3460000000.0 -0.03937559715545115 -0.0032579559984271546
3480000000.0 -0.03634886046343919 -0.04205461245660747
3500000000.0 0.0036193724879330924 -0.07955914944890718
3520000000.0 0.036079495375504145 -0.10027481259645046
3540000000.0 -0.1258855396633297 0.017085643492358266
3560000000.0 0.026741768448793553 0.1374556639234487
3580000000.0 -0.0377428914503301 0.1451743087420673
3600000000.0 -0.0890551988271557 0.1339070926575569
3620000000.0 -0.15243858657733833 -0.06416135805133388
3640000000.0 0.17000345211654713 -0.007438831161259917
3660000000.0 -0.16105973272553287 0.07385350921209499
3680000000.0 0.12408244685228978 -0.13447808905837175
3700000000.0 0.09250606738674678 0.16311177008271374
3720000000.0 -0.14013432382804206 0.1334138717603079
3740000000.0 -0.13929040364612255 0.1362341693848127
3760000000.0 -0.1731802121146424 -0.08281519019827062
3780000000.0 0.03593016966531869 -0.1791573476870551
3800000000.0 0.1329646417705972 0.10485806428003948
3820000000.0 0.13948547121408647 -0.06682880428120662
3840000000.0 0.02682513297920028 0.13831473713630393
3860000000.0 0.1369501453274636 -0.0015903615586291104
3880000000.0 -0.14124405484680647 -0.031395687928795005
3900000000.0 -0.13833918577839052 -0.07120886404917963
3920000000.0 0.10026761070639581 0.1355008193643964
3940000000.0 -0.06156221565296627 0.16928843391370568
3960000000.0 0.1461327226365523 0.11964661464558295
3980000000.0 -0.16912803497707043 -0.07987615506673253
4000000000.0 -0.06445074556267325 0.16299527683817328
