! Created with skrf (http://scikit-rf.org).
# Hz S RI R 50.0 
!freq ReS11 ImS11
400000000.0 0.2365742565349458 0.8398894970406253
420000000.0 0.579702086033807 0.6361376613461198
440000000.0 0.7930788741612305 -0.23747488527904656
460000000.0 0.047002228450388074 -0.7895359076053837
480000000.0 0.5098527787120355 -0.49125735954114885
500000000.0 0.2322382063208743 -0.5136761813952785
520000000.0 -0.10198257768859996 -0.4779835064422712
540000000.0 0.41449068073373513 -0.07766586901390748
560000000.0 -0.2839362210538288 -0.2063022742667672
580000000.0 -0.29734814973158047 0.14559235358188014
600000000.0 0.3017517205077971 0.12161579751447743
620000000.0 0.01800000950302638 -0.34591067293809963
640000000.0 -0.24212921757026706 -0.29524481767141775
660000000.0 -0.40017493604193627 0.016511873163339973
680000000.0 0.02709366895365535 -0.4311857125681829
700000000.0 0.31788904189305095 0.31772310451457536
720000000.0 -0.014155364084897067 -0.44855037975342005
740000000.0 0.42097797756065514 -0.125964977180629
760000000.0 -0.3966776864193946 -0.12139782405521353
780000000.0 0.336862376751096 -0.18289906430565878
800000000.0 -0.23685292049715212 0.2571407745354635
820000000.0 -0.16258733083217639 0.2427904224626342
840000000.0 0.08190383888806242 0.22334304263028582
860000000.0 -0.11423393260172143 0.17039394571088867
880000000.0 -0.14388971194125633 -0.0207192839573837
900000000.0 0.05198929418388727 -0.060262485649607296
920000000.0 0.02882173255044686 -0.03813487822355726
940000000.0 -0.03867948291997951 -0.017940101135008633
960000000.0 -0.055817184296247394 0.0027510993639461353
980000000.0 0.06169433502923589 -0.014113708927129496
1000000000.0 -0.04890460049246246 -0.04989248512481019
1020000000.0 0.0709491411147265 0.03493215773488788
1040000000.0 -0.029052910240975335 0.07543124375731783
1060000000.0 -0.11424124234773433 0.024143091608839304
1080000000.0 -0.10173688726387979 0.08398312168290434
1100000000.0 -0.11465770658536081 -0.10817083162792947
1120000000.0 -0.12150962993818086 -0.14522675019344325
1140000000.0 0.09656783570586379 0.2170053124535045
1160000000.0 0.28230012431230167 -0.02396035660589469
1180000000.0 -0.05542504789329871 -0.3250712051627758
1200000000.0 -0.26018152729183125 -0.25786535127632615
1220000000.0 0.1422722481694222 -0.36991725801730074
1240000000.0 0.3324197969549058 0.2547620250230488
1260000000.0 -0.4188693488549813 -0.13818562081087132
1280000000.0 0.4403266655610801 0.0987763185750724
1300000000.0 -0.36276587044285413 -0.2699285147035072
1320000000.0 -0.07214517980878078 0.43360496101242924
1340000000.0 -0.2432136255622324 0.3466507027926739
1360000000.0 -0.30959957959364953 -0.27033237097259455
1380000000.0 -0.0485657415620276 -0.4057051169777712
1400000000.0 -0.09419486030335404 -0.38424018490540357
1420000000.0 -0.023674178256807833 -0.38179563303486835
1440000000.0 -0.2154730521670327 -0.29745026686528253
1460000000.0 -0.33831339513482644 -0.0745081588649769
1480000000.0 -0.15703557059559708 0.2882074524369725
1500000000.0 0.2510880314678651 -0.1753878504552005
1520000000.0 -0.21454167952460554 -0.18298130338423624
1540000000.0 -0.1518075689112692 -0.204569610383137
1560000000.0 -0.21620656081946993 0.037489330351581016
1580000000.0 0.0332371436572409 0.18491636120983684
1600000000.0 -0.1540397463802741 0.009794623527976208
1620000000.0 -0.11243599678749025 0.0061533523835434435
1640000000.0 0.07840714892284939 -0.031022604296316102
1660000000.0 0.032611112392396335 -0.04978714972499337
1680000000.0 0.008580787986574466 -0.02948539978130331
1700000000.0 -0.008244554230444404 -0.01680071642012164
1720000000.0 0.022611272825411467 0.023887691706774863
1740000000.0 0.032086200490620026 -0.0448884235077798
1760000000.0 -0.0691982659144409 0.02450693801540236
1780000000.0 0.08217104162530736 -0.043885428489153146
1800000000.0 0.0880803746912491 0.08051111589120416
1820000000.0 0.029080927980778458 -0.12990046834184868
1840000000.0 0.12422390677298693 -0.09604375505958755
1860000000.0 0.1722104577061961 -0.04435986611904134
1880000000.0 -0.1420380243485179 0.15393332523825615
1900000000.0 -0.2150231848251694 -0.12110718523848958
1920000000.0 -0.267536090914672 0.11399451222793815
1940000000.0 -0.0020945007156709288 0.3358689302384256
1960000000.0 0.2711122214044163 -0.261414905977323
1980000000.0 -0.3039895041313664 0.2719448679575477
2000000000.0 0.432217346555993 0.04006087736199047
2020000000.0 -0.4364083222174964 -0.11936004057017913
2040000000.0 0.2534809590238959 0.38083233675395645
2060000000.0 0.01084506758305357 -0.4554454587106028
2080000000.0 -0.4110049466816846 0.16586322670431064
2100000000.0 -0.08845560351143594 0.4166243678780954
2120000000.0 0.05717234853322681 0.4002483220611622
2140000000.0 -0.3017802420560116 -0.23699365532653432
2160000000.0 -0.04095184083984303 -0.3624340604793525
2180000000.0 0.31945623428658404 -0.15006782901418445
2200000000.0 0.30486315962338695 0.16115249600641587
2220000000.0 0.2702641255152934 0.2197793244302495
2240000000.0 0.17468413242832165 -0.3047474891582328
2260000000.0 -0.23155260884816067 -0.27029420615583555
2280000000.0 -0.18052840851450214 0.3141799200825906
2300000000.0 0.37306354059679503 0.0325592608587219
2320000000.0 -0.2596243932757163 -0.29569356933870256
2340000000.0 -0.2602347778422147 0.327857441356121
2360000000.0 0.44939707996960604 0.06524643057056662
2380000000.0 -0.31899716224151303 -0.38366213405887345
2400000000.0 0.19594672008184025 0.512933078637456
2420000000.0 -0.2796391514071101 -0.5331093582990943
2440000000.0 0.5841712306186532 0.29197632816730085
2460000000.0 -0.6870268887045525 0.1080245829010251
2480000000.0 0.5765190667291104 -0.44688947949379065
2500000000.0 -0.5071964382566845 0.5545691541145585
2520000000.0 0.5745136760341107 -0.5024942693081007
2540000000.0 -0.7330501646102568 0.22370452379503167
2560000000.0 0.7091775675385696 0.2766161135043279
2580000000.0 -0.1776456312181978 -0.7256936808309131
2600000000.0 -0.43062457250963865 0.5816181270863098
2620000000.0 0.6927954235773365 0.00699065691478788
2640000000.0 0.6213496289796561 -0.21191692101552692
2660000000.0 -0.49119967088621036 -0.3671394578405092
2680000000.0 -0.018644677685242483 0.5687375843656503
2700000000.0 0.34822122612345374 -0.39521628694340766
2720000000.0 -0.385487135672985 0.2892470713276037
2740000000.0 0.33293024231878093 -0.28564278504571244
2760000000.0 -0.13675903182075674 0.37334364210487536
2780000000.0 -0.21792689125116124 -0.2891104946921383
2800000000.0 0.3297409994409137 -0.0055895296070773495
2820000000.0 -0.21007008331344007 0.22100475289868296
2840000000.0 0.21490181564364402 -0.19339941514044415
2860000000.0 -0.23813259141986304 0.15244365188971162
2880000000.0 0.27756659247428883 -0.046310789949545204
2900000000.0 -0.23848220149236177 -0.1579932338962858
2920000000.0 -0.06650893822222989 0.2902921778912773
2940000000.0 0.26478749389066 -0.15910224112330537
2960000000.0 -0.17511609333460618 -0.2644813102921425
2980000000.0 -0.3210485479987166 -0.0493260426185781
3000000000.0 -0.3220189446808831 0.06269094821920364
3020000000.0 -0.32593953078612364 -0.03275222478910252
3040000000.0 -0.09311228069749461 -0.30844194083312665
3060000000.0 0.309246903807971 0.06358928512251281
3080000000.0 -0.2985236508407883 0.0598411143129021
3100000000.0 0.29195423846427215 -0.039396279272195384
3120000000.0 -0.2496196538145137 -0.13192023109369247
3140000000.0 0.16348685480553027 0.2172053835130302
3160000000.0 0.09008236285885692 -0.24160055116642132
3180000000.0 -0.13385678191568703 -0.2061415495043742
3200000000.0 0.2087156540276427 0.09746714388788948
3220000000.0 -0.13248306973963098 0.1621631764972882
3240000000.0 -0.17513931317961487 -0.06436730509197008
3260000000.0 -0.05476573813464633 -0.14765148566576466
3280000000.0 -0.12346781905934659 -0.012829867835360508
3300000000.0 -0.002099621059775256 0.0893208942549217
3320000000.0 -0.05031964262936497 0.019294580240069917
3340000000.0 0.017532554336400375 -0.014811844691762666
3360000000.0 -0.009679931818422924 0.007979613114186818
3380000000.0 -0.01986617500545734 -0.016496031339444873
3400000000.0 0.023229069892239385 0.026854489236859295
3420000000.0 -0.040061559936039104 -0.0006082369872628799
3440000000.0 0.008716367797631562 0.03633556456205487
3460000000.0 0.03237153549507876 0.020654383068660593
3480000000.0 -0.05026330079759132 -0.02015746313389166
3500000000.0 -0.06041893087879606 -0.05023065534056367
3520000000.0 -0.03672301925132301 -0.0990033283251389
3540000000.0 -0.09072575588580589 0.08633248346742672
3560000000.0 0.057286990382979484 0.12715005836821833
3580000000.0 -0.006092688138002547 0.15004306995485475
3600000000.0 -0.08570363321335717 0.13572064554352098
3620000000.0 -0.15493960786409583 -0.0574006986285719
3640000000.0 0.16955666874124825 -0.011089010498472095
3660000000.0 -0.1662284907527539 0.061208894085809554
3680000000.0 0.14030088684340997 -0.11717265679789488
3700000000.0 0.09140244581192203 0.16373451584800836
3720000000.0 -0.1557986162404098 0.11568383686596892
3740000000.0 -0.1555036346950033 0.11811212657795617
3760000000.0 -0.15933841749390443 -0.10696160673377202
3780000000.0 0.05128803951734895 -0.17507516783505234
3800000000.0 0.07781061704330815 0.1505072536414165
3820000000.0 0.15382117507125156 -0.00048344795427577463
3840000000.0 0.010990179096250845 0.13973563080413348
3860000000.0 0.13119833653721447 0.03622465787594611
3880000000.0 -0.11398313726369672 -0.0881242019128852
3900000000.0 -0.1021070635096927 -0.11603067000749943
3920000000.0 0.05625236726054376 0.1579386464606741
3940000000.0 -0.09410737229232279 0.15130284279140513
3960000000.0 0.13318011201960936 0.13036410703005885
3980000000.0 -0.17101557907150855 -0.07105871626206936
4000000000.0 -0.021159525394699258 0.17131280064354426
