! Created with skrf (http://scikit-rf.org).
# Hz S RI R 50.0 
!freq ReS11 ImS11
400000000.0 0.043660649703456476 0.8718205141456392
420000000.0 0.49677701921001743 0.7037352186619464
440000000.0 0.8067486185017981 -0.18641455809450871
460000000.0 0.06311466991075532 -0.7885078542189757
480000000.0 0.4548113097945894 -0.5370936607443573
500000000.0 0.5116974655960188 -0.21104544887291077
520000000.0 0.486461190833612 0.038278371217789216
540000000.0 0.013957431335031306 0.433885911361937
560000000.0 0.26895808729720266 -0.24960571680224078
580000000.0 -0.33036063503457236 -0.1303287669691548
600000000.0 0.16697626485611508 0.3165465958010876
620000000.0 -0.37690542882093797 0.03241258728169559
640000000.0 0.4027024430411001 0.08264204138276707
660000000.0 -0.17806603483994635 -0.37799024811474713
680000000.0 -0.2135044460737645 -0.3664627060336829
700000000.0 -0.3717244617937399 0.18584170463225666
720000000.0 -0.2700235303537863 -0.30029997547585713
740000000.0 -0.2893526050246773 0.281189625174205
760000000.0 0.22694236591433684 0.3303104798783143
780000000.0 -0.3650719384843264 -0.10686528476257183
800000000.0 0.3506677218658611 -0.0823623073663923
820000000.0 -0.07743879426303843 -0.30246701587531083
840000000.0 0.2281217100261805 0.10944541552170912
860000000.0 0.015557390881999264 0.2086140220876537
880000000.0 -0.1479574170166673 0.022279716031196096
900000000.0 -0.079364655653081 0.0016094607062810823
920000000.0 -0.011361087990529681 0.04402834613931733
940000000.0 0.023249255913303984 0.017494869898134296
960000000.0 0.010831704414933486 0.034271615404661275
980000000.0 0.033389599708565976 0.03341003740065837
1000000000.0 -0.054412402864039665 -0.013297304360235147
1020000000.0 0.06768052523251242 0.04540707496762552
1040000000.0 0.05580691026127428 0.09138514525592353
1060000000.0 0.06291641502581323 -0.1404861309525744
1080000000.0 -0.0778339024174267 -0.15867173589795192
1100000000.0 0.001040292678616398 -0.20722780462938298
1120000000.0 0.22031785318300157 0.05449485377419733
1140000000.0 -0.21655398229002076 0.13707682093326812
1160000000.0 0.018049152918918364 0.2767749950084168
1180000000.0 -0.2830243154100259 -0.10367053746920649
1200000000.0 0.3241551232734747 0.0031301213572079486
1220000000.0 0.09201859317195554 -0.3368256640303331
1240000000.0 -0.35354551270029155 -0.14175161740041853
1260000000.0 0.0879664595808826 0.4085001094636025
1280000000.0 -0.02076575936964146 -0.44298936052476634
1300000000.0 -0.03549387009115378 0.46134780029663663
1320000000.0 0.04948132288021353 -0.45939041233356687
1340000000.0 -0.42993651737872157 -0.14422012944188595
1360000000.0 -0.4238141454616244 0.11369945483694825
1380000000.0 -0.28480488011053684 0.3201856749658244
1400000000.0 -0.08851139836488998 0.3990708880499701
1420000000.0 0.1624626064400543 0.35172823466965575
1440000000.0 0.1317719822927407 0.339651212607492
1460000000.0 0.2891166877477533 0.18382225989276557
1480000000.0 0.23787265763701917 -0.21370549534425262
1500000000.0 -0.21148009531844578 -0.20468781105118183
1520000000.0 -0.2120222963093158 0.16195237936791182
1540000000.0 -0.12178608519432214 -0.20033881472716117
1560000000.0 0.18758936764020565 -0.06125183698575682
1580000000.0 -0.024303174730708355 0.16647234635695643
1600000000.0 -0.005899115792386681 0.1374640323517809
1620000000.0 -0.0794653562464958 0.07433086771216402
1640000000.0 0.052315741877915094 -0.07000153811472186
1660000000.0 -0.02322303847724174 -0.06057483964490533
1680000000.0 -0.000980430508464021 -0.04509147210401652
1700000000.0 0.016807570434943783 0.023949008253129796
1720000000.0 0.00695773791467321 -0.011338726640208522
1740000000.0 -0.013795467383805415 -0.01060321406966656
1760000000.0 -0.011417055309458414 0.03912380285731382
1780000000.0 0.020358044788233075 0.07199630553413637
1800000000.0 0.04159175571480825 0.10570900370017329
1820000000.0 0.14473570533382632 -0.025278099709592366
1840000000.0 0.16805296065243028 0.06059384103614262
1860000000.0 -0.175509916712465 0.10907962101954215
1880000000.0 0.11551318558768113 0.20503560690639963
1900000000.0 0.2695549955745466 -0.002019517981886049
1920000000.0 0.010351698355653374 -0.30418929694139757
1940000000.0 -0.3032183172017262 -0.15215160296133481
1960000000.0 -0.043855578928175404 0.3689002690340141
1980000000.0 0.3638686213569757 -0.15862452114980646
2000000000.0 -0.07540324700087195 -0.4102536746528534
2020000000.0 -0.3925326497008955 0.1776603082879465
2040000000.0 -0.01826053664596789 0.4367542846097605
2060000000.0 0.40771983200017675 0.16140472578537937
2080000000.0 0.38093362964122235 -0.21059370943104685
2100000000.0 0.24712788702947655 -0.3510245605399512
2120000000.0 0.002859060120129238 -0.4202224949236394
2140000000.0 -0.3214079848342123 -0.2527855035229422
2160000000.0 0.008321348088261177 -0.392622195521573
2180000000.0 -0.19459605055538742 -0.3190630992478751
2200000000.0 -0.30459913423521845 -0.18853790365814016
2220000000.0 -0.3160169745042193 -0.140985028603474
2240000000.0 -0.333274526572714 0.07651166260268163
2260000000.0 -0.28044453377058215 0.1966000227751385
2280000000.0 -0.15327116658596837 0.3122038603507458
2300000000.0 0.33714714599534845 0.13528697535965423
2320000000.0 0.07417935503702063 -0.3788991796808679
2340000000.0 -0.39531463161687636 0.13121378232440484
2360000000.0 0.4125342519697123 0.1962744635722218
2380000000.0 -0.3706076208489858 -0.3415550529688987
2400000000.0 0.3788305607855104 0.40783722290956637
2420000000.0 -0.5668930116181448 -0.22733663938984164
2440000000.0 0.5920745153543275 -0.29144537932694314
2460000000.0 -0.2929129284011686 0.6364368102140493
2480000000.0 -0.03309998762358311 -0.7308181615553145
2500000000.0 0.009499642777381322 0.7524843567912645
2520000000.0 0.19821632624744265 -0.7366398651953375
2540000000.0 -0.5675673201288968 0.5129721888418959
2560000000.0 0.7576620359977158 -0.04481252305320615
2580000000.0 -0.4276078450871175 -0.609441178396401
2600000000.0 -0.20635093093452525 0.6898188161164134
2620000000.0 0.610716617848747 -0.31948802886794936
2640000000.0 0.40871809351073274 -0.5075888974469539
2660000000.0 -0.6063568122745399 0.02117291773605093
2680000000.0 0.3587731727378875 0.42807750667464456
2700000000.0 0.0628816160480966 -0.5074990973448934
2720000000.0 -0.35434456369981465 0.2999090397980148
2740000000.0 0.41992609675776166 -0.0417669108948665
2760000000.0 -0.37112582100341174 -0.10114199045013235
2780000000.0 0.3547427312499678 -0.026491202599018368
2800000000.0 -0.25539453896410025 0.21151946147340564
2820000000.0 -0.14538868613996098 -0.27848597994098945
2840000000.0 0.2952720413756817 -0.06477583045495633
2860000000.0 -0.09368741988905659 0.2820244585067587
2880000000.0 -0.13126165922074146 -0.2638671899533971
2900000000.0 0.07997098306071254 0.28475363504156864
2920000000.0 0.20572232065779097 -0.216544312849643
2940000000.0 -0.28118465919539504 -0.11695965599247708
2960000000.0 -0.29457439788624423 0.08910234121738238
2980000000.0 -0.31021638534913315 0.029536567668402625
3000000000.0 -0.2622247316924924 -0.17334844055895954
3020000000.0 0.05978480937442725 -0.30841518692013326
3040000000.0 0.28044806460760174 0.13472161337501062
3060000000.0 -0.3088836809284472 -0.00862732823158914
3080000000.0 0.2679228300135214 -0.1475243603206906
3100000000.0 -0.1686095066353462 0.24867018953049552
3120000000.0 0.07178596696831274 -0.28310407899377354
3140000000.0 0.10754852268510687 0.261351110728909
3160000000.0 -0.2515681979676911 -0.09070465768657471
3180000000.0 0.09463944049664799 0.23150150376130016
3200000000.0 -0.20522142890652986 0.09838212739005746
3220000000.0 -0.15402852089664884 -0.12879138522853087
3240000000.0 0.10910368160548595 -0.12875729437954736
3260000000.0 -0.05398215295946898 0.12236102891414892
3280000000.0 0.08841507365471579 -0.04934791688058238
3300000000.0 -0.026681561798086697 -0.06746301883180722
3320000000.0 -0.022705285875358378 -0.04193588719935122
3340000000.0 0.026352481806724896 -0.0013366441177142141
3360000000.0 -0.0002514721744133969 0.010109300008025278
3380000000.0 -0.005706765335799113 0.001475613617014987
3400000000.0 0.013995801553423065 0.015039658653856423
3420000000.0 0.016233119244209466 -0.03364414965470592
3440000000.0 -0.02892766424798223 -0.042940390283467085
3460000000.0 0.060911581415452776 -0.00013809641372967117
3480000000.0 0.052884925123519506 -0.0472159103791408
3500000000.0 -0.08031952844188234 -0.01298209301769192
3520000000.0 -0.052029806398191 0.07690191283776787
3540000000.0 0.10627688991261695 0.00051787526179747
3560000000.0 -0.05734639482083868 -0.10411514355979148
3580000000.0 -0.028744950657071444 0.13143405991810617
3600000000.0 -0.13601992972881563 -0.07543533892139889
3620000000.0 -0.159105632195292 -0.06122432911947321
3640000000.0 -0.12372488750601908 -0.133512654803465
3660000000.0 -0.18456255668130742 -0.04985429532404844
3680000000.0 -0.1819568904368371 -0.06595407689807087
3700000000.0 -0.17866242478426653 -0.06515466172927635
3720000000.0 0.016538979689679333 -0.185933169841334
3740000000.0 0.18070201742309308 -0.017214956546534977
3760000000.0 -0.16477376330291366 -0.054581975263239504
3780000000.0 0.08893235148002021 0.1403780957677906
3800000000.0 0.15453842596817666 -0.03288671913020593
3820000000.0 0.04152815588454445 -0.14673216125298139
3840000000.0 0.04821521674290988 -0.1398536762116368
3860000000.0 0.14692391403832386 0.012525644458371451
3880000000.0 0.14542149659019107 -0.043232800341598356
3900000000.0 -0.03966310688590632 -0.14779788817816422
3920000000.0 -0.1474875867336162 0.0554695580082421
3940000000.0 0.16098887792246996 -0.024475760758388584
3960000000.0 0.006087160801360885 0.16905596985590146
3980000000.0 0.16703268084702558 0.03986661959849007
4000000000.0 0.1546773551618511 -0.06299840776377953
