! Created with skrf (http://scikit-rf.org).
# Hz S RI R 50.0 
!freq ReS11 ImS11
400000000.0 0.21638666860471034 0.8467849991034245
420000000.0 0.7057956529006155 0.4902710060324236
440000000.0 0.7763264808575497 -0.27866930614919316
460000000.0 0.12264109643746904 -0.7782001425582169
480000000.0 0.5330669040382872 -0.46385846159098165
500000000.0 0.2875724099944686 -0.4828783631998778
520000000.0 0.3702997479693481 -0.3164218133976722
540000000.0 0.3632083591106393 0.22947218547542245
560000000.0 -0.23015453651647014 -0.2714588391895887
580000000.0 -0.3348992478588772 0.047178152364839535
600000000.0 0.32793097392428205 0.05920175030444918
620000000.0 -0.19970246879268022 -0.28779271566151443
640000000.0 -0.3733366149493187 -0.08981968580000953
660000000.0 -0.31400691728789537 0.2471388980189237
680000000.0 -0.19635240968151282 -0.38039751741030775
700000000.0 0.2811515305676389 0.34968171944960325
720000000.0 0.005422556824531917 -0.44940352074453954
740000000.0 0.40765218880517384 -0.1688902736658231
760000000.0 -0.3965416280363908 -0.12948177693847154
780000000.0 0.2019144906038907 -0.3290058486034099
800000000.0 0.11627089721290804 0.3299691410543374
820000000.0 0.12422988914829765 0.2593794234909029
840000000.0 0.1695341152585746 0.1583821999627409
860000000.0 0.06990133311024518 0.18547671609250924
880000000.0 -0.13561172060489743 -0.0036601170199993234
900000000.0 -0.06469824921143871 -0.025714488119157275
920000000.0 0.02784567014520253 -0.02501152204253839
940000000.0 -0.00870215143807056 -0.02986539915836038
960000000.0 -0.03722540070197601 -0.019231138118626912
980000000.0 -0.05003143171607149 0.013259125317875419
1000000000.0 -0.04644054007825735 -0.03228102493616705
1020000000.0 -0.03141158519576096 -0.06421924647285145
1040000000.0 -0.033986335517750516 -0.07619056096893334
1060000000.0 0.08599818473439046 0.087708260233963
1080000000.0 -0.023341341658233237 -0.13922420746581649
1100000000.0 -0.04385243588137711 -0.1620344602266441
1120000000.0 -0.1971127005623566 0.023566661765517194
1140000000.0 0.2327412280616574 -0.06969236641956633
1160000000.0 0.10679085276616468 -0.26642568782265263
1180000000.0 -0.27142790255749993 -0.1894409938657421
1200000000.0 -0.36026925208911986 -0.06772419612789159
1220000000.0 -0.05737470449036804 -0.3926377696244146
1240000000.0 0.40970085481342144 0.08639457580539432
1260000000.0 -0.43243639870319106 0.07690723869599296
1280000000.0 0.4354391527524072 -0.10799020406926181
1300000000.0 -0.428151584650789 -0.1291104496914743
1320000000.0 -0.09228891942400544 0.4238458017494862
1340000000.0 -0.3714454187502456 0.19220295176876795
1360000000.0 -0.12950978163131233 -0.3858570927103905
1380000000.0 0.28144077449747734 -0.2936839726666081
1400000000.0 0.26082953750498206 -0.29872839765032577
1420000000.0 0.25358133958605145 -0.2928840490280371
1440000000.0 0.020641837993616 -0.3736587864210865
1460000000.0 -0.34307531791465445 -0.09942753284859056
1480000000.0 0.16883609768389296 0.2925361071931976
1500000000.0 -0.2343504368670098 -0.2049270340808152
1520000000.0 0.057920354609401675 0.27960150662851924
1540000000.0 0.05633090161804798 0.24769385512644146
1560000000.0 0.21195307202116723 -0.012769495077156068
1580000000.0 0.10732377685941366 -0.14034231374066888
1600000000.0 0.06351193495802471 0.12785194493509475
1620000000.0 -0.10069362697346712 -0.007782308082060244
1640000000.0 0.01122970113645243 0.07156698797428837
1660000000.0 0.0407461863172352 -0.020567977032349777
1680000000.0 0.012569425929500682 -0.01031559224354266
1700000000.0 0.0002450684338374554 -0.012002912307078582
1720000000.0 0.0005650344053354349 0.030967439561364014
1740000000.0 -0.005511616725362988 0.05037707343991064
1760000000.0 -0.02108535826981588 -0.06002190309441282
1780000000.0 0.037794376917170136 0.07363119927098104
1800000000.0 0.028977699597063398 -0.10315211000986246
1820000000.0 0.12042335216543541 -0.0007318994091688793
1840000000.0 -0.10743199827933007 0.09939699734880371
1860000000.0 -0.0824265726201922 -0.1519172826811117
1880000000.0 0.19667023904302347 -0.07918993957284501
1900000000.0 0.24730113681801588 -0.0714167067500311
1920000000.0 -0.27123562591182304 -0.13699326282318644
1940000000.0 0.14390169424110472 0.31840966454660746
1960000000.0 -0.0897818233985379 -0.37638424986496305
1980000000.0 0.14243642494621447 0.38894468404240096
2000000000.0 0.09603143864799411 -0.42570209131552145
2020000000.0 -0.17663903867030145 0.41289327669807024
2040000000.0 0.45103247674781666 0.0003750979733511925
2060000000.0 -0.20917048367456723 -0.39457217911149695
2080000000.0 -0.4062074414982421 0.1453021450024515
2100000000.0 -0.32118839707279623 0.2625154525547823
2120000000.0 -0.37209705782984587 0.1403793990212468
2140000000.0 -0.3638444693957638 -0.11798679607868426
2160000000.0 0.33852813927053793 -0.1486038923178714
2180000000.0 0.35683605916434613 0.04195299217516927
2200000000.0 0.30419103386142843 0.17821657159847942
2220000000.0 0.32103621323192083 -0.14724255699631086
2240000000.0 -0.17828756796384002 -0.30365721432637777
2260000000.0 -0.33120546833819964 0.13071483753816382
2280000000.0 0.18496321706481106 0.3074912297017471
2300000000.0 0.2542697372474541 -0.27063533116053035
2320000000.0 -0.35892719347513014 -0.15033795822945495
2340000000.0 -0.16298241243004702 0.3825802998521251
2360000000.0 0.4479935922422414 0.055973387028714
2380000000.0 -0.35073977454767236 -0.35394643796475583
2400000000.0 0.1622529217719701 0.5251367905040782
2420000000.0 -0.2854280087486693 -0.5321751656332198
2440000000.0 0.6064631760314363 0.2479518331280553
2460000000.0 -0.6666735046682555 0.20459066573709508
2480000000.0 0.4688455220974239 -0.5598776402234641
2500000000.0 -0.42617172853990387 0.6192522226885327
2520000000.0 0.5072599756674381 -0.5705046622476565
2540000000.0 -0.6984698225199745 0.31339930147256195
2560000000.0 0.7334272216980209 0.20171544349811332
2580000000.0 -0.2245187309649891 -0.7108759244903909
2600000000.0 -0.3714472199219684 0.6187056779270543
2620000000.0 0.6903831359708149 -0.03181422020040012
2640000000.0 0.5637879576285009 -0.3326393161816309
2660000000.0 -0.5461648920247257 -0.27430127337103677
2680000000.0 0.1011091115243369 0.5585676364793938
2700000000.0 0.1924213451188672 -0.48679031761693503
2720000000.0 -0.23968901612889645 0.41221549247737327
2740000000.0 0.26296283812417226 -0.3434144195968136
2760000000.0 -0.10475096201529058 0.3762702312857281
2780000000.0 -0.17006711785363593 -0.3134098080521072
2800000000.0 0.2961766536786332 0.13237268686587947
2820000000.0 -0.29705711208753954 0.05140904713277009
2840000000.0 0.27653574814691523 -0.0795990277624213
2860000000.0 -0.25930286725655904 0.11432208779887319
2880000000.0 0.27585148539877696 -0.0670436027964201
2900000000.0 -0.2489796398368874 -0.14879507318230226
2920000000.0 0.026968945788755593 0.3005690132459109
2940000000.0 0.1896870207248055 -0.2486966821773373
2960000000.0 -0.3088060042117095 -0.08274591132341305
2980000000.0 -0.27377855343532254 0.17611469540836733
3000000000.0 -0.2571617753735434 0.20378735196034542
3020000000.0 -0.30815484874995047 0.10557110050992509
3040000000.0 -0.05085369184185579 -0.31497943487936264
3060000000.0 0.24338034657120824 0.1937191203122884
3080000000.0 -0.24988270066804966 -0.1689376533653694
3100000000.0 0.18062504548216277 0.22995612058405923
3120000000.0 0.07666111499482957 -0.2720366272262679
3140000000.0 -0.16688657438114354 0.2175583727588374
3160000000.0 0.25340024477807366 -0.06928764494502078
3180000000.0 0.007265862162596404 -0.24991520107077284
3200000000.0 0.19729488049760976 0.1273614139388467
3220000000.0 0.005541447351117467 0.21291225454248316
3240000000.0 -0.054126172288963374 0.17845561583062164
3260000000.0 -0.06375263013504266 0.1402346104143966
3280000000.0 0.08283284171647821 0.0824315702219001
3300000000.0 0.07514304799693111 0.029160103416389752
3320000000.0 -0.0442345475909046 -0.008366577153969445
3340000000.0 0.009584373658434201 -0.009800587339971587
3360000000.0 0.001395983181230583 0.011366503290040223
3380000000.0 -0.004328588493902798 -0.023661280852127264
3400000000.0 -0.02976971828660828 0.00478362610215635
3420000000.0 0.013416356602109636 0.027911873032625836
3440000000.0 -0.02500472762337718 0.02032762142230085
3460000000.0 0.038954990229754564 0.017323973892498335
3480000000.0 0.013382621861659415 -0.06182044414635421
3500000000.0 -0.0017505836082184214 0.0869636235520436
3520000000.0 0.07569809960473214 0.07909858640837178
3540000000.0 0.07197701278916206 -0.10197782267127896
3560000000.0 -0.02455346049199878 -0.13314770069342288
3580000000.0 0.13533899982172362 0.04790991185127586
3600000000.0 -0.10228623257815235 0.11377770959451558
3620000000.0 -0.01916480715642941 -0.15957915246394658
3640000000.0 -0.08976943015512091 0.141928442073426
3660000000.0 -0.007252447228035565 -0.17890244356957843
3680000000.0 0.16205331536395698 0.09458683231996615
3700000000.0 0.05236315736654139 0.18659696744036114
3720000000.0 0.004833286678688152 0.1988249128260176
3740000000.0 0.1533619013791128 0.1262044272510812
3760000000.0 -0.02848134684318362 0.1904815327310245
3780000000.0 -0.17600099535851213 -0.0419529769334814
3800000000.0 0.16325743188320155 0.010322158827147447
3820000000.0 0.1434777926405721 0.0378635079753287
3840000000.0 -0.12473260386417215 -0.05508106148858239
3860000000.0 -0.12920676963312594 0.04380086999290509
3880000000.0 0.11850361893594498 -0.09120076140441183
3900000000.0 -0.11422546766899748 -0.11555659933580303
3920000000.0 0.17115122468068586 -0.03499183057628558
3940000000.0 0.18084132673643732 0.023545565306431055
3960000000.0 0.022044470549059222 -0.18406982783417777
3980000000.0 -0.17386440587228494 -0.04791350231778594
4000000000.0 0.1394297559160522 0.08880748419200714
