! Created with skrf (http://scikit-rf.org).
# Hz S RI R 50.0 
!freq ReS11 ImS11
400000000.0 -0.06765037694397306 0.8670672940495291
420000000.0 0.35645390003386285 0.7852684079692462
440000000.0 0.8189528594481645 -0.13242293775689926
460000000.0 0.27213210440526076 -0.7442513605701777
480000000.0 0.6675727889261714 -0.25721951007589927
500000000.0 -0.11802297925189308 -0.5593734821730273
520000000.0 -0.11652433150399813 -0.47914878242238895
540000000.0 0.4104204513922965 -0.14045925704112544
560000000.0 -0.25059832608783755 0.25543438626903237
580000000.0 0.0675586061093372 0.3321585355682951
600000000.0 0.3243383778764875 -0.09123264802998181
620000000.0 -0.3494499162065271 0.06900892739607106
640000000.0 0.1553706463019926 0.35491669883767324
660000000.0 0.4015890756252362 -0.0050018695885641435
680000000.0 -0.14079102355732717 0.3951053227496921
700000000.0 0.22144088769428405 -0.37120635709300953
720000000.0 -0.29992979991207375 -0.30439518682250133
740000000.0 0.3696344604385221 0.19602680558695365
760000000.0 0.06175559207547313 -0.39761607078390443
780000000.0 0.08213123168303892 0.36433638129936824
800000000.0 0.1692048348714112 -0.29975733915107583
820000000.0 0.28795232190828085 -0.06353902229269029
840000000.0 -0.057486249403313275 -0.24248598327183837
860000000.0 0.16977624273177186 -0.12982030402240904
880000000.0 -0.1152867799785108 0.1118266511879291
900000000.0 -0.05719467226760582 0.07520335543135286
920000000.0 -0.05560678073740784 0.02992583929072382
940000000.0 -0.004204985056620656 0.047509636946150846
960000000.0 0.004578636812192103 -0.053962736195658646
980000000.0 0.04602355271594022 0.0541825504064633
1000000000.0 0.00014752467895793952 -0.0804112635346578
1020000000.0 0.0186710029444451 0.09639476361366817
1040000000.0 0.07685651334685019 0.07941581345474308
1060000000.0 -0.07267705572654538 0.1273741970686016
1080000000.0 -0.1335987609902243 -0.08666190551214503
1100000000.0 -0.1118763387991827 0.14198850169069863
1120000000.0 0.1388318137850802 0.14652140027019114
1140000000.0 0.2115369558951677 -0.0985478148783474
1160000000.0 0.27027459532965126 -0.0023239429817182955
1180000000.0 0.20529913351043796 0.22969354070169834
1200000000.0 -0.04099906527862158 0.33684800061089765
1220000000.0 0.027501010170594392 -0.3649184651800812
1240000000.0 -0.20590739760604032 0.3356356595620112
1260000000.0 0.4073109692873108 -0.11165985065282638
1280000000.0 -0.4433754161898564 0.028886384894928483
1300000000.0 0.4184645668131005 0.18384918585127522
1320000000.0 -0.18033675036545452 -0.41588163146867035
1340000000.0 -0.38900077457432797 -0.21610493990120044
1360000000.0 -0.338950016568098 -0.27010567745948677
1380000000.0 -0.37880709913609806 -0.20090858008767548
1400000000.0 -0.38004936338621276 0.16724842524029063
1420000000.0 0.07502088518662357 0.3900025459320983
1440000000.0 0.34061350446561356 0.1500818896478382
1460000000.0 0.2152213629794703 -0.2687049810044584
1480000000.0 -0.16380404142154192 -0.2677110565622921
1500000000.0 -0.2759386781088012 -0.06635249579432329
1520000000.0 -0.2552204462395808 -0.020044128930366986
1540000000.0 0.2247989173867767 -0.04107320630788118
1560000000.0 -0.10318948105698145 0.1682769869747644
1580000000.0 -0.11182316382044337 -0.13184478571070657
1600000000.0 -0.10256188570516414 0.1044148592738781
1620000000.0 0.09157238978178983 0.07454897379603145
1640000000.0 0.09198758477521998 -0.020944543105166556
1660000000.0 -0.06819188415760427 -0.014875383355261925
1680000000.0 0.026937864754920725 0.03779853035199869
1700000000.0 0.000385889207372662 0.02814751381181099
1720000000.0 0.012760047743828586 -0.004772448140820054
1740000000.0 0.019003368197191478 -0.008826899086342073
1760000000.0 0.014931051692668802 0.03923758819103705
1780000000.0 -0.06903696640128967 0.030855840717457245
1800000000.0 0.07293987089150616 -0.08617650033478734
1820000000.0 0.1085432081676929 -0.09759911786618149
1840000000.0 0.09906632858016601 0.14900636435882814
1860000000.0 -0.2089815783223172 -0.013550733226009446
1880000000.0 0.11477302989452672 0.2108656909434526
1900000000.0 0.21508422859427737 -0.16900344005390194
1920000000.0 -0.2186654766133489 -0.212157155188119
1940000000.0 -0.326028318475696 0.08501195804830435
1960000000.0 -0.007046968591189171 0.3673829544406522
1980000000.0 0.3889915555538875 -0.05546151094256238
2000000000.0 0.08940467743240356 -0.40540526861654214
2020000000.0 -0.43085389459741735 0.00956301135628633
2040000000.0 -0.07530748645430091 0.43201188366579696
2060000000.0 0.42096764241971263 0.12471577779987324
2080000000.0 0.33579206837216347 -0.2758495231638793
2100000000.0 0.10752472524494168 -0.41486462193945867
2120000000.0 -0.15164265555767886 -0.3907108436153938
2140000000.0 -0.3689766944049647 -0.174057460475891
2160000000.0 -0.16293108243675128 -0.3578313059243611
2180000000.0 -0.3337843671210494 -0.1720377127604536
2200000000.0 -0.3479851128816732 0.09176997535862218
2220000000.0 -0.23847747944382416 0.25025297538213065
2240000000.0 -0.15935764929559387 0.30061334005548673
2260000000.0 -0.05842307373008205 0.33528910128746975
2280000000.0 0.033057696478083036 0.34391483338021933
2300000000.0 0.35607055774268614 0.06699604888830156
2320000000.0 0.06200620716765324 -0.38364360979697376
2340000000.0 -0.399700768714779 0.13490740564034748
2360000000.0 0.46286924559900783 0.03468899155094902
2380000000.0 -0.5105202113460644 -0.01642106414957891
2400000000.0 0.560417767968785 -0.0003394042744772074
2420000000.0 -0.5438229777001337 0.2783555970089084
2440000000.0 0.31537584290635107 -0.5782711426934448
2460000000.0 0.12101677527482574 0.6879030713792805
2480000000.0 -0.43761187496786985 -0.5818105087530461
2500000000.0 0.3833747947113762 0.6427907112472482
2520000000.0 -0.3185132310386845 -0.687927407031509
2540000000.0 -0.0686136706897817 0.7561740444255854
2560000000.0 0.5536582586991409 -0.5106830859993139
2580000000.0 -0.7115424246084234 -0.19710152432333372
2600000000.0 0.27766526771145655 0.6579672475454063
2620000000.0 0.35309474991260154 -0.5850478397745342
2640000000.0 -0.01655127380448621 -0.6455417043276468
2660000000.0 -0.4833252593416725 0.35712776894648335
2680000000.0 0.5218863977587911 0.18266178253191565
2700000000.0 -0.16210062512203724 -0.47897901134038084
2720000000.0 -0.2851579598284682 0.35828088968716165
2740000000.0 0.41585581977073816 -0.01855339721983855
2760000000.0 -0.32474164977742415 -0.19792671473707554
2780000000.0 0.3347281243393845 0.11079288266279087
2800000000.0 -0.32446619329702203 0.05874499855025565
2820000000.0 0.02409229644956028 -0.31239002124032367
2840000000.0 0.2968984252603971 0.05365385160250346
2860000000.0 -0.1539977326248432 0.2538943509726376
2880000000.0 -0.20452746577441258 -0.21054264010920334
2900000000.0 0.24908168436608558 0.15333480223615212
2920000000.0 0.03232581716033839 -0.29300775235571136
2940000000.0 -0.29900583516933393 0.0019623217497247796
2960000000.0 -0.19791467371405605 0.2256705939320986
2980000000.0 -0.29167643876526567 0.09006999159224692
3000000000.0 -0.2670717903927533 -0.15811675373278775
3020000000.0 0.05178544220595556 -0.3084556199431323
3040000000.0 0.24361859669037977 0.19300981585568266
3060000000.0 -0.25887749390543124 0.16987698374740984
3080000000.0 0.22510355620619407 -0.2071056102673937
3100000000.0 -0.013870041174745235 0.30030229206085546
3120000000.0 0.008263794589535781 -0.29045657733376534
3140000000.0 0.17750080414821712 0.21883946910045537
3160000000.0 -0.2656675318943593 -0.03814489483305586
3180000000.0 0.17301001533506002 0.18251076362465746
3200000000.0 -0.1450771615442613 0.17624831460539
3220000000.0 -0.18651156335418353 -0.07367847947418205
3240000000.0 0.06889317819968752 -0.15461987292068294
3260000000.0 -0.062414011445685584 0.11954445878147871
3280000000.0 0.10263454190724483 -0.007704450718005405
3300000000.0 0.06677607300902118 -0.03623857645242008
3320000000.0 0.050839181401521806 -0.0009206078795462537
3340000000.0 0.030001774726301462 -0.0041654247426038335
3360000000.0 0.0028290820511510063 -0.01307197727501384
3380000000.0 -0.0008976558629579892 -0.004599147130111701
3400000000.0 0.01686273573498827 0.008839329001825873
3420000000.0 -0.03510252423255333 0.001287134701020814
3440000000.0 -0.04759701643559674 0.011265589471750118
3460000000.0 -0.04945804202174639 -0.030439875849979096
3480000000.0 -0.0575853964803717 -0.03552993885788793
3500000000.0 -0.07310158803369268 0.02742469908745288
3520000000.0 -0.04867900226065065 0.07649272284144595
3540000000.0 0.10344888714656297 -0.008154171452946302
3560000000.0 -0.09293643153703837 -0.07229077565206204
3580000000.0 0.055475738419168606 0.121872916389247
3600000000.0 -0.1512963541453349 0.03218175893544147
3620000000.0 -0.1547206995247032 0.07099636302373569
3640000000.0 -0.1794251777254364 0.024912592038427075
3660000000.0 -0.1809655429565952 0.05600066856327322
3680000000.0 -0.19148048046716729 0.008323208264679928
3700000000.0 -0.17391468683836123 -0.07578631885962303
3720000000.0 -0.0018863529044316264 -0.18719623524012563
3740000000.0 0.16667868430351412 -0.07534774831463174
3760000000.0 -0.17657785386120153 0.002129182477417306
3780000000.0 0.16266119415631317 0.04533676987351187
3800000000.0 0.023996029072423198 -0.15887044900148045
3820000000.0 -0.1375847307638052 -0.0675338478791349
3840000000.0 -0.007964047105356425 -0.14711839398362747
3860000000.0 0.1400287119692089 0.04496435857797689
3880000000.0 0.14959151265482187 -0.03182619316656711
3900000000.0 -0.03550102215541424 -0.15157435027137986
3920000000.0 -0.09656226896919005 0.12864982209604053
3940000000.0 0.05673407702777937 -0.15555188846089338
3960000000.0 0.1710559474568188 -0.007207118353617548
3980000000.0 0.07135076915013622 -0.1571334998158714
4000000000.0 0.025835780268449026 -0.16434458959940604
