! Created with skrf (http://scikit-rf.org).
# Hz S RI R 50.0 
!freq ReS11 ImS11
400000000.0 -0.5212038572716843 0.6799657530938489
420000000.0 0.004337944915008887 0.8660846170554978
440000000.0 0.8383129552966718 0.00744593328565521
460000000.0 0.08915696081508519 -0.7974034828957592
480000000.0 0.2580709947301034 -0.6828738674116265
500000000.0 -0.20375337865839163 0.5344574183281114
520000000.0 -0.4126007685899791 0.2326356656238883
540000000.0 0.39097039008590584 -0.1411544151633528
560000000.0 -0.35053410927159057 -0.018843209239187236
580000000.0 0.30225107964875847 -0.1255783310018502
600000000.0 -0.2325539786465695 -0.21970281678486048
620000000.0 0.07469599346320492 0.3239670973545732
640000000.0 -0.26733053916578453 0.23444161332666197
660000000.0 -0.3386915968857293 0.1650967230481057
680000000.0 0.03988152610480055 -0.4045223457953381
700000000.0 -0.42878005533738284 -0.03006272993191991
720000000.0 -0.08886324001526084 0.4329336370199736
740000000.0 -0.392203438582398 0.2111173293696873
760000000.0 0.3842723161789749 -0.1905450576313741
780000000.0 0.3090090543189838 0.25441556716695607
800000000.0 -0.2941244203927827 0.22232906570993305
820000000.0 0.021222992567767014 0.3115747756933976
840000000.0 -0.2339925405467825 -0.09353475014714638
860000000.0 0.07476332366527705 -0.18813747839054332
880000000.0 -0.15373594437900986 0.010614676032277457
900000000.0 0.0065493318210952806 -0.07925784451368544
920000000.0 0.046384351520959814 0.003284833541605115
940000000.0 0.02785870158277245 -0.03377759651601907
960000000.0 -0.05233516252931691 0.010553271976435241
980000000.0 0.008439565127593297 0.06439630260253405
1000000000.0 0.05718774129441062 -0.034689864063297424
1020000000.0 -0.0662229394215632 0.0440618526885326
1040000000.0 -0.04156254804508347 -0.07437049241826107
1060000000.0 -0.09904417249899082 -0.07746435179742929
1080000000.0 0.1287864831357881 0.06069554391427313
1100000000.0 0.16093010430749538 -0.04781375035181285
1120000000.0 0.08064583706640527 -0.17215458072943524
1140000000.0 -0.0700051350145644 -0.21890549929428021
1160000000.0 -0.18165892745624546 -0.20457980242974727
1180000000.0 -0.26047817408519314 -0.17753830326002681
1200000000.0 -0.21444530518322805 -0.27949498837114944
1220000000.0 0.3680134061946746 -0.11899911480738265
1240000000.0 0.008472453749173823 0.4159215302464117
1260000000.0 -0.2357420933225067 -0.37156493557594167
1280000000.0 0.3061097754032806 0.3334770083836856
1300000000.0 -0.14534089128834088 -0.4322185089744911
1320000000.0 -0.35067591724678937 0.2755383224786969
1340000000.0 -0.39478323653057934 0.1798659169766086
1360000000.0 -0.3336383144257056 -0.26270287643778106
1380000000.0 -0.38161880822744254 -0.1844988194747269
1400000000.0 -0.20336621163889992 0.35268167522675187
1420000000.0 -0.0672248825499992 0.37967347688660835
1440000000.0 0.06714027883495964 0.3534059650150503
1460000000.0 -0.016005822685796468 0.33275125348432977
1480000000.0 -0.01654289613258995 0.3111380717318
1500000000.0 0.16751134510673493 0.23881577197189344
1520000000.0 -0.16719673432194773 -0.21426234153878723
1540000000.0 0.15017550277292505 0.20039826551106207
1560000000.0 0.20034492644970056 0.09322306700830087
1580000000.0 0.14247095716116634 -0.12957967549957214
1600000000.0 0.13294705215135966 0.08527847749149066
1620000000.0 -0.10124832045011328 0.0646893673736992
1640000000.0 0.07498241078214835 0.055198027593956873
1660000000.0 0.04537411284979975 0.05178717059436737
1680000000.0 -0.03295193512717337 -0.027076049074799116
1700000000.0 -0.0026762135650104653 0.022882209403277086
1720000000.0 -0.01789145092432708 -0.015195548953442033
1740000000.0 0.039948441469781985 -0.016148054505625013
1760000000.0 0.016134753612657825 -0.06496234643125995
1780000000.0 0.08029086574405105 0.05248859723065198
1800000000.0 -0.013017969071445548 -0.12747410203844714
1820000000.0 0.10538852439059154 -0.11348737036231964
1840000000.0 0.08217958757859016 0.16374151720541352
1860000000.0 -0.006771213753124748 -0.20597289162374605
1880000000.0 -0.18101129463673238 -0.1423549782943966
1900000000.0 -0.24221561778758308 -0.0886076541259447
1920000000.0 -0.2608038680231092 -0.12221313577833574
1940000000.0 -0.21732846389757196 -0.23425464173300176
1960000000.0 -0.27799437534281923 -0.2211036903558188
1980000000.0 -0.24433731443996598 0.29946985257977327
2000000000.0 0.18916489578881635 0.3705534818462421
2020000000.0 0.2833949932966797 -0.33674875877990224
2040000000.0 -0.4559191386367372 -0.025854550684844855
2060000000.0 0.4075587306353435 0.21693604711799122
2080000000.0 -0.13776021626307197 -0.43735677065553946
2100000000.0 -0.34876794702817066 0.2802959693465235
2120000000.0 0.2781930342348364 0.3241280159363647
2140000000.0 -0.07422697812377176 0.3974573973632841
2160000000.0 0.10633520209471052 0.3664073753131697
2180000000.0 -0.13445410775459382 0.33188463294142095
2200000000.0 -0.3159563840015302 0.13409492524835692
2220000000.0 -0.10241170505683676 -0.3176635221356613
2240000000.0 0.002648182389841409 -0.34066959712395734
2260000000.0 -0.1499935971691913 -0.3170682634651741
2280000000.0 -0.3583038801337803 0.07066864403459773
2300000000.0 0.37618754851155134 0.07509847016620486
2320000000.0 -0.3350886111387719 -0.23559351714030122
2340000000.0 0.28478805425090375 0.33279606325624134
2360000000.0 -0.1943118132359601 -0.43312520494726287
2380000000.0 0.172979220052414 0.4856048574587057
2400000000.0 -0.21779895896454915 -0.5189871588749776
2420000000.0 0.45180499777384225 0.4101975038183922
2440000000.0 -0.6380715806434719 -0.1480655971231177
2460000000.0 0.6521756828696403 -0.2307078993350434
2480000000.0 -0.549848644677687 0.4635853639713362
2500000000.0 0.6491240035481355 -0.3511213229451416
2520000000.0 -0.7345512070015556 0.13287200632651283
2540000000.0 0.7246773053543167 0.17905917739069277
2560000000.0 -0.3539935339471265 -0.649466765830132
2580000000.0 -0.3194223589105716 0.6492814391654927
2600000000.0 0.6972297527862426 -0.03206460982459676
2620000000.0 -0.3499602750934145 -0.5657394086115313
2640000000.0 -0.43565394513638006 -0.4509076776289459
2660000000.0 -0.336135082928504 0.47526962153687524
2680000000.0 0.43426915289774903 0.3167524726781836
2700000000.0 0.20540242110281762 -0.4522876609207736
2720000000.0 -0.44390242060301704 0.10119577729506561
2740000000.0 0.3619950480346848 0.20913996097067358
2760000000.0 -0.3285120062419372 -0.20025823054550224
2780000000.0 0.3164356867803441 -0.16340327331900467
2800000000.0 0.16038301544308817 0.28900284258298053
2820000000.0 -0.1847944842651619 0.24754002283155774
2840000000.0 -0.20329023775215832 -0.20643744648929135
2860000000.0 0.27406035497888825 0.05327473798490161
2880000000.0 -0.27209685883130325 0.010212198026238767
2900000000.0 0.19850307291580443 0.1828657073295785
2920000000.0 0.27335833617983424 0.029954207042490983
2940000000.0 0.1845098291768211 -0.2160043748122306
2960000000.0 0.19152589207472817 -0.21972538962559407
2980000000.0 0.18870597613363224 -0.23878033777929109
3000000000.0 0.24156310604188752 -0.20227208939955185
3020000000.0 0.28135681663277745 -0.15293864114252587
3040000000.0 0.31818850683637945 0.03624025797675258
3060000000.0 0.05353648240575719 0.3115033953939475
3080000000.0 -0.3081191879949127 -0.0025471467586280494
3100000000.0 0.14453999153006417 -0.26027906726050604
3120000000.0 0.03897779647584635 0.2812439076881591
3140000000.0 -0.052243938940167024 -0.26406830898348177
3160000000.0 -0.24234432608026546 -0.061923945763807955
3180000000.0 0.1491660811807812 0.17752411718714906
3200000000.0 0.020122908860089 -0.20935999060186458
3220000000.0 -0.13224869265058525 0.13358033055315752
3240000000.0 0.15868199470822497 0.05364874083679967
3260000000.0 -0.09981911472482675 -0.10770830599014998
3280000000.0 0.0020678603815011266 -0.12447091004486013
3300000000.0 -0.06948970583041372 -0.06964703552583579
3320000000.0 -0.010327210964867531 -0.06890927043359094
3340000000.0 0.008332279722026582 0.040287777322491516
3360000000.0 0.022916260850400695 0.0012485904523458432
3380000000.0 -0.0039567412764350066 0.028851712073140006
3400000000.0 0.022667627943427214 0.03596458061493161
3420000000.0 -0.04080833363504442 -0.03417734105683627
3440000000.0 0.05088756858029682 -0.016708526869535324
3460000000.0 0.04312359607826915 0.018943732631216553
3480000000.0 -0.03845848153996228 0.02274582028355658
3500000000.0 0.02859113441707142 -0.04977049595742808
3520000000.0 -0.07026858845892048 -0.043365918741461805
3540000000.0 -0.09258814102677276 -0.0570990396378281
3560000000.0 -0.1264402299832692 0.033749869491697206
3580000000.0 -0.10423848297076059 0.10761621163188659
3600000000.0 0.1355691115253268 0.09812366697206008
3620000000.0 0.0016420662951553073 -0.174615366369562
3640000000.0 0.012118726466265722 -0.1796492093324063
3660000000.0 0.03051187870262128 -0.1787921602636543
3680000000.0 0.1624578636630252 0.07448559582897359
3700000000.0 -0.17401139924021822 -0.01815698928987616
3720000000.0 0.12918930809255383 0.11578215745697638
3740000000.0 -0.12760212179525565 -0.1173864854203031
3760000000.0 -0.09148664693576349 0.1500446285220925
3780000000.0 0.008284285572268384 -0.17520716299503994
3800000000.0 0.10546741622562739 0.13842089986128456
3820000000.0 -0.1658494700575758 0.03259617976010148
3840000000.0 0.14864416144016884 0.04943877710410886
3860000000.0 0.14561852172692977 0.0069320846049430234
3880000000.0 -0.0545009461670644 0.12909046620432352
3900000000.0 0.011163023784873726 -0.13747338421114247
3920000000.0 0.10050274634082836 0.1058359031326291
3940000000.0 0.14535834076627296 -0.06561076228998848
3960000000.0 0.12399892778523745 0.12498334047071895
3980000000.0 -0.05746749522173287 -0.17745038588496315
4000000000.0 0.0932872013232554 0.15928447717951771
