! Created with skrf (http://scikit-rf.org).
# Hz S RI R 50.0 
!freq ReS11 ImS11
400000000.0 -0.5391337967285527 0.6660845344824274
420000000.0 0.013001763469413148 0.8655055880109204
440000000.0 0.8387070607256233 0.010058165483320254
460000000.0 0.05018979925432605 -0.7999688404965032
480000000.0 0.27999515030333394 -0.6738608446425022
500000000.0 -0.2092706904854171 0.5326813562706519
520000000.0 -0.39619681985207555 0.2602183723394822
540000000.0 0.39342736738414413 -0.13209418800878572
560000000.0 -0.3442514904082146 -0.06653736248072044
580000000.0 0.3089153803228848 -0.11094811801109968
600000000.0 -0.25870959567361684 -0.18733458455113633
620000000.0 0.08316349020882813 0.32163461354336115
640000000.0 -0.24809898636520444 0.2551527538822046
660000000.0 -0.32792416466539176 0.1862094668505833
680000000.0 0.04665165176180401 -0.4042684657318519
700000000.0 -0.4293751448618887 -0.026996348705241265
720000000.0 -0.0688250414534 0.4367551217824045
740000000.0 -0.36952156710657674 0.24731655750534556
760000000.0 0.3729707147431863 -0.2117623033738443
780000000.0 0.31206145067713176 0.25004722354442227
800000000.0 -0.29800269040318983 0.2168173815575117
820000000.0 0.061341827691917865 0.305787523850276
840000000.0 -0.2413109471971448 -0.07196197459475677
860000000.0 0.06696785060144357 -0.19048048510990073
880000000.0 -0.1533636302903556 -0.013813225123266692
900000000.0 0.007183186657823882 -0.07859888916808092
920000000.0 0.032556197103244214 0.03169911583136761
940000000.0 -0.0017740463957439054 -0.04330969262785908
960000000.0 -0.04950992744626503 0.017260556568196164
980000000.0 -0.0009899227394675116 0.06409930650446047
1000000000.0 0.05697157560149405 -0.03333410883204724
1020000000.0 -0.07585526081796692 0.02272997479984411
1040000000.0 -0.008360498541486381 -0.08497429638526849
1060000000.0 -0.06518785194137644 -0.1080683983204813
1080000000.0 0.11584270803154176 0.08295926145335189
1100000000.0 0.16686729639557485 -0.022612323604057516
1120000000.0 0.09348144677192925 -0.1661582662371469
1140000000.0 -0.0699004589254859 -0.21924936223594899
1160000000.0 -0.1861193923744103 -0.20100661418036447
1180000000.0 -0.2757850038087155 -0.1531594124442009
1200000000.0 -0.24824077286256138 -0.25062680258578923
1220000000.0 0.34159172241583563 -0.18184673676994093
1240000000.0 0.046876485668503796 0.41311428183044263
1260000000.0 -0.2621319213071109 -0.3529928517178272
1280000000.0 0.3129849749766057 0.3266377092472134
1300000000.0 -0.16782658484769516 -0.4237402683462142
1320000000.0 -0.35781581974481813 0.2653828050848988
1340000000.0 -0.3995212713224169 0.1692277990706613
1360000000.0 -0.34100743125223576 -0.2532828606264615
1380000000.0 -0.3810367509882685 -0.18639571522080914
1400000000.0 -0.21895396751031088 0.34328184375738546
1420000000.0 -0.08595860491677973 0.37554139276157855
1440000000.0 0.04231794830899047 0.3576078312428742
1460000000.0 -0.03497383230760708 0.33184950157192294
1480000000.0 -0.007907070569067793 0.31163539916822985
1500000000.0 0.15907559956329864 0.24441454095339682
1520000000.0 -0.15433439451842015 -0.2240265696187276
1540000000.0 0.17024291951666398 0.18314290599193728
1560000000.0 0.20512713715131078 0.08103305599709229
1580000000.0 0.15802695976075326 -0.10954961788387285
1600000000.0 0.126977745306155 0.09351039935412182
1620000000.0 -0.09253772367240069 0.07620843884238554
1640000000.0 0.09182152668651421 0.014805856909191416
1660000000.0 0.06679288367915545 0.017164120252122664
1680000000.0 -0.0385656298824671 -0.017673735933541136
1700000000.0 -0.012184722279277863 0.019824032009210943
1720000000.0 -0.023272454429342757 0.0034007227547074633
1740000000.0 -0.009481105647090036 -0.042120570472971304
1760000000.0 -0.02913208323877102 -0.06031100756292337
1780000000.0 0.09509895176623473 0.009409641882256334
1800000000.0 -0.05584097524651403 -0.11504044136807336
1820000000.0 0.06834066891251589 -0.13833940320397575
1840000000.0 0.09580887469761643 0.1555824453561574
1860000000.0 -0.004641225458278248 -0.20545561018522304
1880000000.0 -0.16550240344972533 -0.15972020881636922
1900000000.0 -0.22817942179819076 -0.11996183829202701
1920000000.0 -0.2458712221958026 -0.15028841621879582
1940000000.0 -0.18896186657622496 -0.2582048278818309
1960000000.0 -0.26142224226334354 -0.24117379777300926
1980000000.0 -0.2694800072986587 0.2777220226563617
2000000000.0 0.1825674216853411 0.37435322177569746
2020000000.0 0.28108649200149155 -0.33901215705183035
2040000000.0 -0.4567447895810681 -0.004674250501346268
2060000000.0 0.41460302178161584 0.2026072562266561
2080000000.0 -0.18852248073863842 -0.417265857749235
2100000000.0 -0.32672940425783203 0.3046081782747281
2120000000.0 0.28671290150987 0.3157764928663082
2140000000.0 -0.06751339162524925 0.39794017446644203
2160000000.0 0.1003293836459553 0.3675301893312785
2180000000.0 -0.13065065150518645 0.33289853249590834
2200000000.0 -0.327107944840267 0.10396944494908551
2220000000.0 -0.09923101392040057 -0.3186468989893921
2240000000.0 0.043267052600724006 -0.33840482225625157
2260000000.0 -0.15418836160357963 -0.3155405422466604
2280000000.0 -0.35775401322588574 0.07511468947693255
2300000000.0 0.3782141367948538 0.06646435805750912
2320000000.0 -0.3285375228260747 -0.24395928735163824
2340000000.0 0.27173088241209303 0.34316962686139113
2360000000.0 -0.1733130704203637 -0.4414786527924155
2380000000.0 0.14531677257731074 0.4943155567242683
2400000000.0 -0.16108445850448458 -0.538940310073074
2420000000.0 0.41639388577138464 0.4457626103632522
2440000000.0 -0.6179667760716325 -0.21738772012899912
2460000000.0 0.6693274419518421 -0.17492964732286423
2480000000.0 -0.5828662135272802 0.4215167103614007
2500000000.0 0.6742011001903429 -0.30075005836884844
2520000000.0 -0.7397460275873626 0.10261928766341236
2540000000.0 0.7122832499007261 0.22500301995408678
2560000000.0 -0.3384071358990416 -0.6582386324804863
2580000000.0 -0.37932540200155584 0.6168967514979132
2600000000.0 0.6979963791150683 -0.028270473920399466
2620000000.0 -0.35255043336549 -0.5650414021596518
2640000000.0 -0.42459480042853315 -0.46238641257070534
2660000000.0 -0.307890211538991 0.49536103977977436
2680000000.0 0.4557896437826464 0.28693760438889676
2700000000.0 0.2092073394528083 -0.4513552993386012
2720000000.0 -0.4400721975730593 0.11953724087903489
2740000000.0 0.3715650063441516 0.19261406580464782
2760000000.0 -0.34655288911695975 -0.1683002900971692
2780000000.0 0.30841321388091036 -0.17920642835828451
2800000000.0 0.17305635282384202 0.28205003595336914
2820000000.0 -0.18476232215503277 0.24779027931740086
2840000000.0 -0.19360060833228204 -0.21569887248033248
2860000000.0 0.27435393153381166 0.05215605690422701
2880000000.0 -0.2723346565177789 -0.01278343064442615
2900000000.0 0.18251993288141213 0.19845028308746118
2920000000.0 0.2662324364044383 0.07018287211807701
2940000000.0 0.1798706083238542 -0.22003392761105917
2960000000.0 0.20366174173547466 -0.2088195687300932
2980000000.0 0.18929250250803814 -0.23828924488906067
3000000000.0 0.22531386127661465 -0.21906644064472222
3020000000.0 0.25792943577904953 -0.18964209592310138
3040000000.0 0.3166390462716613 -0.04530872074722952
3060000000.0 0.10534654184709484 0.29764315107265765
3080000000.0 -0.3074445764493948 0.015235157070962442
3100000000.0 0.11356376734669321 -0.2751569568372938
3120000000.0 0.06530639684992784 0.27609479657416597
3140000000.0 -0.06621854528463768 -0.2606668878554367
3160000000.0 -0.23978195868482283 -0.07121945490503509
3180000000.0 0.1504348748117727 0.17661115306511954
3200000000.0 0.015515474955502012 -0.2102158075644597
3220000000.0 -0.13022404174688015 0.13644501114178362
3240000000.0 0.16609077320163954 0.026923029320813422
3260000000.0 -0.11862292540795687 -0.0881148317328278
3280000000.0 -0.03714016972452421 -0.11936082568165081
3300000000.0 -0.08470555265149053 -0.051603408865972776
3320000000.0 -0.029182014041585443 -0.06388818825724801
3340000000.0 -0.004897278777023392 0.040845511698142434
3360000000.0 0.0202428332489165 0.009724571606507321
3380000000.0 0.02578325012945341 0.012848912839013519
3400000000.0 0.041728304305007465 -0.005122346284816764
3420000000.0 -0.04561011173897843 0.027115778055139202
3440000000.0 0.009838919030478939 -0.05187063984697906
3460000000.0 0.04406564652351748 -0.015481598229844917
3480000000.0 -0.03439167760360872 0.027386176438603832
3500000000.0 0.013717991169728836 -0.05534335751015481
3520000000.0 -0.07633488411072464 0.032358994608545424
3540000000.0 -0.10894550475095514 -0.002650298638688683
3560000000.0 -0.1056044444482541 0.07727674549661896
3580000000.0 -0.052982591357033273 0.1404044618037564
3600000000.0 0.16768638290231067 0.00161594253705886
3620000000.0 -0.05871704364089949 -0.16442099609081023
3640000000.0 -0.05181108496497241 -0.17266631031035048
3660000000.0 -0.0015349316034693943 -0.18144062458676835
3680000000.0 0.16472448176354204 0.06929305879229805
3700000000.0 -0.17379401524912447 -0.01871534301286978
3720000000.0 0.11457762419021104 0.13081772534334823
3740000000.0 -0.1286884285151228 -0.11692711928151933
3760000000.0 -0.09082325316838688 0.15162266562703813
3780000000.0 -0.009558200835607093 -0.17597811927998136
3800000000.0 0.12957459502011934 0.11735336960728487
3820000000.0 -0.15692789853046962 0.06315219124058007
3840000000.0 0.15529221508856167 0.01884282045565295
3860000000.0 0.14488119991331105 -0.005295582140417995
3880000000.0 -0.07335781019506427 0.11860997572397014
3900000000.0 0.03223562433700289 -0.1335289035100318
3920000000.0 0.07669596498853753 0.1239016765588463
3940000000.0 0.14304859884727086 -0.07085542177735726
3960000000.0 0.1487677674549279 0.09494140751186837
3980000000.0 -0.12954169203172955 -0.13475820590730495
4000000000.0 0.15879482528338526 0.09463358643537072
