! Created with skrf (http://scikit-rf.org).
# Hz S RI R 50.0 
!freq ReS11 ImS11
400000000.0 -0.539077912143342 0.6677774896427985
420000000.0 0.005720885911306444 0.8658136146635345
440000000.0 0.8373072941301497 -0.03774036050523741
460000000.0 0.06053480380070919 -0.7989095094973311
480000000.0 0.29555954729641337 -0.6672203885681445
500000000.0 -0.2068570477603589 0.5336552380759849
520000000.0 -0.3873282468686762 0.2726776601869634
540000000.0 0.40138271645118123 -0.10474787754420373
560000000.0 -0.33943130308965813 -0.0902847810878987
580000000.0 0.3039720570250858 -0.12419150764795393
600000000.0 -0.22334287508392525 -0.22825018085748894
620000000.0 0.0427296900787272 0.32985709888091813
640000000.0 -0.2657382305299739 0.23675730293293024
660000000.0 -0.3489410512411026 0.1428580679085532
680000000.0 0.05440037470734626 -0.4036878448658721
700000000.0 -0.43015670346378265 0.004591684962504245
720000000.0 -0.06924825723984673 0.4364384464792801
740000000.0 -0.3835546200393977 0.2255942339990773
760000000.0 0.37516734502599985 -0.20773950287644213
780000000.0 0.3136592190967742 0.2488450256106731
800000000.0 -0.2729506298059137 0.24758614145099536
820000000.0 0.07862992576211714 0.30176413680623737
840000000.0 -0.24069880939491556 -0.07368798874686118
860000000.0 0.06973308768735073 -0.18930794443301524
880000000.0 -0.1506024661244587 -0.02916825352968423
900000000.0 -0.0013127295224485953 -0.07825339139133368
920000000.0 0.045105370975725756 0.004640986375023984
940000000.0 -0.007768300716774457 -0.0428341738490525
960000000.0 -0.0447085525022479 0.028026992982425385
980000000.0 0.003921958790292494 0.06403155445743706
1000000000.0 0.06393765489838525 -0.015625706446904964
1020000000.0 -0.07716048965224379 0.015641824359636538
1040000000.0 0.01062992486912963 -0.08444912962584682
1060000000.0 -0.07081049597692189 -0.10404645320647918
1080000000.0 0.11810750592902955 0.07980697429427781
1100000000.0 0.1664403647288734 -0.02426467345743124
1120000000.0 0.08528104290700314 -0.17057306075899153
1140000000.0 -0.07647167857377961 -0.2171364531528168
1160000000.0 -0.18698356465789137 -0.20006934622847813
1180000000.0 -0.2761821861019027 -0.15263370073322477
1200000000.0 -0.2323187624341839 -0.2655604069547316
1220000000.0 0.34694216611942635 -0.1710597874282578
1240000000.0 0.03170093530504976 0.4145116389556059
1260000000.0 -0.2604606892386961 -0.35438113560489043
1280000000.0 0.3144968986288037 0.32533953470013405
1300000000.0 -0.1729292359365776 -0.4218598765342003
1320000000.0 -0.3581521720209535 0.26529540754374104
1340000000.0 -0.4017357481556351 0.1639335533605608
1360000000.0 -0.32344743390418074 -0.27492226211569143
1380000000.0 -0.37395497644023595 -0.19965199807523776
1400000000.0 -0.21403874577973306 0.3464858998688068
1420000000.0 -0.07857513643113645 0.37743406096039467
1440000000.0 0.05499905817151653 0.3560689961706529
1460000000.0 -0.022350060611656127 0.33273321155272656
1480000000.0 0.014394220188883686 0.3116051398406992
1500000000.0 0.18360873879690467 0.22714732119555953
1520000000.0 -0.1883137179948237 -0.1964731072064373
1540000000.0 0.1549872444240778 0.1962017374139745
1560000000.0 0.19603485450674288 0.10138323251863085
1580000000.0 0.15239896081372875 -0.11745538893739102
1600000000.0 0.12789803426309915 0.09239918448439768
1620000000.0 -0.10878462296704511 0.05053806698258769
1640000000.0 0.08646368009648321 0.03455557594771276
1660000000.0 0.0630072810585942 0.02762570541755062
1680000000.0 -0.04244288362240577 -0.0024241837101833664
1700000000.0 0.016821702179531276 0.015611765476168403
1720000000.0 -0.022603650632125178 0.007013606449999845
1740000000.0 0.02107981395683491 -0.037706114344031316
1760000000.0 -0.03427369669494894 -0.05729725619437501
1780000000.0 0.09477900309703861 0.010754630326082835
1800000000.0 -0.0637541711059494 -0.11086028212790805
1820000000.0 0.06651002566015715 -0.13879448695640642
1840000000.0 0.09973297104758613 0.15264586389831702
1860000000.0 -0.01154704006133323 -0.2050433526691511
1880000000.0 -0.16796579759696295 -0.1567623895805859
1900000000.0 -0.22932960372988892 -0.11741498472537816
1920000000.0 -0.24889384909864956 -0.1452514818513293
1940000000.0 -0.18882972260213352 -0.25834877834582937
1960000000.0 -0.2612371561263409 -0.2417245474209517
1980000000.0 -0.26073237607942523 0.2863564060448798
2000000000.0 0.18446852980851133 0.3734930780846897
2020000000.0 0.2872405766411146 -0.33419974909443784
2040000000.0 -0.4564484379613261 0.013102477024975382
2060000000.0 0.40267410697013695 0.2259482737941499
2080000000.0 -0.1470921190353223 -0.4338206794231637
2100000000.0 -0.35352664976430676 0.2730866018942975
2120000000.0 0.3003979565841551 0.30199356016196877
2140000000.0 -0.10693874121294601 0.3890367430560417
2160000000.0 0.07415728470732562 0.3735326605051474
2180000000.0 -0.13612559002558186 0.33059796157567567
2200000000.0 -0.3255010187020003 0.10852554626157357
2220000000.0 -0.11674216721072767 -0.31273723796605224
2240000000.0 0.033792903266926355 -0.3395316278086912
2260000000.0 -0.16131481871806866 -0.31201005857309927
2280000000.0 -0.3532368897871691 0.09421092305467021
2300000000.0 0.3782703480988555 0.06587590176991971
2320000000.0 -0.3388810608861822 -0.2299382865727272
2340000000.0 0.2547030894078255 0.35581307133607265
2360000000.0 -0.16686294460985407 -0.44395773305576053
2380000000.0 0.13947922662606949 0.4962660392577375
2400000000.0 -0.15490341602363433 -0.540989924807901
2420000000.0 0.4122033313810359 0.4497539958086236
2440000000.0 -0.6244543798329697 -0.19760891595658167
2460000000.0 0.6690230378473576 -0.17662603766932172
2480000000.0 -0.5901062888741724 0.4114919698151543
2500000000.0 0.6711089436836734 -0.30758471311225444
2520000000.0 -0.7403618843703308 0.09852911471144568
2540000000.0 0.7143407551239119 0.21902899541846754
2560000000.0 -0.3255917743853671 -0.6649359284271835
2580000000.0 -0.3454804260317051 0.6365987312889986
2600000000.0 0.6988481319207084 0.006759981822237222
2620000000.0 -0.3246132629756926 -0.5816368328252465
2640000000.0 -0.43844300151252574 -0.4497520124145187
2660000000.0 -0.33284406770174235 0.4791562885181257
2680000000.0 0.4533559799930335 0.291303895417174
2700000000.0 0.204450045089241 -0.45381798116841304
2720000000.0 -0.44402971594924 0.10415845403280292
2740000000.0 0.3431754071054815 0.23961652367517988
2760000000.0 -0.3374472652549802 -0.18611148109226772
2780000000.0 0.3091767007227033 -0.1775787311522299
2800000000.0 0.17157583703089987 0.2827044095790546
2820000000.0 -0.18110373922120482 0.2502450092716606
2840000000.0 -0.1955891952216943 -0.21386512398115953
2860000000.0 0.27556597180286796 0.0445947243593307
2880000000.0 -0.2721840504343368 -0.011676492429963398
2900000000.0 0.16556679791062912 0.21330987336822674
2920000000.0 0.2717891372093455 0.04470792390667767
2940000000.0 0.1867323102393996 -0.21451588749556072
2960000000.0 0.20127364546091375 -0.21154678256386772
2980000000.0 0.20249681857633492 -0.2272493178397115
3000000000.0 0.22063035532366526 -0.2253061097602599
3020000000.0 0.26572061119391904 -0.17968017764165775
3040000000.0 0.3199813685409948 0.011962989621287156
3060000000.0 0.11448584013899198 0.2945473181401581
3080000000.0 -0.3072813391651131 0.023109878254920828
3100000000.0 0.18167275721410714 -0.23527093986855127
3120000000.0 0.04024794109220624 0.2802993524727783
3140000000.0 -0.04489067052014959 -0.26507763031188303
3160000000.0 -0.24129024852131237 -0.06544681171248949
3180000000.0 0.14225923038252378 0.1826730255651907
3200000000.0 0.028341941010594285 -0.20850321586447093
3220000000.0 -0.12797840641912595 0.13888661984658235
3240000000.0 0.16606666376758705 0.02514672731281086
3260000000.0 -0.1274802691208331 -0.07387298537284849
3280000000.0 -0.029263056317084587 -0.12135904050121421
3300000000.0 -0.09600010840935515 -0.02444107739918401
3320000000.0 -0.0469699277277972 -0.05236479393429676
3340000000.0 0.00750585814860715 0.04031873505541489
3360000000.0 0.01638504324299446 -0.013997916046016209
3380000000.0 -0.003986944897683316 0.02860129655027233
3400000000.0 0.032769898682819744 -0.026577023961404753
3420000000.0 -0.04489225422666141 0.027667423196702137
3440000000.0 0.006454542740501537 -0.05219968866177785
3460000000.0 0.030107018886110466 -0.03561949137482018
3480000000.0 -0.03577601569833469 0.025261993732150632
3500000000.0 0.03767862343598604 -0.04235324588848969
3520000000.0 -0.0743094673488664 -0.03561352710282592
3540000000.0 -0.10201770513420039 -0.03653692782131939
3560000000.0 -0.10983326149604461 0.07020151922000271
3580000000.0 -0.045334780017380664 0.1424691940907364
3600000000.0 0.16699352512187546 0.008478401397165554
3620000000.0 -0.06613963111977103 -0.16125566348433107
3640000000.0 -0.052211475950367466 -0.1719301776233231
3660000000.0 -0.007397470389066856 -0.18097822726522014
3680000000.0 0.16902307512631565 0.05716617180593803
3700000000.0 -0.17472550919047594 -0.0019676907480423622
3720000000.0 0.12969806026745587 0.11556914612995589
3740000000.0 -0.1447972424670371 -0.09643567992241213
3760000000.0 -0.05568836612881998 0.1676928346228163
3780000000.0 -0.05281000175084689 -0.16813486812928002
3800000000.0 0.1539975241153237 0.0831078967446583
3820000000.0 -0.14298878412959318 0.0909515709960128
3840000000.0 0.1563921506404856 -0.005775021251302012
3860000000.0 0.1419300840428234 -0.031005538311319348
3880000000.0 -0.06157519323550034 0.12551992514560936
3900000000.0 0.034712291639835316 -0.13300707103547754
3920000000.0 0.07801460656216418 0.12395070375384595
3940000000.0 0.14247099361254548 -0.07439216679941121
3960000000.0 0.14254290252722257 0.10532049123716249
3980000000.0 -0.10068321462023774 -0.1583576133901267
4000000000.0 0.11484707534815929 0.14597134466219625
