! Created with skrf (http://scikit-rf.org).
# Hz S RI R 50.0 
!freq ReS11 ImS11
400000000.0 -0.5209641795761573 0.6820553398027832
420000000.0 0.020610487384880884 0.8660788493132507
440000000.0 0.8370935348206583 -0.048343301555773814
460000000.0 0.052609701153189574 -0.7996488675454694
480000000.0 0.28641897124683846 -0.671155192704488
500000000.0 -0.21737078462563655 0.5299610079569126
520000000.0 -0.379514196306027 0.28312728355328554
540000000.0 0.3887053331496413 -0.14332259256284086
560000000.0 -0.33433080447128105 -0.10413135266142716
580000000.0 0.3111675609535859 -0.1051949271970491
600000000.0 -0.26621938116664284 -0.17676838830217068
620000000.0 0.08843352070340253 0.3201129496567385
640000000.0 -0.2694162067435094 0.232373150490718
660000000.0 -0.3428184329046376 0.15765454247063113
680000000.0 0.03350431642949148 -0.40522839784630266
700000000.0 -0.42975588541299414 -0.009348550856028417
720000000.0 -0.09508567332474883 0.4316787311023714
740000000.0 -0.3839388647814298 0.2268210518818264
760000000.0 0.3827547970711257 -0.1938457089639691
780000000.0 0.30905301351979725 0.2537565764548576
800000000.0 -0.28420941705162295 0.2339744888332169
820000000.0 0.05619365314832988 0.3070668733146784
840000000.0 -0.24158774117482448 -0.07117640861124525
860000000.0 0.07203674305542004 -0.18880596548793746
880000000.0 -0.15373651127243998 -0.009944981256723181
900000000.0 -0.0062094295515708 -0.07882345902614363
920000000.0 0.04484235370061679 0.009842033743883377
940000000.0 0.017643912017177014 -0.04033580013187362
960000000.0 -0.05256182365516933 0.008881283317841765
980000000.0 -0.0050036182365810165 0.06456610294133519
1000000000.0 0.05875773620453165 -0.031173249518519054
1020000000.0 -0.06827237081423268 0.04065075644008435
1040000000.0 -0.025909049728321795 -0.08138141226074344
1060000000.0 -0.09043339955610732 -0.08763103683641174
1080000000.0 0.12763943865260952 0.0628379734022507
1100000000.0 0.16389420029031312 -0.03723703853467748
1120000000.0 0.07928753938355297 -0.17308313981510587
1140000000.0 -0.06440964487815576 -0.22090728378358382
1160000000.0 -0.16968394904956294 -0.21507072789801795
1180000000.0 -0.2717612304183208 -0.16056604933202684
1200000000.0 -0.2323336331427208 -0.2652879619080128
1220000000.0 0.35294583295362125 -0.15866193709945578
1240000000.0 0.029472693072794556 0.41484192552971977
1260000000.0 -0.22252962432911758 -0.37887929053527564
1280000000.0 0.313179688581398 0.32664366326847394
1300000000.0 -0.15362609570576832 -0.4292005917642511
1320000000.0 -0.3510452009245293 0.27490266603495045
1340000000.0 -0.4025431077351297 0.16247087809230684
1360000000.0 -0.3339484555964145 -0.26287465493207923
1380000000.0 -0.3854497463465276 -0.17672082768391242
1400000000.0 -0.2029516543642698 0.35290881753109427
1420000000.0 -0.06204108628741526 0.38033681285591353
1440000000.0 0.06648483351035903 0.35348396493406137
1460000000.0 -0.01567317913861086 0.3330677233495829
1480000000.0 -0.023315781204989797 0.3109577441689026
1500000000.0 0.1572773287801003 0.2455536136943641
1520000000.0 -0.1644932488949889 -0.21632050684575432
1540000000.0 0.1453444804475577 0.20358617942184778
1560000000.0 0.19601297571380777 0.10137544458661181
1580000000.0 0.13264840098112185 -0.13909793806738613
1600000000.0 0.12960485291409066 0.0902036089119606
1620000000.0 -0.1003751918850327 0.06643053472348336
1640000000.0 0.08940235532319928 0.02673088301989272
1660000000.0 0.05574341527031776 0.04049982707733316
1680000000.0 -0.03862390482770079 -0.018110014414042842
1700000000.0 -0.0024472977876898354 0.022656671061847166
1720000000.0 -0.021494789523880606 -0.009298506262116703
1740000000.0 0.02119829239799306 -0.037722179666247295
1760000000.0 -0.007885513348625637 -0.06649172645696391
1780000000.0 0.0865183976342867 0.04078896498485983
1800000000.0 -0.03975675687909668 -0.1219446937535397
1820000000.0 0.08193592999516547 -0.1314742515325074
1840000000.0 0.10063036303912122 0.15302782770915774
1860000000.0 -0.00420244356767905 -0.20594308969792416
1880000000.0 -0.17865970251945398 -0.14558327138592414
1900000000.0 -0.24076920376059363 -0.09283962985919664
1920000000.0 -0.25448465769478507 -0.1355066460245029
1940000000.0 -0.20233462195505297 -0.2478418367557709
1960000000.0 -0.27004615023151046 -0.2312763452237631
1980000000.0 -0.2549523578749707 0.2909691982537751
2000000000.0 0.18580849914915584 0.3725744303313691
2020000000.0 0.2856948074971834 -0.3350982919452857
2040000000.0 -0.45619650909636056 0.015601274172624701
2060000000.0 0.4045755382549854 0.2227808894120149
2080000000.0 -0.1728139847743658 -0.42454832143055643
2100000000.0 -0.3461364677112171 0.2835898820084067
2120000000.0 0.3133979770709287 0.2897283683018055
2140000000.0 -0.07355435101115308 0.39757113585743
2160000000.0 0.10003099546255072 0.36823167065535484
2180000000.0 -0.10176901826589173 0.34330355147313596
2200000000.0 -0.31779679332596034 0.13087770599506496
2220000000.0 -0.1284737064439318 -0.3083408670012102
2240000000.0 0.018444260226803705 -0.34093732917694997
2260000000.0 -0.15877181352463882 -0.3135159992453643
2280000000.0 -0.3570727887896553 0.0798408456961623
2300000000.0 0.37980547598863945 0.06048712296662651
2320000000.0 -0.3392536743511992 -0.2303669265902941
2340000000.0 0.2948301861371173 0.32477771593851973
2360000000.0 -0.2142332102982066 -0.42430863941757574
2380000000.0 0.18814373442435894 0.4804554661050932
2400000000.0 -0.23103035802110758 -0.5137101841822098
2420000000.0 0.4715529275350969 0.3880088586530876
2440000000.0 -0.6483162641172485 -0.09568146929328684
2460000000.0 0.6334707989178292 -0.27843521550908534
2480000000.0 -0.5038304329364444 0.5132055995562865
2500000000.0 0.612732035407567 -0.4113814430689071
2520000000.0 -0.7075188587557963 0.23808567216892193
2540000000.0 0.7392877118500446 0.10343726620290726
2560000000.0 -0.4202070122223243 -0.6085267983051791
2580000000.0 -0.23876271395798795 0.6828423390987982
2600000000.0 0.6900756097453097 -0.10218123856309128
2620000000.0 -0.4045814616399914 -0.527287649164656
2640000000.0 -0.49046240182442635 -0.3895691613900964
2660000000.0 -0.2689453344273761 0.5157902737812046
2680000000.0 0.4781514038688212 0.24445191856678553
2700000000.0 0.17022318432749617 -0.46579017434187414
2720000000.0 -0.43800611920686505 0.12081123307986845
2740000000.0 0.3742366012973532 0.18452024472539086
2760000000.0 -0.34507996932513907 -0.16847173030542056
2780000000.0 0.30778500599223024 -0.17769481156128258
2800000000.0 0.17206716313356535 0.28131978348091957
2820000000.0 -0.17015491910086444 0.25689541829741536
2840000000.0 -0.21752819896787812 -0.1902409536624841
2860000000.0 0.27644891551553336 0.03419742155442267
2880000000.0 -0.27158858989411067 0.00859446883561537
2900000000.0 0.1774125890433012 0.2027011355649774
2920000000.0 0.2737398650722276 0.017753636788483036
2940000000.0 0.17509797619392362 -0.22276919589141564
2960000000.0 0.201356153887681 -0.21031509398029863
2980000000.0 0.17907153999130582 -0.24549749931579018
3000000000.0 0.20355000629569084 -0.2398883037474031
3020000000.0 0.2777512884657499 -0.15874095599549515
3040000000.0 0.31979790814564923 -0.0018523395508047201
3060000000.0 0.09376721590226621 0.3017094673846364
3080000000.0 -0.30447807502377766 0.044504815802902095
3100000000.0 0.18093004286364883 -0.2352279770041047
3120000000.0 0.061933734039350805 0.27667142332453615
3140000000.0 -0.0822385256516253 -0.2562262900505741
3160000000.0 -0.24158539657164108 -0.06254904257494867
3180000000.0 0.14610486824262858 0.17949463387491965
3200000000.0 0.029462337522152778 -0.20813102924420782
3220000000.0 -0.13579609183218236 0.1298299383436758
3240000000.0 0.15976172234507124 0.050063710791224854
3260000000.0 -0.1025238195431196 -0.10491721637248404
3280000000.0 -0.004134245374477877 -0.1245127544157701
3300000000.0 -0.07313152426021961 -0.06604188087956363
3320000000.0 -0.009577064368656787 -0.06888062575260956
3340000000.0 0.00566898126423384 0.04060120872746786
3360000000.0 0.021884318149515494 -0.004978215148819458
3380000000.0 0.01842037570380749 0.022548172303484847
3400000000.0 0.04239358815619905 0.003597041191694905
3420000000.0 -0.05315707514273762 0.0008887722640115167
3440000000.0 0.018449810152057215 -0.05011130127086069
3460000000.0 0.04622432416659112 -0.007085291714071111
3480000000.0 -0.01721101008247668 0.041301412266510636
3500000000.0 0.015168631640536771 -0.05503366428054189
3520000000.0 -0.08094778015071322 -0.016022634979180026
3540000000.0 -0.10181236142599079 -0.03758305216891604
3560000000.0 -0.12479827577011002 0.03777271569548558
3580000000.0 -0.09154576020095291 0.11833394564052739
3600000000.0 0.15852283516256127 0.05494680784672545
3620000000.0 -0.023561139059714666 -0.17314363798821134
3640000000.0 -0.018525891823783582 -0.17915679698626102
3660000000.0 0.020876548691628274 -0.18054689814984512
3680000000.0 0.15927314139019713 0.08094735634270576
3700000000.0 -0.1727102406691208 -0.026099440498028467
3720000000.0 0.11262507680442108 0.13197293842297378
3740000000.0 -0.12117874714696074 -0.12457888528055049
3760000000.0 -0.08821796581051347 0.15243276962535487
3780000000.0 0.008819667775797355 -0.17531544168679222
3800000000.0 0.09744852947622709 0.14457325843608193
3820000000.0 -0.16795136554241502 0.0213777144464403
3840000000.0 0.1455418045810457 0.058319626527202885
3860000000.0 0.14519366533050776 0.005891820023605644
3880000000.0 -0.08440547518088037 0.11194559085941669
3900000000.0 0.027963875271376393 -0.13472504078877715
3920000000.0 0.07616444280199623 0.12447131666724548
3940000000.0 0.1476949535505451 -0.06099931513178825
3960000000.0 0.1391841931257067 0.10838701636443411
3980000000.0 -0.08751878141580215 -0.16474215194920322
4000000000.0 0.12728867262887916 0.13397931613278433
