! Created with skrf (http://scikit-rf.org).
# Hz S RI R 50.0 
!freq ReS11 ImS11
400000000.0 -0.5273693485680159 0.6746670939489009
420000000.0 0.0018477290731304574 0.8628535142187291
440000000.0 0.8374862305974261 -0.007161770360619859
460000000.0 0.051481061799655684 -0.7991641081384334
480000000.0 0.16750809869603364 -0.7095861906834461
500000000.0 -0.2961652932333143 0.4875952534765951
520000000.0 -0.4108782242650117 0.2418019028229459
540000000.0 0.3020731066772142 -0.2866929999443256
560000000.0 -0.3448137402465104 0.05153825981194982
580000000.0 0.3287334213279257 0.002907681632098267
600000000.0 -0.3165428742523651 -0.06187296474770594
620000000.0 0.16174829098797971 0.29017490434343207
640000000.0 -0.3075579306383749 0.1788115717165281
660000000.0 -0.36390023988483194 0.10259210585034247
680000000.0 0.1590808719196514 -0.3756895213309419
700000000.0 -0.42542432218620185 -0.0658006555022645
720000000.0 -0.19101700734929966 0.39777377608360925
740000000.0 -0.4066087085325298 0.17782440764581625
760000000.0 0.39358859707580784 -0.16774135354668146
780000000.0 0.30421416926430633 0.2589429164611492
800000000.0 -0.2847034404816943 0.2318495819202688
820000000.0 0.05528782216720256 0.30700611021467805
840000000.0 -0.2520248683711387 -0.0003881608594629188
860000000.0 0.003946472427483629 -0.20307793912166813
880000000.0 -0.14907355850668375 0.046508232883840116
900000000.0 0.005454517776180913 -0.08158595120164358
920000000.0 -0.00501157446692841 0.048357354503322694
940000000.0 0.0390159978894324 0.0198063980103848
960000000.0 -0.0048808831628707194 -0.052153416239712924
980000000.0 0.012222580623641613 0.06270562149916466
1000000000.0 -0.03189183826962689 -0.0579637215855589
1020000000.0 0.049459460530912595 0.06194193230804993
1040000000.0 -0.05264959102419177 0.06620306088673909
1060000000.0 -0.11623489590604054 0.047745814679718654
1080000000.0 0.11861959946665941 -0.07993913337053998
1100000000.0 0.12389550717568319 -0.11549561294571427
1120000000.0 0.03259867257834531 -0.18931264527091446
1140000000.0 -0.059092741274628414 -0.22419369729386684
1160000000.0 -0.12595904002403224 -0.24524091819213262
1180000000.0 -0.19885215706426151 -0.247237217560998
1200000000.0 -0.13307852295576475 -0.3281717831765286
1220000000.0 0.3873251430139908 -0.02605077333343997
1240000000.0 -0.11080178953772954 0.4014203801123443
1260000000.0 -0.1509653280988834 -0.4136248112595071
1280000000.0 0.2425970634375634 0.3822006027437979
1300000000.0 -0.08888704725637438 -0.4469853005586073
1320000000.0 -0.37034632124537037 0.24707475568038487
1340000000.0 -0.3959425772588733 0.17646238319834592
1360000000.0 -0.3445123725830834 -0.2479887157045901
1380000000.0 -0.3944017706390938 -0.15438630301140874
1400000000.0 -0.14495415549575688 0.37998720306605355
1420000000.0 -0.0038161411546593733 0.38523542772269054
1440000000.0 0.1358552903451456 0.33298294734141354
1460000000.0 0.032148807664662674 0.3315882803243705
1480000000.0 0.005315538136186855 0.31159795418787883
1500000000.0 0.17141999105382535 0.23643212821268988
1520000000.0 -0.18616381773824556 -0.1996488316833224
1540000000.0 0.15186825873324059 0.20000181916366552
1560000000.0 0.18965015845451816 0.11617949266697387
1580000000.0 0.165027254717546 -0.10218198821341838
1600000000.0 0.09447274727027442 0.12751054506019635
1620000000.0 -0.12051340453129136 0.003206536733721305
1640000000.0 0.04886373476294944 0.07934929745193617
1660000000.0 -0.004820206757383082 0.06802418710143088
1680000000.0 -0.022299411049891946 -0.035793803116896776
1700000000.0 0.01888612463545874 0.013082110300542352
1720000000.0 -0.016518615025980475 -0.017803013403444635
1740000000.0 0.043475228187270815 0.003657635053706326
1760000000.0 0.06047937253021828 -0.029678531626414907
1780000000.0 0.026105707548343536 0.0922936762247975
1800000000.0 0.030412473664456242 -0.12447141208351332
1820000000.0 0.13220310849084876 -0.08058854593991073
1840000000.0 0.05900012754553737 0.1736474698490227
1860000000.0 0.0012642280675418144 -0.2063204989310894
1880000000.0 -0.1915367002863828 -0.12792380482215338
1900000000.0 -0.2558158533131696 -0.03489682841200835
1920000000.0 -0.2805678380475319 -0.06568076358424715
1940000000.0 -0.25389621979897364 -0.19375351182171902
1960000000.0 -0.3053912359690011 -0.18123596988826546
1980000000.0 -0.2224514792980054 0.31601847122762877
2000000000.0 0.2010756285679448 0.3644147185052292
2020000000.0 0.26513955323920985 -0.3514616368311566
2040000000.0 -0.4564025575596011 -0.019498524263471467
2060000000.0 0.3760224629618087 0.2686975439085774
2080000000.0 -0.16475607805537976 -0.4282836522117766
2100000000.0 -0.37033782864771286 0.25253775445063564
2120000000.0 0.2717475705483286 0.33058413131181913
2140000000.0 -0.07753133877337427 0.3975991957718506
2160000000.0 0.11624385351529143 0.3640275052795737
2180000000.0 -0.11062482536648839 0.3407081704132188
2200000000.0 -0.3068144175962782 0.15398459211569734
2220000000.0 -0.14070845659378498 -0.3018480280385301
2240000000.0 -0.0025447180755003 -0.3399729075209247
2260000000.0 -0.17025123579561466 -0.305844383087174
2280000000.0 -0.350980794918866 0.09944689298024478
2300000000.0 0.38198971976612106 0.03796020410253837
2320000000.0 -0.35463161250444647 -0.20592141362326194
2340000000.0 0.3223711961467134 0.2979258150079087
2360000000.0 -0.24568016936419898 -0.4074241030493408
2380000000.0 0.24237729146816137 0.45620175793221945
2400000000.0 -0.27859706751941254 -0.48998163097661673
2420000000.0 0.49552165071180687 0.35775013285015467
2440000000.0 -0.6522034212557126 -0.06601043590406844
2460000000.0 0.6315375356120835 -0.2835088064900242
2480000000.0 -0.488845300187666 0.5272133289755824
2500000000.0 0.6297394954690767 -0.3843303437751768
2520000000.0 -0.7185367943502616 0.2001918850152477
2540000000.0 0.7341544822106135 0.13022786741322817
2560000000.0 -0.3863188926163032 -0.6295397083275351
2580000000.0 -0.2806124526515731 0.6653973307819836
2600000000.0 0.689965500876585 -0.0924108838872578
2620000000.0 -0.3607314053390368 -0.5565037016046867
2640000000.0 -0.47393595661299354 -0.4075725343511778
2660000000.0 -0.3165287973628317 0.48640856242135
2680000000.0 0.4480691690271366 0.29344070528017846
2700000000.0 0.17670943695768068 -0.46230369418333306
2720000000.0 -0.4411960762621352 0.10450311548266954
2740000000.0 0.35917566104362936 0.21072773151849572
2760000000.0 -0.34312969135938126 -0.17161646058679728
2780000000.0 0.3076723737268905 -0.17804251204015267
2800000000.0 0.1840290999678321 0.27379303022799634
2820000000.0 -0.17462642779795726 0.25444465941835354
2840000000.0 -0.21678624161972793 -0.1923166713858558
2860000000.0 0.27829991552562483 0.02307689176312253
2880000000.0 -0.2709108876113783 0.02725639107694509
2900000000.0 0.17773871995450544 0.20315578602367132
2920000000.0 0.2718959758355934 0.04287167796485499
2940000000.0 0.17636604727989452 -0.2225054566034092
2960000000.0 0.21337765488545488 -0.19814944812941818
2980000000.0 0.22963671401969987 -0.1987727588335794
3000000000.0 0.26085412491415605 -0.17588523242716783
3020000000.0 0.3103398312877734 -0.07766077984322359
3040000000.0 0.30778362758537975 0.08549291913818206
3060000000.0 -0.0003825814637502208 0.31534205388967584
3080000000.0 -0.30420495292045585 -0.045623049526969314
3100000000.0 0.22266875080554713 -0.19634626224573698
3120000000.0 0.03151136483935662 0.2813188298580555
3140000000.0 -0.03841980195236391 -0.26559967469966966
3160000000.0 -0.24022468895034296 -0.06657246782840585
3180000000.0 0.1568471569945049 0.16920950086415237
3200000000.0 0.00541600076337457 -0.20866906653575162
3220000000.0 -0.12221235564702869 0.1407128406810447
3240000000.0 0.16180068465242176 0.03675427644891665
3260000000.0 -0.1012985531669552 -0.10434304456917681
3280000000.0 -0.0027943712540925178 -0.12338007576453958
3300000000.0 -0.07733436462762143 -0.06026854687022133
3320000000.0 -0.02960706462737293 -0.06320080019173162
3340000000.0 0.0036668324830255875 0.04151135131568181
3360000000.0 -0.01096665606593082 0.02114256857921407
3380000000.0 -0.02172479232945401 -0.019662894119735434
3400000000.0 -0.02655214888237005 0.0326799699195662
3420000000.0 0.02086999854706897 -0.04851459995576971
3440000000.0 0.04826212204024947 0.022311021308166076
3460000000.0 0.030785966857880535 0.03527053604282259
3480000000.0 -0.04019712777427839 0.018768031512502715
3500000000.0 0.034449191928263956 -0.04482262516484202
3520000000.0 -0.05518909231489788 -0.06003537081430758
3540000000.0 -0.0521753202987217 -0.0936124467676492
3560000000.0 -0.12842157701374382 -0.016873682088240582
3580000000.0 -0.1280685347807739 0.07531861904720863
3600000000.0 0.13492442330226734 0.0984918026623409
3620000000.0 0.03506275225680823 -0.17050506507522786
3640000000.0 0.021656736334331336 -0.17842206079626322
3660000000.0 0.02902117756656628 -0.1788062632795625
3680000000.0 0.16980310041536 0.05422431543812894
3700000000.0 -0.17278628412674235 0.02170344605836669
3720000000.0 0.15621979594505225 0.07359060108404732
3740000000.0 -0.15578238300638697 -0.07332459917242587
3760000000.0 -0.05585672798743315 0.16536472524446116
3780000000.0 -0.0023072713575621956 -0.17422953535128208
3800000000.0 0.10119873073644964 0.14049453788402236
3820000000.0 -0.1680148347169285 0.015287209762087486
3840000000.0 0.13945318090846298 0.07162611306396022
3860000000.0 0.14536783545277768 -0.011979362123760696
3880000000.0 -0.015028860034162657 0.13954396447410247
3900000000.0 -0.0766981590220417 -0.11368432416770458
3920000000.0 0.13881215972518127 0.041822715816693154
3940000000.0 0.1166080000951003 -0.10714520672887487
3960000000.0 0.14284753458715121 0.10093318532980708
3980000000.0 -0.0653085565419712 -0.17391863321247628
4000000000.0 0.07080636513390215 0.17031908122699513
