! Created with skrf (http://scikit-rf.org).
# Hz S RI R 50.0 
!freq ReS11 ImS11
400000000.0 -0.5207560830352659 0.6819979872797467
420000000.0 -0.008987994209451003 0.8663069153242293
440000000.0 0.8369412754360378 -0.050335074179909164
460000000.0 0.06183426096037038 -0.7994341859019397
480000000.0 0.32015877730487674 -0.6559793652173431
500000000.0 -0.23728090020831316 0.5215439829819016
520000000.0 -0.39969403607172005 0.2550398769298577
540000000.0 0.38147887889980725 -0.1631194327701295
560000000.0 -0.34334362761352255 -0.0753582607528312
580000000.0 0.3096232104261269 -0.10902921165809355
600000000.0 -0.2460040794720466 -0.2038455248628168
620000000.0 0.11482026817251498 0.3116513504073547
640000000.0 -0.23065563971657557 0.27140123888912926
660000000.0 -0.32762690739013983 0.18578014304069185
680000000.0 0.046073475301284826 -0.4043763606644846
700000000.0 -0.4288921507419132 -0.03126357130574412
720000000.0 -0.061947405212054434 0.4372349540952268
740000000.0 -0.3874714089709655 0.21880508647532573
760000000.0 0.3781679002678487 -0.2020779155618158
780000000.0 0.30863106371683285 0.25482206470741037
800000000.0 -0.2867602782731787 0.23124419982635586
820000000.0 0.052889926861918964 0.3075890168492378
840000000.0 -0.24233497909197044 -0.06934851334180353
860000000.0 0.06569578128175953 -0.19127053510985068
880000000.0 -0.15379450532257596 -0.001035294381536339
900000000.0 0.006758160507680446 -0.07871898303128458
920000000.0 0.04451852598883455 -0.01196721499939003
940000000.0 0.017981307655525188 -0.0402688091271519
960000000.0 -0.05129846104746221 0.01552638309203471
980000000.0 -0.005124336022658603 0.06460356367348107
1000000000.0 0.06238220170149027 -0.023363264464846302
1020000000.0 -0.07284465325374292 0.03173447650016946
1040000000.0 -0.04141368760561279 -0.0741788816250568
1060000000.0 -0.10435970657288211 -0.07047065389200832
1080000000.0 0.13324412272184577 0.05035780347964583
1100000000.0 0.16702027538161102 -0.018687128261414603
1120000000.0 0.07970694920884823 -0.17268022295789504
1140000000.0 -0.053354364573088744 -0.22348711995282555
1160000000.0 -0.18856632880312948 -0.19858480161440187
1180000000.0 -0.26158460904455105 -0.17616150737715186
1200000000.0 -0.22156750896818395 -0.2746541887187761
1220000000.0 0.3611067318680846 -0.13855622880630694
1240000000.0 0.01831502089680589 0.41530354361665034
1260000000.0 -0.24841031132182512 -0.363042556613155
1280000000.0 0.3084916143090424 0.3311839218123331
1300000000.0 -0.1774971537537915 -0.4199132335836932
1320000000.0 -0.33951129717527256 0.2888207521426102
1340000000.0 -0.4005915583492663 0.16686953217512082
1360000000.0 -0.33002021660566017 -0.26745364947092315
1380000000.0 -0.3846077602410331 -0.1784832232779787
1400000000.0 -0.19584557807461225 0.3570489351160899
1420000000.0 -0.06054735330408891 0.38059594943617026
1440000000.0 0.07245312911610174 0.3526496371395632
1460000000.0 -0.014498597699585754 0.33297056250729695
1480000000.0 -0.0271976805542854 0.3104115272156078
1500000000.0 0.16643335348107627 0.23954335181279057
1520000000.0 -0.1671190625600366 -0.2146027104097435
1540000000.0 0.14830080134245754 0.2014259673219365
1560000000.0 0.18117765760697357 0.1256759814528812
1580000000.0 0.1529107667584618 -0.116941976698521
1600000000.0 0.12891107293174836 0.09146760091096401
1620000000.0 -0.11026957543916059 0.047295916658264374
1640000000.0 0.0811261950238644 0.04596815368057555
1660000000.0 0.0570163295703161 0.0391718264196913
1680000000.0 -0.04137800996233612 -0.010539710751701615
1700000000.0 -0.005215152685894408 0.022568263989922774
1720000000.0 -0.021392476017780233 -0.010245154012042637
1740000000.0 0.022274497010909552 -0.037258306506778686
1760000000.0 0.006281802745479377 -0.06663586517477159
1780000000.0 0.07984678515748878 0.05247511185111447
1800000000.0 -0.03730973017704302 -0.12287857971192234
1820000000.0 0.09097490956123462 -0.12483503326773443
1840000000.0 0.09258215829466253 0.15774447228413233
1860000000.0 -0.011172014835233099 -0.20563623345938262
1880000000.0 -0.17720180569881117 -0.14696343902358244
1900000000.0 -0.24135180957198557 -0.09099230278242156
1920000000.0 -0.26005333165858263 -0.1235294739995673
1940000000.0 -0.2135420019629824 -0.23781957422237635
1960000000.0 -0.2746795778658784 -0.225415600168828
1980000000.0 -0.24659331683985058 0.29790881867000846
2000000000.0 0.18857736885074267 0.3709873929379138
2020000000.0 0.27074600757276585 -0.34700739123405244
2040000000.0 -0.4550707940749822 -0.03812865445054463
2060000000.0 0.3979083129579427 0.23432824359136853
2080000000.0 -0.1686908423603564 -0.4261330853257058
2100000000.0 -0.35311780454853364 0.27451972116349915
2120000000.0 0.29608288078303086 0.3076090244612806
2140000000.0 -0.09362399510641407 0.39335383008591235
2160000000.0 0.0854874086160991 0.3718225612316858
2180000000.0 -0.11342690068593023 0.339582067669076
2200000000.0 -0.3209469916810829 0.12236431572565842
2220000000.0 -0.1144162940427512 -0.31344082627619463
2240000000.0 0.02911847767318621 -0.33957427673835194
2260000000.0 -0.1417017843159585 -0.32081248967736253
2280000000.0 -0.35920191281213926 0.06541411927942224
2300000000.0 0.37370457619283665 0.08582802389159655
2320000000.0 -0.33010037096556305 -0.24201158414637244
2340000000.0 0.27521869089036205 0.34062829137321315
2360000000.0 -0.18896192493166064 -0.43530309741541884
2380000000.0 0.16401533388130493 0.48864840882107957
2400000000.0 -0.19106246585023173 -0.529207880992485
2420000000.0 0.4164736597023323 0.4460117217637013
2440000000.0 -0.6360938010096558 -0.1556665193817241
2460000000.0 0.6584936481282031 -0.211332774530606
2480000000.0 -0.582983286508843 0.42150767641521114
2500000000.0 0.6166847756080108 -0.40463838255988904
2520000000.0 -0.7211228656493202 0.1931248619806629
2540000000.0 0.7239687353120035 0.18271943009764563
2560000000.0 -0.3538085434192441 -0.6499864840408526
2580000000.0 -0.38725112155372526 0.6116686218458922
2600000000.0 0.6974369408295267 -0.029784540716064522
2620000000.0 -0.3593127576228234 -0.5601934495926109
2640000000.0 -0.4470463867698147 -0.440165862053695
2660000000.0 -0.3435870513349995 0.47047475401768246
2680000000.0 0.41367903501118425 0.3438321247240263
2700000000.0 0.23874222510136892 -0.43576352361378484
2720000000.0 -0.44689843560671916 0.08817037147647379
2740000000.0 0.353914137197374 0.2227046153659302
2760000000.0 -0.3353604962133414 -0.1889509744547289
2780000000.0 0.3175263304647414 -0.16166671757435647
2800000000.0 0.15850436427823067 0.29008430069674446
2820000000.0 -0.1839824088386978 0.2483236874232374
2840000000.0 -0.2019717181612299 -0.20799821143048938
2860000000.0 0.2751889796675783 0.04825423458460432
2880000000.0 -0.2724387345118342 -0.005857120866216207
2900000000.0 0.17794279265484708 0.20320582388736066
2920000000.0 0.2722307177231252 0.04160710499378174
2940000000.0 0.16920491568950316 -0.22830188697450654
2960000000.0 0.21335869682498987 -0.1992124217241638
2980000000.0 0.21012278399119108 -0.22002147867389074
3000000000.0 0.24099175192336353 -0.20369267670727723
3020000000.0 0.27397418661679734 -0.16691072687808622
3040000000.0 0.30937770696161476 0.08319759994295531
3060000000.0 0.04402199990852169 0.3131666712688529
3080000000.0 -0.3084840370826882 -0.003998039840439724
3100000000.0 0.14354452895506573 -0.26093899898761125
3120000000.0 0.017938396686771597 0.283050361032623
3140000000.0 -0.030032498028109717 -0.2673241089468812
3160000000.0 -0.23506201289678358 -0.08459967264784019
3180000000.0 0.15159480482334703 0.1753141666931157
3200000000.0 0.03727936001415545 -0.2066561848110391
3220000000.0 -0.13674070374456382 0.12940924738918766
3240000000.0 0.16249204119108382 0.03943757079965904
3260000000.0 -0.111496603561854 -0.09532464070361875
3280000000.0 0.006555230727690814 -0.12422968702370084
3300000000.0 -0.08457067558279455 -0.050728874345240337
3320000000.0 -0.033464621131133104 -0.06163495468269269
3340000000.0 0.007841536488136385 0.040213183246547955
3360000000.0 0.021461856099334573 -0.006536847881036393
3380000000.0 -0.02317062311153948 0.017990866432362564
3400000000.0 0.03408806651191611 0.025502765053683412
3420000000.0 -0.04850974674496248 -0.022661472019049746
3440000000.0 0.04737202252456543 -0.024635358792046657
3460000000.0 0.0464537718754692 -0.008902657927813014
3480000000.0 -0.040673539171220616 0.018270882766268932
3500000000.0 0.013281995991266754 -0.055771905485351665
3520000000.0 -0.08105060280830494 0.017530804185378304
3540000000.0 -0.09124487110777522 -0.05878383015380585
3560000000.0 -0.12900888511074665 0.021575197524851923
3580000000.0 -0.09110515716622308 0.1192360884431595
3600000000.0 0.15050025344503234 0.07439771494866974
3620000000.0 0.002368155914499261 -0.174692256364765
3640000000.0 -0.00642261851784517 -0.18047343175247157
3660000000.0 0.03166926117532717 -0.17891859581760727
3680000000.0 0.15763183470423325 0.08403567430479719
3700000000.0 -0.1723855228785484 -0.03004937383717239
3720000000.0 0.1219063860774965 0.12345642165251247
3740000000.0 -0.12170501391548204 -0.1236226194735371
3760000000.0 -0.09818971624928885 0.14604742365068357
3780000000.0 0.01107710312558732 -0.17526646736710494
3800000000.0 0.10771714934824889 0.13693823503091154
3820000000.0 -0.16735122576957 0.023704116893241863
3840000000.0 0.14343333463209287 0.06301459346967132
3860000000.0 0.14421973183634598 0.019138287196352934
3880000000.0 -0.08073237758002043 0.11410689189199488
3900000000.0 0.02404820525277452 -0.13501771465928536
3920000000.0 0.07269400930612502 0.12583895209294105
3940000000.0 0.14943931169248947 -0.05490373660956072
3960000000.0 0.1295894847359325 0.1182907350887146
3980000000.0 -0.08045447311674724 -0.16741683657015524
4000000000.0 0.12744248381860385 0.13304905035421405
