! Created with skrf (http://scikit-rf.org).
# Hz S RI R 50.0 
!freq ReS11 ImS11
400000000.0 -0.5374043916080191 0.6690017529929909
420000000.0 -0.006723523696405171 0.8658520323552682
440000000.0 0.8373943626259645 -0.03621574318370735
460000000.0 0.048580927180348 -0.7996866601562447
480000000.0 0.3020204711116462 -0.6645508351482354
500000000.0 -0.2203926184955347 0.5285890647915569
520000000.0 -0.39269801061854964 0.2653684773925583
540000000.0 0.3933870259095715 -0.13146338598928975
560000000.0 -0.334511449604777 -0.10542484589587259
580000000.0 0.29478672664156697 -0.1450146102195029
600000000.0 -0.24873692774462233 -0.20144881894253955
620000000.0 0.030020472062314937 0.3307470289442873
640000000.0 -0.2759788427745781 0.22518033923291966
660000000.0 -0.3488494600975841 0.14316287356584814
680000000.0 0.025093022776962154 -0.4065101893257538
700000000.0 -0.4297782042631349 -0.00994183183465746
720000000.0 -0.08500796939496133 0.4338231549906377
740000000.0 -0.382079048762134 0.22818051495519825
760000000.0 0.36998810223202566 -0.21671284638411664
780000000.0 0.32267337745857927 0.2372068103910196
800000000.0 -0.2628195057013924 0.2580736008594138
820000000.0 0.07116946939428467 0.3037499129163491
840000000.0 -0.23754354656053409 -0.08367680527334846
860000000.0 0.06753676624636705 -0.19024213538279122
880000000.0 -0.15234793248663228 -0.018970644954455492
900000000.0 0.006630941138454826 -0.07813038278785553
920000000.0 0.0451831732511675 0.00528693789777242
940000000.0 -0.008600743480042921 -0.0427799104076596
960000000.0 -0.03809874628429473 0.036319627168662244
980000000.0 0.00461806826926796 0.06398405481125459
1000000000.0 0.06343091962548468 -0.018831350207445696
1020000000.0 -0.07430281933913788 0.027253689108040526
1040000000.0 0.01277700719915858 -0.0843511157743094
1060000000.0 -0.06205550776904723 -0.10975186666369041
1080000000.0 0.12308114660976295 0.07196582573918069
1100000000.0 0.16828225720243567 -0.004284636930683371
1120000000.0 0.10744632471987867 -0.1574553487494602
1140000000.0 -0.0394407889294428 -0.2267253093352139
1160000000.0 -0.21173910851002817 -0.17448699824084996
1180000000.0 -0.2778348901562773 -0.1498976767604794
1200000000.0 -0.25361051410908375 -0.2453180962694404
1220000000.0 0.34784594960476406 -0.1691903322365146
1240000000.0 0.03408295968810913 0.4143549821295958
1260000000.0 -0.2367510624770026 -0.37047632198855374
1280000000.0 0.31344948043912363 0.3263367778842049
1300000000.0 -0.17072178376820246 -0.42271993259135704
1320000000.0 -0.35423049231566284 0.2703796402141652
1340000000.0 -0.40122078764814484 0.16559164860772563
1360000000.0 -0.3266235318496319 -0.27138471630108063
1380000000.0 -0.3775401685686057 -0.1925673738201891
1400000000.0 -0.2188118319766546 0.3433482005307217
1420000000.0 -0.09704495358989144 0.37338996020926357
1440000000.0 0.06652681362714846 0.3541476489561482
1460000000.0 -0.02099553280628039 0.3329185740921551
1480000000.0 -0.0006589994933737912 0.31187200161969797
1500000000.0 0.16306954153869152 0.24204358161140313
1520000000.0 -0.16536459038145565 -0.21610017045120855
1540000000.0 0.16744105273133433 0.18579096502349263
1560000000.0 0.19545577021676094 0.10274379058123473
1580000000.0 0.15506842753602718 -0.11419251950333822
1600000000.0 0.14563535215978363 0.06052620293691064
1620000000.0 -0.10425186110028678 0.05938988510882986
1640000000.0 0.08847944047798884 0.02945194777186323
1660000000.0 0.06198517935869242 0.030182921027958175
1680000000.0 -0.0424067131287064 0.0003474642854512465
1700000000.0 -0.004163173877695471 0.023353270705776516
1720000000.0 -0.023182686220696445 0.004694311556015447
1740000000.0 0.015892109489347304 -0.040280661504819494
1760000000.0 -0.011556767993820893 -0.06561411832160573
1780000000.0 0.0940964529871909 0.015822451910403035
1800000000.0 -0.06391221106695189 -0.11071695016517658
1820000000.0 0.06996613926039462 -0.13726653200240696
1840000000.0 0.09411378581873724 0.15626220810845476
1860000000.0 -0.004542349020896293 -0.20524555179697926
1880000000.0 -0.15994149283953285 -0.16493149215659955
1900000000.0 -0.2298229796061591 -0.11658409546286065
1920000000.0 -0.24399991057723722 -0.15308983094843476
1940000000.0 -0.1920327377057518 -0.2557993552980861
1960000000.0 -0.26178771054739086 -0.24099349965524247
1980000000.0 -0.2709652070820759 0.27668238970790593
2000000000.0 0.1795719468087433 0.3758623058751659
2020000000.0 0.2794427674616403 -0.34058237594284996
2040000000.0 -0.45668660072235445 -0.0039879963475228175
2060000000.0 0.4076182528282312 0.21686516110167675
2080000000.0 -0.17768317870261865 -0.4221670866767681
2100000000.0 -0.34712326765393053 0.28125062886629026
2120000000.0 0.2804829441628121 0.32082170012887007
2140000000.0 -0.07284616830688487 0.3968014590492336
2160000000.0 0.07947102190403182 0.37261095773016495
2180000000.0 -0.13876670456891452 0.3296419023549225
2200000000.0 -0.33001161010088687 0.09472575534970509
2220000000.0 -0.11000803757944022 -0.31543060918043414
2240000000.0 0.0315815483212764 -0.33959990573023147
2260000000.0 -0.16079972365058404 -0.3123765416408418
2280000000.0 -0.35682479988058147 0.07901132928408744
2300000000.0 0.3782619669366889 0.06516730002004097
2320000000.0 -0.3361262096041022 -0.23358611509599464
2340000000.0 0.26756397173338226 0.3463941554013518
2360000000.0 -0.16468632634120087 -0.4448798564355633
2380000000.0 0.12901968921352416 0.498625469705232
2400000000.0 -0.1565106407578896 -0.5403855123625327
2420000000.0 0.4023354201360143 0.458510689815964
2440000000.0 -0.6131214919753187 -0.23073956427488063
2460000000.0 0.6703004579665972 -0.17107564997843355
2480000000.0 -0.5991735002162883 0.3983836481840723
2500000000.0 0.6693171212527088 -0.311565886793886
2520000000.0 -0.7355772829519319 0.12854824283852354
2540000000.0 0.7229372684786667 0.1885362901100856
2560000000.0 -0.3219934722923298 -0.6667415194022316
2580000000.0 -0.36091787499828887 0.628190748479581
2600000000.0 0.6987465334723103 0.0035442344076558638
2620000000.0 -0.3622009897540464 -0.5590922536468956
2640000000.0 -0.42915308884096787 -0.45845741177430854
2660000000.0 -0.33537470475954073 0.4772275618439853
2680000000.0 0.4347883736591724 0.31814072095412876
2700000000.0 0.1991343913044944 -0.45629088212927676
2720000000.0 -0.4453869161956532 0.0987331935211859
2740000000.0 0.3508800665177208 0.22829302171584592
2760000000.0 -0.343954009288406 -0.17406178708665906
2780000000.0 0.30307577330073127 -0.18801071737296404
2800000000.0 0.16661610625476583 0.2857949642581372
2820000000.0 -0.193090306801531 0.24150744712562436
2840000000.0 -0.20630774291715423 -0.20380377715173542
2860000000.0 0.2761424401569968 0.04100342881103715
2880000000.0 -0.27091295342380234 -0.02893233778252949
2900000000.0 0.16236208651084608 0.2159249289822192
2920000000.0 0.27153580628062907 0.046394351227536657
2940000000.0 0.18172472046703386 -0.21852786900087345
2960000000.0 0.21376423007572767 -0.1989549449159423
2980000000.0 0.20051962664588133 -0.22962620514803037
3000000000.0 0.21136408902196877 -0.23275173877667674
3020000000.0 0.25128842233375853 -0.1984608868201793
3040000000.0 0.3187514127896897 0.026334467328731563
3060000000.0 0.13248630313980833 0.2868528096043991
3080000000.0 -0.30608308005538254 0.03711366460147862
3100000000.0 0.1345210821634498 -0.2650204581980058
3120000000.0 0.06725864065097213 0.2755117235110184
3140000000.0 -0.06247053248829223 -0.26193931102390366
3160000000.0 -0.24589754343679826 -0.047181189417833475
3180000000.0 0.14317286322975986 0.18214875320556642
3200000000.0 0.039867977959359965 -0.20691585247478397
3220000000.0 -0.12890785750032396 0.13833730657972243
3240000000.0 0.16438190990312226 0.03680150690767121
3260000000.0 -0.12422062562252556 -0.07989078795632307
3280000000.0 -0.0299138224227709 -0.1212668777569614
3300000000.0 -0.08295471250739703 -0.05409852246086814
3320000000.0 -0.03864211318673008 -0.05862655664087677
3340000000.0 0.008459170343151625 0.040067912657214766
3360000000.0 0.017993627060083568 -0.013419576758219157
3380000000.0 0.028850052489418087 -8.891649173999805e-05
3400000000.0 0.04018029371580409 -0.012546844399499732
3420000000.0 -0.04708091928451043 0.02457399125926577
3440000000.0 0.003010757891479348 -0.052674810082048634
3460000000.0 0.03803563099129297 -0.026374830268808592
3480000000.0 -0.01962307216381333 0.03950727560267043
3500000000.0 0.040938465940214795 -0.03941218960934286
3520000000.0 -0.08163843075887081 -0.012978864935399684
3540000000.0 -0.0960405997451561 -0.05046373239459996
3560000000.0 -0.09495178388671768 0.09046938785858974
3580000000.0 -0.04771973195000723 0.142072246513027
3600000000.0 0.16653237007680635 0.017519933668842327
3620000000.0 -0.06017654723731804 -0.1638722004836601
3640000000.0 -0.02817208717110073 -0.17722296095663614
3660000000.0 -0.0007718374434038564 -0.18135990212302114
3680000000.0 0.16133549664196992 0.07645445611053235
3700000000.0 -0.17377411151745475 -0.020971524731070102
3720000000.0 0.12807101233979581 0.11764837271561691
3740000000.0 -0.13158058767749684 -0.11396927679284362
3760000000.0 -0.07774231371424586 0.15908928952207374
3780000000.0 -0.027448236075215217 -0.17428084360897272
3800000000.0 0.13348355011416665 0.11315586933861785
3820000000.0 -0.1476501066124422 0.08258333282518157
3840000000.0 0.15544492033534954 0.017484229436675106
3860000000.0 0.14512160559009624 0.0029511119670634265
3880000000.0 -0.08744575602299808 0.10898759064570179
3900000000.0 0.04995027434950219 -0.12790860849986516
3920000000.0 0.060518986577357076 0.1330361771382331
3940000000.0 0.14917227045787712 -0.05872875573516387
3960000000.0 0.144498494714005 0.10205270559914811
3980000000.0 -0.13304176891955047 -0.1313565794441957
4000000000.0 0.1685296592011203 0.07711392876917814
