! Created with skrf (http://scikit-rf.org).
# Hz S RI R 50.0 
!freq ReS11 ImS11
400000000.0 -0.5348775842297349 0.6684801631156971
420000000.0 -0.007877738817705923 0.8662326149066453
440000000.0 0.8382584029103649 -0.028480275513580334
460000000.0 0.049503067289621214 -0.7988877630561976
480000000.0 0.3179782202155512 -0.6569967505020297
500000000.0 -0.22594174145745166 0.5266967910725885
520000000.0 -0.38214058373207294 0.2808833425242334
540000000.0 0.3653078247135331 -0.19609671743564427
560000000.0 -0.3476927369018756 -0.04667681526566746
580000000.0 0.3063605172041399 -0.11789884710073421
600000000.0 -0.2906045506566905 -0.13547335359654042
620000000.0 0.1015263540453937 0.31536171956348696
640000000.0 -0.2724442831006472 0.2276268520313654
660000000.0 -0.3422343916311233 0.15903365177203013
680000000.0 0.026402446153164557 -0.40645289530815987
700000000.0 -0.4286318416031856 -0.02960540061051745
720000000.0 -0.10763470769681098 0.4281735445791737
740000000.0 -0.37667807853474883 0.23582088433953063
760000000.0 0.36226645761609255 -0.22885402992029302
780000000.0 0.29283279376767135 0.27336440231729414
800000000.0 -0.30808445359212616 0.20230688985264597
820000000.0 0.019921520393203496 0.31198514174227393
840000000.0 -0.2302921480440198 -0.10246382294417036
860000000.0 0.0890303346756547 -0.18208406548857858
880000000.0 -0.15411324370732718 -0.007113102839173839
900000000.0 0.02022092876549243 -0.07707251365546157
920000000.0 0.04610939078229523 0.003348461672502937
940000000.0 0.03207058087903665 -0.030699377582172022
960000000.0 -0.05277601702281924 -0.008962759850999355
980000000.0 -0.007852397791837868 0.0645892752528816
1000000000.0 0.05246857484890488 -0.042011811124581695
1020000000.0 -0.051608336999867596 0.061137812278634567
1040000000.0 -0.04797857145851038 -0.07049166433774669
1060000000.0 -0.10251031304310233 -0.07256522632810312
1080000000.0 0.12943415582096704 0.05880030592587714
1100000000.0 0.1595907814330887 -0.0514852084279477
1120000000.0 0.08835719053280273 -0.16816427794277478
1140000000.0 -0.06444331793272505 -0.2203136696589963
1160000000.0 -0.17943712637099873 -0.20662058955654133
1180000000.0 -0.2640063239737191 -0.1725681976504289
1200000000.0 -0.2291115831242435 -0.2680750737418297
1220000000.0 0.36116202360982913 -0.1393631088590945
1240000000.0 0.016968064136901165 0.4157814330777518
1260000000.0 -0.2506027142117222 -0.3617044779070401
1280000000.0 0.3050056213583624 0.3347815340049957
1300000000.0 -0.12822528024665478 -0.4376831454650672
1320000000.0 -0.35683766531453087 0.26730301483194013
1340000000.0 -0.39300150029796377 0.18400131123032692
1360000000.0 -0.3321375703631333 -0.2649569091405715
1380000000.0 -0.3853861465058951 -0.17685297927704896
1400000000.0 -0.18228824064447366 0.3637507284734363
1420000000.0 -0.03638785968506924 0.3832188291128726
1440000000.0 0.06777766898757345 0.3528405362215065
1460000000.0 -0.02082928347009928 0.33224643241839674
1480000000.0 -0.005142135302671682 0.31122014473879334
1500000000.0 0.1469805674029976 0.2518435397818052
1520000000.0 -0.1628701480166057 -0.2175005400375749
1540000000.0 0.1523589229452695 0.19852695234207152
1560000000.0 0.19928820661953664 0.0958262251826374
1580000000.0 0.13877088306998514 -0.13361582374040257
1600000000.0 0.1280019766556213 0.09287019560766241
1620000000.0 -0.10308421979252025 0.06191498954609984
1640000000.0 0.08628501808482279 0.03489839838677684
1660000000.0 0.05012495941669062 0.047349504368976184
1680000000.0 -0.030118547018348645 -0.029771028156447648
1700000000.0 -0.01213220826622408 0.02004813153573051
1720000000.0 -0.015068362691064714 -0.018018237708762774
1740000000.0 0.042405797203003054 -0.008577685274295185
1760000000.0 0.016972046915553186 -0.06511463158206285
1780000000.0 0.07028458858803223 0.0652559978430379
1800000000.0 -0.012641508996058407 -0.12759159209779178
1820000000.0 0.10986318180212525 -0.10953231425929869
1840000000.0 0.08519453533995588 0.16244138167193958
1860000000.0 -0.004794297621672074 -0.20627539088884522
1880000000.0 -0.18597947058162992 -0.13607744484295983
1900000000.0 -0.24964244281299483 -0.0655138952363687
1920000000.0 -0.2705137422130287 -0.09893116982690649
1940000000.0 -0.2299581392210089 -0.22182595009053896
1960000000.0 -0.28612148819103334 -0.21027743771849403
1980000000.0 -0.2398123330013398 0.303229497449885
2000000000.0 0.19006255282913123 0.370144543465857
2020000000.0 0.2736189401554307 -0.34473528324464986
2040000000.0 -0.45578822526488516 -0.028706967594602072
2060000000.0 0.4023759874325308 0.22684188223154284
2080000000.0 -0.1695184912092452 -0.426177551319782
2100000000.0 -0.3485951598094588 0.2807201126978354
2120000000.0 0.3068053320576102 0.2979706775959466
2140000000.0 -0.07592348156938605 0.3975184920157036
2160000000.0 0.1257767522489762 0.36032294956369165
2180000000.0 -0.0971170816351924 0.34468384484622844
2200000000.0 -0.3116197168135224 0.1440425575539342
2220000000.0 -0.1331079488298989 -0.3057236731889268
2240000000.0 0.012048861696692146 -0.34017758805212484
2260000000.0 -0.17282600228605047 -0.30553317580241524
2280000000.0 -0.3520306804541654 0.09923003213336161
2300000000.0 0.3816023244129073 0.04688192286893494
2320000000.0 -0.3478450345923901 -0.2170709295169765
2340000000.0 0.2902853777328909 0.32849090274613
2360000000.0 -0.22706302297048267 -0.41746665414639295
2380000000.0 0.2238311325729712 0.46502922775659883
2400000000.0 -0.2533013019910403 -0.5029276181851382
2420000000.0 0.4718215940628818 0.38760224656529785
2440000000.0 -0.6490270429795653 -0.09027095942803993
2460000000.0 0.6325747342784003 -0.2805219921135145
2480000000.0 -0.5177870216691843 0.4993125146060322
2500000000.0 0.5617971123176259 -0.47765226974538255
2520000000.0 -0.694452863112966 0.27268154508656445
2540000000.0 0.734502551980789 0.1313566022240213
2560000000.0 -0.43829126231439086 -0.5950453787074557
2580000000.0 -0.34840105398797444 0.6336584906180628
2600000000.0 0.6888834622928429 -0.10640740506870552
2620000000.0 -0.4245676099345334 -0.5111892276621304
2640000000.0 -0.48848816402353845 -0.39180117273090054
2660000000.0 -0.2958520036718304 0.5003992290834899
2680000000.0 0.44468533919932224 0.3004916276915819
2700000000.0 0.189795740890166 -0.4579610908262141
2720000000.0 -0.440588664447883 0.1104225571830113
2740000000.0 0.3575571816596294 0.21472996486151694
2760000000.0 -0.34418534751962193 -0.1704997339808631
2780000000.0 0.30697926501034306 -0.17938497110713947
2800000000.0 0.16764634899421826 0.2840538150547327
2820000000.0 -0.18038765134509258 0.2496462871006264
2840000000.0 -0.21106654385126183 -0.19752067957266903
2860000000.0 0.27812066872256325 0.007148155553148656
2880000000.0 -0.27162884234697815 0.005517226034527896
2900000000.0 0.19926111474611113 0.18095526392989655
2920000000.0 0.27334143903613134 0.02644354808136615
2940000000.0 0.16350763202835247 -0.2318020456520959
2960000000.0 0.1800584714066334 -0.2286825480292624
2980000000.0 0.18869353382288834 -0.2377093696006313
3000000000.0 0.22757417327773002 -0.21763741881013876
3020000000.0 0.27772753029817643 -0.15962659741376234
3040000000.0 0.3196393741080264 0.017053407298674203
3060000000.0 0.07251045325566491 0.30737988232102725
3080000000.0 -0.3082346753751372 -0.0032784834657408855
3100000000.0 0.18815231189413387 -0.23035186392489268
3120000000.0 0.05475471164832152 0.27842704919763495
3140000000.0 -0.05980428226062706 -0.2623837303273318
3160000000.0 -0.23698075497131943 -0.07899408083427627
3180000000.0 0.1467276752676515 0.179027277470585
3200000000.0 0.03473779982072133 -0.20671060639481195
3220000000.0 -0.14335253532886078 0.12048700836734413
3240000000.0 0.15241391597441248 0.06812256335406952
3260000000.0 -0.08497684165035449 -0.11939832375881013
3280000000.0 0.013063192107820419 -0.12337040490922399
3300000000.0 -0.0620613300739883 -0.07582226310566462
3320000000.0 -0.00026581484203597633 -0.06931046936546942
3340000000.0 -0.0028569460278865424 0.040749993796033536
3360000000.0 0.011297637822260287 -0.018898737735058665
3380000000.0 -0.0013542920875318964 0.02971272547067317
3400000000.0 0.03627915143780013 0.023072137758934103
3420000000.0 -0.04636360842441795 -0.026837546679614667
3440000000.0 0.05333393996464678 -0.0047066181581779925
3460000000.0 0.0475619010472048 -0.006017981860007333
3480000000.0 -0.01728617628927003 0.04177738896340356
3500000000.0 0.013352030321019257 -0.055582469936273346
3520000000.0 -0.06738071080950117 -0.04771921394232497
3540000000.0 -0.07970247287723388 -0.07312643888070684
3560000000.0 -0.13021906853721374 0.006284422667111987
3580000000.0 -0.1057672360476805 0.10568507742184213
3600000000.0 0.1520439021973319 0.07131479693853354
3620000000.0 -0.0023455068970211312 -0.1747234431859737
3640000000.0 0.0108537898266091 -0.179424974549809
3660000000.0 0.028129799924675642 -0.17948481660009444
3680000000.0 0.16166449214377995 0.07586102160413576
3700000000.0 -0.17435820664136842 -0.01213361222758988
3720000000.0 0.12713981961115697 0.11781041749477425
3740000000.0 -0.13013411013157883 -0.11422789003098367
3760000000.0 -0.0958703841525666 0.14729930408370834
3780000000.0 0.00906573179461199 -0.1748625778933669
3800000000.0 0.09164309364685881 0.14774444984661658
3820000000.0 -0.16862016451630715 0.013225437081697086
3840000000.0 0.14413422751792598 0.061906355949098504
3860000000.0 0.14347493209081383 0.02600433923197299
3880000000.0 -0.07052587008619011 0.1212719085346622
3900000000.0 -0.006186674609345122 -0.13734091009230384
3920000000.0 0.09355991236234953 0.1116701082593416
3940000000.0 0.1476533088612363 -0.06038459319871373
3960000000.0 0.10768568077281403 0.13926510782937454
3980000000.0 -0.03581141114935142 -0.18321935029375366
4000000000.0 0.05175036669876923 0.17735055163132316
