! Created with skrf (http://scikit-rf.org).
# Hz S RI R 50.0 
!freq ReS11 ImS11
400000000.0 0.2503287576364165 0.8358111979625114
420000000.0 0.6439118082498199 0.5682670921757106
440000000.0 0.7813688519665695 -0.26166483234831306
460000000.0 0.23196565211886183 -0.7499895503802922
480000000.0 0.6986693013336033 0.007488744930194668
500000000.0 0.529803032792997 0.21226494451370606
520000000.0 0.40220428062074315 -0.2963723899810022
540000000.0 0.3987621427837433 0.18564229110186783
560000000.0 -0.349860316624624 -0.10727729989127924
580000000.0 -0.04764417001176384 0.3427975041977574
600000000.0 0.24344631946467746 -0.24297134884240146
620000000.0 -0.2769417950883454 0.22689804189381796
640000000.0 -0.022083479858362072 0.3837345647526591
660000000.0 0.1288502864954499 0.3781663378872823
680000000.0 -0.42107060177489475 -0.06681594992832768
700000000.0 0.4276246082300091 0.11838405361001439
720000000.0 -0.2925742850358309 -0.3354897996806344
740000000.0 0.202355981061115 -0.3841755055573883
760000000.0 -0.3638162786368295 0.19049820179640015
780000000.0 -0.0013064402200383563 -0.370144942721557
800000000.0 -0.18436502152075818 0.27636404081418
820000000.0 0.0019761005790484743 -0.2752241473456948
840000000.0 0.17405288951180223 -0.152369280018396
860000000.0 0.08182662935300396 0.18475882856569292
880000000.0 0.13602278378935248 0.05525007193743051
900000000.0 -0.03481073320080436 -0.08624248765473672
920000000.0 0.061618159190177935 0.016042566838702938
940000000.0 -0.04242521301630903 -0.007963603514665555
960000000.0 -0.04790007310585893 0.014961993879403666
980000000.0 -0.012721880582702518 0.07051878349610852
1000000000.0 0.08455281727044116 -0.005763969874171225
1020000000.0 0.05971467562871408 -0.08491205222491711
1040000000.0 -0.005896585255265053 0.11006020812430418
1060000000.0 0.018246617060372932 -0.13574020961312977
1080000000.0 -0.06530791640698573 0.1296425601045659
1100000000.0 -0.013784253658436612 -0.16446500537192374
1120000000.0 0.19001829485436517 -0.02550089546778448
1140000000.0 0.04880452745987063 -0.231582994083182
1160000000.0 -0.14917465491484672 -0.240671184288429
1180000000.0 -0.29656444069493687 0.13899790407940638
1200000000.0 -0.1428044470258419 0.3294399329790158
1220000000.0 -0.3110210182740331 -0.2226634287136933
1240000000.0 0.38854997904078586 0.10482181555226276
1260000000.0 -0.24116274200264243 -0.3480260542207742
1280000000.0 -0.015229626168511562 0.43686910439036614
1300000000.0 0.4183383029180398 -0.15141707244375965
1320000000.0 -0.20953158903764543 -0.38739196712278356
1340000000.0 -0.13538521293741573 -0.41179031934725274
1360000000.0 0.07639849747717396 -0.42030882037856926
1380000000.0 -0.10203199925667077 -0.41350973958360754
1400000000.0 -0.37238762390506625 -0.17449687677534115
1420000000.0 -0.3045671442027408 0.2494624921426877
1440000000.0 -0.09106679306452341 0.3600382310271382
1460000000.0 0.25686481706022435 0.23454961730696053
1480000000.0 0.26500617398069287 -0.18431297024592233
1500000000.0 -0.2744004873782061 -0.11101593221766247
1520000000.0 -0.07779831897372272 0.2576033043357282
1540000000.0 -0.23471111288460123 0.0365769181524048
1560000000.0 -0.17725932724084364 -0.09196546632633346
1580000000.0 -0.01335691662325426 -0.1676881558048742
1600000000.0 -0.1350725170420548 0.002362636059886467
1620000000.0 -0.04623607528678161 -0.09193028092753437
1640000000.0 0.06880857242021646 0.044107003114859725
1660000000.0 0.05742394864493766 -0.018128863216644607
1680000000.0 -0.013875124238917923 0.03618062993256773
1700000000.0 0.017624848781252894 0.011637439679964428
1720000000.0 0.004404611433888713 0.0006674212908303157
1740000000.0 0.01320123130953201 -0.016845287063895244
1760000000.0 -0.006247087699101284 0.04277187478905714
1780000000.0 -0.07366660200236273 -0.017616737487714376
1800000000.0 0.03384223195448755 0.10561813082629688
1820000000.0 -0.1341960451724497 0.03816628092351856
1840000000.0 0.13714352917898973 -0.10289613138616717
1860000000.0 -0.19664471781365425 0.0316760043669765
1880000000.0 -0.15023502537100514 0.17410629997537647
1900000000.0 -0.0076020814325397385 0.266999722417845
1920000000.0 0.30323902634555483 -0.023645813284326207
1940000000.0 0.04924597782590456 -0.3389034308629837
1960000000.0 -0.32451013923114463 0.1902149508893047
1980000000.0 0.39295490107458175 0.08373797137858849
2000000000.0 -0.01854216081833825 -0.4222196990609845
2020000000.0 -0.3488328020189237 0.2593023620963663
2040000000.0 0.23808604419073823 0.36893191385591484
2060000000.0 0.3810942765302501 -0.2143460421046152
2080000000.0 0.059577174243420135 -0.4258858165607297
2100000000.0 -0.06080979140668301 -0.4172020428774174
2120000000.0 -0.20644984366334854 -0.3560841476246254
2140000000.0 -0.3575820628115058 -0.1804725006446093
2160000000.0 -0.030324584278219355 -0.3847384459655445
2180000000.0 -0.1880044582016918 -0.3189405906420878
2200000000.0 -0.2846344597079364 -0.215125788610971
2220000000.0 -0.34604349227043335 -0.03229673923305433
2240000000.0 -0.28054771583087523 0.1978178667931353
2260000000.0 -0.13921230596472756 0.31376610503018204
2280000000.0 0.03703673129620333 0.34669397375924715
2300000000.0 0.3637608271366155 -0.006494379189966996
2320000000.0 -0.05527145443781 -0.3844803995895851
2340000000.0 -0.3575746406614636 0.21879880385252834
2360000000.0 0.4495485852450079 0.08953546788788837
2380000000.0 -0.44526026786656236 -0.23645867687442168
2400000000.0 0.4331299701435801 0.34644688050047956
2420000000.0 -0.5653875251750174 -0.22071232420324435
2440000000.0 0.6355901003279013 -0.16435124337121912
2460000000.0 -0.41224341190554153 0.5631275842348212
2480000000.0 0.12331482449287876 -0.7191079054078107
2500000000.0 -0.07792406632619275 0.7463105583817803
2520000000.0 0.24547865048484574 -0.7208639734745016
2540000000.0 -0.5289214678093871 0.550642245538251
2560000000.0 0.7550783565353422 -0.0698868850918289
2580000000.0 -0.4629185060876354 -0.5810944589354834
2600000000.0 -0.13881493964283265 0.7055000522293856
2620000000.0 0.6120845708178801 -0.31516298923592395
2640000000.0 0.3976816874523846 -0.5143210190782211
2660000000.0 -0.6058171116011943 0.005374955428647214
2680000000.0 0.359160422016095 0.4282503876826249
2700000000.0 0.003041194395320395 -0.5124727308018384
2720000000.0 -0.2628966774589265 0.38340297560300224
2740000000.0 0.36135065917755144 -0.2165405476297006
2760000000.0 -0.36274121450706376 0.1195537980707653
2780000000.0 0.24767115878323978 -0.24900629094410331
2800000000.0 -0.050805769781861305 0.32119073252403707
2820000000.0 -0.24527141651302964 -0.18548240712349762
2840000000.0 0.2807860867325472 -0.09320574933647578
2860000000.0 -0.11304514995868212 0.26915086159893803
2880000000.0 -0.08340622874658374 -0.2800561335895154
2900000000.0 0.11664641589711171 0.27088003898767454
2920000000.0 0.1695042428028677 -0.24743631536682173
2940000000.0 -0.294012672371654 -0.09062145469338612
2960000000.0 -0.2350321628495434 0.2024050218544533
2980000000.0 -0.2725710809918326 0.15815867095757175
3000000000.0 -0.310003255328194 -0.06996567958344746
3020000000.0 -0.07175919341038785 -0.31052006580640024
3040000000.0 0.3157154367205343 0.022525801141804837
3060000000.0 -0.29553985021948126 0.10160506128705317
3080000000.0 0.22252575161251315 -0.210115157938386
3100000000.0 -0.14957813821956245 0.2591648838290865
3120000000.0 0.17815238513855888 -0.22857947566808845
3140000000.0 -0.072618051953386 0.2708991593314876
3160000000.0 -0.01038154947623647 -0.26552964491057307
3180000000.0 -0.22424979551708638 0.10996262932729677
3200000000.0 -0.04623690100842219 -0.22429372428616823
3220000000.0 0.16173964919345982 -0.12155854864511785
3240000000.0 0.12260765710556519 0.12052853642083913
3260000000.0 -0.13501787068050092 -0.027807698769514125
3280000000.0 0.08264164895841491 -0.06460046794936564
3300000000.0 -0.0737450794816352 -0.013603181977150703
3320000000.0 -0.023102615795599492 0.040566562342565844
3340000000.0 -0.021280836788625673 0.007122192473077318
3360000000.0 0.003030804418328178 0.003279320390328652
3380000000.0 -0.007214557515911904 0.007204736895907053
3400000000.0 -0.021808866405456293 -0.0037198561598904244
3420000000.0 0.014113839441483736 -0.03246351652962173
3440000000.0 -0.000995557446787555 -0.04744407201749816
3460000000.0 -0.014764252740658968 -0.05454146768290786
3480000000.0 0.06732322773692839 -0.011620589932836562
3500000000.0 -0.023862810022465642 -0.07933306334101989
3520000000.0 -0.07558896299309621 0.060672224356255175
3540000000.0 0.0384733727245618 -0.1043221627193523
3560000000.0 -0.017797638119640417 0.12325785155741821
3580000000.0 0.07405122295265276 -0.11621895472512912
3600000000.0 0.10662596185796029 0.1144775757957924
3620000000.0 0.05680013714470926 0.15856048138131715
3640000000.0 -0.13519041736881682 0.11757387727022042
3660000000.0 -0.1867494242201055 0.026540977403259537
3680000000.0 -0.15432226118978326 -0.1159637593876435
3700000000.0 -0.04648842532519213 -0.1877250675552766
3720000000.0 0.16175580440477777 -0.10594459947180479
3740000000.0 0.18881475977021528 -0.020364283743642807
3760000000.0 -0.1675033027112475 0.07244992605643354
3780000000.0 0.12450696613414265 -0.1192261843202329
3800000000.0 -0.10155346732518523 -0.12627101333085325
3820000000.0 -0.14548677365599993 -0.04787927426023523
3840000000.0 0.05967113433724501 -0.133553931863227
3860000000.0 -0.006272126944280302 0.14754005670433337
3880000000.0 -0.051479090224679794 0.14580870626079231
3900000000.0 0.15080811983252482 0.05567833609377419
3920000000.0 -0.1575584334208238 -0.055689938048493
3940000000.0 0.12125056180830109 -0.12130667948445688
3960000000.0 0.17412584466503842 0.005024935638632965
3980000000.0 0.0803631263282185 -0.1535945860646457
4000000000.0 0.024852630660026073 -0.16322285622492877
